!Created with skrf (http://scikit-rf.org).
# Hz S RI R 50.0 
!freq ReS11 ImS11
400000000.0 -0.6506156030069546 0.5002418115298968
420000000.0 0.7082713566749601 -0.24866011578103384
440000000.0 0.5573529029263582 0.45611584786406334
460000000.0 -0.07668013429273648 0.6728985555816759
480000000.0 0.5139991429070295 0.26725679764096877
500000000.0 0.041814175212485184 -0.4679136785568146
520000000.0 -0.29968382976529073 -0.26625343159109766
540000000.0 0.4723587961932586 -0.025361327084352504
560000000.0 -0.07473000083084327 -0.4701696432119493
580000000.0 0.40037172532985293 0.10062825748101958
600000000.0 -0.16162939439972032 -0.3262033814131143
620000000.0 -0.2776246091610888 -0.25105055018228734
640000000.0 0.10874344244509156 -0.35004553410299144
660000000.0 0.05497867821850457 0.34265259591544817
680000000.0 0.2839777204692365 0.19586837881011004
700000000.0 0.04519216947499197 0.3259034539676841
720000000.0 0.2947119522088111 0.1886807876514974
740000000.0 0.23141203062237287 0.21841590384259196
760000000.0 -0.3131213463478456 0.02667047576405609
780000000.0 -0.29289762613644815 -0.014205525080104277
800000000.0 0.17422954951900282 -0.174493939244232
820000000.0 -0.20647700103029606 -0.05171898875057037
840000000.0 -0.018089134121922392 -0.21307582497091826
860000000.0 -0.17985782592763072 0.034122205942766624
880000000.0 0.1841935915143195 -0.005017427571431675
900000000.0 -0.1171532753930517 -0.10805368056806497
920000000.0 0.14778543291563545 0.0377249736655574
940000000.0 0.13069308967213308 0.014924759327510358
960000000.0 -0.0913418215534385 0.06071383840142781
980000000.0 0.03915076572240589 -0.05852072679446034
1000000000.0 0.03876877078320363 0.008080643863376886
1020000000.0 -0.03646922068899087 0.024671069312151434
1040000000.0 -0.008417866821281534 -0.07740636382139722
1060000000.0 -0.05534191092083085 0.09790609069226788
1080000000.0 0.13348824690389113 0.0817060823041933
1100000000.0 0.09284343901289174 -0.15281177764413215
1120000000.0 -0.1724150790441579 0.1178847594192735
1140000000.0 0.22281213321008547 -0.12005284038128283
1160000000.0 0.2276801934283593 -0.17213179744673987
1180000000.0 0.2797607653723697 -0.12930208227495132
1200000000.0 0.23349075200267633 0.21888060087738245
1220000000.0 0.326430949281199 0.013551052452895028
1240000000.0 -0.24605361449174273 0.2221044584794441
1260000000.0 -0.27027922662155757 0.20032261751868005
1280000000.0 -0.323544131591205 -0.09249023724079582
1300000000.0 0.2984340235233556 -0.17995209774418364
1320000000.0 0.24877973060712258 -0.2602506093843372
1340000000.0 -0.030031766316205983 0.36333345776353443
1360000000.0 -0.35329272570468495 -0.13372006108576884
1380000000.0 0.18358443646711223 -0.32855547598988666
1400000000.0 -0.23169298768949725 0.2938782859520995
1420000000.0 0.29236187303222877 0.22719436295029583
1440000000.0 0.364622357547926 -0.025272132584520973
1460000000.0 0.2673617754914947 -0.24061940862789893
1480000000.0 0.048556166830656416 -0.34562296279351723
1500000000.0 -0.15610568673461955 0.30092255582943217
1520000000.0 0.29279992858387777 -0.10473084578843948
1540000000.0 -0.26497677085872673 0.08796899790504477
1560000000.0 0.02838069378964314 0.24011840620082053
1580000000.0 0.07358072013132566 -0.19952681218713297
1600000000.0 -0.020185137801475107 0.17904073713090882
1620000000.0 0.1510459942918903 -0.04525903489226208
1640000000.0 0.04359125491302908 -0.1256012532804673
1660000000.0 -0.09602156075072314 -0.017263482621731545
1680000000.0 -0.052307792064962465 -0.06993741240037206
1700000000.0 0.014373432123586983 0.07431428313895876
1720000000.0 0.04537512145838038 0.023939221128984445
1740000000.0 0.008108904295676556 -0.05046520352043207
1760000000.0 -0.04645801930971743 -0.04471554224240796
1780000000.0 0.00463910250455712 -0.09532323808312161
1800000000.0 0.11601353255124928 -0.055718227541798664
1820000000.0 0.05649444587494048 -0.14794616529880902
1840000000.0 0.043600469850398615 0.19062311505279228
1860000000.0 0.2228384793710638 -0.024772434986644103
1880000000.0 0.16928140236020084 -0.17654512425086097
1900000000.0 0.18321342349175126 -0.1957840307944716
1920000000.0 -0.28241123571438564 -0.06532340245610548
1940000000.0 0.2351104028026367 0.19418103249862534
1960000000.0 -0.3082504564924504 0.06361304655086615
1980000000.0 -0.18517978856357503 -0.25443279284476394
2000000000.0 0.30928590314074184 -0.04847400379367513
2020000000.0 0.16511799829963605 0.2639365081427504
2040000000.0 0.052225217492699344 0.30722364158008014
2060000000.0 -0.15748448617649435 0.26291776809196205
2080000000.0 -0.3007833995400273 -0.01714368730040055
2100000000.0 0.1548636590656168 0.2652453224558251
2120000000.0 -0.21559999275510283 0.21864418422057671
2140000000.0 -0.08677240631846667 -0.28707521807008246
2160000000.0 -0.09841494938489387 0.28016690690558
2180000000.0 0.20425313915091434 0.20487379827406932
2200000000.0 0.22661792359083233 -0.16938480045366588
2220000000.0 0.2487370421270274 0.1150588024494494
2240000000.0 0.13368159315955835 0.23789955134546723
2260000000.0 -0.17710025255486464 0.18523401873186332
2280000000.0 -0.04895901331740838 -0.24137499765528472
2300000000.0 0.18560315504410224 0.1576018042445694
2320000000.0 -0.13767314132185277 0.18464873705360216
2340000000.0 0.21104864043863142 -0.07457821951781478
2360000000.0 -0.15447086649886574 0.15764881666764635
2380000000.0 0.21428424474742505 -0.08275426940788345
2400000000.0 0.19299340735487916 0.16079173154340737
2420000000.0 0.24960872624350705 -0.11932039197249686
2440000000.0 -0.22110326297896055 0.21158084611090838
2460000000.0 0.03328005572515693 -0.33416471646406726
2480000000.0 -0.36586991209748426 0.05394481067282496
2500000000.0 -0.1258974990201739 -0.39061728472636237
2520000000.0 0.4396701937867949 -0.07343488425886553
2540000000.0 -0.043017693467743326 0.47772667269865693
2560000000.0 -0.256056278099307 -0.4457225670743356
2580000000.0 0.47917376533183326 0.2640390020435403
2600000000.0 -0.5607719361608082 0.1175779836541585
2620000000.0 0.4028569861021472 -0.4384981043864062
2640000000.0 -0.007946251679625633 0.6128656791446925
2660000000.0 -0.5509207666327918 -0.2971623022427941
2680000000.0 0.28404990081866405 -0.5666570480215671
2700000000.0 0.640780463181479 -0.010027775763175225
2720000000.0 0.5885948610467663 0.2604819688772098
2740000000.0 0.5596633931446398 0.3209155454529232
2760000000.0 0.5300916393899479 0.3633751322692553
2780000000.0 -0.5769009006119836 0.26725691584228717
2800000000.0 -0.6180020047171946 -0.11306279836740937
2820000000.0 -0.14469032878302587 -0.5984845514161459
2840000000.0 0.5666759296009678 0.2064537200816766
2860000000.0 -0.5665908808328316 -0.17272875365514023
2880000000.0 0.48497012246350063 0.31328687174802716
2900000000.0 0.1525391326393831 -0.5384862577270171
2920000000.0 -0.5059644459703301 -0.19058527120413055
2940000000.0 -0.3164972983805591 0.40712928886258415
2960000000.0 -0.12552517949785363 0.4780340426204546
2980000000.0 0.3649723867889915 0.30302120569436236
3000000000.0 0.2423258664710949 -0.3771792154314936
3020000000.0 -0.4234755027129857 -0.02635436195883242
3040000000.0 0.19345298642662304 0.3476536280901035
3060000000.0 0.010068430660766074 -0.3762212204269491
3080000000.0 -0.01794700451978263 0.35055958937962467
3100000000.0 0.12564473162513345 -0.309990864402327
3120000000.0 -0.14044332964288625 -0.29447410783223876
3140000000.0 0.2509879132021396 0.19279303481749901
3160000000.0 -0.03452045362191155 -0.31309688090153487
3180000000.0 -0.10105323068157593 0.29895053486859596
3200000000.0 0.015984296912124663 -0.30643150605785036
3220000000.0 -0.287714003344737 -0.061490815954597836
3240000000.0 -0.2776515733627374 -0.021533035229524777
3260000000.0 -0.15620973581335357 -0.21207716887958108
3280000000.0 0.10324580459363049 -0.22380406340808737
3300000000.0 0.05024402430023721 0.22574223943722577
3320000000.0 -0.20954675868667214 -0.037441520226811756
3340000000.0 -0.009359757789603115 -0.1923954584419529
3360000000.0 -0.07835015802543552 0.14881246170534743
3380000000.0 0.03258220026153406 -0.13947052924938752
3400000000.0 0.12114150326550135 0.011383716428336153
3420000000.0 0.1074185211382661 0.028919582066100267
3440000000.0 -0.03751781328910067 -0.0951034497249121
3460000000.0 -0.012199007312658192 -0.09555274777555908
3480000000.0 0.029413124192585627 -0.08072570672334654
3500000000.0 -0.0702769602735353 0.024757199417459384
3520000000.0 -0.06500105787687635 -0.02423466703504214
3540000000.0 0.03696673091520553 0.051550887638762824
3560000000.0 0.016270482221391293 0.06222402761857529
3580000000.0 0.07462476835247044 -0.00800482480078233
3600000000.0 -0.08332004231010426 0.018982595546131943
3620000000.0 -0.0006767125094943956 0.09648442994143806
3640000000.0 0.09709484307785475 0.038302563825090355
3660000000.0 -0.03504171426156933 -0.09684154625105747
3680000000.0 0.06932425271319367 -0.07363812194325788
3700000000.0 0.01788778302081254 -0.09372986041689327
3720000000.0 0.052667712094809846 0.06779735703700739
3740000000.0 -9.785724254155093e-05 -0.07447159413308531
3760000000.0 0.06686141884800176 -0.016353408067319747
3780000000.0 0.05509844451785545 0.025049718859880176
3800000000.0 0.008087341198909248 -0.04407597988833728
3820000000.0 0.020789098727910692 -0.029337465145281218
3840000000.0 0.01639099742133757 -0.05107680934923655
3860000000.0 -0.06356635540202615 -0.03997755743619974
3880000000.0 -0.09554031749021209 -0.004475561522043114
3900000000.0 -0.07713005721580941 -0.06686536214445712
3920000000.0 -0.02642953174691396 0.1012712274099316
3940000000.0 0.09785885749228336 -0.041638747398529644
3960000000.0 -0.09989682625048293 0.03351382535449152
3980000000.0 0.08914764926498607 0.03339992428645362
4000000000.0 -0.010323324974518744 -0.08352425691004048
