!Created with skrf (http://scikit-rf.org).
# Hz S RI R 50.0 
!freq ReS11 ImS11
400000000.0 0.7345243832715649 -0.45661972626598557
420000000.0 -0.23154408014842293 0.7722415087562671
440000000.0 -0.1989686770316994 -0.7567262424008804
460000000.0 0.721861430690143 0.2301575625891163
480000000.0 -0.3075412706988583 -0.659464225977055
500000000.0 0.6721988588918505 -0.032544966564893155
520000000.0 -0.09949948952966045 0.5423858255904122
540000000.0 -0.1743045134788721 -0.4188836866057418
560000000.0 0.3517793131250913 -0.07249601778959967
580000000.0 0.24538702343132474 -0.2274258091821081
600000000.0 0.2473745429145601 -0.23062587274784807
620000000.0 -0.24742182512694408 0.2613572066660134
640000000.0 -0.3717758799292067 0.07318038497100957
660000000.0 0.15900521791235905 -0.37748978493435803
680000000.0 -0.32285817400816164 -0.20414639155012212
700000000.0 0.26546860040588627 0.23733752597755936
720000000.0 -0.3654958089538371 0.011540213613139044
740000000.0 0.175040106769411 -0.28857318932373555
760000000.0 -0.2622311244737255 0.13720655904682127
780000000.0 -0.3176858261088253 0.029818396649600228
800000000.0 -0.2737985152825403 -0.15060891746032726
820000000.0 0.2776188411732878 0.09149374669197724
840000000.0 0.16638410862486866 -0.19284312975169743
860000000.0 0.012553559662579324 -0.20153114564323912
880000000.0 0.05568061091180684 -0.15987500066450572
900000000.0 -0.11641986382215837 0.012676440453340362
920000000.0 0.052663119716376376 0.10142710225294194
940000000.0 0.10318277671418026 -0.06170159822619794
960000000.0 0.05149957275122187 0.07088401185815912
980000000.0 -0.020775848796992045 0.0511868267545857
1000000000.0 -0.03639025487486247 0.02756135864692768
1020000000.0 0.010608579554646528 0.06046966019465659
1040000000.0 0.07750063981233461 0.05606118392572969
1060000000.0 -0.13812417199176696 0.025972919357019317
1080000000.0 -0.17976280684716023 -0.018288197571253703
1100000000.0 0.04866190919356112 0.19653602918452304
1120000000.0 -0.10886003270110059 -0.19508549112584303
1140000000.0 0.18272183232537942 0.19278821051033088
1160000000.0 0.15058180924014386 0.23116626967195067
1180000000.0 -0.25305569997076705 -0.137839748106699
1200000000.0 -0.015601897078155878 0.2996845133613419
1220000000.0 -0.31153334639348923 -0.09595368055657699
1240000000.0 -0.31151512371441237 -0.09940656548515596
1260000000.0 -0.11660101818423267 -0.31545542758990724
1280000000.0 0.30312757321334177 -0.14010419412754074
1300000000.0 0.3486108986024816 -0.027396048822304092
1320000000.0 0.21601664156558226 0.28291488784597485
1340000000.0 0.03186346724497908 -0.36764589186160157
1360000000.0 0.27519952499243594 -0.2622133404155974
1380000000.0 -0.000307571832064316 0.3825596616786739
1400000000.0 0.16428730851684792 -0.35142495773232807
1420000000.0 -0.232330099695857 0.3086948617791783
1440000000.0 0.3581642074181439 0.11853614932085474
1460000000.0 0.08932299033769617 -0.35556397087386166
1480000000.0 -0.361412233653205 0.04009981730944749
1500000000.0 0.32589347946698627 0.04730175508983041
1520000000.0 0.2220820909826689 -0.21540561781273412
1540000000.0 -0.28701821633753594 -0.0025980172903987023
1560000000.0 -0.24998782204653797 -0.033168221730091936
1580000000.0 0.12567607392091062 -0.17001363947666806
1600000000.0 -0.03419978760457093 0.17582591983823376
1620000000.0 -0.09778758665992761 0.10384952046142311
1640000000.0 0.06838094289317448 0.09529393456973172
1660000000.0 0.03496723280654118 -0.08995259056447787
1680000000.0 0.03385788101042561 -0.06439869896286801
1700000000.0 -0.037041974593165876 0.03976395930986795
1720000000.0 0.030705024350049796 0.02518512321722554
1740000000.0 -0.051921286454545704 -0.009333088944159516
1760000000.0 0.07058532137694604 -0.04415063104340256
1780000000.0 -0.007814445589771993 0.11051560011356237
1800000000.0 -0.0715884925002966 0.11622848241133353
1820000000.0 -0.1587786417439542 -0.03981374320926521
1840000000.0 0.05101171558654454 -0.18062250236975508
1860000000.0 0.2155259734170278 -0.04974336787550575
1880000000.0 0.20323057748477863 -0.13286680580777827
1900000000.0 -0.2419883529410662 -0.10628981983340138
1920000000.0 0.026477552298445402 0.2818994250238937
1940000000.0 -0.07963535626691916 -0.2824697743760966
1960000000.0 -0.044385704513434994 0.29502043399923855
1980000000.0 -0.21358344643606442 -0.2106375851071655
2000000000.0 0.20950782575591279 -0.22484020806627783
2020000000.0 0.2955259969532736 0.06421517816084278
2040000000.0 -0.19016490232862396 0.23716501576389376
2060000000.0 -0.2889072972152309 0.10510303948799406
2080000000.0 -0.30406971194836063 -0.04172319687403821
2100000000.0 0.08107572598326339 0.2972390301874255
2120000000.0 -0.28846184031641825 0.11095611139078024
2140000000.0 0.22623346803226357 -0.20199147719923116
2160000000.0 -0.297853246187427 -0.014178664222989558
2180000000.0 -0.13435813591019843 0.25150028352781556
2200000000.0 -0.28123079337187035 -0.013518886313595014
2220000000.0 -0.19057792714865882 -0.20634745439554317
2240000000.0 0.006108524749158911 -0.2808648702905531
2260000000.0 -0.01427681248815252 -0.2757310250863795
2280000000.0 0.02973173721158923 -0.26110834369291536
2300000000.0 0.24109857405039742 0.06338604309454995
2320000000.0 -0.18794589501628445 0.1541023258754496
2340000000.0 -0.08731358963972785 -0.21892885523806377
2360000000.0 0.1347454632090607 0.18204298127753146
2380000000.0 -0.0959524374972832 -0.21142449190954643
2400000000.0 0.2237671017768586 -0.07969158657024503
2420000000.0 0.20561192741727277 0.1581852417932531
2440000000.0 0.2581689011921709 0.12528830347109704
2460000000.0 -0.2025625896550676 -0.2524324549563254
2480000000.0 -0.13375085034235384 0.33484535733115806
2500000000.0 -0.2929514326864189 -0.2732213408357511
2520000000.0 0.34758287463839227 -0.2729840620355313
2540000000.0 0.24419469057518942 0.4169332704528258
2560000000.0 -0.5152821485714542 0.04971223696752478
2580000000.0 0.23429297818063805 -0.4988820490201099
2600000000.0 0.08704959857751945 0.5703801762923487
2620000000.0 -0.3457476864695997 -0.4962991088856114
2640000000.0 0.6112240232937028 0.10828641276475891
2660000000.0 -0.4697127011850392 0.4328951120146522
2680000000.0 -0.37328023151216533 -0.5320515601059987
2700000000.0 0.3922562078547967 -0.5301727764115904
2720000000.0 0.6476723027340702 -0.15583204756620983
2740000000.0 0.6685011067593933 -0.06210777200484182
2760000000.0 0.667304609628941 -0.08736349246638393
2780000000.0 -0.026678862406183577 0.6690178637408265
2800000000.0 -0.2638930465981811 0.6083855470167328
2820000000.0 -0.58525687282482 0.28932095797180934
2840000000.0 -0.3241055625672013 -0.55359836905083
2860000000.0 0.6113309867893704 0.14367205120921625
2880000000.0 -0.6019440463208381 -0.1133358224011101
2900000000.0 0.36171696481163634 0.4743852414849368
2920000000.0 0.35644225080473235 -0.4533284867067551
2940000000.0 -0.44868328220385184 -0.3233969610664699
2960000000.0 -0.49024373228536977 0.20374584404339952
2980000000.0 0.09147895868958825 0.49754956092942065
3000000000.0 0.48437471064722853 0.028890848590152226
3020000000.0 -0.2932490645261674 -0.35708733687187655
3040000000.0 0.20659612944217728 0.3810645418208269
3060000000.0 0.07829889596127274 -0.39438503229680316
3080000000.0 -0.17581830832058354 0.3368743533704003
3100000000.0 0.1953330865821686 -0.30446278008057076
3120000000.0 0.04511175438021872 -0.34322817343255846
3140000000.0 -0.009099095279539367 0.3422921341907568
3160000000.0 -0.03132665725360289 -0.33971902442571694
3180000000.0 0.20001174074415176 0.2659109519530963
3200000000.0 0.20889334902563436 -0.24439502370640773
3220000000.0 -0.20052773286584444 -0.2436379784046969
3240000000.0 -0.17928936452319147 -0.24232426791191278
3260000000.0 -0.2284948078642245 -0.17618912347307286
3280000000.0 0.1346937757560553 -0.24054960802140973
3300000000.0 0.1167600316945998 -0.2262655192953866
3320000000.0 0.2171180347256484 0.06449365983783062
3340000000.0 -0.1461444363610655 -0.14027269177596455
3360000000.0 -0.131109971459253 0.1270334957008921
3380000000.0 0.13075990064115547 -0.09323878114664078
3400000000.0 -0.08377474334539484 -0.12127485853009462
3420000000.0 0.06523987969728427 -0.12015295876123408
3440000000.0 0.08571871599819136 -0.08080072654222048
3460000000.0 0.06488012279973698 0.07244244213098655
3480000000.0 -0.062152447578508366 0.06634270308763333
3500000000.0 0.05370347869959986 -0.05740809274929931
3520000000.0 0.05295776210095247 -0.052276139067676954
3540000000.0 0.06900863575806425 0.03691362454160485
3560000000.0 0.08292516250846191 -0.0046928509358742125
3580000000.0 0.03829254579744139 0.08130639943440127
3600000000.0 -0.017717451130189854 -0.09239955492560155
3620000000.0 -0.07228821062817298 -0.06683025104451762
3640000000.0 0.07459293075427988 0.06849292145099417
3660000000.0 0.011554809812097054 -0.10183870540057526
3680000000.0 0.1094629834531598 0.008701711648791535
3700000000.0 0.02702057925582844 0.10906443971413628
3720000000.0 0.10109185136093513 0.0037418412446426296
3740000000.0 0.04968097655315753 0.07031353729915157
3760000000.0 -0.0615824537513147 -0.019104154181934434
3780000000.0 0.04023203714119959 0.041221352619577836
3800000000.0 -0.048742015482284455 -0.026833669181037703
3820000000.0 0.010011626682680536 -0.047597532074693825
3840000000.0 0.05087248260090352 0.014147286538449157
3860000000.0 -0.025356674464108067 -0.055400211011638736
3880000000.0 0.02595041894348762 0.08197979985254561
3900000000.0 -0.1036467720726908 0.011306445305029047
3920000000.0 0.049722709340322975 0.1020958321242212
3940000000.0 0.06861591589146367 0.08781033856178307
3960000000.0 -0.012834974513048414 -0.09762281101611707
3980000000.0 0.06913521858854486 -0.055471524991745576
4000000000.0 0.06323044343952146 -0.04525895629223566
