!Created with skrf (http://scikit-rf.org).
# Hz S RI R 50.0 
!freq ReS11 ImS11
400000000.0 0.7683611706925415 -0.39282806585497915
420000000.0 -0.2610837047255614 0.7666988612235999
440000000.0 -0.1752462961132095 -0.7634355402554185
460000000.0 0.7219696286705886 0.24063799716513365
480000000.0 -0.47637156496713995 -0.5497000027544203
500000000.0 0.667169836374472 0.06415672983138573
520000000.0 -0.13924260325225676 0.5338856039734067
540000000.0 0.24767077707337715 -0.37721516108800673
560000000.0 0.1758849763300134 -0.32400638932939
580000000.0 -0.2675872000649043 -0.18870445271007563
600000000.0 0.05826160325162106 0.32100328921833754
620000000.0 -0.2641068373719573 0.24781956535067504
640000000.0 -0.287182496729234 -0.25735385664431165
660000000.0 0.08779280338127654 -0.40345176307485353
680000000.0 -0.37962264263447637 0.07004830689758054
700000000.0 0.24201364933287592 -0.2545265146190615
720000000.0 -0.36270036951800133 -0.013466160971790786
740000000.0 0.25053685354035554 -0.21660497219335562
760000000.0 -0.006338545885439414 -0.30092552036545395
780000000.0 0.023722219577347166 0.3253510469552679
800000000.0 -0.26237277174112483 0.15113884261678767
820000000.0 -0.1209526809033619 0.2543832467193031
840000000.0 -0.13886916921108738 0.22305218831638854
860000000.0 -0.19046171030331432 0.09586697459425687
880000000.0 -0.16190534639707416 0.049759742580389676
900000000.0 0.1112512914048667 0.025637375822484522
920000000.0 -0.08004819256916494 0.069728637220828
940000000.0 -0.10921102212108916 -0.05652171485537356
960000000.0 -0.011218910373691686 0.09706929038969976
980000000.0 -0.02448514576253506 0.048832627180125564
1000000000.0 0.024391970794399944 0.03766821929627842
1020000000.0 0.01735785780045951 -0.06346878600789001
1040000000.0 0.06522153538296117 0.07783672368804723
1060000000.0 0.11401955301330573 -0.0872593459979309
1080000000.0 -0.16906501889766617 0.024632675127857957
1100000000.0 -0.17742507144440517 -0.10387362231860925
1120000000.0 -0.21802326627972318 -0.07280472222409425
1140000000.0 0.2613360661650356 -0.045141127628851835
1160000000.0 0.1900598837622058 0.18952819174236749
1180000000.0 0.06686532140230861 -0.2790455813994617
1200000000.0 -0.08199841298903796 0.2927344649063025
1220000000.0 -0.32483777960912785 0.042633166079357104
1240000000.0 -0.27968610401261096 -0.165034324923328
1260000000.0 -0.015933600118546182 -0.33588786611778454
1280000000.0 0.20120812824521972 -0.27119382651562246
1300000000.0 0.2671146820279528 -0.22264978269833274
1320000000.0 0.21208501708931107 0.2772223853803047
1340000000.0 0.10179443964881839 -0.35288868595056616
1360000000.0 0.2922086990763896 -0.2390980406286834
1380000000.0 -0.17822102160093403 0.3377221465401853
1400000000.0 0.10551133164057214 -0.3760074245040361
1420000000.0 -0.15033571094148368 0.35490960353483036
1440000000.0 0.29584594878027876 0.23202898569843133
1460000000.0 0.31034366458261775 -0.19950490370276294
1480000000.0 -0.3572007613073146 0.07893002476362063
1500000000.0 0.3052152424883659 -0.12560737979374628
1520000000.0 0.11279193908238629 -0.28912362470741554
1540000000.0 -0.2769631405949049 -0.06881797803477457
1560000000.0 -0.24399011129114306 -0.06684321847132188
1580000000.0 0.07181587559567969 -0.19994656478625933
1600000000.0 0.13938608432334265 0.11260380683893051
1620000000.0 -0.13939931022339805 -0.01593507808024954
1640000000.0 -0.06106281806290808 0.1024464221024101
1660000000.0 -0.0045633321669312655 -0.09575895552852946
1680000000.0 0.04914327549232109 -0.05295865983232941
1700000000.0 -0.02831009361461165 -0.045906933861927464
1720000000.0 0.001966420700220368 0.04240496993577147
1740000000.0 0.009575549398814349 -0.052435322413152595
1760000000.0 0.06971117039998172 -0.039734902469699886
1780000000.0 0.07062194344598698 -0.08582083618806517
1800000000.0 -0.11583700996763903 0.08237971783961974
1820000000.0 -0.10743793984874979 0.12441566295391775
1840000000.0 0.006333776337501354 -0.18559562004130642
1860000000.0 0.20151268598136243 0.08409708103859133
1880000000.0 0.23512880194426905 -0.06779450995268745
1900000000.0 -0.23462619139376886 -0.1224478681953027
1920000000.0 -0.025851296618501173 0.2825708224863748
1940000000.0 -0.04925535114159446 -0.2896830314196228
1960000000.0 0.05861116039945923 0.2939123319221831
1980000000.0 -0.25495609851468 -0.15818378083113782
2000000000.0 0.2093214184632461 -0.22252283667347453
2020000000.0 0.2842866112248651 0.10377977633080915
2040000000.0 -0.19574615016702784 0.23366040798607482
2060000000.0 -0.263841559067716 0.1611231613897237
2080000000.0 -0.2981021574363439 -0.07652950919061866
2100000000.0 0.05416251078202354 0.30433416625144694
2120000000.0 -0.27612569135956666 0.14180735696888702
2140000000.0 0.1923776245016101 -0.2324268436078907
2160000000.0 -0.28175202893550927 -0.08944712312378007
2180000000.0 -0.15694649116239845 0.23881696865353108
2200000000.0 -0.2779600775295312 -0.049033891550064115
2220000000.0 -0.18339923004252537 -0.2128249869526035
2240000000.0 -0.011851031520189743 -0.28009800523924144
2260000000.0 -0.06605451877714548 -0.2672770962290871
2280000000.0 3.794713529644167e-05 -0.26212433338130253
2300000000.0 0.21679153125164433 0.12018795002613133
2320000000.0 -0.21074953880651628 0.12256948774727594
2340000000.0 -0.16027736918956384 -0.1752660877020503
2360000000.0 0.1943242227308564 0.11930366142631563
2380000000.0 -0.1457288445931325 -0.17717953983933193
2400000000.0 0.21668231104430186 0.10230341711570337
2420000000.0 0.20849984288732354 0.1612390762729139
2440000000.0 0.2735886330458076 -0.08807297027936078
2460000000.0 -0.20207649332046196 -0.25177424455491987
2480000000.0 -0.17446588726255366 0.3150066355058556
2500000000.0 -0.25132674768213925 -0.3127395589981587
2520000000.0 0.36960005390404804 -0.24225942771425832
2540000000.0 0.29582434937116625 0.3827443528381339
2560000000.0 -0.5099653854211518 0.0865241107444686
2580000000.0 0.2413343500967148 -0.4957339816924409
2600000000.0 0.2100099049914546 0.5373169551198222
2620000000.0 -0.3729208887645969 -0.4749892722891067
2640000000.0 0.6212144008045286 0.027311228382480145
2660000000.0 -0.44810696930173366 0.45643667630067297
2680000000.0 -0.40296711711300837 -0.5102331612525276
2700000000.0 0.27745968924483755 -0.598164966598934
2720000000.0 0.609241680050606 -0.2680007200681427
2740000000.0 0.65563687870908 -0.14294630551150303
2760000000.0 0.6613821913276806 -0.12185402746679425
2780000000.0 -0.08974884544766483 0.6638293906414813
2800000000.0 -0.1977547077307147 0.6317580276922675
2820000000.0 -0.5603410625828724 0.3345161914543705
2840000000.0 -0.3902919385138684 -0.5080811053162575
2860000000.0 0.6239296486985183 0.052285689637953846
2880000000.0 -0.6020682959358106 -0.10498986442147797
2900000000.0 0.3551522173028774 0.4781588823212433
2920000000.0 0.27292867828337675 -0.5075433694632889
2940000000.0 -0.47773084222767637 -0.27571233193121103
2960000000.0 -0.4968918499823191 0.1843894332394118
2980000000.0 0.16131937768171944 0.48116660842140196
3000000000.0 0.4746950620335453 -0.09350878945378864
3020000000.0 -0.3229653320036855 -0.32976914134507346
3040000000.0 0.19981192437215603 0.38370501546621466
3060000000.0 0.0010357943090800563 -0.4048818003759014
3080000000.0 -0.23433046763273782 0.2998253024913614
3100000000.0 0.2555179407435752 -0.25578074914435517
3120000000.0 0.017465992145750567 -0.34557081229333586
3140000000.0 0.03908733832221461 0.339595635047313
3160000000.0 -0.04415838777313859 -0.3360415625511705
3180000000.0 0.19331408459385008 0.26702910321157697
3200000000.0 0.2809500409594669 -0.15647190167565314
3220000000.0 -0.2345423722365327 -0.21100250806748913
3240000000.0 -0.2935102645416549 -0.0670503626755157
3260000000.0 -0.2608114681538676 -0.12363823462022366
3280000000.0 0.11723067800923699 -0.2483605458460943
3300000000.0 0.12928834193644956 -0.22076460064225356
3320000000.0 0.22541314236176796 0.03889980136527259
3340000000.0 -0.1493082760931009 -0.13758196977591686
3360000000.0 -0.1828543586602974 0.015037486005796871
3380000000.0 0.1647303801799814 -0.006545578008761891
3400000000.0 -0.10981988070482125 -0.10010562603145277
3420000000.0 0.09568123363291418 -0.0938042362534403
3440000000.0 -0.003403005137670884 0.11716262711627165
3460000000.0 -0.04769431062656298 0.08953641081032059
3480000000.0 0.006916166361211635 0.09037378939762225
3500000000.0 0.02602068309069914 -0.07172408494694833
3520000000.0 0.07223667749868559 -0.0035925090445182582
3540000000.0 0.05299265080539316 0.05663272559824512
3560000000.0 0.08044987436793706 0.012515303779317165
3580000000.0 0.08978684614402989 0.009029201394089649
3600000000.0 -0.08609588423204591 -0.03717020171618987
3620000000.0 -0.05303163616014717 -0.08045105691316161
3640000000.0 -0.0872075868950934 0.05722456182611462
3660000000.0 -0.05397257456362373 -0.09233974428293698
3680000000.0 0.10726708631552306 -0.026626974128795687
3700000000.0 0.09986312224346114 0.05170488351302635
3720000000.0 0.06534818018881837 0.07562489641473681
3740000000.0 -0.052808279311956335 0.06811697479741524
3760000000.0 0.06693448477552429 0.006868107445433475
3780000000.0 0.054909990791478895 0.020999416561231804
3800000000.0 -0.04904043342774109 -0.023044197936293236
3820000000.0 0.043243170673079576 -0.023237987639343854
3840000000.0 0.03869768558083216 -0.03717255241848563
3860000000.0 0.062443965531756976 -0.010993236023941795
3880000000.0 -0.03487821856291697 0.07959822876873593
3900000000.0 -0.10415614712762045 -0.006960363360164485
3920000000.0 -0.07867586764062902 0.08334532357893232
3940000000.0 -0.030724334432190584 0.10999014892056842
3960000000.0 -0.052929584426722874 -0.08145158784630531
3980000000.0 0.08581598273860075 0.020750858905205262
4000000000.0 0.07503204280520342 0.01488703263237826
