!Created with skrf (http://scikit-rf.org).
# Hz S RI R 50.0 
!freq ReS11 ImS11
400000000.0 0.8035217269829616 -0.316651144040406
420000000.0 -0.19761443230878753 0.7850398619231918
440000000.0 -0.34696649712624017 -0.7020410377340522
460000000.0 0.6803277364520163 0.3326937193094342
480000000.0 -0.31948440444905385 -0.653435566024906
500000000.0 0.6736793944926724 -0.02640154393796572
520000000.0 0.23529570244205258 0.4969150967952659
540000000.0 0.3932759350481837 -0.21967217869251843
560000000.0 0.24913244418159736 -0.2695541458651288
580000000.0 0.1392032166577858 -0.2973564738031851
600000000.0 0.24543274581368993 0.2194616719196408
620000000.0 -0.36978852825381453 0.000947362012833579
640000000.0 -0.38056863731807045 0.06635096158018357
660000000.0 -0.3639202953101866 -0.1905612392781124
680000000.0 -0.36258985762078 0.09691906091793909
700000000.0 0.24323034449162617 0.25740906134685637
720000000.0 -0.2593840167649719 -0.2540466040892504
740000000.0 0.2938247996882833 -0.1704508719116512
760000000.0 -0.29535829947299497 0.05567383027232232
780000000.0 -0.19811018121160595 0.252893394530653
800000000.0 -0.2875151778836925 0.102474266996557
820000000.0 -0.24061575032785132 0.15398600273144886
840000000.0 0.12510809292214953 0.22909451978857354
860000000.0 -0.18143816454694336 -0.11049057505980898
880000000.0 -0.1260482910515445 -0.11215879600693852
900000000.0 -0.0013492746818455652 0.11408863843078057
920000000.0 -0.06699351554406065 0.09117416014565058
940000000.0 0.07159283597988678 -0.1007979816262078
960000000.0 0.03383265248750211 0.08174609167670785
980000000.0 0.05175931085197278 0.018575902741190645
1000000000.0 0.027033063713114952 0.038361368580557116
1020000000.0 -0.05646952735200309 -0.029162772594355887
1040000000.0 0.0983915028061822 0.010264393156007757
1060000000.0 0.09218733357539455 0.10813502360365546
1080000000.0 -0.13777115871164977 -0.10736553901641212
1100000000.0 -0.19015443399684037 0.07705968766282542
1120000000.0 -0.22642412115987576 0.02018624395617256
1140000000.0 0.1829964533259362 0.19262348657744677
1160000000.0 0.11048202731581952 0.24891910394992836
1180000000.0 -0.22128455453870086 -0.18441932063825478
1200000000.0 -0.002511582101721047 0.3023853652020667
1220000000.0 -0.3172183055424624 0.0670544108379542
1240000000.0 -0.29865754542616696 -0.1279990065826365
1260000000.0 0.058459582459914006 -0.33194861329601116
1280000000.0 0.3043761636412457 -0.15263290499102988
1300000000.0 0.12471803905351667 -0.3223019938468006
1320000000.0 -0.07435068764557527 0.344502728402993
1340000000.0 0.0748694671148765 -0.3632896043945997
1360000000.0 0.23598767539972068 -0.2965506310223186
1380000000.0 -0.25777543961486116 0.28239989834012463
1400000000.0 0.09625796656517338 -0.379211729908948
1420000000.0 -0.1540288368562614 0.3527503246681534
1440000000.0 0.2956407312876959 0.2314680374487213
1460000000.0 0.11538769634475694 -0.34855857807334345
1480000000.0 -0.3400555919337856 -0.12337102607773848
1500000000.0 0.33247445395414416 0.02587897141251354
1520000000.0 -0.08986651144882132 -0.29811742564488597
1540000000.0 -0.26812274254868723 -0.08517399818720113
1560000000.0 -0.09375176336069267 -0.23749333767159136
1580000000.0 -0.027853344176787285 -0.21174981839073204
1600000000.0 0.007958559094389162 0.17594183422858609
1620000000.0 -0.12136830333139553 -0.07766130243262874
1640000000.0 0.07781170639026604 0.08924600713597676
1660000000.0 -0.012626973198922047 -0.09338475037851734
1680000000.0 0.040810543184867744 0.05872088539722915
1700000000.0 0.015244409452609842 0.0529084756038518
1720000000.0 -0.03685680493972227 0.016204594160056023
1740000000.0 0.01861024599516059 0.05074041219132955
1760000000.0 0.0743627425360804 -0.03329756090003458
1780000000.0 -0.09926893041182379 0.04380033638870191
1800000000.0 -0.11300758868526317 0.07776985615650167
1820000000.0 -0.10440575506431354 -0.12568904835499217
1840000000.0 -0.02180114163640463 -0.18647560689384338
1860000000.0 0.2191051849273352 -0.025409796314292753
1880000000.0 0.22250497904543026 -0.09760254189028103
1900000000.0 -0.2485729913013181 -0.09162092067803353
1920000000.0 0.0017226814383085784 0.2833587371122861
1940000000.0 -0.04825393960547192 -0.2892091332730065
1960000000.0 -0.04736995942783586 0.2956277954734015
1980000000.0 -0.2646441546195684 -0.13946943454644237
2000000000.0 0.2619068637892164 -0.15868696747666428
2020000000.0 0.28880501158042626 0.09665323779725625
2040000000.0 -0.1397282393135636 0.2694206809290717
2060000000.0 -0.28750131787137195 0.10975364892934107
2080000000.0 -0.29162507998535464 -0.09918503080221862
2100000000.0 0.14798131822233448 0.2710452453945154
2120000000.0 -0.3039497927411979 0.0538805682545327
2140000000.0 0.2405337923260842 -0.18641670299461588
2160000000.0 -0.29353936755023347 0.04546088623633138
2180000000.0 -0.18444753408276393 0.21484394874869542
2200000000.0 -0.23254279103773373 -0.15970613671745135
2220000000.0 -0.1729910977686147 -0.22293014628107552
2240000000.0 -0.12366479550637392 -0.2517021009308378
2260000000.0 -0.010911135858969002 -0.27330365462315964
2280000000.0 0.12033564183461223 -0.2308764613965062
2300000000.0 0.1547032684655721 0.196220700537808
2320000000.0 -0.1412180262113834 0.19961236362622242
2340000000.0 -0.17707767537815577 -0.15501952262743662
2360000000.0 0.19386249409226813 0.11890071717069511
2380000000.0 -0.08380843690680452 -0.21526472175393455
2400000000.0 0.23654362431850195 -0.04291028491524896
2420000000.0 0.26113042727347674 0.03367465432586377
2440000000.0 0.2860634104187377 -0.008217036576625598
2460000000.0 -0.13669007255464094 -0.29436898431674846
2480000000.0 -0.1226442536572392 0.3409652340384759
2500000000.0 -0.29616437084705755 -0.26983725842949435
2520000000.0 0.43125232881943 -0.09079624011223594
2540000000.0 0.194389317359151 0.4430485731894683
2560000000.0 -0.5108699989588101 0.0830338834608982
2580000000.0 0.26174645008533 -0.4834304576856661
2600000000.0 0.15147114531619896 0.556239460496818
2620000000.0 -0.3954216305892743 -0.456852542179567
2640000000.0 0.6177789996759876 0.07020220188947775
2660000000.0 -0.42955052721826176 0.47271101288255224
2680000000.0 -0.4036057633656677 -0.5093220787209897
2700000000.0 0.3635384414955116 -0.5511098634323041
2720000000.0 0.6233907316230305 -0.23338028590244086
2740000000.0 0.6681531104934643 -0.059293157496597866
2760000000.0 0.6577828649724016 -0.1398823254980293
2780000000.0 -0.03787934832452831 0.6680004857555402
2800000000.0 -0.19199048390697443 0.6340839550957719
2820000000.0 -0.5830984904089418 0.29174742515285673
2840000000.0 -0.38843020012899654 -0.5098537122339686
2860000000.0 0.625798908670104 0.048488508374954505
2880000000.0 -0.6079676388673246 -0.07119596707204202
2900000000.0 0.3665750505955602 0.46983228371030095
2920000000.0 0.29438776801704997 -0.4960479894880248
2940000000.0 -0.4608666713108589 -0.30561023123327935
2960000000.0 -0.4854817253363681 0.2131796379582549
2980000000.0 0.047826009734487786 0.5034853750358445
3000000000.0 0.48485700828101214 -0.012383967663575335
3020000000.0 -0.3425427586591203 -0.30823181026222785
3040000000.0 0.13825733993766023 0.4101116763662379
3060000000.0 -0.034182133932155585 -0.4009989828392882
3080000000.0 -0.23890564478676887 0.29565191083525916
3100000000.0 0.25395347119926226 -0.2573514419100199
3120000000.0 0.007025187295367374 -0.3463461401251462
3140000000.0 0.09476658037034562 0.3291322011442424
3160000000.0 -0.07693429918662086 -0.33048916193101846
3180000000.0 0.1743768686552699 0.2827902016817642
3200000000.0 0.20776747865448617 -0.245077335706392
3220000000.0 -0.1871570697952027 -0.25252411676128456
3240000000.0 -0.25520661842696984 -0.1612003312544174
3260000000.0 -0.27738054509430204 -0.08466380903712557
3280000000.0 0.15083611338491767 -0.22710692041806974
3300000000.0 0.22795372046247145 -0.11447405929155884
3320000000.0 0.22431465328938904 0.05484674533022264
3340000000.0 -0.1906805631373721 -0.06518322800799144
3360000000.0 -0.1807344343919568 -0.014437613097956301
3380000000.0 0.16205873353291547 0.017694862728997528
3400000000.0 -0.13573065167644938 -0.05823622087925634
3420000000.0 0.11931834568383352 -0.061538554525896544
3440000000.0 0.06220792619743316 0.10099524199344798
3460000000.0 0.10024978705182841 0.009071910220907028
3480000000.0 0.02900067039530276 0.08480203596499362
3500000000.0 -0.01427659276184684 -0.0755135436221331
3520000000.0 0.07250367581859289 0.0022911681693533184
3540000000.0 -0.0644769571661434 0.04303767814573424
3560000000.0 0.07045831451649359 0.04714255525979054
3580000000.0 0.09019294937780341 -0.007091576206253035
3600000000.0 -0.019037171380324316 -0.08878065689470625
3620000000.0 -0.010351547001820333 -0.09468072000219183
3640000000.0 -0.01559949464890741 0.10223222979605166
3660000000.0 -0.05910391814058391 -0.08478822272163974
3680000000.0 0.1097110856120763 -0.005462505613182179
3700000000.0 0.0984249072964724 0.05519017564262296
3720000000.0 0.06921030593922768 -0.0726587316672541
3740000000.0 0.017671261279437363 0.08216128360967663
3760000000.0 0.0652888969549541 -0.018159793221930495
3780000000.0 0.03375813325961988 -0.04735593633569634
3800000000.0 -0.05264703915285724 -0.0068813903853982405
3820000000.0 0.0011950018037739916 -0.0499778375597819
3840000000.0 0.0010110443296099272 -0.05346097603021169
3860000000.0 0.06267811981360279 0.006162821158837785
3880000000.0 -0.03370977874403989 0.08005893633100607
3900000000.0 -0.0982138801142618 -0.03536790509305686
3920000000.0 -0.03954290886807462 0.10677271463630257
3940000000.0 -0.09943352467450703 0.05168268816282544
3960000000.0 0.017161130967119045 -0.09850340855078998
3980000000.0 0.047418341301981165 -0.07578600553331044
4000000000.0 0.027306375533532372 0.06791205134569998
