!Created with skrf (http://scikit-rf.org).
# Hz S RI R 50.0 
!freq ReS11 ImS11
400000000.0 0.7983072763495008 -0.3328852656345611
420000000.0 -0.15739417909182954 0.7926910883797181
440000000.0 -0.26333179047536126 -0.7363028244601751
460000000.0 0.6708160338194616 0.3559094250053014
480000000.0 -0.39669964004302755 -0.6079946013507539
500000000.0 0.6733441691301326 -0.030241987583896995
520000000.0 0.2640248780410688 0.47915138279206543
540000000.0 0.41691193425855316 -0.1713072896961439
560000000.0 0.178152654775123 -0.3216095925396333
580000000.0 0.02524383405340875 -0.328269828027315
600000000.0 0.24205592206618576 0.22790428268408044
620000000.0 -0.35201156321124716 0.12056211076062005
640000000.0 -0.3828377022312037 -0.03686514052542845
660000000.0 -0.33686585918463796 -0.23303155716869417
680000000.0 -0.33423139946899255 -0.1712240997185109
700000000.0 0.34053979737469053 0.10913110136624005
720000000.0 -0.35751101003200686 0.02544597583558733
740000000.0 0.3335875826621513 -0.02729893926438483
760000000.0 -0.23101216896251944 -0.19708454178644078
780000000.0 0.0045658355542489695 0.32385446752520347
800000000.0 -0.2468498810166157 0.1767574089285126
820000000.0 -0.2785726406432181 0.06594492475080596
840000000.0 0.10855327937709246 0.2357790998228721
860000000.0 -0.11176250690853917 -0.17986472463614295
880000000.0 -0.07725252617296018 -0.1490491911096665
900000000.0 -0.008428504928195081 0.11702480644620959
920000000.0 0.057895781171762146 0.09526816276604198
940000000.0 0.07043236237686275 0.09950627525398877
960000000.0 -0.08377039432555979 -0.03536563344629725
980000000.0 0.051033999401276356 -0.025996705235698983
1000000000.0 -0.04024173279005397 -0.030655745618564052
1020000000.0 0.010049544518259398 -0.0671002120484137
1040000000.0 0.04991650570106106 -0.09026308705011139
1060000000.0 0.13413966360584878 0.035488832274780766
1080000000.0 -0.07412308971924034 -0.15687244146304608
1100000000.0 -0.17403998776099844 0.1094215445917552
1120000000.0 -0.22538282101445542 0.01632380192401388
1140000000.0 0.14311366098932135 0.22453416987627517
1160000000.0 0.18357195465151116 0.20369466674148806
1180000000.0 -0.27449753099992735 -0.08331892146079256
1200000000.0 -0.102565790582428 0.28371296792432493
1220000000.0 -0.31961870764905953 -0.06763294890518903
1240000000.0 -0.32732387607060853 0.02196515558432912
1260000000.0 0.02653999911768138 -0.3341231189906837
1280000000.0 0.328236335085997 -0.08317599499646829
1300000000.0 0.17482999725214404 -0.3026591993461309
1320000000.0 0.19123580323724984 0.29593742379895516
1340000000.0 0.007933614335185593 -0.36741916681020326
1360000000.0 0.2738813621589277 -0.25912028766148737
1380000000.0 -0.25960625668803267 0.2782234573276349
1400000000.0 0.16872464932241266 -0.3503228717841875
1420000000.0 -0.1571567530938706 0.35065723284706957
1440000000.0 0.2707626777901295 0.2602973343223736
1460000000.0 0.2476934432463179 -0.27354387107676925
1480000000.0 -0.3640401307054591 -0.011016018874354756
1500000000.0 0.331794447476762 -0.011642712289441606
1520000000.0 -0.008447230118608035 -0.31156409446657496
1540000000.0 -0.2841454745302298 0.004073177079460698
1560000000.0 -0.21081682180828837 -0.1403400884565159
1580000000.0 0.03708369034679135 -0.20856990622873436
1600000000.0 -0.08627374112561935 0.15396129485799057
1620000000.0 -0.14157067481831456 -0.02910477403117126
1640000000.0 0.10538213886567943 0.051759886999229565
1660000000.0 0.007670342856801583 -0.09287298387133337
1680000000.0 0.06685311907317583 0.02487314665835638
1700000000.0 -0.053527255448373064 0.010122342373172865
1720000000.0 0.039721392748868385 0.007492901737733088
1740000000.0 0.0054638732174827455 0.05333157105640201
1760000000.0 0.07892117271854128 -0.017317902745076587
1780000000.0 -0.09725277299265968 0.05107492883771332
1800000000.0 -0.08813203742232219 0.10599516451701568
1820000000.0 -0.14957946988271129 -0.061620102842694945
1840000000.0 0.08015007654651167 -0.16923084943869018
1860000000.0 0.19935223259900609 -0.0952902749679985
1880000000.0 0.19140173063029256 -0.14968276417343734
1900000000.0 -0.2561671226657759 -0.06705381340837695
1920000000.0 -0.013749633668706905 0.282489734370557
1940000000.0 -0.021267500535036225 -0.2943715190864329
1960000000.0 0.0070569010097577154 0.2983632854842417
1980000000.0 -0.2129661822468698 -0.21282941172157047
2000000000.0 0.24612642346391586 -0.18170188890049577
2020000000.0 0.2875104792926729 0.09583843089238346
2040000000.0 -0.19468845447487879 0.2327590863923933
2060000000.0 -0.29089695142379557 0.10222951733830665
2080000000.0 -0.30662981685402224 0.015207513800321574
2100000000.0 0.11114973589382109 0.2874247511292735
2120000000.0 -0.28237417971441225 0.12659431839954366
2140000000.0 0.17576295581029938 -0.24692914593623674
2160000000.0 -0.2958814141116013 -0.011770320522417926
2180000000.0 -0.168919826333839 0.22959797096092727
2200000000.0 -0.28244594008361035 -0.009711107461973682
2220000000.0 -0.1930113421899039 -0.20461405725268986
2240000000.0 -0.03799485763226986 -0.27834849634451486
2260000000.0 -0.011872707756818816 -0.27495443136960573
2280000000.0 0.0705993615914862 -0.25100028357222715
2300000000.0 0.09367557202992464 0.2307083389179693
2320000000.0 -0.20175977060807362 0.13732433298685334
2340000000.0 -0.18959407200024767 -0.14203294247090384
2360000000.0 0.16376135320650895 0.15603630070800834
2380000000.0 -0.10710809272374436 -0.20385379765090866
2400000000.0 0.24003698360166062 -0.008811262877877368
2420000000.0 0.2455372999573594 0.0936085350691106
2440000000.0 0.2862892726627373 -0.021320943229508563
2460000000.0 -0.21583014525839145 -0.24216046330184937
2480000000.0 -0.09089504593905363 0.3493825176277184
2500000000.0 -0.2903202137211479 -0.27754338812019463
2520000000.0 0.4030362611846809 -0.18223414798558055
2540000000.0 0.25739232146836555 0.40999051766463657
2560000000.0 -0.5123219076201354 0.07111850690604234
2580000000.0 0.2725912884805146 -0.4785677524439539
2600000000.0 0.20064205038777344 0.5408514539889191
2620000000.0 -0.404979296849871 -0.44822012879507206
2640000000.0 0.6137737028048343 0.099207913079794
2660000000.0 -0.42429444477086925 0.4775487279706377
2680000000.0 -0.42585361002685407 -0.49025268741642003
2700000000.0 0.3225003195317209 -0.5751907691282203
2720000000.0 0.6008224989938286 -0.28510604765597497
2740000000.0 0.6550653468727369 -0.14218560860394358
2760000000.0 0.6397070447446954 -0.2070005069183808
2780000000.0 0.016828805659742044 0.6687224191304193
2800000000.0 -0.15453032797712288 0.6439332885288109
2820000000.0 -0.5457246396878959 0.3560392193089185
2840000000.0 -0.41518202453079306 -0.4880186230793874
2860000000.0 0.620478215579686 0.09568023540283119
2880000000.0 -0.610688498025535 -0.03517718997520706
2900000000.0 0.3592090042390497 0.4748149929960329
2920000000.0 0.341193487465414 -0.4648337060166739
2940000000.0 -0.46107399678730854 -0.30451330749313293
2960000000.0 -0.49553539879757147 0.1875974066830818
2980000000.0 0.07772042160805134 0.49932979860286647
3000000000.0 0.4836793712430734 -0.011868667327440791
3020000000.0 -0.28431818448248075 -0.362823604773556
3040000000.0 0.16471346915784574 0.3995545965932044
3060000000.0 -0.007096117593499362 -0.4018178338629755
3080000000.0 -0.2338275519120342 0.29795821434099196
3100000000.0 0.2781225413634926 -0.2309305505775874
3120000000.0 -0.028392706422750554 -0.3451536546170463
3140000000.0 0.1260021624783252 0.31860162138464077
3160000000.0 -0.11165917251143376 -0.32014505801692905
3180000000.0 0.13487565821576974 0.30251738741574474
3200000000.0 0.24760498061964037 -0.20775622559938775
3220000000.0 -0.2311016828804629 -0.2138930945948421
3240000000.0 -0.24087131580704838 -0.1816388694245997
3260000000.0 -0.2169012325765211 -0.19065156724326746
3280000000.0 0.18721182799641672 -0.20040730322113562
3300000000.0 0.18524087831435218 -0.17477125681989236
3320000000.0 0.22324200999228144 0.04697581296861222
3340000000.0 -0.16023110598204152 -0.12232969935434683
3360000000.0 -0.1497621003337056 0.10145900413517263
3380000000.0 0.14931970311778084 -0.06434507458300698
3400000000.0 -0.1302696858972335 -0.06551365657151238
3420000000.0 0.13344252549517666 -0.01723600145144123
3440000000.0 0.11086744624741529 0.04328287449015175
3460000000.0 0.09034248437945291 -0.043648938609963175
3480000000.0 0.03461602826532257 0.08259746844866543
3500000000.0 0.0453498622825205 -0.06313478082446211
3520000000.0 0.064650294827616 -0.03570294190701149
3540000000.0 -0.03583800494569892 0.06887041932971293
3560000000.0 0.016486189139773837 0.08172719114847785
3580000000.0 -0.010174986496887773 0.08980778463389737
3600000000.0 -0.0025031991923270772 -0.09221167916548649
3620000000.0 -0.015725321863973525 -0.09372274381771659
3640000000.0 0.023119097871241483 0.09748749587196492
3660000000.0 0.05591071042771225 -0.08599239726638583
3680000000.0 0.1081279197475569 -0.023385092468230135
3700000000.0 0.10979911921863784 -0.02439196463150192
3720000000.0 0.08189759841156519 -0.052793155248873146
3740000000.0 -0.025205907262948867 0.08062418304037726
3760000000.0 0.01863169793443679 -0.06490238103336098
3780000000.0 0.003039562612538269 -0.05710009546933768
3800000000.0 -0.05077298992938513 0.010566678600870396
3820000000.0 0.02524464890346223 -0.042217769414405804
3840000000.0 -0.052640143638150415 -0.003234689717245053
3860000000.0 0.0240988642795715 -0.05553696853362281
3880000000.0 -0.08069575956685553 0.0316786851676155
3900000000.0 -0.08843343871497789 0.05677883118013801
3920000000.0 0.003879939553336003 0.11283466454668266
3940000000.0 -0.0900957544846645 0.06858730675969309
3960000000.0 -0.07137799761106434 -0.07005750561066648
3980000000.0 0.009538834745629226 -0.08918940614450695
4000000000.0 0.07480239770103787 0.001772160599512697
