!Created with skrf (http://scikit-rf.org).
# Hz S RI R 50.0 
!freq ReS11 ImS11
400000000.0 0.7677999671899441 -0.3966110546383843
420000000.0 -0.41679645187074443 0.6921240881229404
440000000.0 -0.3646179661014203 -0.6965146342873121
460000000.0 0.7052117607389707 0.2682967795004554
480000000.0 -0.22995950913869212 -0.6896850182095362
500000000.0 0.672938482865115 -0.05896555782181409
520000000.0 0.1287046181869719 0.5338892734852762
540000000.0 0.15451294189231707 -0.4240100144857386
560000000.0 0.26223947392622293 -0.2517975358293285
580000000.0 -0.04944917692855987 -0.3299381352483751
600000000.0 0.3122613925958115 -0.10165642051269537
620000000.0 -0.3477264831470285 -0.09948210328683943
640000000.0 -0.3800891220169166 0.04463324795988545
660000000.0 -0.06610572995825244 -0.40692510874711113
680000000.0 -0.352750698535113 -0.13902257726907705
700000000.0 0.3493238564748567 0.03776577171757814
720000000.0 -0.254666510426979 -0.254392963016038
740000000.0 0.3410774703455855 -0.04389326069720248
760000000.0 -0.295907451773683 0.027776568768312637
780000000.0 -0.29379319714555874 0.1358263571163739
800000000.0 0.08263326561746931 0.2966991867156548
820000000.0 0.006470274833481959 0.28212434055148927
840000000.0 -0.011031256411684988 0.25668834804246426
860000000.0 0.11211465378568644 -0.1772120294079091
880000000.0 -0.004765199512399616 -0.17047164458492564
900000000.0 0.04311036046130489 0.11065453939245656
920000000.0 0.10633107174263244 0.01712089575693084
940000000.0 0.07341215342956124 0.09349185535441427
960000000.0 0.06491276318192572 -0.06009009319232293
980000000.0 -0.04710932477876915 -0.03410946068795301
1000000000.0 0.026423138364932597 0.044580835382183
1020000000.0 0.06195195568143338 -0.017107936483417352
1040000000.0 0.023828651654913383 -0.09367586831272975
1060000000.0 -0.1097822601557039 0.0855763371999656
1080000000.0 -0.16791982644496103 -0.05978627927258937
1100000000.0 -0.05017752974177547 0.1936110826073533
1120000000.0 -0.061119108527176065 -0.22043731315943935
1140000000.0 0.20659984796938138 0.16905043251438182
1160000000.0 0.2462807614473423 0.11870968956923757
1180000000.0 -0.1771368938587889 -0.22556239917969995
1200000000.0 -0.08019063832721149 0.2918655008481741
1220000000.0 -0.3232877402431323 0.04575895652174433
1240000000.0 -0.306232363377259 -0.10769558485700541
1260000000.0 0.1292588861425466 -0.310529496128
1280000000.0 0.3023988721051137 -0.1544135072937078
1300000000.0 0.23250983815012263 -0.258520914182999
1320000000.0 0.11335386880285166 0.3321520784362045
1340000000.0 0.12285287769726552 -0.348981030203711
1360000000.0 0.23964185015124892 -0.29595311143577335
1380000000.0 -0.10557497635165618 0.36723461333156576
1400000000.0 0.15341456375255424 -0.3591533909035836
1420000000.0 -0.10866476200307083 0.3699946458093279
1440000000.0 0.3354325113279425 0.16835930664230517
1460000000.0 0.11155159270038054 -0.35084826262727054
1480000000.0 -0.358216640738327 -0.05343247059858436
1500000000.0 0.326355689609542 0.05691641370767356
1520000000.0 0.09657317051676839 -0.2951123088775195
1540000000.0 -0.283350657282056 -0.026942699347897097
1560000000.0 -0.21514008310826122 -0.13085746466796974
1580000000.0 0.181845431970776 -0.10979973280388183
1600000000.0 0.1114388497653463 0.14008077773860161
1620000000.0 -0.13149252581303683 0.04859444574995512
1640000000.0 -0.03719485051239018 0.11367482377996997
1660000000.0 -0.09068984130946495 -0.03441150831863813
1680000000.0 0.009777749300853048 -0.07087261295819232
1700000000.0 -0.053303198228765475 -0.0031015266315516784
1720000000.0 -0.024822038954423958 0.03452315951250347
1740000000.0 0.01354616663969754 0.05101912592317422
1760000000.0 0.031561416626633074 -0.07581010757758833
1780000000.0 -0.06704949805891172 0.08803480773476907
1800000000.0 -0.0810401187636207 0.11108168744459161
1820000000.0 -0.11231851309660953 -0.11889387161837049
1840000000.0 0.008061955773096515 -0.18816232437730557
1860000000.0 0.21709446443185565 -0.033548097321967514
1880000000.0 0.19572456701088906 -0.14283368062584453
1900000000.0 -0.21088234138494377 -0.1591471850145488
1920000000.0 -0.007706140427586999 0.28339069270900874
1940000000.0 -0.1132625264369894 -0.2721625014551858
1960000000.0 0.045224030642199514 0.29478285003796306
1980000000.0 -0.22409192793321545 -0.19845508960011124
2000000000.0 0.26003959395590664 -0.16137051978154704
2020000000.0 0.28418308637807826 0.10928125454196515
2040000000.0 -0.12397484462359498 0.27817680940509953
2060000000.0 -0.1963762468161397 0.2361337930525126
2080000000.0 -0.29325822688600994 -0.08922869144660897
2100000000.0 0.019929422106637992 0.30871482141638135
2120000000.0 -0.30636032465224966 0.04837664602751064
2140000000.0 0.23106811530969404 -0.19875710000789854
2160000000.0 -0.29508220757804604 -0.026407108209553047
2180000000.0 -0.21723749598553627 0.18285344853048952
2200000000.0 -0.27560250737798364 -0.057718093547407756
2220000000.0 -0.16781463547035189 -0.2267759772743142
2240000000.0 -0.1267596407749238 -0.25081872138759626
2260000000.0 -0.031964223466853896 -0.2721427003397381
2280000000.0 0.1047098141151635 -0.24073954715915521
2300000000.0 0.2356620020567694 0.08501361636504601
2320000000.0 -0.137192371092796 0.20047255959537988
2340000000.0 -0.09667643825287646 -0.21532891939280802
2360000000.0 0.19671331299748038 0.11409476231394308
2380000000.0 -0.11897192489589686 -0.19842503953853602
2400000000.0 0.23314471569544176 0.044604379220466596
2420000000.0 0.20310570813631754 0.1641746266424377
2440000000.0 0.2871957568330202 -0.0007620850872887273
2460000000.0 -0.19101657742215175 -0.26090269903146845
2480000000.0 -0.12109360327623865 0.33958867995137304
2500000000.0 -0.25354293169022424 -0.31032533769145576
2520000000.0 0.38316321729159947 -0.21955290581633496
2540000000.0 0.2455589565228108 0.41608742701414253
2560000000.0 -0.5077092461991819 0.10025964480876878
2580000000.0 0.29436175054921054 -0.46461403099264453
2600000000.0 0.11497910521764923 0.5659215003045847
2620000000.0 -0.40709057013640815 -0.4468261224508021
2640000000.0 0.6128198418954581 0.09887561230771057
2660000000.0 -0.4693250615688249 0.4334397973106666
2680000000.0 -0.3931104439870752 -0.5184324888861855
2700000000.0 0.36204231563824685 -0.5520509252975961
2720000000.0 0.6358495636381357 -0.198129682213082
2740000000.0 0.6697229784866237 -0.052256145463860176
2760000000.0 0.6668837487161561 -0.09581474295153036
2780000000.0 -0.0893944371980295 0.6635803430539184
2800000000.0 -0.2726462546605258 0.6045485063330033
2820000000.0 -0.5919963393728288 0.2758118424382392
2840000000.0 -0.33647593721984675 -0.5463026669324933
2860000000.0 0.6050663520017261 0.168360737700775
2880000000.0 -0.5977254360621813 -0.13575514555640852
2900000000.0 0.34140597240875115 0.4900238009677104
2920000000.0 0.3263141864259195 -0.47587589126624946
2940000000.0 -0.46709151618901035 -0.2948945963244409
2960000000.0 -0.5082432526857928 0.1559099200094175
2980000000.0 0.11504574485718996 0.4941683390194088
3000000000.0 0.483275305364036 -0.041678163907651535
3020000000.0 -0.3288772598258537 -0.32404723872527746
3040000000.0 0.19949188557225062 0.3845277264267379
3060000000.0 0.07818054085912442 -0.39565811426415226
3080000000.0 -0.19396310378317458 0.32626841635335957
3100000000.0 0.2747196105065368 -0.2364709636554724
3120000000.0 0.014067000099365254 -0.34644289829659725
3140000000.0 0.05386989968424598 0.3377877214635393
3160000000.0 0.03876348492455867 -0.3375895068454052
3180000000.0 0.15295473618787345 0.29563713572966815
3200000000.0 0.20347150702134736 -0.24948848335169319
3220000000.0 -0.19259705689766463 -0.2486938626550037
3240000000.0 -0.2168841072269255 -0.21044622275151087
3260000000.0 -0.26044078591716563 -0.12561986513134374
3280000000.0 0.16110020258068283 -0.222754371958709
3300000000.0 0.12689979648153923 -0.22205081482713573
3320000000.0 0.22905898861404786 0.008267001685876758
3340000000.0 -0.16804618219664152 -0.11150239716827667
3360000000.0 -0.18263389535731947 -0.018686842417898506
3380000000.0 0.0891213088958198 -0.13758109221942422
3400000000.0 -0.1441180332820537 0.0254470724904867
3420000000.0 0.1340652364865756 0.009523512708323991
3440000000.0 0.0354102162985019 0.11493211831538895
3460000000.0 0.1001367714991476 -0.009530918703325984
3480000000.0 0.06109782839240611 0.06337024629118998
3500000000.0 0.05258182525621717 0.053587278842328015
3520000000.0 0.023187670794449406 0.07105749176120653
3540000000.0 0.07554962683608951 0.023339257802314994
3560000000.0 0.060318720535721196 -0.055503356930900964
3580000000.0 0.06987677392272004 0.05539001775418854
3600000000.0 -0.09270151784442832 -0.021580224307082937
3620000000.0 -0.08065290078122317 0.051574928119709644
3640000000.0 0.028951977523904278 0.09722595850855406
3660000000.0 0.009982134828316043 -0.10330209394542492
3680000000.0 0.09353841305574424 -0.06091388189249321
3700000000.0 0.08863879043386727 0.06936183707515642
3720000000.0 0.09358117479424197 0.03862413925727297
3740000000.0 -0.0183952899157837 0.08440960645579992
3760000000.0 0.03151047030525094 -0.057875204035998
3780000000.0 0.03866351069309339 0.04308637740139064
3800000000.0 0.006935594148271025 -0.054506666011592514
3820000000.0 0.03557333062648195 -0.035644668514357276
3840000000.0 0.05253510485850059 -0.0069980072931497585
3860000000.0 0.06130860387066647 -0.013930847808501153
3880000000.0 0.025407939216640595 0.08336203998227455
3900000000.0 -0.1035242147312841 -0.012506649933706664
3920000000.0 -0.011620856512002729 0.11335316972513579
3940000000.0 -0.046681000584499956 0.10152839779287469
3960000000.0 0.04431521396119774 -0.08865347710066947
3980000000.0 0.08414506651174984 -0.023060474769118263
4000000000.0 0.027053151931954983 0.07046796330203348
