!Created with skrf (http://scikit-rf.org).
# Hz S RI R 50.0 
!freq ReS11 ImS11
400000000.0 0.8161662585624647 -0.28308555880654135
420000000.0 -0.27026141240787527 0.7606484774207402
440000000.0 -0.24103384379278986 -0.7421419554021503
460000000.0 0.7098512141283335 0.25853907600399
480000000.0 -0.2933793316230529 -0.660822603480579
500000000.0 0.4233974195983871 0.5048300148017015
520000000.0 -0.4976715849894602 0.22388723192077084
540000000.0 -0.2779396208166856 0.35726523273095073
560000000.0 0.005778842980926464 0.3834057340097435
580000000.0 -0.305673387654606 -0.16833863741349744
600000000.0 -0.19356916681165368 -0.27878243957369475
620000000.0 0.2731008474322209 0.23611003840785094
640000000.0 -0.14368181308833217 0.35254648627524354
660000000.0 -0.27749645341142776 -0.303470402535666
680000000.0 -0.16148978923517646 0.35869990973999677
700000000.0 -0.059616898626746205 -0.3415902398212266
720000000.0 -0.25079264535465157 0.2516569033395969
740000000.0 0.32059416397115426 -0.02428368119975758
760000000.0 -0.18526796017298724 -0.23528299297806568
780000000.0 -0.3168542511523401 0.08160316592927225
800000000.0 -0.2997876917420372 0.017067285180061485
820000000.0 -0.20396820981564276 0.1899471856116649
840000000.0 -0.17117171442452228 0.18469689375525708
860000000.0 0.08219937599035858 0.19563924477882272
880000000.0 0.1817006586978972 0.015351755146347984
900000000.0 -0.06361488385448914 0.10168838119715591
920000000.0 -0.06916095212042209 0.09276659708353571
940000000.0 0.0874356093577002 0.08602932529258121
960000000.0 0.08993607876143685 0.03975638537271415
980000000.0 -0.03455096503853439 0.05971810909167684
1000000000.0 -0.05920227709673223 -0.019013856332350258
1020000000.0 0.037758610157334005 -0.06358331871663925
1040000000.0 0.04744152445519332 0.09092300276982593
1060000000.0 -0.12278298265549069 0.05990658442245325
1080000000.0 -0.15892005139489523 -0.04570924753198235
1100000000.0 -0.16124059457257672 -0.12401696332716655
1120000000.0 0.049951553587574714 -0.22881610417492979
1140000000.0 0.021935961583334693 -0.2671131562051953
1160000000.0 0.2695345348514601 -0.002028560314325627
1180000000.0 -0.1744623527075214 -0.225741466293297
1200000000.0 -0.19028323421278306 0.2299556665093418
1220000000.0 -0.3222012641859952 -0.012189876040891636
1240000000.0 0.18499230687647578 -0.2667053601218611
1260000000.0 0.07954196097990936 -0.3291121897807673
1280000000.0 0.11860415763294921 -0.32093842573285664
1300000000.0 0.22074095542224695 -0.2711931284318627
1320000000.0 0.048969912633678704 0.3444182041391611
1340000000.0 0.16176357677007006 -0.33187049079543607
1360000000.0 0.28914815939953736 -0.2417274603773299
1380000000.0 -0.25598247740585084 0.28971598367638157
1400000000.0 -0.020910893736765145 -0.3901278497659504
1420000000.0 -0.011538698934965426 0.38924460247156883
1440000000.0 0.35139623278351234 -0.12659900282913078
1460000000.0 0.14549058875875542 -0.332422535469622
1480000000.0 -0.11230421381089095 -0.33947451209411816
1500000000.0 0.20677600698069756 0.26706168001034036
1520000000.0 -0.11889797401396571 -0.2915131431387933
1540000000.0 -0.26880699615598125 0.08955763249979766
1560000000.0 -0.23447235596760765 -0.08784044016872475
1580000000.0 0.16584658164605717 -0.1307735555038064
1600000000.0 -0.1672262816049771 0.05698467138030235
1620000000.0 -0.07438757657948082 -0.12665950624279645
1640000000.0 0.12085821630847558 0.023326807605515122
1660000000.0 -0.08047522019230946 0.05876398536075956
1680000000.0 0.008619366053711155 0.07134720381454217
1700000000.0 0.0037901971370556 -0.05021475910318203
1720000000.0 0.0076511613076992975 0.037458489599209964
1740000000.0 -0.05574609534068828 -0.014170231976505038
1760000000.0 0.07003532569356188 -0.05204259202864172
1780000000.0 0.05428128942986595 0.09692208304660142
1800000000.0 -0.08890788226751634 0.10305230865734158
1820000000.0 -0.13362133484338104 -0.0945526292666858
1840000000.0 0.14834964824479982 -0.11881172399104743
1860000000.0 0.19425949607487272 -0.11144491028073208
1880000000.0 0.03521454529838388 -0.24015368138618584
1900000000.0 -0.2638225759051304 0.008170423801316018
1920000000.0 0.11410382748453607 0.25373752444778364
1940000000.0 0.07361329982067505 -0.2802630373525144
1960000000.0 -0.16469835625554058 0.24750392444186714
1980000000.0 -0.1170638784975238 -0.27753398327092815
2000000000.0 0.1972827180417655 -0.23380866013608437
2020000000.0 0.19795227525608566 0.229305662415942
2040000000.0 -0.2420635492897407 0.18570557334701282
2060000000.0 -0.30700724147964414 0.04497439677737281
2080000000.0 -0.29960027115736176 -0.07744424034206017
2100000000.0 0.11141290735423193 0.29088121599079353
2120000000.0 -0.2964406862403807 0.09436486914677866
2140000000.0 0.014018723415723024 -0.30596350588251076
2160000000.0 -0.07134743654761504 0.288228696676302
2180000000.0 0.024283611994532172 0.27919062174031134
2200000000.0 -0.27021890483353894 -0.05136534179027975
2220000000.0 0.06888801197739547 -0.2682000054142653
2240000000.0 0.1859835475796997 -0.21047692635593884
2260000000.0 0.1629448506640062 -0.22248602553721566
2280000000.0 0.21517935979086514 -0.15533704176161528
2300000000.0 0.17923888245633185 0.1781257276547298
2320000000.0 -0.22084741514432796 0.10886757163662149
2340000000.0 -0.1408935317280302 -0.1945378792561855
2360000000.0 0.14014364756515624 -0.1851359797165498
2380000000.0 -0.2140206431635546 0.07462559045615506
2400000000.0 0.19496007133329998 -0.12967567809414954
2420000000.0 0.14724913384535407 0.20940866120246635
2440000000.0 0.22860569023031402 0.16930753983333835
2460000000.0 0.08481505695101889 -0.31003174936529815
2480000000.0 -0.29954530818050024 0.2050974889508885
2500000000.0 -0.1971855102723973 -0.35181915338571673
2520000000.0 0.4098006159037718 -0.17844745592203748
2540000000.0 0.35489481805188205 0.3359242912650317
2560000000.0 -0.43242638207124984 0.2874330870034947
2580000000.0 0.17136947023889187 -0.5226187507588198
2600000000.0 0.2754861418400476 0.5082741208654366
2620000000.0 -0.4922063242170629 -0.3478152014186967
2640000000.0 0.6197232164368147 -0.03206235801195714
2660000000.0 -0.3991734921996024 0.49588575560568876
2680000000.0 -0.35305806924070193 -0.5439618916879329
2700000000.0 0.3801830751734964 -0.5376915155249444
2720000000.0 0.6134314999299744 -0.2569128301859249
2740000000.0 0.6643752607572699 -0.09566682654079026
2760000000.0 0.6588407793856806 -0.13449320563943418
2780000000.0 -0.027769315512384075 0.6688666126641235
2800000000.0 -0.25851289767138463 0.6088253814733764
2820000000.0 -0.5517092881110632 0.34762800348667444
2840000000.0 -0.36379035211862826 -0.5266718545109953
2860000000.0 0.5991192790556941 0.18473662740514524
2880000000.0 -0.596146886043784 -0.14213700536477297
2900000000.0 0.372039271566597 0.46710771837462195
2920000000.0 0.2927389921712179 -0.4972979658037149
2940000000.0 -0.5204194807437896 -0.185684064001804
2960000000.0 -0.42676305830083194 0.3152651870837719
2980000000.0 0.1869792371251551 0.4687752978816964
3000000000.0 0.45292673840904796 -0.16240589886305917
3020000000.0 -0.33466784579969594 -0.31364440152462403
3040000000.0 0.11901732690597099 0.41348390317845796
3060000000.0 0.24353142153335108 -0.31906249736180864
3080000000.0 -0.3044879890558807 0.22964539447265303
3100000000.0 0.35487680089528134 -0.07905526840531835
3120000000.0 -0.03398242346892081 -0.3481580163859461
3140000000.0 0.13097721068277585 0.3180053977685287
3160000000.0 -0.0774069166009338 -0.3310230207764991
3180000000.0 0.24514141470923587 0.22308752838694682
3200000000.0 0.03379682183123833 -0.31965122513239513
3220000000.0 -0.2874102909349097 -0.12338647479881722
3240000000.0 -0.2948671977859348 -0.04692473145885794
3260000000.0 -0.2780919042521954 -0.05937524494227086
3280000000.0 0.18873209530841786 -0.19508142833682926
3300000000.0 0.25044455371086105 -0.03403040177087145
3320000000.0 0.0693378896095354 0.22132956129212375
3340000000.0 -0.1082815634541795 -0.17620892524663428
3360000000.0 -0.17925241852241822 0.04258853618978546
3380000000.0 0.16247890763771292 0.03460640104159433
3400000000.0 -0.1254708689009259 -0.08535319193782463
3420000000.0 -0.09594136464414164 -0.09558625749178244
3440000000.0 0.01338276334351691 -0.1145090209917779
3460000000.0 0.044129167817824395 0.08328931693491387
3480000000.0 -0.08506211724171328 0.007798791656964859
3500000000.0 0.06759174600336527 0.03351438614245956
3520000000.0 -0.03756013218807244 0.05964281360713931
3540000000.0 -0.04327894875617371 -0.0632631489964976
3560000000.0 0.06324373746519031 0.054681147608038425
3580000000.0 -0.09075764656807579 0.010314654442459574
3600000000.0 0.053549094310386326 -0.08358151338525772
3620000000.0 -0.10254412559931407 -0.00131253262622771
3640000000.0 0.04389306531315024 -0.09734292538297139
3660000000.0 0.093551286514227 0.03717301150080854
3680000000.0 0.09344555120334157 -0.05066159824954116
3700000000.0 -0.08259525499708083 0.07193076400153517
3720000000.0 0.03474340743153413 0.09193153582256196
3740000000.0 -0.05249243484711443 0.06583431459312461
3760000000.0 -0.0014475077715601311 0.06814713340460503
3780000000.0 -0.03813682860861592 0.04380485592106043
3800000000.0 -0.056727461809819114 0.006844436341600473
3820000000.0 0.0011839587542610045 0.051048839157318816
3840000000.0 0.017759458081186077 0.04687016380306386
3860000000.0 0.017092842564943762 0.056021674443752945
3880000000.0 -0.015507343064248646 -0.08413554136726548
3900000000.0 0.020052055702528878 -0.10376960894500137
3920000000.0 -0.09722821812106937 -0.06557675703687887
3940000000.0 -0.07123217783040013 0.09256882453868877
3960000000.0 -0.06885771006384617 0.07326939626934625
3980000000.0 -0.0655557377543222 -0.06001723000172099
4000000000.0 -0.02258351421152756 -0.07087484876169926
