!Created with skrf (http://scikit-rf.org).
# Hz S RI R 50.0 
!freq ReS11 ImS11
400000000.0 0.7697591365939276 -0.3930433176081407
420000000.0 -0.24648607662727176 0.7694469948315436
440000000.0 -0.107864676138658 -0.7763031549735443
460000000.0 0.6899421527483133 0.3179778175256897
480000000.0 -0.42882934172390963 -0.5914261149189273
500000000.0 0.6692720705549512 -0.05861967681527171
520000000.0 0.06324508594117284 0.54084118812822
540000000.0 0.39494119515021053 -0.217870364300172
560000000.0 0.2380816478937443 -0.2862339913638368
580000000.0 -0.1359697583006138 -0.2971658737145748
600000000.0 0.25416986746210024 0.21031883823179445
620000000.0 -0.35262877910044205 -0.10014086120815224
640000000.0 -0.38622234365420466 0.031927447833863656
660000000.0 -0.31250219363537524 -0.2678317807723165
680000000.0 -0.374885831550958 0.058214880821318704
700000000.0 0.3524160774131502 -0.0022355690758246896
720000000.0 -0.3428054593214494 -0.10065889674162658
740000000.0 0.3311744335800159 0.07379054610965916
760000000.0 -0.2910911106511436 -0.0849626601695035
780000000.0 -0.2332598902449108 0.2255230699482745
800000000.0 -0.0873836426871072 0.2937931056919324
820000000.0 0.22219612743613937 0.1742499432146539
840000000.0 -0.12440374598490793 0.22204853053741255
860000000.0 0.21059275231333485 -0.032795593453118776
880000000.0 -0.06049130445682575 -0.16277764773103745
900000000.0 0.05078745595298073 -0.10289695016130747
920000000.0 -0.07239181498736412 0.07871432555907218
940000000.0 0.1151753570545196 0.03157735679588288
960000000.0 -0.08844651643891889 0.01787961243566441
980000000.0 0.05703253336819057 -0.0005969309256145293
1000000000.0 -0.032486193510130275 0.032909455029938015
1020000000.0 0.0008384887978972416 -0.06268455670939783
1040000000.0 0.0901189140622557 -0.049594635428597926
1060000000.0 0.10490140927774186 -0.09412031046006805
1080000000.0 -0.15715807833333756 -0.06436622366761684
1100000000.0 -0.19725885237713855 -0.052435988414014874
1120000000.0 -0.2229801246825656 -0.059413769781850576
1140000000.0 0.263281199761836 -0.001210545727147884
1160000000.0 0.21587473594657958 0.1645476733886233
1180000000.0 -0.07688748808945234 -0.2753392855566354
1200000000.0 0.024743130838769247 0.3048920100074877
1220000000.0 -0.3191156941863451 0.06307259752190565
1240000000.0 -0.26826501895284355 -0.18210130582687822
1260000000.0 0.02555327600021735 -0.33500757383439445
1280000000.0 0.2872587799282529 -0.17392533565195226
1300000000.0 0.3376634382529789 -0.08583395982070599
1320000000.0 0.1473353021364078 0.3210033882764032
1340000000.0 0.022064039221170468 -0.3687585564299988
1360000000.0 0.33189611489798915 -0.17948806881637464
1380000000.0 -0.22541237114291002 0.30923244257161514
1400000000.0 0.07183445465101883 -0.38520340534809405
1420000000.0 -0.12335582870204552 0.3654326639289588
1440000000.0 0.34711326518934227 0.1443843799600281
1460000000.0 0.17671209876177632 -0.3207159199908563
1480000000.0 -0.3302645468122981 -0.15166259243811558
1500000000.0 0.3336021484976475 0.011206353946517426
1520000000.0 -0.047125898572654805 -0.30592865043559264
1540000000.0 -0.2410002352770501 -0.14704878650201578
1560000000.0 -0.21676230012265754 -0.13451669032949654
1580000000.0 0.053560901908470446 -0.2056191295351136
1600000000.0 0.041290601308575745 0.1741555048083783
1620000000.0 -0.13762995705015027 0.03082094226937862
1640000000.0 0.040032852793503756 0.11147796352453404
1660000000.0 -0.04994076490169476 -0.08185719237567267
1680000000.0 0.0719526186596675 -0.00913649325963181
1700000000.0 -0.04453615609578996 0.031381040778628494
1720000000.0 -0.039754308416679096 0.011782657799131974
1740000000.0 0.03747176969670371 0.035988591825035596
1760000000.0 0.05606257540339814 0.05981107043545332
1780000000.0 -0.08388313805044277 0.07441039657071123
1800000000.0 -0.01469107114707911 0.13654736756506125
1820000000.0 -0.0866895160471933 -0.1350786181295939
1840000000.0 0.1390555360304199 -0.12876941915228307
1860000000.0 0.19597124491103834 -0.10510528123643223
1880000000.0 0.11058397332460485 -0.21554195065547022
1900000000.0 -0.24357132265647458 -0.09965930901275674
1920000000.0 -0.09485656111347011 0.2658609675199006
1940000000.0 -0.08731387341846543 -0.282752361846753
1960000000.0 0.10111947481812546 0.2818420724077801
1980000000.0 -0.2722309001393613 -0.1254373748964749
2000000000.0 0.2608504510424067 -0.1601115293307124
2020000000.0 0.29119499829515383 0.0833876136053417
2040000000.0 -0.20208383387430465 0.22773088800943017
2060000000.0 -0.2784193323045508 0.1295746810483166
2080000000.0 -0.3000727271863724 -0.06524687564860282
2100000000.0 0.14973711384945626 0.26925694219180524
2120000000.0 -0.274533440315864 0.13990317880994155
2140000000.0 0.1992585688704132 -0.22911398358035587
2160000000.0 -0.29617705183410264 0.018202117883679515
2180000000.0 -0.11556164089210126 0.25931149382242924
2200000000.0 -0.25399694707707643 -0.12333716355151737
2220000000.0 -0.19254595942394662 -0.2077033642272992
2240000000.0 -0.11746965613242681 -0.2543067920480635
2260000000.0 -0.007185153449729453 -0.2740144922237529
2280000000.0 0.09510478455963121 -0.24514993134794857
2300000000.0 0.2190564377611747 0.1192215318458538
2320000000.0 -0.18460063813205133 0.16012357758853726
2340000000.0 -0.07335354395510531 -0.22472154971180994
2360000000.0 0.16396709721707556 0.15820603295800492
2380000000.0 -0.09850016416820698 -0.20820663533701556
2400000000.0 0.23751611659414817 0.014450268532802428
2420000000.0 0.19232351260345945 0.17735475147093674
2440000000.0 0.2846615264864293 -0.038790270340115854
2460000000.0 -0.2108064707449082 -0.24627274745501068
2480000000.0 -0.11775244772734257 0.3390848745677131
2500000000.0 -0.23592680826690451 -0.3234284386324081
2520000000.0 0.3451670126692083 -0.27560197006302356
2540000000.0 0.30645912279111326 0.373900921145904
2560000000.0 -0.507324206353282 0.09873797509538053
2580000000.0 0.2868216527452574 -0.4696714431580302
2600000000.0 0.11583520651023732 0.5652770202675562
2620000000.0 -0.3766153008128955 -0.47336992218136964
2640000000.0 0.6071672350102268 0.13379584291465046
2660000000.0 -0.44777902633285893 0.45567172801794237
2680000000.0 -0.3486908882379942 -0.5485868865679384
2700000000.0 0.3878375274947515 -0.5337352103229952
2720000000.0 0.6352192183159793 -0.19613315635660106
2740000000.0 0.6687990302889903 -0.04032519283536297
2760000000.0 0.6675979760428855 -0.07700262728280245
2780000000.0 -0.0208222545921009 0.668318305766994
2800000000.0 -0.22256331633663218 0.623703117992504
2820000000.0 -0.575700745605587 0.30616326027047663
2840000000.0 -0.38174868693840014 -0.514749884024152
2860000000.0 0.6138590794903857 0.12938876260635396
2880000000.0 -0.5993764288865185 -0.12466469442625533
2900000000.0 0.33174008256519155 0.4960040304992168
2920000000.0 0.35460011985144796 -0.4540302880268595
2940000000.0 -0.4250352010262149 -0.3516820304022715
2960000000.0 -0.5163427825993349 0.12284689299668997
2980000000.0 0.0617901474066034 0.5036273419367236
3000000000.0 0.4840699400441035 0.004779274270536836
3020000000.0 -0.3034071623705538 -0.34536481295094434
3040000000.0 0.20899536318396214 0.3786766835539242
3060000000.0 -0.05385426166003937 -0.39891478063587665
3080000000.0 -0.23823083434957518 0.2965655386373381
3100000000.0 0.28123754902992787 -0.22788041145327928
3120000000.0 -0.08255355831128915 -0.33702189458855975
3140000000.0 0.13543825521896263 0.31327321333918523
3160000000.0 -0.005699698495264648 -0.3379204103000588
3180000000.0 0.20235367301089835 0.2642862247173743
3200000000.0 0.16526324113180885 -0.27660369754029807
3220000000.0 -0.23977248968796333 -0.20328496782113642
3240000000.0 -0.191311761457197 -0.23248146923792876
3260000000.0 -0.27348996074229215 -0.09743742019685799
3280000000.0 0.04882904409129958 -0.2713652607787363
3300000000.0 0.12043679789685666 -0.22402062804423076
3320000000.0 0.22100458899200606 0.0603192717019046
3340000000.0 -0.11874884222960115 -0.16651214908354176
3360000000.0 -0.1423365502923673 0.11449167417779606
3380000000.0 0.1597263521191074 -0.018825912472895414
3400000000.0 -0.00866198501684832 -0.14708478047253837
3420000000.0 0.13467884467778238 -0.00815025746481762
3440000000.0 0.10719322096299957 0.04788547072187408
3460000000.0 0.059519552893233685 0.0796291264653146
3480000000.0 0.004546636864282492 0.09002962941218363
3500000000.0 -0.05888018991248799 -0.04894946787448113
3520000000.0 0.07019417962500127 -0.019618489392729373
3540000000.0 -0.02780500941292519 0.0737331441668874
3560000000.0 0.0792253114981497 0.026990575809164575
3580000000.0 0.02949280518191058 0.08505846714330925
3600000000.0 -0.08198596123057834 -0.04705085610705269
3620000000.0 -0.09731994273414156 -0.0001137488545541169
3640000000.0 -0.044147232093193274 0.09129834650232907
3660000000.0 0.027492471942245023 -0.10080503464223138
3680000000.0 0.10833707260776544 -0.022787970344683446
3700000000.0 0.07334306128804567 0.08403156520886915
3720000000.0 0.08279639528994699 -0.056033374291093535
3740000000.0 0.038949782183726196 0.07584661299083789
3760000000.0 0.04840299379087052 -0.045422565155024366
3780000000.0 0.036778697731560776 0.0455508612705184
3800000000.0 -0.025850359109514463 0.04735938821750278
3820000000.0 0.01251471523177322 -0.04674682171349006
3840000000.0 0.02955415989923815 -0.04349970277517483
3860000000.0 0.04876350263756396 -0.03872329158080397
3880000000.0 0.053300481938477876 0.06856098145503144
3900000000.0 -0.06690543000400916 0.07811058783586107
3920000000.0 -0.07267275969111532 0.0859687865365424
3940000000.0 -0.004818039533647021 0.11507567558555827
3960000000.0 -0.09298340549763173 0.03938730563108467
3980000000.0 -0.06536265494005968 -0.06122881790201408
4000000000.0 0.053864722662180585 -0.05531664970901948
