!Created with skrf (http://scikit-rf.org).
# Hz S RI R 50.0 
!freq ReS11 ImS11
400000000.0 0.7397418224465905 -0.4498460039429428
420000000.0 -0.36321027193680394 0.7225258133196232
440000000.0 -0.43714318676893305 -0.6550930414073348
460000000.0 0.48947456336339407 0.571442161228038
480000000.0 0.18882024759594573 -0.7151624675804283
500000000.0 0.4668840153416014 -0.5035011567059342
520000000.0 0.5562376224341762 0.047234924353241524
540000000.0 -0.2458094590437447 -0.37526367917700193
560000000.0 -0.013358663746642074 -0.36680796717559677
580000000.0 0.34377638520941484 0.002592798081248558
600000000.0 0.2687579085550937 0.23100587770934894
620000000.0 0.2869144711127 -0.18761382229661153
640000000.0 0.2877985491601514 0.253396200936017
660000000.0 -0.30529353311130514 0.2530006604426933
680000000.0 -0.030105487881548713 0.37422205129904307
700000000.0 -0.25656245800622834 -0.21623020367732002
720000000.0 0.10104229030146972 -0.3256623373059213
740000000.0 -0.21969937487316218 0.25635933454064913
760000000.0 -0.29728118605720394 -0.09130593564536081
780000000.0 0.302868642725618 -0.09693501808454409
800000000.0 0.1840044993496563 -0.22608619150036455
820000000.0 -0.020282653533191353 0.2709427045393236
840000000.0 -0.2363540640439249 0.05436195501889269
860000000.0 -0.20258412213525478 0.02917146430361876
880000000.0 0.08105202939620355 0.15024568127815519
900000000.0 0.07377978163833168 -0.10107332846979465
920000000.0 0.006417055125923415 -0.09821833445778025
940000000.0 0.0633617408849062 -0.09349152173073166
960000000.0 0.012957522058118435 0.08307922329276012
980000000.0 0.03572339455002381 0.036232525642412236
1000000000.0 -0.051375751653348276 0.006196499299126213
1020000000.0 0.05910015019663193 -0.03661888132667016
1040000000.0 -0.012595825730192793 0.10768359389187777
1060000000.0 -0.08926485475034422 -0.10015963449115238
1080000000.0 -0.11723141564928398 -0.12383229814584429
1100000000.0 -0.15497589090809824 0.12926952177015963
1120000000.0 -0.0605623085814826 -0.2204614535371374
1140000000.0 0.20208361120916765 -0.16811622506835433
1160000000.0 -0.007346920719777246 0.27045286845166877
1180000000.0 -0.2230257742114193 -0.18171756196591135
1200000000.0 -0.08647439299740119 0.28744782861229984
1220000000.0 -0.2821007084890184 -0.16284609770995367
1240000000.0 -0.07010470542703316 -0.3260505533240513
1260000000.0 -0.3443658004121248 0.010243695760121832
1280000000.0 -0.31688863455860694 -0.09967053969980488
1300000000.0 0.12083959838535664 -0.3175195395111241
1320000000.0 -0.059379996530372146 0.33690900685428743
1340000000.0 0.30845728393533856 -0.20244643457394212
1360000000.0 0.376103257828551 -0.026697681616162962
1380000000.0 -0.35062852065586514 0.1655885199649512
1400000000.0 -0.11206434555166325 -0.3784516692443618
1420000000.0 0.024529590897983643 0.3840733788001985
1440000000.0 0.3681583432685267 -0.0016581616143893979
1460000000.0 0.35881454978265814 -0.03268400940007427
1480000000.0 -0.10409735701093725 -0.34722743606722445
1500000000.0 0.26892642331566424 0.20751128226200974
1520000000.0 -0.29932791125644376 -0.09136572084527622
1540000000.0 -0.2595508787776416 0.10270560965121953
1560000000.0 -0.029856810425342807 -0.2427464449972653
1580000000.0 -0.13063327794809712 0.16580675418400162
1600000000.0 -0.19335405452807788 -0.025663480937327395
1620000000.0 0.10917693712374558 -0.10325132328145412
1640000000.0 -0.11533339071467136 0.02637600218886143
1660000000.0 -0.07917491580663277 0.03561439619416034
1680000000.0 0.0007274772730565342 -0.06473069907543746
1700000000.0 0.032757051584847895 -0.05366220670110226
1720000000.0 -0.043841152581638794 0.03289867520219489
1740000000.0 0.04402371480215494 0.024192914981042053
1760000000.0 -0.0559946524951323 0.031383630499533334
1780000000.0 -0.09031916582874493 0.03517028821222387
1800000000.0 -0.13457606912080305 0.023794614436341583
1820000000.0 0.028608818646346488 0.17272627780467914
1840000000.0 0.018330528512059806 -0.2030176600503254
1860000000.0 -0.22978737248710956 0.007668215742240364
1880000000.0 -0.14002576512786985 0.19026826823539086
1900000000.0 -0.2452114443410001 -0.06534854551929949
1920000000.0 -0.2329178454212053 0.14202843516378524
1940000000.0 0.21234745780749845 0.19778718791148503
1960000000.0 -0.2580039413230416 -0.15920817945085924
1980000000.0 0.125985775721005 -0.28473030436328894
2000000000.0 0.08421899692244114 -0.3063901593760958
2020000000.0 0.09382103446970302 -0.29185638344611503
2040000000.0 0.20057339594309867 0.2284256522731931
2060000000.0 -0.1708215192392285 0.25023958431592647
2080000000.0 -0.24479667640208463 -0.18487391676777615
2100000000.0 0.07160569307748048 0.302315958669731
2120000000.0 -0.30883865279887296 -0.02438088423562083
2140000000.0 0.2206891130122288 -0.21402809270049203
2160000000.0 -0.2914634533215307 0.06304343020648479
2180000000.0 -0.0590971061547609 0.2768031915920524
2200000000.0 -0.2617604284144458 -0.09758000895667181
2220000000.0 -0.12870000184267427 -0.25293350817619187
2240000000.0 -0.13990616793175487 -0.24623419291176232
2260000000.0 -0.26097738231497064 -0.08220512919205251
2280000000.0 0.0496825663488813 -0.25320719807800407
2300000000.0 0.16527664720278604 0.18605581722079725
2320000000.0 -0.11977889531465613 0.21115602713079842
2340000000.0 -0.1568205598546104 -0.17182505066222387
2360000000.0 -0.022833682548393266 0.2255422041716849
2380000000.0 -0.11377451182101964 -0.20350212797671657
2400000000.0 0.23352520879753805 0.0516370927791707
2420000000.0 0.187341074017339 0.18309712788378849
2440000000.0 0.260420365238671 0.11995649087294646
2460000000.0 -0.0522098967197941 -0.31828704874866365
2480000000.0 -0.2752162931246945 0.23747140419492943
2500000000.0 -0.26013803428697857 -0.3063939432821087
2520000000.0 0.4043670247011172 -0.17798334599089288
2540000000.0 0.15464924587135367 0.45941462167392794
2560000000.0 -0.5092807265954372 0.10522397912347607
2580000000.0 0.1671847592812681 -0.5248768087116935
2600000000.0 0.18669119361479347 0.5459452955597743
2620000000.0 -0.4143026792844945 -0.4389739526016653
2640000000.0 0.616763411886377 0.06281156900763893
2660000000.0 -0.4990360658283364 0.3978284869863774
2680000000.0 -0.30402378994252094 -0.5759661010595281
2700000000.0 0.39911306041238476 -0.5276195036713255
2720000000.0 0.6354223007044912 -0.2034834705866244
2740000000.0 0.6715440796791169 -0.03497299412019972
2760000000.0 0.6696595208813894 -0.08327062631310436
2780000000.0 -0.09039396315762409 0.6645050551762238
2800000000.0 -0.2739294342474752 0.6036088476520055
2820000000.0 -0.58081128167863 0.2964629520268726
2840000000.0 -0.37403141901361275 -0.5203427671974448
2860000000.0 0.6197512710293629 0.09700616143150234
2880000000.0 -0.5827877038864073 -0.1901110216426392
2900000000.0 0.3014783271286604 0.5159384633462576
2920000000.0 0.33032633378720977 -0.475506210214638
2940000000.0 -0.5002482943000937 -0.24169491753550063
2960000000.0 -0.45417250540932896 0.279825827823319
2980000000.0 0.28838061411168225 0.42016916770799684
3000000000.0 0.44975176429852054 -0.1794274209257119
3020000000.0 -0.34346753855520273 -0.308325204140226
3040000000.0 0.2200967786956939 0.3750547510751686
3060000000.0 -0.04898532522818079 -0.40120548131007316
3080000000.0 -0.1243364812505279 0.3575110307422086
3100000000.0 0.21186533522177894 -0.28916886593683283
3120000000.0 0.132086243277455 -0.3177573989199156
3140000000.0 0.01842861824555876 0.3396433353311397
3160000000.0 -0.03717811343782615 -0.3353854416190755
3180000000.0 0.20193273607305043 0.2574265593660195
3200000000.0 0.29130984285368067 -0.12392792985315695
3220000000.0 0.00310295792569996 -0.31585061482495497
3240000000.0 -0.18876486608789594 -0.2381777576595415
3260000000.0 -0.23319896029919607 -0.17106530154147306
3280000000.0 0.1358776479407749 -0.24101666292752594
3300000000.0 0.20924249242868795 -0.14850782208583957
3320000000.0 0.18611668992380528 0.13404627528950752
3340000000.0 -0.09083302911548755 -0.18515474223753256
3360000000.0 -0.18138792090414343 0.03756101792147013
3380000000.0 0.11050592488734463 -0.12286837515614149
3400000000.0 -0.089844759693435 -0.11987502159772682
3420000000.0 0.06293631541719333 -0.12023679983905744
3440000000.0 0.09494312139985604 0.06969632047495919
3460000000.0 0.09345939364349796 -0.03696721982724395
3480000000.0 -0.0035943059909736143 0.08846253815745468
3500000000.0 -0.0613888378157482 -0.04364187272356818
3520000000.0 -0.024038448387480874 -0.06626629297608358
3540000000.0 -0.05240830772282759 0.052710665649651704
3560000000.0 -0.03694032846904813 0.06833275918004122
3580000000.0 0.0684890388953837 -0.05640422537743799
3600000000.0 0.08591294445180461 -0.04295833005367289
3620000000.0 -0.06524978264946886 -0.07189651964740977
3640000000.0 -0.0505730068948561 0.08922318679477999
3660000000.0 -0.03661280129534364 -0.0986972883210403
3680000000.0 -0.008842024282570068 -0.1095335523705021
3700000000.0 0.06616910136198687 0.08735842790706945
3720000000.0 0.016367298093532715 0.09913856779516518
3740000000.0 0.009158184708270083 0.08952235027385003
3760000000.0 -0.0636464901576358 0.03104535918659441
3780000000.0 0.05282012431212734 -0.0238252850395801
3800000000.0 0.03972056373271756 -0.025001063617604583
3820000000.0 -0.0029010314293178565 -0.045072224478395526
3840000000.0 0.05263950115773167 -0.014492633148301345
3860000000.0 0.04785414483319282 0.04682805434837661
3880000000.0 0.0895946046839307 -0.007969000740897946
3900000000.0 -0.002488527427728049 0.10499710751487852
3920000000.0 -0.0923885223229491 0.06673497574649705
3940000000.0 0.06377596048969965 0.097938455124028
3960000000.0 -0.08727590426145843 0.05116378082797147
3980000000.0 -0.03325388466492544 -0.08077703057850373
4000000000.0 0.03929667037998573 -0.06396062176714272
