!Created with skrf (http://scikit-rf.org).
# Hz S RI R 50.0 
!freq ReS11 ImS11
400000000.0 0.7797565237960918 -0.36991591778714344
420000000.0 -0.2552633483060008 0.7699001558627399
440000000.0 -0.27014242979859143 -0.7360597557588294
460000000.0 0.6622774158294665 0.3682349517887448
480000000.0 -0.40101927664095416 -0.6081334747863426
500000000.0 0.6647566006324473 -0.1147874984537042
520000000.0 0.11684541193825676 0.5339806349439195
540000000.0 0.35111730519123 -0.2870727778218924
560000000.0 0.029035188503742287 -0.36364538348900494
580000000.0 0.23841482973734054 -0.23660582393228108
600000000.0 0.32516049668299013 0.058819465717142895
620000000.0 -0.35970679094165064 -0.04657571183981468
640000000.0 -0.371473382368502 0.09777156687915949
660000000.0 -0.33494546232769185 -0.23667127339514002
680000000.0 -0.31091315450614665 -0.21406002170134308
700000000.0 0.3518967792176669 0.05256456300099481
720000000.0 -0.33454782031123254 0.14036591141020813
740000000.0 0.30809338744130155 -0.12162721011755628
760000000.0 -0.09268948852322594 -0.28903994065514177
780000000.0 0.07333594512653546 0.3197421352620519
800000000.0 0.005531811962205463 0.30482454603773773
820000000.0 -0.18785554621704642 0.20908851756417263
840000000.0 0.13203308737893318 0.22770894383696388
860000000.0 0.12612698689430374 -0.16715851920408462
880000000.0 0.12670724775588757 -0.1124322267101815
900000000.0 0.12064316582637777 -0.015698891256946103
920000000.0 0.10611411047331146 0.011237951551182967
940000000.0 0.04503171824988469 0.10470023715471126
960000000.0 0.049205507639939264 -0.07813839880574268
980000000.0 -0.05813023395912952 -0.0011572062193685652
1000000000.0 -0.007585793355700826 0.045535140038824806
1020000000.0 -0.058199137419265835 0.03462795132168979
1040000000.0 0.06211081516751714 -0.07813473641815631
1060000000.0 0.06965242782808714 -0.12001741915862521
1080000000.0 -0.10869181324671413 -0.13409901866512522
1100000000.0 -0.19559425670023978 -0.05480760294483824
1120000000.0 -0.22107535791866684 0.06967555560931382
1140000000.0 0.2567450159391283 0.05382749583307516
1160000000.0 0.17170666308262755 0.2092602658220382
1180000000.0 -0.24439828845408407 -0.1475741838143373
1200000000.0 -0.055770692005342064 0.300847298568877
1220000000.0 -0.3219976535811018 0.032883929303991685
1240000000.0 -0.31512093307133504 -0.08211464457919546
1260000000.0 0.1258854820131948 -0.3117899669119152
1280000000.0 0.32181011221660166 -0.09595258373326293
1300000000.0 0.28470750015045626 -0.19874696256221222
1320000000.0 0.05212777723302247 0.3516611212486476
1340000000.0 -0.04633067799567276 -0.3657580000428604
1360000000.0 0.325712966153223 -0.19055959948640575
1380000000.0 -0.20452618655352747 0.3231079456418079
1400000000.0 0.05777087104645918 -0.386891043643173
1420000000.0 -0.05012385258483403 0.38336938697534667
1440000000.0 0.32625927532185905 0.18398859666438752
1460000000.0 0.279202966580391 -0.2371440257141259
1480000000.0 -0.3556965997713679 -0.08202449250872884
1500000000.0 0.33065168741666207 -0.020336222027430826
1520000000.0 -0.0193213180493877 -0.31067443021297486
1540000000.0 -0.2821914989997424 -0.02490636376352426
1560000000.0 -0.19564266134567584 -0.1593634736225212
1580000000.0 0.15149630390751334 -0.14935404439830288
1600000000.0 0.09545615024939504 0.15314168313974888
1620000000.0 -0.13376164614318142 0.03529135911017241
1640000000.0 -0.054622567544924866 0.10601279674109727
1660000000.0 -0.055742212915602427 -0.07962027766176533
1680000000.0 -0.007970901858672346 -0.06872518870111972
1700000000.0 0.005555105143583964 -0.053532130186158565
1720000000.0 0.0019272596102718805 -0.041855460719055645
1740000000.0 -0.011305779687462707 0.0512168239918356
1760000000.0 0.08213956368058659 -0.008382226843582093
1780000000.0 -0.1063775664946613 0.029340789948164425
1800000000.0 -0.1300987175559807 0.045545500643866935
1820000000.0 -0.12692444832233282 -0.10319101459629888
1840000000.0 0.04103421904875073 -0.18319683288211638
1860000000.0 0.21718527195589918 -0.03302228333430361
1880000000.0 0.19821271060602588 -0.14168391279175582
1900000000.0 -0.23637516383783513 -0.11660696985736912
1920000000.0 -0.07305332688029423 0.2732729086662743
1940000000.0 -0.17014899923164992 -0.24175298105248316
1960000000.0 0.07386090443210801 0.28789383494394055
1980000000.0 -0.16515763669883088 -0.2500132092692437
2000000000.0 0.24514682968671345 -0.18753330900794637
2020000000.0 0.302892715041885 0.02707172709342915
2040000000.0 -0.10185173840923176 0.2850701411578852
2060000000.0 -0.29415797123864934 0.0867418013224968
2080000000.0 -0.2929020746708272 -0.09117896867761273
2100000000.0 0.2003913169663162 0.23595492357747236
2120000000.0 -0.2508642483565917 0.180678671487763
2140000000.0 0.14054580656997348 -0.26910224717680536
2160000000.0 -0.2918380731235879 -0.03917046945054022
2180000000.0 -0.22434136352485676 0.17457110137305218
2200000000.0 -0.2655119489741073 -0.1031887561220077
2220000000.0 -0.28176485741226076 -0.020512612153820973
2240000000.0 -0.04578492918547159 -0.2743322845171047
2260000000.0 0.09804490459471128 -0.2571080073099117
2280000000.0 0.07612239798008577 -0.2516302906300265
2300000000.0 0.2097099558723229 0.13475075341934692
2320000000.0 -0.16018780108049885 0.1840434635417178
2340000000.0 -0.1212301015104305 -0.20124483488398803
2360000000.0 0.10487788069747461 0.20173260790612724
2380000000.0 -0.11937078419565006 -0.1989699223023672
2400000000.0 0.23750222588116002 -0.006544118767586881
2420000000.0 0.16524151194769693 0.20205504018724552
2440000000.0 0.2864431450602604 0.01031687457822433
2460000000.0 -0.19524461857801334 -0.2593524100816763
2480000000.0 -0.1033137864899331 0.3441595263285771
2500000000.0 -0.29718603870203936 -0.2688422045735448
2520000000.0 0.3777152599912478 -0.22695691771646875
2540000000.0 0.29534587562859965 0.3817905375974447
2560000000.0 -0.5112360610422079 0.07594964745077586
2580000000.0 0.23320286301297916 -0.49942075688837506
2600000000.0 0.1712882866104513 0.5504208102657175
2620000000.0 -0.3802116440297743 -0.46924569559240104
2640000000.0 0.6149668031917997 0.09525666393101574
2660000000.0 -0.43995427067274173 0.46365571433452274
2680000000.0 -0.3543971192918375 -0.5446495681524498
2700000000.0 0.40448713701086075 -0.5211494342596589
2720000000.0 0.6432269350451673 -0.16783785137310556
2740000000.0 0.6660860762546296 -0.06888424907353215
2760000000.0 0.6587024971825527 -0.133100562256943
2780000000.0 -0.02176531989732881 0.6680827483315258
2800000000.0 -0.20727116952638522 0.6285060169096396
2820000000.0 -0.5691112308433667 0.3174431869296316
2840000000.0 -0.36532805050576816 -0.526514847274998
2860000000.0 0.6140257287965584 0.1318013642658604
2880000000.0 -0.6090688345870257 -0.060992555577612365
2900000000.0 0.35024122144169006 0.48245874455296484
2920000000.0 0.359893721861416 -0.4501298245226675
2940000000.0 -0.46247065277093413 -0.3013593189556825
2960000000.0 -0.5102720953292965 0.14566747876931635
2980000000.0 0.06244555300147051 0.5033410533501571
3000000000.0 0.4831454715856348 0.0393235531623648
3020000000.0 -0.2988493453359507 -0.3499347662792366
3040000000.0 0.12144317449522248 0.41419686073401646
3060000000.0 0.03551586575168526 -0.40206919595490487
3080000000.0 -0.21103338682415632 0.3161500026265693
3100000000.0 0.2866972400429299 -0.21997931477736837
3120000000.0 -0.029312069651298102 -0.345068065556505
3140000000.0 0.05396105959385234 0.33718013944023933
3160000000.0 -0.06802208701996704 -0.3333744776504941
3180000000.0 0.20143816965571515 0.2639928501536569
3200000000.0 0.25218640987817054 -0.2014088992913404
3220000000.0 -0.255961004488896 -0.1826110861496979
3240000000.0 -0.14563649377021656 -0.26396362083413744
3260000000.0 -0.2683835565861465 -0.11385576762700238
3280000000.0 0.03582156336544216 -0.2710943366716874
3300000000.0 0.22409388580714873 -0.11915487772909415
3320000000.0 0.20522892497507933 0.10463112561631117
3340000000.0 -0.20263120590250414 -0.01618620123418439
3360000000.0 -0.15940602219007935 0.08373836499614658
3380000000.0 0.16303922387865183 -0.003152632617207177
3400000000.0 -0.14717512371788274 0.001208429714423854
3420000000.0 0.1011397212204955 0.0862665055376723
3440000000.0 0.0342083682666608 0.11598581969807845
3460000000.0 0.04852859374399187 -0.08739434327258098
3480000000.0 -0.01321812747632393 0.08649524773863118
3500000000.0 0.04859559626635868 -0.060235391603579845
3520000000.0 0.044847995218896236 -0.059033890464730156
3540000000.0 -0.03415471185078703 0.06997776200455715
3560000000.0 0.08486793261644221 0.002932736555175693
3580000000.0 0.055330171376302056 0.07209431755721915
3600000000.0 -0.06684024762393201 -0.06268602453977173
3620000000.0 -0.028131886453083378 -0.09308823456217548
3640000000.0 0.03563320119127418 0.09789725170132686
3660000000.0 -0.04964577223380822 -0.08981819097203503
3680000000.0 0.09000897679912635 0.06429093742601709
3700000000.0 0.061467040480560876 0.09551982023379509
3720000000.0 0.06512637306664196 -0.07486891402386127
3740000000.0 -0.003006867110491732 0.08480190448938543
3760000000.0 -0.003408411193845063 -0.06778580078545024
3780000000.0 0.05803150767304569 -0.004837087643389538
3800000000.0 -0.0399265400126593 -0.03525253362940647
3820000000.0 0.02200529629077456 -0.044085818003643217
3840000000.0 0.02266930098587278 -0.04709857728270496
3860000000.0 0.06193289013372818 -0.005308993700575815
3880000000.0 0.05636971592015622 0.06420955352022202
3900000000.0 -0.10247029874203095 0.01029284628259343
3920000000.0 -0.04152084192059627 0.10627007059080115
3940000000.0 0.11221255920011355 -0.018819173327868276
3960000000.0 0.026382540664871588 -0.09555179237893449
3980000000.0 0.003075567203549636 -0.09145778868557096
4000000000.0 -0.036962046209689986 -0.06350166756684307
