!Created with skrf (http://scikit-rf.org).
# Hz S RI R 50.0 
!freq ReS11 ImS11
400000000.0 0.7458378738393021 -0.4370515547806348
420000000.0 -0.3780339697366016 0.7136858679032008
440000000.0 -0.3452408642754102 -0.7057379246704876
460000000.0 0.6909323758384972 0.3024320904188316
480000000.0 -0.29900185896148884 -0.6619215550730394
500000000.0 0.6166809789721149 0.27171912023969785
520000000.0 0.18487567112669712 0.5281472720543264
540000000.0 -0.17868015048406816 -0.4146830724192862
560000000.0 0.2911956307692573 -0.21520223940903427
580000000.0 0.1511393659221531 -0.2974453404113168
600000000.0 0.27858486285431106 -0.17759617247058454
620000000.0 -0.34695614915273904 -0.09173847699610398
640000000.0 -0.3755053181435937 -0.06436259137521642
660000000.0 0.03242826797432726 -0.4156044771376792
680000000.0 -0.37678431123039063 0.07796992503549889
700000000.0 0.2687344992735262 -0.22139712809478368
720000000.0 -0.20019872488917398 -0.29874882747182546
740000000.0 0.32908983324488145 0.08995441142709182
760000000.0 -0.24975436817130295 -0.16186291679155893
780000000.0 -0.2124340167821764 0.25128388232368803
800000000.0 0.02408392249274799 0.3086501625014244
820000000.0 0.16086989908694266 0.2321646406554203
840000000.0 0.19743122902518986 0.1623934591504794
860000000.0 0.0460101478784694 -0.19779370272554206
880000000.0 0.1172043722310063 0.12282288222524813
900000000.0 0.06496580906661664 0.10887070544653504
920000000.0 -0.07337004415367024 -0.08337998682175848
940000000.0 0.04743207259450981 -0.10575787669445927
960000000.0 0.02862039910683497 -0.0786427532227887
980000000.0 -0.05169930172920479 -0.014152421889341207
1000000000.0 -0.04916430081650006 0.029020477676090856
1020000000.0 0.0508602968793789 -0.048369269956696506
1040000000.0 -0.08518197716112454 -0.04824194342152017
1060000000.0 -0.060067814785241945 0.124411124564618
1080000000.0 -0.12064993919968474 -0.12731879150333028
1100000000.0 -0.1782544818405054 0.09793571722027299
1120000000.0 -0.22947611327938358 0.0051754168094972665
1140000000.0 0.177199177725704 0.19410939113516726
1160000000.0 0.008344747742013662 0.27588765725279146
1180000000.0 -0.21856139670904207 -0.1856631346350321
1200000000.0 0.07363430271621528 0.29330350181259346
1220000000.0 -0.32239791150185343 -0.04223789639198921
1240000000.0 -0.2878927279399468 -0.14707530322221632
1260000000.0 0.04655978068259462 -0.3336831434002753
1280000000.0 0.25684853632291627 -0.22193000506233104
1300000000.0 0.2949869333357684 -0.18394962229793857
1320000000.0 0.15716557087734576 0.31607462675749026
1340000000.0 0.008751166178395227 -0.3688440974233033
1360000000.0 0.32620841889545443 -0.19248906112346448
1380000000.0 -0.22063599858008476 0.3160211354600413
1400000000.0 -0.04593054743403181 -0.38886257313059935
1420000000.0 -0.09273950809848476 0.37256327225167446
1440000000.0 0.2991669550517338 0.22482101996110587
1460000000.0 0.24661282025223202 -0.2729201755611699
1480000000.0 -0.3553608788975174 0.08269354439604694
1500000000.0 0.2849672541170605 -0.16767380434317575
1520000000.0 0.042137298908012696 -0.3043019680823941
1540000000.0 -0.21210806763815607 -0.18887884919302436
1560000000.0 -0.19387352846697747 -0.1662064166890207
1580000000.0 -0.03588328883603812 -0.21058599186167035
1600000000.0 0.04671959367722314 0.17004827511291556
1620000000.0 -0.14102538225523265 0.011625810231391594
1640000000.0 0.016973562872673962 0.11940477393274364
1660000000.0 -0.08326095551393566 -0.047397759030178184
1680000000.0 0.04270679063497948 -0.058233935015596705
1700000000.0 -0.03844673344804493 -0.04016389680310083
1720000000.0 0.015387675646543572 0.03880060454421752
1740000000.0 0.005958113978243009 0.05065856812738971
1760000000.0 0.08291891526744986 -0.006080586231583455
1780000000.0 -0.02882908263028002 0.10767601920800726
1800000000.0 -0.04017489708647064 0.1318065552013916
1820000000.0 -0.1477050552566902 -0.06926797501688593
1840000000.0 0.012160904233232146 -0.1858935987182063
1860000000.0 0.2156933722195009 0.0462836890182611
1880000000.0 0.15975178280126473 -0.18464149788152223
1900000000.0 -0.24926531400560098 -0.08577288273068227
1920000000.0 -0.06244877425928187 0.27587577640448446
1940000000.0 -0.08298449037792327 -0.2827043243500516
1960000000.0 0.04275802654201916 0.2950516814783121
1980000000.0 -0.20694192389901947 -0.21606067290315192
2000000000.0 0.2725814224126921 -0.14343472291219064
2020000000.0 0.3033648863678625 0.025328040349681342
2040000000.0 -0.10937517941408746 0.2824245062308036
2060000000.0 -0.24653372724230072 0.18276861250408966
2080000000.0 -0.29509802463048607 -0.0885180954506502
2100000000.0 0.05019427012058852 0.30557691439003676
2120000000.0 -0.3103540890641663 -0.005660773999543335
2140000000.0 0.19709183002664213 -0.2321000111306055
2160000000.0 -0.2949288576968446 0.022556347268556123
2180000000.0 -0.23914801440061403 0.15285876863233497
2200000000.0 -0.27269660855410893 -0.07368147403549012
2220000000.0 -0.15936690840690512 -0.2321651853056498
2240000000.0 -0.10188275737396905 -0.2613714189410362
2260000000.0 -0.023905935378700567 -0.27412726761116485
2280000000.0 0.04503211478048387 -0.2583692348173595
2300000000.0 0.22953588122189986 0.09846394265214534
2320000000.0 -0.15689334340936903 0.1852327532191191
2340000000.0 -0.1062811214703739 -0.2119439663313601
2360000000.0 0.19756658052249343 0.1145956633256309
2380000000.0 -0.14008536709608813 -0.18288846468955358
2400000000.0 0.23437713834420484 0.03872609118494195
2420000000.0 0.18595568126583614 0.18366252936983513
2440000000.0 0.28451448208191743 0.04530025244852035
2460000000.0 -0.22529699959102636 -0.23288969752820712
2480000000.0 -0.08363357919976995 0.3496734157653362
2500000000.0 -0.26666528338432993 -0.2992873825955158
2520000000.0 0.39155659917235036 -0.20540169129248168
2540000000.0 0.25218818723851516 0.412783992418266
2560000000.0 -0.5117653064969886 0.07395870405620922
2580000000.0 0.2522332688186252 -0.48909901261870276
2600000000.0 0.10934775242243527 0.566433707066422
2620000000.0 -0.38461307677243406 -0.46626598746081604
2640000000.0 0.6093618059823945 0.12159510323775378
2660000000.0 -0.46223958540139426 0.4410610294630531
2680000000.0 -0.3970476954778268 -0.5158603071528131
2700000000.0 0.3663689352439212 -0.5493311258115807
2720000000.0 0.6261077768665086 -0.2275999845951884
2740000000.0 0.6718795234590895 -0.007150818567271849
2760000000.0 0.6717748774470799 -0.04586731523606678
2780000000.0 -0.07011625542047221 0.6662436934577962
2800000000.0 -0.2439526350917444 0.6165570634537094
2820000000.0 -0.5721511984238465 0.31394259432442134
2840000000.0 -0.36915519851515705 -0.5242431314128247
2860000000.0 0.6044684914265304 0.17028822474167063
2880000000.0 -0.6026496565695637 -0.11102610250952898
2900000000.0 0.36776665917658236 0.4700432955975131
2920000000.0 0.34405023293707876 -0.4632273295872173
2940000000.0 -0.47029413220811905 -0.290675347529818
2960000000.0 -0.4926576799056865 0.2000824086062022
2980000000.0 0.11917772999216511 0.49239106206927463
3000000000.0 0.48549275920454404 0.01290530599804727
3020000000.0 -0.3580486693655585 -0.29266891388487504
3040000000.0 0.20682453185142985 0.38056451201439934
3060000000.0 -0.03417568476534117 -0.4014670388471301
3080000000.0 -0.25592801426118056 0.279893098863209
3100000000.0 0.2777901141845108 -0.23310744947032253
3120000000.0 -0.009226020033456166 -0.34655980885459914
3140000000.0 0.03127813557324386 0.34079116201516974
3160000000.0 -0.05376290852641964 -0.3362531975938218
3180000000.0 0.16679473823236757 0.28589601851850105
3200000000.0 0.26204929291507556 -0.18759403102736125
3220000000.0 -0.20408953205790423 -0.24079342720436803
3240000000.0 -0.22442389063807833 -0.20451611778188716
3260000000.0 -0.28392853612577973 -0.05091183870840863
3280000000.0 0.12873362970909796 -0.24191994937030337
3300000000.0 0.21160284064240753 -0.14031382748352733
3320000000.0 0.2218492194378541 0.06523787164235265
3340000000.0 -0.2033923954612264 -0.004666921501731834
3360000000.0 -0.11341226097013152 0.1408539938507386
3380000000.0 0.16013787619690623 0.027879890341217285
3400000000.0 -0.13468105448990345 -0.06276850023038169
3420000000.0 0.11554865448624485 -0.0705416909608816
3440000000.0 0.06611115362540738 0.1000922846504634
3460000000.0 0.09958145843889443 0.0028100365855809727
3480000000.0 0.01382807957810343 0.08739485588779099
3500000000.0 0.04349765252668513 0.06289543955345187
3520000000.0 0.05963642835475576 0.04418277635618745
3540000000.0 0.060169890974939064 0.049326863040148036
3560000000.0 0.06827875352486483 -0.04565510904417827
3580000000.0 0.04487957247825829 0.07865374714988349
3600000000.0 -0.07462768829626568 0.05702637888858679
3620000000.0 -0.08621857908459447 0.04009138548812471
3640000000.0 -0.0019305076471838748 0.10179037785962253
3660000000.0 0.04718948604869698 -0.09345466459617599
3680000000.0 0.027566332131185613 -0.10781079454021084
3700000000.0 0.10423815435529889 0.04400216431693258
3720000000.0 0.10085731079083124 0.00869968243274544
3740000000.0 0.007554894154060018 0.08579101240760197
3760000000.0 0.06293190748191294 -0.02117198257893634
3780000000.0 0.05835447294515957 -0.008356474896093298
3800000000.0 -0.04499602287221888 -0.030832206095621404
3820000000.0 0.050292046546970434 -0.002311749960295498
3840000000.0 0.05204412971445705 -0.01342988268228433
3860000000.0 -0.014441678177457087 -0.0611089400811659
3880000000.0 0.0014135599180067492 0.08707826776895167
3900000000.0 -0.10185730522988308 -0.02147277097056422
3920000000.0 -0.06771024112185099 0.09134780607238507
3940000000.0 -0.02452263569899509 0.11139748781871146
3960000000.0 0.009072967553231682 -0.09859674487663533
3980000000.0 0.08533380872151396 -0.021840341063644
4000000000.0 0.03710136870810709 0.06795226387854328
