!Created with skrf (http://scikit-rf.org).
# Hz S RI R 50.0 
!freq ReS11 ImS11
400000000.0 0.7031909999686525 -0.5018956842107157
420000000.0 -0.36476045023539116 0.72150416975128
440000000.0 -0.09266430262921407 -0.777296302506728
460000000.0 0.7297693649004335 0.20889648382889414
480000000.0 -0.3656549023444933 -0.6309941678830113
500000000.0 0.6692244002889922 -0.05901279792032898
520000000.0 -0.024297407830357484 0.5501623160434512
540000000.0 0.232042401705466 -0.38855334226796423
560000000.0 0.30520662925349 -0.1901845200384322
580000000.0 0.1590065906687673 -0.29905525342669176
600000000.0 0.33213166451805387 -0.024893686148793722
620000000.0 -0.3484722677629858 0.10092234767542266
640000000.0 -0.37941153215872936 0.04684851875295003
660000000.0 -0.30294835163120193 -0.28316330690999664
680000000.0 -0.3501488493252598 -0.13443623382737124
700000000.0 0.34718386678202345 0.08446169259729852
720000000.0 -0.35980052589274414 -0.025407219649503546
740000000.0 0.2245829875342358 -0.2546319635334991
760000000.0 -0.18470815814014918 -0.2353721787195535
780000000.0 0.024979060393512213 0.326057490067641
800000000.0 -0.15638415396723326 0.2590110503693901
820000000.0 -0.2866722616764784 -0.013628788257125424
840000000.0 0.26680142763166936 0.01073934462604753
860000000.0 -0.20400869035653124 0.007991421792138147
880000000.0 0.13548288529121333 0.09648449278520972
900000000.0 -0.09529049371798828 0.07185596100525782
920000000.0 0.10516795693061864 -0.04352670103422816
940000000.0 0.08300072264947998 -0.07651185920049584
960000000.0 0.007955552232981866 -0.08988045130261284
980000000.0 0.0269322460526466 -0.05227280982329554
1000000000.0 0.02815181295101173 0.037467987363000416
1020000000.0 -0.013864508591296721 0.05913599474785169
1040000000.0 -0.0027294607025601103 0.10016056148771535
1060000000.0 0.12019839733080166 -0.07870032374235865
1080000000.0 -0.07062249074456214 0.15620721783693872
1100000000.0 -0.07914958705608256 -0.185397922839801
1120000000.0 -0.23169141371584828 -0.02411140991094456
1140000000.0 0.2636504051216846 0.022031374861621003
1160000000.0 0.10133858876589978 0.24962566355480328
1180000000.0 -0.2433574903085063 -0.1558107103206769
1200000000.0 0.026250368083884874 0.303314523732124
1220000000.0 -0.32458349136251047 -0.014677161190942013
1240000000.0 -0.2950971161935727 -0.13724485037247153
1260000000.0 0.06442889691559615 -0.3302377910427472
1280000000.0 0.2881093976674749 -0.17414653853861206
1300000000.0 0.27806191731851465 -0.20872656597424816
1320000000.0 0.13131752250403506 0.3287822196168833
1340000000.0 0.08781193648067738 -0.3585865616122883
1360000000.0 0.3123719441216605 -0.21319053110739458
1380000000.0 -0.16728097536147604 0.34502946298090326
1400000000.0 0.033141018375373296 -0.3881260214121521
1420000000.0 -0.06025897191379848 0.3812148783319237
1440000000.0 0.2799809105797292 0.25195116504171483
1460000000.0 0.17078629527881042 -0.3253684093220261
1480000000.0 -0.3608068740360562 0.037146095254256925
1500000000.0 0.3267700277380499 0.05240843861378498
1520000000.0 0.07193436975194908 -0.30326906552167515
1540000000.0 -0.28422341788742866 0.01651360043226148
1560000000.0 -0.22432107605195067 -0.11128064351970672
1580000000.0 0.15248560139077327 -0.14819956087344774
1600000000.0 0.01154377086048589 0.17956722527680266
1620000000.0 -0.12823664194899984 0.06082660994560087
1640000000.0 0.08303496061599015 0.08568909559957452
1660000000.0 -0.06761886340653363 -0.0643372774395479
1680000000.0 -0.015548208792785342 0.07096204210901577
1700000000.0 0.013977819797893863 0.05500960564594735
1720000000.0 0.03801454773770975 -0.008287165422159406
1740000000.0 -0.03713749845075822 -0.0392382069837287
1760000000.0 -0.0040986989059738285 -0.08244573729729965
1780000000.0 -0.10959132612919699 -0.005358616798122236
1800000000.0 -0.11213387293072627 0.08036136927132459
1820000000.0 -0.12790159218283717 -0.10153500487462622
1840000000.0 0.01275691351058344 -0.18696608410640753
1860000000.0 0.21251006753318571 0.057454841451340714
1880000000.0 0.17479096861189664 -0.1736171030976727
1900000000.0 -0.2596706224946736 -0.04651628333848165
1920000000.0 -0.0872732587087948 0.267155805937425
1940000000.0 -0.04035736317155218 -0.29134124693141555
1960000000.0 0.020722850130555567 0.2989974062838744
1980000000.0 -0.28422078116303556 -0.09689155384841953
2000000000.0 0.19778713877906054 -0.2336342555347859
2020000000.0 0.28616859690005186 0.097640862675906
2040000000.0 -0.16860144702322152 0.2528490475983127
2060000000.0 -0.2861174804600705 0.11498051053224462
2080000000.0 -0.3079358075575968 0.007729744812701931
2100000000.0 0.1828375670312171 0.2477245863423248
2120000000.0 -0.2908436318757753 0.10219077884676614
2140000000.0 0.174369912928542 -0.25022379425458935
2160000000.0 -0.2921698120847424 0.037437482746651006
2180000000.0 -0.21702980986615236 0.18260126778621022
2200000000.0 -0.2526127953761155 -0.13005355085785433
2220000000.0 -0.26302038570845765 -0.10552774374678886
2240000000.0 -0.09779730766768656 -0.2598137160260914
2260000000.0 0.11177341890146027 -0.2506517878740223
2280000000.0 0.12802110107294426 -0.23060085070822756
2300000000.0 0.24701519908852038 0.03383013220644702
2320000000.0 -0.16466754963175495 0.17757211605955026
2340000000.0 -0.07569707461126758 -0.22325349727383198
2360000000.0 0.12810595610706932 0.1901900827697324
2380000000.0 -0.18024241344431818 -0.144418936502234
2400000000.0 0.2362116838312725 0.03139178015480732
2420000000.0 0.15772100103890493 0.20952066033741362
2440000000.0 0.2871468034015278 0.021645711265924083
2460000000.0 -0.22385119611829798 -0.23446823513805753
2480000000.0 -0.1427738800629885 0.3297228534328627
2500000000.0 -0.23604236419286329 -0.32391383484892594
2520000000.0 0.37297695996176305 -0.23532204971034879
2540000000.0 0.31959063515022806 0.3618269027592605
2560000000.0 -0.5110559806850269 0.07519741696770874
2580000000.0 0.24264986908674188 -0.49411288524533103
2600000000.0 0.15284507758147653 0.5557759265679716
2620000000.0 -0.36548454138612574 -0.48146642611316376
2640000000.0 0.6059359220812625 0.141323916260707
2660000000.0 -0.4752800903040495 0.4288968568450852
2680000000.0 -0.37042949230357075 -0.5342071621206177
2700000000.0 0.40898288887205553 -0.5175335801206215
2720000000.0 0.646854656775685 -0.1543959071453449
2740000000.0 0.6655211063626977 -0.07861330746026704
2760000000.0 0.6678078322658177 -0.07254212465406468
2780000000.0 -0.059573387547255024 0.6657501304335759
2800000000.0 -0.2208401139002568 0.6241197140237853
2820000000.0 -0.5690028389083444 0.317508448216584
2840000000.0 -0.3052494808709669 -0.5636377861777582
2860000000.0 0.6191914503061109 0.10271761239557209
2880000000.0 -0.6096023618649232 -0.05973586108804068
2900000000.0 0.3612018251150683 0.47471449840796065
2920000000.0 0.40821019413084836 -0.40715824174497295
2940000000.0 -0.4509402498917485 -0.31954286887645145
2960000000.0 -0.5144061752575391 0.13123592255540598
2980000000.0 0.019415496879649684 0.506977857638978
3000000000.0 0.4807609703819758 0.06455796620916199
3020000000.0 -0.31323140288467843 -0.3371038460675402
3040000000.0 0.16897801345984154 0.3964677161516409
3060000000.0 0.015748518636830897 -0.4035410372917732
3080000000.0 -0.23282587733312582 0.30082520736804597
3100000000.0 0.27856641502407686 -0.22996792439163258
3120000000.0 0.04109477603247389 -0.3436539174718505
3140000000.0 0.11085541240133982 0.3251287622366769
3160000000.0 -0.14416499559179052 -0.3065298836445094
3180000000.0 0.16604519749437038 0.2864739329951024
3200000000.0 0.29651756379144173 -0.127743504941216
3220000000.0 -0.2782324473988906 -0.14980785312412412
3240000000.0 -0.22974652203011353 -0.19386059991717458
3260000000.0 -0.27508743884372916 -0.0910416843975498
3280000000.0 0.12865162748047468 -0.2422337595933563
3300000000.0 0.22208564844193515 -0.12681815677202443
3320000000.0 0.2301399093130914 -0.019415842264709864
3340000000.0 -0.19683436988481978 -0.04178782040084463
3360000000.0 -0.16681318162665337 -0.0718800808648617
3380000000.0 0.14945766804153995 -0.07017457210026426
3400000000.0 -0.13806396563830622 -0.047534783923789736
3420000000.0 0.04676469231264065 0.12497695612971427
3440000000.0 0.06416852451394799 0.10244141240474221
3460000000.0 0.08311048375631923 -0.055959034448365724
3480000000.0 -0.07974128259348494 0.037509729208731926
3500000000.0 0.04748148773411481 -0.06160968503073102
3520000000.0 0.05751816386389599 -0.045655469144807025
3540000000.0 -0.05094506506902376 0.058421762982822936
3560000000.0 0.0716907744247699 -0.0445613219385778
3580000000.0 0.06661448452565388 0.05894281782624517
3600000000.0 -0.059168289790445784 -0.07009615698893915
3620000000.0 -0.05638494995920646 -0.08150303221139152
3640000000.0 0.10206778361897689 0.0035317214230152372
3660000000.0 0.04350918337132357 -0.0931877646199141
3680000000.0 0.11105143280444937 0.017377885112536927
3700000000.0 0.11247200057550971 0.015379385429467896
3720000000.0 0.07556092100378205 -0.06480372323036072
3740000000.0 -0.03542891346626369 0.07774119028062632
3760000000.0 0.05197014483588944 -0.04567520245706635
3780000000.0 0.05532243534863336 -0.01779949145799629
3800000000.0 -0.035596375117551746 -0.0412333503182776
3820000000.0 -0.039169815014321326 -0.03156069576435117
3840000000.0 0.05194416026164016 0.009628528870575985
3860000000.0 0.06311194738325387 0.00497048402710577
3880000000.0 0.04807525983838231 0.07111225647802798
3900000000.0 -0.09925156565257393 -0.031122564801459373
3920000000.0 -0.10244602096010455 0.05251371705398358
3940000000.0 0.10517136739049938 0.04762340345842364
3960000000.0 0.02591017035440398 -0.09540075214597568
3980000000.0 0.0317155374686436 -0.08661704155512844
4000000000.0 -0.01843013072599376 -0.07370170527647696
