!Created with skrf (http://scikit-rf.org).
# Hz S RI R 50.0 
!freq ReS11 ImS11
400000000.0 0.7662136009137389 -0.4009438307197782
420000000.0 -0.08552561014512554 0.8075657110889316
440000000.0 -0.4914117108228198 -0.6054843385142301
460000000.0 0.7369487163306542 0.15304092812814157
480000000.0 -0.06277577006745248 -0.7158203769030994
500000000.0 0.5743950767282531 0.3394695530642464
520000000.0 -0.4160718427027812 0.3515675303926935
540000000.0 0.27055519320456867 0.3705438104989199
560000000.0 0.3400182556828096 -0.1664838351930893
580000000.0 -0.23529691326605234 -0.2662372355733705
600000000.0 -0.11654067481128828 -0.31197199535762765
620000000.0 0.06421486283243119 0.3626658680171929
640000000.0 0.18862835692438062 0.33744502268535276
660000000.0 -0.21132062308496954 0.3458895958234374
680000000.0 -0.3264868891667495 0.1621877993506752
700000000.0 0.3379594730615571 -0.09275669119955127
720000000.0 0.08678735500694149 0.33905772736188755
740000000.0 -0.04992681251510795 0.3163986223225586
760000000.0 0.15014542535863803 -0.25463251345024884
780000000.0 -0.23733564137090762 -0.2052439036490695
800000000.0 0.1834953995947429 -0.25129498501421205
820000000.0 -0.0745663158616067 -0.2887869282675835
840000000.0 0.2713638829874781 -0.03493819893434399
860000000.0 0.03012126193511678 -0.206294363839988
880000000.0 0.01635949261673922 0.17622172316911092
900000000.0 -0.13154864143184164 -0.002249098819983923
920000000.0 0.10898660960539579 0.03295239635150436
940000000.0 -0.11462094330450265 -0.007033643875444232
960000000.0 -0.08904309302626456 0.02651386237199568
980000000.0 0.043718120223072275 -0.04537642746501136
1000000000.0 0.04880814118147072 0.002322343085033451
1020000000.0 -0.06242235716851137 -0.028683477926897478
1040000000.0 -0.07572078812294858 -0.07518780694233987
1060000000.0 -0.11439253201702623 -0.09679148697155789
1080000000.0 -0.1666467586240746 -0.05829235489993083
1100000000.0 0.19009075056766578 -0.0029395885601289935
1120000000.0 -0.025519595912990113 -0.22000576084887935
1140000000.0 0.2437816736000202 -0.08769018068058458
1160000000.0 0.14456493102303705 0.222849441819417
1180000000.0 0.2189834263891238 -0.17522483299930341
1200000000.0 -0.2635563940177618 -0.15523211309406898
1220000000.0 -0.19943479868934028 -0.26204053978172726
1240000000.0 -0.24543443398872844 -0.22264280113461649
1260000000.0 0.018749851274046502 -0.3419032421576429
1280000000.0 0.09079712927828446 -0.3286984463403402
1300000000.0 0.34259524661358526 -0.07437152753869225
1320000000.0 0.24918422259414105 0.2597682569878392
1340000000.0 -0.36961406041401806 0.05384617958605008
1360000000.0 -0.30039838791233886 -0.22005915705294155
1380000000.0 0.05115291916628204 0.37150182330092146
1400000000.0 0.11340027919997712 -0.3644685844948842
1420000000.0 -0.33097847196849667 0.18521527744574579
1440000000.0 -0.12832837225828642 0.35344530628427523
1460000000.0 0.340223639068113 -0.14904505438286292
1480000000.0 -0.3584620728158081 -0.07450051927169664
1500000000.0 0.32728142105184344 -0.07172710464909707
1520000000.0 0.12493295232972719 -0.2871569158781093
1540000000.0 -0.28569260337275443 -0.02232552077734189
1560000000.0 -0.24251866987387738 0.09122075707259733
1580000000.0 -0.1512118873867889 -0.14904733458286254
1600000000.0 0.1749229753547906 0.023917718012277104
1620000000.0 -0.029644444580261938 0.1335378237668147
1640000000.0 0.008613871152656423 0.11335457715917509
1660000000.0 0.03398965221059155 -0.08089907838439914
1680000000.0 -0.006296063905387689 0.06853102938195123
1700000000.0 0.0004677353185366679 0.06297805648443955
1720000000.0 0.015598955886436236 0.04315848059236363
1740000000.0 0.04891736333020238 0.01567507555642266
1760000000.0 -0.07183046640904142 0.03682863541127398
1780000000.0 0.030438019441711015 0.1007658941942005
1800000000.0 -0.07753805799169293 0.1093123824194166
1820000000.0 -0.027473487214212788 -0.15677463672524436
1840000000.0 0.1810379398219576 -0.045075189369145056
1860000000.0 0.14546994573700836 0.1668000079464948
1880000000.0 0.1492781491906341 -0.19505749143866943
1900000000.0 -0.17294540397554048 -0.19964241005547068
1920000000.0 -0.11555913835289584 0.26112323027294065
1940000000.0 -0.12407798709313668 -0.2713546342033349
1960000000.0 0.19186142659713817 0.2306438657413009
1980000000.0 -0.2596021867380924 -0.14990108969740792
2000000000.0 0.15959861172183457 -0.2625102015678837
2020000000.0 0.30023841871124685 0.04835700648936435
2040000000.0 0.03268793111460722 0.30141568135334185
2060000000.0 -0.2965326058435181 0.07542903032151926
2080000000.0 -0.3069429439633155 0.012748306470384897
2100000000.0 0.16399811407851128 0.25801214538224365
2120000000.0 -0.3028904205547707 -0.04615612422817031
2140000000.0 0.28174290853248046 -0.11579459160649505
2160000000.0 -0.2560314275299509 0.15088151328048338
2180000000.0 -0.2315931350116296 0.15979020628634064
2200000000.0 -0.17902140457112403 -0.22052079885684767
2220000000.0 -0.2698246252800314 -0.09296049272920741
2240000000.0 -0.1459870865416758 -0.240131657336109
2260000000.0 0.02115353497115915 -0.2734496297848782
2280000000.0 0.20251560367888086 -0.1683769574656298
2300000000.0 0.2120972647735046 0.1336442780865745
2320000000.0 -0.12247919599336067 0.21141569711848557
2340000000.0 -0.15306649772015476 -0.1768207072901638
2360000000.0 0.10538760323843642 0.20164934840398593
2380000000.0 -0.06583653229289302 -0.22174133379184266
2400000000.0 0.21626346746675731 -0.09789658231322926
2420000000.0 0.1612969294395176 0.20262602536232363
2440000000.0 0.24492892492965862 0.1483752796615609
2460000000.0 -0.20455375245770935 -0.2514944629266685
2480000000.0 -0.11806821818703292 0.3404963339131828
2500000000.0 -0.2853608601861783 -0.2829500219723429
2520000000.0 0.35501176793046024 -0.26673801556817817
2540000000.0 0.30933840811828306 0.3722372622752361
2560000000.0 -0.4856141598033417 0.17494795384354833
2580000000.0 0.2847713713997193 -0.4693042564606363
2600000000.0 0.1136536664616149 0.5654815886833644
2620000000.0 -0.31435017623762357 -0.5161770807605586
2640000000.0 0.5985502679282095 0.16872846410933823
2660000000.0 -0.4464820815045578 0.45623776228004226
2680000000.0 -0.37118457679713246 -0.53344977322103
2700000000.0 0.37064524372227514 -0.5455243809521891
2720000000.0 0.635256039399686 -0.20163282779150732
2740000000.0 0.6661715003202731 -0.0867848484678423
2760000000.0 0.6657372593356945 -0.10441088297447317
2780000000.0 -0.056103688159930665 0.6679786403065179
2800000000.0 -0.19636322703384237 0.6340129496281912
2820000000.0 -0.535517677099176 0.37340035526497956
2840000000.0 -0.376022800797536 -0.5192194507199485
2860000000.0 0.6108839119795888 0.14447657395239247
2880000000.0 -0.598920783779102 -0.12577532700485153
2900000000.0 0.35168512998020224 0.4818203459297838
2920000000.0 0.28862293048818816 -0.49904316145226624
2940000000.0 -0.44960976256905044 -0.3175804951994364
2960000000.0 -0.5189951689909346 0.1039821747873669
2980000000.0 -0.012947226293039751 0.5056934142279347
3000000000.0 0.4717811872798177 0.11520698756593847
3020000000.0 -0.37499109428669153 -0.2731100879304489
3040000000.0 0.1869960619259183 0.3892281612292239
3060000000.0 0.03160010822080776 -0.4030308560838614
3080000000.0 -0.19562959209995887 0.32466031107974996
3100000000.0 0.27277274481100267 -0.23746993198747654
3120000000.0 0.01577427616885116 -0.3472135251838799
3140000000.0 0.0964249846853508 0.3296900586133212
3160000000.0 -0.12154587666707853 -0.31759456100966954
3180000000.0 0.24234915939649415 0.2269035569311178
3200000000.0 0.24021272438452984 -0.2136390295599348
3220000000.0 -0.2537578009886914 -0.1853316820281181
3240000000.0 -0.10427761481009568 -0.28123229720991444
3260000000.0 -0.1825144520346482 -0.22461858919639419
3280000000.0 0.08354938490434871 -0.2623763707949879
3300000000.0 0.1580059500614776 -0.19839110552126388
3320000000.0 0.22100584065058967 0.05359032593628501
3340000000.0 -0.1701821205994412 -0.10866005512278007
3360000000.0 -0.17347006270996768 -0.044161186951694104
3380000000.0 0.15574116390237627 0.04894211258526298
3400000000.0 -0.1483468958793048 -0.024496121479108797
3420000000.0 -0.004668908683486139 -0.13462573798249683
3440000000.0 0.09401864402312217 -0.07151044381842012
3460000000.0 0.09391315477596941 -0.023975073760222954
3480000000.0 -0.03231284277023251 0.08234146355433336
3500000000.0 0.07217058348029527 0.033204055631481585
3520000000.0 0.04289982022823 -0.05997897414103683
3540000000.0 0.07988986987868348 -0.0074776957410992535
3560000000.0 0.08069452579258837 -0.026200747237815788
3580000000.0 0.08972574461085368 0.004273512690849359
3600000000.0 0.023194635616468836 -0.08749847665823905
3620000000.0 0.06235168476454667 -0.0742029032791494
3640000000.0 0.05104459715687801 0.08874742830825663
3660000000.0 -0.03713651215023287 -0.09538954425643484
3680000000.0 0.09177129514910684 -0.05899020012440766
3700000000.0 0.032374887987923276 0.10627196274906091
3720000000.0 0.09564124684465854 0.02551951902762489
3740000000.0 -0.008738158990089563 0.0837491821380052
3760000000.0 0.061659220433224526 0.02338853914373532
3780000000.0 0.030850246062144492 -0.049495145988557816
3800000000.0 -0.04716608157309135 -0.027411927745002507
3820000000.0 -0.04010750949876578 0.03039537797207535
3840000000.0 -0.014613213638048395 -0.04736893417178021
3860000000.0 0.060952989332714556 0.0035086977639579137
3880000000.0 0.0034740319802751296 0.08664218352708339
3900000000.0 -0.07396831749951215 0.07311604872006389
3920000000.0 -0.012323640996595976 0.11117982248576978
3940000000.0 -0.02026866073420883 0.11029304949586245
3960000000.0 0.08627322161627098 -0.05047106613995139
3980000000.0 0.008505799049158566 -0.09163909501530819
4000000000.0 -0.06643744252235473 -0.03707590163172732
