!Created with skrf (http://scikit-rf.org).
# Hz S RI R 50.0 
!freq ReS11 ImS11
400000000.0 0.7803314072389601 -0.3720309496094158
420000000.0 -0.27021787775320866 0.7613578010882169
440000000.0 -0.07476656072061716 -0.7805297777125634
460000000.0 0.6959270934107058 0.30427386302586756
480000000.0 -0.3878181709691178 -0.6186994476889308
500000000.0 0.6628983857346876 -0.10706869345181681
520000000.0 0.06829801666522228 0.5389064952583341
540000000.0 0.41134363169959987 -0.18564709588139824
560000000.0 0.17138948650522012 -0.3311464262021357
580000000.0 -0.09661030025881209 -0.3106828697215727
600000000.0 0.2687077623201525 0.19376420204937142
620000000.0 -0.3636403288331685 -0.041639940632197656
640000000.0 -0.38698846403557907 -0.027055600927806702
660000000.0 -0.33428856688571523 -0.2409941478708409
680000000.0 -0.3633991426468853 0.1057711573153852
700000000.0 0.34755168893937444 0.061376857682057036
720000000.0 -0.33781150639052415 -0.11829983031416895
740000000.0 0.3381441415334217 0.025127094853444526
760000000.0 -0.28179722933721013 -0.11000049291361494
780000000.0 -0.25161971912241515 0.20609530989443534
800000000.0 -0.05316267096662875 0.3019441760968551
820000000.0 0.19827656218780543 0.20047035493755816
840000000.0 -0.14999614387455604 0.20652485628584086
860000000.0 0.17336329919900345 -0.1246509254911881
880000000.0 -0.06522492776116802 -0.1598767386798696
900000000.0 0.08010757790026335 -0.08374813943355104
920000000.0 -0.030997279113861253 0.10192779201365673
940000000.0 0.08639474235865835 0.08220141353995065
960000000.0 -0.09087221138105507 -0.013050313478070147
980000000.0 -0.02119424212480941 -0.05332033120105513
1000000000.0 -0.013759924112667061 0.04380009767954564
1020000000.0 0.022479819574522296 -0.0578339020468154
1040000000.0 0.10087212955729014 -0.01838832360326039
1060000000.0 0.1106888891630269 -0.086535989742912
1080000000.0 -0.15885924083149597 -0.06264267732621498
1100000000.0 -0.19486179379675012 0.062069995874815785
1120000000.0 -0.2219529122774425 -0.059248144151311105
1140000000.0 0.24724880164226848 0.09062885299336691
1160000000.0 0.20555447104657187 0.18013498119978036
1180000000.0 -0.15223785763018555 -0.2420548515832711
1200000000.0 -0.0017872967722376055 0.3047277578664726
1220000000.0 -0.32349610393874745 0.031240513705808687
1240000000.0 -0.26326790467750516 -0.18920822306302487
1260000000.0 0.0660492169262169 -0.32963074636532064
1280000000.0 0.25684187287144455 -0.2164802195453596
1300000000.0 0.32477891729316044 -0.12564328555458473
1320000000.0 0.11256496063351923 0.33406619081905264
1340000000.0 0.05961565335320547 -0.3648512966784514
1360000000.0 0.28310763557096447 -0.25134606132712817
1380000000.0 -0.16028147344164834 0.346515438726264
1400000000.0 0.12292018810147728 -0.37217824908385794
1420000000.0 -0.10179041943029131 0.37312060009171505
1440000000.0 0.350263866191341 0.13651289182957335
1460000000.0 0.19774982957253445 -0.308219214138681
1480000000.0 -0.3200196690134653 -0.17425877712680632
1500000000.0 0.3326197443235787 0.006077000040734456
1520000000.0 -0.012949456375021295 -0.309641207794725
1540000000.0 -0.2736051747547458 -0.07104972012561843
1560000000.0 -0.23408849450728433 -0.0965387845177709
1580000000.0 0.08340292276813024 -0.19524268356671154
1600000000.0 0.05643722219508634 0.17041346252811443
1620000000.0 -0.12485333984801641 0.06870509997438141
1640000000.0 0.07693723336376962 0.08862855136920217
1660000000.0 0.007699263896298148 -0.09548677188899371
1680000000.0 0.05966772809333717 -0.042343488533814776
1700000000.0 -0.032622778562093724 0.042119692267290586
1720000000.0 -0.03585838466923086 -0.020571422221614954
1740000000.0 0.047274952969570905 0.022111518456401472
1760000000.0 0.07357830908593725 0.03804166949887804
1780000000.0 -0.09748254682151283 0.05497711704880777
1800000000.0 -0.0370546473439539 0.1321485746392457
1820000000.0 -0.07332810425071365 -0.14275697793861272
1840000000.0 0.1495059636464152 -0.1171621736881076
1860000000.0 0.18656443553376367 -0.12161710316994648
1880000000.0 0.1178449451792788 -0.21019490913419336
1900000000.0 -0.20035020168580345 -0.16994604242338499
1920000000.0 -0.10343185808884772 0.2631813797762141
1940000000.0 -0.14606020494356228 -0.25756027976218576
1960000000.0 0.12918859233291413 0.269831857644662
1980000000.0 -0.2746980023187463 -0.11825390777320498
2000000000.0 0.26730152736437696 -0.14805410855862733
2020000000.0 0.26468074274515285 0.14913481113356347
2040000000.0 -0.1812991499718093 0.24614401730548885
2060000000.0 -0.2416839651831392 0.18960054241459204
2080000000.0 -0.3022375175081305 -0.04772962658763254
2100000000.0 0.11595011725138264 0.28514749049004784
2120000000.0 -0.2949573926798731 0.08874809586870018
2140000000.0 0.194339073817333 -0.23504372384391845
2160000000.0 -0.2957354228158393 0.00974791650915452
2180000000.0 -0.11967149003525811 0.2568354134466642
2200000000.0 -0.2523000453585489 -0.12621265853055538
2220000000.0 -0.13843884123282535 -0.247347334278463
2240000000.0 -0.13261362320101883 -0.24763512950007302
2260000000.0 -0.057022470491550216 -0.26787338625687485
2280000000.0 0.10005014983118295 -0.2423209661181639
2300000000.0 0.21010972228691177 0.13319449703755087
2320000000.0 -0.18772009423520236 0.1576144188601778
2340000000.0 -0.11286289708176214 -0.20806361376813884
2360000000.0 0.18304732112565708 0.13437793892423974
2380000000.0 -0.09175054725718693 -0.2106315825985595
2400000000.0 0.23110138673360578 0.06111350486045983
2420000000.0 0.2041460938818431 0.16420017404518913
2440000000.0 0.2867007141188232 -0.004294544685567224
2460000000.0 -0.1934761079094237 -0.26030537297005385
2480000000.0 -0.12654928707496707 0.33569318384640845
2500000000.0 -0.24108890428402036 -0.3198901520548237
2520000000.0 0.3472398647072786 -0.272373577471072
2540000000.0 0.29134127275836313 0.3859269399977615
2560000000.0 -0.5043741686288108 0.11253025762563941
2580000000.0 0.29900021737948557 -0.4622462462810366
2600000000.0 0.1458259350404572 0.5580377987539927
2620000000.0 -0.36597816340476685 -0.4815409547653128
2640000000.0 0.6076870424517208 0.13296707216622577
2660000000.0 -0.44821862176848626 0.45515659309619455
2680000000.0 -0.3644128197068445 -0.5383358925879962
2700000000.0 0.37358434662863027 -0.5439476482890567
2720000000.0 0.6391653035336743 -0.18226940811904035
2740000000.0 0.6656035952409982 -0.0769286277718391
2760000000.0 0.6562620604037772 -0.14735837685543687
2780000000.0 -0.06383596921195664 0.6655922253107267
2800000000.0 -0.22692563625087192 0.6221103515076669
2820000000.0 -0.5788338092021926 0.30013809767132443
2840000000.0 -0.3581228662979636 -0.5311969117613384
2860000000.0 0.6238525301655625 0.06612537758386075
2880000000.0 -0.606280783627976 -0.08398903013374605
2900000000.0 0.3497203454187397 0.48383384170286997
2920000000.0 0.30567492666824186 -0.48861810046701015
2940000000.0 -0.4189965607345997 -0.35902203362502144
2960000000.0 -0.5177940121589042 0.11844573254320855
2980000000.0 0.0750584842958124 0.5017132473417959
3000000000.0 0.48394004511755595 0.005284756979557395
3020000000.0 -0.310484963148941 -0.34023005322798167
3040000000.0 0.12577673874832196 0.41353753349185124
3060000000.0 0.044412658573753316 -0.40084312397098715
3080000000.0 -0.22175910264770976 0.30908161239110193
3100000000.0 0.24116849790953723 -0.26974703431029523
3120000000.0 -0.046413018043099726 -0.3435016591444654
3140000000.0 0.08795913697991788 0.3296716917675029
3160000000.0 -0.045938659492671674 -0.33591622373389896
3180000000.0 0.23167962613842802 0.2381832525022352
3200000000.0 0.17169091676041986 -0.27237053237384407
3220000000.0 -0.2286160007844437 -0.21605824381613795
3240000000.0 -0.2151832371927866 -0.2121841204597438
3260000000.0 -0.279061911244214 -0.08015117841584397
3280000000.0 0.05659544818575988 -0.2697981821812207
3300000000.0 0.12355744568877111 -0.2223080565559226
3320000000.0 0.18100700799267852 0.14016908891672955
3340000000.0 -0.130522462074302 -0.1586030990365376
3360000000.0 -0.10301839883504343 0.1508452304055802
3380000000.0 0.16009849854735791 0.004340286957419325
3400000000.0 -0.046451447634466674 -0.13953516026716128
3420000000.0 0.12977797180636388 0.03848295041468368
3440000000.0 0.08819881245349954 0.07860548828094012
3460000000.0 0.09973414688845643 -0.003390375758832828
3480000000.0 0.003518346837253305 0.0898119973675441
3500000000.0 -0.005620864766557534 -0.07550965213145289
3520000000.0 0.07157800897787057 0.01752343556600641
3540000000.0 -0.027493866988018433 0.07441767566571623
3560000000.0 0.06534132737595648 -0.05273801416343592
3580000000.0 -0.007812632903357427 0.08876366309043363
3600000000.0 -0.08212884406267634 -0.04582267666688998
3620000000.0 -0.08909539601475061 -0.039873348853300246
3640000000.0 -0.009769544461394645 0.10053311717655834
3660000000.0 0.011059892665858113 -0.10481512685000045
3680000000.0 0.10785705135813017 -0.025750919062387773
3700000000.0 0.08128780609379867 0.07724014860404901
3720000000.0 0.02595755625098118 -0.09690791815172316
3740000000.0 0.025612752167059546 0.08101178096294459
3760000000.0 0.06712200669181255 0.003563498088013307
3780000000.0 0.04509429436232049 -0.03833068469299851
3800000000.0 0.008056317406135386 0.053013553468076
3820000000.0 0.022204892741370403 0.04256281929891822
3840000000.0 0.029501840061922253 -0.045081614697069325
3860000000.0 0.031056499792653753 -0.052875096895517254
3880000000.0 0.029931707924595558 0.0810353991343945
3900000000.0 -0.07679563583986385 0.07040511635279124
3920000000.0 -0.06471087866767584 0.09254940276239301
3940000000.0 0.037686230542040726 0.10998207557705443
3960000000.0 -0.10115312813205886 0.004580814762545817
3980000000.0 0.003913921353191388 -0.08842580751432917
4000000000.0 0.07382949601557594 -0.0190020673979871
