!Created with skrf (http://scikit-rf.org).
# Hz S RI R 50.0 
!freq ReS11 ImS11
400000000.0 0.8024159054408184 -0.31972398929256135
420000000.0 -0.26903785161874855 0.7645619019050401
440000000.0 -0.2905404907618676 -0.7279979790826211
460000000.0 0.681395056137766 0.3329697639284182
480000000.0 -0.3975344937563653 -0.6094122742443676
500000000.0 0.6643711688183467 -0.1242578563972513
520000000.0 0.1622094218967772 0.5217012895745669
540000000.0 0.41214814427079566 -0.1833077642091268
560000000.0 -0.005910551921617486 -0.36425184339180355
580000000.0 0.2612683523190177 -0.20745405141703713
600000000.0 0.3077099753676944 0.12427767475263583
620000000.0 -0.35645462148047835 -0.07401147391695585
640000000.0 -0.3435633009752676 0.17562898962850843
660000000.0 -0.2971887928376179 -0.27853994411006605
680000000.0 -0.30867910956729133 -0.21744165254983844
700000000.0 0.35336893297632926 0.04092853746929431
720000000.0 -0.35992453254709117 0.03994432892400688
740000000.0 0.3296249911330727 0.06423641230537439
760000000.0 -0.18496216130146848 -0.24181243639291375
780000000.0 0.10130104297628632 0.3085568252219387
800000000.0 -0.23348828891491155 0.1908169333704899
820000000.0 -0.2819411930873235 0.012473462619958981
840000000.0 0.2120961358639639 0.16206389413645517
860000000.0 -0.19089115973254775 -0.0857980220199862
880000000.0 0.0816066356744592 -0.14396072295824672
900000000.0 -0.01259850822489577 0.12008635342067175
920000000.0 0.08066887530405191 0.07742327839187049
940000000.0 0.09848949066588139 -0.06133367180545683
960000000.0 -0.011800366314498295 -0.08905136700627213
980000000.0 0.01935659779879487 -0.05271260091502329
1000000000.0 -0.0465649586367577 -0.0003396723066333197
1020000000.0 -0.05356746584488236 0.04015891718854183
1040000000.0 0.09863764525752575 0.017520403597437118
1060000000.0 0.11761734508601522 -0.07590590668112711
1080000000.0 -0.1427243274271031 -0.09988801261675863
1100000000.0 -0.2028111010645741 0.009296519652157114
1120000000.0 -0.21159785608144635 0.0906632269438286
1140000000.0 0.09832243213419642 0.2437826934125195
1160000000.0 0.13620558724005194 0.236292897963261
1180000000.0 -0.2744981074185004 -0.08397849921369896
1200000000.0 0.005850724519201996 0.30396387481500753
1220000000.0 -0.3165419391524884 -0.057907943645699185
1240000000.0 -0.28861076706215516 -0.15305355800194065
1260000000.0 -0.009227683843861518 -0.3385242903598228
1280000000.0 0.2483982798450472 -0.22598025434169694
1300000000.0 0.2995772408213474 -0.17178745210834137
1320000000.0 -0.043331412477226196 0.3523563895781156
1340000000.0 -0.09427215831006688 -0.3587908219729744
1360000000.0 0.25013744502931506 -0.2835916822082284
1380000000.0 -0.1859941706220982 0.33446118343532366
1400000000.0 0.1630988273666369 -0.35476622783102635
1420000000.0 -0.11541805897552951 0.36985832908907673
1440000000.0 0.3180854315774154 0.19759812130847282
1460000000.0 0.17075037091279413 -0.3257700727727055
1480000000.0 -0.35265809535869375 -0.08478026424128517
1500000000.0 0.32239842462814944 0.07473698742559298
1520000000.0 -0.004777985089420328 -0.3119869278147237
1540000000.0 -0.27976233905980996 0.05094651815959811
1560000000.0 -0.1974662893462328 -0.15547767197071655
1580000000.0 0.172602283714256 -0.12320392159099637
1600000000.0 -0.006284423340366368 0.18144018049814484
1620000000.0 -0.11708757013276921 0.07646481881162276
1640000000.0 -0.024040017873527064 0.11642215683634576
1660000000.0 -0.06671158836905167 -0.06911083662725223
1680000000.0 0.05400611989528447 0.04171363273735934
1700000000.0 -0.034815316394049875 -0.04403665287632463
1720000000.0 -0.03322836702022428 -0.025678800662032555
1740000000.0 -0.03742589047337596 0.03469174266558519
1760000000.0 0.056620531713613725 0.06173897774441723
1780000000.0 -0.02883356286472198 0.10691717769992376
1800000000.0 -0.05144528579650955 0.12702771388022743
1820000000.0 -0.10733008521306622 -0.12101973327431505
1840000000.0 0.11349168590131765 -0.15026459729513342
1860000000.0 0.21724793071909926 -0.0419086636075744
1880000000.0 0.11249353585797847 -0.21689378166802814
1900000000.0 -0.2339534065113503 -0.11615510659255629
1920000000.0 -0.14549933197793682 0.24117542088867291
1940000000.0 -0.0823595479495678 -0.2856241350456503
1960000000.0 0.1630746888803395 0.25074341816769447
1980000000.0 -0.22872091121404148 -0.19021858421751936
2000000000.0 0.28488570410778674 -0.11397919357501508
2020000000.0 0.2979104871019007 0.06128024394155691
2040000000.0 -0.04940178152893236 0.2995686003884034
2060000000.0 -0.2953041188159643 0.08707366194131104
2080000000.0 -0.2984065915832422 -0.07521376377046962
2100000000.0 0.19989435968134672 0.23540102295663276
2120000000.0 -0.3031538776569728 0.05986712351586602
2140000000.0 0.22460723996811088 -0.2066406825236707
2160000000.0 -0.296269769908402 -0.016261466386400913
2180000000.0 -0.21392085961710613 0.18627386459098483
2200000000.0 -0.26800187642547235 -0.09018162385220592
2220000000.0 -0.20508093035596436 -0.19321265200789697
2240000000.0 -0.04623299666078863 -0.2757095224479722
2260000000.0 -0.032879417881384904 -0.2737468936347058
2280000000.0 0.07383732757365877 -0.24996927874354646
2300000000.0 0.1374358875847832 0.2070100614275633
2320000000.0 -0.16247985237360224 0.18380484680341935
2340000000.0 -0.187526848864703 -0.14324851727687557
2360000000.0 0.18413496467957718 0.12991873749687072
2380000000.0 -0.11138277519007746 -0.20306306095893345
2400000000.0 0.2249447086387303 -0.08117404218578354
2420000000.0 0.22813684231545361 0.1286163279465972
2440000000.0 0.2872929451754618 -0.0061304052105165645
2460000000.0 -0.2069301968951318 -0.2505124315348708
2480000000.0 -0.10488622684179902 0.34444512047163406
2500000000.0 -0.2647620548303663 -0.3006597116372977
2520000000.0 0.4087237976179193 -0.16864344633567432
2540000000.0 0.22583616827952444 0.4280843720701725
2560000000.0 -0.5152743586118826 0.03588222016448545
2580000000.0 0.27125056525174346 -0.47894526996688297
2600000000.0 0.14955554465680293 0.556346919705653
2620000000.0 -0.3664318858407782 -0.4797877063198776
2640000000.0 0.6174832697613165 0.07249153297441256
2660000000.0 -0.430274892220751 0.47181865961002045
2680000000.0 -0.32740726303977197 -0.5613373173303804
2700000000.0 0.34580640876504465 -0.5624452275523988
2720000000.0 0.6438811769328769 -0.16833697829566022
2740000000.0 0.6694274549930022 -0.04326265314915969
2760000000.0 0.6688065234294474 -0.06784966889452403
2780000000.0 -0.16946498564914142 0.6476707214341831
2800000000.0 -0.2255527275049375 0.6232495154123244
2820000000.0 -0.5694948570137156 0.3178849719132447
2840000000.0 -0.3789635500713982 -0.5172050750110148
2860000000.0 0.6227563771046976 0.08249441210383471
2880000000.0 -0.6003478607133773 -0.11979289101227798
2900000000.0 0.3470408505821176 0.4857709041544458
2920000000.0 0.3280125393395702 -0.4739151545977186
2940000000.0 -0.4538769785743428 -0.31590717506018207
2960000000.0 -0.5073075671637721 0.15612218509739031
2980000000.0 0.0764876316930008 0.5020830244099143
3000000000.0 0.4820606538577495 -0.056587524761104076
3020000000.0 -0.31013950070361107 -0.34094828794135523
3040000000.0 0.14229106389812962 0.40742462613118385
3060000000.0 0.07989498360961986 -0.39620712463836966
3080000000.0 -0.2008801769516805 0.3229850413124209
3100000000.0 0.2918940981653211 -0.2131572968621815
3120000000.0 0.043045855010299644 -0.3431478468755798
3140000000.0 0.00946459856058855 0.3416169863933913
3160000000.0 -0.03891805881459171 -0.33729835581679596
3180000000.0 0.18154132594152966 0.277779212975484
3200000000.0 0.2322353495339059 -0.22288370430267662
3220000000.0 -0.2571910108308415 -0.182025213876872
3240000000.0 -0.1624597706898136 -0.2540897063209614
3260000000.0 -0.2693123342334738 -0.11034407809354171
3280000000.0 0.07188586306311424 -0.2640874381707582
3300000000.0 0.20656766966612422 -0.14844298523702112
3320000000.0 0.22246425187103738 0.05927586254036411
3340000000.0 -0.2009055837385 -0.030589182644876606
3360000000.0 -0.18060582041104012 -0.009222032830014625
3380000000.0 0.16220392983964335 -0.02676452040719727
3400000000.0 -0.1436336487454436 0.03506828227679309
3420000000.0 0.12035671672592646 0.05444933882963734
3440000000.0 -0.016554583945993625 0.1198405369329181
3460000000.0 0.05622716902703912 -0.08418691838515226
3480000000.0 0.050744727752201416 0.07089284794810226
3500000000.0 0.06410136740181162 -0.042249074142806625
3520000000.0 0.07151005250485387 -0.01640482095574258
3540000000.0 -0.03344407326435276 0.06968642275966132
3560000000.0 0.08455033498524359 -0.0044386662713334375
3580000000.0 0.07235586989777905 0.052289855748862385
3600000000.0 -0.04760771655174436 -0.07746673378798256
3620000000.0 -0.03845117330758717 -0.08886060991700977
3640000000.0 0.03125295608458335 0.0976956443580195
3660000000.0 -0.04931904855333807 -0.08926503151835097
3680000000.0 0.11008714916466493 -0.004066594278184178
3700000000.0 0.11148808876642002 0.022251620988374982
3720000000.0 0.07157064458989482 -0.06852479108732186
3740000000.0 -0.019434855919028524 0.08290873497231312
3760000000.0 0.03694738787829861 -0.056641067154781115
3780000000.0 0.05508253002382997 0.01908302246191655
3800000000.0 -0.0531056788119541 -0.005424639978328322
3820000000.0 0.0462246628893498 -0.021216726023949466
3840000000.0 0.012482207079624066 -0.05148444454514418
3860000000.0 0.051998177513315064 -0.036693292842774304
3880000000.0 0.01349000674796172 0.08597504696214318
3900000000.0 -0.09702561872122284 -0.03910502168494651
3920000000.0 -0.06162844238651101 0.09647050780357938
3940000000.0 0.05569236978280677 0.09865159592495046
3960000000.0 0.08086306898564655 -0.05760473266624854
3980000000.0 0.05418486940746005 -0.07473951989954204
4000000000.0 0.0669271353862181 -0.032397332228617
