!Created with skrf (http://scikit-rf.org).
# Hz S RI R 50.0 
!freq ReS11 ImS11
400000000.0 0.7614763586938587 -0.40922651755499356
420000000.0 -0.35425474547664954 0.7254662056686086
440000000.0 -0.2937097683064242 -0.7285502412306608
460000000.0 0.7157558017556194 0.24422746612116786
480000000.0 -0.23948695089818706 -0.6850564653727579
500000000.0 0.6463768356498079 0.19520193027883143
520000000.0 0.20122032929337572 0.5152138376987456
540000000.0 -0.01727985278606023 -0.44984025176113224
560000000.0 0.2828439325714073 -0.22657522709425215
580000000.0 0.12992422481925645 -0.3086851117182765
600000000.0 0.1267369874857455 -0.3081687557334788
620000000.0 -0.3343661760061725 0.12424009390335806
640000000.0 -0.3768223829382849 -0.002820200734070137
660000000.0 0.28974417473738584 -0.2949839697680934
680000000.0 -0.3814980681954927 -0.054489479335728216
700000000.0 0.3421287734047563 -0.08825074441321469
720000000.0 -0.2684476655115708 -0.2406510519925782
740000000.0 0.33769727809259625 -0.04337895207345217
760000000.0 -0.2940616674570808 -0.04158584810612317
780000000.0 -0.15103338175650943 0.2890117425715747
800000000.0 -0.028461206171576 0.30314617243137826
820000000.0 -0.034942712556547656 0.2814878318484461
840000000.0 0.11591075784265689 0.2330283360213833
860000000.0 0.04537372188169747 -0.2009670824949615
880000000.0 0.10018714069169733 -0.1400831567730198
900000000.0 0.03589082543108245 -0.11419877351778276
920000000.0 0.09507206476811707 -0.04437869142305293
940000000.0 -0.11618156337801967 -0.019742089988234172
960000000.0 0.067244606893851 -0.06277735785924292
980000000.0 -0.021519277830769262 0.05578778883464259
1000000000.0 -0.0021849127590961247 -0.052369885237498894
1020000000.0 -0.038299648575726486 -0.052795539532115306
1040000000.0 -0.0927342114253707 0.0182358405945241
1060000000.0 -0.12395534126507006 0.052034779179734314
1080000000.0 -0.01592508568861106 -0.17805388445503628
1100000000.0 -0.07148475019943872 0.1916804681860528
1120000000.0 -0.22373522045534583 0.03732654268393751
1140000000.0 0.05281916108222702 0.2588588383908178
1160000000.0 0.10581542005794314 0.25461356668419727
1180000000.0 -0.2655601420109212 -0.11328309644386837
1200000000.0 -0.0041230152913911255 0.30029453345255436
1220000000.0 -0.3251988904875641 0.008614981418295966
1240000000.0 -0.258588074336336 -0.1961540527662861
1260000000.0 0.0196627272077312 -0.33662929838080113
1280000000.0 0.17154649558529933 -0.2909533315829812
1300000000.0 0.30300031381011905 -0.168320133996465
1320000000.0 0.0277840873775792 0.35249846496583226
1340000000.0 0.04350694823615807 -0.3690080412874088
1360000000.0 0.1926031374648038 -0.3256786840273051
1380000000.0 -0.16718785878385553 0.3433960047868787
1400000000.0 0.14612471395714097 -0.3620866383056413
1420000000.0 -0.12641384956389867 0.36499713735112527
1440000000.0 0.3417907911136027 0.15604881835652296
1460000000.0 -0.03789786956894723 -0.3654930706273615
1480000000.0 -0.3596604903207359 0.035082715010728016
1500000000.0 0.3231149844613803 0.06623082661526825
1520000000.0 0.08194733788044496 -0.2999843702552313
1540000000.0 -0.27707217899490916 -0.06778755680457983
1560000000.0 -0.2408361270306174 -0.07329107832122216
1580000000.0 0.13488820728930234 -0.16422411026959907
1600000000.0 0.04305987290169431 0.1737707003548773
1620000000.0 -0.12495321207235961 0.06625279452203016
1640000000.0 -0.02005521164502915 0.115647055307058
1660000000.0 0.07463409422399844 -0.06209521597930765
1680000000.0 -0.02859242377644356 -0.06841280838867952
1700000000.0 0.036949374392870556 0.03691190559106775
1720000000.0 0.0053004085487788665 -0.04051309728646237
1740000000.0 0.02690306531486204 0.04560302790307422
1760000000.0 -0.03643959064730145 -0.07421989658691058
1780000000.0 -0.044105951217964665 0.10045861769967858
1800000000.0 -0.09273384867147431 0.10005132761143476
1820000000.0 -0.12886796338572018 -0.10003757794341302
1840000000.0 -0.024139469959109476 -0.18765867468419664
1860000000.0 0.19681932873888533 -0.10056068384909306
1880000000.0 0.15044837432344738 -0.18887668540198155
1900000000.0 -0.23280403088572788 -0.12354372285793304
1920000000.0 -0.08565960780595663 0.27004749057674216
1940000000.0 -0.08556430749853428 -0.2828013640795326
1960000000.0 0.074025932690506 0.28946190795303917
1980000000.0 -0.19535184409030856 -0.22626182394062533
2000000000.0 0.26606416670264516 -0.15197176888031616
2020000000.0 0.27704026356761535 0.1230345361370323
2040000000.0 -0.16939249008908508 0.25222498981716684
2060000000.0 -0.22182787899657072 0.21081761655324405
2080000000.0 -0.2851997063252656 -0.11176248606176624
2100000000.0 0.0423397712862997 0.3054838639974332
2120000000.0 -0.29251961663498116 0.10380000486969625
2140000000.0 0.1676863487102212 -0.2526070930115149
2160000000.0 -0.29614882072914955 -0.020603846304338917
2180000000.0 -0.176568901819109 0.22352911644143855
2200000000.0 -0.2829608147795369 -0.022357432988580762
2220000000.0 -0.15852042222283297 -0.2331005761206436
2240000000.0 -0.054346641401166754 -0.2760317855097689
2260000000.0 -0.005361825324061691 -0.2742638066089053
2280000000.0 0.14526898862669443 -0.21909109908068275
2300000000.0 0.2223066109065094 0.11618027622923867
2320000000.0 -0.09793897158016336 0.222863624768482
2340000000.0 -0.10291238254998786 -0.2100488064395965
2360000000.0 0.11266356648123882 0.19716385415807144
2380000000.0 -0.1508884206717063 -0.17472411159680204
2400000000.0 0.22319298259529366 -0.08167359931810546
2420000000.0 0.2058350942253972 0.16075440575000086
2440000000.0 0.2709507985188599 0.0992677652219043
2460000000.0 -0.18473212868317881 -0.2662157561758766
2480000000.0 -0.1170102207127904 0.3402196416775658
2500000000.0 -0.2492675850568312 -0.3151129923853404
2520000000.0 0.36747199532092123 -0.24580968827549826
2540000000.0 0.26238558735456136 0.40567583581796957
2560000000.0 -0.5157063421962461 0.038838362995353815
2580000000.0 0.2590192975932691 -0.4849915663277231
2600000000.0 0.09522627955397592 0.5683029022692532
2620000000.0 -0.3401537924679532 -0.5001452416849654
2640000000.0 0.6170197878263651 0.07529293372959103
2660000000.0 -0.42050541197621943 0.48060261671826937
2680000000.0 -0.37054448962559755 -0.5342923853992948
2700000000.0 0.3290390037103202 -0.572611810997192
2720000000.0 0.6337011417666663 -0.2061704975403318
2740000000.0 0.6685523194767261 -0.06635521190724053
2760000000.0 0.6735287172614705 -0.033562381726917424
2780000000.0 -0.13023313830435518 0.6574728327008124
2800000000.0 -0.27633980758483845 0.602275103852621
2820000000.0 -0.6034925150656087 0.24571450365338274
2840000000.0 -0.4127445114709086 -0.49023155364040016
2860000000.0 0.6242286308068189 0.061765925028773296
2880000000.0 -0.5987800321116179 -0.12799232913192218
2900000000.0 0.3875508775055698 0.4534895189699444
2920000000.0 0.3080474969404303 -0.48789922944972025
2940000000.0 -0.5093519066528182 -0.21501204477314131
2960000000.0 -0.4890042069651322 0.20644686003236828
2980000000.0 0.11882586310118648 0.49294158682029326
3000000000.0 0.484762458183208 0.032467215346018194
3020000000.0 -0.3453015843337994 -0.30811910057259745
3040000000.0 0.22297136125749656 0.37237315949608424
3060000000.0 -0.05449209176483322 -0.3993491337635136
3080000000.0 -0.25688190845902203 0.2776268884318251
3100000000.0 0.28513009832793984 -0.22430353972239825
3120000000.0 -0.0903724028831927 -0.3344630245578874
3140000000.0 0.07138033954846897 0.3332610413923058
3160000000.0 -0.048899139638275434 -0.33583960097421395
3180000000.0 0.2019989591941355 0.2637360280970541
3200000000.0 0.2027566431492031 -0.2509374726586265
3220000000.0 -0.23775912206251093 -0.20611053525517808
3240000000.0 -0.22695937428960988 -0.19856909762960293
3260000000.0 -0.2796289483797904 -0.07744957302991534
3280000000.0 0.12260898643019301 -0.24549052925590661
3300000000.0 0.21144480234083546 -0.14211158059026993
3320000000.0 0.2099548229060398 0.09392732627514189
3340000000.0 -0.18328640475386998 -0.08702432420984378
3360000000.0 -0.12950288581810712 0.12521158709715588
3380000000.0 0.16001418769629958 -0.026133063126709224
3400000000.0 -0.1309401315635348 -0.07146607953431303
3420000000.0 0.07524366884259796 -0.11210537452313935
3440000000.0 0.1166466200044241 0.01728391196386643
3460000000.0 0.08841251383532107 0.046036168807572074
3480000000.0 0.011593538072392532 0.08964100539735866
3500000000.0 0.03069165421992202 -0.0717179129020905
3520000000.0 -0.0005090882695931118 0.07600394262052936
3540000000.0 0.012047617591002107 0.0790132115672847
3560000000.0 0.07685236074083172 0.030659056667547816
3580000000.0 -0.02914508629584623 0.08602986039018548
3600000000.0 -0.04637562669233138 -0.08199645588555
3620000000.0 -0.0836837788662982 -0.042317247342975164
3640000000.0 0.012881360944040448 0.10008626455067068
3660000000.0 -0.03476369361803911 -0.0961832470049418
3680000000.0 0.06020104740359707 -0.09116069038820651
3700000000.0 0.09905851300201769 0.04551663773404892
3720000000.0 0.10025289903579063 -0.00029545570103444926
3740000000.0 0.07866480292926378 -0.03392540298308186
3760000000.0 -0.05179582763720317 -0.037318934852703906
3780000000.0 -0.01339364771723836 0.05477465675022521
3800000000.0 -0.05044172883606113 0.017180581722708196
3820000000.0 0.04861220014257604 -0.005571975495007296
3840000000.0 0.04526529796507536 -0.02654703910020412
3860000000.0 0.04340808729961084 -0.042848275720229166
3880000000.0 -0.024500811167101795 0.08297769012977274
3900000000.0 -0.10085277578725697 0.028889706023945208
3920000000.0 0.007843857369050874 0.11409191980898863
3940000000.0 0.10203491566301498 0.04919047681588794
3960000000.0 0.003980622689056582 -0.09831676535221402
3980000000.0 0.07665267061545619 -0.046999047732910845
4000000000.0 -0.029382095022949282 -0.07281823773974139
