!Created with skrf (http://scikit-rf.org).
# Hz S RI R 50.0 
!freq ReS11 ImS11
400000000.0 0.7303177823154349 -0.4642245559595974
420000000.0 -0.34180564246071266 0.7321571275479893
440000000.0 -0.14649471800454716 -0.7688072337159775
460000000.0 0.7296731721617602 0.2036785147897198
480000000.0 -0.2100283230181394 -0.6981198386001594
500000000.0 0.6721392263314693 -0.046021864064707076
520000000.0 0.12217840837201546 0.532784142770516
540000000.0 0.19496795387270938 -0.4066067624719407
560000000.0 0.34678735016012824 -0.10986115754785603
580000000.0 0.11613858054629186 -0.31170553738102563
600000000.0 0.32211847725131615 0.09344318698823935
620000000.0 -0.36454710636710136 0.037774290512961134
640000000.0 -0.3773043839630449 -0.06780330122336181
660000000.0 -0.12872084812177667 -0.39389310313280046
680000000.0 -0.304087148323432 0.23132837523824035
700000000.0 0.3255138865085252 -0.12847221288057992
720000000.0 -0.1630649678887456 -0.31560921457121016
740000000.0 0.24858613435704238 0.23564440597858952
760000000.0 -0.26972464142389957 0.1441395684584119
780000000.0 -0.07009802507185237 0.3149979344269322
800000000.0 -0.17638613401857173 0.2460614859979958
820000000.0 0.02812799928128899 0.279478306907211
840000000.0 -0.06615107924230722 0.25080444927042556
860000000.0 0.1330510016853498 -0.16944409667630692
880000000.0 -0.16197366700435775 -0.05926645187097209
900000000.0 0.0884145673579465 -0.07073741426944108
920000000.0 -0.1068820717773164 -0.014912880931925488
940000000.0 0.09983274293079278 0.06748845612749071
960000000.0 -0.04595563849270881 0.07621041553107286
980000000.0 -0.021343607820699984 -0.04951041925189774
1000000000.0 -0.002954845945397192 -0.05190785573996977
1020000000.0 -0.0005533785309641372 0.06825259346392644
1040000000.0 -0.09763972604442404 -0.02323399705174204
1060000000.0 0.08007856436616877 -0.11142688729208959
1080000000.0 -0.049755155869219005 -0.15970247211664623
1100000000.0 -0.1169723494208981 -0.17212215228294658
1120000000.0 -0.22702385048551127 0.040985263759335144
1140000000.0 0.26404677210027055 -0.012308492582503536
1160000000.0 0.2328119728700439 0.1388343969140061
1180000000.0 -0.16992716158548876 -0.23005735362900134
1200000000.0 -0.10247347904942429 0.2850856056062681
1220000000.0 -0.3261182277184694 -0.03455983029729373
1240000000.0 -0.2908566639563167 -0.1480853435797388
1260000000.0 -0.07411845920020128 -0.3269279187620315
1280000000.0 0.28269146591505395 -0.1806309338704767
1300000000.0 0.3460716529760566 0.006434935302993196
1320000000.0 0.04066869086405569 0.35210891174305936
1340000000.0 -0.04059373673216413 -0.3696076189007839
1360000000.0 0.26549576847489814 -0.26833279336304683
1380000000.0 -0.20985003017833578 0.3184087624107648
1400000000.0 0.12475038977688012 -0.3711224192938927
1420000000.0 -0.11268945090768538 0.3701261312448348
1440000000.0 0.3415765376127261 0.15860904036578918
1460000000.0 0.1347859905855974 -0.34141805546669435
1480000000.0 -0.33088809378575734 -0.1501684686263581
1500000000.0 0.330755440449336 0.02420431891272379
1520000000.0 0.030143234316415298 -0.3097973925873997
1540000000.0 -0.2835745581286835 0.013416408777619918
1560000000.0 -0.19010125402977812 -0.1650586781692948
1580000000.0 0.08661787411834801 -0.1963454841294929
1600000000.0 0.10842739275476114 0.14144464866778894
1620000000.0 -0.13696235612678218 0.03259034305794761
1640000000.0 -0.02558887227337858 0.1164561408071941
1660000000.0 -0.0924430803494776 -0.031786036919833706
1680000000.0 0.021654848750610318 -0.06561820267103699
1700000000.0 -0.04636649047329925 -0.029962701015164492
1720000000.0 0.03788919063014408 0.01709684703128343
1740000000.0 0.04089889334247154 0.031423150573151634
1760000000.0 0.06501921754556278 0.05152489980684152
1780000000.0 -0.07414512780461358 0.08477914725140384
1800000000.0 0.04414666354656385 0.12862149301904444
1820000000.0 0.03502178443791272 -0.15766082817587732
1840000000.0 0.1427229795795405 -0.12601689196366211
1860000000.0 0.12579598915803802 -0.18311661439987087
1880000000.0 0.1421271543529588 -0.19369047024747724
1900000000.0 -0.17406746965094902 -0.19817622058277537
1920000000.0 -0.04931315271906811 0.2790746211771281
1940000000.0 -0.11574188460955488 -0.2718956965826839
1960000000.0 0.06848115094025296 0.291370954983853
1980000000.0 -0.2917587402615274 -0.06555795660211133
2000000000.0 0.268287414702773 -0.14424818197139933
2020000000.0 0.23997084550529643 0.18907715473017098
2040000000.0 -0.10276251706109311 0.28767421124216275
2060000000.0 -0.22743797785181513 0.20448700274550713
2080000000.0 -0.29434923034956145 -0.08733673286573153
2100000000.0 0.15577983282354635 0.2668494501838787
2120000000.0 -0.2744842700690293 0.13986738306629443
2140000000.0 0.19324381644964905 -0.23444943169046162
2160000000.0 -0.2825020352094889 -0.0897774484026465
2180000000.0 -0.10863161408522094 0.26334112552913586
2200000000.0 -0.2795670198130542 -0.03295521286904779
2220000000.0 -0.13823329940526918 -0.2454815172753145
2240000000.0 -0.038588270770857455 -0.2784904469589114
2260000000.0 -0.040495074742374355 -0.2721599781879121
2280000000.0 0.044713669043952776 -0.2582024510200017
2300000000.0 0.2177039855136773 0.11859554304771162
2320000000.0 -0.20599306737907042 0.13261474617980687
2340000000.0 -0.07590739614630744 -0.2241804267538936
2360000000.0 0.1748316582532774 0.14614496744857522
2380000000.0 -0.14759253824732513 -0.1766195957857672
2400000000.0 0.23687859033665326 -0.021411244391357193
2420000000.0 0.19724442979799345 0.17230536616721367
2440000000.0 0.2876012052551747 -0.00800488513723287
2460000000.0 -0.2072737939686699 -0.24960136352977078
2480000000.0 -0.09349813910800481 0.34793992472809054
2500000000.0 -0.275086037402291 -0.2907303376722016
2520000000.0 0.39028890838638614 -0.2032918390537373
2540000000.0 0.25488978515214505 0.41087598372814477
2560000000.0 -0.5063008674880322 0.10933205931811606
2580000000.0 0.15715605730870263 -0.5275678034087926
2600000000.0 0.1256887821740046 0.5626700271033446
2620000000.0 -0.37939628634356526 -0.4705208147400019
2640000000.0 0.6105535665246253 0.11558790851644654
2660000000.0 -0.4996032848083331 0.39935315784481734
2680000000.0 -0.3494039123181223 -0.5488774839850916
2700000000.0 0.3841580975891593 -0.5363068318223689
2720000000.0 0.6353412285611084 -0.19523216738938648
2740000000.0 0.6640011916189794 -0.09050860360589758
2760000000.0 0.6689583519788986 -0.06493008786106333
2780000000.0 -0.03304462530771795 0.6678612030871275
2800000000.0 -0.2534760966854212 0.6116200898084206
2820000000.0 -0.592566859484151 0.2710669480570972
2840000000.0 -0.35068911774044886 -0.5363561420791708
2860000000.0 0.6174033327801882 0.11561275165063636
2880000000.0 -0.6047486831069933 -0.09437788360822938
2900000000.0 0.35976775943447986 0.47560012159228343
2920000000.0 0.3910700625117074 -0.4237083542453883
2940000000.0 -0.4392816007191714 -0.3354528405949327
2960000000.0 -0.49627547883756684 0.1876237589596478
2980000000.0 0.06122578382244176 0.5042766995859989
3000000000.0 0.4807542544088024 0.05607422954550168
3020000000.0 -0.29226296340554037 -0.35671181417214476
3040000000.0 0.08018673952733812 0.4246987703624263
3060000000.0 0.047153795580386994 -0.400621665759716
3080000000.0 -0.2771351765991576 0.26049337307924136
3100000000.0 0.2348183297507672 -0.27587270066358355
3120000000.0 -0.030732453344327677 -0.34445432524801717
3140000000.0 0.09196021752665348 0.3280169128516066
3160000000.0 -0.008394389932221597 -0.33894559180972744
3180000000.0 0.24118806025367467 0.2297630326794928
3200000000.0 0.19317859535192308 -0.25588006481361486
3220000000.0 -0.15643924179015953 -0.2737972518488868
3240000000.0 -0.2524899735987986 -0.1687373263049168
3260000000.0 -0.28862383223451177 0.0019737163093559856
3280000000.0 0.16350355075137293 -0.2193651735321636
3300000000.0 0.17811172197645928 -0.18449375350939282
3320000000.0 0.23061171629738983 -0.0004404190343425854
3340000000.0 -0.17887655596270638 -0.09464195570795253
3360000000.0 -0.1820702343354948 -0.007792756307760317
3380000000.0 0.16043172304344477 -0.02467909997061183
3400000000.0 -0.07788716499226593 -0.12366412611424296
3420000000.0 0.11850239684638697 0.06647199970497786
3440000000.0 0.08862075999881287 0.07876178207237453
3460000000.0 0.09885656116234419 -0.002590698901246012
3480000000.0 -0.029815648294674722 0.08341247005617501
3500000000.0 0.05424858043281001 -0.054891693500824956
3520000000.0 0.06619352871577623 -0.03301005033073857
3540000000.0 0.02267252032908961 0.07496216602596985
3560000000.0 0.08256995960656763 0.009228381334119079
3580000000.0 0.02278435987709105 0.0868963698679853
3600000000.0 -0.08493689439387232 -0.041261377871780684
3620000000.0 -0.06237419046908287 -0.0743354876751504
3640000000.0 0.03575047165032351 0.09636818107113673
3660000000.0 -0.03631706407081886 -0.09827327919077294
3680000000.0 0.10975806492961747 -0.0030773595233102714
3700000000.0 0.05606636450285121 0.09755126033504227
3720000000.0 0.04346097808720895 -0.09009584000678918
3740000000.0 0.0132927795280685 0.08399381292019965
3760000000.0 0.03684836845028314 -0.05713182067416725
3780000000.0 0.053525766674345096 0.02247559729189634
3800000000.0 -0.05169767705235626 -0.016577346236363567
3820000000.0 0.04315719659318367 0.023043497818641713
3840000000.0 -0.00042223872951430375 -0.05387636147142084
3860000000.0 0.0470298724997424 -0.04014706710934167
3880000000.0 -0.037784757109714566 0.07711243598219401
3900000000.0 -0.09728542426138832 0.03847827538444531
3920000000.0 -0.009588867220344136 0.1139176634337477
3940000000.0 0.024690839570640312 0.11154982582317054
3960000000.0 -0.027018189859004685 -0.09651828091068425
3980000000.0 -0.017637521176969546 -0.08793289427008223
4000000000.0 0.06897426716536481 -0.03358936580835768
