!Created with skrf (http://scikit-rf.org).
# Hz S RI R 50.0 
!freq ReS11 ImS11
400000000.0 0.7668630969405922 -0.3970918528463939
420000000.0 -0.23767167961864255 0.7741419599977758
440000000.0 -0.16156839275121823 -0.7667365100264707
460000000.0 0.67085090521155 0.35593290762904234
480000000.0 -0.44021915498251474 -0.5811479171050136
500000000.0 0.6613678437327748 -0.13188280601980146
520000000.0 0.02023169678614607 0.545462645287029
540000000.0 0.4114175532269733 -0.1925954618042998
560000000.0 0.099841443990668 -0.3507387007602247
580000000.0 0.22513194559080052 -0.2452807269165254
600000000.0 0.32946571228915644 -0.025786259154433114
620000000.0 -0.35459861218743743 0.07571141031948775
640000000.0 -0.3869606527096931 -0.017516666471609103
660000000.0 -0.34643964487726436 -0.21712071315420065
680000000.0 -0.3071079495891942 -0.2188735301540546
700000000.0 0.3547880305483604 0.02238162268244155
720000000.0 -0.3637301771148983 0.02840544366602932
740000000.0 0.29070443630375886 -0.16376265027886938
760000000.0 -0.06641692312603698 -0.2938312749700514
780000000.0 -0.088445821130515 0.3159066294797578
800000000.0 -0.06983305934685018 0.2993757082517593
820000000.0 -0.0183573663184088 0.2823025886730081
840000000.0 0.11176198807016739 0.23423120033651695
860000000.0 0.14079281387720866 -0.15395935141830436
880000000.0 0.11942098103768566 -0.12363652856333246
900000000.0 0.1114776493364856 -0.051888600837909526
920000000.0 0.10790813053793365 -0.006884727577137949
940000000.0 0.10704522809800832 0.04099895268554593
960000000.0 0.01675028518405466 -0.08944720744440447
980000000.0 -0.01456914728048647 -0.05633476238675268
1000000000.0 -0.03470057864541915 0.03150420678961741
1020000000.0 -0.06474125223012932 0.016909334508567016
1040000000.0 0.10153891018704429 0.0037231690222701676
1060000000.0 -0.005154637352377024 -0.1406874228547126
1080000000.0 -0.13350493801701188 -0.10762182514154155
1100000000.0 -0.1261339670675705 -0.1588234813544837
1120000000.0 -0.23171618153179285 0.0012444177183134615
1140000000.0 0.24098732913619605 0.10626200604157052
1160000000.0 0.20347846369564337 0.18022901375782968
1180000000.0 -0.2542550889149738 -0.12770613044266477
1200000000.0 -0.11100351689401655 0.2838275599994745
1220000000.0 -0.3239225771586444 -0.012282034249905248
1240000000.0 -0.3226205396643693 -0.05412223991614095
1260000000.0 0.012187912029422071 -0.3352776015495362
1280000000.0 0.2994123238780743 -0.1493987891572508
1300000000.0 0.32359216404263186 -0.1266190989966679
1320000000.0 0.04564062505325971 0.3543255126728342
1340000000.0 -0.17685933910027968 -0.3238677008305791
1360000000.0 0.3176656370654057 -0.20345009557965751
1380000000.0 -0.23810986646319968 0.29960513421257023
1400000000.0 0.11633721467085369 -0.37390653356315234
1420000000.0 -0.04457690081771 0.38372161413689293
1440000000.0 0.31508770690746346 0.20251582132642262
1460000000.0 0.19641147517210814 -0.3094169106342891
1480000000.0 -0.35643905309385066 -0.06664424097860387
1500000000.0 0.32517288821261764 0.06819910774026725
1520000000.0 -0.08465626841003562 -0.30024762270655336
1540000000.0 -0.2817017143672307 0.01902729933900145
1560000000.0 -0.1754890811241517 -0.18028512091531002
1580000000.0 0.17022922358690057 -0.12784117950703233
1600000000.0 0.08556482590172833 0.16121621178976875
1620000000.0 -0.10065663003206243 0.09490923997813669
1640000000.0 -0.07220900753987072 0.09347528828819998
1660000000.0 -0.030801770906549678 -0.09164294560297098
1680000000.0 0.06656482860009529 -0.02036296789373738
1700000000.0 -0.027366531741775516 -0.04665429439355063
1720000000.0 -0.0070777540546609246 -0.04106839314113671
1740000000.0 -0.034517217717340905 0.03925343959627937
1760000000.0 0.08098906619586732 -0.018853198996263157
1780000000.0 -0.07060520446624637 0.08473628787372837
1800000000.0 -0.07197579312108751 0.11635087064300251
1820000000.0 -0.07965301547435955 -0.1406660867041487
1840000000.0 0.07193512738167934 -0.17408848871214325
1860000000.0 0.20203165222199698 -0.08829026133051752
1880000000.0 0.12031043258096069 -0.21134190710399894
1900000000.0 -0.21745889659323114 -0.14569187665401173
1920000000.0 -0.1365968683568452 0.24718639279511942
1940000000.0 -0.15561085867748758 -0.2531240663187172
1960000000.0 0.11516982604398998 0.2745889923031248
1980000000.0 -0.1848637515904822 -0.23454517781041564
2000000000.0 0.263722317385759 -0.1574820443902683
2020000000.0 0.29156200767174945 0.08447358316767525
2040000000.0 -0.09644102496747478 0.28834232326407716
2060000000.0 -0.2836383667457346 0.1200008933005021
2080000000.0 -0.30476705836743506 -0.0401656747968802
2100000000.0 0.18656398759566747 0.2458277874028953
2120000000.0 -0.3050661339323224 0.050529797425148786
2140000000.0 0.19338714593455616 -0.23702530555041726
2160000000.0 -0.2947003754281571 0.030558384755018993
2180000000.0 -0.21182038001858386 0.18909111172390933
2200000000.0 -0.2552309511652829 -0.12171014952196078
2220000000.0 -0.22616086423054674 -0.1685613933507765
2240000000.0 -0.05600961341564385 -0.2737890921852819
2260000000.0 0.015571259791343961 -0.2742722847875804
2280000000.0 0.06010034863540365 -0.2543816369320119
2300000000.0 0.17301292265537507 0.1779554333215547
2320000000.0 -0.17920482403223348 0.16654924799943557
2340000000.0 -0.18624623234077123 -0.1449842548307629
2360000000.0 0.1955975266074986 0.1132512926404949
2380000000.0 -0.11463098265986005 -0.20111813364521758
2400000000.0 0.23481542133625813 -0.042084340991419764
2420000000.0 0.2047013111702882 0.16365159416562197
2440000000.0 0.28742480442804946 -0.004693932452306483
2460000000.0 -0.2070198607342424 -0.24975948971618972
2480000000.0 -0.15858035964020584 0.32308447644107285
2500000000.0 -0.22242351495579282 -0.3332339022182812
2520000000.0 0.4142875074732586 -0.1539692446246542
2540000000.0 0.22289792868415217 0.42843119652162265
2560000000.0 -0.5147496015289033 0.046125930515240304
2580000000.0 0.2915632952307644 -0.46666214069792317
2600000000.0 0.137218522046439 0.5594929113636796
2620000000.0 -0.33536686607937505 -0.5025364346314402
2640000000.0 0.6082338714054822 0.12873854971013976
2660000000.0 -0.43802240397838327 0.46478317098721533
2680000000.0 -0.33892123896837806 -0.554555353883909
2700000000.0 0.3632410123531445 -0.5511512777493405
2720000000.0 0.6322799513116848 -0.20827795104135374
2740000000.0 0.6708270182647956 -0.003822700888613509
2760000000.0 0.6618106587354967 -0.12146843259472467
2780000000.0 -0.04805828391477755 0.6681059266480852
2800000000.0 -0.2042302854796764 0.6304995161706766
2820000000.0 -0.5652671238472606 0.324832974250243
2840000000.0 -0.38086909684018944 -0.5153273120825561
2860000000.0 0.6094759344857386 0.15228642137519247
2880000000.0 -0.6022371356485651 -0.11206997776222115
2900000000.0 0.38513534698884994 0.4552861228470271
2920000000.0 0.3382511890619563 -0.4669972507420884
2940000000.0 -0.454302880895621 -0.3156207811497633
2960000000.0 -0.5079298857923598 0.15507496216913558
2980000000.0 0.06672504447479961 0.5027068820129007
3000000000.0 0.48439763121806845 -0.0274254238478108
3020000000.0 -0.35068367907222636 -0.2996779832207155
3040000000.0 0.19874407344044812 0.3836292678874262
3060000000.0 0.09626946344656906 -0.39183113018839877
3080000000.0 -0.2197471672789045 0.3100938584782817
3100000000.0 0.31433408271438346 -0.17940315717587718
3120000000.0 -0.008661243051324404 -0.34594143070689753
3140000000.0 0.06441811567567356 0.33597711694280996
3160000000.0 -0.07335993062697577 -0.33112250942397287
3180000000.0 0.18077515495292482 0.27852709029110995
3200000000.0 0.23937799404885404 -0.21588167653782425
3220000000.0 -0.26610108939902183 -0.16910189973458048
3240000000.0 -0.18359877024238436 -0.2390026788621034
3260000000.0 -0.26488943399317705 -0.119886732562374
3280000000.0 0.07468529792032237 -0.2629899911297372
3300000000.0 0.20112893819192187 -0.15504588270546157
3320000000.0 0.21540945368243786 0.08145171784942175
3340000000.0 -0.20300408386570504 -0.015929803210447117
3360000000.0 -0.17106179939228208 0.05611301338695396
3380000000.0 0.15968364280180083 0.03825558481962224
3400000000.0 -0.13574372328566617 0.05843991400218018
3420000000.0 0.12970673258423066 0.02911614933471618
3440000000.0 0.01201641081017382 0.1200753248555826
3460000000.0 0.05808181579975793 -0.08115273955261539
3480000000.0 -0.015514018585282174 0.08639848236344953
3500000000.0 0.052343374562233556 -0.05660799940536707
3520000000.0 0.06633497667468423 -0.03197708530152195
3540000000.0 -0.007606945259446611 0.07652954336243364
3560000000.0 0.08307738977347699 0.012633438065083318
3580000000.0 0.03521109145214091 0.08307576299011127
3600000000.0 -0.03603368044741661 -0.0842023995078885
3620000000.0 -0.03838265979020667 -0.08882068565327328
3640000000.0 0.06472267354530932 0.0795479502902554
3660000000.0 -0.0025457729933105622 -0.10162258707089225
3680000000.0 0.11019087528690585 0.011914029333371745
3700000000.0 0.1140066261990222 0.00805263427732079
3720000000.0 0.08082436700784765 -0.05668278973799068
3740000000.0 -0.02280017140068274 0.08176341690945428
3760000000.0 0.04746559862237236 -0.048741740840719756
3780000000.0 0.05685549344785335 -0.01052699701765949
3800000000.0 -0.0480845395872375 -0.0233320743376412
3820000000.0 0.005468287803115164 -0.050241485806437496
3840000000.0 0.02631732845173743 -0.04546279389454581
3860000000.0 0.031881707255833516 -0.05565754405991489
3880000000.0 0.03915093010681124 0.07807135676150831
3900000000.0 -0.09560832756660219 -0.04102811160675224
3920000000.0 -0.07936527361780425 0.08271713803007573
3940000000.0 0.03452019807428198 0.10915483010362288
3960000000.0 0.08364758206177604 -0.053000332379408495
3980000000.0 0.06351792436899358 -0.06550719624855879
4000000000.0 0.06479466426783827 0.034057999583140076
