!Created with skrf (http://scikit-rf.org).
# Hz S RI R 50.0 
!freq ReS11 ImS11
400000000.0 0.7842703425283027 -0.3644533155132484
420000000.0 -0.3667749928165664 0.7194095697213168
440000000.0 -0.23819502418935515 -0.7456899845196489
460000000.0 0.7020918444251762 0.28837989040641604
480000000.0 -0.3749789084480201 -0.6214603194507788
500000000.0 0.6678420347833556 -0.08484817623362798
520000000.0 0.10945747066130744 0.5371941096693936
540000000.0 0.2318302337097655 -0.3857326633556111
560000000.0 0.32275561394367114 -0.1594138178198533
580000000.0 0.29867417894162407 -0.1585912926501786
600000000.0 0.2935720785853511 -0.17524061120483284
620000000.0 -0.06705579445032689 0.35063552291021455
640000000.0 -0.351714104805548 -0.14158635104216172
660000000.0 0.1259866989761527 -0.3892199580150746
680000000.0 -0.247140505005031 -0.2952275291004533
700000000.0 0.2977650263359443 0.19801145320176788
720000000.0 -0.3157935032359756 0.1771735336242912
740000000.0 0.26179381842860405 -0.20168773407298687
760000000.0 0.01200515382759297 -0.30044334839033415
780000000.0 -0.10988569831757412 0.3141847253082408
800000000.0 0.07834238516651452 0.29696562026930245
820000000.0 0.21105798469530818 0.19386178256127415
840000000.0 0.2387472459084529 0.09452084228880892
860000000.0 0.17475520927301919 -0.100404164454415
880000000.0 0.13336536509652855 0.11005773535411284
900000000.0 0.06480473622465016 -0.10568047875070566
920000000.0 0.09349971473117583 -0.05166046074379114
940000000.0 -0.010985574398709036 0.11730427268276722
960000000.0 -0.08050149307257769 0.037105999076338624
980000000.0 0.04773322697017404 0.03439898443335188
1000000000.0 0.019726559853212176 -0.04298952277743618
1020000000.0 -0.03019586217410898 0.052891898158402215
1040000000.0 0.033254715010180125 0.0925265846018264
1060000000.0 -0.015644522705987294 0.14098940528270765
1080000000.0 -0.1614789204816882 0.05852636772901803
1100000000.0 -0.18112444251553267 0.0995784838559139
1120000000.0 -0.2228669391360058 -0.048166398624470155
1140000000.0 0.2586388350670322 -0.04689024319869628
1160000000.0 0.12020658336869884 0.24136302698198944
1180000000.0 0.0433617495167555 -0.28655576111682673
1200000000.0 0.07243675315300084 0.29746246056720976
1220000000.0 -0.22429979574849931 0.23568414583574893
1240000000.0 -0.2708028169954332 -0.1729515590221096
1260000000.0 0.24205096326684516 -0.2319952736752664
1280000000.0 0.2914353396936379 -0.17533692468187315
1300000000.0 0.2329198757460286 -0.25832691790462253
1320000000.0 0.10713757244880052 0.33478520853295335
1340000000.0 0.04020750837140322 -0.3678239154995184
1360000000.0 0.2656657795558871 -0.2698767414173482
1380000000.0 -0.16764908037210313 0.34427524009239774
1400000000.0 0.033013372165492945 -0.38739500503176605
1420000000.0 -0.16037993543261544 0.35182388759013383
1440000000.0 0.3563094790463635 0.12194445537926779
1460000000.0 0.10435603170807094 -0.3515278743179203
1480000000.0 -0.3536937959624797 0.07113050328914974
1500000000.0 0.26598526642693304 0.19609897059544312
1520000000.0 0.07629031340630313 -0.30481265062811286
1540000000.0 -0.2177599805205466 0.18190065037812503
1560000000.0 -0.2097450018141067 -0.13405056274398278
1580000000.0 0.2148559003967675 -0.005690155570291779
1600000000.0 -0.005403074747351139 0.1820925848470606
1620000000.0 -0.021509120260373403 0.13961507079381869
1640000000.0 0.10423531715925109 0.049363680693424936
1660000000.0 0.09220471943797509 -0.02751954503401523
1680000000.0 0.07307223536378754 -0.006137989023782004
1700000000.0 -0.014072216164200664 0.054267399383627964
1720000000.0 0.03904180974906068 -0.00445699694734559
1740000000.0 -0.042295775946385776 -0.031497749696808804
1760000000.0 0.033823864630081565 -0.07538440738200684
1780000000.0 -0.1065807755853864 0.030010997344554417
1800000000.0 -0.01613383201435608 0.13617812298482393
1820000000.0 -0.1520754382814421 -0.05343252546081436
1840000000.0 0.11465420607583084 -0.1484682995805875
1860000000.0 0.22248558739695906 -0.010554630152278891
1880000000.0 0.05566169449808486 -0.23764514136465031
1900000000.0 -0.2439979526949436 -0.09372840867060146
1920000000.0 -0.15056019871798804 0.23912406021256463
1940000000.0 0.045444680943936736 -0.29369241990065126
1960000000.0 0.1896221950986357 0.23436607248970362
1980000000.0 -0.27794038824365797 -0.10605792053819875
2000000000.0 0.28578651916025355 -0.10165730749935553
2020000000.0 0.19683959822605007 0.23211122010169596
2040000000.0 -0.1935040550823973 0.23831657129224854
2060000000.0 -0.17068834522962412 0.258560011980925
2080000000.0 -0.2970142969309299 0.06621137051479405
2100000000.0 -0.0004977366516745584 0.30683351161530875
2120000000.0 -0.2968558519250495 0.090486141723209
2140000000.0 0.1889442828539856 -0.23823529101944646
2160000000.0 -0.29613267801324494 0.007242827225448013
2180000000.0 -0.17241725464669197 0.2266716166449883
2200000000.0 -0.2815107018895773 0.02117077977695759
2220000000.0 -0.1975191346426972 -0.20087610504462144
2240000000.0 -0.06311218014646035 -0.2725287601041487
2260000000.0 0.04251706778545332 -0.27227430344623055
2280000000.0 0.13786835585563603 -0.22213272774241294
2300000000.0 0.21820135881639965 0.12303196042144803
2320000000.0 -0.15285166071483006 0.18996434737752596
2340000000.0 -0.10757582178730445 -0.20990150019499268
2360000000.0 0.13650087745574724 0.1831587087190981
2380000000.0 -0.16656816088412763 -0.15660279791908094
2400000000.0 0.223165649538747 0.08708907274362312
2420000000.0 0.23581748123270135 0.11499192488893019
2440000000.0 0.2834061436853505 -0.04272844667628507
2460000000.0 -0.23091641818539055 -0.22523564507479968
2480000000.0 -0.0239574071094009 0.35861352930410983
2500000000.0 -0.2536153955006824 -0.3104668931555911
2520000000.0 0.3925305433307137 -0.20322191630989056
2540000000.0 0.28262214999507995 0.39329337447622364
2560000000.0 -0.5132987688006365 0.06374818698466693
2580000000.0 0.2817999427000569 -0.4731130537685346
2600000000.0 0.11843879330547313 0.564807284432171
2620000000.0 -0.301432750953894 -0.5237968259933158
2640000000.0 0.6020870702585202 0.15296028718916188
2660000000.0 -0.4752243078903084 0.42681715018763805
2680000000.0 -0.32788959071059853 -0.5613891183829177
2700000000.0 0.3673019286939122 -0.5483622430484195
2720000000.0 0.6447805204534865 -0.16614280126440087
2740000000.0 0.6703230419981028 -0.03646955390277714
2760000000.0 0.6664377080466547 -0.09427222144002098
2780000000.0 -0.1173733955944176 0.6594365665309345
2800000000.0 -0.21504784559621423 0.6274706994541261
2820000000.0 -0.5713627866921397 0.31591323234730945
2840000000.0 -0.31714073962129236 -0.5575366239433555
2860000000.0 0.6100143425857708 0.1471558541892217
2880000000.0 -0.6017204593965964 -0.11545740711938669
2900000000.0 0.3737414909410354 0.46506282431705465
2920000000.0 0.33386652191400124 -0.4701078203748138
2940000000.0 -0.4683517983530966 -0.2916654734333344
2960000000.0 -0.5185527767909314 0.11335161348941673
2980000000.0 0.04890483517146041 0.5042109437133493
3000000000.0 0.4853696655930848 -0.01294900262803717
3020000000.0 -0.35008698126613114 -0.30114946889524397
3040000000.0 0.18714150852890526 0.3912164849863401
3060000000.0 -0.0014917127512250532 -0.402751301189798
3080000000.0 -0.2762563879594267 0.2603626197805292
3100000000.0 0.24035298053310453 -0.27257625343209907
3120000000.0 -0.07629705132639242 -0.3382394022582884
3140000000.0 0.017373057887130974 0.34229699651618695
3160000000.0 -0.08234130518309392 -0.3297217358485862
3180000000.0 0.214474631717644 0.2542750017435768
3200000000.0 0.2457528959803559 -0.20602175190221597
3220000000.0 -0.13222229089388648 -0.28680585174677925
3240000000.0 -0.2516470221351679 -0.17048020734406977
3260000000.0 -0.28620994136862205 -0.0232385393980356
3280000000.0 0.21847824166629778 -0.16553037853132224
3300000000.0 0.22758293537273516 -0.11504613869873091
3320000000.0 0.22882654650574155 -0.008136004476915275
3340000000.0 -0.19855748399072168 -0.03929191662164868
3360000000.0 -0.1293246770745108 0.12605950565701296
3380000000.0 0.15858172531083822 0.025745337208520732
3400000000.0 -0.08211650037388364 -0.12433544971976677
3420000000.0 0.026962524065919556 -0.1327687945392612
3440000000.0 0.10756491407778156 -0.04763088138390859
3460000000.0 0.07593381010700287 0.062492503341808885
3480000000.0 0.021601769979555322 0.0879572524202207
3500000000.0 0.0487850861625378 -0.06153552809898324
3520000000.0 0.07260406260989859 -0.017460026495865415
3540000000.0 0.07745520041558011 0.008881505244494233
3560000000.0 0.059494474081300125 -0.05732768092152299
3580000000.0 -0.07984092116899204 0.040459133937896734
3600000000.0 -0.010258393767628795 -0.09357087109861677
3620000000.0 -0.09564062051678922 -0.023589939889061096
3640000000.0 0.07399734519199148 0.06748444983285527
3660000000.0 0.03845226521846514 -0.09329447494732077
3680000000.0 0.11026738840251898 0.0023167353174439985
3700000000.0 0.0021225938158848006 0.11305667533782286
3720000000.0 0.10012063473089937 -0.01750992555705695
3740000000.0 0.07581192038468094 -0.03876594552038693
3760000000.0 -0.01632364268067048 -0.06124793027479702
3780000000.0 -0.05769293893400521 -0.006843377389883067
3800000000.0 -0.029340096947724 0.04695222823581618
3820000000.0 -0.007027316297742356 0.04671542623024041
3840000000.0 0.051252173287060734 -0.013008992080705876
3860000000.0 0.05371466463409123 -0.02856093290671115
3880000000.0 0.007506541412738177 0.08569611454889293
3900000000.0 -0.0889486860326251 0.05614507156840508
3920000000.0 0.03971231434194841 0.10490459540558662
3940000000.0 0.010940772401472185 0.11133949930834183
3960000000.0 0.030960627694437942 -0.0944734484108348
3980000000.0 0.007786381398938362 -0.08892323231372734
4000000000.0 0.07548251090117414 0.003022253693383118
