!Created with skrf (http://scikit-rf.org).
# Hz S RI R 50.0 
!freq ReS11 ImS11
400000000.0 0.8199956413319602 -0.2753729705662894
420000000.0 -0.13062450131716383 0.7982108241173387
440000000.0 -0.2642774049296169 -0.7369524142410129
460000000.0 0.7042336210559926 0.2820172343440242
480000000.0 -0.3841120391452782 -0.6177031071314261
500000000.0 0.6707767196221863 0.062280222523984165
520000000.0 0.13043010729276985 0.535733753815339
540000000.0 0.32230536992218345 -0.31701865123470957
560000000.0 0.1977339960893437 -0.30614869805057826
580000000.0 0.24001330449257902 -0.22400533649471696
600000000.0 0.15761729786399864 0.2927420657602612
620000000.0 -0.3672160258604821 0.04832471404089888
640000000.0 -0.32667782076913127 0.2069218495298117
660000000.0 -0.35237562869311356 -0.2058582361188549
680000000.0 -0.37339266449236946 -0.05631727924678513
700000000.0 0.2616519388094502 0.23828654102386482
720000000.0 -0.2762686344415068 -0.23608724109556511
740000000.0 0.3185847489578465 -0.12030352660814961
760000000.0 -0.29416780893649475 0.05907877544432511
780000000.0 -0.20894731929907887 0.244141707209165
800000000.0 -0.29195952750592524 0.08588151301517695
820000000.0 -0.2784746766094053 0.0677281394720094
840000000.0 0.15067183082831798 0.21566586125989476
860000000.0 -0.21188799786618132 -0.011969661841596755
880000000.0 -0.1438435422008465 -0.08465583199321997
900000000.0 -0.04607925957201503 0.10256746324048391
920000000.0 -0.11579729110195024 0.018445015459904745
940000000.0 -0.10943716828624622 -0.0578193420535067
960000000.0 0.042075327261188816 0.07621014905626805
980000000.0 -0.05199597886576832 -0.011418121769562707
1000000000.0 -0.005262763058170212 0.0477598901228549
1020000000.0 -0.04896384437185853 0.044478986021937804
1040000000.0 0.06417147705484777 -0.07323836282497069
1060000000.0 0.003423369141465446 0.14021925428753215
1080000000.0 -0.1259059239234565 -0.12316015534570318
1100000000.0 -0.14438829000500528 0.14767167025329173
1120000000.0 -0.20028843672914862 0.10515362463850143
1140000000.0 0.10155975384013777 0.24330430085220955
1160000000.0 0.04082352593289155 0.2714831012654941
1180000000.0 -0.27136047582246703 -0.09870176109754294
1200000000.0 0.06017822393600112 0.29567564752438147
1220000000.0 -0.32122538555584573 -0.03774161138869421
1240000000.0 -0.27520206083915427 -0.17445362100635142
1260000000.0 -0.018126933319524082 -0.3368061188378715
1280000000.0 0.2787639465834354 -0.19383109253290245
1300000000.0 0.19293499582999554 -0.2871584221596236
1320000000.0 -0.014174308424258146 0.35244082776361974
1340000000.0 0.01127297174499178 -0.3703014470862445
1360000000.0 0.25878291059373887 -0.27632789926230084
1380000000.0 -0.24164045853410596 0.297901252662561
1400000000.0 0.09889267292431116 -0.3789167496693164
1420000000.0 -0.10779309046845498 0.3696712037468806
1440000000.0 0.3160122165241106 0.2030248043446644
1460000000.0 0.18920522876128754 -0.31473825186211707
1480000000.0 -0.35678283970699903 -0.06674825475193905
1500000000.0 0.33239428369232776 -0.020317889887705783
1520000000.0 -0.07063608796319168 -0.3015726114415066
1540000000.0 -0.25373712782672864 -0.12280626649337406
1560000000.0 -0.10390357216499706 -0.2334608862039322
1580000000.0 -0.04397723798079597 -0.209438137915197
1600000000.0 0.09162571610232566 0.1512091341741773
1620000000.0 -0.09642141545084448 -0.1049910160203222
1640000000.0 -0.02567642807963383 0.11727633627417591
1660000000.0 -0.07681694752590021 -0.057505265363979284
1680000000.0 0.06429501053620788 0.0314363266733369
1700000000.0 -0.008379492798555559 0.05416321531359109
1720000000.0 -0.039040080524391806 -0.01588906697284186
1740000000.0 0.053568667542787635 0.002123221134774821
1760000000.0 0.06590385399504202 -0.04662571432807229
1780000000.0 -0.1093568678685284 -0.007703103749613973
1800000000.0 -0.07757984571120233 0.11437720356218539
1820000000.0 -0.1098339434458617 -0.1190470849968703
1840000000.0 0.007259747130873459 -0.1871913242365591
1860000000.0 0.22155096754509165 -0.004495391118067181
1880000000.0 0.09993175787960136 -0.22159461539801278
1900000000.0 -0.22855502579219017 -0.13006643038329058
1920000000.0 -0.05115876655924609 0.27903440289267745
1940000000.0 -0.04481611262796797 -0.2924121270692517
1960000000.0 0.11973319126572683 0.2738290976199252
1980000000.0 -0.22635699280303115 -0.1927094582277891
2000000000.0 0.2894056937214105 -0.10226925635697968
2020000000.0 0.29703368359639265 0.07087834630783767
2040000000.0 -0.1056163851240754 0.285200665890394
2060000000.0 -0.28399241311419654 0.11693321809005734
2080000000.0 -0.2910552464110214 -0.09951650573088171
2100000000.0 0.10636786246906436 0.29007319128571935
2120000000.0 -0.2929651813161427 0.1011965456331586
2140000000.0 0.1470896710087175 -0.26707760573218126
2160000000.0 -0.28512546002421885 0.07713204279399488
2180000000.0 -0.2267303177358536 0.168644778689435
2200000000.0 -0.2292363727076514 -0.166704853356757
2220000000.0 -0.23397553928234108 -0.16019778892391429
2240000000.0 -0.1925459904573233 -0.2030960874483745
2260000000.0 -0.014721279415843308 -0.2713917607320111
2280000000.0 0.21062810477548197 -0.15451574871113766
2300000000.0 0.20598808938736954 0.1454655237997137
2320000000.0 -0.044595560408244195 0.23863622580109584
2340000000.0 -0.15980501441533485 -0.17159085200511032
2360000000.0 0.10717565583212173 0.20168034282580208
2380000000.0 -0.12550872740638708 -0.19577241801872897
2400000000.0 0.21089156922313004 -0.11287586487152841
2420000000.0 0.22833140251989206 0.12845187605208394
2440000000.0 0.2727830217318012 0.08842814993415156
2460000000.0 -0.19007257006357353 -0.26428999606982756
2480000000.0 -0.033680654091287454 0.35957091478707204
2500000000.0 -0.24668023175635742 -0.3149590737562609
2520000000.0 0.41561047999150336 -0.15073603395445212
2540000000.0 0.2556140492354425 0.4105916944604536
2560000000.0 -0.5125805181180892 0.06799197753176581
2580000000.0 0.27560072002173364 -0.4761310345782883
2600000000.0 0.14618715470280763 0.5585269504277405
2620000000.0 -0.3927025319461125 -0.45883316275813163
2640000000.0 0.6111153208931375 0.1131328070761538
2660000000.0 -0.46343825793328897 0.4395028501285619
2680000000.0 -0.4077876116136155 -0.5062518155310712
2700000000.0 0.34850939826471367 -0.5602958725521554
2720000000.0 0.6210570849058418 -0.23884229648530106
2740000000.0 0.6681560320267522 -0.057339752640011
2760000000.0 0.6606136547994351 -0.12676329606671463
2780000000.0 -0.028423365630395388 0.6688879878384671
2800000000.0 -0.18261472890186833 0.6373061026369498
2820000000.0 -0.5740872682161609 0.3088716197618081
2840000000.0 -0.3896186732952707 -0.5084131659820784
2860000000.0 0.6109161757396446 0.14490639244252077
2880000000.0 -0.605590084972088 -0.09341813705435277
2900000000.0 0.39392569031710634 0.4477054562494574
2920000000.0 0.3515426396666033 -0.4573271262115863
2940000000.0 -0.46059450598666035 -0.3067747802502261
2960000000.0 -0.5001825632653973 0.1776137519242595
2980000000.0 0.058892106911500756 0.5037009467985898
3000000000.0 0.48514307421731667 -0.006684102468202378
3020000000.0 -0.2840964790682529 -0.36461852411845275
3040000000.0 0.15962396089636294 0.4022045829457392
3060000000.0 0.053241175216794084 -0.39911931797217626
3080000000.0 -0.2520536143771808 0.28435573665585895
3100000000.0 0.2847078349413603 -0.22380768231591955
3120000000.0 -0.037138028365194205 -0.343977806977775
3140000000.0 0.08196578826145673 0.3310006978385458
3160000000.0 -0.013194088689359354 -0.3388705576947211
3180000000.0 0.18488887345087296 0.27637620178558364
3200000000.0 0.18774251994061222 -0.2619998392782789
3220000000.0 -0.25334274299751636 -0.18549484749247172
3240000000.0 -0.20181228796575398 -0.22364665667289146
3260000000.0 -0.2591886739219167 -0.13150471297990637
3280000000.0 0.06875419238422793 -0.26571157864783057
3300000000.0 0.13226603645705387 -0.2161852780661395
3320000000.0 0.2103260460575386 0.09081196402501558
3340000000.0 -0.13217474020343978 -0.1559927405564592
3360000000.0 -0.16102797139026825 0.08541970417088526
3380000000.0 0.1590161542435373 -0.03287481228253946
3400000000.0 -0.08404107635876393 -0.11982079191709254
3420000000.0 0.12558576449377598 0.05044715510252499
3440000000.0 0.09745261016141839 0.06950079858007234
3460000000.0 0.0845421138039667 -0.051535967203560004
3480000000.0 -0.03437541626610055 0.08205320936985218
3500000000.0 0.04323940424333362 -0.06435253669847825
3520000000.0 0.04477437410484928 -0.058029318403434525
3540000000.0 1.7799757207844336e-05 0.07749930555221735
3560000000.0 0.07996560915038875 0.02247399585377361
3580000000.0 0.04764048037940124 0.07754625823167507
3600000000.0 -0.0757108036291375 -0.05393051771240467
3620000000.0 -0.013361584092296186 -0.09386317400566696
3640000000.0 -0.023062492438524144 0.10035453487672122
3660000000.0 -0.052066136888655266 -0.08921330991162348
3680000000.0 0.1095504466126205 0.009984721770028925
3700000000.0 0.07886219162959508 0.08189253431585268
3720000000.0 0.08912124097369367 -0.04402352336232865
3740000000.0 0.0013413785556698364 0.08453996495192048
3760000000.0 0.05385985181874646 -0.04059310544556567
3780000000.0 0.05450837871338526 -0.0177016705909133
3800000000.0 -0.016535633971748693 -0.050961298977912836
3820000000.0 -0.0290493182887552 -0.039769043688503626
3840000000.0 0.041869095400977954 -0.03101278633177326
3860000000.0 0.0643054677905302 0.003610307931153617
3880000000.0 0.05763557001738437 0.06561850083554195
3900000000.0 -0.09012186525847209 -0.04982176895514535
3920000000.0 -0.1050364926086453 0.045308625378251234
3940000000.0 -0.05632025701941923 0.09980739541869176
3960000000.0 -0.048522339746208516 -0.08659709678145466
3980000000.0 0.0884217118714581 -0.016713233885234307
4000000000.0 0.03859657875348113 0.06407814883942907
