!Created with skrf (http://scikit-rf.org).
# Hz S RI R 50.0 
!freq ReS11 ImS11
400000000.0 0.771456048957665 -0.38762116523342943
420000000.0 -0.28268213118682584 0.7577242283725372
440000000.0 -0.30762123044061074 -0.7186761315433626
460000000.0 0.7070968040310791 0.27850988480007066
480000000.0 -0.3546083236332041 -0.6357370490528383
500000000.0 0.67430355123568 0.03774722525304245
520000000.0 0.3870073867529852 0.39258486735793435
540000000.0 0.18105436620907842 -0.4071448340177591
560000000.0 0.32618608458116777 -0.1706580209277046
580000000.0 0.09347660150621608 -0.3219135855932278
600000000.0 0.29684676645848446 0.15031871833644928
620000000.0 -0.2715706207608841 0.24491723304081303
640000000.0 -0.3825833080073219 -0.02223133279397429
660000000.0 -0.1752266805833384 -0.3678784324799076
680000000.0 -0.37830970150398324 -0.012026132113608009
700000000.0 0.3344562082883284 0.11903992369599116
720000000.0 -0.3452323312949074 -0.0997274066708219
740000000.0 0.2520355488160338 -0.2269123250731332
760000000.0 -0.2465442180710588 -0.1776431567129256
780000000.0 0.10820184812289169 0.30593009751674516
800000000.0 -0.2990911547465243 0.041413360487229225
820000000.0 -0.24789041819847804 0.14142711856460172
840000000.0 0.17006682563452863 0.198121646313259
860000000.0 -0.1074163074148438 -0.17631361072044804
880000000.0 0.07697387817468723 -0.15415063837736923
900000000.0 -0.009893020911624917 -0.11776165830637328
920000000.0 0.020060739425104286 0.10296174185621292
940000000.0 -0.05178786447671366 -0.10922404710096341
960000000.0 -0.09784150902279283 0.029758803326641155
980000000.0 -0.041218593818925245 0.04881014034116959
1000000000.0 0.023790550327707282 -0.03982207098992861
1020000000.0 0.04178200667378853 0.04126058665557129
1040000000.0 0.011578502597378738 0.09695526337647595
1060000000.0 -0.13327577301297297 0.05333196893401776
1080000000.0 -0.027334715933064694 0.17407972455959608
1100000000.0 -0.20258831438553293 0.017228307758777872
1120000000.0 -0.19773831266874634 -0.11363259064152732
1140000000.0 0.2298340466259606 0.1367933946005823
1160000000.0 0.11333964398863425 0.24469213339870133
1180000000.0 -0.24343402057522526 -0.1575016348915037
1200000000.0 -0.14308751884987655 0.26655862308369294
1220000000.0 -0.3134908510993249 0.09461647752956902
1240000000.0 -0.29839956321628003 -0.12796337672103053
1260000000.0 0.08369675292536871 -0.32469127780814716
1280000000.0 0.26594120172718816 -0.21068382784028955
1300000000.0 0.19183366184685283 -0.2884542835278881
1320000000.0 0.1370695733882307 0.3232623194919617
1340000000.0 -0.04188786367023309 -0.3659300370933377
1360000000.0 0.22615097262724904 -0.3022990738099315
1380000000.0 -0.16402550905806892 0.34258846569451973
1400000000.0 0.213095733979328 -0.32519040348165945
1420000000.0 -0.2404665111423712 0.3001402190780355
1440000000.0 0.31516879521055036 0.21156271669813778
1460000000.0 0.09690254523498827 -0.3552351414868571
1480000000.0 -0.3578834790510606 -0.058548164400225956
1500000000.0 0.31045816064569703 0.11921393781507195
1520000000.0 -0.026506904173214118 -0.31143159111080776
1540000000.0 -0.2751481650099784 0.0727480749102472
1560000000.0 -0.22928438380104274 -0.10194413386363793
1580000000.0 0.1056293910935797 -0.18439459938171876
1600000000.0 -0.0037829008778433957 0.17774728814854612
1620000000.0 -0.1413695838312417 0.02746278936938897
1640000000.0 0.08751732225472156 0.08295417371009746
1660000000.0 -0.0022597611750500503 -0.09485090044672181
1680000000.0 0.07187457424844754 -0.002380160064317044
1700000000.0 -0.04342105975255293 -0.03474175884694726
1720000000.0 0.039263839542700955 -0.014621372648191508
1740000000.0 0.019752593949912075 0.04947619665722701
1760000000.0 0.08096934343610077 -0.01631298594935371
1780000000.0 -0.11162928738279841 0.008253747525992549
1800000000.0 0.03800596072432085 0.13286192290978097
1820000000.0 -0.07029267862356177 -0.1456781933644348
1840000000.0 0.14227373960945874 -0.12462183750692547
1860000000.0 0.20714606841518557 -0.08252732980154147
1880000000.0 0.08321560953059286 -0.22722073700216439
1900000000.0 -0.15499489465868801 -0.21011892522691306
1920000000.0 -0.1514609689047598 0.24206853077789015
1940000000.0 -0.07062073514227041 -0.28678361169040073
1960000000.0 0.14870636721577454 0.2595218845989389
1980000000.0 -0.22591236895005068 -0.1932667669351888
2000000000.0 0.28468273136885297 -0.11275198315521301
2020000000.0 0.2769132483999592 0.1278724926505029
2040000000.0 -0.13852241990073924 0.2713206335027344
2060000000.0 -0.27328561260287315 0.14198992832965984
2080000000.0 -0.30739029882817503 -0.017691215730513535
2100000000.0 0.06061251380896705 0.3018283443860155
2120000000.0 -0.3100211365751716 0.008327353823933233
2140000000.0 0.19282715725952454 -0.23606185091706441
2160000000.0 -0.29297525070941055 0.025862154366038635
2180000000.0 -0.22144156524152284 0.17885339810606798
2200000000.0 -0.2479909779568588 -0.1370138069831385
2220000000.0 -0.22073355409472697 -0.17754735694914967
2240000000.0 -0.13241546315640887 -0.24518653878006852
2260000000.0 0.020270357736652957 -0.2731827123100126
2280000000.0 0.0900567128243919 -0.24646275676715512
2300000000.0 0.21103080187665332 0.1350820358328104
2320000000.0 -0.18072791335982552 0.16299062417983265
2340000000.0 -0.1746675331380684 -0.15845854359033415
2360000000.0 0.1265887431127675 0.18999122293813625
2380000000.0 -0.11522229400387307 -0.20141936286073603
2400000000.0 0.23532545178834496 -0.0393012769418403
2420000000.0 0.19302551822877212 0.1764092858543042
2440000000.0 0.28629767130666245 0.02803838629183244
2460000000.0 -0.1967026285147006 -0.2573004100751972
2480000000.0 -0.10465194846950734 0.34427718469487123
2500000000.0 -0.28513472509088467 -0.280642435489519
2520000000.0 0.39294400131106677 -0.2013115836193489
2540000000.0 0.265712481977098 0.40499591773128235
2560000000.0 -0.49858085451975664 0.14031736298710137
2580000000.0 0.20022031118928 -0.5121785444903513
2600000000.0 0.12798463055868955 0.5627765894600053
2620000000.0 -0.36152136235608895 -0.48499006801577554
2640000000.0 0.6196701977111098 0.05177618446990639
2660000000.0 -0.416423449567008 0.48452485845169263
2680000000.0 -0.34727847601252865 -0.5493278214737979
2700000000.0 0.3703609806776353 -0.5453352921228538
2720000000.0 0.6083355419326103 -0.2699872707406836
2740000000.0 0.6561013945391362 -0.13988476951338222
2760000000.0 0.6471253215507002 -0.1835364597029276
2780000000.0 -0.0058411250784606615 0.6700903627645362
2800000000.0 -0.19689352178291425 0.6318930314405875
2820000000.0 -0.548136212803349 0.3537003470198116
2840000000.0 -0.38382720147231736 -0.5131489655717222
2860000000.0 0.6232616646103903 0.06812947722443927
2880000000.0 -0.6030446767177213 -0.10019198640718154
2900000000.0 0.3648328241793354 0.4700132330764234
2920000000.0 0.27451755455830706 -0.5056924245605677
2940000000.0 -0.4669555608430162 -0.29275469614513727
2960000000.0 -0.5093901375938835 0.14770763289609695
2980000000.0 0.11862340735266061 0.49364238529615545
3000000000.0 0.4741150199420113 -0.0978189989587123
3020000000.0 -0.3982504085723214 -0.23084330386105115
3040000000.0 0.14042624751161348 0.4090192529576554
3060000000.0 0.002699097713251446 -0.40386893376285404
3080000000.0 -0.2709713627909165 0.26667256504132747
3100000000.0 0.2611817249661975 -0.2510262391852437
3120000000.0 -0.04340713739161575 -0.34324064626251954
3140000000.0 -0.008968701600949492 0.3404544430516027
3160000000.0 0.05523638829666055 -0.33479328387771695
3180000000.0 0.2015395398827259 0.2644668863465455
3200000000.0 0.20938278270610516 -0.24288277419168353
3220000000.0 -0.2234943903143613 -0.2177188353530596
3240000000.0 -0.1838909359238559 -0.23816251655943446
3260000000.0 -0.2875125841197835 -0.039164204098268665
3280000000.0 0.0656598245649259 -0.26500483648196005
3300000000.0 0.17168231998038566 -0.18865321220169268
3320000000.0 0.22469884316058703 0.048690766908801475
3340000000.0 -0.15682217436999069 -0.12932109777080258
3360000000.0 -0.16578153963696318 0.07691508393641325
3380000000.0 0.15658294134181425 -0.044931554235992065
3400000000.0 0.01898040898318133 -0.14677150163722438
3420000000.0 0.12993688528307315 0.04040566922480987
3440000000.0 0.10822518587618789 0.050037671620754995
3460000000.0 0.028753841066746985 0.09560646762987601
3480000000.0 -0.08649290321064582 0.019932832713243937
3500000000.0 0.04179684300959225 -0.06578356867295095
3520000000.0 0.03831683873740799 -0.060985326946522346
3540000000.0 -0.005141742542325627 0.07563114528878291
3560000000.0 0.026078788527906176 0.07790494434082555
3580000000.0 0.08884457675444997 0.02246330072971168
3600000000.0 -0.0936249258988497 0.010057544394504991
3620000000.0 -0.09145866348170988 -0.02925287885773072
3640000000.0 -0.03428613866011618 0.09545006660978006
3660000000.0 0.027060247750186707 -0.10142841521159131
3680000000.0 0.09873068251845948 -0.05187042974174291
3700000000.0 0.0743695980281613 0.08480957772098228
3720000000.0 0.05317131134462884 0.0831846075223587
3740000000.0 -0.016338475062331766 0.08531755699741304
3760000000.0 0.0614563709424116 -0.02755948832146804
3780000000.0 0.03185040961819105 0.04826220035427862
3800000000.0 -0.02129520128853942 -0.05013602062496738
3820000000.0 0.02170424256615686 -0.04431059990976799
3840000000.0 0.025455236968813726 -0.046630038327731486
3860000000.0 0.0635427078732032 -0.0007721754127375778
3880000000.0 -0.03514256268396364 0.08041371298745616
3900000000.0 -0.07595080604565849 0.07017477253782052
3920000000.0 -0.0862973952600766 0.07315183090930662
3940000000.0 -0.0837174264504199 0.07801301078538733
3960000000.0 -0.07428585265981115 -0.06642408375815846
3980000000.0 0.018093722859777478 -0.0872187867090248
4000000000.0 0.0534399483532624 0.05191237436344578
