!Created with skrf (http://scikit-rf.org).
# Hz S RI R 50.0 
!freq ReS11 ImS11
400000000.0 0.7782528214521293 -0.38382182180713925
420000000.0 -0.08229215119327613 0.8093577849484891
440000000.0 -0.6055771636229823 -0.49120092954530314
460000000.0 0.7412771928445041 -0.12906881605947235
480000000.0 -0.4552085003713056 -0.5560089485744597
500000000.0 0.6506783991891526 -0.06441083144540517
520000000.0 -0.44086975106937737 0.31242636466445195
540000000.0 0.3738390596855674 0.23473769427475025
560000000.0 -0.08646636534423427 0.3561763457097384
580000000.0 0.33144146087121534 -0.0655760431450062
600000000.0 -0.16785725242660623 0.2922262894442178
620000000.0 -0.37129426354186773 -0.052097625700505704
640000000.0 -0.29831088781844095 0.26177912314195223
660000000.0 -0.4137735968246017 0.06338584004346944
680000000.0 0.14265846679125993 0.3631813786265867
700000000.0 -0.08213812831601476 -0.3442342966784444
720000000.0 -0.019485682984442212 0.34677523605181093
740000000.0 0.3293555649679535 0.05099953909359573
760000000.0 0.25998273686268003 -0.13268962920072958
780000000.0 -0.31211082585906913 0.08189256801367296
800000000.0 -0.24811447464878972 0.1707423398154509
820000000.0 -0.2815842511629232 -0.033398678540174996
840000000.0 0.16027771766555732 0.20685415838642407
860000000.0 0.01179704838237338 -0.20879374550203966
880000000.0 0.011989025889423984 0.1660619660228432
900000000.0 0.11495622170045967 0.04283068020017279
920000000.0 -0.10067156569848763 -0.07342906006016181
940000000.0 -0.10679606522360478 -0.050466498613570464
960000000.0 0.029021040701228823 0.08421396218416075
980000000.0 -0.04763853272662975 -0.04156546760660808
1000000000.0 0.03146429260095298 0.03493936296734294
1020000000.0 0.05758239584996203 -0.02445154964286024
1040000000.0 -0.09302129754491195 -0.035617844337147674
1060000000.0 0.13635821701380585 0.032408149425936936
1080000000.0 0.09973854626072841 0.13867975649504752
1100000000.0 -0.19553513567774683 0.034429025077392705
1120000000.0 -0.05649172011600471 -0.22497062716901708
1140000000.0 0.24729510485708373 -0.09020481705266596
1160000000.0 0.19650018138613848 0.1841919449835566
1180000000.0 0.09816958125522213 -0.2683805277334612
1200000000.0 0.11191571199515522 0.28388703858323144
1220000000.0 -0.2901554654554349 -0.13542546691323462
1240000000.0 -0.24434214491908157 -0.21960314206142179
1260000000.0 0.0880140861136129 -0.32736712241236937
1280000000.0 0.2115738598324934 -0.2653441915409921
1300000000.0 0.1998777990452131 -0.2859167222618939
1320000000.0 0.2499618560373202 0.2454734423208348
1340000000.0 0.13388057774000717 -0.3410637002163872
1360000000.0 0.32886792274226306 -0.18158188966420177
1380000000.0 -0.3445553940194665 0.16893942323727004
1400000000.0 0.16668960061571192 -0.3559148246173948
1420000000.0 -0.046508945772772876 0.384608191241072
1440000000.0 0.3621206180648584 0.10014591103825209
1460000000.0 0.1977134663705507 -0.3068723558992469
1480000000.0 -0.3590391353904827 -0.04632292707212834
1500000000.0 0.3290152722454233 -0.06153907338859313
1520000000.0 0.05757217546259443 -0.29891635771000774
1540000000.0 -0.1478190167195052 -0.24262928890659075
1560000000.0 -0.04464777059055651 -0.25454021516055614
1580000000.0 0.011900376662344498 -0.21648864837122217
1600000000.0 0.14555557239019914 0.10468881169344621
1620000000.0 -0.031178179300781136 0.13816659149495178
1640000000.0 0.014064991989425388 0.11702822290311445
1660000000.0 -0.09061225201899227 -0.031249762848047657
1680000000.0 0.06833332695244834 -0.02084982145146159
1700000000.0 -0.04708317135099319 0.026783526733713196
1720000000.0 0.040556172332793135 0.014345174840296371
1740000000.0 0.01303137695625035 0.04801856981899122
1760000000.0 -0.02839685623454047 0.07835284635997769
1780000000.0 -0.10244469764571101 0.04996321801552907
1800000000.0 0.03857786814113534 0.13295626831557233
1820000000.0 -0.16010016450301726 -0.009544500113856524
1840000000.0 0.1394541879134717 -0.12397693472941047
1860000000.0 0.21374362567309937 0.05236107407997824
1880000000.0 0.209303176442259 -0.1247500634975803
1900000000.0 -0.2593693094338998 -0.05612010791798084
1920000000.0 -0.09916916420080696 0.26489404894538876
1940000000.0 -0.04601988150367909 -0.2930473347095606
1960000000.0 0.09340362970051873 0.28701321653730727
1980000000.0 -0.2979287475460602 -0.027129077783930724
2000000000.0 0.24301213970314312 -0.18361709859930342
2020000000.0 0.2763059455726474 0.1234709256304796
2040000000.0 -0.23337109591380903 0.19291403521686407
2060000000.0 -0.27521119170624636 0.13826003531484216
2080000000.0 -0.3037157171155314 -0.04267435229465163
2100000000.0 0.11898176246785341 0.2862149900910624
2120000000.0 -0.29847311748906724 0.07921655096164502
2140000000.0 0.1480652302200762 -0.2654747688377487
2160000000.0 -0.2768775159172539 0.10817592735965587
2180000000.0 -0.17691100268391466 0.22285668820279642
2200000000.0 -0.28095942986266015 -0.03770883154592469
2220000000.0 -0.23420521132420963 -0.15755461282455957
2240000000.0 -0.16282808177678199 -0.22925867957605756
2260000000.0 -0.18048218435644356 -0.20615845478108658
2280000000.0 0.14776716175712845 -0.20969311374332866
2300000000.0 0.11908898756556817 0.2189551619493766
2320000000.0 -0.22552400792630467 0.09014662969025668
2340000000.0 0.1357524071180553 -0.19357545170004625
2360000000.0 0.04144801670156078 0.23025156841614428
2380000000.0 -0.23529021185881704 0.013069698634214907
2400000000.0 0.06502175914545281 -0.2307767201517941
2420000000.0 0.24308174880499311 -0.09179089641786878
2440000000.0 0.24891949038721953 -0.13317811305279753
2460000000.0 -0.06362592034962987 -0.3142224858677052
2480000000.0 -0.22461763176664362 0.28088207903773227
2500000000.0 -0.16135846671874415 -0.36795354142502273
2520000000.0 0.40416337088325566 -0.18074041175436106
2540000000.0 0.2472022013147325 0.41652935497748983
2560000000.0 -0.5125301967509099 0.07227540572845845
2580000000.0 0.22138625105622609 -0.5049245696738347
2600000000.0 0.14370797830884116 0.559514635626736
2620000000.0 -0.440580111418029 -0.4134776057025984
2640000000.0 0.616719188843313 0.07857212070493085
2660000000.0 -0.45019291227006564 0.4532441123031425
2680000000.0 -0.39724588591076676 -0.5147118617328228
2700000000.0 0.36869603031289255 -0.5470945670041963
2720000000.0 0.6386709351070348 -0.18482411275541358
2740000000.0 0.6698423650137798 0.029137525840015804
2760000000.0 0.6705605555278518 -0.0392858492108191
2780000000.0 -0.02602874129966191 0.6683116997886752
2800000000.0 -0.20967510822762017 0.6278944723142541
2820000000.0 -0.5867517251440438 0.283359979549221
2840000000.0 -0.3551645171243068 -0.5323619183310649
2860000000.0 0.6238582329383403 0.06269102949782067
2880000000.0 -0.5845483520966537 -0.181327922958826
2900000000.0 0.31143480291838144 0.5078408612804022
2920000000.0 0.3746936214766185 -0.4389458591286292
2940000000.0 -0.4652376410555581 -0.30054910618251135
2960000000.0 -0.5120585367797359 0.13984914040484023
2980000000.0 0.0866572471493637 0.5013663920170436
3000000000.0 0.46976630013012727 -0.12868515109353101
3020000000.0 -0.41245558259148923 -0.20358759449948946
3040000000.0 0.17679643639065867 0.3904194038278058
3060000000.0 0.14474625301761787 -0.3728158836775428
3080000000.0 -0.3531488956506393 0.1394163250758003
3100000000.0 0.31582736455571764 -0.17756211445990921
3120000000.0 0.04938730458011645 -0.34589903167649805
3140000000.0 0.12309437093120566 0.32296172484423086
3160000000.0 -0.1936809475738545 -0.27960320426183327
3180000000.0 0.17489427259480478 0.28490677193245184
3200000000.0 0.06169187457454372 -0.31814594085697095
3220000000.0 -0.3027860360763145 -0.07943029377409672
3240000000.0 -0.22242059223941316 -0.19956777397928024
3260000000.0 -0.20460655655524826 -0.20513790699683984
3280000000.0 0.018488683303560835 -0.27525883491562236
3300000000.0 0.12836505801447978 -0.2188036878266248
3320000000.0 0.16035552135329428 0.16256447281094558
3340000000.0 -0.10511702643069912 -0.17415307143339945
3360000000.0 -0.1744910155283652 0.05506291956930609
3380000000.0 0.1609691830084888 -0.01875333114227144
3400000000.0 -0.09164876035617908 -0.11366223318401278
3420000000.0 0.12491269220469935 0.051829901240334535
3440000000.0 0.1151116768406355 0.03219997491818084
3460000000.0 0.09218691039198874 -0.03522211302260946
3480000000.0 0.06324492795292623 0.06054079008372171
3500000000.0 0.07574595054909496 -0.008294600439873274
3520000000.0 0.04009487526684808 0.06275038338170538
3540000000.0 0.057517018676072576 0.053848525140072045
3560000000.0 0.05877140660236759 0.058653786802814856
3580000000.0 -0.024297399887663756 0.08850521692616439
3600000000.0 -0.08984173416419262 -0.028783006524125982
3620000000.0 -0.08756909349774657 -0.043821489590401386
3640000000.0 0.039817909267926034 0.09467936461646667
3660000000.0 0.01488823176485307 -0.10284013892647921
3680000000.0 0.07875353555685961 -0.0778600696516007
3700000000.0 0.0804002845548029 0.07966103890928972
3720000000.0 -0.027534655168284215 -0.0960293421129451
3740000000.0 0.017165942544693856 0.08225978715767843
3760000000.0 0.06650595048506588 -0.00620556026811823
3780000000.0 0.04262321727855144 0.04208085726176931
3800000000.0 -0.056273304984974 -0.0021968521912034598
3820000000.0 -0.004861403546200094 0.04865885234307287
3840000000.0 0.051340803272184904 -0.008785757473444337
3860000000.0 0.04535046199474063 0.04240352577348211
3880000000.0 -0.08301765817872929 0.020308350802575963
3900000000.0 -0.08904466471922684 -0.05656509230412435
3920000000.0 -0.051101798775211274 0.10350041638745056
3940000000.0 0.02181941181549418 0.11180421132208218
3960000000.0 -0.07690207237808225 -0.0645421758942512
3980000000.0 0.07552186715252186 -0.04785652251270273
4000000000.0 0.07535926835705058 -0.011491106487185945
