!Created with skrf (http://scikit-rf.org).
# Hz S RI R 50.0 
!freq ReS11 ImS11
400000000.0 0.7954958540097349 -0.33990554805585976
420000000.0 -0.2594078703885394 0.7648071937228076
440000000.0 -0.23052908344885437 -0.7475474433393905
460000000.0 0.713016060070443 0.25969343257567856
480000000.0 -0.3802963947676022 -0.6216846336892283
500000000.0 0.6583167255933834 -0.1435345381464907
520000000.0 0.2547357956231327 0.48439824601356335
540000000.0 0.3075051690186738 -0.321729467214669
560000000.0 0.2517789120205656 -0.26849639217779064
580000000.0 -0.12343752697353402 -0.3124451946602437
600000000.0 0.33001436449117616 0.04701430702470704
620000000.0 -0.2189198595324474 0.289582600615236
640000000.0 -0.35237477324468924 -0.1422393063594806
660000000.0 0.08208448073390967 -0.40136640677630725
680000000.0 -0.3789241257738379 0.03312546492177909
700000000.0 0.353751775840271 0.03622357791496073
720000000.0 -0.35691632093548226 0.061169713876284434
740000000.0 0.2993605692957966 -0.1495232285538021
760000000.0 -0.20873644623428259 -0.21327888251398197
780000000.0 -0.1541492177836801 0.2847391329954544
800000000.0 -0.29100173645280497 -0.0972360016328416
820000000.0 0.1867992898647957 0.21595637185765762
840000000.0 0.03772660412176482 0.25084735984712125
860000000.0 -0.044552012737397735 -0.2044879418833685
880000000.0 -0.11392019746176597 -0.1283212441765845
900000000.0 0.06693945759840353 0.09436550097355335
920000000.0 -0.03515696205782359 0.102387682084574
940000000.0 -0.004804206248140697 0.12015733232749441
960000000.0 -0.0523876752425968 -0.07517092484966718
980000000.0 0.05094101153942147 -0.034363960007302734
1000000000.0 0.005464943684978666 0.0495618351794376
1020000000.0 0.053293289305879815 0.032279349826289695
1040000000.0 0.09834496255520367 -0.017421897394825945
1060000000.0 0.10104298069607096 0.10253777758686321
1080000000.0 -0.17107933472849546 0.027867793609568717
1100000000.0 -0.17516759558533604 0.09905258896031516
1120000000.0 -0.11014230894877187 -0.20068109450194
1140000000.0 0.1848147068266673 0.19179222494479198
1160000000.0 0.241572744911769 0.12720579808135143
1180000000.0 -0.05355833330570607 -0.2817817849847119
1200000000.0 -0.04516002717423612 0.29962281739422975
1220000000.0 -0.3235951937042359 -0.03791682791785496
1240000000.0 -0.2802264793631421 -0.16517220923736023
1260000000.0 0.04814102045182054 -0.33072192664638456
1280000000.0 0.29296253228636443 -0.17079170883816183
1300000000.0 0.23944976501075976 -0.25164284538450044
1320000000.0 0.16727043904107453 0.308432016535768
1340000000.0 -0.015868036432675692 -0.36714222170518857
1360000000.0 0.254110762555391 -0.27963011234319085
1380000000.0 -0.1721049173271839 0.33892254177836467
1400000000.0 0.18120563524459554 -0.34447744392104146
1420000000.0 -0.18324035233621544 0.3388927603372842
1440000000.0 0.30877967120914707 0.21774831422592078
1460000000.0 0.24373746509886957 -0.27583284935207386
1480000000.0 -0.3353481730290058 -0.14533198639226655
1500000000.0 0.33080411945996496 -0.04477911666606014
1520000000.0 -0.10126153722918392 -0.29324826678481086
1540000000.0 -0.26673777495261575 -0.09390482983774968
1560000000.0 -0.17564265242049681 -0.1844129181191301
1580000000.0 0.03789724609920511 -0.21038723238615645
1600000000.0 0.16671946415591996 0.05812005275561912
1620000000.0 -0.10311904424599691 -0.09555612757324129
1640000000.0 -0.07862180816625575 0.09183951392659358
1660000000.0 -0.0724391065493096 -0.06361395444962702
1680000000.0 -0.05004834650846364 -0.05090570898679318
1700000000.0 -0.007472477571248349 -0.051985430461148015
1720000000.0 -0.03903575605433346 -0.016886432701157833
1740000000.0 -0.013459784937274363 -0.052362362190631756
1760000000.0 0.07961052723809664 -0.01062004912797549
1780000000.0 -0.05595569372202243 -0.09806663034886669
1800000000.0 -0.014747786601495462 0.13903589859408477
1820000000.0 -0.16237681382074332 0.00474204885442859
1840000000.0 0.1676782910328457 -0.08215336887838676
1860000000.0 0.22180968721094985 -0.01757193676167334
1880000000.0 0.1553469866353056 -0.18816693732018203
1900000000.0 -0.2476901087229363 -0.08505391391528876
1920000000.0 -0.06616856696504106 0.275460605155974
1940000000.0 0.050695245813040496 -0.2894996832529956
1960000000.0 0.11392021940966247 0.27721513051095953
1980000000.0 -0.26367746281527193 -0.14364196900473356
2000000000.0 0.24954410576611752 -0.17536380956508485
2020000000.0 0.2827455555986491 0.11275490556651657
2040000000.0 -0.1572353405803057 0.25997892275377343
2060000000.0 -0.2600984120060265 0.16661497846010154
2080000000.0 -0.30345677339834504 -0.05034907417605815
2100000000.0 0.05396767419130752 0.3033119509384704
2120000000.0 -0.298391595848407 0.08767132232398132
2140000000.0 0.1780029500806835 -0.24476605280238406
2160000000.0 -0.27448232632315006 -0.10603899868184685
2180000000.0 -0.1969213555040968 0.20588274315282276
2200000000.0 -0.25559476614204757 -0.12138501722081722
2220000000.0 -0.23161725763706698 -0.16029875788688552
2240000000.0 -0.0873148182506393 -0.26502747649381947
2260000000.0 -0.014699434905879669 -0.2737728814803152
2280000000.0 0.14533602245689686 -0.21763434264772066
2300000000.0 0.24683858846057932 0.04795576797771731
2320000000.0 -0.12921286487407754 0.20585759682717594
2340000000.0 -0.07520440418693904 -0.22243572327467093
2360000000.0 0.0789452051028197 0.21598174318801658
2380000000.0 -0.21757264062418372 -0.07964195414022654
2400000000.0 0.23712605873259107 0.006154732715274558
2420000000.0 0.16232766331821094 0.20507672556472248
2440000000.0 0.28707397823879244 0.02784574476342072
2460000000.0 -0.22580615127337633 -0.23311803836612582
2480000000.0 -0.1317895379271444 0.33329079267294975
2500000000.0 -0.25323297529156813 -0.3103468902059487
2520000000.0 0.36998203866373003 -0.2412510273658916
2540000000.0 0.3084709764691972 0.3730133578409302
2560000000.0 -0.5092824369070668 0.0944741005644046
2580000000.0 0.22214298031083562 -0.503420036949279
2600000000.0 0.13128436199503388 0.5614670150287182
2620000000.0 -0.4051642481605249 -0.4484713570754346
2640000000.0 0.6189271841691055 0.06234257858279672
2660000000.0 -0.40113535527811867 0.4969109275433742
2680000000.0 -0.4285932212524444 -0.48818758230925136
2700000000.0 0.3245907770298783 -0.5741006619152749
2720000000.0 0.6237180848332845 -0.23180443101211096
2740000000.0 0.6505359083026084 -0.16553238769898443
2760000000.0 0.6487340539545066 -0.1795300254363438
2780000000.0 -0.0018904775406010249 0.669744245979755
2800000000.0 -0.20770514571041676 0.6284600518759507
2820000000.0 -0.5703453318498437 0.316666041092859
2840000000.0 -0.33029291310494924 -0.5493177274761236
2860000000.0 0.6163353642242992 0.11435210614510612
2880000000.0 -0.6099362696213921 -0.047360933783475855
2900000000.0 0.4101643991161051 0.43100484468483313
2920000000.0 0.282892567934951 -0.5006340975847539
2940000000.0 -0.44697450802320715 -0.322620740362209
2960000000.0 -0.49935437515394393 0.18054105583038765
2980000000.0 0.1272776315587059 0.4918874870097012
3000000000.0 0.47338234067182494 -0.10001950286415583
3020000000.0 -0.38967253628743526 -0.24510322745293173
3040000000.0 0.11305116627592414 0.41810037646608245
3060000000.0 0.004438092564020883 -0.4044098757163024
3080000000.0 -0.22807464641584405 0.3042769747479224
3100000000.0 0.28776390116212086 -0.21916831021795968
3120000000.0 0.00023552568272139823 -0.3452697270222411
3140000000.0 -0.03415571884306639 0.34107195099795923
3160000000.0 -0.01077611172420079 -0.33933716190555185
3180000000.0 0.18729184779936298 0.27226928555352387
3200000000.0 0.189234137334414 -0.25896699444582827
3220000000.0 -0.1756227988287167 -0.2602076384492001
3240000000.0 -0.26095197225806355 -0.1525099154865524
3260000000.0 -0.2885658464393015 0.015549950550092517
3280000000.0 0.15609755722393792 -0.22521699008483795
3300000000.0 0.10095340698686472 -0.23461464202656468
3320000000.0 0.22301050675030434 0.05433636136540363
3340000000.0 -0.12164865494624115 -0.16333193820117436
3360000000.0 -0.1489850032467621 0.10757322807010879
3380000000.0 0.13691453794692274 -0.08863616555033299
3400000000.0 0.018288362195229564 -0.14512255867582716
3420000000.0 0.11473344778698187 0.07246557857583345
3440000000.0 0.0803029974920695 0.09064931261594955
3460000000.0 0.08766764208197843 0.0488730155365378
3480000000.0 -0.05420191049154368 0.06904501189301816
3500000000.0 0.0642616787716725 -0.042229379347730786
3520000000.0 0.06269140452290088 0.035009231667206764
3540000000.0 0.008054705659807987 0.0769538443578617
3560000000.0 0.07415445646385631 0.03453376949972999
3580000000.0 0.08923969661791549 0.019867620818214266
3600000000.0 -0.0931999688857694 0.0047613495879520506
3620000000.0 -0.09628036744989267 -0.009762703715833267
3640000000.0 -0.036857925800017816 0.09610599266455049
3660000000.0 -0.023520361361174445 -0.10258928293468528
3680000000.0 0.11012241111210287 0.009702850123656683
3700000000.0 0.09330087725290877 0.0666181405998051
3720000000.0 0.09886862501312023 0.0009174768128546114
3740000000.0 -0.05913533385708443 0.061554846329251324
3760000000.0 0.06464934069476744 0.019490976834421317
3780000000.0 0.04266655935612694 0.04017790462624786
3800000000.0 -0.040920091213518146 -0.034298486469275524
3820000000.0 0.05017659167669237 -0.003026803786352467
3840000000.0 0.03812303037288012 -0.036755980420440634
3860000000.0 0.05998965735126478 0.021245444028788633
3880000000.0 0.02046088527222937 0.08515861031658238
3900000000.0 -0.10245029103933613 0.01568516497270233
3920000000.0 -0.09350275091177056 0.0669469808505433
3940000000.0 -0.06060647925860136 0.09643421586797937
3960000000.0 -0.011609473253772104 -0.09663788024207562
3980000000.0 0.08804157646237326 0.010791848607372773
4000000000.0 0.07505755989761802 0.005562589067514813
