!Created with skrf (http://scikit-rf.org).
# Hz S RI R 50.0 
!freq ReS11 ImS11
400000000.0 0.7604705054009725 -0.41173808400095396
420000000.0 -0.27889147103384027 0.7595410141333317
440000000.0 -0.13063291248035686 -0.7726594836434905
460000000.0 0.7118157777050949 0.2658840378273244
480000000.0 -0.5076796959191459 -0.5262352536808833
500000000.0 0.6397118124536534 -0.19732479698602648
520000000.0 0.28624017231622756 0.4636997380796573
540000000.0 0.23286639865389905 0.38321875094327174
560000000.0 0.10449291628866338 -0.35324085238207825
580000000.0 -0.07381382129667984 -0.3245583409165461
600000000.0 0.2950798664758218 0.15774949954983009
620000000.0 -0.3234083601714899 0.17089251422755333
640000000.0 -0.30256602434333835 0.2405070535872214
660000000.0 -0.36662488000741483 -0.17846744863120168
680000000.0 -0.07504866620226146 -0.37171872583155957
700000000.0 0.3550671089977153 -0.0001880371952125978
720000000.0 -0.3275630681925885 -0.16574252019168087
740000000.0 -0.10493726673893292 -0.31978407974573286
760000000.0 0.07408928214101637 -0.29381009298533495
780000000.0 0.010741542244679594 0.3279682100353312
800000000.0 -0.17787937406012233 0.2478465058574129
820000000.0 -0.2587466105578986 0.11050852401380734
840000000.0 0.23019960546907828 0.12776384551759035
860000000.0 -0.18311801184469814 -0.09262209288424852
880000000.0 0.06056749346006816 0.15936204214367844
900000000.0 0.043341445144702506 0.11668297483522645
920000000.0 -0.10716701776589618 -0.026602238100125488
940000000.0 0.0866517782803071 0.06984342903629644
960000000.0 0.08177193407506243 -0.045163254795102574
980000000.0 0.04858058529396037 0.026287105360509943
1000000000.0 0.045258516098177215 0.002331386059785771
1020000000.0 0.01914094523204342 0.06359648142368748
1040000000.0 0.04547738574394687 0.08351625655088667
1060000000.0 -0.12134682797689096 0.07685624841373981
1080000000.0 -0.031257633664789335 0.17153607626639547
1100000000.0 -0.11719698106435984 0.16568940585775646
1120000000.0 -0.226461600909495 -0.01928561782734455
1140000000.0 0.24292735425369397 0.09988655785407802
1160000000.0 -0.010097117788041253 0.2728034814425594
1180000000.0 -0.21095285097665112 -0.20230023146621345
1200000000.0 0.2793079915808345 0.1260932573289353
1220000000.0 -0.3098212363403493 0.07675713328834052
1240000000.0 -0.27431783503235074 -0.1690342858895167
1260000000.0 0.26696539970170796 -0.20403517011593714
1280000000.0 0.3170041151863606 -0.11972524833562805
1300000000.0 0.28222601125036095 -0.20890156854865952
1320000000.0 0.24998796450528538 0.25226592965167016
1340000000.0 -0.1183973413281074 -0.34897162953781813
1360000000.0 0.35822229567285857 -0.10948248172427007
1380000000.0 -0.31487633608284393 0.21711614719408828
1400000000.0 0.036226095206494474 -0.39131390061824173
1420000000.0 -0.1177600740941521 0.3657335342654835
1440000000.0 0.26888417780207247 0.26583827299236784
1460000000.0 0.033047205414839124 -0.3687485429586692
1480000000.0 -0.35974058053080177 0.042186928868556815
1500000000.0 0.32733299472554506 0.025430837720924564
1520000000.0 0.16792982460948486 -0.2578589991185389
1540000000.0 -0.27178870610718353 -0.08161379016594722
1560000000.0 -0.09760735502121665 -0.23286402087463332
1580000000.0 0.05498877124074988 -0.21025006574848687
1600000000.0 0.1783675084900658 -0.012506763273346457
1620000000.0 -0.12608908652249357 0.05605176507646711
1640000000.0 -0.04723959484384288 0.1066368421210344
1660000000.0 -0.03607845946439444 -0.08877269835493007
1680000000.0 0.0089539329088876 0.07100533079033679
1700000000.0 0.004510709390002617 0.05771521198338393
1720000000.0 0.010889374680627182 -0.04052431743516453
1740000000.0 0.010512329574510381 0.05040836633616014
1760000000.0 0.07102521990181741 0.04112224916947738
1780000000.0 -0.061940103861576674 -0.09155291765117295
1800000000.0 -0.1417997462785026 0.004343044439383856
1820000000.0 -0.12449183429183604 0.10655146506408174
1840000000.0 -0.001631043354686268 -0.18640808895573563
1860000000.0 0.21657965994875492 0.02974781514053676
1880000000.0 0.19764009579291436 -0.14080407821421626
1900000000.0 -0.1635603727911836 -0.20652367559742224
1920000000.0 -0.10178337125767915 0.26695861308439883
1940000000.0 -0.13651220497497368 -0.26222530312282644
1960000000.0 0.1795364357198813 0.238452962306585
1980000000.0 -0.2488505541911013 -0.1637706290200848
2000000000.0 0.2229116521673649 -0.21001862751366343
2020000000.0 0.28522079059980276 0.10370599878487352
2040000000.0 -0.2147660467324676 0.21422155188621878
2060000000.0 -0.28705295166566447 0.11286545442038182
2080000000.0 -0.30378913529814205 -0.05537527709946701
2100000000.0 0.2484231589385341 0.18579522023516026
2120000000.0 -0.23757731211330319 0.19526140046512022
2140000000.0 0.2057154045380774 -0.22150759256851846
2160000000.0 -0.2808574324667973 -0.0864075213369235
2180000000.0 -0.28385313943172535 0.02905857226554208
2200000000.0 -0.2853452222335363 -0.025675916181208146
2220000000.0 -0.27982465410178964 -0.030337689455439337
2240000000.0 -0.13106358737340687 -0.24473778680767458
2260000000.0 0.07446076266294437 -0.2623014664175372
2280000000.0 0.19921877211637748 -0.16867345151641744
2300000000.0 0.19101883806703285 0.16283008459102438
2320000000.0 -0.14925666351268677 0.1917671897646306
2340000000.0 -0.14698467206519672 -0.18657410853745648
2360000000.0 0.1866281158632521 0.12937247237811514
2380000000.0 -0.2037034468486137 -0.10753396105830178
2400000000.0 0.2353521928731837 0.02448285104715938
2420000000.0 0.07214716070040997 0.25277678281382643
2440000000.0 0.28407401832302975 0.056440701480918926
2460000000.0 -0.23139202244448942 -0.22842641441226066
2480000000.0 -0.08349482957202888 0.35083967597612575
2500000000.0 -0.277475859396681 -0.28970745576983475
2520000000.0 0.4121481667941907 -0.15499137343003366
2540000000.0 0.25417605129564347 0.4115292015128423
2560000000.0 -0.5035847578167192 0.11605424455949251
2580000000.0 0.31440125241790035 -0.45179120824400837
2600000000.0 0.17223351531610406 0.5510978954286004
2620000000.0 -0.4365070715512112 -0.4171393763383956
2640000000.0 0.6087547947772113 0.12414027368599798
2660000000.0 -0.4707487023604221 0.43302675610695307
2680000000.0 -0.36066689007893243 -0.5412531594092795
2700000000.0 0.39715541024875006 -0.527584479777453
2720000000.0 0.6404421880291409 -0.18044226521317694
2740000000.0 0.6690082911187166 -0.04615245818351259
2760000000.0 0.6578994137277171 -0.1405061180163147
2780000000.0 -0.026464495621044113 0.6685773299956168
2800000000.0 -0.2547476662391922 0.6111499119285987
2820000000.0 -0.5902410838113297 0.2761996655697669
2840000000.0 -0.32193023013351957 -0.5532719919861365
2860000000.0 0.6124183130702904 0.13563505170046347
2880000000.0 -0.6004319547263364 -0.12260948136515833
2900000000.0 0.3438895224843637 0.48860734280994617
2920000000.0 0.33451146690284067 -0.46955448988494564
2940000000.0 -0.4558648611686892 -0.3111260798221137
2960000000.0 -0.5082580363130117 0.15140582575741335
2980000000.0 -0.007560298757887662 0.5063976928067534
3000000000.0 0.4824987397436683 0.054394941552070225
3020000000.0 -0.2860757475274973 -0.36295661459294604
3040000000.0 0.1640384377908648 0.4016268241625405
3060000000.0 -0.040501073056408224 -0.4008830820740704
3080000000.0 -0.2661394311701381 0.27131561431218565
3100000000.0 0.2654489033836062 -0.24425553718836976
3120000000.0 0.07744145153737178 -0.3379801258333271
3140000000.0 0.0980258651169019 0.328763209562743
3160000000.0 -0.0894361619305991 -0.3271134586226367
3180000000.0 0.1635145923772735 0.2896347362077663
3200000000.0 0.23819804693860183 -0.2196206401618002
3220000000.0 -0.307913803343419 -0.058555989184817706
3240000000.0 -0.16306237630830137 -0.24872265847619196
3260000000.0 -0.15158924951468278 -0.24792388662620127
3280000000.0 0.024641749755888284 -0.27660579704173793
3300000000.0 0.13275217867367775 -0.21757922593096277
3320000000.0 0.22943249581793582 -0.019969566518386623
3340000000.0 -0.20120243832623078 0.004283293159047398
3360000000.0 -0.12977261593928874 -0.12565422394265818
3380000000.0 0.1497055823379323 0.06857053603083654
3400000000.0 -0.10947416470462744 -0.10112915370620754
3420000000.0 0.1346444477149075 0.00019491410934309323
3440000000.0 0.0699852532722428 0.09584776658111359
3460000000.0 0.08916395394775346 -0.03977422415938295
3480000000.0 -0.048872772458529994 -0.07169272795348662
3500000000.0 0.028084715085789826 0.07452668007855992
3520000000.0 -0.02905248766544494 -0.0683673696925237
3540000000.0 0.04075560965157492 0.06421091952003108
3560000000.0 0.06814901684899048 -0.0469490231727208
3580000000.0 0.07672230481105632 0.050922687071619344
3600000000.0 -0.0922350790572743 0.013648241481112202
3620000000.0 -0.09632963276353283 -0.00025320243987471955
3640000000.0 0.08081444100343074 0.06341016474904644
3660000000.0 0.05709515404690518 -0.0856700721763106
3680000000.0 0.10324012076760943 0.044574281740392935
3700000000.0 0.10557741444661757 0.04867820840516903
3720000000.0 0.023457928385667726 -0.09681789659400969
3740000000.0 -0.03626826130838084 0.07554980849203674
3760000000.0 0.0681874912064342 -0.010371243048501918
3780000000.0 -0.036407279313819194 0.046372903524622706
3800000000.0 -0.05328364512165992 0.015697220601957135
3820000000.0 -0.04100956932226204 -0.02528584673672728
3840000000.0 -0.030003850042641892 0.042899949347212835
3860000000.0 0.046862519687266166 -0.04519725330844592
3880000000.0 0.04979470349312514 0.06735761758698261
3900000000.0 -0.10556910394815579 0.010800971828647525
3920000000.0 -0.05897861573494846 0.09703171335481667
3940000000.0 0.03798818984233167 0.10730537123836847
3960000000.0 0.0611052285181671 -0.07849440904524113
3980000000.0 0.06041816716637184 -0.06951413099303394
4000000000.0 0.07497592323046091 -0.007909287372607895
