!Created with skrf (http://scikit-rf.org).
# Hz S RI R 50.0 
!freq ReS11 ImS11
400000000.0 0.7211068745248934 -0.4792379554395736
420000000.0 -0.3335777832166616 0.7349752635515716
440000000.0 -0.11182476161074155 -0.7749916032090071
460000000.0 0.7445150042024717 0.1500738938081037
480000000.0 -0.3095586989797953 -0.6593264723643564
500000000.0 0.6522404779437696 -0.16352955432773966
520000000.0 -0.12242957515297667 0.5335881870178805
540000000.0 0.29996060888154547 -0.34183115426242355
560000000.0 0.22165444764055633 -0.27975718328995736
580000000.0 0.22579563447467102 -0.2487164463432135
600000000.0 0.3361427377332169 0.01846783257021985
620000000.0 -0.31174246424429136 0.18814384952132032
640000000.0 -0.3670474486469271 -0.10917121098873683
660000000.0 -0.23455113355905766 -0.3412062869931889
680000000.0 -0.3763221907392685 -0.024261225665232613
700000000.0 0.3535048534167603 0.035424418003640566
720000000.0 -0.32008549421332977 -0.16306573944560943
740000000.0 0.3374822397970215 -0.043445405180357326
760000000.0 -0.26250647891758067 -0.15029244942754616
780000000.0 0.15483552324356273 0.28661078646011307
800000000.0 -0.07351729258567946 0.2914588383141612
820000000.0 -0.24063827265065332 0.14789344937159685
840000000.0 0.13314669063274262 0.229895250432831
860000000.0 -0.15541041990869014 -0.14005676274337267
880000000.0 0.16437803790204206 -0.045181010360800515
900000000.0 0.09814971628778119 -0.06521533543435272
920000000.0 0.04744276834904291 0.09562392086955152
940000000.0 -0.017641720580965338 0.11341397031012519
960000000.0 0.05459905656829107 -0.07657882485529371
980000000.0 -0.059475041405470795 -0.01756859614501593
1000000000.0 -0.026713444793288032 0.03906310408707662
1020000000.0 0.04203166740180493 -0.04136176498443963
1040000000.0 -0.07839601469965367 0.05620497986925853
1060000000.0 0.1420407481078999 -0.03314671959015781
1080000000.0 -0.01178189709018994 0.1693650880659514
1100000000.0 -0.10548333304394826 -0.17050091615059482
1120000000.0 -0.1649670749120902 -0.16322427404372386
1140000000.0 0.2668313333200505 0.002998390812259857
1160000000.0 0.20633989069916425 0.1758066982083333
1180000000.0 -0.2831744748914473 -0.04297639468269797
1200000000.0 -0.1613870639903593 0.25622686999846356
1220000000.0 -0.3134953416203193 -0.09391275393862494
1240000000.0 -0.31432452788340953 -0.09463472978646637
1260000000.0 -0.1333618635837091 -0.30821831797319604
1280000000.0 0.3042391680502171 -0.13499315269217738
1300000000.0 0.3408770048576629 -0.06593923093526408
1320000000.0 0.03237702408547625 0.35624075969754077
1340000000.0 -0.053859123554505284 -0.36525427814336187
1360000000.0 0.3354568678671433 -0.17169201114907032
1380000000.0 -0.18708841372630666 0.33608492029244114
1400000000.0 0.024518617847801186 -0.38862790459442553
1420000000.0 -0.07143648713529026 0.3784527121858125
1440000000.0 0.2777697859870034 0.2551922756359287
1460000000.0 0.09940345487979955 -0.3553488611837783
1480000000.0 -0.3634543494966939 0.003747476941345623
1500000000.0 0.31279703207479886 0.10261067213102855
1520000000.0 0.15659210089995046 -0.2697397196291405
1540000000.0 -0.286708193052428 0.02273845080903488
1560000000.0 -0.2510206544964338 -0.0005657279595156201
1580000000.0 0.13291036034130196 -0.1640295114071172
1600000000.0 -0.06794899753532493 0.16458240144802658
1620000000.0 -0.11808456509064384 -0.08131301228870391
1640000000.0 0.11209179005548262 0.044515682653483796
1660000000.0 -0.07054190028123636 0.061840116202870735
1680000000.0 -0.030858338278805075 0.06207826447604653
1700000000.0 -0.05545960957915209 -0.00939405790074103
1720000000.0 0.04060625792969755 -0.007083708383304632
1740000000.0 -0.0377303838313146 0.036845310498323625
1760000000.0 0.04789235185477563 -0.06516101851282483
1780000000.0 -0.07673003872558384 -0.07913052353097823
1800000000.0 -0.08026674693396385 0.11392698021344957
1820000000.0 -0.15983265953736403 -0.036266160163238095
1840000000.0 0.03938488648558748 -0.1826606319947324
1860000000.0 0.21857656022108454 0.020676387042327812
1880000000.0 0.23558790102841462 -0.06907618512692355
1900000000.0 -0.263844269988151 -0.0287913067589559
1920000000.0 -0.03228232361902096 0.2803985492961747
1940000000.0 -0.1398681961222741 -0.25934590440688277
1960000000.0 0.04936779732049156 0.2929451951650249
1980000000.0 -0.18465982190435543 -0.2364316842926433
2000000000.0 0.2531011464396182 -0.17585773526002682
2020000000.0 0.3044244907810011 -0.0013726918347583428
2040000000.0 -0.09784902616618359 0.2874963519434432
2060000000.0 -0.2670107068723603 0.1496378843711498
2080000000.0 -0.279305593600166 -0.1275734900251905
2100000000.0 0.1265456229425144 0.2827410057944083
2120000000.0 -0.2594716740235545 0.16842761009613055
2140000000.0 0.12168342633961761 -0.28015599669756713
2160000000.0 -0.28343227086200906 0.07944429129275891
2180000000.0 -0.23483185882179666 0.1559292089824794
2200000000.0 -0.20314387116698412 -0.1985905467643658
2220000000.0 -0.2728472470613801 -0.0812817872454168
2240000000.0 -0.12890495257064224 -0.2477224750305377
2260000000.0 -0.010025792911814223 -0.2738015026450943
2280000000.0 0.15170689853004238 -0.2126426494559809
2300000000.0 0.21625137028718197 0.1255946874277526
2320000000.0 -0.17927618394892164 0.16486827216221367
2340000000.0 -0.122506170786617 -0.2035273962130778
2360000000.0 0.1881920921517296 0.12596683386287327
2380000000.0 -0.08522123791171402 -0.21377692622065123
2400000000.0 0.23616239787621932 0.03800024241358778
2420000000.0 0.18789948926446753 0.1831749875989079
2440000000.0 0.2870892273986729 -0.02386483868637464
2460000000.0 -0.2046289358437742 -0.25048661167732894
2480000000.0 -0.09676723877733205 0.34612208702139313
2500000000.0 -0.21563067688771576 -0.33680942831118044
2520000000.0 0.3780420867268251 -0.22855516473818951
2540000000.0 0.27425842864017325 0.39751021590598773
2560000000.0 -0.5029079428325967 0.11960557173546142
2580000000.0 0.2599902082753151 -0.48483366467592776
2600000000.0 0.15125655391721848 0.5561086803316281
2620000000.0 -0.3861076496675167 -0.4646221963921465
2640000000.0 0.6064701687843946 0.13879217514194786
2660000000.0 -0.44411256502320406 0.4602085405231968
2680000000.0 -0.37969955276078 -0.5273247259505937
2700000000.0 0.4157147013947492 -0.512405938309009
2720000000.0 0.6450605018215729 -0.16151175869321632
2740000000.0 0.6692444233961593 -0.029673902228934852
2760000000.0 0.6687634976687935 -0.0654155676912815
2780000000.0 -0.04541180170768386 0.6671246884260902
2800000000.0 -0.2671220878505273 0.6056277599174112
2820000000.0 -0.5943079604587255 0.267987949836338
2840000000.0 -0.366673993984747 -0.525916317486916
2860000000.0 0.6246063365340813 0.06282731428407676
2880000000.0 -0.6039780105529138 -0.10079696819488843
2900000000.0 0.3464897558866599 0.48550488723732327
2920000000.0 0.34947985001158227 -0.45770629880769265
2940000000.0 -0.4568184271500784 -0.31138312375775845
2960000000.0 -0.5035413880168016 0.1675157526614111
2980000000.0 0.05140189503630581 0.5053524839059863
3000000000.0 0.48217709169765804 0.04126973600222704
3020000000.0 -0.2019834965819425 -0.41468295585776077
3040000000.0 0.0863765887502175 0.4232215012401938
3060000000.0 0.035174606818155034 -0.401943518914812
3080000000.0 -0.25220479528693446 0.28537372667879424
3100000000.0 0.2782973960019041 -0.23101613803173032
3120000000.0 -0.01297928582841523 -0.3463568929500166
3140000000.0 0.07540373206823167 0.33335131854433814
3160000000.0 -0.07630894242563607 -0.33101506185227636
3180000000.0 0.1816923385755299 0.27799741425143965
3200000000.0 0.2570493639457306 -0.19431807937211007
3220000000.0 -0.27794759672892644 -0.14728446657550615
3240000000.0 -0.18261056076143195 -0.23957468377982524
3260000000.0 -0.2839177629918308 -0.06349478350602611
3280000000.0 0.10709817694264567 -0.2521822611857088
3300000000.0 0.20869269890243053 -0.1472798961373195
3320000000.0 0.2306004442706317 0.011040343610030829
3340000000.0 -0.1992500104278978 -0.02901561704480558
3360000000.0 -0.17550397378722338 -0.045734774512527866
3380000000.0 0.156277608450208 -0.05251027184224695
3400000000.0 -0.1418015355268655 -0.03645262090847366
3420000000.0 0.07862165242809817 0.10874403767068666
3440000000.0 0.08042118879354557 0.08843772391668675
3460000000.0 0.09353738693417363 0.03271228025662795
3480000000.0 -0.08112525186886327 0.03748632604717714
3500000000.0 -0.013461137673500798 -0.07765847344232722
3520000000.0 0.005973184173895453 -0.0723149183749852
3540000000.0 -0.07591890286778233 -0.008656436840311022
3560000000.0 0.08503468478069066 -0.001148363269899897
3580000000.0 0.054999648737917586 0.07205897482204829
3600000000.0 -0.09089479200645485 -0.012986267821437237
3620000000.0 -0.06547679290289266 -0.07299439153424571
3640000000.0 0.07718350176679097 0.06697929192324702
3660000000.0 -0.018466256487014433 -0.10232038779608582
3680000000.0 0.10848656303619093 -0.021635317971797637
3700000000.0 0.07517474275343825 0.08453728839416406
3720000000.0 0.0793503115476633 -0.06225787877105046
3740000000.0 0.07178068903474864 0.047181136578460924
3760000000.0 0.01822407468797433 -0.06407962169936357
3780000000.0 -0.029082319784635036 0.05083395019455546
3800000000.0 -0.046040709191191444 0.031154770101801583
3820000000.0 -0.027182224579291165 -0.04020681267206382
3840000000.0 0.042518712050490425 0.03119324122158416
3860000000.0 0.0598224638959302 -0.022827088996298563
3880000000.0 0.062061440908064244 0.05848924641713932
3900000000.0 -0.09605869300536593 -0.038339124208400376
3920000000.0 -0.09000199249706756 0.07139418274469463
3940000000.0 0.0948996286581189 0.06392411966939833
3960000000.0 0.05951283894901521 -0.07908367696797367
3980000000.0 0.03595567956348211 -0.08379577181099578
4000000000.0 -0.009533720854071956 -0.07448281718115311
