!Created with skrf (http://scikit-rf.org).
# Hz S RI R 50.0 
!freq ReS11 ImS11
400000000.0 0.7211052228852686 -0.47665430165330763
420000000.0 -0.24057006109599433 0.7708842143007083
440000000.0 -0.00239272360115869 -0.7821456320689514
460000000.0 0.7287350223194482 0.2242256558618312
480000000.0 -0.41360578432414125 -0.5990380615160369
500000000.0 0.6590918015097325 0.12768536893719956
520000000.0 0.29075998101364975 0.46578574196569644
540000000.0 0.33529182675209057 -0.2973897055986512
560000000.0 0.3193151122587952 0.16797463823029823
580000000.0 -0.09706571186716202 -0.324137626843112
600000000.0 0.2643558991178174 -0.20745201201495697
620000000.0 -0.3077428752031241 0.18534907541899606
640000000.0 -0.3163939640394016 -0.21256248421108284
660000000.0 -0.13322564734005543 -0.3947553899600039
680000000.0 -0.32840563350180424 0.1914824597431042
700000000.0 0.13636076764357877 0.3213700287885007
720000000.0 -0.30957027080419 -0.19793340607405727
740000000.0 0.007007897367484571 -0.33859905831119985
760000000.0 -0.243776346779957 -0.16302643574638162
780000000.0 -0.20287679535126363 0.2507031034952963
800000000.0 -0.3132622294095385 -0.023093638142181436
820000000.0 0.13403247413411698 0.2581521358934303
840000000.0 0.1547687905930589 -0.2045960262639043
860000000.0 -0.1659601980092317 -0.11503792665205784
880000000.0 0.0405865861504061 0.15955801086420396
900000000.0 0.00412804539934631 -0.12263425070935544
920000000.0 -0.028762252042809303 -0.1167281931899552
940000000.0 0.04317597924117927 0.10512514867069302
960000000.0 0.019860612578546738 -0.07577179945916898
980000000.0 -0.05685879060823104 -0.015410601982241071
1000000000.0 0.04421532801750877 0.030018589267276328
1020000000.0 0.018196441571091525 0.06161904916646351
1040000000.0 0.09119650502304257 0.03824686148126692
1060000000.0 -0.05750634297220292 0.12805052059127686
1080000000.0 -0.1744504100138673 0.031337951803108194
1100000000.0 -0.032468814815793265 0.19876736606710227
1120000000.0 -0.01731430210224237 -0.2255838945736559
1140000000.0 0.26055491231809 0.055269193396012786
1160000000.0 0.12268265233826106 0.2462522580624332
1180000000.0 -0.2881280888284378 0.008037886647185705
1200000000.0 -0.11578158617192022 0.275426237276287
1220000000.0 -0.3158637005371383 -0.09210136150860951
1240000000.0 -0.3139936173001579 -0.09407532424715202
1260000000.0 -0.10780951678399167 -0.3157855431134873
1280000000.0 0.3266557601733786 -0.08054287981726437
1300000000.0 0.32531243733886167 -0.12124284591931007
1320000000.0 0.10768451012363753 0.3378883192499202
1340000000.0 -0.006524690267837926 -0.3706354593838583
1360000000.0 0.22484383836041355 -0.30339518761971357
1380000000.0 -0.2052970345444166 0.3217246179201146
1400000000.0 0.04257043911221289 -0.3882002311362521
1420000000.0 -0.08871469011942608 0.3717069988466916
1440000000.0 0.21001823730566396 0.3101844071722986
1460000000.0 0.18637812150750385 -0.32160899828344114
1480000000.0 -0.2942191572281848 0.21482186272464956
1500000000.0 0.32265291015902575 0.05951778673139674
1520000000.0 0.23584080803605675 -0.19796591025307095
1540000000.0 -0.25786705196102677 -0.12659500168619764
1560000000.0 -0.2544613959450681 0.022012943428433733
1580000000.0 -0.03467160653430976 -0.20617093353675475
1600000000.0 -0.08978233376075491 0.15338518771576282
1620000000.0 -0.1425095819347398 0.011099974785251264
1640000000.0 -0.07187486931630446 0.09431149532519623
1660000000.0 -0.08964153251942225 -0.04304061303794314
1680000000.0 -0.06816685016332426 0.012834917666212869
1700000000.0 0.016552812660293237 -0.050446618599483364
1720000000.0 0.032126444333981534 0.030760746359496906
1740000000.0 0.04951295933051471 0.012294300861164842
1760000000.0 0.08077322726233103 0.011353171099613408
1780000000.0 -0.10635830285465847 0.03093087131214732
1800000000.0 -0.09376382114984347 0.100234928603635
1820000000.0 -0.16193929797481352 -0.010599568479699258
1840000000.0 0.08566003630584722 -0.1674499063922764
1860000000.0 0.20757747789174605 -0.07738596533600035
1880000000.0 0.14605894828573518 -0.1938778336339959
1900000000.0 -0.2182909656028759 -0.1468715018285447
1920000000.0 -0.05592632961528792 0.27919518593716575
1940000000.0 -0.0749510582070776 -0.2851363991468576
1960000000.0 0.08524634046682567 0.2864765858857679
1980000000.0 -0.22327636768453143 -0.19956495333435398
2000000000.0 0.25577886564839025 -0.16740527035398256
2020000000.0 0.29307722640696976 0.08195994076160106
2040000000.0 -0.12394235050613855 0.2776271220929799
2060000000.0 -0.270904910193971 0.14685320067198626
2080000000.0 -0.3059151435940101 0.03012903869301796
2100000000.0 0.17882651814375225 0.25006922982259094
2120000000.0 -0.307735096914274 0.0015614233757698958
2140000000.0 0.24010546511920586 -0.1891989433452349
2160000000.0 -0.23418053697374258 0.18215530770639943
2180000000.0 -0.19647450963405766 0.20253854400657265
2200000000.0 -0.24804551592823879 -0.13780712913529106
2220000000.0 -0.2526973619157395 -0.12544475901412466
2240000000.0 -0.12017485119091868 -0.25314097142157815
2260000000.0 0.10273329642809417 -0.25594648323214136
2280000000.0 0.09425896340876327 -0.24616993856964023
2300000000.0 0.2433257079821376 0.0524623983133583
2320000000.0 -0.23363950740280598 0.058123462300761146
2340000000.0 0.0659756829566923 -0.2271905009053353
2360000000.0 0.1986027886909384 0.11708387738794952
2380000000.0 -0.17679796845739648 -0.14684655364870372
2400000000.0 0.22198956897223707 0.08340916377185525
2420000000.0 0.22405253175594994 0.13386830162836819
2440000000.0 0.28637967709126144 0.007329022890458186
2460000000.0 -0.16114729310923262 -0.2806533553007066
2480000000.0 -0.018664421588014814 0.3612476064498224
2500000000.0 -0.33049438409510434 -0.2243365949255059
2520000000.0 0.4055612908112615 -0.17378600582693451
2540000000.0 0.23420006530951495 0.4244318661970167
2560000000.0 -0.4960572736130941 0.14841702678020727
2580000000.0 0.254206142775691 -0.4879717788751341
2600000000.0 0.10500256286482952 0.5682698550943712
2620000000.0 -0.36720978578131275 -0.4795512007181704
2640000000.0 0.610609461312583 0.11332968048616342
2660000000.0 -0.46118534074198514 0.4424394061471139
2680000000.0 -0.39393084810038204 -0.5169328257926977
2700000000.0 0.33267135700315664 -0.5692790019920931
2720000000.0 0.6244791456440625 -0.2305262559624923
2740000000.0 0.6686945960292868 -0.055557908756331036
2760000000.0 0.6664448103901224 -0.09543654894443784
2780000000.0 -0.08035871578459998 0.6649937350020851
2800000000.0 -0.19039211265266415 0.6351291302714467
2820000000.0 -0.5521538305832276 0.3481042012106338
2840000000.0 -0.3200141410311341 -0.5559079681159033
2860000000.0 0.6206860617309585 0.09222836579803992
2880000000.0 -0.5976678269519407 -0.13171484393273478
2900000000.0 0.33033449871285697 0.4961808409697828
2920000000.0 0.30341713043996443 -0.490771721635868
2940000000.0 -0.48725710880891004 -0.26065408402800155
2960000000.0 -0.4980552966615442 0.17785981150604097
2980000000.0 0.006523138997680447 0.5064227917017861
3000000000.0 0.48491007450902585 -0.026720180647492098
3020000000.0 -0.3946817283107375 -0.2386497987847932
3040000000.0 0.2072906141921756 0.3791180815696297
3060000000.0 0.04636254050642158 -0.39977188206639025
3080000000.0 -0.22060901036121994 0.30812120921652836
3100000000.0 0.24398291243250014 -0.26768215866260026
3120000000.0 -0.011639965010526856 -0.34708739782496767
3140000000.0 0.09803624560207944 0.3297394245652501
3160000000.0 -0.15146269326242315 -0.30391286642296006
3180000000.0 0.10428735751023084 0.31368751903876607
3200000000.0 0.31107302131463865 -0.08836790224521035
3220000000.0 -0.2821951989978034 -0.14514782636236018
3240000000.0 -0.20837073372715043 -0.21370086157563273
3260000000.0 -0.1445740880408154 -0.2504293495121256
3280000000.0 0.055916530113583655 -0.2695529164146832
3300000000.0 0.1586805399405378 -0.1956275112805129
3320000000.0 0.19867680645549496 0.1139532308686618
3340000000.0 -0.20115801389107282 -0.0037311087100830335
3360000000.0 -0.17910191607336023 0.01658819457081943
3380000000.0 0.1488353549516839 -0.06624203141065901
3400000000.0 -0.14601646688302394 0.016829739191246237
3420000000.0 0.12393074923887751 -0.046933694235202966
3440000000.0 0.09267116262904258 0.07567970622539202
3460000000.0 0.043602415697411794 -0.09052869241094785
3480000000.0 0.003737991789397063 0.08771030952553742
3500000000.0 0.07862262975570633 -0.009708299168298282
3520000000.0 0.053149032813419005 -0.052748812761435074
3540000000.0 0.06924021510869062 0.03383267180535895
3560000000.0 0.05935717382749753 0.05800389094028332
3580000000.0 0.05783503127814719 0.07047130998622234
3600000000.0 -0.07376946059072746 -0.055264250335388454
3620000000.0 -0.033569138998303515 -0.09041840535833982
3640000000.0 0.024135336355468422 0.09970962998869348
3660000000.0 -0.05071304947763485 -0.08719082530904688
3680000000.0 0.07679176099112964 0.0784430490055065
3700000000.0 0.0514405701534545 0.10225099706141799
3720000000.0 -0.017115980876897828 -0.09973878563595415
3740000000.0 0.022861085321293554 0.07834749568856882
3760000000.0 0.05283541368931484 0.04092106272344506
3780000000.0 0.028565540326307003 -0.05066208872850797
3800000000.0 -0.04037956133056036 -0.034239252296424445
3820000000.0 -0.03736064362429043 -0.032957904480275135
3840000000.0 0.044550709538366616 -0.024328380013316123
3860000000.0 0.060841377769170604 -0.01027334338030762
3880000000.0 0.006608613738864744 0.08589127045066007
3900000000.0 -0.10009974965056229 0.02548722550234567
3920000000.0 -0.06003966275767387 0.09503876699367597
3940000000.0 0.051121334108691484 0.10057111533021795
3960000000.0 -0.038549692924563034 -0.08872843991031731
3980000000.0 0.08990105996753438 0.004624494114632921
4000000000.0 0.007043687214648174 -0.07553015410505522
