!Created with skrf (http://scikit-rf.org).
# Hz S RI R 50.0 
!freq ReS11 ImS11
400000000.0 0.7125526554687005 -0.48869898281308644
420000000.0 -0.28183198365006373 0.7561813537136826
440000000.0 -0.11087844177992437 -0.7740644044813831
460000000.0 0.6984143410162929 0.29913785254863656
480000000.0 -0.2316758333090758 -0.6880684311722672
500000000.0 0.6764376554044662 -0.055174183536881465
520000000.0 0.2638316087007156 0.4807098203015728
540000000.0 0.31954857987304097 -0.3101053899895582
560000000.0 0.3483242785776616 -0.09868514877856427
580000000.0 0.1034519150869607 -0.31750749979517917
600000000.0 0.27537857511935315 0.20445416562871385
620000000.0 0.18460729183389 0.3142182275643631
640000000.0 -0.3642011987425229 -0.09347216416019181
660000000.0 0.08555285509864156 -0.4024059354297292
680000000.0 -0.10961957649407691 -0.36509996617820517
700000000.0 0.33469443220395184 0.1242653468820299
720000000.0 -0.3589733040345617 0.05560325954828879
740000000.0 0.2336132856826501 -0.23560505764310197
760000000.0 -0.13925391216078686 -0.2582420912624003
780000000.0 -0.31158373817096163 -0.10141049407970064
800000000.0 -0.23236168763583692 0.21759406568957576
820000000.0 0.2854526320243458 -0.034415357400087616
840000000.0 0.248551055742601 -0.039957940278692386
860000000.0 0.20429038163002144 0.005525874951263199
880000000.0 0.09485800158155243 0.1425428026988631
900000000.0 0.08256404249855268 0.0960632934272071
920000000.0 -0.07966804642378847 0.07287132721262018
940000000.0 0.1107603089558454 0.01705930532048396
960000000.0 0.03708925922179034 -0.08254172595893843
980000000.0 -0.05897253830016345 0.017513419174438962
1000000000.0 0.02108715903384885 0.044893777958263915
1020000000.0 -0.041807531670171386 -0.043638564240166974
1040000000.0 -0.01619988284614565 0.09308210191133258
1060000000.0 -0.05849396833894635 -0.12740230813423584
1080000000.0 -0.14595278238780593 0.10641805514104972
1100000000.0 0.005885509196506845 0.20189444919251015
1120000000.0 -0.20340412521566809 -0.09859788072103627
1140000000.0 0.18556270144724507 0.18641180243847108
1160000000.0 0.046251383385281404 0.27153297679375116
1180000000.0 -0.22377652188135475 -0.18301155878302333
1200000000.0 0.1477326814665975 0.2647373008432323
1220000000.0 -0.32202040470136034 0.043253729236306625
1240000000.0 -0.20692115389211577 -0.2527401629549745
1260000000.0 -2.1367885706098058e-07 -0.3364363933429569
1280000000.0 0.2712289070485438 -0.19849445125126317
1300000000.0 0.33370495503743136 -0.09134819937612979
1320000000.0 0.011445493710772687 0.3533458805895808
1340000000.0 -0.024265488214252607 -0.3710677841092289
1360000000.0 0.2356896968307413 -0.2939786007350661
1380000000.0 -0.17929182229328186 0.33627711327478876
1400000000.0 0.05062103075519759 -0.38716334333026325
1420000000.0 -0.14678993238175905 0.35528878456352814
1440000000.0 0.2762926406708775 0.2547250226787722
1460000000.0 0.10847399347472746 -0.35360288969020975
1480000000.0 -0.27660013678708784 0.2308612310010953
1500000000.0 0.32460554322642843 0.06059882909062591
1520000000.0 0.1926639444544954 -0.24161470354678685
1540000000.0 -0.2847231699899835 -0.030476812261029634
1560000000.0 -0.25152765475569494 -0.04047760389903036
1580000000.0 0.03741688038871441 -0.2072724250054694
1600000000.0 -0.08503579589114686 0.15516249903169227
1620000000.0 -0.1428493937560635 -0.003987372167281835
1640000000.0 -0.0904832260047109 0.07611604960894255
1660000000.0 -0.09347006246761597 -0.03138686223809181
1680000000.0 -0.05400272271048337 0.045224421229841515
1700000000.0 -0.004464538371901619 -0.051597692754582744
1720000000.0 -0.03494135206895103 0.026404655700289697
1740000000.0 -0.01824575634625202 -0.04849186855906466
1760000000.0 0.053937533894810215 -0.060026125148516844
1780000000.0 -0.09209594148744973 -0.06172135100844767
1800000000.0 -0.10187263901315478 0.09391448378463899
1820000000.0 -0.15624033212952476 0.04888518172953378
1840000000.0 0.05913991142392536 -0.1771441980530609
1860000000.0 0.2152314236463941 -0.04919666392520875
1880000000.0 0.17422284000250315 -0.1689745994946993
1900000000.0 -0.20904750243582107 -0.1611166222825796
1920000000.0 -0.03338689222664958 0.2827437295555877
1940000000.0 -0.09333776936455722 -0.2808569543558165
1960000000.0 0.09891043736769511 0.28190291826468916
1980000000.0 -0.17686562572170558 -0.2402503301845618
2000000000.0 0.26096639043217573 -0.16164476308492232
2020000000.0 0.2733120610667242 0.13268537437736225
2040000000.0 -0.09471837893014652 0.2893046642893025
2060000000.0 -0.2603144595317444 0.16292936101479727
2080000000.0 -0.30085090513387586 -0.06152286954425786
2100000000.0 0.16727594434393514 0.25892815423263366
2120000000.0 -0.2937410374675026 0.08860424870886488
2140000000.0 0.23510675077192467 -0.19493834723786724
2160000000.0 -0.284244821266155 0.08679420976083
2180000000.0 -0.15416310552775295 0.2381739280597587
2200000000.0 -0.270697199116184 -0.08023104121371401
2220000000.0 -0.20642113697954978 -0.19084557060875423
2240000000.0 -0.06136051309095644 -0.27381538250518167
2260000000.0 0.008136223746791706 -0.2764975423270034
2280000000.0 0.060787162798194974 -0.25474498090470576
2300000000.0 0.22680344542859038 0.10257261464583707
2320000000.0 -0.20764420028898387 0.12230564237548255
2340000000.0 0.01938105614455765 -0.23467342798567967
2360000000.0 0.1713665511043828 0.15390548437282175
2380000000.0 -0.15823272584332246 -0.16935842460349837
2400000000.0 0.2350067402237328 -0.028505383333220027
2420000000.0 0.1840109882522573 0.18336203620069255
2440000000.0 0.2632625458567218 0.11479052556384303
2460000000.0 -0.22294523175373337 -0.23569889315615786
2480000000.0 -0.0230424096564811 0.35921784425624426
2500000000.0 -0.32039652680758435 -0.24133109747130452
2520000000.0 0.3729434872642955 -0.2361542024905686
2540000000.0 0.2623098225232034 0.4068047606041547
2560000000.0 -0.5068281541715597 0.10561592110502116
2580000000.0 0.2613269720371102 -0.4851209238808563
2600000000.0 0.10333325113130325 0.5682085735298535
2620000000.0 -0.35970954329246874 -0.484928821464759
2640000000.0 0.6088738622814905 0.12246395932524083
2660000000.0 -0.4520148764813027 0.4509582999101757
2680000000.0 -0.40428766478235373 -0.5089970572973839
2700000000.0 0.32314589952246836 -0.574825110553897
2720000000.0 0.6369758961677353 -0.19264951290622617
2740000000.0 0.6661760669436476 -0.08256704963230091
2760000000.0 0.6693221723041411 -0.07038295430965939
2780000000.0 -0.07714908629403247 0.6647417275454223
2800000000.0 -0.20440458448807067 0.63063219777368
2820000000.0 -0.5479235414865238 0.35531675689562175
2840000000.0 -0.3761898580079191 -0.5196033391489369
2860000000.0 0.6254894296001733 0.04885587660805735
2880000000.0 -0.5984276853801421 -0.1303872960045198
2900000000.0 0.3530415514266956 0.48058924018011145
2920000000.0 0.3385532048991688 -0.46646808132305734
2940000000.0 -0.45065064538910804 -0.3207685051866982
2960000000.0 -0.4986249443927148 0.1794720739987982
2980000000.0 0.056165980817273725 0.5024280885743722
3000000000.0 0.4817951725559609 0.051264293662045754
3020000000.0 -0.2911959807332779 -0.35969097543714046
3040000000.0 0.24428084758535984 0.3568816992133268
3060000000.0 -0.01484460968573247 -0.4006787834047399
3080000000.0 -0.25517754787671926 0.2804795829740934
3100000000.0 0.2209775571665568 -0.28828622244033825
3120000000.0 -0.02292207440054881 -0.34631253390258127
3140000000.0 0.022502211168081928 0.34182069391704784
3160000000.0 -0.07772761030895996 -0.3320419014492914
3180000000.0 0.18055989425461322 0.27854160837765746
3200000000.0 0.24384310867597397 -0.21052239054369734
3220000000.0 -0.1888752689452359 -0.25262404779597836
3240000000.0 -0.16744676918455764 -0.2495769167656542
3260000000.0 -0.21808565777201172 -0.18977996910157058
3280000000.0 0.11690122114825881 -0.24924102361106618
3300000000.0 0.096037848394907 -0.23344343071761223
3320000000.0 0.19824105359182834 0.10976230002435547
3340000000.0 -0.15348295746042376 -0.13181178058763646
3360000000.0 -0.06597422140595685 0.16989349567986542
3380000000.0 0.13741406040458493 -0.07989639075706507
3400000000.0 -0.08599133487156341 -0.12127250464768437
3420000000.0 0.04212876652026184 -0.12785886230281326
3440000000.0 0.11429279315891282 0.030796466470910465
3460000000.0 0.10011110892971901 -0.0033789442172549454
3480000000.0 0.006778199355430143 0.08995418557928148
3500000000.0 0.0701939703705394 -0.03356263439898783
3520000000.0 0.06299217118331465 -0.0401146370036604
3540000000.0 0.07636336064053312 -0.016047490413136155
3560000000.0 0.04666952031281804 0.06793731386465199
3580000000.0 0.010891119491187283 0.08994909755328932
3600000000.0 -0.09009732919814287 -0.02147115446525356
3620000000.0 -0.02195754732817027 -0.09335834233520754
3640000000.0 0.014609445619170401 0.10091011778514306
3660000000.0 -0.05239023526354799 -0.08742135820385885
3680000000.0 0.09260070821701535 0.05908738010581777
3700000000.0 0.039805245729504134 0.10654938884124174
3720000000.0 0.038630108733026663 -0.09269895806752329
3740000000.0 -0.008114205879598558 0.08310224650474997
3760000000.0 0.06566063882934402 0.005863500871550585
3780000000.0 0.051037798276747634 -0.02896981361802013
3800000000.0 -0.04633193944649851 0.02721626633222097
3820000000.0 -0.028684705747038814 -0.0397464473270342
3840000000.0 -0.014196649392617463 -0.04923543464472743
3860000000.0 0.05994295851907048 0.0038577194107634136
3880000000.0 -0.031116534125504983 0.0811335018445449
3900000000.0 -0.0254255205198547 0.10090477164128549
3920000000.0 -0.02585648594694999 0.10840304589257033
3940000000.0 -0.047686896691510855 0.10287123200801762
3960000000.0 -0.0850919558323402 -0.04766942975231588
3980000000.0 0.05485508685032745 -0.06950979054175806
4000000000.0 0.07301236982937775 -0.02544855311938257
