!Created with skrf (http://scikit-rf.org).
# Hz S RI R 50.0 
!freq ReS11 ImS11
400000000.0 0.7983331543373945 -0.33200228970579126
420000000.0 -0.18405578999914118 0.7871757213517334
440000000.0 -0.24940309457827464 -0.7409116328292149
460000000.0 0.6643736319109332 0.36535512007569115
480000000.0 -0.3638639230808665 -0.6308219565278954
500000000.0 0.6723756559470748 0.06162957971778138
520000000.0 0.3076473095032983 0.4508770616601462
540000000.0 0.43384306923001525 -0.12288943497380031
560000000.0 0.2060013133341393 -0.3033292154259074
580000000.0 0.05305777531390604 -0.3264266957468161
600000000.0 0.19320102749209686 0.2670184268862025
620000000.0 -0.35291181465053195 0.12211730645547103
640000000.0 -0.3816218126100681 -0.034246890736669415
660000000.0 -0.32836506395337095 -0.24202256247000506
680000000.0 -0.3263570606019982 -0.1855454356624519
700000000.0 0.3486286455780329 0.0818999843560567
720000000.0 -0.34899453361921545 -0.07370161934728688
740000000.0 0.3324700097638522 -0.05830563370513818
760000000.0 -0.28081150275841615 -0.11059777905299098
780000000.0 -0.01077553118185716 0.32357106221504883
800000000.0 -0.26908555532121553 0.14055741294211774
820000000.0 -0.26998250369168125 0.09690166516571692
840000000.0 0.10570109610353999 0.236184430314001
860000000.0 -0.16815516792195495 -0.13488979381530258
880000000.0 -0.16518076584968075 0.02454623647724326
900000000.0 -0.10568786637493419 -0.04022701167616367
920000000.0 -0.10179258269692741 0.05776352612361559
940000000.0 -0.09193090447414136 -0.08337054420737362
960000000.0 0.07331758375327425 0.04129768886948459
980000000.0 -6.0387360804817145e-05 0.05139100131808429
1000000000.0 0.0033131594167350805 0.04837183597245697
1020000000.0 -0.008475718977400171 0.06681568833968582
1040000000.0 0.04406485695892815 -0.09490222408309515
1060000000.0 0.007835126166390725 -0.14073363270103076
1080000000.0 -0.11187322424156644 -0.12738365541760766
1100000000.0 -0.16986608399776995 -0.11444008213536022
1120000000.0 -0.19739621716075895 -0.12027629690122499
1140000000.0 0.2597781540365266 -0.055445980662883795
1160000000.0 0.09888815267749942 0.2525591591047128
1180000000.0 -0.16929061413742974 -0.23262766661542394
1200000000.0 -0.014869631968345407 0.3045337129712116
1220000000.0 -0.3193200646822135 0.05892741046875552
1240000000.0 -0.2972895730164755 -0.1273846368752958
1260000000.0 0.17628769253587528 -0.2875924026580135
1280000000.0 0.25786250267003197 -0.22178000610845885
1300000000.0 0.12253583728102757 -0.32395616456749693
1320000000.0 -0.004683425491078444 0.35242628797325853
1340000000.0 0.03418049901762486 -0.3683981617913934
1360000000.0 0.24234564497193584 -0.2906507992378453
1380000000.0 -0.2672291751738893 0.2747464255599353
1400000000.0 0.06728686700786952 -0.38241741611133806
1420000000.0 -0.19265520012341145 0.332061793299704
1440000000.0 0.2939866480548937 0.23433411402124787
1460000000.0 0.22080754954539406 -0.2955325522873676
1480000000.0 -0.36383634787185276 -0.001965040365226743
1500000000.0 0.32902467452247186 -0.011857443193603712
1520000000.0 0.10571143326390522 -0.29344469143023744
1540000000.0 -0.284154631558818 -0.01919623750139521
1560000000.0 -0.23346189281765825 -0.10126563979684544
1580000000.0 0.04281061123778922 -0.20679472346948713
1600000000.0 -0.09959988309897538 0.14688540021615323
1620000000.0 -0.13712658575092518 -0.045505567831523215
1640000000.0 0.10782969788593558 0.04905083666225309
1660000000.0 0.014985547568938195 -0.09365351887383448
1680000000.0 0.033099918995155964 -0.06265417997447587
1700000000.0 -0.04737900014510723 -0.025024938206132635
1720000000.0 -0.04053514556672645 0.014754055943159058
1740000000.0 0.033094881680512556 -0.04126973459509478
1760000000.0 0.0708656414942348 0.034279276739080884
1780000000.0 -0.1027072429293527 -0.04081221002761817
1800000000.0 -0.09228563331632418 0.10563634194668885
1820000000.0 -0.14676383916751076 0.06797259838782445
1840000000.0 0.09807524312439261 -0.15603631299066928
1860000000.0 0.21500123913468536 0.06042523730519233
1880000000.0 0.13894941709250816 -0.2018478591006085
1900000000.0 -0.2632337444493662 0.003671781786702986
1920000000.0 -0.07795271912806281 0.2704890633855391
1940000000.0 0.008811960473552111 -0.29587137880788433
1960000000.0 0.002460669566995168 0.29957168487342767
1980000000.0 -0.2591606826258934 -0.15028452025641056
2000000000.0 0.2565135196359536 -0.16518893623381622
2020000000.0 0.26103417255826267 0.15470068787960664
2040000000.0 -0.15559931937131324 0.26207589361187955
2060000000.0 -0.25555011638052216 0.17223340885560587
2080000000.0 -0.30357667493982804 -0.04418441410948336
2100000000.0 0.12004633606394423 0.2834196915124538
2120000000.0 -0.297621454398178 0.08507562366153316
2140000000.0 0.13195775081738642 -0.27499981334475876
2160000000.0 -0.2826951096139474 0.08685368290979908
2180000000.0 -0.21096655497850045 0.19017310967106205
2200000000.0 -0.2696280872877695 -0.08539366863508299
2220000000.0 -0.20719105549229744 -0.19240096761718453
2240000000.0 -0.040075759141114976 -0.27798713375716194
2260000000.0 -0.06400711560561348 -0.2672081744500151
2280000000.0 0.13854108195297782 -0.22034867243168996
2300000000.0 0.10700898431522951 0.22618015675875852
2320000000.0 -0.15728530022670303 0.1877291419017542
2340000000.0 -0.19119385691604585 -0.13637468001008238
2360000000.0 0.15259406890356936 0.1687563497279289
2380000000.0 -0.13377298916981128 -0.1885380663275764
2400000000.0 0.2391175573345494 -0.018754788695239766
2420000000.0 0.23090140440474605 0.12538195317477002
2440000000.0 0.2871272989101446 0.004856092533900267
2460000000.0 -0.19798167075335923 -0.25780653850679874
2480000000.0 -0.05576884741971043 0.35719473668774493
2500000000.0 -0.2647078755739995 -0.30123890064083525
2520000000.0 0.3984006189562863 -0.19156948778815963
2540000000.0 0.227873466579614 0.4271125916694377
2560000000.0 -0.508969237008903 0.09249817799839313
2580000000.0 0.27075846762496103 -0.4788853865601837
2600000000.0 0.1316194971201615 0.5615733048252326
2620000000.0 -0.3764020463625416 -0.47217751199434477
2640000000.0 0.6137148018414053 0.09819623392648995
2660000000.0 -0.42080569784589733 0.4807389598451648
2680000000.0 -0.4189848625828619 -0.49606818529179364
2700000000.0 0.3469915852900053 -0.5613362990119615
2720000000.0 0.6054506091357305 -0.2757933145320056
2740000000.0 0.6692734037059788 -0.04417582390179258
2760000000.0 0.6626218846786119 -0.1114278750148009
2780000000.0 0.008254658826124101 0.6689150483719106
2800000000.0 -0.14785359079227317 0.6456052271578903
2820000000.0 -0.5649814093370469 0.324959479948974
2840000000.0 -0.3960213673707199 -0.5037702273663998
2860000000.0 0.6232997513079718 0.07184463673208442
2880000000.0 -0.6059137796096281 -0.07970868767338639
2900000000.0 0.3474136089934408 0.4841969162932538
2920000000.0 0.3087017503362338 -0.4875230956181406
2940000000.0 -0.4859985329984815 -0.26066036431258394
2960000000.0 -0.503368067925699 0.16422320769781434
2980000000.0 -0.005194308606694427 0.5064707663805221
3000000000.0 0.48232454327041163 -0.05678403365188936
3020000000.0 -0.345666774159734 -0.30428818786231804
3040000000.0 0.10611104832223041 0.4181222159652062
3060000000.0 0.03863689264115965 -0.4007053930200734
3080000000.0 -0.21819730424513567 0.3123816044752956
3100000000.0 0.2253247994006179 -0.2823334529879575
3120000000.0 -0.04054868048256888 -0.3420268371054636
3140000000.0 -0.026942861095604183 0.3397220909245972
3160000000.0 -0.018472546904789063 -0.34033207809849114
3180000000.0 0.24262982535666994 0.22732299860644412
3200000000.0 0.15954345111890603 -0.2784005466808061
3220000000.0 -0.16226589377781145 -0.26776216812673137
3240000000.0 -0.19149526511867737 -0.2336002344260717
3260000000.0 -0.2716104545976124 -0.10374663689954466
3280000000.0 0.06672665272935029 -0.2654935060502411
3300000000.0 0.21931093705305518 -0.12733097993507403
3320000000.0 0.2107288377333544 0.08947622285293731
3340000000.0 -0.14083200225804313 -0.14636966917617494
3360000000.0 -0.16995337441996544 0.0667382740069065
3380000000.0 0.11582322908065788 -0.11195127416419973
3400000000.0 -0.03939306781647839 -0.14048870515736803
3420000000.0 0.13240865565913285 -0.031077998600119266
3440000000.0 0.1107651158975633 0.044299829642156244
3460000000.0 0.09642642953375856 -0.023289426617357972
3480000000.0 -0.0006735373172766787 0.09025560204790063
3500000000.0 0.011602205872010317 -0.07639148463274784
3520000000.0 0.07293033875829084 -0.008552855421889107
3540000000.0 -0.06537856222237322 0.042639784844998765
3560000000.0 0.07575738207085457 0.0361536229772917
3580000000.0 0.07177018949044217 0.05400861463149157
3600000000.0 -0.03239280701746405 -0.08533970537656499
3620000000.0 0.035468320735667656 -0.08900188257219821
3640000000.0 -0.02125226621403771 0.10032698633837134
3660000000.0 -0.0878224994445326 -0.051508300040586985
3680000000.0 0.10784310520656715 0.011960024184172828
3700000000.0 0.0885489375266757 0.07003645284450913
3720000000.0 0.09628781875689492 -0.028366438476100486
3740000000.0 0.08080396776664649 0.02036016986216527
3760000000.0 0.05798425605720318 -0.032994255814821745
3780000000.0 0.05789301007339753 0.004653501901621953
3800000000.0 -0.01598546453611568 0.050749320992037425
3820000000.0 0.006459314395548635 -0.04866833887979353
3840000000.0 0.009217876962962814 -0.050617315622033116
3860000000.0 -0.003192535652946992 -0.06431071104623588
3880000000.0 0.04974956258630792 0.06873505322798422
3900000000.0 -0.10057514520224527 0.02227166395023899
3920000000.0 -0.08696706349448415 0.07541385901482292
3940000000.0 0.010396708419731865 0.11426437497039382
3960000000.0 -0.0700433257504147 -0.06992845167625641
3980000000.0 0.0717294496274787 -0.05461344012330689
4000000000.0 0.06699534806975792 0.03578353469072999
