!Created with skrf (http://scikit-rf.org).
# Hz S RI R 50.0 
!freq ReS11 ImS11
400000000.0 0.7401602659098516 -0.44495545438759565
420000000.0 -0.3225208352283625 0.7421583289778855
440000000.0 -0.21098549904302108 -0.7549934746939239
460000000.0 0.7339259087106272 0.1922396732413407
480000000.0 -0.41665831978748874 -0.5971308642744191
500000000.0 0.6712050336887317 0.023288914306404798
520000000.0 -0.0077353966402868915 0.5520261204050575
540000000.0 0.15226654034364304 -0.42710549934253034
560000000.0 0.25069831188310093 -0.25873040938195546
580000000.0 0.2153800147437466 -0.2604601399727901
600000000.0 0.32324256479000535 -0.08146819708645302
620000000.0 -0.3362015271792981 0.1278174454532733
640000000.0 -0.35612354217964887 -0.14473760569909874
660000000.0 -0.3481767850974743 -0.22688548651209078
680000000.0 -0.3729850071171841 0.005244434996493851
700000000.0 0.3400252621316765 0.10728399302298817
720000000.0 -0.35201569907303387 -0.07469668733656584
740000000.0 0.15327902817568823 -0.3020121612744313
760000000.0 -0.14169875927306116 -0.26425367415718165
780000000.0 -0.014566301973933765 0.32734759148420056
800000000.0 -0.04360236614743684 0.2998886261130716
820000000.0 -0.26586433238399704 0.09902111495682256
840000000.0 0.1638922949429812 0.2118364974863496
860000000.0 -0.197596790301018 -0.049365067401632434
880000000.0 0.13790532587476553 0.097111364339536
900000000.0 0.033717087106245096 0.11407626008244226
920000000.0 0.10671224113955624 0.02897340687042291
940000000.0 0.11412722282761288 -0.008788083809105349
960000000.0 0.017277648094458944 -0.0895234725627581
980000000.0 -0.006863655956350915 -0.05962531895585845
1000000000.0 0.019139159070922895 -0.04301172371680902
1020000000.0 -0.019799614623123588 0.05616967626181806
1040000000.0 -0.00986458021205268 0.09846394450211637
1060000000.0 0.14447784366272806 -0.0016172409808472147
1080000000.0 -0.038903615228940355 0.1671633585494143
1100000000.0 -0.15302507178875666 -0.1303518065893538
1120000000.0 -0.21765713471487916 -0.08191157195871696
1140000000.0 0.25956700842730845 0.05096986613429246
1160000000.0 0.10757780921825573 0.2481550443173784
1180000000.0 -0.26074411876234954 -0.12466583962908633
1200000000.0 0.025451958037371023 0.30181093658035324
1220000000.0 -0.3022665551105868 -0.1188620943848951
1240000000.0 -0.3101774002353806 -0.10187646242855629
1260000000.0 0.004602494113387567 -0.3352951081580796
1280000000.0 0.3151798902189953 -0.11450900094595198
1300000000.0 0.2667997756236601 -0.22522657855920494
1320000000.0 0.13335114561721065 0.32852736102539243
1340000000.0 0.05169002216414213 -0.3646740407676724
1360000000.0 0.31771575914154876 -0.204973728065115
1380000000.0 -0.25590237360622964 0.28660235013946844
1400000000.0 -0.00415080622352975 -0.39045025997024646
1420000000.0 -0.033501574351534474 0.3837038153026146
1440000000.0 0.24436579509923417 0.28496744734438695
1460000000.0 0.24230430797903443 -0.27737768709307203
1480000000.0 -0.34629577445875015 0.11235732106638752
1500000000.0 0.3257870844112276 0.047698621184452714
1520000000.0 0.11325840300033291 -0.2899391463635466
1540000000.0 -0.28497909263199694 -0.012220319516059439
1560000000.0 -0.22485158772086017 -0.10979963266888654
1580000000.0 0.1076361762268551 -0.1845380525851892
1600000000.0 0.059763821332505594 0.16836590123197448
1620000000.0 -0.13072844143025097 -0.05391461320051066
1640000000.0 0.10147369573408295 0.06530074552376292
1660000000.0 -0.0752990491208194 -0.056485294622483646
1680000000.0 -0.011742448223470434 0.07067632457418391
1700000000.0 0.008520325222335316 0.0541016029914506
1720000000.0 -0.0014818335400244478 0.04001779319022987
1740000000.0 -0.05433731114498641 0.0055776918151357125
1760000000.0 -0.023052301631044058 -0.07759868371188058
1780000000.0 -0.07623008618851469 -0.07837198615660641
1800000000.0 -0.11635043691199054 0.07548313645563245
1820000000.0 -0.15595924425487975 -0.050783028144361364
1840000000.0 -0.01668294468662586 -0.1853673337580104
1860000000.0 0.21277603683247515 0.05492253463844425
1880000000.0 0.1671301227077044 -0.18022658166238342
1900000000.0 -0.25437727924265346 -0.06784296909961064
1920000000.0 -0.05802389589421694 0.27694817199754296
1940000000.0 -0.13788052107878826 -0.2606849874707627
1960000000.0 0.05002915600524246 0.29375748680935554
1980000000.0 -0.23165482619257896 -0.19021699614083562
2000000000.0 0.23925138131959153 -0.19356074834727882
2020000000.0 0.29777395373545074 0.06146655005066834
2040000000.0 -0.11008853155850183 0.2825213471864273
2060000000.0 -0.291104734429717 0.09629518398753835
2080000000.0 -0.2974069598110399 -0.07754177858428488
2100000000.0 0.1690029265851296 0.2594489747745793
2120000000.0 -0.25161084610348255 0.17804144565126623
2140000000.0 0.15697710289401018 -0.2599681642363516
2160000000.0 -0.29405852274015104 -0.01262307303362516
2180000000.0 -0.22394468768052436 0.174675118964403
2200000000.0 -0.2787033165777924 -0.05428660213533857
2220000000.0 -0.2589645283487016 -0.11377250210886455
2240000000.0 -0.045798477897424146 -0.27454100017398525
2260000000.0 0.05486981467960083 -0.2698833739338093
2280000000.0 0.12952981382036396 -0.22862305659185272
2300000000.0 0.2408822347078776 0.0647420588475423
2320000000.0 -0.20492254858665426 0.12996980739736302
2340000000.0 -0.11554003372384855 -0.20637990589829092
2360000000.0 0.15440906995391562 0.16686463344481872
2380000000.0 -0.13614288211301828 -0.18624978566542577
2400000000.0 0.23576887413991368 0.03931725588027963
2420000000.0 0.22927601736809244 0.126948594600893
2440000000.0 0.2865023100734461 0.019191062105284942
2460000000.0 -0.18929556415585275 -0.26346069677082223
2480000000.0 -0.13111894707686397 0.33494904769718337
2500000000.0 -0.2825866927360738 -0.284116883603025
2520000000.0 0.39215436188647634 -0.200925606951006
2540000000.0 0.2550352055348008 0.40981851698263233
2560000000.0 -0.5111697392719095 0.07676041420757178
2580000000.0 0.26952074667444303 -0.479921278955865
2600000000.0 0.16749678339622934 0.5513031406994593
2620000000.0 -0.3639185054845719 -0.48234328342872795
2640000000.0 0.6098962542375092 0.12200183108691852
2660000000.0 -0.423281341948019 0.4792520493383716
2680000000.0 -0.36936656798323014 -0.5350886567848601
2700000000.0 0.3789121871104237 -0.54009731162325
2720000000.0 0.6558865497056727 -0.11441419366060857
2740000000.0 0.6684261331095639 -0.049405153131869405
2760000000.0 0.6661117927226065 -0.09134657168356591
2780000000.0 -0.053243268438522964 0.666622058405305
2800000000.0 -0.23903660626894227 0.6172426109341014
2820000000.0 -0.5815688325119969 0.2944108228430386
2840000000.0 -0.3582209995350676 -0.531112271229217
2860000000.0 0.6134528819175197 0.13301468254844095
2880000000.0 -0.6092580013707016 -0.060184755881033
2900000000.0 0.35479901239340755 0.47942284413187286
2920000000.0 0.36181515589387614 -0.4482598368144393
2940000000.0 -0.4693375970314089 -0.29038779943940524
2960000000.0 -0.5021610321081337 0.17423955747558895
2980000000.0 0.07163585083435212 0.5022318740878099
3000000000.0 0.47956636525342883 0.07311035534466331
3020000000.0 -0.2478182200384696 -0.3891121408042344
3040000000.0 0.10993636539332394 0.41763025732796677
3060000000.0 0.0017955166767389629 -0.40351645311579964
3080000000.0 -0.24609428442436235 0.2905371368859756
3100000000.0 0.25635403714201366 -0.2545867936146337
3120000000.0 0.0579603694118321 -0.3409984137311466
3140000000.0 0.10023120945915899 0.3278248415537094
3160000000.0 -0.12843171012646784 -0.3137574665506378
3180000000.0 0.172199024836179 0.28340564100249405
3200000000.0 0.2720592729554357 -0.1737403017853362
3220000000.0 -0.25631140918631534 -0.18230551158073496
3240000000.0 -0.2168382935609027 -0.20996453077225985
3260000000.0 -0.2815065360098577 -0.06953315547564291
3280000000.0 0.11357224623157984 -0.2490204434385981
3300000000.0 0.2333781976679181 -0.10497840237481801
3320000000.0 0.2302740309177644 0.024271846637540756
3340000000.0 -0.20075596770777865 -0.012198911946459348
3360000000.0 -0.1803756075548077 0.004432387521354553
3380000000.0 0.160379721656197 -0.03863451148478939
3400000000.0 -0.14518026867446426 -0.021620142412452695
3420000000.0 0.08352595951240718 0.10279391992968327
3440000000.0 0.016708759000794226 0.11891029528855525
3460000000.0 0.09647027180668889 -0.02819051135935533
3480000000.0 -0.03799021266032055 0.07972795863760115
3500000000.0 -0.006940686343346288 -0.07769307222411108
3520000000.0 0.06846168825055073 -0.02472696740537044
3540000000.0 -0.07645244699581101 0.017132428883532447
3560000000.0 0.07744790936089443 -0.03560552816588368
3580000000.0 0.07917436749259386 0.0421825051445975
3600000000.0 -0.031690310213814965 -0.08599961279461402
3620000000.0 -0.0657469101915181 -0.07318762466182004
3640000000.0 0.09323408105746002 0.04196089168849647
3660000000.0 -0.015870337900185813 -0.10131301079939721
3680000000.0 0.1110430244626208 -0.0023078278669749343
3700000000.0 0.0976207069489669 0.05890210030039298
3720000000.0 0.02549528822929678 -0.09684399779624442
3740000000.0 -0.011174794211073032 0.08463145443189277
3760000000.0 0.06587757329459844 -0.018429886938821662
3780000000.0 0.05834266844434526 -0.0009162208699432963
3800000000.0 -0.05123421761360814 -0.019152801848880227
3820000000.0 -0.006891277953922734 -0.04948888301333716
3840000000.0 0.05351977093596108 0.0004613885410498176
3860000000.0 0.05160190881285311 -0.0360182884678762
3880000000.0 0.04946819593194524 0.07025053156084639
3900000000.0 -0.10340790375909861 -0.013125003742329864
3920000000.0 -0.07095956886129852 0.08979316838351424
3940000000.0 0.08318175633678113 0.07981483957878367
3960000000.0 0.05715474150085339 -0.08037065654090542
3980000000.0 0.05216902047025291 -0.07535848828521706
4000000000.0 -0.009144694846108348 -0.07351609981982404
