!Created with skrf (http://scikit-rf.org).
# Hz S RI R 50.0 
!freq ReS11 ImS11
400000000.0 0.7535856654325845 -0.4244340454945259
420000000.0 -0.2774562654638786 0.7622707854302588
440000000.0 -0.3356071521110118 -0.7117408094076956
460000000.0 0.6926537530109924 0.30483378756522184
480000000.0 0.049220863858897 -0.740466289353437
500000000.0 -0.09893732690506815 -0.6678383686043926
520000000.0 0.40484430603652005 0.375101731683251
540000000.0 -0.39308614739339864 -0.20348885698145497
560000000.0 0.3100872391766257 -0.18287309427833132
580000000.0 -0.18577026281292863 0.2968722468417371
600000000.0 -0.1350125195948201 0.3370698606418559
620000000.0 0.20767554940276808 -0.2894695982170176
640000000.0 0.16648344673527607 0.34053253596033356
660000000.0 -0.22577706983912177 0.33008107294662875
680000000.0 -0.24270289049778468 0.2831759938247792
700000000.0 -0.22659903582884813 -0.255297667420346
720000000.0 -0.3159406803590225 -0.12902940757490877
740000000.0 0.08615262654131017 0.3215782651085969
760000000.0 -0.2997547811826312 -0.07437033755239203
780000000.0 0.31049743492765214 -0.06333128093741154
800000000.0 0.1308111317804378 0.2532680418645806
820000000.0 0.05126760830177709 -0.271271977238233
840000000.0 -0.21253255899474174 0.14569266091714828
860000000.0 0.04237783827631216 -0.21024647525775883
880000000.0 -0.14644747768922695 0.08285539358990457
900000000.0 -0.08952104967447523 0.06968145064828425
920000000.0 0.03837526527172599 0.10009785219708688
940000000.0 0.08295373827839378 0.07328583854098993
960000000.0 0.0255339092131625 0.07572296826914113
980000000.0 -0.046477709532104325 -0.01985693389553676
1000000000.0 -0.04023652160065472 -0.040948199694888936
1020000000.0 -0.0340293736182014 -0.06341952166580998
1040000000.0 -0.1067788836615203 -0.022344556422642707
1060000000.0 -0.1363359798294713 0.028992372334143205
1080000000.0 -0.09132120666527875 -0.1317198631208167
1100000000.0 0.08739731655689363 -0.182958034965807
1120000000.0 -0.10409184335849526 -0.21725686224141566
1140000000.0 -0.26075316997815395 -0.03015532929099326
1160000000.0 0.2629328901453546 0.020509032699581157
1180000000.0 0.14760431021763784 -0.23702388941536195
1200000000.0 -0.25941661009639033 0.15996170884805772
1220000000.0 -0.30022394220761817 -0.13943227420168275
1240000000.0 -0.31767674998879775 -0.09317302118758365
1260000000.0 -0.26771437751991234 -0.20403953501854533
1280000000.0 -0.021339935273971655 -0.3342469638077007
1300000000.0 0.2604922228399995 -0.22736235654643658
1320000000.0 0.2869972392223148 0.19833478602481172
1340000000.0 -0.012723951461808726 -0.3646022262268185
1360000000.0 0.35762320040995305 -0.09738171648538897
1380000000.0 -0.3694905976367676 0.08998840983754484
1400000000.0 0.3047247641499286 -0.24567304974468784
1420000000.0 -0.07201763796761111 0.3817644523194321
1440000000.0 0.3701288997664883 -0.05615669416778512
1460000000.0 0.34421430996260854 -0.11504940868753988
1480000000.0 -0.3447636372563691 -0.11819473554103706
1500000000.0 0.3254808627229259 0.0809275163673089
1520000000.0 -0.21070934075902675 -0.22527301048829945
1540000000.0 -0.26824126825532957 -0.08458064209151966
1560000000.0 0.11514325036985294 -0.22209933111697627
1580000000.0 0.17238613792284768 0.1264046501730632
1600000000.0 -0.1776561717260558 -0.057234008165210244
1620000000.0 -0.04164023817297849 0.14484510151355198
1640000000.0 -0.041673842101907985 -0.11214819996372058
1660000000.0 -0.07677150476595831 -0.049734107045961165
1680000000.0 0.06505849567123838 0.025260447036234843
1700000000.0 -0.040061964578498685 0.037693505726007506
1720000000.0 -0.04486868701793025 0.01916267902837945
1740000000.0 0.02709577711139915 -0.044913410662817885
1760000000.0 0.06462164094480098 -0.033876632266794035
1780000000.0 0.03911884506069334 -0.08378914870909467
1800000000.0 -0.1164545837901287 0.06286342689702643
1820000000.0 0.0179065835253439 0.17040473056592925
1840000000.0 0.1949477476177949 -0.06361919893245845
1860000000.0 -0.1936490282083249 0.1277838301843507
1880000000.0 -0.07585846082677514 0.22410442885427587
1900000000.0 -0.25321233706665897 0.007954052380196728
1920000000.0 -0.22905868106282407 0.1511103697597402
1940000000.0 0.21875677783199987 0.18800052881780824
1960000000.0 -0.2525993206728048 -0.16808090496027536
1980000000.0 0.18364883331725101 -0.24842240384387448
2000000000.0 0.19799947710483035 -0.25006125652379546
2020000000.0 -0.036166698076060246 -0.30780475937017937
2040000000.0 0.2866475694374519 0.09430000926236409
2060000000.0 -0.07548971193348251 0.2894105482792359
2080000000.0 -0.1329879447738599 -0.2737399398464729
2100000000.0 -0.07527877775435463 0.3008423272177876
2120000000.0 -0.309080024124323 0.04762780645356191
2140000000.0 -0.004396788185806203 -0.3062682872038167
2160000000.0 -0.2852943166416958 0.08522935675767775
2180000000.0 0.04459938803072495 0.28189733807665174
2200000000.0 -0.2805693640736126 -0.02062515356796324
2220000000.0 -0.18825612676137898 -0.20992882883429312
2240000000.0 -0.0693600267383013 -0.2721599442527798
2260000000.0 -0.1486193069286403 -0.23283650967590266
2280000000.0 0.09327590039091056 -0.24315658144145436
2300000000.0 0.2105044095200371 0.13201394535509484
2320000000.0 -0.018433907959206436 0.24198313762274468
2340000000.0 -0.17301365562951512 -0.15161160959089673
2360000000.0 -0.12862462949965184 0.18150269596404311
2380000000.0 0.06410268653224376 -0.22434239547152982
2400000000.0 0.22605576198846947 0.08807798801464171
2420000000.0 0.23089859411888664 -0.12361480330299449
2440000000.0 0.28320480594278896 -0.0224169101008996
2460000000.0 -0.10842805786574812 -0.30202934226438416
2480000000.0 -0.28136800022429515 0.22546957202684995
2500000000.0 -0.16718652805063933 -0.3674627620267612
2520000000.0 0.3794041267564686 -0.23194506093755513
2540000000.0 0.32755090786802293 0.3588369575415554
2560000000.0 -0.5119105466637507 0.0848027801390649
2580000000.0 0.1802861862112161 -0.5213211678650798
2600000000.0 0.21173241487299033 0.536826749500779
2620000000.0 -0.421166255658004 -0.4311832681997713
2640000000.0 0.6135237402257668 0.08645241533538774
2660000000.0 -0.4951803301540708 0.40243513977425355
2680000000.0 -0.31138701977658856 -0.5707010671743268
2700000000.0 0.3622497773322565 -0.5521739387876599
2720000000.0 0.6249990324399229 -0.230614126939483
2740000000.0 0.6649225055728332 -0.09480578114364269
2760000000.0 0.6586115313999109 -0.14308085829507214
2780000000.0 -0.16578351768643856 0.6486247139824015
2800000000.0 -0.2332640574658348 0.6201410656001164
2820000000.0 -0.5523555526218908 0.3477621099502679
2840000000.0 -0.34686379366079667 -0.5395846374425689
2860000000.0 0.6222102300133691 0.08397716402393447
2880000000.0 -0.597639744502326 -0.13651680836610805
2900000000.0 0.3243321437537997 0.5008286582809363
2920000000.0 0.389017349398353 -0.42559379474265624
2940000000.0 -0.40730317652210246 -0.37738629509524907
2960000000.0 -0.4905585170179539 0.213707448917217
2980000000.0 0.27137375642333156 0.43069504437076545
3000000000.0 0.3710112584813601 -0.3114800787485311
3020000000.0 -0.4281561847236899 -0.1601000312470625
3040000000.0 0.09082415608065833 0.42130405945256605
3060000000.0 -0.10275916120169941 -0.3909988590780333
3080000000.0 -0.09410327506504304 0.3668037742667369
3100000000.0 0.12097976377386802 -0.3391600198291506
3120000000.0 -0.17121123575116184 -0.2963619180398307
3140000000.0 0.04174641528260826 0.335527699193343
3160000000.0 0.12417628438845148 -0.31421589024101293
3180000000.0 0.14226071286454758 0.2989064172889619
3200000000.0 0.24649478774376635 -0.20546947129284268
3220000000.0 -0.07160544848076895 -0.3071756078586332
3240000000.0 -0.1348095045171201 -0.2705042412396672
3260000000.0 -0.2080060146904138 -0.19742538299814263
3280000000.0 0.23802142959447184 -0.13725137663648126
3300000000.0 0.25441747672364984 0.01978861237096165
3320000000.0 0.19294114932252765 0.12824344731071752
3340000000.0 -0.17429335892270395 -0.10549532321223157
3360000000.0 -0.07675551133639483 0.1670477854592513
3380000000.0 0.08637490075223228 -0.13764682886535498
3400000000.0 -0.13371008109341095 -0.0622028904572265
3420000000.0 0.11266204388911503 -0.0744936118248042
3440000000.0 0.12067898836013313 -0.0015269272446899408
3460000000.0 -0.030030613405812975 -0.09866490431165598
3480000000.0 0.007621620505960748 -0.08770895665388995
3500000000.0 -0.0738291941442046 -0.01928797385384711
3520000000.0 0.0656638235514804 -0.020956810765920337
3540000000.0 0.05517404649379449 -0.05178078662534458
3560000000.0 -0.08176412059763147 -0.00030028275120640315
3580000000.0 -0.07841558844202279 -0.04310271484630664
3600000000.0 0.06135329276703936 0.07181791106506567
3620000000.0 -0.0186652689730413 -0.0932063729243118
3640000000.0 -0.07756365526568892 0.06282851966165183
3660000000.0 0.06802036757734053 -0.07935683312082288
3680000000.0 0.05422536767497862 -0.09575265387746099
3700000000.0 0.09888478712001131 -0.04399723952851513
3720000000.0 0.03375239130028432 0.09263471342578965
3740000000.0 -0.03959938580507644 0.07697487525916721
3760000000.0 -0.0701788211507095 -0.014788704758157259
3780000000.0 0.01496198812878466 -0.05482332344551332
3800000000.0 0.021542487489835282 -0.04019301235031173
3820000000.0 0.014678498359075632 0.040768027168651584
3840000000.0 0.04576379603015937 0.02817541862821227
3860000000.0 0.06222477060311651 -0.02757815908554569
3880000000.0 0.08065933640031744 0.038102948360427984
3900000000.0 0.008045820136389211 0.10220490559525804
3920000000.0 -0.10961008436946162 0.01696678587103388
3940000000.0 0.005013323195463454 0.1135772057611073
3960000000.0 -0.07805635170803203 -0.06429536603601237
3980000000.0 -0.04787469110745963 0.07379788456471088
4000000000.0 -0.03190276510244331 -0.0650538615873572
