!Created with skrf (http://scikit-rf.org).
# Hz S RI R 50.0 
!freq ReS11 ImS11
400000000.0 0.7680657840753765 -0.3962133923437066
420000000.0 -0.3162245394941226 0.7444637382545293
440000000.0 -0.23177088916078473 -0.7489737653450268
460000000.0 0.7404688067264243 0.16408278340263388
480000000.0 -0.3445501057929796 -0.6412039065107986
500000000.0 0.6681638768608772 0.06385080564524805
520000000.0 0.004578212343300595 0.5510578955659579
540000000.0 0.2886400028364969 -0.351923515510186
560000000.0 0.1230409453549211 -0.3357396937917578
580000000.0 0.3338836680616977 -0.009035191609489995
600000000.0 0.3333883434093283 0.032365623524211434
620000000.0 -0.29714944827746853 0.204800145771282
640000000.0 -0.3838576926442356 -0.01075716724314592
660000000.0 -0.26866634122206695 -0.31487466167834005
680000000.0 -0.357727281376304 -0.11461375401027729
700000000.0 0.34996316853485987 0.05856233584684272
720000000.0 -0.35488139986287537 -0.05940680061268744
740000000.0 0.21352012539456316 -0.2611497092931287
760000000.0 -0.18763964629641838 -0.23821566176966852
780000000.0 -0.02592744531135228 0.32533237141998245
800000000.0 -0.12167634421804327 0.2790175644147287
820000000.0 -0.22144464562737393 0.18090017280893028
840000000.0 0.10886127461653956 0.24228715635933473
860000000.0 -0.2058886019125649 0.01117331307257225
880000000.0 0.12131398159092728 0.11779052744369445
900000000.0 0.11748385226587238 0.01311607013351828
920000000.0 0.06807974225984506 0.08562493230954236
940000000.0 0.11390597242353148 0.00988814866703627
960000000.0 0.031155275319969127 -0.08660969921944246
980000000.0 -0.06155832706575288 -0.006721845816095931
1000000000.0 -0.016485452992422534 0.04343869068764801
1020000000.0 0.05774838332698 0.005998460273251041
1040000000.0 -0.00035665330852026133 0.09686316030218044
1060000000.0 0.033700246528493086 0.13952591313721674
1080000000.0 -0.04423833823785075 0.16908446092570878
1100000000.0 -0.20178244684086358 -0.011280508544462962
1120000000.0 -0.2205440982766734 0.06636200174673684
1140000000.0 0.17281330367397163 0.19785055761054413
1160000000.0 0.06885790786314788 0.2650484911197424
1180000000.0 -0.2896838082264829 0.01236655471125677
1200000000.0 0.06573446159642268 0.2942623957670828
1220000000.0 -0.28712302901504744 -0.14906218515035408
1240000000.0 -0.26532879891188565 -0.19302778039138108
1260000000.0 -0.010561996015036476 -0.33619308908368495
1280000000.0 0.27802317639894975 -0.18817219130713622
1300000000.0 0.3061048688082152 -0.16426665532562615
1320000000.0 0.08789459865117703 0.3428545750083595
1340000000.0 0.06749277709812398 -0.36309348343612136
1360000000.0 0.30992359772983064 -0.21797785068125644
1380000000.0 -0.18082208194469557 0.3388209007543303
1400000000.0 0.020898029571926605 -0.3884924288753724
1420000000.0 -0.06495340169700622 0.37980901001054346
1440000000.0 0.25135303661531805 0.281250196412598
1460000000.0 0.14666095700600104 -0.3376426859537073
1480000000.0 -0.3522202467737105 0.0855124658035789
1500000000.0 0.29318208558434844 0.15016867066757975
1520000000.0 0.07672323738431847 -0.3036154022294351
1540000000.0 -0.2818023775614793 0.039520593851139
1560000000.0 -0.24390322154379443 -0.05429018328216104
1580000000.0 0.19368192345414534 -0.08584726465459386
1600000000.0 0.004008980954006489 0.18085407588075814
1620000000.0 -0.1266274221881205 0.0651345474903485
1640000000.0 0.10527966733569734 0.05589485551000641
1660000000.0 -0.04553593060916016 -0.08087955038790999
1680000000.0 -0.02353712586010743 0.06802404103207972
1700000000.0 0.02938703796307107 0.046953267244522215
1720000000.0 0.026544953735258992 0.029854448155230136
1740000000.0 -0.05260543514207673 -0.009295362024513303
1760000000.0 0.026139174273471386 -0.07803939150873022
1780000000.0 -0.10863499816266413 0.015456623158047331
1800000000.0 -0.0525708386695534 0.12753114875598504
1820000000.0 -0.10574365737876898 -0.12406738801654293
1840000000.0 0.04683830019211959 -0.1815514590052621
1860000000.0 0.21782135982522957 0.03507430310676956
1880000000.0 0.13920279957831083 -0.20248175346522485
1900000000.0 -0.2569631393611347 -0.05666018284534588
1920000000.0 -0.11317062971170808 0.25785867092550213
1940000000.0 -0.038943365873251715 -0.29308832607519153
1960000000.0 0.12654390380234312 0.27120785642067907
1980000000.0 -0.2729223413644222 -0.12186352635808417
2000000000.0 0.24604986403981738 -0.18309353347489926
2020000000.0 0.2905447199767666 0.08611663080106992
2040000000.0 -0.08622239598558018 0.2914208356746001
2060000000.0 -0.2792025735802826 0.12914955207128306
2080000000.0 -0.3067767191123394 0.02367067793319124
2100000000.0 0.21078202891166506 0.22412935349212312
2120000000.0 -0.2917147016917065 0.09856829811719502
2140000000.0 0.23301169800593122 -0.1973656363834095
2160000000.0 -0.2859806784048223 0.0742598338884345
2180000000.0 -0.18491514205244922 0.2135456242190185
2200000000.0 -0.24621158227623455 -0.14073732825818897
2220000000.0 -0.24781929286468501 -0.13687573408037856
2240000000.0 -0.07342427725756807 -0.2695822787186013
2260000000.0 0.024036684783533078 -0.2739874084798286
2280000000.0 0.1128909306730452 -0.23654166832083645
2300000000.0 0.23489654774583554 0.08415941339657126
2320000000.0 -0.1853837948611671 0.1577354498336788
2340000000.0 -0.07598661790399946 -0.22414652148275555
2360000000.0 0.18488697960941505 0.1329800332746597
2380000000.0 -0.15861238970275962 -0.16733045028274268
2400000000.0 0.23349369434349784 0.04805778742932491
2420000000.0 0.1924337508576757 0.17900150261505737
2440000000.0 0.2838729550107049 -0.04656002832759098
2460000000.0 -0.18440322325613923 -0.2663174894447529
2480000000.0 -0.12646235666133193 0.3362846380417408
2500000000.0 -0.2580162612274925 -0.30691527097325166
2520000000.0 0.3720969398931958 -0.23699939940103876
2540000000.0 0.3017267522887454 0.37678327160675956
2560000000.0 -0.5114606945647144 0.07354490029390193
2580000000.0 0.2549047546077244 -0.4879874151904833
2600000000.0 0.17063865901882327 0.5504889567162196
2620000000.0 -0.3706223667670244 -0.47726632274222325
2640000000.0 0.6052024437831435 0.14417577355173988
2660000000.0 -0.43793777345607005 0.46608339939897625
2680000000.0 -0.38494114980617883 -0.5237386705406691
2700000000.0 0.3928607103086834 -0.5300360688401226
2720000000.0 0.6396421970554773 -0.18286817110397185
2740000000.0 0.6704626566454145 0.0055305096244374135
2760000000.0 0.6693961679995205 -0.059719844750814204
2780000000.0 -0.035057999575488136 0.6680459768395927
2800000000.0 -0.2337541354140955 0.619306839034437
2820000000.0 -0.5870640920967373 0.28343018585701263
2840000000.0 -0.3698987286312075 -0.5231594416257566
2860000000.0 0.6133746128019375 0.13558162946597216
2880000000.0 -0.6039925655618523 -0.1001471161229242
2900000000.0 0.3393201292585977 0.4904402622344664
2920000000.0 0.3941970289371879 -0.420821474449743
2940000000.0 -0.45968893990788556 -0.3071535408986808
2960000000.0 -0.4971370021556309 0.18689868879305985
2980000000.0 0.04984728422774016 0.5044776991631332
3000000000.0 0.4791513973529203 0.07965856432964835
3020000000.0 -0.26652676336379033 -0.37681613871832625
3040000000.0 0.13560540718829292 0.4093350081386036
3060000000.0 0.011250799585661938 -0.4032566185828495
3080000000.0 -0.2563824700431128 0.2815663772957321
3100000000.0 0.24529942457973394 -0.26606728571866867
3120000000.0 0.06228747523751928 -0.3406921102083083
3140000000.0 0.07560360909374966 0.33402261177768156
3160000000.0 -0.08990234079438392 -0.32668857482194635
3180000000.0 0.16540212426774603 0.28727283292587213
3200000000.0 0.2762344367046912 -0.16697527583531493
3220000000.0 -0.2862528411243882 -0.13047518629929494
3240000000.0 -0.2131510841977572 -0.21249485052603456
3260000000.0 -0.2799385858337503 -0.07643638303507858
3280000000.0 0.09551511027135969 -0.25681164697748965
3300000000.0 0.20469819052270788 -0.15379472499491317
3320000000.0 0.22634770228446371 0.0451266343668536
3340000000.0 -0.20109834803405657 -0.016219382620971924
3360000000.0 -0.1722943046684759 0.05472976265408741
3380000000.0 0.16348179601048152 -0.02221223276687499
3400000000.0 -0.1456239274269069 -0.0132659985448606
3420000000.0 0.05857098177753765 0.1204054936865206
3440000000.0 0.05826775241974782 0.10520864348724014
3460000000.0 0.09135249886873291 -0.0400288456391928
3480000000.0 -0.0730525836988482 0.048754264291279076
3500000000.0 0.01290151332438772 -0.07660822012237867
3520000000.0 0.06366568932921102 -0.03555688679307302
3540000000.0 -0.055398317559842314 0.05506866153007398
3560000000.0 0.04859813891873837 -0.06898622898258812
3580000000.0 0.06892976589888061 0.05892796256934911
3600000000.0 -0.056507918563455155 -0.07226207400565902
3620000000.0 -0.08278265947262528 -0.054909758734726595
3640000000.0 0.09952081536313946 0.02399560575919985
3660000000.0 0.008695145189410475 -0.1024705107635659
3680000000.0 0.10562378615033545 0.03845197335785408
3700000000.0 0.1034280761670035 0.0463518851149313
3720000000.0 0.0853595541328268 -0.05188497376719963
3740000000.0 -0.0035918682895617004 0.08580435851508217
3760000000.0 0.06096351313594465 -0.030019786361704395
3780000000.0 0.033877762316115556 0.04809807789870352
3800000000.0 -0.054084911862617095 0.00036804859795413873
3820000000.0 0.027282148396214304 -0.04162502463961076
3840000000.0 0.043459163490627464 -0.030493007381926732
3860000000.0 0.04731317927779598 -0.041730147753712664
3880000000.0 0.055368891522320475 0.06590537298852955
3900000000.0 -0.09919500836531342 -0.03249298133991432
3920000000.0 -0.05042827320083573 0.10291112787688543
3940000000.0 0.05189305247333994 0.10247889939489666
3960000000.0 -0.0033621918416378133 -0.09962915210252024
3980000000.0 0.018496193326531435 -0.0893737098002114
4000000000.0 0.043945021521219985 -0.060210581257503226
