!Created with skrf (http://scikit-rf.org).
# Hz S RI R 50.0 
!freq ReS11 ImS11
400000000.0 0.7846725206783066 -0.37096492500360917
420000000.0 -0.3566543846886802 0.7259417504210567
440000000.0 -0.40247818039681876 -0.6770515115826067
460000000.0 0.3725793320085193 0.6588819276810689
480000000.0 0.1965838805219236 -0.7171860012895084
500000000.0 0.4272119671987487 -0.543644211593621
520000000.0 0.5578744770361649 -0.07639088837756239
540000000.0 -0.24685680459848286 -0.3790626009716527
560000000.0 -0.0024278155139256016 -0.3687032068431395
580000000.0 -0.31404812499330237 0.13670978921471263
600000000.0 0.23525265331462641 -0.26833541190309723
620000000.0 0.20853708294143372 -0.2542141404800442
640000000.0 -0.05217491712354474 0.367031926355933
660000000.0 -0.3971371555008303 -0.0239381966583675
680000000.0 -0.36021923865517064 -0.05282321014164951
700000000.0 0.21834049853875287 -0.26076312870211893
720000000.0 0.05627484864535825 -0.3455401694677661
740000000.0 0.04215033686240362 0.33305281058917774
760000000.0 -0.22218183212316372 -0.21499706787099288
780000000.0 0.32626871628452153 -0.01900559285354889
800000000.0 0.196138383462534 -0.21604229680846934
820000000.0 -0.26209161079635773 0.07825954753152103
840000000.0 -0.1381814373137443 0.21463858221721227
860000000.0 0.1796556366713719 -0.10252811289849012
880000000.0 0.04549073526517121 -0.16001400158547677
900000000.0 -0.03646362021336086 0.11060726814447715
920000000.0 0.0947860500351903 0.03513224675574575
940000000.0 -0.09990700496850984 0.052811435808098633
960000000.0 0.08196004223974927 -0.0030566927921232712
980000000.0 -0.052465330522084755 -0.0010123646775945
1000000000.0 -0.002225574394553969 -0.048175229857011864
1020000000.0 -0.04669689913245223 -0.046494643972025955
1040000000.0 -0.10172096369153438 0.012140882568416368
1060000000.0 -0.06476807086596022 -0.11656875650426618
1080000000.0 0.010295306256099609 -0.16469668334435128
1100000000.0 -0.14546267602305202 -0.14151042841843295
1120000000.0 -0.12190415156993288 -0.19912666797132328
1140000000.0 0.22633874189079756 -0.12942357559647696
1160000000.0 -0.05068393337962336 0.2703904887723586
1180000000.0 -0.25324507150135966 -0.14229283600621992
1200000000.0 0.12418594867437463 0.2777268980619911
1220000000.0 -0.30939691945058967 0.09642102572872181
1240000000.0 -0.3243423404207495 -0.035923260229625255
1260000000.0 -0.29323021267916 -0.15928907603831816
1280000000.0 0.057649899953194216 -0.3267094352104177
1300000000.0 0.22442172359465956 -0.2567222879056737
1320000000.0 -0.16596257791246338 0.3055920067342918
1340000000.0 0.2869240862478985 -0.23185491513967776
1360000000.0 0.37722009711965826 -0.03753471979472876
1380000000.0 -0.20426126395259755 0.32843333038534644
1400000000.0 0.1724206288319733 -0.352380223442944
1420000000.0 0.044875242999503254 0.38379415497402775
1440000000.0 0.3721495455330932 0.004848110167943161
1460000000.0 0.12902076102044208 -0.338785977345979
1480000000.0 -0.2689752841515561 -0.23855702332256454
1500000000.0 0.12317418690376496 0.3059093844464115
1520000000.0 0.19912546686877555 -0.23672168131367616
1540000000.0 -0.11447259394097552 -0.2638294231377122
1560000000.0 0.06143455874898783 -0.24667171614268052
1580000000.0 0.19374924140680327 -0.10098107746583009
1600000000.0 0.18761133259949855 -0.02166290963367572
1620000000.0 0.13207051758709643 0.05553511627476972
1640000000.0 0.1161625539499587 0.0033888819476697593
1660000000.0 -0.08038859807148727 -0.041495618733941454
1680000000.0 0.05397034006125411 -0.03830185477521105
1700000000.0 -0.03130824225755742 0.052877946783626055
1720000000.0 0.007155584731786652 0.05140269935213552
1740000000.0 -0.032243455011000156 -0.037382902667712097
1760000000.0 -0.062491401487319485 -0.016358241203783864
1780000000.0 -0.07703464369975548 0.06236973621624874
1800000000.0 0.023447909189888705 0.13644878276371267
1820000000.0 0.11525723341498904 -0.12252849865029364
1840000000.0 0.170150658211664 -0.10146975669731009
1860000000.0 -0.011702215553463062 -0.23012555126541284
1880000000.0 -0.24061782868206333 0.019327371122585184
1900000000.0 -0.1382883934186157 0.21859274081283672
1920000000.0 -0.12137485232553791 0.24650399171705703
1940000000.0 0.25514711587154676 -0.1317190996576829
1960000000.0 -0.27262248550386237 -0.11825882326162088
1980000000.0 0.30099027637796055 -0.05902383978721315
2000000000.0 0.3184997695416328 0.00038313213242891614
2020000000.0 0.25905283050448746 -0.17396876956057067
2040000000.0 0.22169851767147203 0.21244676344145358
2060000000.0 0.011309134817664785 0.307030690985644
2080000000.0 -0.2901084033057731 0.093244717714541
2100000000.0 0.12698075673482878 0.2787600143773031
2120000000.0 -0.29853524843687246 0.07849037392128017
2140000000.0 0.1894986170246963 -0.23771412755856752
2160000000.0 -0.2930565190431589 0.032151507876610565
2180000000.0 -0.28323329128873403 -0.022349435096817742
2200000000.0 -0.273332439570976 -0.0885210464350866
2220000000.0 -0.27706043604972214 -0.0712311850859367
2240000000.0 -0.2823900619926219 0.0038181129572272
2260000000.0 -0.2596791706573467 -0.07747006864332441
2280000000.0 0.17560478152539838 -0.18419797695593823
2300000000.0 -0.055116225156955516 0.24279439897531632
2320000000.0 -0.18726263572342655 0.15895805986486702
2340000000.0 -0.2276779321779938 -0.06968513331462306
2360000000.0 0.2178250013187162 -0.04359299030323113
2380000000.0 0.039596324448890156 -0.2214612058666634
2400000000.0 0.02805524792307941 0.23801286627027196
2420000000.0 0.20389525469767336 0.17181426887054208
2440000000.0 0.2887542260250412 -0.03318855887057094
2460000000.0 -0.2760561970721468 -0.16667641815010734
2480000000.0 -0.20807456516426626 0.2940740605050095
2500000000.0 -0.18834707451967878 -0.3546658289352291
2520000000.0 0.40220515754734093 -0.18770026096661035
2540000000.0 0.24376205280531404 0.4197397959339167
2560000000.0 -0.5193635575793786 0.0011486088544866817
2580000000.0 0.190009064004875 -0.5177652868073144
2600000000.0 0.17632172952486275 0.5500559468830182
2620000000.0 -0.47080780679263073 -0.377100950756122
2640000000.0 0.6188316750208332 0.03843035716841365
2660000000.0 -0.4687145480397163 0.4328053106395518
2680000000.0 -0.30504420914525454 -0.5751387445323931
2700000000.0 0.3640282462588645 -0.5522253522526877
2720000000.0 0.6197649003360362 -0.24834473839755894
2740000000.0 0.6641108580642446 -0.10662129759783955
2760000000.0 0.6730098673062215 -0.042953070455603745
2780000000.0 -0.12042256255578111 0.6597820385600355
2800000000.0 -0.2434100473058414 0.6166838578690295
2820000000.0 -0.5698266001950083 0.31660109480792925
2840000000.0 -0.4011957422005469 -0.4995709159514638
2860000000.0 0.6240254180020834 0.06497778832187175
2880000000.0 -0.5951409251803653 -0.14332565089602115
2900000000.0 0.31361548872117034 0.5070820847915664
2920000000.0 0.38248225425791466 -0.4338530359988397
2940000000.0 -0.48079291448487427 -0.2799533714233237
2960000000.0 -0.43460336828599755 0.3114058371206046
2980000000.0 0.3155044313891148 0.4007046640413706
3000000000.0 0.43174667233226793 -0.21936895111917173
3020000000.0 -0.4037416095257707 -0.22022045294690465
3040000000.0 0.22377384379046097 0.3710316016001917
3060000000.0 -0.03953039910921966 -0.4004990691180344
3080000000.0 -0.1557439122091414 0.34609414890139273
3100000000.0 0.16843455798911416 -0.3194739521629699
3120000000.0 -0.1185046924574331 -0.3209078192885007
3140000000.0 0.08631464109294375 0.3262933901980059
3160000000.0 -0.029782210862639616 -0.3341030995479221
3180000000.0 -0.015226841512563448 0.32805312793015634
3200000000.0 0.3154005447615116 0.06334403126616718
3220000000.0 -0.21578234160367252 -0.23571044485992182
3240000000.0 -0.283692977072038 -0.10789235156790229
3260000000.0 -0.28717251185472537 -0.024582242381826217
3280000000.0 0.0447732595022325 -0.2678835507981516
3300000000.0 0.21050064002483962 0.13932685933178532
3320000000.0 -0.10851509762095413 0.20815298695466927
3340000000.0 -0.20761638898601603 0.012874989045012532
3360000000.0 -0.03479648019334753 0.17949719598588185
3380000000.0 0.10735271368639983 -0.12467797121945466
3400000000.0 -0.1371729989476058 -0.05542443266361286
3420000000.0 0.13416816142946 -0.011617235934390227
3440000000.0 0.11079637790500757 0.04431781380255295
3460000000.0 -0.04302688264219116 -0.09182764694681649
3480000000.0 0.0845184977523629 -0.02485975090675109
3500000000.0 -0.07036461369389822 0.02685622686527436
3520000000.0 0.06716980208106603 0.00574053620360067
3540000000.0 0.013435064763711861 -0.0716599644484753
3560000000.0 -0.03592524188659201 -0.07142011912547702
3580000000.0 0.0843558205858489 -0.03803159718280013
3600000000.0 0.08552495871256162 0.04648254873709649
3620000000.0 -0.08002528022218498 0.05943325568157653
3640000000.0 0.10003520599408526 -0.017824046405276194
3660000000.0 -0.08778702707417345 -0.046719472455825826
3680000000.0 0.0823943729457825 0.06721935094544221
3700000000.0 -0.10239234705010206 0.04205449939705554
3720000000.0 -0.030872515207409197 0.09943583619268002
3740000000.0 0.08026096561982025 -0.04468194989230256
3760000000.0 0.05842631639006305 -0.03793159934414295
3780000000.0 0.04868742991659777 -0.01781097523404205
3800000000.0 0.04245436555350581 -0.020343119082306505
3820000000.0 -0.04548723060634113 0.01868847379593948
3840000000.0 -0.05170841245319652 0.0209838887422204
3860000000.0 -0.01132193557737642 -0.062348578035269754
3880000000.0 -0.01182101764278208 0.08576173329944688
3900000000.0 -0.09505903001503915 -0.04671385506018985
3920000000.0 -0.07290094644478264 0.09192691139567524
3940000000.0 0.1153356261035361 0.015565506249119633
3960000000.0 -0.09372418240104238 0.03646474844080692
3980000000.0 -0.0834547295862199 0.029465246416384
4000000000.0 -0.07348664776316638 -0.004791464137377997
