!Created with skrf (http://scikit-rf.org).
# Hz S RI R 50.0 
!freq ReS11 ImS11
400000000.0 0.6507149649087444 -0.5714569879635715
420000000.0 -0.5392203394257505 0.5973719481033166
440000000.0 0.2429932829956982 -0.7406772374358646
460000000.0 -0.4117800194189342 0.6445821539555074
480000000.0 0.5311822004536281 -0.5244609546414232
500000000.0 0.6636929286585824 0.19361936665906598
520000000.0 -0.264679895395815 0.4939670725819461
540000000.0 0.32550490719175057 -0.33073275026417387
560000000.0 0.10268314087692994 -0.3581200094350748
580000000.0 0.22620506811949612 -0.2634150491653525
600000000.0 -0.33232930610020034 0.0567674698821093
620000000.0 -0.3604827889963803 0.016036145757665283
640000000.0 0.08470393458080576 0.38073196492978145
660000000.0 -0.16569956712675288 -0.36613457666364274
680000000.0 0.22669052369425652 -0.3170956880026441
700000000.0 0.2563328058559507 -0.27557763704649696
720000000.0 -0.33764060251115896 0.15490850201445064
740000000.0 -0.09009864220789818 -0.3476403595481444
760000000.0 0.21617827003376047 -0.23388081880958864
780000000.0 -0.12623992576691528 0.2953199870807936
800000000.0 -0.18128690712470752 -0.2269294437619619
820000000.0 0.1643107781388514 -0.2052628870192643
840000000.0 0.0393551640187661 -0.23586524600819814
860000000.0 -0.19206051284314254 0.018917766555273594
880000000.0 0.0983143048625409 -0.11375731470962587
900000000.0 -0.0631766088346382 -0.0908934834322115
920000000.0 -0.022749687278017752 -0.11352564312481876
940000000.0 -0.003777552211168491 0.11719378230619852
960000000.0 -0.015434879281030826 -0.08150777067508459
980000000.0 0.0551572353048786 0.002205060023464688
1000000000.0 -0.01271365266483203 0.03625924029476296
1020000000.0 0.05399576515067975 -0.018542022504149835
1040000000.0 -0.1000803085596785 -0.023724701027498272
1060000000.0 -0.048120383051619225 -0.13347719144201056
1080000000.0 0.0010363477183354386 0.16747487377706746
1100000000.0 -0.2009239864307472 0.052088155327548104
1120000000.0 0.09757936044091005 0.21269700682510886
1140000000.0 0.0816737182312861 -0.23769524369513914
1160000000.0 -0.15517071579975003 0.20570541518065574
1180000000.0 0.14168606382137755 0.2517386987451649
1200000000.0 -0.19782587915177832 0.23641097424691787
1220000000.0 -0.25700670564697387 -0.19234391111066268
1240000000.0 -0.14958074500357324 -0.2917708380465026
1260000000.0 0.2616090422410588 -0.22077603136720655
1280000000.0 0.1832983681193599 -0.2934056513578089
1300000000.0 -0.15786190037726544 -0.3126199076154421
1320000000.0 0.34432852158279925 0.06945739566660734
1340000000.0 0.03366651532584593 -0.3610511247623195
1360000000.0 0.3744984163367934 -0.05630719160099554
1380000000.0 -0.20753181493124184 0.32302044690254
1400000000.0 0.2742246132351105 -0.2782262948294725
1420000000.0 -0.1870268094973904 0.33913747198917354
1440000000.0 0.2998101730764952 0.23551992784840076
1460000000.0 0.06650228809085781 -0.36419354739993637
1480000000.0 -0.1732536608495412 0.3209225996526271
1500000000.0 0.3067665410404618 -0.12306047401749462
1520000000.0 -0.22906327027871512 -0.1978153802299764
1540000000.0 -0.11189731557718281 -0.24830314493311345
1560000000.0 0.24476111912344273 0.03695917670517296
1580000000.0 -0.15569267728949482 0.15128518401159197
1600000000.0 -0.1723311051987228 0.08668836945076318
1620000000.0 -0.04571632139491689 0.14728072655344956
1640000000.0 -0.028301126898869808 0.1223598588160771
1660000000.0 -0.0626605505155808 -0.06530531948948579
1680000000.0 -0.05770714405180556 -0.013349538575150921
1700000000.0 -0.028012654205681803 0.03899499829964891
1720000000.0 0.046180478627241006 0.004194251618949366
1740000000.0 -0.027477808653357746 0.05511709810926439
1760000000.0 -0.02098544368814398 -0.07937273490104353
1780000000.0 0.08880207579976007 0.04889374514715461
1800000000.0 -0.053834667315240746 -0.11609299924094338
1820000000.0 0.15843944803978352 -0.005331443256430843
1840000000.0 -0.030589356746612294 0.18981754211773877
1860000000.0 0.03186239884681404 0.228566193841979
1880000000.0 0.09836995390073115 -0.23351786312888315
1900000000.0 -0.15146629085971744 0.22804264591291068
1920000000.0 0.1776984469228038 -0.22146421979691777
1940000000.0 -0.248178776187004 0.14377041967994397
1960000000.0 -0.045363106901818086 0.284179750285175
1980000000.0 0.11242678621410815 -0.2726838305659322
2000000000.0 0.27696483300157404 0.13222007638105623
2020000000.0 0.2303714326585423 0.20411361408207448
2040000000.0 -0.048621062596333475 0.30248850531318067
2060000000.0 -0.15033891664900426 0.26912051980176577
2080000000.0 -0.3062774400666839 0.014534025344640154
2100000000.0 0.2554746270991477 0.1742433906543273
2120000000.0 -0.16798920440164586 0.2582637655167962
2140000000.0 -0.0692408210241786 -0.2904263324725764
2160000000.0 -0.2836281193392612 -0.05503274604489501
2180000000.0 -0.27230169366302037 -0.07117452403456064
2200000000.0 0.0562532208237172 -0.2754870460995339
2220000000.0 0.20602916672310412 -0.19834673022281163
2240000000.0 0.11398313708511151 -0.26414966137451856
2260000000.0 -0.19970531615019746 -0.20018249391009918
2280000000.0 -0.11679693569527003 -0.24020122838703076
2300000000.0 0.17767560391619985 -0.1779706121712774
2320000000.0 0.11575003089941385 0.21047294729845903
2340000000.0 -0.21767435243208824 -0.08231314003037518
2360000000.0 0.17509405065435488 0.1358978413320769
2380000000.0 0.1530907961067899 -0.16849537891187347
2400000000.0 0.04335533512028476 0.24045729632734453
2420000000.0 0.2545988724823453 -0.08302426852351169
2440000000.0 0.22912121712428749 -0.173381905567465
2460000000.0 -0.3075797009184294 -0.09565057898244163
2480000000.0 -0.0910796289118342 0.3447965617644031
2500000000.0 -0.1315087244517689 -0.375097915648645
2520000000.0 0.4385685241260257 0.041980088215173565
2540000000.0 0.027831307889850568 0.48597225757456364
2560000000.0 -0.5200972079588484 -0.029413984761198313
2580000000.0 0.22152204660969652 -0.5087307101734184
2600000000.0 0.27957107876947634 0.506114710236111
2620000000.0 -0.47294392325615126 -0.376187473395209
2640000000.0 0.6204448535139871 0.001022999792981994
2660000000.0 -0.42001171969932416 0.480438820686735
2680000000.0 -0.41854803518997075 -0.4972761768521139
2700000000.0 0.3064930636521139 -0.5844980763903991
2720000000.0 0.61959836117364 -0.24288095841954307
2740000000.0 0.6679373181195674 -0.07208760597960197
2760000000.0 0.6725710115005066 -0.04478803687961028
2780000000.0 -0.05121857715897948 0.668152220680228
2800000000.0 -0.22914076854066118 0.62162207394292
2820000000.0 -0.5585232174642998 0.33557916012248157
2840000000.0 -0.3839401387718076 -0.512685087223113
2860000000.0 0.6241172105096106 0.05996754016859954
2880000000.0 -0.6033059814593926 -0.09663570879048661
2900000000.0 0.3557198766469317 0.47569766874183095
2920000000.0 0.3565745309135444 -0.4504459006574547
2940000000.0 -0.38401906078181663 -0.3952483694478823
2960000000.0 -0.5306654941905429 0.007107248501650267
2980000000.0 0.0523919104570881 0.5062165593438109
3000000000.0 0.47538055036891425 0.11147804893182517
3020000000.0 -0.27979136731480125 -0.37235301533822385
3040000000.0 0.25992700075705477 0.34894030081239286
3060000000.0 0.06835470794993356 -0.3995833658319298
3080000000.0 -0.1949822690444621 0.3288152545639317
3100000000.0 0.15678454622808655 -0.3275136906079779
3120000000.0 -0.11446502158802674 -0.3288665722441739
3140000000.0 0.10727115067558257 0.3232584968724116
3160000000.0 -0.13551257259006091 -0.3082695163977022
3180000000.0 0.06996294925207971 0.3216149366605711
3200000000.0 0.31690883597728214 -0.06267252913538766
3220000000.0 -0.2108735564675101 -0.23833078389723025
3240000000.0 -0.29449039364309465 -0.07946661418239978
3260000000.0 -0.21644598500684312 0.19230332989894006
3280000000.0 -0.07992934359593386 -0.2583096718797432
3300000000.0 0.21340117410032416 -0.13072377459218398
3320000000.0 0.09242731306954655 0.20823218999461168
3340000000.0 -0.023973795506815845 -0.2026495617483573
3360000000.0 -0.15557846407388548 0.09752318188339822
3380000000.0 0.1620725731321774 0.029501065195451013
3400000000.0 -0.15031455295188736 -0.0089962702420458
3420000000.0 0.09643322424833081 -0.09375543317639369
3440000000.0 0.08780038587742954 0.07933256679247762
3460000000.0 0.09421341754084603 -0.024141774126858088
3480000000.0 -0.08479768089053179 -0.019754925181669197
3500000000.0 -0.0024146949392091096 0.07934610894137133
3520000000.0 -0.012963187037798933 0.07562219628072323
3540000000.0 -0.030160159800617134 0.07588196807256103
3560000000.0 0.08467379688578903 -0.01803054686953463
3580000000.0 0.028190180061511562 0.08681724821936834
3600000000.0 -0.09538302813020125 0.00384800292424243
3620000000.0 -0.0867479912916193 0.04249002059115722
3640000000.0 0.0873769443709082 -0.048499926706589674
3660000000.0 -0.08320205581204872 -0.05323786714105433
3680000000.0 0.05810015086223244 -0.08721253560875847
3700000000.0 -0.07441865448580638 0.07608998712712012
3720000000.0 -0.07190823850781097 0.07087817421632046
3740000000.0 -0.03623336547290527 0.08066736987274101
3760000000.0 -0.05360265053285555 -0.041351314816997956
3780000000.0 -0.020302592385646318 -0.054130266447641955
3800000000.0 0.03008134705548787 0.04354150982158689
3820000000.0 0.016957790209226935 -0.04269616463048523
3840000000.0 0.023782557402733186 0.04830064635750949
3860000000.0 -0.03314343239060647 -0.052002757613777956
3880000000.0 0.015066222573139455 0.08576840522025331
3900000000.0 -0.07000245518732504 0.07612871730671569
3920000000.0 -0.10952459235799585 0.02079306864368958
3940000000.0 -0.04441535382442915 0.1056074052084236
3960000000.0 0.05894000845353031 -0.0801196351342893
3980000000.0 0.039775222867726556 -0.08343710536498392
4000000000.0 -0.01772630421701741 -0.07482982616655781
