!Created with skrf (http://scikit-rf.org).
# Hz S RI R 50.0 
!freq ReS11 ImS11
400000000.0 0.7979138500087656 -0.3327687819629363
420000000.0 -0.15813051947589202 0.7929763005515128
440000000.0 -0.2952416307664647 -0.7232637982829764
460000000.0 0.6430739047538252 0.4015329862542156
480000000.0 -0.3653042528578339 -0.6308586555843357
500000000.0 0.6708260191235778 -0.06738920294150871
520000000.0 0.2727476955673452 0.47251176170631304
540000000.0 0.405921601427038 -0.1955504431857834
560000000.0 0.23343571856345643 -0.28153457490561584
580000000.0 0.11882073801513429 -0.30858112892296324
600000000.0 0.1642974745057702 0.289819288797884
620000000.0 -0.29575539293130865 0.2280883558205568
640000000.0 -0.38054712469720736 -0.01497927800681148
660000000.0 -0.23233451383690598 -0.336157004397781
680000000.0 -0.24388870998139445 -0.28904313572951995
700000000.0 0.3296139846357579 -0.13909635053443137
720000000.0 -0.3034006728431214 -0.1852005410494229
740000000.0 0.32906748972307553 0.07769629379331225
760000000.0 -0.25293775159976983 -0.16697462306802285
780000000.0 0.11610943801527855 0.30106407767240223
800000000.0 -0.3020309558745563 -0.027263249626215808
820000000.0 -0.2512690989737075 0.14506610668968367
840000000.0 0.24539408988730219 0.08471698838817783
860000000.0 -0.16384412097367404 -0.1331322411231057
880000000.0 0.021687441549064494 -0.1639359081225529
900000000.0 -0.09546005426673303 0.07045544537349642
920000000.0 0.10659571859759853 0.045273029853911975
940000000.0 -0.016811908458131224 -0.11700443124382609
960000000.0 -0.02175384285834047 -0.08482941045262747
980000000.0 -0.04996991141943372 -0.0263500963122009
1000000000.0 -0.04983955641229669 -0.003712343121569864
1020000000.0 -0.06599964496281512 -0.01399652375646329
1040000000.0 0.009351653692226618 -0.09958902435718595
1060000000.0 0.13906296056929154 -0.017567694385380306
1080000000.0 -0.1566491239440826 -0.07728279632945803
1100000000.0 -0.19482705940819411 0.055148969174681144
1120000000.0 -0.11191878086032302 -0.2004800116979865
1140000000.0 0.2658006396435952 0.0032314746780483573
1160000000.0 0.2082721525399638 0.1750618439230927
1180000000.0 -0.155831548687805 -0.23964125378961618
1200000000.0 -0.026035515374435894 0.3041241247425288
1220000000.0 -0.32163794315126476 0.047331716835740056
1240000000.0 -0.30337705203452003 -0.11538885433484485
1260000000.0 0.05273589752319016 -0.3329413064892555
1280000000.0 0.2329337483876639 -0.24580558260296184
1300000000.0 0.3124543184969832 -0.1509273224646589
1320000000.0 0.14768185457405303 0.32276810953163404
1340000000.0 -0.12977171183487635 -0.3453146984480691
1360000000.0 0.29831498360620584 -0.22963462090121373
1380000000.0 -0.3014886845334727 0.23885444090496924
1400000000.0 0.025036787590622233 -0.38807075913766054
1420000000.0 -0.1768095769582432 0.3406762222521652
1440000000.0 0.2985769478825228 0.2288342857862242
1460000000.0 0.22030430305849197 -0.2959383431133648
1480000000.0 -0.36291537937111723 -0.02932962817887609
1500000000.0 0.3288402214343826 0.04340736680675103
1520000000.0 -0.04366787550321106 -0.30944265405309435
1540000000.0 -0.281870409344711 -0.024514737345203326
1560000000.0 -0.1822527350342723 -0.1767669593041443
1580000000.0 0.11640164942992165 -0.1788682328508176
1600000000.0 0.018627880856207715 0.17772290676693364
1620000000.0 -0.11977800113649116 0.07494497495440669
1640000000.0 -0.05712057929668197 0.10328567138666808
1660000000.0 -0.01380510794507202 -0.09527393180002332
1680000000.0 0.05231463013257496 -0.04616342283003638
1700000000.0 0.004185196729545077 -0.05312294917323273
1720000000.0 0.028864532275817693 0.029982542648953683
1740000000.0 0.031789114947702306 0.041409989764269385
1760000000.0 0.08053593936612868 0.000386463233220014
1780000000.0 -0.10199157704368528 0.04219793279515692
1800000000.0 -0.01633288969525876 0.13792747887688736
1820000000.0 -0.15890840125140895 -0.019357485464614348
1840000000.0 0.12018821458790889 -0.14358741313972678
1860000000.0 0.2184832461971277 -0.04561212294528971
1880000000.0 0.08391505077834005 -0.2280937850213469
1900000000.0 -0.24341390940406357 -0.09904079101821535
1920000000.0 -0.07693384274400701 0.27205198315262535
1940000000.0 -0.030939764903499898 -0.2944136716984344
1960000000.0 0.05360973559048966 0.29516389730061265
1980000000.0 -0.25061679951450966 -0.16287474137364377
2000000000.0 0.286067213158781 -0.1066476857224373
2020000000.0 0.2661412499766114 0.14691693023453642
2040000000.0 -0.12899717265067612 0.27537255090204604
2060000000.0 -0.28419743390631735 0.11765946472761349
2080000000.0 -0.30729255740583694 0.0002774365358673431
2100000000.0 0.16754328019954004 0.2579000427413993
2120000000.0 -0.2976517336407276 0.08386189758192993
2140000000.0 0.21149374083675807 -0.22067690838960718
2160000000.0 -0.29336951324933264 0.04026707883575004
2180000000.0 -0.1478761518541709 0.24251982120823753
2200000000.0 -0.26395459403159005 -0.09772912007369641
2220000000.0 -0.15107176926353413 -0.2385722705718183
2240000000.0 -0.1092018222699542 -0.26012494817992904
2260000000.0 -0.06009819149648555 -0.26696401731717284
2280000000.0 0.15875904723662687 -0.2071280942742434
2300000000.0 0.14411751990548638 0.20283019630663696
2320000000.0 -0.1839154264155487 0.16134452552517647
2340000000.0 -0.18972309511002142 -0.14045565221812523
2360000000.0 0.1812597359493935 0.136976863602303
2380000000.0 -0.13322766042011452 -0.18895988678012238
2400000000.0 0.23909533400823393 -0.014121115147082808
2420000000.0 0.2414467424646508 0.10475724959564056
2440000000.0 0.2787719131101348 -0.06996450494475726
2460000000.0 -0.2019605173770706 -0.2535970887133722
2480000000.0 -0.10275232581052408 0.34508515233103226
2500000000.0 -0.2688284429856101 -0.2984683444208444
2520000000.0 0.3756965995199665 -0.2344355604449716
2540000000.0 0.2802779329004367 0.39382260477242237
2560000000.0 -0.5157643424906275 0.04488289530967164
2580000000.0 0.25850279685046296 -0.4863030761251011
2600000000.0 0.1908785304871362 0.5442382876877225
2620000000.0 -0.36998613555383175 -0.4773018748397048
2640000000.0 0.6151378898082356 0.09168983012236478
2660000000.0 -0.41413671308961075 0.4859064062044883
2680000000.0 -0.4148903253791543 -0.49980816847439063
2700000000.0 0.3472390978659546 -0.5608905613423573
2720000000.0 0.633161197156871 -0.20429266295542084
2740000000.0 0.6560917178245962 -0.13755506214687127
2760000000.0 0.6453369376876444 -0.1883381043520318
2780000000.0 0.0019401778043519288 0.6685312604420464
2800000000.0 -0.14431128313591113 0.6462224560962947
2820000000.0 -0.545676713120382 0.3558990382237332
2840000000.0 -0.3912927081858274 -0.5076219526036846
2860000000.0 0.6229695839567094 0.07733069266459265
2880000000.0 -0.6079226064892786 -0.06673227680834201
2900000000.0 0.3551593880015234 0.4780241250507021
2920000000.0 0.33595281635216073 -0.4685012322538689
2940000000.0 -0.4768536652065401 -0.27915897396504397
2960000000.0 -0.49911751195736154 0.17748382452248057
2980000000.0 0.06511960442511244 0.5015325706010597
3000000000.0 0.48435391460370575 0.01197292313341863
3020000000.0 -0.3028868232489435 -0.3471457466977549
3040000000.0 0.1128661819591546 0.41683155434195274
3060000000.0 0.01088448678966054 -0.40244829287344913
3080000000.0 -0.2249705175690144 0.3055361269861242
3100000000.0 0.26887604355506606 -0.2405025363815612
3120000000.0 0.002628626697460189 -0.34657808847828026
3140000000.0 0.07685925768225554 0.33337313010205044
3160000000.0 -0.1248325175204568 -0.31543212655981767
3180000000.0 0.12040106600860508 0.30867453652872
3200000000.0 0.258504273804106 -0.1933081264009196
3220000000.0 -0.2664754426494189 -0.16733502008660095
3240000000.0 -0.21974190407890384 -0.20579646404713878
3260000000.0 -0.23357978843332144 -0.16951221210646206
3280000000.0 0.15355570249421505 -0.22818683558076686
3300000000.0 0.1756102480542268 -0.18264150347092267
3320000000.0 0.2285573009583626 0.005417799216614191
3340000000.0 -0.1307455232677723 -0.15452696545084335
3360000000.0 -0.1822755417418156 0.010034476065907221
3380000000.0 0.13176160346251015 -0.09401356491769601
3400000000.0 -0.05798030256958612 -0.13386224262445512
3420000000.0 0.13062359928596354 -0.03647261477993709
3440000000.0 0.09484487911745326 0.07193225380845443
3460000000.0 0.09611563344583035 0.023731284182724934
3480000000.0 -0.03162280035236466 0.08543951671528284
3500000000.0 -0.034865969645516484 -0.06986317428640726
3520000000.0 0.06927393665888952 -0.018250646018357176
3540000000.0 -0.07562921178791675 0.01736543443986985
3560000000.0 0.024909042568728716 0.08018386176922053
3580000000.0 0.06412148411455766 0.06466402903377876
3600000000.0 -0.08504780748507283 -0.03453680048395671
3620000000.0 0.004884512602029311 -0.09448136214298121
3640000000.0 -0.09839484759870488 0.025146378371036896
3660000000.0 -0.04006047736622416 -0.09577494892979546
3680000000.0 0.07906087613186151 -0.07622611834164995
3700000000.0 0.10560353208902118 0.033352496665547175
3720000000.0 0.08924888518392271 0.04481874317601265
3740000000.0 0.05370921198237245 0.06604193076088323
3760000000.0 -0.010399053528699347 -0.06626182594710076
3780000000.0 0.056813355749402855 -0.00554619776251856
3800000000.0 -0.05075330917617057 0.015442313747213977
3820000000.0 -0.00929545171926904 -0.04877468285712773
3840000000.0 -0.043705226900884374 -0.028045852056966705
3860000000.0 0.06248104622151623 -0.003091436630417562
3880000000.0 -0.01139315594273249 0.08568545360107403
3900000000.0 -0.08498038767995078 0.0604004917665302
3920000000.0 0.03014058560902153 0.10862496461577394
3940000000.0 -0.08152609627582744 0.07887134558759053
3960000000.0 -0.03226611755405372 -0.0953609887855628
3980000000.0 -0.04603620559793645 -0.07788574729835726
4000000000.0 0.058371663842824155 0.0472417795168845
