!Created with skrf (http://scikit-rf.org).
# Hz S RI R 50.0 
!freq ReS11 ImS11
400000000.0 0.8008614867365526 -0.3238309247643375
420000000.0 -0.27263723607862084 0.7622713710474097
440000000.0 -0.32582499038907486 -0.7102082298178622
460000000.0 0.7156044570670909 0.253605308805168
480000000.0 -0.33727347093887333 -0.6467373509088654
500000000.0 0.657419037706964 0.14936894903338732
520000000.0 0.3969594542790463 0.3805089748853473
540000000.0 0.33707687703189515 -0.2936633960253994
560000000.0 0.3186725443212505 -0.1821294406666178
580000000.0 0.014404494969177676 -0.3356438637105163
600000000.0 0.26846222196388675 0.19910631952698393
620000000.0 -0.26489036460815285 0.2483623280146324
640000000.0 -0.3603179743640797 -0.1324320648882517
660000000.0 -0.0760539307041452 -0.40382949797105183
680000000.0 -0.36746761961785135 0.09058447279617149
700000000.0 0.35313003729257125 0.018816268131040127
720000000.0 -0.3321739538956476 -0.13852644164474315
740000000.0 0.20224958804055201 -0.26994237037386565
760000000.0 -0.07348885728079993 -0.2934866640773136
780000000.0 0.08288676376875374 0.31508113880429395
800000000.0 -0.20218704904316417 0.22375665562548647
820000000.0 -0.25500995183527214 0.1253631245408505
840000000.0 0.0450432804159414 0.25434590810555613
860000000.0 0.053823095705302255 -0.20114792607782833
880000000.0 -0.09320065885379482 -0.1476001307590056
900000000.0 -0.019873130727393728 -0.11251799408679895
920000000.0 -0.10184892520587431 -0.03173095498807172
940000000.0 -0.11190561213232118 0.053359950431084144
960000000.0 0.002769588159477486 0.099553007474558
980000000.0 -0.03697210821374289 -0.04893516471807869
1000000000.0 -0.03455317611258402 0.03144846977615586
1020000000.0 -0.06073784815565059 0.0021802524973775464
1040000000.0 0.08646159911986524 0.04762237009985954
1060000000.0 0.012226147047803537 0.14146755092406854
1080000000.0 -0.09663344477499096 0.14576798533228003
1100000000.0 -0.17557702213986334 0.10306974509134267
1120000000.0 -0.13835338850141635 -0.18157169988347596
1140000000.0 0.26103674687291023 0.05441846094026282
1160000000.0 0.12915226673981337 0.23743865467687908
1180000000.0 -0.17976066312953812 -0.22429961596221148
1200000000.0 -0.10724679121952599 0.28409338206277024
1220000000.0 -0.30781072292760786 0.11333848218786495
1240000000.0 -0.2548846635048888 -0.19972374284542638
1260000000.0 0.07935717223597025 -0.32668388453182934
1280000000.0 0.16748911999739152 -0.2944555051177252
1300000000.0 0.30958291023642914 -0.15463057026979116
1320000000.0 0.15974433307769392 0.3151087046694033
1340000000.0 -0.13562282784135193 -0.3432509665269683
1360000000.0 0.143900420854146 -0.3474616982823116
1380000000.0 -0.26563219217390843 0.2706774443585416
1400000000.0 0.19843707549444878 -0.3350251466007636
1420000000.0 -0.2762272657168795 0.27354647937969356
1440000000.0 0.37883326908521964 -0.012307121446304864
1460000000.0 0.18356280365324762 -0.3148263882844263
1480000000.0 -0.2912474519819466 -0.21878983446064545
1500000000.0 0.33453120732154007 0.03216206070283942
1520000000.0 -0.19178676706192166 -0.2442672769341007
1540000000.0 -0.2779027258637425 -0.0443649741324212
1560000000.0 -0.18917816201959262 -0.16795158106067407
1580000000.0 0.0323269646571144 -0.21035413845879636
1600000000.0 0.00922558738787827 0.17741459226206552
1620000000.0 -0.13998785762989888 0.03234661065452556
1640000000.0 0.10492042161578827 0.060512692348890354
1660000000.0 -0.04954269305019424 -0.0801221767233731
1680000000.0 0.05014488248346158 0.0491152669034971
1700000000.0 -0.03830952111454924 -0.041135546832516474
1720000000.0 0.012530439519165847 -0.0405153547525845
1740000000.0 -0.014533058077450117 0.050612123286044135
1760000000.0 0.0646907606485624 0.05243519342610298
1780000000.0 -0.05113598286658512 0.09863816232807185
1800000000.0 -0.023893866731225167 0.13556919101715262
1820000000.0 -0.04567401964018198 -0.1563559185547914
1840000000.0 0.04776645722597739 -0.18311233396212057
1860000000.0 0.21450289230510722 -0.04993769187606289
1880000000.0 0.19716852276709365 -0.14208143377968938
1900000000.0 -0.14881101169242064 -0.21610540110039939
1920000000.0 -0.04589402154768006 0.2818428259534412
1940000000.0 -0.14620544203267274 -0.25576313929932654
1960000000.0 0.025209473786291882 0.2954629923300843
1980000000.0 -0.18332157861309714 -0.23679066191896983
2000000000.0 0.26988541195461807 -0.14595774187836194
2020000000.0 0.29125854898440917 0.08944710187753721
2040000000.0 -0.10008674706760928 0.28620654721771416
2060000000.0 -0.28868696882268735 0.10702807467142823
2080000000.0 -0.27715838485563615 -0.13308748344199584
2100000000.0 0.0673670480524786 0.3017453350381723
2120000000.0 -0.2958602287048091 0.09319324540503807
2140000000.0 0.21233758845661824 -0.2168643035630453
2160000000.0 -0.2925196218020283 -0.03726336124143949
2180000000.0 -0.19529574146893638 0.207368026930222
2200000000.0 -0.25131872630897656 -0.13174728936530808
2220000000.0 -0.231951881952538 -0.16088553730009283
2240000000.0 -0.1472185524468696 -0.2366870267665543
2260000000.0 0.008527499738356875 -0.27348796583585444
2280000000.0 0.1538848535343484 -0.2131323659911574
2300000000.0 0.23319568863956255 0.09112925306427484
2320000000.0 -0.17968783046227876 0.16393919235608934
2340000000.0 -0.16322698242096367 -0.17148337049251883
2360000000.0 0.14604650533958508 0.175882554713428
2380000000.0 -0.11886422558972563 -0.19881928390349002
2400000000.0 0.23900909279403154 0.00971063851950548
2420000000.0 0.23409448705608354 0.11549024793850607
2440000000.0 0.2867039614420845 0.0024552008336684965
2460000000.0 -0.21256107986124548 -0.24504319403844216
2480000000.0 -0.12555596713789244 0.3374722954260167
2500000000.0 -0.31437082581858494 -0.24781611335093723
2520000000.0 0.3720482072605659 -0.23840355405067956
2540000000.0 0.2768549381556673 0.3978282959014884
2560000000.0 -0.5011399810304695 0.12997888915000502
2580000000.0 0.26680602377521373 -0.4813699845620715
2600000000.0 0.16442996531782256 0.5533256635738659
2620000000.0 -0.37913225698041286 -0.47058194393355607
2640000000.0 0.6168010214240004 0.07842253618260232
2660000000.0 -0.4042625397947989 0.49499112269689066
2680000000.0 -0.44422991910955073 -0.47336190701355324
2700000000.0 0.3137807911853257 -0.579836136458469
2720000000.0 0.6034265220833803 -0.28042618412521336
2740000000.0 0.6512740749627128 -0.16109307786269056
2760000000.0 0.64722691310579 -0.18451288722568923
2780000000.0 -0.08428869853764767 0.6644519261048984
2800000000.0 -0.21361053727236806 0.626793859417027
2820000000.0 -0.5459476517461336 0.3570037973890713
2840000000.0 -0.3837092694184403 -0.5126539421059244
2860000000.0 0.6140722341591605 0.12536460790332374
2880000000.0 -0.6018079319206121 -0.10686546225461493
2900000000.0 0.37139087079863287 0.4644652869886195
2920000000.0 0.3156437436060028 -0.4816222614012743
2940000000.0 -0.4658639509569696 -0.2947576116586762
2960000000.0 -0.4823094608540131 0.2195905419276959
2980000000.0 0.08983409832560259 0.4994076875254069
3000000000.0 0.4779721348388444 -0.08261749783768807
3020000000.0 -0.367844455799319 -0.2777816365529855
3040000000.0 0.12289908947334018 0.4149064118784216
3060000000.0 -0.010627553838999505 -0.40485287871589143
3080000000.0 -0.24579879464138185 0.28916418496449925
3100000000.0 0.23719041895318133 -0.27241144563177005
3120000000.0 -0.036438563706961344 -0.34403206224947197
3140000000.0 -0.024369029326948972 0.3411698578744788
3160000000.0 -0.05661651249034117 -0.3341513926828935
3180000000.0 0.21017393849048605 0.2551503257055156
3200000000.0 0.27382806304200186 -0.16649774721734076
3220000000.0 -0.24658419169196644 -0.19464956743405296
3240000000.0 -0.27276710480953326 -0.12493615143905439
3260000000.0 -0.25507566862571124 -0.13675986748534846
3280000000.0 0.06927870218623984 -0.2655024385728105
3300000000.0 0.16657093423505498 -0.19345835120300753
3320000000.0 0.21412861578474843 0.08226318338678917
3340000000.0 -0.15202481406856336 -0.13601404878959214
3360000000.0 -0.17252136438066684 0.062277010790994444
3380000000.0 0.1605369434582201 -0.02481193337659646
3400000000.0 -0.03241400565680375 -0.1431953827533858
3420000000.0 0.1332745879065413 0.02453573076402203
3440000000.0 0.07924343647041511 0.09005520945035894
3460000000.0 0.07728152518233189 0.0631853846071144
3480000000.0 -0.03920994422182695 0.07912154449198627
3500000000.0 0.05985590431345266 -0.0479145344951717
3520000000.0 0.07170209813701287 -0.007142032818996487
3540000000.0 -0.006226685198780511 0.07702436963256554
3560000000.0 0.07950521918227875 0.02183976584437692
3580000000.0 0.08297249016440805 0.034824060502549777
3600000000.0 -0.08833105089051607 -0.026803483578526077
3620000000.0 -0.039001853267962884 -0.08828785220629859
3640000000.0 0.0341092030019854 0.09678892956677285
3660000000.0 -0.07884748072104249 -0.06748068599243219
3680000000.0 0.10501002015806063 0.03174229601008527
3700000000.0 0.03703545896687322 0.10745721309841262
3720000000.0 0.08010096537761109 -0.06043475217266256
3740000000.0 0.026491407560283082 0.08015061373857789
3760000000.0 0.05673985306632016 0.03644644432466108
3780000000.0 0.03970141576946567 0.04364055427521931
3800000000.0 -0.052013199520890854 -0.011726301120245855
3820000000.0 0.04322045034757832 -0.02190700556287213
3840000000.0 0.011577846224114856 -0.05298381926773273
3860000000.0 0.06103544456905836 -0.014774536281128537
3880000000.0 -0.022281100111139415 0.08392012433547913
3900000000.0 -0.09742152619464506 -0.033491764033949045
3920000000.0 -0.07757050106631994 0.08454781585931011
3940000000.0 0.01084977218306617 0.11290031663100057
3960000000.0 -0.0042485416772742686 -0.09746349391581112
3980000000.0 0.08884888316249862 -0.005680913449165528
4000000000.0 0.07252451934249404 -0.020368876158307576
