!Created with skrf (http://scikit-rf.org).
# Hz S RI R 50.0 
!freq ReS11 ImS11
400000000.0 0.736647358908883 -0.45320113034601034
420000000.0 -0.25981684943554234 0.7635767198784004
440000000.0 -0.07787729295563156 -0.779995431939812
460000000.0 0.6953816590937023 0.3124012333841717
480000000.0 -0.49719011675082525 -0.531890493133851
500000000.0 0.6627950730193978 -0.09740739304403899
520000000.0 -0.16843763334839035 0.5209635619296602
540000000.0 0.3889682414230856 -0.23438376334692748
560000000.0 0.13080216899242997 -0.33328870852776704
580000000.0 0.031144348763724232 -0.3330049982435766
600000000.0 0.3213437371365735 0.08347796356778191
620000000.0 -0.36199449764423125 0.005941575316512636
640000000.0 -0.38576698953718636 0.03588539619519816
660000000.0 -0.356817859747103 -0.20190843574109849
680000000.0 -0.2798190360466306 -0.25131564661057465
700000000.0 0.33461478356192925 0.12278172782563007
720000000.0 -0.3460313549273808 -0.10131750969092577
740000000.0 0.3349511112982383 -0.06425268220563014
760000000.0 -0.2750090553749313 0.12746009434053202
780000000.0 -0.024886126679896498 0.31716762107912355
800000000.0 -0.29338793036318733 0.0797625288567087
820000000.0 -0.22738878176742477 0.1758567328972526
840000000.0 0.2058133804739655 0.17033039549414686
860000000.0 -0.20366121688305805 0.044259818891115785
880000000.0 0.16334734865748676 0.03472120521820617
900000000.0 0.0342274287243783 0.11088393172559625
920000000.0 0.07737667370659995 0.07945658958020203
940000000.0 -0.03959918940641583 0.10978565598497915
960000000.0 -0.08192175160239965 -0.0428001222031432
980000000.0 -0.05905528170081983 -0.00470118370121855
1000000000.0 -0.03727839982293344 -0.02758216225368002
1020000000.0 0.003296531274818475 0.0576626831438663
1040000000.0 0.021926718312221538 0.09505195984913654
1060000000.0 0.09068549511395371 0.1106824404362259
1080000000.0 -0.11261138338146921 0.13220655709088838
1100000000.0 -0.17517317164135304 -0.10116502952962173
1120000000.0 -0.216807435205101 0.08417605363033591
1140000000.0 0.2519327189347074 0.07119747510315405
1160000000.0 0.049467736120130376 0.2659828621863049
1180000000.0 -0.23699016313194624 -0.16769987081008267
1200000000.0 0.06938028805360723 0.2959271152023685
1220000000.0 -0.30731539871846497 -0.09683404841829249
1240000000.0 -0.28815537192316387 -0.15719499471739495
1260000000.0 -0.0014217723524309613 -0.33745726600971493
1280000000.0 0.2907055749808755 -0.16524344449567724
1300000000.0 0.3136636175030526 -0.14686643388665865
1320000000.0 0.09410123445313638 0.34419724977947114
1340000000.0 0.047825015246511185 -0.365448779972237
1360000000.0 0.2814550544072735 -0.2540523621344858
1380000000.0 -0.22519411635133485 0.30830360526939765
1400000000.0 0.08423622797297553 -0.3805940221032172
1420000000.0 -0.00592689192989621 0.38698356873451173
1440000000.0 0.3014770981423522 0.22480410469578765
1460000000.0 0.1595265940976621 -0.3307511738221812
1480000000.0 -0.36299822330332066 0.014886419769545708
1500000000.0 0.3164751530569229 0.09666058064268399
1520000000.0 0.0682639818705771 -0.3045204245966312
1540000000.0 -0.27198526890891855 0.08701862712658165
1560000000.0 -0.23436343041230115 -0.08455824276774941
1580000000.0 0.20816313715942011 -0.04363857826554004
1600000000.0 0.005116880694878147 0.18067150860481526
1620000000.0 -0.08156572591619048 0.11625611768889717
1640000000.0 0.07114187888083683 0.09543749113496751
1660000000.0 -0.0581408388619337 -0.07260211507909461
1680000000.0 0.02347042757078797 0.06699511567493201
1700000000.0 0.024400494246887196 0.05080475356450295
1720000000.0 0.03874963112936429 -0.010920311937718533
1740000000.0 -0.05213801264535314 -0.010566231790418263
1760000000.0 0.044183244327950406 -0.0698006095937068
1780000000.0 -0.10727168254922638 0.02508664631724223
1800000000.0 -0.09784316855973886 0.09863481893652734
1820000000.0 -0.16249130822051502 6.719501588103596e-06
1840000000.0 0.11401277493662264 -0.14669308734966735
1860000000.0 0.2154666035751369 0.051326310884221626
1880000000.0 0.14941365224996728 -0.1954767738780733
1900000000.0 -0.2625485511620501 -0.018931392145531786
1920000000.0 -0.09067143045704273 0.2665308863465059
1940000000.0 -0.0389036275020576 -0.29197615209004923
1960000000.0 0.03490258161584011 0.2974992042958236
1980000000.0 -0.25764261149753853 -0.15333140563717193
2000000000.0 0.22680181905282876 -0.20645154530686083
2020000000.0 0.2969502981349592 0.06412505972870425
2040000000.0 -0.11791270398285908 0.2787668468777445
2060000000.0 -0.29912670098922023 0.06907128505942324
2080000000.0 -0.29341612038160103 -0.09440189567554497
2100000000.0 0.19994685237638424 0.23621795748856633
2120000000.0 -0.24282389040572083 0.1885442543839438
2140000000.0 0.20464743762918358 -0.2243167138296655
2160000000.0 -0.2882279196942319 -0.060687832196868456
2180000000.0 -0.1803750039878835 0.220043438198565
2200000000.0 -0.2522410498895507 -0.13012142073977087
2220000000.0 -0.26332172801196424 -0.1042222194264094
2240000000.0 -0.07237385416440137 -0.2682892970043683
2260000000.0 0.07589067050808496 -0.2637028249028022
2280000000.0 0.12567156663429926 -0.2310864835135339
2300000000.0 0.2474340372190188 0.034602405147047106
2320000000.0 -0.13946569977959875 0.19893889065235568
2340000000.0 -0.08328356973315251 -0.22078796819899113
2360000000.0 0.13817524120934127 0.180386213222894
2380000000.0 -0.16471056876529055 -0.16234571109562124
2400000000.0 0.2390477576473372 0.0004563075902194816
2420000000.0 0.2176857478898934 0.1460528180398205
2440000000.0 0.2836365125882316 0.04273483408721101
2460000000.0 -0.1673316725573653 -0.2792938448024145
2480000000.0 -0.10357984247043191 0.3437583491182431
2500000000.0 -0.26400534820085486 -0.30188388639994773
2520000000.0 0.37220900681478153 -0.23648801389527926
2540000000.0 0.27637281931665614 0.3955902606163159
2560000000.0 -0.5087561965383363 0.0908991119709151
2580000000.0 0.26254075156584256 -0.48322530159542193
2600000000.0 0.16500904149414647 0.5524806466341785
2620000000.0 -0.3693095717284896 -0.47843068652177206
2640000000.0 0.6085350436331215 0.12962179899488485
2660000000.0 -0.4305715782483301 0.47312168345704275
2680000000.0 -0.3522594892335902 -0.5464606161916877
2700000000.0 0.4114006046474298 -0.5157466320147779
2720000000.0 0.6524966980560016 -0.12998054571710524
2740000000.0 0.6692212765760828 -0.03384751114957716
2760000000.0 0.6644460700606527 -0.103135107523226
2780000000.0 -0.05362494194718712 0.6664638112226292
2800000000.0 -0.22348579537137572 0.6229211133199959
2820000000.0 -0.5787221474678653 0.29941720814762135
2840000000.0 -0.3574594286872953 -0.531622554665942
2860000000.0 0.6155139759489978 0.1258203882023614
2880000000.0 -0.6101699591523314 -0.054217302789589805
2900000000.0 0.3392554055431523 0.49071620771211805
2920000000.0 0.3772318056094182 -0.4355064521291589
2940000000.0 -0.43163815801701416 -0.34525613997739507
2960000000.0 -0.5032516658372121 0.16867175552004643
2980000000.0 0.07388117937163055 0.5014938383400757
3000000000.0 0.4837821144799169 0.03397896014313145
3020000000.0 -0.3185366784909695 -0.3330317960607631
3040000000.0 0.10697485105021008 0.41839724610732837
3060000000.0 0.022288585768094768 -0.40285892941453666
3080000000.0 -0.22167524701484664 0.30964526089872024
3100000000.0 0.2982356815867074 -0.2043510075741107
3120000000.0 0.05413013714949275 -0.34265556395306096
3140000000.0 0.10897809709041933 0.3248667627913537
3160000000.0 -0.08074976571355079 -0.3295503682402492
3180000000.0 0.1666724573362918 0.28641084777254855
3200000000.0 0.2695609791965471 -0.17762289314559
3220000000.0 -0.273552874316508 -0.1557954387939095
3240000000.0 -0.1971139152038914 -0.22781496118568473
3260000000.0 -0.28252864893149277 -0.06808113832189226
3280000000.0 0.07340666966406323 -0.26316154466159625
3300000000.0 0.23122026888810013 -0.10930790281271195
3320000000.0 0.22890851211803256 0.031052757136993858
3340000000.0 -0.19948251649701437 -0.028474976377389282
3360000000.0 -0.18164976110976286 0.006065647735856799
3380000000.0 0.15781031592350275 -0.045686885088092155
3400000000.0 -0.14555823779266464 -0.01366347803079583
3420000000.0 0.06823790894287977 0.11501585374836323
3440000000.0 0.05112456255605024 0.10958398163215294
3460000000.0 0.0764989754294791 -0.06405457313361733
3480000000.0 -0.05347276992682433 0.06910133686477425
3500000000.0 0.035923009708959876 -0.06910398788741762
3520000000.0 0.06889490971929776 -0.023846289126109164
3540000000.0 -0.07779818177984132 0.005379974638054294
3560000000.0 0.040706820220842425 -0.07436589451154342
3580000000.0 0.058441481478485 0.06855848259387451
3600000000.0 -0.060436727664780004 -0.06854065878047186
3620000000.0 -0.03095960321450019 -0.09319373165129427
3640000000.0 0.07354492061839468 0.07170104028357493
3660000000.0 0.007249247718016438 -0.10368184064669034
3680000000.0 0.10446834203482379 -0.0362701817643159
3700000000.0 0.09017426470179835 0.0685313607463613
3720000000.0 0.09599011925321928 -0.026499065941961646
3740000000.0 0.01842684931605995 0.0838502240705637
3760000000.0 0.04470389714080491 -0.051220854750805
3780000000.0 0.03608108150918107 0.04652208275608364
3800000000.0 -0.052673483663876766 -0.01447106126845836
3820000000.0 -0.01428024980709614 -0.047577615192935706
3840000000.0 0.048303011236476935 -0.02190745812274843
3860000000.0 0.05663761881866908 -0.02742717773441859
3880000000.0 0.07356800543796205 0.043119204259629666
3900000000.0 -0.10251728063036565 -0.015917249650545095
3920000000.0 -0.06805713013917704 0.09240290461806651
3940000000.0 0.09300337920916249 0.0672949157327346
3960000000.0 0.04382817401399465 -0.0891129004950937
3980000000.0 0.06063920357460417 -0.06820245095570443
4000000000.0 0.0338396194554366 -0.06701024929348683
