!Created with skrf (http://scikit-rf.org).
# Hz S RI R 50.0 
!freq ReS11 ImS11
400000000.0 0.8018107465575038 -0.32035958294983763
420000000.0 -0.26704109347666954 0.764221294980426
440000000.0 -0.15942605876058927 -0.7692882859041619
460000000.0 0.7269489004559372 0.220389844248085
480000000.0 -0.4885539868168292 -0.5371607355936261
500000000.0 0.6693566472439434 -0.0013462181665166114
520000000.0 0.0820004113551817 0.5429266415819672
540000000.0 0.4440640343039021 -0.07197792510337349
560000000.0 0.04474552397882788 -0.367386103436209
580000000.0 0.32228953832823315 -0.10269591059430502
600000000.0 0.239458818394807 -0.231673996609564
620000000.0 -0.3149253324279301 0.1837805514499273
640000000.0 -0.29993619429230434 0.23690825494950526
660000000.0 -0.17681144790545222 -0.36775210728747765
680000000.0 -0.33549392004693523 -0.18216437634185392
700000000.0 0.31445568365080334 -0.15013998539934678
720000000.0 -0.1795122546568748 -0.30886841087483813
740000000.0 0.23248595074564454 0.24888429350599992
760000000.0 -0.2041039398938513 -0.23615916673050039
780000000.0 0.29600957011065315 0.13216631166234505
800000000.0 0.13250322543515242 0.27337664266986583
820000000.0 -0.04954724733341363 0.27002742668519025
840000000.0 -0.2566293633898505 0.052629643365090906
860000000.0 -0.13158248113172363 -0.1630368833041792
880000000.0 0.1582055490371641 -0.06873079484537466
900000000.0 0.07300320341436718 -0.09627967815534832
920000000.0 0.08750445465306239 -0.06820279395054862
940000000.0 -0.016412925906489607 0.11477965510466258
960000000.0 0.05950138854065396 -0.07312805065680938
980000000.0 0.06005664369009002 0.015101201622790552
1000000000.0 -0.040000424223257176 0.019339091506824085
1020000000.0 -0.01607868647203067 0.06697942029693914
1040000000.0 -0.08232531569720176 -0.04285021249241127
1060000000.0 0.10801119043260511 0.07877262739747032
1080000000.0 -0.05424008779087207 -0.16216177889555752
1100000000.0 0.015502780574073465 -0.20149964557844413
1120000000.0 -0.0930705189487535 -0.21500285220580537
1140000000.0 0.24490821979029856 0.10938110895415173
1160000000.0 0.2570823482627441 0.08837964673129776
1180000000.0 -0.12880477863208006 -0.25292581683685195
1200000000.0 -0.04776786129450694 0.3019338218156912
1220000000.0 -0.29789648418159853 0.1231089309705696
1240000000.0 -0.285366203480667 -0.15922080382566411
1260000000.0 0.058565205578614825 -0.33289741658916516
1280000000.0 0.10628713276409607 -0.31949100424455096
1300000000.0 0.25922331883371663 -0.22561637195393025
1320000000.0 -0.05059330036406384 0.3490578087514109
1340000000.0 0.11984340317897976 -0.3507150368638368
1360000000.0 0.3462041023783072 -0.15943020575658803
1380000000.0 -0.15163617703493323 0.3556631233898539
1400000000.0 -0.06512048099891017 -0.38606520883945133
1420000000.0 -0.06131791372658264 0.37766495617417833
1440000000.0 0.2996646494478718 0.21979907916780927
1460000000.0 0.34218581533917025 -0.1381391042749709
1480000000.0 -0.3606710890938168 -0.039559164599001675
1500000000.0 0.3329287846713451 -0.028936891608799697
1520000000.0 -0.20794124436195602 -0.23322303040175504
1540000000.0 -0.2416007611293114 0.14449819565877028
1560000000.0 -0.17081633304779797 -0.17859772466967272
1580000000.0 0.19089433975033226 0.08893311497309696
1600000000.0 -0.14189497405085005 0.1131489982736653
1620000000.0 -0.11661881014619957 -0.08706837361489753
1640000000.0 0.11988209873350947 0.03208262630584811
1660000000.0 -0.06366081334079446 0.06995161266230987
1680000000.0 0.04693688971420178 -0.04552889375591878
1700000000.0 -0.030143333770775965 0.04609919012139102
1720000000.0 0.038971767842635854 -0.018885014771650933
1740000000.0 0.052007970067673236 0.0010467797471340077
1760000000.0 0.07832291735680072 -0.011524258429587715
1780000000.0 -0.10935994681454163 -0.016005248622906105
1800000000.0 -0.14081451042269452 -0.004012663011354799
1820000000.0 -0.16008771444099065 0.03604701328479603
1840000000.0 -0.00943222945012224 -0.18810259426656356
1860000000.0 0.17503113605690404 -0.13681465250236116
1880000000.0 0.029368993444253522 -0.23812506692256155
1900000000.0 -0.20392624705816814 -0.15659753740456903
1920000000.0 -0.2800282252795624 -0.03781094375192853
1940000000.0 0.11521327955879535 -0.2778619900496589
1960000000.0 0.18015994283449757 0.2446287467980605
1980000000.0 -0.29410513675202077 0.05978987053263894
2000000000.0 0.17337628078704231 -0.2513405407039917
2020000000.0 0.30036155944994625 0.005715101963780726
2040000000.0 -0.20896484019086298 0.2160225249979799
2060000000.0 -0.2924444375920853 -0.09469969266994907
2080000000.0 -0.22321708664012266 -0.21595988923539777
2100000000.0 0.17260122735485997 0.2611119396869964
2120000000.0 -0.1446158705857374 0.276548679021594
2140000000.0 0.04116982311243129 -0.30168777751546383
2160000000.0 -0.25525019148537814 0.14100477263491137
2180000000.0 -0.2772083311045911 0.043135961576629175
2200000000.0 -0.12380194709483021 -0.25406015838926094
2220000000.0 -0.10031971956104511 -0.26651218321427333
2240000000.0 -0.09439732667322108 -0.2670531846662013
2260000000.0 -0.1854861276694259 -0.20464014842702133
2280000000.0 -0.08406939126194268 -0.2467299597145538
2300000000.0 0.2240814693715776 0.10311730212942935
2320000000.0 -0.19316359083738255 0.14461805971462557
2340000000.0 -0.026083802888238757 -0.23408548031509993
2360000000.0 0.09287945888089992 0.20816442471274682
2380000000.0 -0.13748859394862606 -0.18807364675690597
2400000000.0 0.19352002646695204 -0.14394992001959056
2420000000.0 0.24874456099896494 0.0858416908645218
2440000000.0 0.2827229936506079 -0.04365483373146874
2460000000.0 -0.18546497281999844 -0.2644246423163567
2480000000.0 -0.15996935690303796 0.32297593360590465
2500000000.0 -0.25157349891057285 -0.31156349205898476
2520000000.0 0.42771277135346314 -0.11609946056361234
2540000000.0 0.24360333376887466 0.4177872158979551
2560000000.0 -0.5122132514249245 0.07124440236072946
2580000000.0 0.30203778025569994 -0.459195123247487
2600000000.0 0.10733740885321678 0.5670054156608001
2620000000.0 -0.3600745297384595 -0.4856670796589889
2640000000.0 0.621520998125114 0.02976405774856491
2660000000.0 -0.4020816797693681 0.4955274482841456
2680000000.0 -0.409540723477553 -0.5037724395128391
2700000000.0 0.37356137038860765 -0.5440275942767945
2720000000.0 0.617522572140497 -0.24968135176088394
2740000000.0 0.6673699466334652 -0.07091648088072225
2760000000.0 0.6656055446165196 -0.09715996632057144
2780000000.0 -0.1060045867464461 0.660348350609319
2800000000.0 -0.1897311691057131 0.63487209867501
2820000000.0 -0.571978978321307 0.31346684176524825
2840000000.0 -0.3904758612869109 -0.5078156826615571
2860000000.0 0.6227138451051261 0.075584489522433
2880000000.0 -0.601089747514282 -0.11158647085696971
2900000000.0 0.27467403998005174 0.5288714774420981
2920000000.0 0.37510394481151627 -0.441235657168052
2940000000.0 -0.5016490218587562 -0.23352800931749776
2960000000.0 -0.4809862301859787 0.22357755724466152
2980000000.0 0.15061478565036954 0.4834631263408527
3000000000.0 0.48078543816659114 -0.045255304293152505
3020000000.0 -0.3283874068168236 -0.32233393606616945
3040000000.0 0.03959650521580098 0.4304632791948747
3060000000.0 0.0718051071539549 -0.3983175884375432
3080000000.0 -0.18671632905497973 0.33248824346080086
3100000000.0 0.2525225014609293 -0.2588523832322277
3120000000.0 -0.022565529702429865 -0.345832769781217
3140000000.0 0.12232712195969289 0.31865106646688846
3160000000.0 -0.12910128259138973 -0.31379267337406075
3180000000.0 0.16724221950242724 0.2858602222812152
3200000000.0 0.282534964097281 -0.15590799461052587
3220000000.0 -0.2635068603960555 -0.17256743721998
3240000000.0 -0.16666962848065198 -0.2515743182263365
3260000000.0 -0.2715008100455429 -0.10366650969600119
3280000000.0 0.14105732506476693 -0.2326042402650819
3300000000.0 0.23441983005404685 -0.09615636515606209
3320000000.0 0.2190147835562464 0.08081720671929878
3340000000.0 -0.19047691594643248 0.07266593472885279
3360000000.0 -0.17554750769705596 0.04124750078132605
3380000000.0 0.1624604873716214 0.008117274609595196
3400000000.0 -0.07433501780099769 -0.12658429192499585
3420000000.0 0.12287412254890497 0.0518684276930711
3440000000.0 0.08636170689829645 0.08417515449200341
3460000000.0 0.09952491165285912 0.015644137572449507
3480000000.0 -0.05615295443307227 0.07219257897179233
3500000000.0 -0.052938718713039255 -0.05809141242836312
3520000000.0 -0.047020348799231115 -0.0563336896234372
3540000000.0 0.018449425108098418 0.07235632900422707
3560000000.0 0.056093648270639784 0.061083847849451096
3580000000.0 -0.028805349704689728 0.08456613102770173
3600000000.0 0.07827062843776073 -0.05249353611438546
3620000000.0 -0.09619158277392999 0.0032855058973079846
3640000000.0 0.08146182869202273 0.060974805055657826
3660000000.0 0.004031432270740832 -0.10016388293239317
3680000000.0 0.07633363344593166 0.07911672404522609
3700000000.0 0.11313616414243165 0.018343634848507585
3720000000.0 0.0939024007743084 -0.03319383022798393
3740000000.0 0.05155458829683554 0.06850601433198368
3760000000.0 -0.026533388357834347 -0.060821503745960154
3780000000.0 0.04024916614111252 0.03896665754494198
3800000000.0 -0.005523359948636176 -0.053658152343526395
3820000000.0 0.040050548017657964 0.03269562371786632
3840000000.0 -0.026908566536858514 -0.04673014822580264
3860000000.0 -0.04722537699281285 -0.04220444229119889
3880000000.0 -0.013522780541688461 0.08350987891637685
3900000000.0 -0.007134509259021744 -0.10363949718867294
3920000000.0 -0.11389488442875897 0.013109655814047367
3940000000.0 0.03366200443273173 0.10979233740485572
3960000000.0 0.09886364007896042 -0.007558139564285488
3980000000.0 0.05097969714964874 -0.07657751441474421
4000000000.0 0.05633363900564966 -0.047831719866134374
