!Created with skrf (http://scikit-rf.org).
# Hz S RI R 50.0 
!freq ReS11 ImS11
400000000.0 0.8141825489428429 -0.2896978426668744
420000000.0 -0.24513013355156096 0.7712410663612553
440000000.0 -0.2506277867077176 -0.7428989837755867
460000000.0 0.7087262727528204 0.27232113136414404
480000000.0 -0.37846196722659803 -0.6214394557690184
500000000.0 0.6703688795868855 -0.08801262421450608
520000000.0 0.14173258206972936 0.5263095890344096
540000000.0 0.4241324919386888 -0.16266493849569413
560000000.0 -0.010634544160054936 -0.3640661600108632
580000000.0 0.21548141994298975 -0.24993571809921952
600000000.0 0.30221317808462017 0.13431214406954736
620000000.0 -0.36269716320106343 0.03880062784767007
640000000.0 -0.33841236926381096 0.18591075642428895
660000000.0 -0.38257945040636465 -0.14156999309267165
680000000.0 -0.27082323648379525 -0.26520981512843406
700000000.0 0.35503195688171185 0.023353061320824667
720000000.0 -0.36142200783130757 -0.02017273626316188
740000000.0 0.3351683478504704 0.024062241517783654
760000000.0 -0.16898101205109956 -0.25344802219949386
780000000.0 0.13924554893503868 0.29414207736126297
800000000.0 -0.21259951229888355 0.21554407345315255
820000000.0 -0.2623101019525342 0.10224489030918282
840000000.0 0.17056213505165252 0.20482092549125375
860000000.0 -0.20902232006893162 -0.006129827453769922
880000000.0 0.09381727273969365 -0.1365417820840916
900000000.0 0.048070287709733414 0.11120072984427518
920000000.0 0.08225245902899579 0.07565302485629263
940000000.0 0.11165058930067957 -0.032233178260036875
960000000.0 -0.05231543482614351 -0.07285159887292425
980000000.0 -0.04954313674654536 -0.026588517752687262
1000000000.0 -0.03889808531625659 -0.02517039696734905
1020000000.0 -0.057863307778695056 -0.03607048786944434
1040000000.0 0.0842590835028259 -0.05743952607180163
1060000000.0 0.10720081460087784 -0.08695101397967994
1080000000.0 -0.15176754363261336 -0.08494919347231746
1100000000.0 -0.19909978340565382 -0.042640234871960586
1120000000.0 -0.22985736819209462 0.02683518464742066
1140000000.0 0.19994687513531761 0.16972842307835456
1160000000.0 0.11978979139704561 0.2445041007192642
1180000000.0 -0.24546978218499743 -0.1482233471020761
1200000000.0 -0.009612085746399684 0.3041716924910525
1220000000.0 -0.3209906572754121 -0.03200151630618783
1240000000.0 -0.2954200298933088 -0.1367579781074057
1260000000.0 0.013414371948397308 -0.3374945445381289
1280000000.0 0.2835370139648998 -0.1797023065423825
1300000000.0 0.2861650872931731 -0.1954251489181895
1320000000.0 0.0199622516125591 0.35416081008103945
1340000000.0 -0.07990723158890804 -0.36187810094346545
1360000000.0 0.264002319197712 -0.2698530492070024
1380000000.0 -0.19389167684563166 0.3301307058886337
1400000000.0 0.10578146954349289 -0.37657596284189493
1420000000.0 -0.06585370310640021 0.38125476900543576
1440000000.0 0.2949598248028908 0.22949539350555265
1460000000.0 0.20959458581069726 -0.302649892898437
1480000000.0 -0.355311825211603 -0.07363681399751483
1500000000.0 0.32822799421624355 0.041672667798046965
1520000000.0 0.010916553348835453 -0.3110477360988222
1540000000.0 -0.2832146047456903 -0.020362169373124295
1560000000.0 -0.20227971856464266 -0.15055846603483647
1580000000.0 0.1413299041624764 -0.15820393851127085
1600000000.0 0.0457286812750767 0.1744541012414472
1620000000.0 -0.13979618356451073 0.003653735818423279
1640000000.0 -0.033411933783742714 0.11482235419508809
1660000000.0 -0.0831751878168553 -0.04919071744378721
1680000000.0 0.049606583893157155 -0.04681681117332339
1700000000.0 0.020944673200861207 -0.051835685755596723
1720000000.0 -0.005311526291198598 -0.04236883080345229
1740000000.0 -0.0016660030826839498 0.051918304506994764
1760000000.0 0.0811875184071692 0.017853427185328057
1780000000.0 -0.09910544671418563 0.04893066758000073
1800000000.0 -0.08793077042108474 0.10610668451116356
1820000000.0 -0.11665768969522958 -0.1129400153343042
1840000000.0 0.08637488652019772 -0.16661543947163487
1860000000.0 0.22021538141483532 -0.0020981314107584863
1880000000.0 0.1829542427025134 -0.16118869497229896
1900000000.0 -0.23128518806341034 -0.12372763594787621
1920000000.0 -0.11357480598461996 0.25826675426654305
1940000000.0 -0.12812575146314995 -0.26681318630225376
1960000000.0 0.1098412805030521 0.27714728171104575
1980000000.0 -0.19927688934465074 -0.22210124077205712
2000000000.0 0.2716964475772178 -0.1466578416742044
2020000000.0 0.30381585987005627 -0.014900594039466865
2040000000.0 -0.06013977568453639 0.2970477393526793
2060000000.0 -0.3020875654008631 0.057852614226493085
2080000000.0 -0.27903663647186466 -0.1321471832941902
2100000000.0 0.1998789794522893 0.23714072497861055
2120000000.0 -0.2795934632058366 0.13159276974633413
2140000000.0 0.19471666360188764 -0.2335807722053854
2160000000.0 -0.2950047756304232 -0.027235559382760233
2180000000.0 -0.23387307468328514 0.16315553396185886
2200000000.0 -0.27988474912343014 -0.04301967797850631
2220000000.0 -0.24956939659207414 -0.12863944569404667
2240000000.0 -0.002017118614391194 -0.27876548260923106
2260000000.0 0.008260036157845858 -0.27554806100926116
2280000000.0 0.07719043834274289 -0.24993667250930507
2300000000.0 0.18691703077557387 0.1639423432721761
2320000000.0 -0.13778434829561934 0.2018179740696479
2340000000.0 -0.14343543168334624 -0.18720939997251648
2360000000.0 0.15284758191127262 0.16739215757159714
2380000000.0 -0.13493705268363732 -0.18873588132832658
2400000000.0 0.22391501912102216 -0.08230563364683778
2420000000.0 0.19363112752245945 0.1759427643472928
2440000000.0 0.284695084312875 0.043341118949806835
2460000000.0 -0.2012385508788649 -0.2551362121318296
2480000000.0 -0.0788190317637187 0.3517572434170743
2500000000.0 -0.2710295834660457 -0.29471308333111146
2520000000.0 0.4177485975221327 -0.14566070629540742
2540000000.0 0.21725947120317676 0.4320813393101098
2560000000.0 -0.5144884603482432 0.04616947357225663
2580000000.0 0.28046737451649284 -0.4730934592167639
2600000000.0 0.1742234862771244 0.5490983493937992
2620000000.0 -0.38263673823500394 -0.46757863768960706
2640000000.0 0.6080525599651437 0.12996175930324463
2660000000.0 -0.4288873964171879 0.47346215082242094
2680000000.0 -0.40745455141998355 -0.5061940776542276
2700000000.0 0.3295962398911356 -0.5723227597985647
2720000000.0 0.6159217357942846 -0.2527901806148516
2740000000.0 0.6684842762591218 -0.0596839706154038
2760000000.0 0.6688296882954018 -0.07641673636937324
2780000000.0 -0.12799942465021785 0.6572271394420062
2800000000.0 -0.21323719998680551 0.6276416142408423
2820000000.0 -0.5729218111860077 0.31112941203511507
2840000000.0 -0.3792381161912178 -0.5163470665415881
2860000000.0 0.62301761588209 0.07616497123582958
2880000000.0 -0.605512875259935 -0.0895718734948903
2900000000.0 0.3918638547857693 0.44933898813510303
2920000000.0 0.2914830887074719 -0.49750365285678116
2940000000.0 -0.4729127139442206 -0.28606904026016894
2960000000.0 -0.5055974522643614 0.1612306068044573
2980000000.0 0.09223181491748918 0.4996640549199048
3000000000.0 0.48237854667183483 -0.056744262062805646
3020000000.0 -0.3611683699183378 -0.28607522871302427
3040000000.0 0.1240240566048012 0.4143114090482181
3060000000.0 0.101126189555616 -0.3918897474592928
3080000000.0 -0.19522706872105364 0.32564190676857346
3100000000.0 0.324916193686123 -0.15792297662834273
3120000000.0 0.030443133405294476 -0.3448273681009943
3140000000.0 0.061071410237032435 0.33659131720325336
3160000000.0 -0.09299160462773225 -0.32596385039447867
3180000000.0 0.19267729351073506 0.2698626677314409
3200000000.0 0.22889842832811785 -0.226733785456993
3220000000.0 -0.27839405032784575 -0.1473535255410181
3240000000.0 -0.19956566806272272 -0.22595824461472272
3260000000.0 -0.27474725361684577 -0.0966825840423175
3280000000.0 0.06766336107197383 -0.26564261161949065
3300000000.0 0.2127662720946363 -0.14002319167619923
3320000000.0 0.21466936672496503 0.08411509676739522
3340000000.0 -0.1980018740230007 -0.048586514057127134
3360000000.0 -0.18104154355237784 -0.012314532185740168
3380000000.0 0.1619430826670173 0.025304438505848112
3400000000.0 -0.14786094580757206 0.004027860818970779
3420000000.0 0.1145607336910645 0.06711686791444617
3440000000.0 0.024142692342310108 0.11861142045961232
3460000000.0 0.06322345073813737 -0.07789907525863832
3480000000.0 0.011485376999751312 0.0869436706512593
3500000000.0 0.06966718511185811 -0.032599756702277355
3520000000.0 0.0682486983063111 -0.026441209448581773
3540000000.0 0.002676239441476159 0.07734941307886639
3560000000.0 0.08082537080818138 -0.023201278680018183
3580000000.0 0.049443418834156455 0.07451079855581387
3600000000.0 -0.05802055340691454 -0.07078753010518632
3620000000.0 -0.06840255977628483 -0.06845248649181672
3640000000.0 0.06901511338802066 0.07563212027868327
3660000000.0 -0.029233390947777854 -0.09769096226331957
3680000000.0 0.11059306620076918 -0.00221814201353421
3700000000.0 0.11285615031354125 0.015533059978532255
3720000000.0 0.049292944783612326 -0.08597875338383247
3740000000.0 -0.028088675610884895 0.08030626329102084
3760000000.0 0.05244998450567762 -0.0428839726243525
3780000000.0 0.0539292839844024 -0.02431140517220363
3800000000.0 -0.045915546463457135 -0.026554775814250416
3820000000.0 -0.02273406743462692 -0.046073440519900165
3840000000.0 0.004902895556040739 -0.05288260697301202
3860000000.0 0.019241692741426564 -0.06139021532362399
3880000000.0 0.06549787733034991 0.05762124215103875
3900000000.0 -0.09954222969055267 -0.03147676821532608
3920000000.0 -0.09877214992570128 0.059307258920950484
3940000000.0 0.0678460484703683 0.09223742702479913
3960000000.0 0.054928781680406234 -0.0829981923777929
3980000000.0 0.08198843515567955 -0.042334993479391556
4000000000.0 0.07066240372441195 0.023008467920032905
