!Created with skrf (http://scikit-rf.org).
# Hz S RI R 50.0 
!freq ReS11 ImS11
400000000.0 0.786992350043347 -0.3579107071685673
420000000.0 -0.24030531071642922 0.773853654827205
440000000.0 -0.2420053880908094 -0.742248315924383
460000000.0 0.717333758545342 0.2441021910705601
480000000.0 -0.29248036465772914 -0.6666078346269715
500000000.0 0.6688974493536772 -0.09177210818488878
520000000.0 0.057150005193482865 0.5440332308684227
540000000.0 0.3687793322952352 -0.26557607080560164
560000000.0 0.23634502645675093 -0.2788562374496743
580000000.0 -0.08584561076385727 -0.3175705564002461
600000000.0 0.008419560377265779 0.3362912673203749
620000000.0 -0.1630897060491415 0.32390968789517344
640000000.0 -0.31903582036784134 -0.20567482413272145
660000000.0 -0.1301609710517126 -0.39401210617004767
680000000.0 -0.3807474219014017 -0.04343424064475689
700000000.0 0.331193747047368 0.1280768803156994
720000000.0 -0.3565308465273919 0.03898141551845084
740000000.0 0.20572041415792178 -0.2657888358695542
760000000.0 -0.18747131976475087 -0.23308374245416302
780000000.0 -0.2859590071725425 0.1535538550810088
800000000.0 -0.2814595578297384 0.1268446099766697
820000000.0 -0.19002169609853006 0.2204656067284106
840000000.0 0.2225253348137514 -0.14240232465966016
860000000.0 -0.2011208543302611 0.039449952370356214
880000000.0 0.16413054539703947 -0.020925981534382836
900000000.0 -0.11262873867304617 0.010385574263562633
920000000.0 -0.11352622677422716 0.007084536764395909
940000000.0 0.11908881455747114 0.029293189538720187
960000000.0 -0.03810094930610272 -0.08197824853956676
980000000.0 -0.025217992023989284 -0.05220439735824887
1000000000.0 0.019792408697352944 0.03597125856596272
1020000000.0 0.045537539183314914 0.03478609451695318
1040000000.0 -0.08903631566124415 -0.035870465121680746
1060000000.0 -0.1341479517917367 -0.04924399636542263
1080000000.0 -0.13460510577353896 0.11686512815156314
1100000000.0 0.028401799522157555 0.19912146912863044
1120000000.0 -0.0047973201493872915 -0.22676530595092861
1140000000.0 0.260346432783759 -0.05421080223568144
1160000000.0 0.10854468099877838 0.24936772967739018
1180000000.0 -0.2119486640641576 -0.19307664277310568
1200000000.0 0.02078056284489678 0.30345973812989424
1220000000.0 -0.32254106413311456 0.04168971782725139
1240000000.0 -0.30487254392010743 -0.1107242588633645
1260000000.0 0.14221566123275828 -0.30540403884431955
1280000000.0 0.26310620198872114 -0.21214454813729505
1300000000.0 0.25718270694852147 -0.2337824864790584
1320000000.0 0.10889399420928315 0.33368792851050066
1340000000.0 0.16823128466607418 -0.3290227279809208
1360000000.0 0.32874503488353596 -0.19150353066901096
1380000000.0 -0.11656194019645066 0.3639791716652888
1400000000.0 0.0681389332226573 -0.3825422539610515
1420000000.0 -0.10391773557768409 0.37235792219748387
1440000000.0 0.3410902023080765 0.15866749403374256
1460000000.0 0.24573617013406093 -0.2730951044231119
1480000000.0 -0.3628251828615925 0.02682603666416879
1500000000.0 0.33193175714399725 0.015353107003568067
1520000000.0 -0.006170953209360268 -0.30868804629721314
1540000000.0 -0.2737908914834333 -0.07015454063939255
1560000000.0 -0.1592144876506532 -0.20052625034725238
1580000000.0 0.01641527484505874 -0.21319473944597214
1600000000.0 0.0929932908969137 0.14985600350584832
1620000000.0 -0.14090343509864994 0.0064898818926745466
1640000000.0 -0.08176621148442142 0.08646268980229953
1660000000.0 -0.09849013089216714 -0.00983999223545228
1680000000.0 -0.06837066619986695 -0.015363796635867115
1700000000.0 -0.024375822433291755 -0.04410583651732601
1720000000.0 -0.0453815070729542 0.000706465639610448
1740000000.0 -0.04818579457493651 -0.019518272525225148
1760000000.0 0.06155631877608117 0.05197785090442244
1780000000.0 -0.05924473158325345 -0.09456305579428836
1800000000.0 -0.08077115290904717 0.1141840866619407
1820000000.0 -0.1633754354301835 0.00789565730251104
1840000000.0 0.10121238973639579 -0.15593059493683936
1860000000.0 0.21311572300310339 0.06376939296969884
1880000000.0 0.13374346999673262 -0.20529873256218376
1900000000.0 -0.26237849528654267 -0.02296553984006315
1920000000.0 -0.13095720948630146 0.24950072795731013
1940000000.0 0.00994831269144851 -0.29545866609020294
1960000000.0 0.06278836198456862 0.29447679159407936
1980000000.0 -0.2887930871633898 -0.07806554250484232
2000000000.0 0.2286478287883634 -0.20061669079405298
2020000000.0 0.2659375316149538 0.14464137413666617
2040000000.0 -0.2145712774347487 0.21559186622588497
2060000000.0 -0.24705229505245424 0.18637142460375286
2080000000.0 -0.30585871521792857 0.033106617228914656
2100000000.0 0.16225177536978144 0.2614661559593521
2120000000.0 -0.2861507948290734 0.11333957284442495
2140000000.0 0.21596190917470254 -0.2125740815836168
2160000000.0 -0.29651554794041396 -0.005332119898308425
2180000000.0 -0.1901163446209643 0.2116050938241588
2200000000.0 -0.2716285597492497 -0.08065260437237691
2220000000.0 -0.25742809239791936 -0.11261937069353221
2240000000.0 -0.060105854604475074 -0.2720423268607344
2260000000.0 0.08914310087927897 -0.2599777383250838
2280000000.0 0.13328033872991085 -0.22636910244250757
2300000000.0 0.245511458615436 0.052235925613430274
2320000000.0 -0.11209169177809501 0.21458626681473558
2340000000.0 -0.040738964890423654 -0.2315192194878237
2360000000.0 0.14307412466199418 0.1791482538262182
2380000000.0 -0.1539636642632317 -0.17210636721774075
2400000000.0 0.23930162010262968 0.009685525150341495
2420000000.0 0.2496421409818339 0.07605964169774308
2440000000.0 0.28657095547113914 0.01608307337200683
2460000000.0 -0.1363956568819105 -0.29527738984142704
2480000000.0 -0.08579790143937183 0.3506487012524675
2500000000.0 -0.2396901272334981 -0.32056920131629413
2520000000.0 0.4049740189481243 -0.17357127319634869
2540000000.0 0.3005623655777559 0.3785126702221061
2560000000.0 -0.5053631343976939 0.1097814973657716
2580000000.0 0.22879005759706525 -0.5005012415268557
2600000000.0 0.13053580282200142 0.562151168793848
2620000000.0 -0.38769581890267296 -0.46409305865941713
2640000000.0 0.6126817535687867 0.10737257567821844
2660000000.0 -0.43261436997097774 0.4705599097105339
2680000000.0 -0.3724607581647509 -0.532710574108869
2700000000.0 0.38572722597126363 -0.5355888276552155
2720000000.0 0.6303873224289323 -0.21198654146748058
2740000000.0 0.6701768503891231 -0.002252945648997552
2760000000.0 0.6624813924706985 -0.11289048423203857
2780000000.0 -0.04973755785302915 0.6669664044377223
2800000000.0 -0.2293057806350774 0.6211349888728555
2820000000.0 -0.5720686693416657 0.3121979704569203
2840000000.0 -0.34596509754905713 -0.5394864140746604
2860000000.0 0.617962696083473 0.11043771914602006
2880000000.0 -0.6013183495851017 -0.11575820198838757
2900000000.0 0.32903926020830226 0.4980232774072336
2920000000.0 0.3736817692010787 -0.4398139582713886
2940000000.0 -0.4580469614987685 -0.3076007822290354
2960000000.0 -0.5056797512490059 0.1613250693847761
2980000000.0 0.07516798181370782 0.5015871063926545
3000000000.0 0.48358149338632384 0.03671630782184477
3020000000.0 -0.280058613797376 -0.36632678877092484
3040000000.0 0.15675677121284998 0.40243816421222767
3060000000.0 0.048613219455842675 -0.4000572494723787
3080000000.0 -0.24323645026422605 0.29321209008080457
3100000000.0 0.20870241593711222 -0.2949019423753065
3120000000.0 -0.03211492859865687 -0.34518883265679967
3140000000.0 0.08420310977232609 0.3308291718444323
3160000000.0 -0.021094999679475944 -0.3388583151463445
3180000000.0 0.18492472479215702 0.2767792490530293
3200000000.0 0.17230965897089645 -0.2721477428924428
3220000000.0 -0.2248566778521383 -0.22006583068705135
3240000000.0 -0.24648521106663415 -0.17247513826547414
3260000000.0 -0.24640548828093797 -0.15187104711838803
3280000000.0 0.15000774272306872 -0.2316771660795882
3300000000.0 0.14301270054503082 -0.21147688032207296
3320000000.0 0.22550956769979336 0.03508936179784882
3340000000.0 -0.1302700335144567 -0.15425189711111906
3360000000.0 -0.18221736862957422 -0.0067943016835100055
3380000000.0 0.1584950850858746 -0.0373078371970566
3400000000.0 -0.09751372982245704 -0.10818653309321263
3420000000.0 0.10981477066508942 0.07751665691871987
3440000000.0 0.08963661931022485 0.07915412613337651
3460000000.0 0.08446501085852652 0.05080951728402329
3480000000.0 0.03889353054674163 0.08109466080576824
3500000000.0 -0.009366953158121962 -0.07617087888484346
3520000000.0 0.05025878003888208 0.05259530980908628
3540000000.0 -0.03920623327706325 0.07038157706187967
3560000000.0 0.07738105362817488 -0.03181515071646468
3580000000.0 0.06316704519371102 0.06571248392555352
3600000000.0 -0.08837419679024291 -0.028606228186724356
3620000000.0 -0.0771594780747769 -0.05700619658673402
3640000000.0 -0.050647752272791655 0.09031279595882702
3660000000.0 0.010620770907609834 -0.10500004323574007
3680000000.0 0.09559313162842985 -0.05743271981020942
3700000000.0 0.08449782711423533 0.0733478399704723
3720000000.0 0.09658279487090167 0.02820804965633471
3740000000.0 0.04819066185309863 0.07033937474311724
3760000000.0 0.05946140491605963 -0.029337077210619702
3780000000.0 0.0553470445409346 -0.02212425680325844
3800000000.0 -0.04859541210093822 0.02592005534386021
3820000000.0 -0.01668229639280437 -0.044993953992342864
3840000000.0 0.030804830395885212 -0.04306297580398192
3860000000.0 0.05072304429976248 0.03537354090005466
3880000000.0 -0.02364732213623278 0.083551864939785
3900000000.0 -0.07206286920060773 0.07623296840573322
3920000000.0 -0.0066432362588268986 0.11308412268512141
3940000000.0 -0.03652124445063923 0.10762518248155697
3960000000.0 -0.021237287070937565 -0.0978895559598406
3980000000.0 0.03659429589524441 -0.08231114295096402
4000000000.0 0.04519558686794648 -0.06234956645581241
