!Created with skrf (http://scikit-rf.org).
# Hz S RI R 50.0 
!freq ReS11 ImS11
400000000.0 0.7646216021527386 -0.3999206509275553
420000000.0 -0.23980240255094704 0.7729538235034826
440000000.0 -0.09964907089919094 -0.7759435719312376
460000000.0 0.673783118327982 0.35283112394936805
480000000.0 -0.42796510441436175 -0.5907531539230898
500000000.0 0.6655648570995184 -0.09156634945867788
520000000.0 -0.046215602070680054 0.5459563855712389
540000000.0 0.41127442132467934 -0.1880770015202714
560000000.0 0.19261095312253868 -0.3138074148644309
580000000.0 -0.0387756600678459 -0.3238707248565238
600000000.0 0.2549997433850637 0.21500113018452266
620000000.0 -0.34485587119614863 0.12393985072130406
640000000.0 -0.3562730130643528 -0.15209994425611373
660000000.0 -0.3321262186679726 -0.2425195908124758
680000000.0 -0.3363037651284874 -0.16917006721589725
700000000.0 0.342604718615387 -0.09375478630670286
720000000.0 -0.23637462060170986 -0.26593202267463
740000000.0 0.3342783525365343 0.05014533694782577
760000000.0 -0.17485391022437646 -0.25008218458566406
780000000.0 0.07168525605598858 0.3179925578459619
800000000.0 -0.21318182118896226 0.21338857658662394
820000000.0 -0.24537169327781921 0.14511244496658088
840000000.0 0.0024409729225402577 0.2619769941353141
860000000.0 -0.16838880500749606 -0.134966919372941
880000000.0 -0.11182045198316606 -0.12522912695334992
900000000.0 0.05361469869434813 0.1026575455873165
920000000.0 -0.00047580641666927596 0.11197189552530587
940000000.0 0.11548705047382357 0.02955139235098302
960000000.0 -0.084072561407151 0.03429013774864418
980000000.0 0.046068013125477876 -0.032459502558233426
1000000000.0 -0.03819068436470738 -0.026947247706451894
1020000000.0 -0.02886149487771946 -0.05820336806516227
1040000000.0 0.08477362091939857 -0.053188897409653456
1060000000.0 0.12548738184290498 -0.06392944456217049
1080000000.0 -0.14117006002219015 -0.10028766164820922
1100000000.0 -0.19340748829531956 -0.06638934523623237
1120000000.0 -0.15288138257917114 -0.1720594755406372
1140000000.0 0.26246988118405495 -0.03514931610171555
1160000000.0 0.11340260390037638 0.24654808439939796
1180000000.0 -0.16645635423137414 -0.2336431925920152
1200000000.0 -0.039673556817257906 0.301410978036868
1220000000.0 -0.30056814716454683 0.12434710246160482
1240000000.0 -0.28379030975476444 -0.15746992196483628
1260000000.0 0.07392975536411156 -0.32818719115704864
1280000000.0 0.2779639349429591 -0.1923585404277839
1300000000.0 0.2170713201216769 -0.2714020651683722
1320000000.0 0.05083166243949887 0.3501042429641271
1340000000.0 -0.04731299639507644 -0.3655443901204712
1360000000.0 0.2778650947060189 -0.2565135900302088
1380000000.0 -0.26107535246857433 0.28103866105241704
1400000000.0 0.06499440522523428 -0.38418828049359954
1420000000.0 -0.1710621017429342 0.3445861632235853
1440000000.0 0.2531647994804778 0.2782011309288807
1460000000.0 0.23585654184219804 -0.2825376652219338
1480000000.0 -0.36250947780699005 0.01511923932511338
1500000000.0 0.30941254130582424 0.11537704214126276
1520000000.0 0.05297229191820905 -0.3090370010770914
1540000000.0 -0.26778280881177446 0.08996221764213713
1560000000.0 -0.1843785613257679 -0.17361151018252172
1580000000.0 0.1091150586278691 -0.18175751076227165
1600000000.0 -0.08533976645526595 0.1575199711794243
1620000000.0 -0.08096352738575839 0.12006534714287356
1640000000.0 0.09405515226008077 0.06949654449178473
1660000000.0 0.09154367558780314 -0.021081643917930697
1680000000.0 0.07285640212126633 0.01116033378708196
1700000000.0 -0.03612140421046102 0.03913540559731454
1720000000.0 -0.022385997707780443 0.03564537341709928
1740000000.0 0.02335368067611873 0.046849015425365174
1760000000.0 0.07814930070537118 -0.02272272812919585
1780000000.0 -0.08998946642714575 0.06382944010366813
1800000000.0 -0.04722113360702689 0.12981806346292338
1820000000.0 -0.15712931054461676 -0.03626597070749499
1840000000.0 0.14742736060681308 -0.11297310003390645
1860000000.0 0.22265991574821484 0.022880558705249177
1880000000.0 0.04519881652759772 -0.23947592724209252
1900000000.0 -0.23989639156377646 -0.10441695110107575
1920000000.0 -0.1003194861647486 0.26440191040189837
1940000000.0 -0.03176716006443905 -0.2946466603598652
1960000000.0 0.05083060558401623 0.2960027960300732
1980000000.0 -0.25246401983201266 -0.1603506624182863
2000000000.0 0.24322764438669545 -0.1835465095446624
2020000000.0 0.24449497924560798 0.18044797754708936
2040000000.0 -0.16057197943828866 0.25960657057819897
2060000000.0 -0.26262618642376806 0.161170772036627
2080000000.0 -0.3062620075678743 0.010386208830910801
2100000000.0 0.0781134932840924 0.29718808152601633
2120000000.0 -0.29588584760048736 0.09259335141928636
2140000000.0 0.17265846856261038 -0.25110250621811575
2160000000.0 -0.2858083168779402 0.07510557322521444
2180000000.0 -0.1936975153270019 0.2078009934792365
2200000000.0 -0.2663875096105722 -0.09529392837580598
2220000000.0 -0.19909973914026943 -0.2004151103882687
2240000000.0 -0.08101172225273919 -0.2685778774683655
2260000000.0 -0.04710083658069728 -0.27078229384725233
2280000000.0 0.1618252107479936 -0.2046158043148141
2300000000.0 0.18889553249037752 0.1647347298866753
2320000000.0 -0.1821002864285589 0.16231975845766072
2340000000.0 -0.07810901534585267 -0.22337325503642602
2360000000.0 0.2172331562838289 0.06894982819314059
2380000000.0 -0.08891263490579279 -0.2120384173093807
2400000000.0 0.23881582267584583 -0.012797306271463077
2420000000.0 0.23691956799995598 0.11421592676461151
2440000000.0 0.28092642547280694 -0.06183025387333588
2460000000.0 -0.2291489477967673 -0.22837539783547864
2480000000.0 -0.15325669530019753 0.3263691221513304
2500000000.0 -0.2742827815501587 -0.29423929208825345
2520000000.0 0.3875591579218999 -0.21223055717743938
2540000000.0 0.20949934308410137 0.4356835956195325
2560000000.0 -0.5079275020889965 0.10163301889481714
2580000000.0 0.24037332870321987 -0.4949633043845525
2600000000.0 0.14208073980344801 0.5592222785725465
2620000000.0 -0.3770808097397159 -0.4724612629354278
2640000000.0 0.6168100834555604 0.07621394064589174
2660000000.0 -0.4483080706084066 0.4550639399544414
2680000000.0 -0.3530165893133297 -0.5458371880622356
2700000000.0 0.3449680675497686 -0.5622974011610379
2720000000.0 0.5976059241309606 -0.29141429300507204
2740000000.0 0.6658011181278652 -0.07999863950852788
2760000000.0 0.6629064829781016 -0.11195546661475334
2780000000.0 -0.05836332554711969 0.6666053544590858
2800000000.0 -0.17465375719375298 0.6389488313514796
2820000000.0 -0.5329187299063934 0.37495515316932315
2840000000.0 -0.3884336032436476 -0.5092803598962234
2860000000.0 0.6212892366976721 0.08884918640719065
2880000000.0 -0.6039242824828669 -0.09779451515058964
2900000000.0 0.38410897757235096 0.4554537656205906
2920000000.0 0.35044455874106617 -0.45740126824576377
2940000000.0 -0.47621691433974905 -0.28001457284314285
2960000000.0 -0.48713150419381906 0.2076623585042959
2980000000.0 0.08078969910045078 0.49995640078822784
3000000000.0 0.4850892999389768 -0.00939669919682085
3020000000.0 -0.3276880192395269 -0.32500409182303525
3040000000.0 0.1343579986169431 0.4093476993489485
3060000000.0 0.08055339298160102 -0.39416856911087117
3080000000.0 -0.22964140044629225 0.30307002641660585
3100000000.0 0.2071730176327076 -0.2964801177868223
3120000000.0 0.023830025603849486 -0.3437016024781595
3140000000.0 0.05859975528522565 0.3371404487364543
3160000000.0 -0.07731297474129911 -0.3296858800243484
3180000000.0 0.16585152123511573 0.2876747944189693
3200000000.0 0.15951148703992388 -0.2801308959950789
3220000000.0 -0.2472611859764582 -0.1929179640778772
3240000000.0 -0.14512745377590622 -0.2637931609832355
3260000000.0 -0.2728928255328464 -0.1029528490252505
3280000000.0 0.00030174080423443674 -0.273495813005331
3300000000.0 0.2060847570886488 -0.14550936928319894
3320000000.0 0.19954114240573856 0.1134454140114274
3340000000.0 -0.12854364738416355 -0.15885351613848508
3360000000.0 -0.11555111266038302 0.13963843841296175
3380000000.0 0.1584957595550572 0.02693730381036321
3400000000.0 -0.03866336535199255 -0.1412740244905446
3420000000.0 0.13223950171934803 -0.032099783409071964
3440000000.0 0.10927989652574302 0.04562986032286801
3460000000.0 0.07866306940555495 -0.05944543037038321
3480000000.0 -0.035585911160133724 0.08210627783177303
3500000000.0 0.05288948821223361 -0.05667944646639727
3520000000.0 0.07153236050129858 -0.01920807915006585
3540000000.0 0.040506747197108006 0.06630526596970635
3560000000.0 0.07101522149017134 0.043024038619412654
3580000000.0 -0.004273324743855223 0.09015017901592381
3600000000.0 -0.024204713811395415 -0.08918654283436149
3620000000.0 -0.012282117831607797 -0.0950968267556719
3640000000.0 -0.009024728066588581 0.10114674288332708
3660000000.0 -0.06569595477220114 -0.0793605287404284
3680000000.0 0.10428306966507155 0.03183232837505993
3700000000.0 0.0709719165527236 0.08654922250997035
3720000000.0 0.0882566243470994 -0.04784736436656444
3740000000.0 0.07112459610192277 0.044781839360514476
3760000000.0 0.0545382492746107 -0.03601106862930808
3780000000.0 0.036536195656925785 0.04648640601492424
3800000000.0 0.049465989630380645 0.02121041686246072
3820000000.0 -0.02943618787600871 -0.03784753128899819
3840000000.0 0.04779147922591781 -0.024063627575797542
3860000000.0 -0.037781363576559 -0.050151731982988085
3880000000.0 0.02694439943803112 0.08237200334091714
3900000000.0 -0.10288372565877725 0.006518365124107996
3920000000.0 -0.09154959490718907 0.06832448495757738
3940000000.0 -0.03478555981328924 0.10939208330951498
3960000000.0 -0.09382454402737238 -0.03325508999933913
3980000000.0 0.030601290692626876 -0.08414760524818053
4000000000.0 0.02425168410361991 0.07275312669683831
