!Created with skrf (http://scikit-rf.org).
# Hz S RI R 50.0 
!freq ReS11 ImS11
400000000.0 0.7774293157809915 -0.37757125597128155
420000000.0 -0.29105251290188827 0.7534231973860152
440000000.0 -0.10315251482174151 -0.7772116975592877
460000000.0 0.6939207935711202 0.3097297400731516
480000000.0 -0.4402735779640281 -0.5824816570328962
500000000.0 0.6659146006765639 -0.08153483465996357
520000000.0 0.03505905691662584 0.543836446474039
540000000.0 0.36348794940795276 -0.2669520741570125
560000000.0 0.19483881289566088 -0.31736659498403613
580000000.0 -0.07275861440786606 -0.3208172642505544
600000000.0 0.2923527870008737 0.1544477013057
620000000.0 -0.35873991383755655 -0.059772747745010193
640000000.0 -0.37554298795563046 -0.09933784965509175
660000000.0 -0.34953554518075974 -0.21964482986629735
680000000.0 -0.3669767255648722 0.0920650909501823
700000000.0 0.35108558718379457 0.029196350741174326
720000000.0 -0.35691983887098794 -0.017789783191765468
740000000.0 0.31432810566485264 0.1242982847404146
760000000.0 -0.28087729838568376 -0.11754110352111935
780000000.0 -0.21737157027166928 0.24143233205558176
800000000.0 -0.04783562033713563 0.30214545182585684
820000000.0 0.2265150435794189 0.16788690579139473
840000000.0 -0.1455672533397135 0.210368131099519
860000000.0 0.2125504571469427 -0.020311698598986846
880000000.0 -0.04816014911110192 -0.16784217171384888
900000000.0 0.005057261477950971 -0.1141841626028927
920000000.0 -0.05400721025107545 0.09118212687545506
940000000.0 0.10699305700166717 0.05277060322011317
960000000.0 -0.09093196914381967 0.00677358527440466
980000000.0 0.007209650977222873 -0.05563623555842627
1000000000.0 -0.045804022999128134 -0.009297684531540347
1020000000.0 0.039904442903057176 -0.050177698804658326
1040000000.0 0.06300651107032341 -0.0808375862852425
1060000000.0 0.09748294335692728 -0.10070380944600371
1080000000.0 -0.13865746477972682 -0.09709465399541799
1100000000.0 -0.17202520875919258 -0.11120075225205943
1120000000.0 -0.23014767448213935 -0.027476149119739456
1140000000.0 0.2628665159961457 -0.006727945822460903
1160000000.0 0.2328476202245726 0.13830634620775237
1180000000.0 -0.05066771285582337 -0.2809697414391425
1200000000.0 0.0027257081361217847 0.3061161392988072
1220000000.0 -0.3150437390791215 0.0842282229899935
1240000000.0 -0.2847949522987794 -0.15397538953354628
1260000000.0 0.051267836907895104 -0.3316512303907179
1280000000.0 0.30968300538285665 -0.1304559407416713
1300000000.0 0.3189380836102568 -0.1402257629956132
1320000000.0 0.1116461341317025 0.33495039734245863
1340000000.0 0.05035164369653088 -0.36624826562978835
1360000000.0 0.31096475120619455 -0.2126228306691949
1380000000.0 -0.24173729124781776 0.29558714065194686
1400000000.0 0.06883648796012887 -0.3864621110473966
1420000000.0 -0.07452791068623224 0.3788437547769167
1440000000.0 0.3425983065610717 0.1527893225730932
1460000000.0 0.23241535261300106 -0.2835432132682538
1480000000.0 -0.3143433437671395 -0.18488703897385067
1500000000.0 0.3324396377486685 -0.01844997831320956
1520000000.0 -0.025264436322529674 -0.3083811515655751
1540000000.0 -0.2640547615608465 -0.10003533226053853
1560000000.0 -0.20590154389989146 -0.14789270222054826
1580000000.0 0.07599138847649371 -0.19913494755765665
1600000000.0 0.06990216362257701 0.16547113015809903
1620000000.0 -0.11978388041791076 0.07423420628224234
1640000000.0 0.02555874054756337 0.11436042263824343
1660000000.0 -0.003028220771319303 -0.09662515269144518
1680000000.0 0.010293140830532921 -0.07177330719972434
1700000000.0 -0.05035292788121343 0.014788104417963004
1720000000.0 -0.04007308443572573 0.012399587286070957
1740000000.0 0.046994065528421586 0.021933412821189463
1760000000.0 0.05498469963677842 0.06071681534449897
1780000000.0 -0.08225419475681184 0.07587369116481556
1800000000.0 -0.018952363195872332 0.13556751347016377
1820000000.0 -0.058837200435844304 -0.14988346794453392
1840000000.0 0.12232971847424721 -0.1449673089019561
1860000000.0 0.16126916980604497 -0.15161949926579962
1880000000.0 0.14858149261719883 -0.1903149836963034
1900000000.0 -0.19909628769409296 -0.1742718048819724
1920000000.0 -0.00698446830410985 0.282885243386401
1940000000.0 -0.10212371827229978 -0.27609742661930453
1960000000.0 0.03507358275023692 0.2969727282883028
1980000000.0 -0.25951531700181296 -0.15121743213932815
2000000000.0 0.2583832173072324 -0.16432199697830385
2020000000.0 0.2883681167564739 0.09344839295087841
2040000000.0 -0.1858173968486322 0.24176683158772175
2060000000.0 -0.2519340927071505 0.17541090738263654
2080000000.0 -0.2993264884430679 -0.06299425736912552
2100000000.0 0.09350899938271727 0.29334470557458103
2120000000.0 -0.271409045523519 0.14798156546541663
2140000000.0 0.18235535024616367 -0.2433742586577436
2160000000.0 -0.29467079367809496 0.029308681557926975
2180000000.0 -0.13064260172698938 0.2509900171862781
2200000000.0 -0.21558059611133493 -0.1830055943076387
2220000000.0 -0.18439131514668336 -0.21654308932015753
2240000000.0 -0.14646460370048328 -0.23904838284969374
2260000000.0 -0.056944346795445584 -0.2670333212370718
2280000000.0 0.1643645042596685 -0.20428073562852186
2300000000.0 0.21893347597478333 0.12157600868314355
2320000000.0 -0.13603582717661464 0.20301883317165326
2340000000.0 -0.07618935842249423 -0.22301121033389737
2360000000.0 0.1699898209115917 0.15104443780662077
2380000000.0 -0.0975604282524748 -0.2085007011716683
2400000000.0 0.23709272735405335 0.024830551316669794
2420000000.0 0.17839824937875218 0.19201927716820805
2440000000.0 0.28490342926906204 -0.039396968299683165
2460000000.0 -0.21724314722409163 -0.2397928334374794
2480000000.0 -0.1286554098465269 0.33480733735289453
2500000000.0 -0.2449385900550031 -0.31780205327231903
2520000000.0 0.344272277547324 -0.2753628116950701
2540000000.0 0.2953895937225252 0.3821083493318124
2560000000.0 -0.5051001885377024 0.10988859509790014
2580000000.0 0.26227945807547465 -0.4838932141764972
2600000000.0 0.08498188337022827 0.5704533540565985
2620000000.0 -0.32589471822016125 -0.5098664880534992
2640000000.0 0.6116349222523725 0.11151036277360812
2660000000.0 -0.46954181056444677 0.4334973130705547
2680000000.0 -0.2977813052082251 -0.5781032807553055
2700000000.0 0.40188450259066366 -0.5232177801498347
2720000000.0 0.6364446445164871 -0.1921792228829398
2740000000.0 0.6695311809991501 0.018800377546015427
2760000000.0 0.6584286709187607 -0.13520244422103184
2780000000.0 -0.01847181030373484 0.6688897079273054
2800000000.0 -0.2161639937315734 0.6257405778278939
2820000000.0 -0.5739161895738475 0.30885191484125735
2840000000.0 -0.3314783756782498 -0.5488505330738722
2860000000.0 0.6254317785104023 0.05634930322706603
2880000000.0 -0.5988680526113449 -0.1285032100666277
2900000000.0 0.34325141219180166 0.4874596814478583
2920000000.0 0.36136319402957406 -0.4489753512831028
2940000000.0 -0.4431663881546157 -0.328350569040785
2960000000.0 -0.5162439360155826 0.12459706757787173
2980000000.0 0.10054293732208393 0.49744722812965353
3000000000.0 0.48432148157850147 0.009280658562107804
3020000000.0 -0.29668199301553794 -0.351753145317654
3040000000.0 0.19518710032253753 0.3858876904810586
3060000000.0 0.011531437278250149 -0.4021847516301074
3080000000.0 -0.2404284786459942 0.29468056052429475
3100000000.0 0.29085290810063574 -0.21578950630696134
3120000000.0 -0.0579023305407774 -0.3412133938775024
3140000000.0 0.12334223751588512 0.3172929226816376
3160000000.0 0.041756928380539945 -0.3358574816067478
3180000000.0 0.2069767928582378 0.2621083662537022
3200000000.0 0.14059353518600173 -0.2898452855317451
3220000000.0 -0.23451899427117515 -0.20839442022614127
3240000000.0 -0.1394238011723341 -0.2679278986277157
3260000000.0 -0.28175295953616175 -0.07202495826963287
3280000000.0 0.049485904213861946 -0.27044470809852283
3300000000.0 0.1792601555102555 -0.18184412893139862
3320000000.0 0.2211025656792247 0.060415830593625056
3340000000.0 -0.13237998778233032 -0.15486476026998872
3360000000.0 -0.16893402990659998 0.06748448694935251
3380000000.0 0.16154943414792136 -0.005141076722176616
3400000000.0 -0.04704780595866863 -0.13969519817995643
3420000000.0 0.13382256046125773 -0.011873853623378668
3440000000.0 0.09725452753799962 0.06692955063696195
3460000000.0 0.07602351062186494 0.06376286179832946
3480000000.0 -0.022185669547994714 0.08774512901644635
3500000000.0 -0.06908287928416386 -0.0353083625098749
3520000000.0 0.03613355866388668 -0.06359321887030796
3540000000.0 -0.059601405610064814 0.050742397459699426
3560000000.0 0.06118516463605796 0.057606144927270155
3580000000.0 0.03496500566359915 0.08463299239819815
3600000000.0 -0.09268322296426544 0.012465844041883306
3620000000.0 -0.05681036481893913 -0.07865328424633548
3640000000.0 -0.030340759597948595 0.09713318937954481
3660000000.0 0.004308558401781912 -0.10454643312487406
3680000000.0 0.09466848648150958 0.05660987019031579
3700000000.0 0.10293154240109297 0.04511467906415168
3720000000.0 0.053953712630460095 -0.08382400157831549
3740000000.0 -0.00021507656987922272 0.0838466568685177
3760000000.0 0.06265417509098056 -0.02612842114118589
3780000000.0 0.04749367078282615 -0.0326370862732612
3800000000.0 -0.054436058132814366 0.0020038518071165408
3820000000.0 0.03483863576963908 -0.03346287238410371
3840000000.0 0.04022669223477168 -0.033549933100584364
3860000000.0 0.05913860355152872 -0.023404860590099767
3880000000.0 0.04392094462840799 0.07438500234570046
3900000000.0 -0.09946959398939502 0.026690780100619867
3920000000.0 -0.05844773392459379 0.09713104994505019
3940000000.0 0.019065016521963876 0.11364658963830508
3960000000.0 -0.09743204090032818 -0.023012737062647518
3980000000.0 -0.05648682534962107 -0.07048841209081878
4000000000.0 0.05781647554677371 -0.04955067488820014
