!Created with skrf (http://scikit-rf.org).
# Hz S RI R 50.0 
!freq ReS11 ImS11
400000000.0 0.723340492793984 -0.4735790458042978
420000000.0 -0.3280815682808737 0.7384633868391757
440000000.0 -0.10493992811275972 -0.775278578456201
460000000.0 0.7042103436752002 0.2812977684305125
480000000.0 -0.274773454048937 -0.6772827480636506
500000000.0 0.6511387173192202 -0.16945201583360867
520000000.0 0.1415575965547111 0.5239364321812034
540000000.0 0.37261237362982064 -0.25118014843778713
560000000.0 0.37168491296015793 -0.015419122753924205
580000000.0 -0.1178123482718389 -0.30921337961285095
600000000.0 0.3265191062753875 -0.0686374639544738
620000000.0 -0.355404356167177 0.07684981240824615
640000000.0 -0.2986693669739861 -0.2386273852888974
660000000.0 -0.16675038514337653 -0.38066093718725313
680000000.0 -0.2714003299929213 0.26706767434474993
700000000.0 0.3512239700960752 -0.03093155382011906
720000000.0 -0.2859331016804701 -0.2150425257590968
740000000.0 0.32982419244447975 -0.08377882984865095
760000000.0 -0.29528875824234135 0.055378358572110806
780000000.0 -0.30059829840926233 0.11531356441679144
800000000.0 -0.25349901732409597 0.17835398032739347
820000000.0 0.10043706414883208 0.26986671745909835
840000000.0 0.24471657237975086 0.07175413830018654
860000000.0 0.09097532650779924 -0.18650905789919156
880000000.0 0.10558381300455874 -0.13225349685417281
900000000.0 -0.08582136587516544 0.07798106207659422
920000000.0 0.11259740820626109 0.013201925403040935
940000000.0 -0.023189923762087415 -0.11566074534520736
960000000.0 -0.07077606957707272 0.04681627705687074
980000000.0 0.00704313457614819 -0.0528357203108517
1000000000.0 0.03495353218091047 0.03561066941157012
1020000000.0 -0.06454398808183026 -0.01013330753021813
1040000000.0 0.09500190029935644 -0.036150576406960934
1060000000.0 0.04115931512756116 -0.13574485513504433
1080000000.0 -0.1612268961709309 -0.04364351136384879
1100000000.0 -0.16764094766872592 -0.12039634110235402
1120000000.0 -0.2195652357251745 0.07396722728188587
1140000000.0 0.23487029730011288 0.11986054602938528
1160000000.0 0.18457730929177996 0.20065216031736358
1180000000.0 -0.19092195473069398 -0.21433946923491448
1200000000.0 0.03570309567177794 0.30089569099866126
1220000000.0 -0.31735732413167783 -0.07110771206323319
1240000000.0 -0.18834233904410466 -0.26311810700247196
1260000000.0 0.006420592545173375 -0.3378466343482635
1280000000.0 0.1853555111296907 -0.28015488555477547
1300000000.0 0.34011156936644243 -0.06226137715586
1320000000.0 0.09163433183902281 0.3406190996616745
1340000000.0 0.04706046481014735 -0.366769324891708
1360000000.0 0.35365357074796794 -0.13700939629285513
1380000000.0 -0.1411177577623851 0.3565666054408094
1400000000.0 0.038047991312361425 -0.3880274564308519
1420000000.0 -0.1495197247570611 0.3561741784310242
1440000000.0 0.28577584967412517 0.24381112357199045
1460000000.0 0.21067532873100756 -0.3030300829916275
1480000000.0 -0.3615133371570453 0.0075562357952781295
1500000000.0 0.33219413113082746 0.0063560455990590925
1520000000.0 0.04652321121988666 -0.30666367716759035
1540000000.0 -0.27719116442682734 -0.05574719450570889
1560000000.0 -0.1888338343556006 -0.1695140812813526
1580000000.0 0.06143689002539553 -0.20514273176604098
1600000000.0 0.09201167499362627 0.1521338070696203
1620000000.0 -0.13633725272481964 0.038648937867642015
1640000000.0 -0.0038513834192174493 0.11884743287472105
1660000000.0 -0.04866896603445643 -0.08436193229958168
1680000000.0 -0.05344328236443303 -0.04462654149088655
1700000000.0 0.041234360582511086 -0.034828512477064276
1720000000.0 0.03819982594346506 0.019973133645140924
1740000000.0 0.03609647455481458 0.036766640540539915
1760000000.0 0.007297863897211364 0.08180729695432032
1780000000.0 -0.10160283556687542 0.047095530831915436
1800000000.0 -0.013228394111673723 0.1378160216332271
1820000000.0 -0.09074230454678667 -0.1329980194064146
1840000000.0 0.07650511195558819 -0.1734350953113658
1860000000.0 0.1922599177867788 -0.10776216639605524
1880000000.0 0.19743348097930338 -0.13971527093766378
1900000000.0 -0.2356057938542374 -0.12392531928578257
1920000000.0 0.05785835413803218 0.2760949329463085
1940000000.0 -0.05881670674190273 -0.2885240472936726
1960000000.0 0.05651121145255785 0.2941291081104618
1980000000.0 -0.27056619869731935 -0.13009855805941964
2000000000.0 0.2561264062470772 -0.16812613626124695
2020000000.0 0.2779363988476746 0.12293858483230469
2040000000.0 -0.1556872387615491 0.2621207151733685
2060000000.0 -0.26454431754059576 0.15495018728871568
2080000000.0 -0.28920761033950887 -0.10174906419560231
2100000000.0 0.12433376503303016 0.2828358144355665
2120000000.0 -0.26251539983802363 0.16138667829414252
2140000000.0 0.18020895256673458 -0.24469734095174542
2160000000.0 -0.29615307653586137 -0.014434106684323893
2180000000.0 -0.133338361031843 0.25089133737693736
2200000000.0 -0.2498017037916916 -0.13124827667585076
2220000000.0 -0.1668975755603992 -0.2290274493349373
2240000000.0 -0.0939728817323195 -0.2640766697634621
2260000000.0 -0.049538796203301316 -0.2693982693401897
2280000000.0 0.14535609842999295 -0.21813620385573929
2300000000.0 0.24024290869454842 0.06993624328381963
2320000000.0 -0.17942466264619994 0.16414793723401333
2340000000.0 -0.0799557852428718 -0.22217980509862484
2360000000.0 0.15055596258708956 0.17151874387134405
2380000000.0 -0.15814071612389288 -0.167015280049316
2400000000.0 0.23700075376150653 -0.021181108377691178
2420000000.0 0.17406313204847818 0.19491826506779153
2440000000.0 0.2836378757898834 0.048692668353767864
2460000000.0 -0.1999461564937365 -0.25543423293378237
2480000000.0 -0.06809265183665658 0.3533995502712728
2500000000.0 -0.27479435789866435 -0.2902424476886989
2520000000.0 0.3812560725282632 -0.22182094401822733
2540000000.0 0.27907519723804525 0.3948407729464534
2560000000.0 -0.5061304760036425 0.10470186017089787
2580000000.0 0.2666307979330602 -0.4812251325744679
2600000000.0 0.09079779451338232 0.5698875564179285
2620000000.0 -0.37361281695011606 -0.475185598375049
2640000000.0 0.6131089624397561 0.10142850543564488
2660000000.0 -0.46223431709027485 0.44141048933830085
2680000000.0 -0.33297321400761587 -0.5591701069141249
2700000000.0 0.4028217959689013 -0.522965361147303
2720000000.0 0.6397194495057195 -0.1818975243158371
2740000000.0 0.6701946837121993 0.007826801070906556
2760000000.0 0.6625065760087199 -0.11387663903846469
2780000000.0 -0.035133471857704504 0.6677470672284932
2800000000.0 -0.241392563221841 0.6164625830884581
2820000000.0 -0.5761558014162653 0.3049172815703578
2840000000.0 -0.3565429022789761 -0.5322449676624659
2860000000.0 0.6189996154002075 0.10174230867265702
2880000000.0 -0.6003759561554293 -0.11937824569481623
2900000000.0 0.3419969928484707 0.48940565747450987
2920000000.0 0.29154106614668357 -0.4973808215758909
2940000000.0 -0.4679762576895162 -0.29186415123960285
2960000000.0 -0.5210547619897363 0.10433803753815359
2980000000.0 0.06751171658846518 0.5042879832499303
3000000000.0 0.4834839238089265 0.041198999684003576
3020000000.0 -0.24485053237560542 -0.38967295532640633
3040000000.0 0.15078668952166727 0.40511176258839443
3060000000.0 0.11159873187582928 -0.38726912492869753
3080000000.0 -0.22960893555302458 0.30405072789001175
3100000000.0 0.2141318206671672 -0.2919110325224332
3120000000.0 -0.023489005742416816 -0.34417170520192913
3140000000.0 0.0684777538834014 0.33510449928459324
3160000000.0 -0.11484031538505284 -0.3185270525013313
3180000000.0 0.2229841010171558 0.24655814103666787
3200000000.0 0.19496999615402064 -0.25624054100522453
3220000000.0 -0.23166749333845513 -0.21426714654804613
3240000000.0 -0.2509249192683901 -0.16877539929386223
3260000000.0 -0.28496414375342866 -0.04497336206847755
3280000000.0 0.18726348128127185 -0.20233891518817976
3300000000.0 0.07887356783723581 -0.24385205676862506
3320000000.0 0.2293389341244437 0.00845689185460124
3340000000.0 -0.10492922183649403 -0.1728645967519156
3360000000.0 -0.1830382943262719 -0.003644483077160886
3380000000.0 0.15528996644470597 -0.04634445150427982
3400000000.0 -0.1024593825340605 -0.1041697077870187
3420000000.0 0.13351100102682698 0.008438643023576784
3440000000.0 0.044564959793632536 0.10907499742281984
3460000000.0 0.054410185377050786 0.08532480451747396
3480000000.0 0.08054904129161247 0.04187570512927011
3500000000.0 -0.04177261186416729 -0.061774762653124475
3520000000.0 0.0323277394341276 0.06609089843084064
3540000000.0 -0.020450045671341108 0.07768380865593452
3560000000.0 0.04813313511018596 -0.06868381780446646
3580000000.0 -0.010455432379885103 0.08869838377678022
3600000000.0 -0.04755870163745807 -0.08180004576490119
3620000000.0 -0.09357042194862007 0.027774757728263134
3640000000.0 0.013106585727228367 0.10009703018785067
3660000000.0 0.05577252619967948 -0.08750053980155537
3680000000.0 0.11176487529652414 -0.014682864042667595
3700000000.0 0.10586611657162709 -0.037064118714067985
3720000000.0 0.08154141238794281 -0.05686851452301248
3740000000.0 -0.0028048801765449428 0.08495629357959911
3760000000.0 0.050540484456126765 -0.04537110206408585
3780000000.0 0.04663886120836474 -0.03555745579204881
3800000000.0 -0.008094987341889496 0.05335799996239936
3820000000.0 0.02481792888109487 0.04254604419151455
3840000000.0 0.02754727145676965 -0.04561150574476601
3860000000.0 0.009411353544860862 -0.06203716814468227
3880000000.0 -0.021293457548609493 0.08313987628294002
3900000000.0 -0.10464292894903796 -0.0050241414251636805
3920000000.0 -0.008115697921287402 0.1133192763983943
3940000000.0 -0.037940587552961445 0.10831564781068127
3960000000.0 -0.07583135689435457 -0.06618643317559814
3980000000.0 -0.0038150549109022885 -0.08879696184873791
4000000000.0 0.07239800284015402 -0.020882141949556985
