!Created with skrf (http://scikit-rf.org).
# Hz S RI R 50.0 
!freq ReS11 ImS11
400000000.0 0.6808892902816794 -0.5335609321877948
420000000.0 -0.3600420102705687 0.7239909528447747
440000000.0 -0.10983613090858557 -0.7729395281113876
460000000.0 0.7133637699365494 0.2574534405557188
480000000.0 -0.2122228414018013 -0.6971431762647402
500000000.0 0.6657369273541909 -0.08276727409438236
520000000.0 -0.0779387141601449 0.5437454317205334
540000000.0 0.33915350923941046 -0.30101028895536236
560000000.0 0.14759098595611103 -0.3298173112384299
580000000.0 0.3180290683952435 -0.08058411379837639
600000000.0 0.2807522308307068 0.19655209004418397
620000000.0 -0.2068815372777919 0.2987930352729347
640000000.0 -0.3804723088231307 0.009608427187218998
660000000.0 0.21480437167999664 -0.3576048519832641
680000000.0 -0.22294416898313613 0.3105007994497577
700000000.0 0.34327107816475994 0.06235490895521841
720000000.0 -0.16295664665200724 -0.3203088265005223
740000000.0 0.31788217886796666 0.1285806301780555
760000000.0 -0.2113316081480506 0.21497662156433278
780000000.0 -0.25644101863010577 0.1940790842642705
800000000.0 -0.27994179480967474 -0.11890718473309336
820000000.0 -0.10576585734689702 0.2660510372866257
840000000.0 0.25939983877678224 0.012743213911520607
860000000.0 -0.08604923628217909 -0.19251193711087924
880000000.0 -0.011933290102024591 -0.17221294030471404
900000000.0 0.11119754762969221 -0.0004861967957080357
920000000.0 -0.09750916173769818 -0.04417031200263852
940000000.0 -0.05603972244225969 0.10588605741305747
960000000.0 0.04735661127723964 0.08190158678920467
980000000.0 0.0551962889292638 -0.015804480956268487
1000000000.0 -0.000848476925184056 -0.0470502523021243
1020000000.0 0.0461631054294965 -0.044025061423886805
1040000000.0 0.07291481023927894 -0.061563018627705274
1060000000.0 0.12464416279556727 0.061198965553120814
1080000000.0 -0.11833341276491655 -0.1218653133895799
1100000000.0 -0.1387471188001317 -0.15365293677197653
1120000000.0 -0.23287944946983763 0.015851139220373126
1140000000.0 0.20903011152334666 -0.15660656079720875
1160000000.0 -0.09737265460513954 0.2551429577230453
1180000000.0 -0.2754687873374258 -0.09054583680723088
1200000000.0 -0.011034376192362133 0.29933013978505946
1220000000.0 -0.28152935288896364 -0.16227428674619104
1240000000.0 -0.26990544310345377 -0.18927364475749983
1260000000.0 -0.1786550110622804 -0.2849256511882754
1280000000.0 0.21112856671523741 -0.2563027493016917
1300000000.0 0.3434734584737696 0.04381627602682559
1320000000.0 0.000572135273769984 0.3560184602303573
1340000000.0 -0.08479782340863153 -0.3585213290641681
1360000000.0 0.3555392773297921 -0.13404830782287003
1380000000.0 -0.048368716921708646 0.38211547042500665
1400000000.0 -0.04680284522792852 -0.3844620323385777
1420000000.0 -0.2683985040359214 0.2748002248763228
1440000000.0 0.21158554905000374 0.31435963781224363
1460000000.0 -0.01642383778859622 -0.3714387705989049
1480000000.0 -0.3521894614065494 0.07175330838044187
1500000000.0 0.32870164652716216 0.009009073552424831
1520000000.0 0.22249558342786852 -0.21717766084738202
1540000000.0 -0.2872223899497327 -0.02111880668304661
1560000000.0 -0.2500865454519619 0.040484706679412605
1580000000.0 0.044262123093670204 -0.20621830353248236
1600000000.0 -0.1340090038413026 0.11619672759185656
1620000000.0 -0.14270261539856255 0.028772165127442288
1640000000.0 0.1087154653065305 0.04896362554567739
1660000000.0 -0.04410687906951091 -0.0831827612746738
1680000000.0 -0.037340594267078066 0.05976773373966414
1700000000.0 -0.039466770275900794 0.04058808920764788
1720000000.0 -0.023439032239116274 -0.031782233248776326
1740000000.0 -0.03102600047947424 -0.04069714752903228
1760000000.0 0.08453950677954176 -0.013665167752663947
1780000000.0 0.012614330706633486 0.10964384494168025
1800000000.0 -0.11678622145964174 0.06714079227789321
1820000000.0 -0.05254053822167874 -0.15536954134578143
1840000000.0 0.08165905038327606 -0.1715208519082243
1860000000.0 0.15984364315921784 -0.15231081554401393
1880000000.0 0.20014431871539423 -0.13574792415123516
1900000000.0 -0.20069749613427548 -0.17324336194266127
1920000000.0 0.004189683612069074 0.2843945439532589
1940000000.0 -0.1549792339437737 -0.25047469969960157
1960000000.0 0.09031052822919926 0.28506639134963574
1980000000.0 -0.20007061042246865 -0.2222216221927972
2000000000.0 0.26791920918010365 -0.14885662541052266
2020000000.0 0.2997887997067355 0.053899062315581184
2040000000.0 -0.1095159799012935 0.28411875930234987
2060000000.0 -0.24799802558770373 0.18028155885550326
2080000000.0 -0.29540159755807344 -0.08363015256808325
2100000000.0 0.08719039856470501 0.2953992468916294
2120000000.0 -0.28951879817313547 0.10734491538646196
2140000000.0 0.18680349129299334 -0.24026926228564924
2160000000.0 -0.29312232883067335 0.038629554435792454
2180000000.0 -0.1316575906395028 0.25085450917462104
2200000000.0 -0.24292114613895946 -0.14352176912271591
2220000000.0 -0.18592068215900823 -0.21448737513371569
2240000000.0 -0.1384033458559116 -0.24362907442391374
2260000000.0 0.0037849614495524086 -0.2741354220699406
2280000000.0 0.041113497908977586 -0.2592021102904616
2300000000.0 0.22205631951916713 0.10918102000091098
2320000000.0 -0.24243314339220107 0.021159405362396785
2340000000.0 -0.13638069381886736 -0.19537721847815648
2360000000.0 0.22524057409718243 0.03418872071947768
2380000000.0 -0.09756080296517121 -0.20656150636704018
2400000000.0 0.2228777246769795 0.08723225811305424
2420000000.0 0.19233155723556053 0.1799385885824932
2440000000.0 0.2844707421560433 -0.03704469888744806
2460000000.0 -0.20465455654083423 -0.2506779756446714
2480000000.0 -0.12081935637428054 0.3397834247025674
2500000000.0 -0.31696820739177256 -0.24456514139764948
2520000000.0 0.38332563463590713 -0.2174124709317134
2540000000.0 0.26064378289616097 0.40739387330996546
2560000000.0 -0.4962038099381056 0.14611886684741782
2580000000.0 0.2322928856239843 -0.4987969012348426
2600000000.0 0.10101612891722232 0.5678905199180528
2620000000.0 -0.34643887809631724 -0.4955950158039081
2640000000.0 0.6129655851098006 0.10399261088537645
2660000000.0 -0.4624891378604083 0.4413408240130691
2680000000.0 -0.3324958995881729 -0.5590807604734798
2700000000.0 0.38326299726300816 -0.5367379833192817
2720000000.0 0.6494304190484282 -0.14488893783771992
2740000000.0 0.6695761943265363 -0.02933215164518575
2760000000.0 0.6601951703614438 -0.1271150041751602
2780000000.0 -0.029440840453338765 0.6684612215967128
2800000000.0 -0.24597566351723765 0.6146342193496696
2820000000.0 -0.5766059353052382 0.30389873551687185
2840000000.0 -0.34593168818558306 -0.5394828766326523
2860000000.0 0.6177985895840161 0.1121997518708593
2880000000.0 -0.6042752911942114 -0.09876312512863791
2900000000.0 0.35967163343642217 0.4760817799223186
2920000000.0 0.35581971986182936 -0.45364255989427094
2940000000.0 -0.42781892543402805 -0.3497797303850309
2960000000.0 -0.5193174271515427 0.11378086635396284
2980000000.0 0.1377620038467528 0.48849695370132123
3000000000.0 0.4837400458149576 0.0114633760366319
3020000000.0 -0.2708764577333892 -0.37307366054938396
3040000000.0 0.1918779245731528 0.38877482315633105
3060000000.0 -0.025944319022169194 -0.40224362575851147
3080000000.0 -0.24880930287665914 0.28590495824581325
3100000000.0 0.3012817695957004 -0.20149149966391064
3120000000.0 -0.11645294324062487 -0.3277610971927787
3140000000.0 0.15760963682065304 0.30293960121278063
3160000000.0 -0.07488029465378594 -0.3302505548874667
3180000000.0 0.18365685903996257 0.27680841231661296
3200000000.0 0.2264994687688306 -0.2292288720255901
3220000000.0 -0.2540961711004007 -0.1890410349658559
3240000000.0 -0.2960357883487697 -0.053194994723879
3260000000.0 -0.261719977227471 -0.11916120498224521
3280000000.0 0.18087228290435148 -0.2096736040506291
3300000000.0 0.0906438978581678 -0.24033487168459625
3320000000.0 0.22553387643610887 -0.03318827353409454
3340000000.0 -0.10351097226388939 -0.17429213041837283
3360000000.0 -0.1788378016944126 0.03942897204233481
3380000000.0 0.13715348872935446 -0.08755828223536151
3400000000.0 -0.06718470437995235 -0.12973641521727666
3420000000.0 0.11412700474004123 0.07175750168044455
3440000000.0 0.06336703019984259 0.10228353309922385
3460000000.0 0.0974128042448875 -0.024432383310295663
3480000000.0 0.06328198007814344 0.061631337071551814
3500000000.0 0.07411360083708467 0.01670745899190771
3520000000.0 0.07291364896056853 0.01778683649018214
3540000000.0 0.0427922437298124 0.06570225860964532
3560000000.0 0.07170461936512794 -0.041450530818846795
3580000000.0 -0.05325398494474043 0.07130945428974526
3600000000.0 -0.08275106638601683 -0.04519257181923571
3620000000.0 -0.09378673227537754 -0.0268308423331005
3640000000.0 -0.010018273923977335 0.10141001608002286
3660000000.0 0.026734484876588395 -0.10182076814254969
3680000000.0 0.11134245406592168 -0.012039308598895564
3700000000.0 0.08537118118878118 0.07279473038565039
3720000000.0 0.0938245669913898 -0.03311277977299794
3740000000.0 -0.023676238736129476 0.08298808680946909
3760000000.0 -0.024103504874236827 -0.06281998711020409
3780000000.0 0.03619568198641692 0.04618147298639114
3800000000.0 -0.04606325864960132 0.028745025436387777
3820000000.0 0.04362796702269707 0.019600564223788416
3840000000.0 0.02752862008877986 -0.04678036418793344
3860000000.0 0.003944677653957336 -0.06174743154233302
3880000000.0 -0.06289754323130188 0.05844594170692401
3900000000.0 -0.09411640625855466 0.04651195850965988
3920000000.0 -0.027660494143302183 0.11096743769209037
3940000000.0 -0.01360190402445922 0.1142962447156601
3960000000.0 -0.022555876377840896 -0.09748358833236323
3980000000.0 -0.008302775233288762 -0.09006075929416883
4000000000.0 0.07201092744248261 -0.029325727887014295
