!Created with skrf (http://scikit-rf.org).
# Hz S RI R 50.0 
!freq ReS11 ImS11
400000000.0 0.7888081677722953 -0.3583255149125098
420000000.0 -0.1225832684191328 0.7995972525742145
440000000.0 -0.27559543735686703 -0.7313492072651279
460000000.0 0.4992681199171908 0.5665907013274137
480000000.0 0.14674426978867117 -0.7301306624490812
500000000.0 0.2050419259266332 -0.6510456012735204
520000000.0 0.558306743741099 0.09299904409168591
540000000.0 -0.4011263749600739 0.18531762930012102
560000000.0 0.18219186201784104 -0.30677235565665767
580000000.0 -0.2731387949528701 0.21681101470492617
600000000.0 0.29811228494550907 0.20305137948953364
620000000.0 0.32046683910823526 0.13444220069666085
640000000.0 0.30799976624286757 0.215555675574932
660000000.0 -0.387500678008482 0.11939298861159836
680000000.0 -0.07664381308705155 0.3639242882848695
700000000.0 -0.07746766896314318 -0.33263843265429377
720000000.0 -0.19400672475449035 -0.2894410377483224
740000000.0 0.29497042965405645 0.14671387767569083
760000000.0 -0.260062280636471 0.16149344377884517
780000000.0 0.22354504744600173 -0.2333042811487457
800000000.0 0.2633500163381492 -0.10987082665921566
820000000.0 -0.2667755687213011 0.027202356036686602
840000000.0 -0.0832820048874865 -0.2264449638562937
860000000.0 -0.19045039690657173 -0.0850549354739138
880000000.0 0.15370480753672272 0.08913689670335467
900000000.0 -0.12852860973402877 0.021155982618250725
920000000.0 0.08730505985228555 0.06859608116559694
940000000.0 -0.002667083011627284 -0.10497543225765422
960000000.0 0.034808438119999265 -0.07864972133165225
980000000.0 -0.00358594497275947 0.04814462782418019
1000000000.0 -0.034053626842646706 -0.002277975280454835
1020000000.0 0.03292564574035827 -0.04936879520739681
1040000000.0 -0.10953130837667921 -0.014451664493645064
1060000000.0 0.0806278412123663 0.11552360834775609
1080000000.0 -0.1249004256826693 0.08893272774906785
1100000000.0 0.12041506797622001 0.15432255940864767
1120000000.0 0.23749843467629356 -0.02112254378932241
1140000000.0 0.2720750857779222 0.0009681433005084342
1160000000.0 0.08991573004164893 -0.2667104741160623
1180000000.0 -0.14890122802440306 0.23717309257614894
1200000000.0 0.034424797317296335 0.2929248843648313
1220000000.0 -0.19944688624798856 -0.2513561578258201
1240000000.0 0.013317425667597613 -0.33032433485742746
1260000000.0 -0.15051790832262807 -0.30620619873672184
1280000000.0 -0.028643637111165007 -0.3367287644284389
1300000000.0 -0.03323377063193458 -0.3441067853735029
1320000000.0 0.2611616840662097 0.22667928134910342
1340000000.0 0.18822235963689696 -0.3094986760292459
1360000000.0 0.3580333567125103 0.1088373467338145
1380000000.0 -0.37846910929076066 0.0637830409517316
1400000000.0 0.05497485249059708 -0.3917003164703856
1420000000.0 0.27484872515061587 0.268075906768386
1440000000.0 0.3667075150096648 -0.0368428603825033
1460000000.0 0.32849574450275104 0.147771000038181
1480000000.0 -0.22626179922974277 -0.2858295480471056
1500000000.0 0.1744324710491744 0.28888377008257726
1520000000.0 -0.22981070573218298 -0.21620632329711553
1540000000.0 -0.24129151161621537 0.15010709401307
1560000000.0 -0.24638167252042262 0.00637570069079814
1580000000.0 0.18033342899994959 0.09708515975666207
1600000000.0 0.07656469125028015 -0.16520202569104558
1620000000.0 -0.13384897395674503 -0.07742757457699354
1640000000.0 0.0197341882689687 -0.12185645732730752
1660000000.0 -0.08991103260308055 -0.023862240678816028
1680000000.0 -0.01952179671591663 -0.07054293101184243
1700000000.0 -0.04822690339490197 -0.017377800721775305
1720000000.0 -0.002512511565540874 0.04563990686442793
1740000000.0 0.05530521456065593 -0.01180142871031755
1760000000.0 0.04258955159641941 -0.06201281385673115
1780000000.0 0.04686429817953781 -0.08104693043473211
1800000000.0 -0.04006757656383968 0.12451779201671415
1820000000.0 -0.06775897773194883 0.15791806678221987
1840000000.0 0.1775506335357334 -0.10041729866845607
1860000000.0 -0.21891912679469908 0.07408992189487118
1880000000.0 -0.1008311517975388 0.21424042062552773
1900000000.0 -0.249382481567486 0.04148107233712935
1920000000.0 -0.23661858913210618 0.13720332672128996
1940000000.0 0.2091677250941679 0.19719448252926502
1960000000.0 -0.22246852546613416 -0.21000782960678432
1980000000.0 -0.020426941760265938 -0.3130685710572538
2000000000.0 -0.07825221800400613 -0.3058757887993541
2020000000.0 -0.0809737623307369 -0.2928852098807607
2040000000.0 0.044011834112428316 0.2965480283012561
2060000000.0 -0.20123474779039677 0.22512636718295817
2080000000.0 -0.12282402470614134 -0.28183446491545117
2100000000.0 -0.04430435187815597 0.30761128864425574
2120000000.0 -0.26619174305510135 0.16624538531271424
2140000000.0 0.024002283754222045 -0.3059606115353634
2160000000.0 -0.2545167783236457 0.15389810889025632
2180000000.0 0.11995087938925848 0.2561954174027659
2200000000.0 -0.26625490126780366 -0.08000177835900196
2220000000.0 -0.006903160113361844 -0.2808219811840012
2240000000.0 0.03515999868562398 -0.2815311945379905
2260000000.0 -0.10981010815793385 -0.25591757948055266
2280000000.0 -0.05846880801812478 -0.2561014730605828
2300000000.0 0.1453237525018647 -0.19994673464229584
2320000000.0 -0.18985279726765472 0.14422880385485468
2340000000.0 -0.007751682740235753 -0.23181525204683878
2360000000.0 0.040393861446233754 0.22281078790724423
2380000000.0 -0.0491079305748261 -0.22574873264666281
2400000000.0 0.1873519919007403 0.1516593968357079
2420000000.0 0.24412344154692664 0.09785728605182129
2440000000.0 0.2868667459352203 -0.005225407806218755
2460000000.0 -0.18008161073405374 -0.2661679725388694
2480000000.0 -0.26167129174268455 0.2500692640290591
2500000000.0 -0.267870227262749 -0.30177234990797847
2520000000.0 0.3622120502026024 -0.2551165293713558
2540000000.0 0.27963268619590964 0.39472685646933464
2560000000.0 -0.5163424800853021 -0.015782705700000746
2580000000.0 0.31704552561298316 -0.4518011643136276
2600000000.0 0.11565779365894939 0.5668954992167613
2620000000.0 -0.4765738775391931 -0.37221040937084227
2640000000.0 0.6192880425472793 0.03854388340418301
2660000000.0 -0.44768420426867406 0.4535842928028491
2680000000.0 -0.3626922697717664 -0.5388049992442576
2700000000.0 0.37724806863150884 -0.541336819456477
2720000000.0 0.631692984393732 -0.21082413995677102
2740000000.0 0.6689665661578253 -0.062308383683304276
2760000000.0 0.671990604335172 -0.0518031852663877
2780000000.0 -0.10612517730498039 0.6615074903787718
2800000000.0 -0.2599724921370482 0.6098600700393069
2820000000.0 -0.5754710860305252 0.30830409684548854
2840000000.0 -0.37671013252161717 -0.5192676482610397
2860000000.0 0.6072323758399782 0.15795902177007187
2880000000.0 -0.5936143759476723 -0.15309083921352065
2900000000.0 0.3131952790625844 0.509114273003309
2920000000.0 0.40113234667788966 -0.41574953230589273
2940000000.0 -0.4203580654184647 -0.3639443963123296
2960000000.0 -0.43164916488846244 0.31534349460700295
2980000000.0 0.2374442863824017 0.44853122813106144
3000000000.0 0.4112346910105408 -0.2550980339245077
3020000000.0 -0.3785675422083862 -0.25694064650313286
3040000000.0 -0.042927276751424916 0.43011286382809194
3060000000.0 -0.02600230135320162 -0.4055064069732005
3080000000.0 -0.040575672011804835 0.3768547987185122
3100000000.0 0.10709576535062551 -0.3434669369557737
3120000000.0 -0.23138907197050723 -0.25261837490627886
3140000000.0 0.1273711261263936 0.31172286619889544
3160000000.0 0.13948710337880382 -0.3067140888809608
3180000000.0 0.18380361193321187 0.27557852091798307
3200000000.0 0.2903699232957666 -0.13471242853144647
3220000000.0 -0.13489427012031707 -0.286094957031365
3240000000.0 -0.10970244755709194 -0.281059809989083
3260000000.0 -0.20398049175586339 -0.20140600359912486
3280000000.0 0.2704691939083356 -0.04553375126042742
3300000000.0 0.2152308328334505 0.1400835710838393
3320000000.0 0.18498248045499432 0.14442996651176845
3340000000.0 -0.16810421845090587 0.12097855788844321
3360000000.0 0.15334113739338226 0.09443141342424786
3380000000.0 0.13965472358498696 -0.07461975991191211
3400000000.0 -0.0054599119735136425 -0.14790920485672293
3420000000.0 0.11433740711281093 0.07413018415188967
3440000000.0 0.1238106630683164 0.0072305514395334764
3460000000.0 -0.10380744711075807 -0.021851522399245493
3480000000.0 0.011386593512184547 -0.08819172145140297
3500000000.0 -0.051535719706627264 0.05106370068579325
3520000000.0 -0.00012062517332372922 0.06884605923735294
3540000000.0 -0.024773118369685976 -0.07361154970982914
3560000000.0 -0.029108734536616703 0.07800265728258067
3580000000.0 -0.0010622145469123758 0.08778462958105542
3600000000.0 0.06765893183700507 0.05790346155745997
3620000000.0 0.09073678845356684 0.03060290734786211
3640000000.0 -0.0967175766622307 -0.03740588398473986
3660000000.0 0.0399818923697429 -0.09850349477556172
3680000000.0 0.001742836775636335 -0.11131672726692587
3700000000.0 0.04653012901253683 -0.10027494305522724
3720000000.0 0.05062878878043651 0.08274001298956743
3740000000.0 -0.03632983255301599 0.07835259402761795
3760000000.0 -0.049452801191127334 -0.05036878072336089
3780000000.0 0.051298666519514466 -0.023625612759108156
3800000000.0 0.03322696009135702 0.031216782723592667
3820000000.0 -0.04240621597399625 0.016379659888069845
3840000000.0 -0.04880581936364685 -0.0286439521889886
3860000000.0 -0.05840453879187454 -0.02557452616460343
3880000000.0 -0.018760157733869427 0.08479302244180706
3900000000.0 -0.07147338141621784 -0.07420047200678814
3920000000.0 -0.11477065866067326 0.009892412854508212
3940000000.0 -0.002701710265184494 0.11635155203727783
3960000000.0 -0.09937420513893046 0.025699515501080253
3980000000.0 0.06392521173197736 0.06023088984826637
4000000000.0 -0.06203485572513534 -0.034865261895042035
