!Created with skrf (http://scikit-rf.org).
# Hz S RI R 50.0 
!freq ReS11 ImS11
400000000.0 0.7512709142210094 -0.4270272177795532
420000000.0 -0.32923427724526994 0.7384837635325696
440000000.0 -0.2991623817482296 -0.7240904732442145
460000000.0 0.7219437767533773 0.2263486662851005
480000000.0 -0.24273413191641854 -0.6835077423031153
500000000.0 0.6690931401995749 0.06336380750120096
520000000.0 -0.17313962623419074 0.5266011636528198
540000000.0 0.23410188797020381 -0.3864770589614035
560000000.0 -0.18542327915379586 -0.31666558213995727
580000000.0 -0.0007433961955867632 -0.32053655495896155
600000000.0 0.0710021507009151 0.3260394402344132
620000000.0 -0.34347290568121025 -0.11544055880095752
640000000.0 -0.38959502044470146 -0.008068677003986266
660000000.0 -0.36356216074217523 -0.20172488822573026
680000000.0 -0.26326762655137176 0.2690859455456531
700000000.0 0.144050883454206 0.31810948937672756
720000000.0 -0.13032832796385188 -0.3377237573759876
740000000.0 0.2989710938778832 -0.16287202192353128
760000000.0 -0.25529426460155225 -0.16125018354340181
780000000.0 0.07615074185938707 0.31874179933693475
800000000.0 -0.10408903996982347 0.28883798334619426
820000000.0 -0.10361407037602165 0.2607430636098127
840000000.0 0.1396416236608417 0.22218915655586852
860000000.0 -0.13155997837663938 -0.15666125241413142
880000000.0 0.13971053380964296 -0.10194208734148731
900000000.0 0.05714130036559518 0.09964319130843592
920000000.0 0.07194501029291335 0.08867604961306004
940000000.0 0.021500883118797803 -0.11216190148777963
960000000.0 0.022263184715359798 -0.08549011238318897
980000000.0 -0.0491818686689881 0.03197193629099348
1000000000.0 -0.012728349309921793 0.046130074321924196
1020000000.0 0.051627736054465974 0.043695810554399486
1040000000.0 0.05159742989595365 -0.08300371342970027
1060000000.0 0.03807348476537198 0.13390279954314285
1080000000.0 -0.13901746746252489 0.10290689203025963
1100000000.0 -0.1588177837053904 0.12815404370987035
1120000000.0 -0.12410748091877438 -0.19254432788719134
1140000000.0 0.2625009267302018 -0.032040954206846044
1160000000.0 0.15083256361742495 0.22741658699368525
1180000000.0 -0.20977316611689217 -0.19631760904376236
1200000000.0 -0.09751894495103623 0.28544898485549475
1220000000.0 -0.327015363947694 0.03109448146042993
1240000000.0 -0.3238086787545134 0.002775811350545655
1260000000.0 0.1461782088801703 -0.2994017903449176
1280000000.0 0.3316620381161802 -0.06726734749220858
1300000000.0 0.25458334503029584 -0.24009336324139396
1320000000.0 0.035519208460470415 0.3501831934304742
1340000000.0 0.11430999133338814 -0.3525095457970068
1360000000.0 0.23816747669849153 -0.2963269327126886
1380000000.0 -0.11424825527071193 0.36374434100163133
1400000000.0 0.1110951185073345 -0.3707880751137469
1420000000.0 -0.16264746588539156 0.35158694768493204
1440000000.0 0.3585240058573133 0.11766979108187617
1460000000.0 0.10873345709953906 -0.3520592102369937
1480000000.0 -0.3530322454275196 0.07892185870098849
1500000000.0 0.3067523889168423 0.11816223971816753
1520000000.0 0.1814464976168545 -0.2537406035115766
1540000000.0 -0.278612122625523 0.06267960580647448
1560000000.0 -0.226359306224709 -0.11294819573636715
1580000000.0 0.060498435106514564 -0.20539352989441234
1600000000.0 0.025610968074203922 0.17476554179639645
1620000000.0 -0.12625262755164376 -0.06361943830655752
1640000000.0 0.09501705244495458 0.07770545598203688
1660000000.0 -0.05661661025479608 -0.07710522543861063
1680000000.0 0.05834468086932046 -0.039742890478486614
1700000000.0 -0.04961132408425764 0.025677373710112986
1720000000.0 0.011612726423932872 0.03904994416069923
1740000000.0 -0.030751199625520996 0.0422767323403028
1760000000.0 0.02851159523421983 -0.07665762377385088
1780000000.0 -0.10866793844006244 -0.015899965460450326
1800000000.0 -0.12065415444673315 0.06852103767584597
1820000000.0 -0.11985954871177347 0.11201840352295607
1840000000.0 0.06771801757407928 -0.17222566590577218
1860000000.0 0.22054983913667284 0.019099083534920472
1880000000.0 0.18694860373150224 -0.15831791742429785
1900000000.0 -0.24602009096674607 -0.09556503564289033
1920000000.0 -0.05553114337921712 0.2777166551811788
1940000000.0 -0.13348052998975418 -0.26337103827254177
1960000000.0 0.10573346741397677 0.27902059001420504
1980000000.0 -0.11997116513915608 -0.2725809414432758
2000000000.0 0.2699872089996105 -0.15195232967826955
2020000000.0 0.2979082901499244 -0.06106046454153457
2040000000.0 -0.09192334023482752 0.2887125313504866
2060000000.0 -0.2800187706913486 0.12611108295763312
2080000000.0 -0.3067374406012204 -0.020977418476583496
2100000000.0 0.07644981727027604 0.2982610434203437
2120000000.0 -0.3064054042807118 0.05040597196825414
2140000000.0 0.2047808664336435 -0.22482828994507512
2160000000.0 -0.2805154566251937 0.09584849287320539
2180000000.0 -0.16839591992765637 0.2270649629137176
2200000000.0 -0.2630659887996511 -0.10016202992688508
2220000000.0 -0.1366876902815157 -0.24747387991822437
2240000000.0 -0.20458288204408243 -0.19263231828281824
2260000000.0 -0.05250589634164381 -0.26912406324036814
2280000000.0 0.09835907030512553 -0.24094559726801842
2300000000.0 0.12983768622531944 0.21285139878181605
2320000000.0 -0.15826005840268195 0.1885370841944268
2340000000.0 -0.16721878283245428 -0.16676970224788995
2360000000.0 0.15259356123041934 0.1680365336539173
2380000000.0 -0.06792548432037673 -0.21961530149653322
2400000000.0 0.22960878674717936 0.06993177876962406
2420000000.0 0.2435249416739234 0.09232407574616164
2440000000.0 0.285221742066887 0.018863694432869657
2460000000.0 -0.18242855984531484 -0.2663674728356372
2480000000.0 -0.09684835113502059 0.3471317163389616
2500000000.0 -0.291157687262839 -0.274612399406404
2520000000.0 0.37072091199834273 -0.23993090004117493
2540000000.0 0.2344794959836223 0.42314313044211566
2560000000.0 -0.5113058820028419 0.08012303322458691
2580000000.0 0.22457774151235196 -0.5035487089286435
2600000000.0 0.11835079717422504 0.564640821260586
2620000000.0 -0.3196794998073926 -0.5126465869578813
2640000000.0 0.6166392860943387 0.07574467215956336
2660000000.0 -0.4813366247751588 0.4199184703050496
2680000000.0 -0.36058154053698377 -0.5409776315200033
2700000000.0 0.332786195371216 -0.5694935318777306
2720000000.0 0.6303637023880738 -0.2136371591144569
2740000000.0 0.670602736965559 -0.026032635840164787
2760000000.0 0.6634911228082699 -0.11391943892582132
2780000000.0 -0.010065878088623118 0.6700897109574456
2800000000.0 -0.19922659325949613 0.6326239698716752
2820000000.0 -0.5771831513010927 0.3056427893680859
2840000000.0 -0.3589373414550816 -0.5316440348761885
2860000000.0 0.6014641959632016 0.17989013575979876
2880000000.0 -0.5979469671954799 -0.13049075402562332
2900000000.0 0.32085235771832715 0.502748214363155
2920000000.0 0.3399023984942364 -0.4665922428944948
2940000000.0 -0.48224320289294575 -0.26822033990290867
2960000000.0 -0.5022900864782952 0.17052271704698338
2980000000.0 0.06634966354992242 0.5018883816178722
3000000000.0 0.48535841233035604 -0.004526471637077839
3020000000.0 -0.3086519788213966 -0.342864544372946
3040000000.0 0.13286065674264835 0.41204483387012664
3060000000.0 -0.07488348808720967 -0.396596845462986
3080000000.0 -0.17497380019669467 0.33736177612223767
3100000000.0 0.26801480745044415 -0.2428284215470484
3120000000.0 0.027634214442094726 -0.3454802973231144
3140000000.0 0.026010443153592792 0.3420402243703345
3160000000.0 -0.06684031430951742 -0.3340793619023768
3180000000.0 0.17737312974995528 0.28047376188339507
3200000000.0 0.19571236817588444 -0.2555959351461684
3220000000.0 -0.1681056361701451 -0.26538890716173574
3240000000.0 -0.16035290202446642 -0.2563635715709981
3260000000.0 -0.25620231301573587 -0.13377114113468394
3280000000.0 0.15324558501914035 -0.22883348324994185
3300000000.0 0.1297151652399123 -0.2185273135988726
3320000000.0 0.22660793429884463 0.011912701187349514
3340000000.0 -0.13070761416909715 -0.15429828686442476
3360000000.0 -0.15902186328516446 0.09017550053061492
3380000000.0 0.14166802510039844 -0.07676083637728962
3400000000.0 -0.12611081956598222 -0.0757841338636176
3420000000.0 0.0807890307864379 -0.10664543291808776
3440000000.0 0.06192349359934602 0.10122800640473165
3460000000.0 0.10007882205754819 -0.008826555213024776
3480000000.0 0.06322348962296331 0.06453340175609393
3500000000.0 -0.051640249737993714 -0.056004891577884165
3520000000.0 0.030295177553358716 0.06670787459632639
3540000000.0 0.018119142998921735 0.07713458916309879
3560000000.0 0.05930976802302855 -0.059417924450475224
3580000000.0 0.08719700439138861 0.01779735440217106
3600000000.0 -0.04297803970558439 -0.08385937356766875
3620000000.0 -0.07864095782530976 -0.05466620446727229
3640000000.0 -0.012131742788136822 0.10093090169876728
3660000000.0 0.05365151521075277 -0.08718543025167286
3680000000.0 0.0940582916569902 -0.058285705020627694
3700000000.0 0.004775891175699398 0.1118013221377701
3720000000.0 0.1000822905674255 -0.00829327707642254
3740000000.0 0.061912359904271255 0.0583871696428983
3760000000.0 -0.020130444845791733 -0.06150218763432191
3780000000.0 0.038629941324317824 0.04259452353173463
3800000000.0 -0.05181776880326228 -0.012106963149328536
3820000000.0 -0.027030015364660095 -0.04009458817866249
3840000000.0 -0.005245743472653867 -0.05280084246151977
3860000000.0 0.022547655929683136 -0.055451124445570515
3880000000.0 -0.01069627281159552 0.08582440583086136
3900000000.0 -0.07940064118860206 0.06691290656300913
3920000000.0 -0.01715353747251914 0.1112571266458025
3940000000.0 0.006448603944587424 0.11215588974438766
3960000000.0 -0.06255452921231176 -0.07471280670592477
3980000000.0 0.0823892270758917 -0.03021038618281402
4000000000.0 0.061529699176606646 -0.04587691416560344
