!Created with skrf (http://scikit-rf.org).
# Hz S RI R 50.0 
!freq ReS11 ImS11
400000000.0 0.7660484735655407 -0.40399310234847846
420000000.0 -0.19537971763536452 0.7863002547321826
440000000.0 -0.18271749450558825 -0.7584791726572663
460000000.0 0.6659598377432073 0.36542500226051866
480000000.0 -0.4109014568912597 -0.5995169705990989
500000000.0 0.6730822307280352 0.002978189327526932
520000000.0 0.17320563052111168 0.5210506078369399
540000000.0 0.4550337344196158 -0.016770307267925947
560000000.0 0.010177079202737811 -0.3635926122770602
580000000.0 -0.0846288719360544 -0.3131923724899195
600000000.0 0.19788488840805551 0.27148332477817216
620000000.0 -0.35010079234643704 0.088917419328169
640000000.0 -0.37906071737839464 0.0517482468935106
660000000.0 -0.22675943350633668 -0.3444583689656961
680000000.0 -0.3673972469601763 -0.09910101181022242
700000000.0 0.3534344692555044 -0.008968422749450297
720000000.0 -0.3599371512017197 0.06817120729862247
740000000.0 0.03321065654536944 -0.3324069376721562
760000000.0 0.09371862117303677 -0.27983946269463633
780000000.0 -0.20976393868859858 0.2572519901893084
800000000.0 -0.16858749117079572 0.2608829009464049
820000000.0 -0.0795342987115692 0.27199257546769817
840000000.0 0.24222155799750317 -0.09237885074048519
860000000.0 -0.030554481314360622 0.20378058086625567
880000000.0 -0.04710317160391077 0.1565168464623534
900000000.0 0.08967104828179064 -0.08641185079824158
920000000.0 -0.03044830733634343 -0.11565374874073792
940000000.0 -0.10835326391118279 0.03389554445814335
960000000.0 0.043378419562197984 0.07288577753153612
980000000.0 -0.03226030288072458 -0.03769460774524108
1000000000.0 0.039409619580939144 0.02278647759990627
1020000000.0 -0.03316399225383838 -0.056636474390143014
1040000000.0 0.03005909600439741 0.09418153242451116
1060000000.0 -0.06786289672536222 -0.1256211504925046
1080000000.0 -0.004031674982762272 0.178736412333309
1100000000.0 0.07686406985875731 0.18558122368623034
1120000000.0 -0.02829554341763504 -0.22237155835762656
1140000000.0 0.24135510412364852 0.10424210507986936
1160000000.0 0.06456769650124793 0.2687246092199956
1180000000.0 -0.28768677719575886 0.022797021488335196
1200000000.0 0.06997666563801726 0.29196167707404724
1220000000.0 -0.31257854855962625 -0.08896076353925383
1240000000.0 -0.3032433829848223 -0.1238362107845603
1260000000.0 -0.04039973857317197 -0.33264612179741637
1280000000.0 0.30850422200879674 -0.13601957314050336
1300000000.0 0.2574404678840596 -0.23109893254073893
1320000000.0 -0.01700495719772099 0.3526266035940063
1340000000.0 0.15031382372950608 -0.34176849416682226
1360000000.0 0.23800378785965748 -0.2949897711571539
1380000000.0 -0.1626428256893357 0.345254519006916
1400000000.0 0.09732296854527442 -0.37658050687182987
1420000000.0 -0.1567496453933616 0.35121150725748196
1440000000.0 0.2874367038107548 0.24551327011372978
1460000000.0 0.026229281552324735 -0.36791062854504547
1480000000.0 -0.35275366301823463 0.08138453488909454
1500000000.0 0.2599621089695915 0.20137290964501933
1520000000.0 0.18853734951556803 -0.2483869428089387
1540000000.0 -0.26942392550403005 0.09863210382244454
1560000000.0 -0.24161407144234118 -0.07209645735381168
1580000000.0 0.0650633981391651 -0.20038305408913493
1600000000.0 -0.058647875698002665 0.16962413462432985
1620000000.0 -0.12945737399513874 -0.0564021673871533
1640000000.0 -0.01971075390004454 0.11718242705334202
1660000000.0 -0.07596807799592066 -0.06330379007477403
1680000000.0 0.06104862832711263 -0.02625154415095509
1700000000.0 -0.046748239596879695 -0.030961764479029156
1720000000.0 0.012646005286579 -0.04159997090216551
1740000000.0 0.012584721595136837 0.04960240073585405
1760000000.0 0.05260851332562074 0.06486637357049767
1780000000.0 -0.08172901167954542 0.07567128481764257
1800000000.0 -0.06966456962965512 0.1189786512564453
1820000000.0 -0.088733060002148 -0.13536252361548984
1840000000.0 0.09285135883074859 -0.16562992345706137
1860000000.0 0.20569143781638008 -0.07637824825401779
1880000000.0 0.20817798640722895 -0.12571358185995296
1900000000.0 -0.2529623538819496 -0.07716764262197094
1920000000.0 -0.05344113507229277 0.2789544501940913
1940000000.0 -0.0706224400148946 -0.28580631445886917
1960000000.0 0.13652087000498112 0.2657177391075694
1980000000.0 -0.21820255961569743 -0.20309493015288252
2000000000.0 0.2948872963697168 -0.08560622936866329
2020000000.0 0.2995658568741481 0.06141534541825511
2040000000.0 -0.05464651622390706 0.29845601424200036
2060000000.0 -0.2595403485970589 0.16264804508416517
2080000000.0 -0.2975405134908792 -0.0766405946769268
2100000000.0 0.12423961483387505 0.28314272655379535
2120000000.0 -0.29614729131474243 0.08863020370311706
2140000000.0 0.15926284220855927 -0.25923007350640337
2160000000.0 -0.29252716332851697 0.041129535042627875
2180000000.0 -0.21427673324210478 0.18709164628713343
2200000000.0 -0.27468821849351777 -0.06866400014609773
2220000000.0 -0.20531130597158706 -0.19390289028456814
2240000000.0 -0.09242667320911102 -0.2634637154382124
2260000000.0 0.08093254808713318 -0.26359078920927015
2280000000.0 0.023550203278053464 -0.25996732568068176
2300000000.0 0.22440994107999965 0.10645547982324655
2320000000.0 -0.23018100176080142 0.07641479092879706
2340000000.0 -0.15391116779793695 -0.18120914845433653
2360000000.0 0.1851754988676229 0.1328022588310123
2380000000.0 -0.15444893215257965 -0.17103196600798307
2400000000.0 0.22965662851940308 0.06462505788854576
2420000000.0 0.2031267628085498 0.166669607508667
2440000000.0 0.2828912747890483 0.05382991030543841
2460000000.0 -0.25298725798855587 -0.2025468709604015
2480000000.0 -0.07672232404776284 0.3529921345053241
2500000000.0 -0.2912846949215569 -0.2745794355237083
2520000000.0 0.42749967612851014 -0.10468432284157686
2540000000.0 0.28081869405024784 0.3941585326962161
2560000000.0 -0.5032709748310207 0.11936603866260576
2580000000.0 0.23209277856466196 -0.499617526519533
2600000000.0 0.1835904077866905 0.5474714145591412
2620000000.0 -0.420756333674252 -0.432708512507321
2640000000.0 0.6011120034768518 0.15796816940566974
2660000000.0 -0.44852418265796096 0.4559189041510746
2680000000.0 -0.3932580757191944 -0.5172666127529909
2700000000.0 0.40083812879315217 -0.5243841071772128
2720000000.0 0.6364875129326225 -0.1941676504872405
2740000000.0 0.6675484694590476 -0.05801855471978423
2760000000.0 0.6652667153188794 -0.0951549654125485
2780000000.0 -0.01689669061849547 0.6686172368324259
2800000000.0 -0.2556093280253055 0.6108284453003496
2820000000.0 -0.583522790436664 0.2907197624743305
2840000000.0 -0.35997305668495705 -0.5302129803849063
2860000000.0 0.6174905902637655 0.11236708322741366
2880000000.0 -0.5966098778565925 -0.13797164880250187
2900000000.0 0.3275617154875649 0.4997020491010451
2920000000.0 0.37004130734057794 -0.4415463160418253
2940000000.0 -0.4449063648206962 -0.32602484193745473
2960000000.0 -0.5127066911692636 0.13694170678702147
2980000000.0 0.018946038285400098 0.5068339876657545
3000000000.0 0.4834250227041308 0.04190631723728325
3020000000.0 -0.33257294729185827 -0.32082817417749115
3040000000.0 0.17922841320528018 0.3930536994602578
3060000000.0 0.018361380100563127 -0.4025647791354691
3080000000.0 -0.30457594111350816 0.22757201958448217
3100000000.0 0.26260137083761076 -0.2486343713860494
3120000000.0 0.07026549527194545 -0.34063643063905147
3140000000.0 0.18069605178503736 0.29199127489654136
3160000000.0 -0.10157793149405894 -0.32227285361350666
3180000000.0 0.14852920455400395 0.2964762094796432
3200000000.0 0.2606345061995805 -0.1905380549736426
3220000000.0 -0.29343449853630815 -0.11226407226465274
3240000000.0 -0.16846909371511942 -0.24917193452336234
3260000000.0 -0.26802992533526887 -0.11505491074354414
3280000000.0 -0.06036456346647441 -0.2662394863349816
3300000000.0 0.22954501621353024 -0.10934080297594734
3320000000.0 0.21459538633130582 0.08590225901978245
3340000000.0 -0.20023392344105742 -0.0265237387708116
3360000000.0 -0.15065520438950036 -0.1007836948663414
3380000000.0 0.148882983296636 -0.06837898642152926
3400000000.0 -0.1207365270078387 -0.08237576710323093
3420000000.0 0.03186339831479961 0.12905344703458574
3440000000.0 0.027780123467951535 0.11814256588953968
3460000000.0 0.016871457245958097 -0.09820038271116681
3480000000.0 -0.07978772927344151 0.034674022252741896
3500000000.0 0.07295172010648633 -0.025596686818254565
3520000000.0 0.06796825762764004 -0.025884790616718605
3540000000.0 -0.0777416488492624 -0.0026699976904370855
3560000000.0 0.0841843681856153 0.023002940654374377
3580000000.0 -0.0055564688447686415 -0.09032255187175606
3600000000.0 -0.08640005331106414 0.01700207018182264
3620000000.0 0.059648982674580714 -0.07669403661077467
3640000000.0 0.03987918752550563 0.09684000014332975
3660000000.0 -0.07061339596490467 -0.07688023649408732
3680000000.0 0.09758373033887711 0.05251757341189577
3700000000.0 0.09316532897937312 0.06729390093647432
3720000000.0 0.01440496887500112 -0.09915337105795265
3740000000.0 0.030630568832105003 0.0774581860776447
3760000000.0 0.02705828394928921 0.06119568471345286
3780000000.0 0.028135961491882182 0.05396231492334424
3800000000.0 0.033090784197300195 0.04543536901201318
3820000000.0 -0.040666536460866404 0.01969463280105841
3840000000.0 -0.0027165107297128623 -0.051977524978575954
3860000000.0 -0.03133252737580813 -0.05944969062191082
3880000000.0 0.08389425902854569 -0.012813882065790079
3900000000.0 -0.10278186286674093 0.0009281210518607874
3920000000.0 -0.08471939638879386 0.0744913810379679
3940000000.0 -0.06466260369852209 0.09475488865297171
3960000000.0 0.018823605333029802 -0.09868179183062661
3980000000.0 -0.09084065644071215 -0.018496898125298165
4000000000.0 -0.04144684029990149 -0.06129037423493431
