!Created with skrf (http://scikit-rf.org).
# Hz S RI R 50.0 
!freq ReS11 ImS11
400000000.0 0.7352198439202101 -0.4553839909532349
420000000.0 -0.3374910868076054 0.7317899057345044
440000000.0 -0.14248515114442545 -0.7699999197616944
460000000.0 0.7357530260855272 0.1884729490203509
480000000.0 -0.2965798871254226 -0.6624359817560026
500000000.0 0.6733948105484329 -0.012936894567359612
520000000.0 -0.04632301610875112 0.5475257580858938
540000000.0 0.0475735008155658 -0.44999924068351066
560000000.0 0.3042860803145193 -0.196722291888843
580000000.0 0.03884581942095437 -0.3365662555572592
600000000.0 0.30424176085034793 -0.13372153000704412
620000000.0 -0.3517659627611399 0.07306531707961784
640000000.0 -0.35863243514214527 -0.11961991280145785
660000000.0 0.1519771882014636 -0.3861539913171684
680000000.0 -0.38330168920680335 0.017022096188660844
700000000.0 0.3248816585257335 0.13784595470345223
720000000.0 -0.3619498515642288 -0.01515746584242591
740000000.0 0.2663691080158699 -0.20207932664780895
760000000.0 -0.20756526593921976 -0.21336899318707417
780000000.0 -0.28648348900889403 0.15669839950061354
800000000.0 -0.21363640351481392 0.22561435513692668
820000000.0 0.16098654267831364 0.235297453248208
840000000.0 0.2564271688760451 7.154749278966123e-05
860000000.0 0.0009840615907386096 -0.20149241883043015
880000000.0 0.15364956565270507 0.07544381887822289
900000000.0 0.09695974912457747 0.06794098566835277
920000000.0 0.1083104437867387 -0.027480614280033348
940000000.0 0.11774995430844573 -0.0032195431986092827
960000000.0 0.06308384126126843 0.05981322058404374
980000000.0 -0.050863545367136935 0.018061193858903084
1000000000.0 0.04271489450859296 -0.016466893164274687
1020000000.0 -0.00761348293380783 -0.06323725548823005
1040000000.0 0.03605874267390505 0.09049713511142793
1060000000.0 0.004614822305637737 0.14494377970412767
1080000000.0 -0.09288285625468228 0.15053534852279746
1100000000.0 -0.0701217501363617 0.186600671414059
1120000000.0 0.05945123514151959 -0.2167174857652908
1140000000.0 0.24451437190008024 0.10790762892586483
1160000000.0 0.1848391410859539 0.20476354602301142
1180000000.0 -0.2760552505597744 0.0761467184015878
1200000000.0 -0.11487807204083973 0.2764401365365108
1220000000.0 -0.28276733128029236 -0.1640942623275588
1240000000.0 -0.3123986083391388 -0.09883076860320013
1260000000.0 -0.1142367010560522 -0.3162990968491424
1280000000.0 0.29686442180465217 -0.15485775261038337
1300000000.0 0.3481792831320574 -0.016026205325312036
1320000000.0 0.13369620330011878 0.3280355719773092
1340000000.0 0.06800583397833955 -0.36398029327267456
1360000000.0 0.22703267686264017 -0.30379816084732225
1380000000.0 -0.07500895441405724 0.374571455770514
1400000000.0 0.15716183508784107 -0.35563156170411464
1420000000.0 -0.10721919391963733 0.3710559907491619
1440000000.0 0.3131178009798842 0.2085310791846243
1460000000.0 0.12022352416116351 -0.3471539587474861
1480000000.0 -0.345773721266842 0.11015170034511784
1500000000.0 0.3262672889493097 0.03622075852798777
1520000000.0 0.1975249769129841 -0.23935175238258966
1540000000.0 -0.2849990918378594 -0.03445248435386583
1560000000.0 -0.24873179107290413 -0.0449744800447621
1580000000.0 0.0488998479706725 -0.20575985928057045
1600000000.0 -0.05157937077952541 0.1698370866164674
1620000000.0 -0.14202454798541722 -0.007938969121798931
1640000000.0 0.07514478984354715 0.09135515796239015
1660000000.0 0.00888058093953263 -0.09611033916437907
1680000000.0 0.03380948438406368 -0.06436374392802223
1700000000.0 0.0013930392420040013 0.05376304835920045
1720000000.0 -0.03487088240464282 -0.017732349673549273
1740000000.0 -0.00403284940680844 0.05484515823889743
1760000000.0 -0.03925391224008764 -0.07101997142582034
1780000000.0 -0.08906512954043337 0.06300558374189734
1800000000.0 -0.10595615219523001 0.08774911633276583
1820000000.0 -0.16165041363922691 -0.025787727645700892
1840000000.0 0.031859881784790815 -0.1853951666631535
1860000000.0 0.19845390505370644 -0.09607202669948545
1880000000.0 0.17735505712900257 -0.1645746301422426
1900000000.0 -0.17008365238143533 -0.2015243959996036
1920000000.0 -0.01503649264041566 0.2843133286855733
1940000000.0 -0.14667965617088344 -0.2548034217253379
1960000000.0 0.02410881284424364 0.29598787069730376
1980000000.0 -0.17264025844023517 -0.2440691356844247
2000000000.0 0.2542711187214262 -0.17272941567497357
2020000000.0 0.29514503455476354 0.0713839382780659
2040000000.0 -0.1411975560004292 0.2696552504475567
2060000000.0 -0.2699316701429919 0.14673246309792848
2080000000.0 -0.2999038463548839 -0.06747821493269861
2100000000.0 0.06710491727312641 0.30095361029354917
2120000000.0 -0.3037629974351419 0.06063388462301383
2140000000.0 0.22402775657406085 -0.20487259937185373
2160000000.0 -0.2974213365855354 -0.009794824435195328
2180000000.0 -0.15804369174495334 0.2365522619669347
2200000000.0 -0.28049595490671964 -0.03047380552188894
2220000000.0 -0.1688016022820902 -0.22401359864038994
2240000000.0 -0.04196137841873712 -0.27830445136466575
2260000000.0 -0.08437090632748268 -0.2632306541510728
2280000000.0 0.05859078459074308 -0.2539918506755979
2300000000.0 0.21741945287899725 0.1215732182171427
2320000000.0 -0.1874242429710595 0.15744177843102317
2340000000.0 -0.1837265794530988 -0.14957986591571462
2360000000.0 0.12884905065510732 0.18592457814329605
2380000000.0 -0.09879993259371128 -0.2087179365519044
2400000000.0 0.2387320433371514 0.01375631011365489
2420000000.0 0.22735626726085365 0.1262961390249364
2440000000.0 0.2622318950683449 0.11694414022973193
2460000000.0 -0.20839527598584406 -0.24800373363038924
2480000000.0 -0.08973320567946418 0.3484889013875313
2500000000.0 -0.2506819196610998 -0.31283890586810137
2520000000.0 0.36552694513741857 -0.24810809281335652
2540000000.0 0.23129043131909038 0.4241447495885314
2560000000.0 -0.5136856699791139 0.06390846128028312
2580000000.0 0.24498964531807968 -0.4933767809014301
2600000000.0 0.11448216841020284 0.5652223299994319
2620000000.0 -0.3267016020258311 -0.508572500859455
2640000000.0 0.6097004049566478 0.11860801509696264
2660000000.0 -0.4738058316312682 0.4287694492359076
2680000000.0 -0.3530830648083556 -0.5461264228105113
2700000000.0 0.34403497404442435 -0.5632401450868585
2720000000.0 0.6280522116586206 -0.22041678555334687
2740000000.0 0.6711912215090764 -0.01565322755015346
2760000000.0 0.6632060482523401 -0.11466565788610453
2780000000.0 -0.054530772471324755 0.6675213224014658
2800000000.0 -0.21166457192524896 0.628439956589738
2820000000.0 -0.5644011413237081 0.32805296058596306
2840000000.0 -0.35046458602470587 -0.5374143124881466
2860000000.0 0.6173490577138181 0.11485307461290331
2880000000.0 -0.5948839438013223 -0.14875800911117595
2900000000.0 0.3477073512456382 0.48478217069526686
2920000000.0 0.35661960316623975 -0.45326414554949884
2940000000.0 -0.4721089422688674 -0.286652001421389
2960000000.0 -0.5036226635346772 0.16802236281797633
2980000000.0 0.08874449813404363 0.4984305878423639
3000000000.0 0.4839970462094067 -0.03635752056093146
3020000000.0 -0.32926728994142795 -0.3241011732189485
3040000000.0 0.20101200932094543 0.38282140608384274
3060000000.0 0.023299187664770966 -0.4022141877897806
3080000000.0 -0.18924489851286416 0.3302564768253546
3100000000.0 0.2398015527607741 -0.27179128036000927
3120000000.0 -0.008126591381254529 -0.3460150103332229
3140000000.0 0.034267279372452504 0.3410479648276584
3160000000.0 -0.027051506613675197 -0.3388416910053269
3180000000.0 0.15289088925590813 0.29539154049670524
3200000000.0 0.24586934546531986 -0.20885826136036123
3220000000.0 -0.23695060691317352 -0.20694539870239215
3240000000.0 -0.1856793250625727 -0.23847370408237806
3260000000.0 -0.23789095578983543 -0.16574578435327958
3280000000.0 0.1067124194258134 -0.2528632941881354
3300000000.0 0.13115444596777054 -0.2168064873807609
3320000000.0 0.17721210834261966 0.1428946236330461
3340000000.0 -0.1876711948516354 -0.078174197412875
3360000000.0 0.0014530672944419185 0.18198398340097444
3380000000.0 0.11376943498951138 -0.11283680838788059
3400000000.0 -0.08385331824670932 -0.11973482969926906
3420000000.0 0.1264143239612316 -0.0522093389008408
3440000000.0 0.1178181004280815 -0.01871175608921179
3460000000.0 0.09702263337989277 -0.01269998749158215
3480000000.0 -0.04642505997793621 0.0764780102209902
3500000000.0 0.07614966007185052 -0.011933991744926167
3520000000.0 0.0745998567990354 0.003024904615528961
3540000000.0 0.046396258304458475 0.06319264891355862
3560000000.0 0.08263247283136593 0.011972600498288754
3580000000.0 0.07771669737191376 0.043296002995273364
3600000000.0 -0.06638212852121046 -0.06744527553184555
3620000000.0 -0.09498366881538572 0.01606658901840204
3640000000.0 0.03118039552474795 0.09548324039516427
3660000000.0 0.05873347569780967 -0.08581572469000716
3680000000.0 0.08654955681041329 -0.06825156862295796
3700000000.0 0.07337537473494234 0.08519202615748145
3720000000.0 0.0976738958693964 -0.024663539093730154
3740000000.0 0.043230455640725717 0.07327418734332242
3760000000.0 0.02805637347430967 -0.05902172911185646
3780000000.0 0.04921411022144549 0.032220683975239375
3800000000.0 -0.04644096160583782 -0.02853811699190096
3820000000.0 0.030025826644843805 -0.03862062373373396
3840000000.0 0.03857965899153741 -0.03812586529352332
3860000000.0 -0.02978464829466517 -0.052613966460567714
3880000000.0 -0.043940855002193246 0.07450234425519774
3900000000.0 -0.05676863682191483 0.087619569307071
3920000000.0 0.03342751413040705 0.10678048282740488
3940000000.0 -0.063103608805906 0.09205992702813312
3960000000.0 0.014696025268553991 -0.0970763210381686
3980000000.0 0.07881351703529434 -0.03957983918515144
4000000000.0 0.07106431920935755 -0.02461150345802226
