!Created with skrf (http://scikit-rf.org).
# Hz S RI R 50.0 
!freq ReS11 ImS11
400000000.0 0.7364959466750924 -0.4539550234256156
420000000.0 -0.2983855268326127 0.7503961012381619
440000000.0 -0.25810762618393523 -0.7395297348577955
460000000.0 0.7014945522762804 0.2839643554530347
480000000.0 -0.28010007394851233 -0.6702008480721603
500000000.0 0.6674919864843928 -0.094622152507671
520000000.0 -0.33469308429570604 0.43402606969304147
540000000.0 0.10715592680971069 -0.44325160449791523
560000000.0 -0.004424054524092901 -0.3604453873350994
580000000.0 0.24046564735203454 -0.23307348052579524
600000000.0 0.22713326514638915 0.24237581389411392
620000000.0 -0.3103312896111611 0.19165415986259338
640000000.0 -0.371159165765638 -0.0878410877974783
660000000.0 -0.23442372065522377 -0.3431259337016856
680000000.0 -0.3627487431544906 0.11517631126438319
700000000.0 0.311722315843747 0.1595554613248765
720000000.0 -0.3572343802241399 -0.04566980054806987
740000000.0 0.33322056096981867 -0.04687354938279486
760000000.0 -0.12135213691307221 -0.2716011205006649
780000000.0 -0.23484431770566286 0.23765467036162022
800000000.0 0.057613125765658336 0.3046534688861778
820000000.0 0.21236661802851747 0.18331007794991588
840000000.0 0.2514921192630357 -0.011152759185970544
860000000.0 0.1800429272209107 0.0952257788125718
880000000.0 0.10130695761851048 0.1432849286138438
900000000.0 0.11697791931778095 0.037698225591915234
920000000.0 -0.10564112848102104 0.025618620893788666
940000000.0 0.102958874041563 0.03930726023963792
960000000.0 0.03339446740297167 -0.08304077260709565
980000000.0 -0.04871820203290585 -0.03225578412199428
1000000000.0 -0.049469339725277485 0.0036053131347779893
1020000000.0 -0.06333466615914524 0.005294212289722425
1040000000.0 0.09462728544606806 -0.02364435204671677
1060000000.0 -0.03863884839514795 0.1401140226023124
1080000000.0 0.0007203830386410823 0.17452230846864986
1100000000.0 -0.09307647165400477 0.1754727528237306
1120000000.0 0.13464743556562886 -0.1812956931188497
1140000000.0 0.2684529179706212 -0.018304535033496685
1160000000.0 0.19880783485003362 0.18320399317137817
1180000000.0 -0.19299131911733905 -0.21018314302627736
1200000000.0 -0.09210605844447935 0.29215615203058154
1220000000.0 -0.2849432873979827 0.16374791556494417
1240000000.0 -0.31926636390921315 -0.032925993715206846
1260000000.0 0.2330197070419947 -0.23926599363943926
1280000000.0 0.31845738190163403 -0.12239721786056279
1300000000.0 0.2176244977313834 -0.27079558756808714
1320000000.0 0.14475145907287454 0.3210192000679557
1340000000.0 0.0827683007286931 -0.36244583915439654
1360000000.0 0.17280663997697995 -0.3363383202580146
1380000000.0 -0.23851857071805915 0.2968546120317166
1400000000.0 0.1904834264724405 -0.3419000719300572
1420000000.0 -0.052028338746751855 0.38334425535713224
1440000000.0 0.364218815956657 0.09054009186253642
1460000000.0 0.2101713115040225 -0.29931881588649256
1480000000.0 -0.3598187297516283 -0.060067405720508955
1500000000.0 0.3247937855171192 -0.0643775748205925
1520000000.0 0.04342887227551491 -0.3075731977036564
1540000000.0 -0.2679258282001123 -0.09030318482891496
1560000000.0 -0.15486909565720694 -0.19993584789309354
1580000000.0 0.08399750256112978 -0.19666620979899613
1600000000.0 0.07108214249361025 0.1645697684763019
1620000000.0 -0.13183069013790116 0.05060334100724551
1640000000.0 0.0015034346507429475 0.1166323852207795
1660000000.0 0.0949493300976584 -0.01844067287631244
1680000000.0 0.07143962268397394 -0.023573457949627945
1700000000.0 0.015142239813604822 -0.051045144903899685
1720000000.0 -0.001722174892822247 -0.039467931122478685
1740000000.0 0.019265177967576916 0.050410257157028314
1760000000.0 0.0071883841525181525 -0.08106675597500872
1780000000.0 -0.10293476349215039 0.03434042478237235
1800000000.0 -0.08258231108919985 0.1120505740008116
1820000000.0 -0.15196892474958693 0.05435407011462155
1840000000.0 0.12873779873949043 -0.1340220393066216
1860000000.0 0.22021805969912453 0.03184584574664175
1880000000.0 0.11240506673212482 -0.21742694135781443
1900000000.0 -0.262357153754138 -0.027180094900513846
1920000000.0 -0.002567417015756641 0.2823445076737084
1940000000.0 0.050493741224329355 -0.2893394258770577
1960000000.0 -0.022354747977790725 0.2999172274190327
1980000000.0 -0.27535192562947824 -0.12145981219644954
2000000000.0 0.24421502219207492 -0.18373152486845462
2020000000.0 0.26998634192417514 0.1363568078117095
2040000000.0 -0.18322994101660833 0.24340181096528665
2060000000.0 -0.2599210287707412 0.16551276442421245
2080000000.0 -0.30443065403181085 0.03418230841394458
2100000000.0 0.055632985291340864 0.3028047788769351
2120000000.0 -0.30148898776283445 0.07254318522541577
2140000000.0 0.20537366773845225 -0.2247347467635318
2160000000.0 -0.28725267839922053 0.07054267926182967
2180000000.0 -0.2279477868211502 0.16758749987863564
2200000000.0 -0.27424335845742304 -0.07418582261916808
2220000000.0 -0.22685104857501806 -0.16800141536815802
2240000000.0 -0.19650319962804993 -0.19994086931222438
2260000000.0 0.09600701171979392 -0.2563474297122903
2280000000.0 0.19377536111669216 -0.17723281899012866
2300000000.0 0.2278188461328577 0.10526698516227216
2320000000.0 -0.13057027461613294 0.20540375994078566
2340000000.0 -0.11746773036504962 -0.20291822033030138
2360000000.0 0.06136978436814473 0.21892766086654597
2380000000.0 -0.1133527935419154 -0.2032730413068856
2400000000.0 0.2312150824697808 -0.05530434565546381
2420000000.0 0.19949723602649497 0.16691300167942721
2440000000.0 0.27860462239316586 0.06584697968017864
2460000000.0 -0.24243668431994989 -0.21604931355013135
2480000000.0 0.0036182330834323294 0.3599896879518515
2500000000.0 -0.2486054899664985 -0.3122283684475573
2520000000.0 0.39403692722554895 -0.20133819344651455
2540000000.0 0.2352620792254612 0.4236072529682722
2560000000.0 -0.5043037897218793 0.11646116463772305
2580000000.0 0.2647672241218239 -0.482316616614211
2600000000.0 0.0688423556141969 0.5723949882752685
2620000000.0 -0.38166028304030347 -0.467910188071901
2640000000.0 0.607466004032155 0.1281989245663725
2660000000.0 -0.4574238147249662 0.4458327130632423
2680000000.0 -0.42248898705734445 -0.4937704832406024
2700000000.0 0.35520831222455795 -0.5559830577545977
2720000000.0 0.6199803630438999 -0.2431827818122401
2740000000.0 0.6645372135902105 -0.09633796894443111
2760000000.0 0.6607477421872333 -0.12907333101466742
2780000000.0 -0.0590333721811548 0.6671199850076271
2800000000.0 -0.22284278051930786 0.6244392031732914
2820000000.0 -0.5635616001842699 0.3298651882748785
2840000000.0 -0.36966097307269286 -0.5244088111286658
2860000000.0 0.6231448115004896 0.07103290129721815
2880000000.0 -0.5965459459734911 -0.13668222432048974
2900000000.0 0.348321824369941 0.4848748099407411
2920000000.0 0.3126868388801117 -0.48447880626035583
2940000000.0 -0.474601989611701 -0.2816572602249593
2960000000.0 -0.5145252558760334 0.1308331300855405
2980000000.0 0.07452050663624031 0.5018837096181192
3000000000.0 0.484060144405298 -0.027695754301245063
3020000000.0 -0.2958343393303967 -0.353056023656569
3040000000.0 0.12843114495662108 0.413594035480514
3060000000.0 0.034983238537153134 -0.4025058730428836
3080000000.0 -0.1473144210991127 0.35028465378885887
3100000000.0 0.21258800497357175 -0.29233176454691734
3120000000.0 0.08393421494219419 -0.3350820507448605
3140000000.0 -0.005584716011917236 0.34453298636787033
3160000000.0 -0.13411159017410024 -0.31387005237415677
3180000000.0 0.2660886867711291 0.1970509288164786
3200000000.0 0.28887800628308313 -0.13962506264901517
3220000000.0 -0.20183355800176164 -0.24398252114557162
3240000000.0 -0.2600336491284923 -0.15472581227360338
3260000000.0 -0.2357125717142072 -0.16611357888215503
3280000000.0 0.18010406292343162 -0.20664796576770286
3300000000.0 0.18459256568064647 -0.17513910043448527
3320000000.0 0.2198736550359892 0.06512247278752717
3340000000.0 -0.20085017827818957 0.001568190656712818
3360000000.0 -0.15686125275035234 0.0885631125544503
3380000000.0 0.15969012713163697 -0.025807931035327365
3400000000.0 -0.12651756277919549 -0.07447623463288594
3420000000.0 0.1034599477805722 -0.08575191600089747
3440000000.0 0.10740900186082915 0.05067916430462082
3460000000.0 0.049523855273347815 -0.08587481697000664
3480000000.0 -0.004551379059048001 0.08740149376473624
3500000000.0 0.0791751263085677 0.009284468653835563
3520000000.0 0.0039143420642484515 -0.07485681673585862
3540000000.0 0.06595576193266764 0.04092236826332144
3560000000.0 0.08133837331628091 0.01657277458278764
3580000000.0 0.049698235283772804 0.07545064686924169
3600000000.0 -0.004073320418400481 -0.09245871993333157
3620000000.0 -0.00961524752467078 -0.0960877291616141
3640000000.0 0.09255941419229041 0.042747506406032275
3660000000.0 -0.0370362837724882 -0.09383799528683755
3680000000.0 0.10112767785323429 0.042377201841760165
3700000000.0 0.04543883117723225 0.10385515185681062
3720000000.0 0.0959633814767242 -0.028389412355530306
3740000000.0 0.0012905746904724115 0.08466756595548551
3760000000.0 -0.03382536282364475 -0.0572951475889738
3780000000.0 0.044242165150709556 -0.03470171292443701
3800000000.0 -0.023552728242204803 -0.04807550452826048
3820000000.0 -0.04851918913147611 -0.014406664261909171
3840000000.0 -0.04702609251071388 -0.021025453122699635
3860000000.0 0.06040177729407747 -0.003394427760380988
3880000000.0 -0.017057486083906392 0.08434463141283348
3900000000.0 -0.06995424916618656 0.07858098295785064
3920000000.0 0.0601840251671589 0.09624367002314628
3940000000.0 0.009141441871994156 0.11070857274865135
3960000000.0 0.028323376766517094 -0.09263273729511122
3980000000.0 0.08367691455521768 -0.03434554255996174
4000000000.0 0.008232306293230757 -0.0753108778349645
