!Created with skrf (http://scikit-rf.org).
# Hz S RI R 50.0 
!freq ReS11 ImS11
400000000.0 0.7947275060345337 -0.33867584050097926
420000000.0 -0.26104098979978385 0.7668742445953117
440000000.0 -0.20975060371330004 -0.7548449288170074
460000000.0 0.7001914484219365 0.2912105274957176
480000000.0 -0.3791763311620141 -0.6224682268451247
500000000.0 0.6731144102881145 0.002494000759336948
520000000.0 0.044476944547375004 0.5467157437321072
540000000.0 0.359697787694034 -0.27835747373673514
560000000.0 -0.013526157258701066 -0.3615265384953198
580000000.0 0.2277890829843722 -0.24813751450390148
600000000.0 0.32469955979378534 0.07376199109460359
620000000.0 -0.3358538195517571 0.13755726491289036
640000000.0 -0.3816779097072884 -0.047324349764213666
660000000.0 -0.29485698003618066 -0.28965649174451236
680000000.0 -0.3735908800676409 -0.04454469426304488
700000000.0 0.332498244641512 0.12624494531823527
720000000.0 -0.35886604464560823 -0.011009839353438095
740000000.0 0.28517347454393305 -0.17872047538522962
760000000.0 -0.14182077220157502 -0.26710559059374606
780000000.0 0.038494183768439764 0.324769757885209
800000000.0 -0.029074482415984263 0.29951422121162474
820000000.0 -0.2818875821755279 0.007450253501893276
840000000.0 0.13431277793774904 0.23275191858725766
860000000.0 -0.16605799467652904 0.12391211807971128
880000000.0 0.16447907208899776 0.03135195148803961
900000000.0 0.06136336568316122 0.10028450710472996
920000000.0 0.05364876695269577 0.09646044565358221
940000000.0 0.10071595492476153 0.05823470123893931
960000000.0 -0.09185880884348904 -0.01429086652825614
980000000.0 0.017676433833051956 0.05565975443429678
1000000000.0 0.011335074299807076 -0.04273158458464615
1020000000.0 -0.03149818147424937 -0.04875679048343226
1040000000.0 -0.0982905822095872 0.01308506826325222
1060000000.0 0.14393159608479741 0.009775633536652768
1080000000.0 -0.09563688627540497 0.14352334391714072
1100000000.0 -0.20063525812607796 0.013468379176355629
1120000000.0 -0.22763948295132302 -0.0412859570755326
1140000000.0 0.2204462955916187 0.1468952619339857
1160000000.0 0.11994329568127095 0.24470484588237157
1180000000.0 -0.276105505136042 -0.08485888731104672
1200000000.0 -0.012645177528896967 0.30243249745947504
1220000000.0 -0.3132688350544652 -0.07814220746418059
1240000000.0 -0.23904435526771806 -0.2233014094737806
1260000000.0 -0.03190271206672196 -0.33585561986742213
1280000000.0 0.26507738548329457 -0.20483643838964324
1300000000.0 0.2757033502743932 -0.21022549635055723
1320000000.0 0.046836774645424545 0.3516557519349811
1340000000.0 0.008145430649922236 -0.3698321605717524
1360000000.0 0.31709689940707236 -0.2051338943241683
1380000000.0 -0.2101399245779662 0.3221062643922178
1400000000.0 0.023640603309809684 -0.38894055902907887
1420000000.0 -0.030685694538436004 0.3842326245740876
1440000000.0 0.2681028606905217 0.26411098036962855
1460000000.0 0.15311256424193592 -0.33588214264797667
1480000000.0 -0.340340273186544 0.12330939354118486
1500000000.0 0.32709639260161916 0.039196700426022926
1520000000.0 0.12008907565186581 -0.28675574315405594
1540000000.0 -0.2840424754105481 -0.028999421407397852
1560000000.0 -0.24835591369773943 -0.036091506979298284
1580000000.0 0.09644322319522329 -0.18853117652839735
1600000000.0 -0.059840213849718236 0.16785020002860757
1620000000.0 -0.14011753957288287 -0.03146945357294259
1640000000.0 0.11930003302414094 -0.01877930649330401
1660000000.0 -0.08935739301633479 -0.025573508535414322
1680000000.0 -0.06551612831130744 0.02829426004299005
1700000000.0 -0.032517478429837765 0.04705149488454526
1720000000.0 0.0041667287887086615 -0.03992985888342764
1740000000.0 -0.040586840098539606 -0.03379185039137835
1760000000.0 0.05800368257187792 -0.059305588193104435
1780000000.0 -0.11000389107668587 -0.0022866163874862536
1800000000.0 -0.08635151791537983 0.10785044370531262
1820000000.0 -0.12502387278686727 -0.10338081464208118
1840000000.0 0.10497909205361634 -0.1546409928149166
1860000000.0 0.2158316060916183 0.048562699340410485
1880000000.0 0.14280252845220473 -0.2000177834529439
1900000000.0 -0.2611345536289321 -0.0341399683297142
1920000000.0 -0.09580145224255139 0.26452441533631044
1940000000.0 -0.007231734985089892 -0.295322698541444
1960000000.0 0.09901950997745433 0.28280778887293057
1980000000.0 -0.2822476928023457 -0.09956310765540101
2000000000.0 0.20105677648400114 -0.23086105004315916
2020000000.0 0.28669734930782464 0.09876679051319856
2040000000.0 -0.1819673579249449 0.2444859251758541
2060000000.0 -0.25147738181107265 0.17761329660457914
2080000000.0 -0.30800852909659504 -0.009184646580890665
2100000000.0 0.18527878154706756 0.24601292560798818
2120000000.0 -0.30525364405451616 0.04200548871406734
2140000000.0 0.236992885572017 -0.1927338792741053
2160000000.0 -0.2842708136337871 0.08156348417910766
2180000000.0 -0.16886463111684488 0.2263042014165963
2200000000.0 -0.24915916070770946 -0.1354407097171406
2220000000.0 -0.21920936212946981 -0.179011697637436
2240000000.0 -0.041607216025773004 -0.2755422787270951
2260000000.0 0.009237737105694659 -0.2749956020338955
2280000000.0 0.0803334199085589 -0.24935020194502308
2300000000.0 0.23022845616680687 0.09539465546144454
2320000000.0 -0.20190865773585845 0.13523867870747003
2340000000.0 -0.10370810332093708 -0.21323622302237358
2360000000.0 0.19881820275697967 0.10991449557228512
2380000000.0 -0.12844374561723967 -0.19088000435464955
2400000000.0 0.229659202084532 0.06338070137884473
2420000000.0 0.21200268123420765 0.15638436887519944
2440000000.0 0.27951426322008327 -0.06720386818038411
2460000000.0 -0.1845080761573091 -0.2655742847142596
2480000000.0 -0.17337088039489526 0.31497448910667103
2500000000.0 -0.25481554980978827 -0.3091280282286226
2520000000.0 0.377635946843628 -0.22832795963688315
2540000000.0 0.3112393989997574 0.3687053671059794
2560000000.0 -0.5101319625207252 0.08438870036940668
2580000000.0 0.23515608824402043 -0.49773555514248263
2600000000.0 0.16248787338740303 0.5531972637508649
2620000000.0 -0.32893730360110385 -0.5071456327476572
2640000000.0 0.6097331247872557 0.12444236599113793
2660000000.0 -0.4299584769748871 0.47373421402730076
2680000000.0 -0.31943123341883994 -0.5660083381556306
2700000000.0 0.41556145446598236 -0.5128385733644687
2720000000.0 0.6556519798615112 -0.1146087664709756
2740000000.0 0.6691071774807698 -0.04119459178296469
2760000000.0 0.6690388331230184 -0.06212815402146282
2780000000.0 -0.11050839022946914 0.659573549586565
2800000000.0 -0.24473427131435643 0.6148759732062972
2820000000.0 -0.5864174426339147 0.28451139007892995
2840000000.0 -0.35296331721745894 -0.5346553506383694
2860000000.0 0.6145764465938087 0.12890061032676883
2880000000.0 -0.606080779822672 -0.08568863655698311
2900000000.0 0.36001347752164387 0.4757048910817416
2920000000.0 0.3694858893205169 -0.4423971267628141
2940000000.0 -0.4628327950293474 -0.3019389280855895
2960000000.0 -0.5134576321691178 0.13524491813117634
2980000000.0 0.06193085876071886 0.5041508190740223
3000000000.0 0.4851164758970176 0.012417621930605614
3020000000.0 -0.31606260515618645 -0.33489199569362943
3040000000.0 0.028194377103307258 0.43093576942181233
3060000000.0 0.014042632085053582 -0.4042372325866222
3080000000.0 -0.22291531706266393 0.30841297957520875
3100000000.0 0.28802809448092487 -0.21767410402283993
3120000000.0 0.026395018398561825 -0.34493090365692364
3140000000.0 0.08242279877190162 0.3326389304989462
3160000000.0 -0.12224866360846919 -0.3163659125256451
3180000000.0 0.17712993310119982 0.2801581551440872
3200000000.0 0.26318649865182075 -0.1868055665718304
3220000000.0 -0.2633047101125318 -0.17361519033469455
3240000000.0 -0.21904990093965393 -0.20635478208658087
3260000000.0 -0.2794571793329056 -0.07837228789009909
3280000000.0 0.10586541449657756 -0.253360448659766
3300000000.0 0.2038758362723544 -0.15317471689099837
3320000000.0 0.23011267250891382 0.0031845663105065087
3340000000.0 -0.19247859932608605 -0.0622597575916979
3360000000.0 -0.1762090862890242 -0.04313056662908097
3380000000.0 0.16108064845096795 -0.03412549303259431
3400000000.0 -0.12274024793346444 -0.08004814620814947
3420000000.0 0.05669574286860322 0.12059437844439996
3440000000.0 0.04344586099520204 0.11172356755702048
3460000000.0 0.09816184705582429 -0.017874692226288073
3480000000.0 -0.061421150778008846 0.06316009278857877
3500000000.0 -0.004948364679495239 -0.07814816809273704
3520000000.0 0.04828836147390933 -0.053241598492757655
3540000000.0 -0.07798254489869212 0.00161001660097893
3560000000.0 0.06278358483623533 -0.058186403330956156
3580000000.0 0.08787072453554405 -0.020390454949449542
3600000000.0 -0.05939439726139439 -0.06972874225493093
3620000000.0 -0.05733256004631282 -0.08048043732296721
3640000000.0 0.09479352817934908 0.040118217386059044
3660000000.0 -0.02699056104781219 -0.0993877319062391
3680000000.0 0.11031424345275281 -0.014699308366466914
3700000000.0 0.08451600430353548 0.07641128004533226
3720000000.0 0.02364103042479801 -0.09754796458485772
3740000000.0 -0.02072404532374875 0.08262717337618451
3760000000.0 0.06302846092083673 -0.027398290367850537
3780000000.0 0.05870582324394188 -0.0013965259072096776
3800000000.0 -0.015539276558636511 -0.052087660572391954
3820000000.0 -0.02156581531162339 -0.04545225695440242
3840000000.0 0.052028742933108565 -0.011467566741259162
3860000000.0 0.054677777263149055 -0.031384347077784716
3880000000.0 0.04716187763250895 0.07209740384792891
3900000000.0 -0.10443919704532224 0.00236021185288991
3920000000.0 -0.04115490114039339 0.10761081621655602
3940000000.0 0.10011644190467227 0.05734330171788646
3960000000.0 0.05440859401556942 -0.08329943609835667
3980000000.0 0.04915044097108284 -0.07823614999772517
4000000000.0 0.0023572774557450065 -0.07483001465909128
