!Created with skrf (http://scikit-rf.org).
# Hz S RI R 50.0 
!freq ReS11 ImS11
400000000.0 0.7442084533230031 -0.4390297002292269
420000000.0 -0.40882290581615915 0.6968422445442739
440000000.0 -0.3537822158751997 -0.7021083804763169
460000000.0 0.6965459216147349 0.29056162585482015
480000000.0 -0.23331846514499482 -0.688565751384582
500000000.0 0.6729029514508089 -0.05616400327763911
520000000.0 0.0901393643069466 0.5415247067791625
540000000.0 0.13457353201071606 -0.43069665906312793
560000000.0 0.2656249698932262 -0.2486263511059686
580000000.0 -0.05860914199630662 -0.3289414728139777
600000000.0 0.3158761666851205 -0.0891143011024622
620000000.0 -0.3444650081156668 -0.11030468005192223
640000000.0 -0.381717370205189 0.033632462433423674
660000000.0 -0.07205397463639952 -0.4060319949147255
680000000.0 -0.351752772126016 -0.14041437129815823
700000000.0 0.34790395703893484 0.04997633363053623
720000000.0 -0.26136045695385896 -0.2481865443325404
740000000.0 0.33857447427213455 -0.06009139328446217
760000000.0 -0.29469036862424314 0.03908552065622686
780000000.0 -0.27688864280012054 0.16780557767317425
800000000.0 0.06213910729976771 0.3017828804369007
820000000.0 -0.014989321422187988 0.28190689474635994
840000000.0 -0.005053591914161615 0.2573986230570724
860000000.0 0.11113553464458761 -0.17764136053824658
880000000.0 -0.005516806343610281 -0.17035111838535288
900000000.0 0.05231324041811752 0.10702055611048086
920000000.0 0.10824275146690156 -0.0004573111308926944
940000000.0 0.0681831153630853 0.0977860136279877
960000000.0 0.059055219057990764 -0.06585404803315109
980000000.0 -0.04760560089921756 -0.0336609940092038
1000000000.0 0.03238097481393539 0.0413107252406338
1020000000.0 0.05009606706712353 -0.04001882278177702
1040000000.0 0.0472527962303789 -0.08336724592550435
1060000000.0 -0.11310678465700771 0.08113852579279461
1080000000.0 -0.1684889197197614 -0.05893958612217706
1100000000.0 -0.06449852503324163 0.18953507508050213
1120000000.0 -0.10050266075178 -0.20573444975053734
1140000000.0 0.19644295840410683 0.18045191178775316
1160000000.0 0.24237928296131214 0.12651236786799192
1180000000.0 -0.1671477411963037 -0.23341362595561754
1200000000.0 -0.08798945711518483 0.28958505535532314
1220000000.0 -0.3241317636863399 0.04120577070028219
1240000000.0 -0.303281649915723 -0.11429342314049955
1260000000.0 0.1308097024231504 -0.309961172622594
1280000000.0 0.3037612790510274 -0.15163789554529605
1300000000.0 0.21994158677085018 -0.26946291407586576
1320000000.0 0.11434207034222721 0.3318383096271634
1340000000.0 0.11477972332038786 -0.3518957277798145
1360000000.0 0.24916184740094152 -0.28835550323828973
1380000000.0 -0.1292713304728481 0.3596687852091908
1400000000.0 0.15352711062294064 -0.3591053426282056
1420000000.0 -0.08685473853783207 0.37585742493327
1440000000.0 0.3357083369012355 0.16728710366423127
1460000000.0 0.12648082291308127 -0.3459856491064755
1480000000.0 -0.3595081731099862 -0.04323885250606517
1500000000.0 0.32945101633573814 0.033313300848612365
1520000000.0 0.10577138214038777 -0.2917275503043442
1540000000.0 -0.2837856319433855 -0.020651342900698443
1560000000.0 -0.21762516876590376 -0.12657104933238308
1580000000.0 0.179713007084518 -0.1134046835285824
1600000000.0 0.12368660445053838 0.1299205747960325
1620000000.0 -0.12998200045923133 0.05337788492957595
1640000000.0 -0.06080929088572053 0.10277470999123267
1660000000.0 -0.08575176858555707 -0.0462574852460492
1680000000.0 -0.03479662113040661 -0.0632201068693501
1700000000.0 -0.051813000427537524 -0.010845736488232364
1720000000.0 -0.030542891232538973 0.029603208796259346
1740000000.0 0.042100112011338404 0.031121860385109678
1760000000.0 0.060920560859241156 -0.05501120589586007
1780000000.0 -0.06081194969694589 0.0928559999492885
1800000000.0 -0.0753902941904578 0.11473586147341151
1820000000.0 -0.1100323554143282 -0.12071775119056558
1840000000.0 0.002302966937278463 -0.1884029716395256
1860000000.0 0.2106934541432764 -0.06312176771080687
1880000000.0 0.19527599031483073 -0.1431107666477188
1900000000.0 -0.20679463911257517 -0.16436660790043578
1920000000.0 0.00874228013107622 0.28338272776187423
1940000000.0 -0.11473235803781658 -0.27130882455662625
1960000000.0 0.036008954350880466 0.29637218581430924
1980000000.0 -0.2252153200438959 -0.19759959443062317
2000000000.0 0.2556238714352877 -0.16808819526131888
2020000000.0 0.2770929600245372 0.125863582683185
2040000000.0 -0.1481019794493606 0.26625732122230317
2060000000.0 -0.19641776429911728 0.23614434240796897
2080000000.0 -0.28320620136897934 -0.11728142393858657
2100000000.0 -0.0033829806376120806 0.30923000544066176
2120000000.0 -0.30124889997190024 0.07458656617635002
2140000000.0 0.24439138997845927 -0.1812282252787336
2160000000.0 -0.29501313881676494 -0.028329328148846377
2180000000.0 -0.19603958249920783 0.2058143647069916
2200000000.0 -0.27790754650057226 -0.04467189680654479
2220000000.0 -0.16901439856564646 -0.22583970899323375
2240000000.0 -0.12744162213050347 -0.2505324794266371
2260000000.0 -0.02887001794126928 -0.2726074860999241
2280000000.0 0.13061416947264887 -0.2272869703129412
2300000000.0 0.23257548633138403 0.09427326945466567
2320000000.0 -0.10520086573618703 0.21877336403598166
2340000000.0 -0.07364623971108863 -0.224020357161895
2360000000.0 0.18623411487228247 0.13090359848336935
2380000000.0 -0.11710081113539365 -0.19961754088615666
2400000000.0 0.2310887121428331 0.05340061058787746
2420000000.0 0.19985367386085004 0.1679383964422628
2440000000.0 0.2871360743670182 -0.0008990640987406813
2460000000.0 -0.196912924661383 -0.2561385048852399
2480000000.0 -0.11850947261203329 0.34067510900073456
2500000000.0 -0.2844270270895208 -0.2826992502212688
2520000000.0 0.3586229947057016 -0.25800091003566844
2540000000.0 0.2536292100175344 0.4117705617067122
2560000000.0 -0.5105648527435048 0.08560894951934778
2580000000.0 0.2980279917668146 -0.4625189813904634
2600000000.0 0.0934823531144625 0.5700306722994373
2620000000.0 -0.3717718413744023 -0.4768987105866616
2640000000.0 0.6088846664897588 0.1203889308212527
2660000000.0 -0.4687782461638714 0.4337271248452841
2680000000.0 -0.3521944969242031 -0.5473107503242045
2700000000.0 0.2991772711024874 -0.5888198588783804
2720000000.0 0.6297211355058021 -0.2168250304450694
2740000000.0 0.6697311267675553 -0.050409872885983496
2760000000.0 0.6700774070935495 -0.06786058759275372
2780000000.0 -0.08296829709175202 0.6647108159315108
2800000000.0 -0.24380831352041202 0.6168608664551035
2820000000.0 -0.5792704103301386 0.30135159393158284
2840000000.0 -0.3408637321467286 -0.5435899232837977
2860000000.0 0.6074813873204021 0.15901100584786004
2880000000.0 -0.5921674249033866 -0.15753193681865515
2900000000.0 0.3387319277324255 0.49151981932038746
2920000000.0 0.32741077546073283 -0.47472087456437706
2940000000.0 -0.452117821495882 -0.3177552424347464
2960000000.0 -0.4984648647906267 0.18371184479558936
2980000000.0 0.07582546476508895 0.5017409390434531
3000000000.0 0.4820389476546739 -0.05367729403452949
3020000000.0 -0.35134003046550233 -0.299190084784159
3040000000.0 0.1510452740974963 0.4065557577375835
3060000000.0 0.0840838856251617 -0.394739586244678
3080000000.0 -0.20727519765774985 0.31791352847769105
3100000000.0 0.2783512100253754 -0.231888019641325
3120000000.0 -0.03152402593341674 -0.3447391837737632
3140000000.0 0.021080179393843053 0.34148510908354507
3160000000.0 0.011517493029050058 -0.3398012156876147
3180000000.0 0.17419187566689112 0.2836049294372112
3200000000.0 0.18614793518606237 -0.26252826432086745
3220000000.0 -0.20441089033672072 -0.23799198510421588
3240000000.0 -0.2003023444574994 -0.2273555328107588
3260000000.0 -0.26165851037896387 -0.12414688366601473
3280000000.0 0.14943570759853123 -0.23056286158205896
3300000000.0 0.1305047650576838 -0.22010358302965985
3320000000.0 0.2287499422967819 0.006415432459479083
3340000000.0 -0.16002990887375498 -0.12337221647695933
3360000000.0 -0.17244701883618432 -0.06321484236913616
3380000000.0 0.1015864080136615 -0.1287588700032724
3400000000.0 -0.1458914063661136 0.007516181716072714
3420000000.0 0.13165388704803407 0.0234854019498646
3440000000.0 0.041787784308255596 0.11281690171687099
3460000000.0 0.09893747917892949 -0.016110984965242842
3480000000.0 0.07400048804188986 0.046821470701639195
3500000000.0 0.06512428207116792 0.0375490993556726
3520000000.0 0.040197774683531334 0.0628639060821312
3540000000.0 0.07217011670507874 0.03299377473242475
3560000000.0 0.06530265387459726 -0.04962517122979851
3580000000.0 0.064197766287195 0.06230987315673347
3600000000.0 -0.08992201913204914 -0.031053965395100244
3620000000.0 -0.09642126663686831 -0.006243514775859409
3640000000.0 0.041267874248696816 0.09243905392545149
3660000000.0 0.0429366775629536 -0.09389354874219777
3680000000.0 0.09528868538457302 -0.05718128676973116
3700000000.0 0.08374938056475556 0.07521371358067756
3720000000.0 0.09770616499379621 0.026995277596554422
3740000000.0 -0.004060056272738258 0.08573531085094477
3760000000.0 0.025475203362386078 -0.06113393518280553
3780000000.0 0.05270209523149296 0.022653226488680157
3800000000.0 0.00155264566653163 -0.054808817544339264
3820000000.0 -0.013770678341008551 -0.04822643181778756
3840000000.0 0.05187234438486967 -0.004849847647311622
3860000000.0 0.06239058094320259 0.0019483411160811568
3880000000.0 0.05254677836286665 0.06977624196154389
3900000000.0 -0.10260943062646931 0.014999612545616225
3920000000.0 -0.03896787305197045 0.10673022631652321
3940000000.0 0.018900744854453578 0.11049051060888067
3960000000.0 0.07344799864599362 -0.06639720576590877
3980000000.0 0.07736091084225806 -0.041058771004668454
4000000000.0 0.06461833357471908 0.040656864700290445
