!Created with skrf (http://scikit-rf.org).
# Hz S RI R 50.0 
!freq ReS11 ImS11
400000000.0 0.6565602461852204 -0.5628696878942511
420000000.0 -0.2468389608957674 0.7722033179910965
440000000.0 -0.37843890490829224 -0.6835439805497201
460000000.0 0.5077082792982003 0.5556946023124136
480000000.0 0.359676571281889 -0.6492742786731529
500000000.0 0.16709401024977097 -0.6655049430134025
520000000.0 0.5539815519157412 -0.00023861737608381917
540000000.0 -0.3138673657313961 -0.3043043303151792
560000000.0 0.2999198799510677 -0.2103785151856538
580000000.0 -0.11382098550860967 0.3280283788566774
600000000.0 0.2686619915049137 0.2441319901243271
620000000.0 -0.32452393454732326 -0.12554751884310356
640000000.0 0.13155107211350592 0.34616479726840743
660000000.0 -0.345241706060074 0.20771730153973142
680000000.0 -0.2061478190232354 0.3092505726863769
700000000.0 0.3380548216156363 -0.06075258564138037
720000000.0 -0.28509768736635205 -0.20695647308341225
740000000.0 0.1912098956586153 0.27164722130482416
760000000.0 -0.30721864510826624 -0.037493529642460006
780000000.0 0.31345141917385616 0.03430671952557087
800000000.0 0.19313007456405668 0.2083910731511236
820000000.0 -0.1362002871066311 -0.24000584274130796
840000000.0 0.1115389741391015 0.22194692057569604
860000000.0 0.2102519612218755 -0.008064876009067802
880000000.0 -0.0949628835310233 -0.14104077272933438
900000000.0 -0.1221919428908914 -0.013780311793801575
920000000.0 0.0916456066476179 0.06221933833243856
940000000.0 -0.031210901785842567 0.11294531543522815
960000000.0 -0.08286880853500128 0.007886655339135955
980000000.0 0.00980629639803961 0.04427007222458048
1000000000.0 -0.0008792123461249491 -0.03816011751560728
1020000000.0 0.04853552837082755 0.038102579216012566
1040000000.0 -0.10267812694544985 0.02645298961160072
1060000000.0 -0.07313223399590413 0.11639932555210743
1080000000.0 -0.12831642790642217 -0.09740672457461791
1100000000.0 0.1942867402690995 -0.06781262197423589
1120000000.0 -0.09362422416662244 -0.22294769214811574
1140000000.0 -0.015274873139695269 -0.26404332163862987
1160000000.0 0.22955287233123736 0.14009694164768782
1180000000.0 0.06817033699110521 -0.271726843539515
1200000000.0 -0.27442052324553246 0.12085265432050468
1220000000.0 -0.28152514535132045 -0.1671639236233803
1240000000.0 -0.205029494090894 -0.2573070905516703
1260000000.0 -0.2221051658064364 -0.2528614542241728
1280000000.0 -0.26898252625630487 -0.19636197859016463
1300000000.0 0.2133722416781918 -0.26554819990750855
1320000000.0 -0.11246068360845987 0.33246617755909535
1340000000.0 0.12735495484279327 -0.3472101233508482
1360000000.0 0.2964114561677471 -0.23798289970672204
1380000000.0 -0.2260530619615319 0.3111026947141446
1400000000.0 0.06833947566801298 -0.3864174746253198
1420000000.0 -0.10860677740072863 0.3649366917247512
1440000000.0 0.20568528004255882 0.3078227532660966
1460000000.0 0.30592573207318247 0.1968183525684245
1480000000.0 -0.006989645150430427 -0.3703137178681334
1500000000.0 0.33235403847346834 -0.0590954336669146
1520000000.0 -0.3055462317578819 0.04868528791302585
1540000000.0 -0.2720457855857249 -0.05416563183990478
1560000000.0 0.11421047173424671 -0.21956803421740764
1580000000.0 0.20836456895258193 0.0398934867508229
1600000000.0 -0.1476162732854022 0.11312734176991239
1620000000.0 -0.11756659248723415 0.09463460222531277
1640000000.0 -0.03551127267493699 -0.11851129780373743
1660000000.0 -0.07766824894995321 0.046577753463530644
1680000000.0 0.04579041391423652 0.049808606161083464
1700000000.0 0.02017311542972453 -0.054684469795405546
1720000000.0 -0.044269485315051545 -0.03141257558469685
1740000000.0 -0.02691743601038423 -0.04348502958182461
1760000000.0 0.06734851847178241 0.012796187157569291
1780000000.0 -0.092103837689998 -0.009534417643554793
1800000000.0 -0.0025962199840395524 -0.1366910481894651
1820000000.0 -0.06540355270766633 0.16582861677619018
1840000000.0 -0.13352647101075407 -0.15666000896637403
1860000000.0 -0.1434020937356294 0.1785853851238251
1880000000.0 -0.13394830043204786 0.18937701203818735
1900000000.0 -0.2111898834306945 -0.13967637318289738
1920000000.0 -0.2644959237264307 0.06593226018338148
1940000000.0 0.11257887453196228 0.2626772635972177
1960000000.0 -0.22088035667367406 -0.21196328524178515
1980000000.0 0.023872539460856698 -0.31392691617515456
2000000000.0 -0.12599156630541944 -0.2928592568941653
2020000000.0 -0.17334091786459166 -0.25055980041304676
2040000000.0 0.12963559009099798 0.2707549340800231
2060000000.0 -0.274513801234362 0.128925970370224
2080000000.0 -0.23847817362567136 -0.19343599634463718
2100000000.0 0.018037594078103826 0.3088361287963502
2120000000.0 -0.2961611204201451 0.09212086429912354
2140000000.0 0.27532854213875985 -0.12956567813339162
2160000000.0 -0.2943676975900823 -0.04334510923831278
2180000000.0 -0.1733173122777466 0.2279229583243808
2200000000.0 -0.25707048584728914 0.12044741873757187
2220000000.0 -0.26448416339565267 0.09479403744811676
2240000000.0 -0.09916217932313866 -0.2570130788594486
2260000000.0 0.03271593400678212 -0.27305732816758504
2280000000.0 0.13165456446672774 -0.22524378977784246
2300000000.0 0.24793104381676348 0.0422952912108142
2320000000.0 -0.0346449812185872 0.24210422172617957
2340000000.0 -0.2006286511412249 -0.11614173042967853
2360000000.0 -0.03001163203790146 0.22211557943560079
2380000000.0 -0.032528878193618146 -0.23035419988749978
2400000000.0 0.21312810573705662 0.11232052986025177
2420000000.0 0.2298361458649135 0.12318217981723378
2440000000.0 0.20682721391159753 0.1988230059145553
2460000000.0 0.07523296996608698 -0.31431208730726506
2480000000.0 -0.28594598724990483 0.22492310765698748
2500000000.0 -0.2922004378722289 -0.2758204664261406
2520000000.0 0.34929352252620854 -0.26999384887537137
2540000000.0 0.1871878366618416 0.44425016798187184
2560000000.0 -0.5176522184642504 0.01378944988331654
2580000000.0 0.17476628027055083 -0.5231555063119634
2600000000.0 0.2283593215775286 0.5298706759043292
2620000000.0 -0.47557848945592246 -0.3705100879460425
2640000000.0 0.6145140389775418 0.08696698370809096
2660000000.0 -0.4886987307839738 0.4112124677509923
2680000000.0 -0.3252279847265123 -0.5651224899218197
2700000000.0 0.4232531786376863 -0.5085646519298985
2720000000.0 0.6582111512562097 -0.10767754774326856
2740000000.0 0.6718509726037107 0.02749366550357909
2760000000.0 0.6742542354551462 -0.010813113412149154
2780000000.0 -0.1872099512620413 0.6426261119574178
2800000000.0 -0.2906231791999234 0.594341809962768
2820000000.0 -0.5929560381510951 0.2674423641565776
2840000000.0 -0.3476668763186627 -0.5374625176678638
2860000000.0 0.6053984018044701 0.16568099677027004
2880000000.0 -0.6099156136475934 -0.06800619996900845
2900000000.0 0.36037168318994817 0.4767072706724642
2920000000.0 0.3622955224957464 -0.4507347315102391
2940000000.0 -0.45097433547371846 -0.3268440652024626
2960000000.0 -0.4727588816378874 0.2512654463674113
2980000000.0 0.23343374357449423 0.45420043727985304
3000000000.0 0.4424237312838372 -0.20190974988451857
3020000000.0 -0.3760455484629214 -0.2665103514786638
3040000000.0 0.04499288368812102 0.42889634924656844
3060000000.0 0.18085191482322446 -0.35982226153545727
3080000000.0 -0.26228073949339165 0.27593737309807415
3100000000.0 0.15156681243367187 -0.32746670545772216
3120000000.0 -0.09624300743838504 -0.3279087882818883
3140000000.0 0.16517224400597183 0.2937451247164485
3160000000.0 0.07823921472443746 -0.32466263407326107
3180000000.0 0.112409192843485 0.3070868128803099
3200000000.0 0.3044728804157741 -0.09509065344380724
3220000000.0 -0.07689892024858218 -0.3082556088024494
3240000000.0 -0.24674890030680327 -0.18142524666471643
3260000000.0 -0.2897992627313219 -0.004880192319929495
3280000000.0 0.13914430629766336 -0.23652178229576384
3300000000.0 0.2508885722368384 0.048662907572972744
3320000000.0 0.11216600796856986 0.2053900742451651
3340000000.0 -0.09316032924084075 -0.18784652730866483
3360000000.0 -0.12498064829649996 0.13551965552077208
3380000000.0 0.15580352684244847 0.04621476031302334
3400000000.0 0.05694357571619692 -0.13964490957750125
3420000000.0 0.129454557605873 0.044469186921696734
3440000000.0 0.11772218366219012 -0.02799870533897776
3460000000.0 -0.052531494647965464 -0.08448143312326532
3480000000.0 0.04732120150426546 0.06847531932721448
3500000000.0 0.07168289351656303 -0.00520829538804003
3520000000.0 0.014717809021455775 0.07143687214572532
3540000000.0 -0.0024701645459904845 0.07847949527124652
3560000000.0 0.04176642660640082 -0.06965765383229486
3580000000.0 0.011440673670865827 0.08701302333646191
3600000000.0 0.08635170745623891 0.030576006236304527
3620000000.0 0.02345176019371725 -0.09555454744604085
3640000000.0 -0.06272216186496501 0.08203978853712342
3660000000.0 0.05429332154321057 -0.08972741409534536
3680000000.0 0.10828868709521024 -0.035357068278530634
3700000000.0 0.09774261040034292 -0.05721799869402554
3720000000.0 0.05001804460648419 0.08565633426039744
3740000000.0 -0.08009091952333355 0.03587459241596878
3760000000.0 0.05521022776067755 -0.043519336880404005
3780000000.0 -0.05335437176033773 0.025129161383576345
3800000000.0 0.020890982034161232 -0.042962656967910705
3820000000.0 0.044682111362027495 -0.003398660345647493
3840000000.0 -0.03123760473935693 0.04353893282260117
3860000000.0 -0.009309170036869633 0.06855952596087884
3880000000.0 0.09015075155105125 -0.015987135929386602
3900000000.0 -0.07501607637944085 0.07217003077899263
3920000000.0 -0.11098564483043512 -0.023810000281532972
3940000000.0 -0.09000749484410824 0.07271297202769442
3960000000.0 0.027533321299102655 -0.09868368773641364
3980000000.0 -0.08887909717925606 -0.009338387959766114
4000000000.0 -0.04113152393036145 -0.06031479948345166
