!Created with skrf (http://scikit-rf.org).
# Hz S RI R 50.0 
!freq ReS11 ImS11
400000000.0 0.8143713772893676 -0.29102142066933473
420000000.0 -0.11459234837107168 0.8003092427528916
440000000.0 -0.25033027186697177 -0.7412433671603326
460000000.0 0.6697645620618251 0.35566595796104133
480000000.0 -0.3456487447553777 -0.6408986427827257
500000000.0 0.6723808529036089 -0.049557806777398045
520000000.0 0.1974355811916994 0.5118971326560369
540000000.0 0.4009181597018212 -0.2086488663333586
560000000.0 0.15449225471617253 -0.33105355697369565
580000000.0 0.21546275300271933 -0.24744685787662737
600000000.0 0.12898963864449445 0.3051123476084402
620000000.0 -0.35796562171191976 0.09464182006134966
640000000.0 -0.3453490235400467 0.17320653138923672
660000000.0 -0.3437912631400678 -0.2200376879145066
680000000.0 -0.3772028001847058 0.026632961780781866
700000000.0 0.2658144674065726 0.23534297417270816
720000000.0 -0.27965990862927953 -0.23056189041339287
740000000.0 0.29989741206749815 -0.1610858972493012
760000000.0 -0.29690072841549137 0.04313524203344636
780000000.0 -0.23877811190926904 0.21518178996590548
800000000.0 -0.30095212884671263 0.05056672913855908
820000000.0 -0.25180707468839986 0.13866238302091127
840000000.0 0.19762229744684243 0.1708312427093909
860000000.0 -0.18666615826550859 -0.09722404650522803
880000000.0 -0.09523698609086884 -0.137794529500184
900000000.0 -0.07969551930990815 0.08240736452075341
920000000.0 -0.026910885769843098 0.11340270678945401
940000000.0 -0.10820380716395417 -0.05781885240110345
960000000.0 -0.07219645222220256 0.04735944669123322
980000000.0 -0.05290692377467456 -0.012180754600041931
1000000000.0 -0.03386104673093484 0.03536461347479544
1020000000.0 -0.06490047442833863 0.0021876262695496667
1040000000.0 0.078933936741905 -0.061425936263557586
1060000000.0 0.1170020030207529 0.07811951638577105
1080000000.0 -0.11447954108099317 -0.13167957352580703
1100000000.0 -0.17161969710580452 0.11265276151623921
1120000000.0 -0.22693770697896173 0.00846393976196036
1140000000.0 0.1575286937183178 0.2135714115765543
1160000000.0 0.10555382691053924 0.25206579864069023
1180000000.0 -0.24712814756499712 -0.14828381978991248
1200000000.0 0.025163732917393183 0.30058559673394447
1220000000.0 -0.32323574557556417 -0.027208129430635063
1240000000.0 -0.2975693183539352 -0.13363849994617444
1260000000.0 -0.004178845483734182 -0.33683516097117533
1280000000.0 0.28178351573656196 -0.18898566739202552
1300000000.0 0.21284313621198828 -0.272266331018492
1320000000.0 -0.08100518301728575 0.3439762314769885
1340000000.0 0.020035740669561222 -0.3702382083549957
1360000000.0 0.2368608053342426 -0.29515878817677177
1380000000.0 -0.25006688381939884 0.28930142662465674
1400000000.0 0.09820263566515183 -0.3791805992909343
1420000000.0 -0.14417634038752933 0.35616260534562677
1440000000.0 0.3017458207858565 0.22406988734112232
1460000000.0 0.11660967785971824 -0.3481656554074717
1480000000.0 -0.3609126777444303 -0.015261049047350136
1500000000.0 0.33171517138347606 0.03542853302076866
1520000000.0 -0.07094554379386925 -0.3029931688738087
1540000000.0 -0.2763737387621417 -0.05747939889628177
1560000000.0 -0.10089532754977797 -0.23416997421212324
1580000000.0 0.014947723519434172 -0.21243829672858505
1600000000.0 0.013486644888063533 0.1770412740017481
1620000000.0 -0.14196271387784107 -0.017809892695023595
1640000000.0 0.010528676153795494 0.11797310456351413
1660000000.0 -0.004486786050688033 -0.09537670072771524
1680000000.0 0.07114359418219206 -0.000952125075743449
1700000000.0 0.031166246823680563 0.044347565693772226
1720000000.0 -0.03531944807181764 -0.023020751831240117
1740000000.0 0.044737448959832796 -0.029978276328434902
1760000000.0 0.07416948577262197 -0.03237708770146649
1780000000.0 -0.10856838933099008 0.01122792281293076
1800000000.0 -0.1135557418894587 0.07742023825977887
1820000000.0 -0.10914537941618754 -0.12237350585830088
1840000000.0 -0.06318225182405639 -0.17639860609726812
1860000000.0 0.2201277837183141 -0.004533420445543723
1880000000.0 0.20306496846225763 -0.13263470327819848
1900000000.0 -0.23253847100268987 -0.12849615829474823
1920000000.0 0.046946574139692554 0.2804468122191521
1940000000.0 -0.0834058498787196 -0.281399840752131
1960000000.0 -0.018751617626731446 0.29713483304374416
1980000000.0 -0.1684434515830884 -0.24769025625230914
2000000000.0 0.2603657804844753 -0.16379639404988564
2020000000.0 0.3008011515054677 -0.05038040332103543
2040000000.0 -0.1309844688615616 0.2719030485327146
2060000000.0 -0.30087856863947665 0.06500177850851757
2080000000.0 -0.28091323818237285 -0.12837342394419654
2100000000.0 0.1571989638766542 0.2668718324631999
2120000000.0 -0.2570410851314693 0.17137457729844227
2140000000.0 0.24678611430827618 -0.17689163758780396
2160000000.0 -0.29343790622764 0.042053812748116995
2180000000.0 -0.22246791222685353 0.1758260031736027
2200000000.0 -0.2388527083439327 -0.1515678497041606
2220000000.0 -0.2416859925219714 -0.1464090718197613
2240000000.0 -0.12245350995820363 -0.25058299825278973
2260000000.0 0.046998855691295624 -0.2691776242243643
2280000000.0 0.17087287598355522 -0.19763457636163653
2300000000.0 0.21789283512676505 0.12609054667639108
2320000000.0 -0.06254823536927392 0.23453883368755493
2340000000.0 -0.13261739481358245 -0.19286992565296807
2360000000.0 0.1290329944739837 0.1895460321487321
2380000000.0 -0.1891602713705617 -0.13492506759221523
2400000000.0 0.21157093412207761 -0.11117089756486069
2420000000.0 0.22530380324582833 0.1331197877375823
2440000000.0 0.27785630242539117 0.07412548157821845
2460000000.0 -0.1996179675529674 -0.2576208409527027
2480000000.0 -0.05633877542208594 0.3568428331589277
2500000000.0 -0.2597075433316304 -0.3035108639256955
2520000000.0 0.42740565987640183 -0.11313373704714377
2540000000.0 0.2285532105162223 0.4266333429431244
2560000000.0 -0.508158102602285 0.09595651537050626
2580000000.0 0.2523408510452985 -0.48849304469945176
2600000000.0 0.1399336436691201 0.559262852548331
2620000000.0 -0.38882330854872965 -0.46279580367593487
2640000000.0 0.6154108714369088 0.0884105225283681
2660000000.0 -0.43444042313776265 0.46839571342828334
2680000000.0 -0.4053641720218763 -0.5081862260347356
2700000000.0 0.3680049327132666 -0.5482120085571385
2720000000.0 0.6244387764247755 -0.23036407949690774
2740000000.0 0.6668363186206148 -0.07223222411935178
2760000000.0 0.6617532624986712 -0.12158953512369261
2780000000.0 -0.04630223400049811 0.6676192580736233
2800000000.0 -0.19064540963267537 0.6346996006481632
2820000000.0 -0.5622472837660526 0.3299903474709102
2840000000.0 -0.39809560931569576 -0.5021176942679005
2860000000.0 0.6273928747788843 0.021880514586083387
2880000000.0 -0.6031738756753724 -0.10599784834236313
2900000000.0 0.3714984966363211 0.4666093712679737
2920000000.0 0.29854821873258264 -0.4930062185687594
2940000000.0 -0.4580495202336065 -0.3103592432784334
2960000000.0 -0.5063011574261872 0.15848610337285782
2980000000.0 0.03383247245189103 0.5058067604626884
3000000000.0 0.48523216497328425 -0.013830625167115996
3020000000.0 -0.28677625922513633 -0.3625200387281363
3040000000.0 0.13791130825330847 0.4093529549548951
3060000000.0 0.04894535541848738 -0.39937312837157224
3080000000.0 -0.23656050718584415 0.29811401529989234
3100000000.0 0.22343917039755798 -0.28457456123171493
3120000000.0 -0.08234646675887763 -0.33572296607508295
3140000000.0 0.0349150235126149 0.33996760469720666
3160000000.0 -0.07209865753532657 -0.33172365062063847
3180000000.0 0.19933494376159963 0.26701877896725534
3200000000.0 0.18504748409788258 -0.26253116491419765
3220000000.0 -0.19697768765693285 -0.24476598375247524
3240000000.0 -0.2370517002671517 -0.18815771265188164
3260000000.0 -0.2641731582617779 -0.12027783730456089
3280000000.0 0.09579853141475815 -0.2552958145212151
3300000000.0 0.2208426291992415 -0.12802343738063987
3320000000.0 0.2181467363205885 0.07352258438139177
3340000000.0 -0.18780074870618463 -0.07567076520289098
3360000000.0 -0.17908181744701532 0.03143347211023149
3380000000.0 0.1633630219038222 -0.0052142156197904415
3400000000.0 -0.12500225972411427 -0.0778303987185828
3420000000.0 0.13392253527688613 -0.014050847511722895
3440000000.0 0.06729601981730626 0.0985718786163976
3460000000.0 0.09649943473938717 0.027326914532827488
3480000000.0 0.04453116560435387 0.07825419195527195
3500000000.0 0.03307555771630471 -0.06912969753407883
3520000000.0 0.07232141159904686 0.008810550075068702
3540000000.0 -0.04371788548333959 0.06424082721365933
3560000000.0 0.08330716283602238 -0.006925308530716366
3580000000.0 0.08318916635585673 0.03423312601132452
3600000000.0 -0.03130019911008773 -0.08659643196038203
3620000000.0 -0.011814992017801111 -0.09595410260476911
3640000000.0 0.027255082240382617 0.0990480848833866
3660000000.0 -0.06551110149933544 -0.0793070561014558
3680000000.0 0.11006002904090509 0.0045032255684336
3700000000.0 0.09553884151708651 0.062075638937612684
3720000000.0 0.09024397447068233 -0.043650090955150204
3740000000.0 0.002501614769328336 0.08509370386640196
3760000000.0 0.06354768580964046 -0.02275315511996596
3780000000.0 0.05821493274293222 -0.0028586278369559276
3800000000.0 -0.04973549048403338 0.02222253832605006
3820000000.0 0.04178979816093218 -0.025634561034766502
3840000000.0 0.027436570904446952 -0.04618962124901832
3860000000.0 0.06431682179237476 0.0013953009837046535
3880000000.0 -0.003891886751084009 0.08677839793246193
3900000000.0 -0.07379318616296325 -0.07369117688350234
3920000000.0 -0.08810635684330637 0.07215267714854018
3940000000.0 -0.05177291584773944 0.10172287771349225
3960000000.0 -0.04903072970659532 -0.08752690512556141
3980000000.0 0.0780739719382165 -0.04415581955066092
4000000000.0 0.023753835589502132 0.07120334834357403
