!Created with skrf (http://scikit-rf.org).
# Hz S RI R 50.0 
!freq ReS11 ImS11
400000000.0 0.8022726676105442 -0.3253270484203376
420000000.0 -0.14026054435852184 0.7988845688737571
440000000.0 -0.28029700820060427 -0.7322188123192179
460000000.0 0.5339036584659712 0.5373708603167431
480000000.0 0.12380578452551298 -0.7342566976312749
500000000.0 -0.11313641992858733 -0.6740835569507697
520000000.0 0.46085083575916386 -0.3105149412902655
540000000.0 -0.42756320348058724 -0.10634909757584592
560000000.0 0.3516795381016603 -0.06175810861016379
580000000.0 -0.1761409880251178 0.2947893424860241
600000000.0 -0.26918626761030795 0.2343934431851351
620000000.0 0.3521583853851849 -0.09941986662078021
640000000.0 0.14501506924219545 -0.3545086949173823
660000000.0 -0.19448186008152046 0.3442442905647205
680000000.0 -0.18912143560612665 0.3013246833540397
700000000.0 0.12293910361838294 0.31694843818227125
720000000.0 0.01785435763917747 -0.3542369841255825
740000000.0 -0.1204257234773309 0.3184281941296796
760000000.0 0.03547239914876856 0.3217144642616689
780000000.0 -0.1676184183355168 -0.27257165701680025
800000000.0 0.015790721523760883 -0.278600202933101
820000000.0 -0.23772664117836573 0.11747924693260418
840000000.0 -0.23700757887458476 -0.0563636693241684
860000000.0 -0.15987890010048228 0.12203081179185668
880000000.0 -0.16855039906926583 -0.02486687836893865
900000000.0 0.0632922448288946 0.11473611054647316
920000000.0 -0.029963738558497897 -0.11516485500544962
940000000.0 -0.045065233584014985 -0.11203224799170587
960000000.0 -0.07714320796518914 0.023704110544310302
980000000.0 0.016129216697374604 0.044911648943876184
1000000000.0 0.03305222560402309 -0.017449066077057578
1020000000.0 0.023157887934726458 -0.06145160642456258
1040000000.0 0.10306040271330208 0.028678664644706107
1060000000.0 0.0709778264266287 0.11131880157154395
1080000000.0 -0.15254725714578776 0.016242611997045606
1100000000.0 0.10192165655512947 0.16776398872865161
1120000000.0 0.2026541726266493 0.12777585783182266
1140000000.0 0.04163400993593323 -0.27275825774996665
1160000000.0 -0.13543551977685303 -0.23390876792487184
1180000000.0 -0.09691145155766168 -0.261879348327301
1200000000.0 -0.1249172948940391 0.27003456180434443
1220000000.0 -0.1530766031043473 -0.28562244739743603
1240000000.0 0.06310086847162322 -0.3300257851750648
1260000000.0 -0.3425357040213116 0.036431586562272446
1280000000.0 -0.2537078610251457 -0.21721666847509943
1300000000.0 0.1105469248394308 -0.3232783608537909
1320000000.0 0.20584475003184668 0.2777340052359473
1340000000.0 0.09856236921507247 -0.34986678543223293
1360000000.0 0.35003766736926784 0.12793119834600472
1380000000.0 -0.3692036994205997 -0.10539180494389333
1400000000.0 0.08884268384205218 -0.385676936191601
1420000000.0 0.0945554078601802 0.37302155536301607
1440000000.0 0.3717876923931818 -0.01130376358099343
1460000000.0 0.3548800642497711 -0.08259151696947231
1480000000.0 -0.3617525258948683 -0.021003991407528778
1500000000.0 0.19522922200576667 0.2706098932186396
1520000000.0 -0.040021327940126444 -0.3085127858822904
1540000000.0 -0.26841950544263554 0.0969535389924847
1560000000.0 -0.21222014014904875 -0.12954733285864334
1580000000.0 0.12580460461287873 0.16350283203020066
1600000000.0 -0.08995544046008533 -0.160971744064184
1620000000.0 -0.15371175432871864 0.006699951609841685
1640000000.0 -0.06926390858858947 -0.09957053343420684
1660000000.0 -0.08768667805991164 0.013124253618273298
1680000000.0 -0.07029958049783545 0.012413946397796699
1700000000.0 0.005935308383683753 0.05634274950660594
1720000000.0 0.04245103547654856 -0.02207943224738145
1740000000.0 0.032885718243735027 -0.03957524069262261
1760000000.0 -0.0067632995629451935 0.07289579514826663
1780000000.0 0.06468219019326261 -0.0694521874787098
1800000000.0 -0.11208500664301217 0.06716414064286791
1820000000.0 -0.05828167072850519 0.16210687699187173
1840000000.0 0.16587929132980778 -0.12334249661305868
1860000000.0 -0.18130999213536983 0.14777430201405742
1880000000.0 0.1115393199850455 0.21046508875023448
1900000000.0 -0.20624720356044135 0.13602333595302507
1920000000.0 -0.24996294674695935 -0.09960118752324457
1940000000.0 0.01215490650687385 0.29026724844002355
1960000000.0 -0.18332270779905516 -0.2487098367446327
1980000000.0 -0.10249976743727995 -0.29915932049859756
2000000000.0 -0.1487900303634689 -0.27791749025331475
2020000000.0 0.05612357655307276 -0.29823869517114243
2040000000.0 0.22657083819485505 0.1984128608793643
2060000000.0 -0.2023332247058862 0.22342427968499529
2080000000.0 -0.10519987965325145 -0.2878605847262035
2100000000.0 0.07206004282689597 0.3023223001086397
2120000000.0 -0.29601854026101343 0.10023593743749246
2140000000.0 0.06478400199087986 -0.29932216657795846
2160000000.0 -0.27264859318072665 0.11381060683472158
2180000000.0 -0.09946830739798877 0.2650816095738371
2200000000.0 -0.266446982066011 -0.09054392290702275
2220000000.0 -0.16329239041920665 -0.22869298192963863
2240000000.0 0.021224636161872566 -0.2806994387439489
2260000000.0 -0.08090539169681236 -0.2676262195005024
2280000000.0 -0.04277893902060289 -0.2581101594334892
2300000000.0 0.19191060259160309 -0.15667636954860778
2320000000.0 -0.10197586087654349 0.2150988805011976
2340000000.0 0.01908616019906724 -0.23107838549885545
2360000000.0 -0.04286351971453574 0.21888141211411227
2380000000.0 0.09683689903428809 -0.21013460008601575
2400000000.0 0.21998434039869166 0.10531950542089275
2420000000.0 0.2637741862901693 -0.0009623786299175876
2440000000.0 0.23287929245775635 -0.16525592786598672
2460000000.0 -0.2366833687906846 -0.2169368996581715
2480000000.0 -0.2492865444990595 0.26001115800483904
2500000000.0 -0.1607859646487144 -0.3679337495899462
2520000000.0 0.4124256566419774 -0.15846358492236876
2540000000.0 0.20920635218136252 0.43828832489937514
2560000000.0 -0.5194617225785321 0.002488848975970375
2580000000.0 0.21227876357267766 -0.5103476081271612
2600000000.0 0.2286148268285275 0.5313649585180669
2620000000.0 -0.49411659233059785 -0.34594365012736766
2640000000.0 0.6151202535086567 0.07565098324828527
2660000000.0 -0.4496440729706383 0.45196506522978075
2680000000.0 -0.35142483673418534 -0.5462036835517294
2700000000.0 0.37900858327935405 -0.5405821510156509
2720000000.0 0.6419957248113888 -0.17793444983438989
2740000000.0 0.6621995665597408 -0.11176236675557236
2760000000.0 0.671061289072569 -0.061940533847477525
2780000000.0 -0.08440972954377475 0.6644524867746181
2800000000.0 -0.26252514329224685 0.608652469230694
2820000000.0 -0.5817552191685607 0.2963946568471191
2840000000.0 -0.3426405387580175 -0.5419711738403195
2860000000.0 0.6228163609269902 0.08146733943480837
2880000000.0 -0.594298058717848 -0.15172389200868083
2900000000.0 0.3511145479013829 0.4832477859850164
2920000000.0 0.35107832489600205 -0.45791254962339334
2940000000.0 -0.4385281402670489 -0.3398758600117897
2960000000.0 -0.4622192195528928 0.2675771175566051
2980000000.0 0.2520277172365723 0.44148436455929313
3000000000.0 0.4248956883019598 -0.23278971135723633
3020000000.0 -0.3944279196323884 -0.23297000120202774
3040000000.0 0.10203948628572303 0.41983024623776527
3060000000.0 -0.088574395045996 -0.3937944536540702
3080000000.0 -0.13709659920432515 0.3531198933001354
3100000000.0 0.14541453953277386 -0.32987247415803944
3120000000.0 -0.15774275630382548 -0.3046321010709289
3140000000.0 0.17234075307818203 0.292216434375812
3160000000.0 -0.006217899607067582 -0.3360146642223555
3180000000.0 0.19190371704387815 0.2644417881382395
3200000000.0 0.31773804350600954 0.011148244737882467
3220000000.0 0.08032250849487617 -0.30706347364038356
3240000000.0 -0.16671102931559573 -0.25539608386026486
3260000000.0 -0.28920960317131567 0.014484784610283154
3280000000.0 0.1710157378402967 -0.21406393177791846
3300000000.0 0.2499711463235653 -0.049821960506712795
3320000000.0 0.17127164809937367 0.15302062766060928
3340000000.0 -0.12097417989473079 -0.16512010840029817
3360000000.0 -0.054176672453071 0.175507521862381
3380000000.0 0.09488607699579261 -0.1321991928603914
3400000000.0 -0.10101556677512814 -0.10894581236723043
3420000000.0 0.0839641773024908 -0.10633059900642208
3440000000.0 0.11393688387496997 -0.039765391735278925
3460000000.0 -0.00015176207632307994 -0.10300902981995361
3480000000.0 -0.02898469083721194 -0.08402194458191473
3500000000.0 -0.05264627342056653 -0.0504611981405621
3520000000.0 0.03341791938256838 0.06138620811720212
3540000000.0 -0.056590608737399635 -0.05238411556611393
3560000000.0 -0.000763122590772409 0.08270612203061081
3580000000.0 -0.08820276067445931 -0.0016412932879602922
3600000000.0 0.08715619468742708 0.027500119099539762
3620000000.0 0.08471797390959235 0.0417107907136572
3640000000.0 -0.08683869354167749 -0.05482137798105928
3660000000.0 0.033055234668476104 -0.10044046691256231
3680000000.0 -0.08553821847345588 -0.07229839476264607
3700000000.0 0.0999926896650999 -0.040133104472186314
3720000000.0 0.08371329573231623 0.05222761688719975
3740000000.0 -0.043227561875836075 0.07547495523863858
3760000000.0 -0.06427405227290066 -0.025616654930065916
3780000000.0 -0.004035479316343806 0.05582815031419563
3800000000.0 0.04187022169407494 0.021382414888589007
3820000000.0 -0.045209413892333496 -0.007690490606941214
3840000000.0 -0.0480093114734217 0.02188375736475678
3860000000.0 0.060355431731627184 0.015984790943072796
3880000000.0 -0.08646232015086401 0.026073791485951868
3900000000.0 -0.06964379336306623 0.08083346503407492
3920000000.0 -0.0528878284362818 0.10338689187593293
3940000000.0 0.11322042146366396 0.01149447683839509
3960000000.0 -0.06835059050076711 -0.0727329078276885
3980000000.0 -0.06231188080475154 0.062398348815810856
4000000000.0 0.044722822254322184 -0.05577135482382803
