!Created with skrf (http://scikit-rf.org).
# Hz S RI R 50.0 
!freq ReS11 ImS11
400000000.0 0.7303095519597348 -0.4616434214979102
420000000.0 -0.4147829266952578 0.6937564997673016
440000000.0 -0.40461772743248475 -0.673608047136431
460000000.0 0.6623465353152338 0.36321337577878465
480000000.0 -0.21316347826408255 -0.6951500079989061
500000000.0 0.6726043815147038 0.06462539242393137
520000000.0 0.2606967632598219 0.4862793933886633
540000000.0 -0.05815114715634877 -0.44557980031213174
560000000.0 0.348820070498048 -0.09308276938448184
580000000.0 0.20684053718803222 -0.2675225911299944
600000000.0 0.24951354718842023 -0.2271129692894085
620000000.0 -0.3242920895744903 0.15216869925563625
640000000.0 -0.34675035447576963 0.1532532970839542
660000000.0 0.2625276932984706 -0.31636826095509596
680000000.0 -0.22559214873890426 -0.31037779685069283
700000000.0 0.35018493172016 0.05193357625454849
720000000.0 -0.3254112158709899 -0.1674100114313031
740000000.0 0.01738396433215224 -0.3405903727801939
760000000.0 -0.23666828618991945 -0.16814073335072902
780000000.0 -0.32338309517052244 -0.04396474557172076
800000000.0 0.0544988785861061 0.3044359905434425
820000000.0 -0.00624492561907174 0.2819613242033378
840000000.0 0.21948741443973996 0.14161629537981527
860000000.0 0.016591202718728867 -0.20637755756144552
880000000.0 0.07740915680507601 -0.14910495210210692
900000000.0 0.02036106436119065 0.11610467870946567
920000000.0 0.10283166353840316 -0.03268630040148987
940000000.0 0.05228216910664112 0.10730362539691234
960000000.0 -0.021412269381348385 -0.08954393838529065
980000000.0 0.05632950436748615 0.0017645364130907488
1000000000.0 0.017754527820606755 -0.045937582751820395
1020000000.0 0.0615470179675949 -0.012256744866291424
1040000000.0 0.03664456872929119 -0.08438191345182727
1060000000.0 -0.12520532132887877 -0.05859049839220806
1080000000.0 -0.11345366089231859 -0.14070773115034668
1100000000.0 0.118583345948391 0.16662788187071764
1120000000.0 -0.17378023166304135 -0.14335905700822088
1140000000.0 0.12748205696385356 0.23280416825195774
1160000000.0 0.13947953254706918 0.23654386559132975
1180000000.0 -0.25746602607544694 -0.1292730543414011
1200000000.0 -0.08595721824901517 0.28862111426506776
1220000000.0 -0.32698946976014986 -0.0002721606879232166
1240000000.0 -0.30105574296847615 -0.11778492762763455
1260000000.0 0.049602589365509674 -0.33055898779651705
1280000000.0 0.32221012847110203 -0.1041551424670354
1300000000.0 0.27381543105331074 -0.2169389412705812
1320000000.0 0.16238557126684963 0.3127168864750991
1340000000.0 0.08944156033893466 -0.3567882837614485
1360000000.0 0.27832460019088023 -0.25860041856841626
1380000000.0 -0.09936272117779874 0.3714989555293138
1400000000.0 0.0913924448755305 -0.3779400155355933
1420000000.0 -0.2010817101389752 0.32898745890084047
1440000000.0 0.36261943067605823 0.10141166711934922
1460000000.0 -0.01880948283689322 -0.3657448403908612
1480000000.0 -0.35536870782473934 -0.0673997903397764
1500000000.0 0.3117722434900136 0.11266891100399642
1520000000.0 0.06552618187922243 -0.30456795268715275
1540000000.0 -0.28183513307685426 0.039067884522797705
1560000000.0 -0.22272413924312756 -0.11592182948815326
1580000000.0 0.1724873987938119 -0.1239584277680208
1600000000.0 0.000746482143109902 0.18030851939074694
1620000000.0 -0.12727784173993228 0.06579342253522284
1640000000.0 0.06052110454759293 0.10097563666675823
1660000000.0 -0.015194147221431363 -0.09271907341626244
1680000000.0 0.07103139687346245 -0.01673456613841356
1700000000.0 -0.01025175965419988 0.05369278391640522
1720000000.0 -0.027169072506196663 0.02963454113934679
1740000000.0 -0.0032722561360032563 0.051753551614375344
1760000000.0 0.028382678945396242 -0.07791401197568093
1780000000.0 -0.09043788823190536 0.06250824936389524
1800000000.0 -0.06892802736825886 0.11866239987772621
1820000000.0 -0.15190776381843543 -0.05674198015114766
1840000000.0 -0.04501932686713134 -0.18240295056964043
1860000000.0 0.22220254474486958 0.00229579557856553
1880000000.0 0.08924302411266864 -0.22478178316722977
1900000000.0 -0.24779243876913373 -0.08907513218905377
1920000000.0 -0.09766986276414352 0.2658406647316562
1940000000.0 -0.09599398869839249 -0.27905677762932096
1960000000.0 0.015495429039238987 0.2983617946018968
1980000000.0 -0.15886594927520803 -0.25436699125317036
2000000000.0 0.25067370180611986 -0.1776691304644346
2020000000.0 0.28931585984111086 0.08858992505077849
2040000000.0 -0.17692064870924765 0.2450455724791879
2060000000.0 -0.2960358163184341 0.08167229600318984
2080000000.0 -0.30137725304669555 -0.060886325085632166
2100000000.0 0.17473844926841664 0.25522709959302936
2120000000.0 -0.2879641852449435 0.10854929398649832
2140000000.0 0.2614940854506275 -0.15390817468893472
2160000000.0 -0.2986084680522975 -0.001291329461161258
2180000000.0 -0.11267328219477343 0.26144787355215243
2200000000.0 -0.2817419021247304 -0.018898964505251484
2220000000.0 -0.08322293503583011 -0.269271733903397
2240000000.0 -0.08909369096414466 -0.2680548980403664
2260000000.0 -0.093140852442562 -0.2577364754139987
2280000000.0 0.14974224744430364 -0.2152276609680913
2300000000.0 0.21555788964363196 0.12876654709565258
2320000000.0 -0.16260410975922898 0.18063048575151905
2340000000.0 -0.14991316655228049 -0.18185003915427778
2360000000.0 0.14477437313487782 0.17415415617480978
2380000000.0 -0.13661226500192977 -0.18559164650715151
2400000000.0 0.23722193813030265 -0.02938767095415156
2420000000.0 0.23877550399573355 0.10725960757968946
2440000000.0 0.2808893754937327 0.060465311190176556
2460000000.0 -0.14238048561021882 -0.292436188979013
2480000000.0 -0.022815371302183345 0.3605690600065795
2500000000.0 -0.29252406859231883 -0.27317505289039146
2520000000.0 0.4059157639327438 -0.17349427262638925
2540000000.0 0.23149251135104723 0.42549545107666764
2560000000.0 -0.5078730840006028 0.1009734268450572
2580000000.0 0.2474019789147976 -0.4906373684896305
2600000000.0 0.11195806461038253 0.565603376391641
2620000000.0 -0.39763002185371316 -0.4548476604015191
2640000000.0 0.6168034414652886 0.07403706753492527
2660000000.0 -0.41989369937500554 0.48090530304403395
2680000000.0 -0.4303304686046943 -0.4875948232380389
2700000000.0 0.354695858685959 -0.5569388525540845
2720000000.0 0.6227556575578711 -0.23630665195673237
2740000000.0 0.6676445885976479 -0.07567489554926626
2760000000.0 0.6613352387812756 -0.13247432618346314
2780000000.0 -0.09871101429550348 0.6627796185389356
2800000000.0 -0.25009341836939375 0.6136330388624404
2820000000.0 -0.5829928665967197 0.2912472799241286
2840000000.0 -0.4009919995527468 -0.4998170463282077
2860000000.0 0.6059424007287849 0.16326163805578095
2880000000.0 -0.607594059838779 -0.07714242834980217
2900000000.0 0.37091811625641974 0.467086827175234
2920000000.0 0.29340885248795096 -0.49623009519677314
2940000000.0 -0.4926443075199765 -0.2507808296344864
2960000000.0 -0.48227759155288275 0.22396371137189433
2980000000.0 0.12191858607315452 0.49242498689316444
3000000000.0 0.483637495280314 0.048695113602298695
3020000000.0 -0.3266215244206544 -0.3283441107565312
3040000000.0 0.22243146123859237 0.3707840561129543
3060000000.0 0.06071269641861479 -0.3987605642873886
3080000000.0 -0.21311426355435414 0.31636369809711323
3100000000.0 0.21825789376754692 -0.2885173754110043
3120000000.0 0.022036960504024837 -0.34388608675112337
3140000000.0 -0.01424767488610711 0.3414329838348478
3160000000.0 -0.08812007743606043 -0.3297689757272189
3180000000.0 0.24649389206753763 0.2211581868385693
3200000000.0 0.2637531108279053 -0.18195702934656297
3220000000.0 -0.20177659261943953 -0.24141103997190166
3240000000.0 -0.26183196552172733 -0.1518840988785708
3260000000.0 -0.28771920733002665 -0.03174836078750199
3280000000.0 0.1717498672223589 -0.21303761967323617
3300000000.0 0.18861036478733714 -0.17207217938653596
3320000000.0 0.2131694099344824 0.08697158995482726
3340000000.0 -0.14717211155053667 -0.13991313401820615
3360000000.0 -0.1407863411030789 0.11682686101772895
3380000000.0 0.15714109694562864 -0.03917383167021381
3400000000.0 -0.08410422193902185 -0.12194896366411268
3420000000.0 0.11083157733190707 -0.07832005660061794
3440000000.0 0.09865112401755742 0.0657836599495394
3460000000.0 0.09348841318348304 0.03470572566229818
3480000000.0 0.04525205699873777 0.07719294538991624
3500000000.0 0.07004382875411844 -0.03284851364629401
3520000000.0 0.006315282146105452 0.07531736763833353
3540000000.0 -0.004376421806701615 0.07937376941290958
3560000000.0 0.07311089366991218 0.03778210930260931
3580000000.0 -0.047489910882706515 0.07714715506541965
3600000000.0 -0.06309703380033292 -0.07057734486076837
3620000000.0 -0.09259112881005574 -0.01821699769315116
3640000000.0 -0.030721545957950968 0.09507974626223355
3660000000.0 0.037367973497158195 -0.09516411385308493
3680000000.0 0.08339229737938453 -0.0720347646533967
3700000000.0 0.10571863029166717 -0.0305042520095139
3720000000.0 0.09435667519307525 -0.029688570372275087
3740000000.0 0.08012980818176758 0.02807187312062588
3760000000.0 -0.0437142783702731 -0.04831668023923754
3780000000.0 0.04769854749881786 -0.031140108786973153
3800000000.0 -0.04171949921634866 0.032252830056233736
3820000000.0 0.048364946205513515 -0.008310589215172597
3840000000.0 -0.014690359465959863 -0.05141215199222948
3860000000.0 0.030595193877582055 -0.05238239750339839
3880000000.0 -0.07408812384363417 0.04452184538268961
3900000000.0 -0.10518693504955885 0.011747582384711635
3920000000.0 0.07320255705832306 0.0870741829062621
3940000000.0 0.037350299504189576 0.10612864105651945
3960000000.0 0.004530852598889007 -0.09871408794929386
3980000000.0 0.0670179185081939 -0.058916033981940945
4000000000.0 0.019289377585927452 -0.07350203489474981
