!Created with skrf (http://scikit-rf.org).
# Hz S RI R 50.0 
!freq ReS11 ImS11
400000000.0 0.7773971614778841 -0.37994461215078085
420000000.0 -0.19816300011067087 0.7830690405258669
440000000.0 -0.18399844429377418 -0.7616538117221534
460000000.0 0.6904225968896963 0.3137622435460844
480000000.0 -0.4616789547501625 -0.5630874734856343
500000000.0 0.6606353349525299 -0.12920975704547621
520000000.0 -0.15756357508791763 0.5271257059267057
540000000.0 0.02199981699767736 -0.44735487746218566
560000000.0 0.3588406193591312 -0.031213540088569827
580000000.0 0.206521778733076 -0.2642348593861287
600000000.0 0.33429951053250934 -0.06370089567938883
620000000.0 -0.22590068449818268 0.2828003407621582
640000000.0 -0.3480172712946322 0.1477395125349195
660000000.0 -0.07189562931731498 -0.40299235890226287
680000000.0 -0.3606033177922676 -0.12565238086711844
700000000.0 0.27582792695137553 0.2162134966208048
720000000.0 -0.2759294812377665 -0.23631684757426338
740000000.0 0.32658792813011783 0.09589539483561478
760000000.0 -0.27648159595372623 0.128838752862077
780000000.0 0.213424396026832 0.24443754779808682
800000000.0 -0.28427086795819045 0.09887224313210355
820000000.0 -0.08644113745164914 0.27256736703950823
840000000.0 0.25513870198872696 0.062068240407997896
860000000.0 -0.12880141086167765 -0.15850884506393725
880000000.0 0.11492859078954655 -0.12205220473328424
900000000.0 -0.118419096588846 0.009664738575278367
920000000.0 -0.06632602667803812 0.09640549733869247
940000000.0 -0.12048210094193862 0.03482644165067344
960000000.0 -0.024038528780031414 -0.07899850206932829
980000000.0 0.04891766932112894 -0.010631533213177169
1000000000.0 -0.014050289127536657 0.045550600655778165
1020000000.0 -0.05043857948595312 -0.02304819209408474
1040000000.0 -0.05411028308500959 -0.08544787135638031
1060000000.0 0.01960253005587274 0.14497303807231268
1080000000.0 -0.11274110362020408 0.13327027082558818
1100000000.0 -0.17756165320934197 0.09782441900207876
1120000000.0 -0.20121524852631817 -0.11251712891053639
1140000000.0 0.26193594971570644 -0.026116662979640964
1160000000.0 0.07991112075088641 0.25638372837356355
1180000000.0 0.02406190528905709 -0.28963458401131437
1200000000.0 0.05886272862663851 0.3016710154767443
1220000000.0 -0.2781779941142337 0.1683026210342967
1240000000.0 -0.3171373640741215 0.05529827890970044
1260000000.0 0.2492100325288995 -0.22196895262448435
1280000000.0 0.330206269134185 -0.07652827757782298
1300000000.0 0.26202278674236884 -0.23318527383527354
1320000000.0 0.2010059775190565 0.29038093673418724
1340000000.0 -0.028491555644746164 -0.36761841961123887
1360000000.0 0.319403388507421 -0.20482463675040236
1380000000.0 -0.13090431139369527 0.35959882863920223
1400000000.0 0.10490554088328506 -0.37298658653747274
1420000000.0 -0.2044819660732506 0.3291034179992854
1440000000.0 0.34419399226942593 0.1526987660373387
1460000000.0 0.05153883555821363 -0.36282945910480485
1480000000.0 -0.3587743846418645 -0.057666054399149014
1500000000.0 0.3224594523029776 0.07866224745611361
1520000000.0 -0.02243687584119321 -0.3062575289923367
1540000000.0 -0.20247518371108225 -0.20187043838206706
1560000000.0 -0.2517295401253378 -0.04157955931018368
1580000000.0 -0.017179228818768568 -0.21034992338715638
1600000000.0 -0.12920427645930455 0.12178535042992523
1620000000.0 -0.14377085734999623 -0.0026184898843978196
1640000000.0 0.10762611245086537 0.04976791082131728
1660000000.0 -0.09167045408489025 -0.026627710762980292
1680000000.0 -0.03749679633998628 0.0574075948483046
1700000000.0 -0.05430101346081506 0.011983499795173425
1720000000.0 0.010097534240769361 -0.04160559211736611
1740000000.0 0.0494262674538136 0.008543977062197996
1760000000.0 0.03141009221844763 0.07481800090269237
1780000000.0 -0.10412955169307256 -0.04263085889521638
1800000000.0 0.02536535705477853 0.1370196713816622
1820000000.0 -0.1618556799148826 0.010441675522713195
1840000000.0 0.05601082546245693 -0.17699956672284053
1860000000.0 0.21554744413463067 0.040715798063254524
1880000000.0 0.21729953940677463 -0.11460412463139676
1900000000.0 -0.23594260095685304 -0.11604924190787663
1920000000.0 -0.11640043450446373 0.25945705159606597
1940000000.0 -0.12555761574348845 -0.2662917222599904
1960000000.0 0.05875626679406141 0.29177914559723134
1980000000.0 -0.23225169756039615 -0.18687572103769856
2000000000.0 0.29836208662616426 -0.07120470232145892
2020000000.0 0.29901923006955294 0.06888416933308854
2040000000.0 0.011239846585354133 0.3025353848212798
2060000000.0 -0.2965712659829529 0.0686469723177857
2080000000.0 -0.2528079949534322 -0.1766652470866062
2100000000.0 0.07467541957742468 0.3012434822390795
2120000000.0 -0.2823660456871612 0.12873230776576197
2140000000.0 0.21521155950618132 -0.21438833824663733
2160000000.0 -0.2944730311529869 0.02082634836882454
2180000000.0 -0.2456754005448429 0.14146214249858036
2200000000.0 -0.2754716818710242 -0.07087762998532407
2220000000.0 -0.2042453271580536 -0.19697948215284158
2240000000.0 -0.14602310246381253 -0.23884684411356674
2260000000.0 -0.038332508018611884 -0.271204266535963
2280000000.0 0.14973195333720163 -0.214102627404711
2300000000.0 0.21909197023991445 0.12262428162188427
2320000000.0 -0.15201187105300967 0.19167174186915092
2340000000.0 -0.19383683784240774 -0.1347385567773282
2360000000.0 0.1941481485064732 0.11802313713072905
2380000000.0 -0.14199595539885707 -0.18058515911769535
2400000000.0 0.20077373128235396 0.12780900986658555
2420000000.0 0.24471275422000197 0.0946412826419525
2440000000.0 0.28585730911498397 0.007191355349960424
2460000000.0 -0.1838834133895722 -0.26641328698756356
2480000000.0 -0.07974496673694538 0.3511877864692189
2500000000.0 -0.2900407669755984 -0.27518775812826846
2520000000.0 0.3848044073704086 -0.2171071087585238
2540000000.0 0.23482289640160064 0.42354561149293257
2560000000.0 -0.4995079790887164 0.13442480657455916
2580000000.0 0.24429608613990386 -0.49252037560660245
2600000000.0 0.06920230956813943 0.5727392619969818
2620000000.0 -0.3821956229743259 -0.4689233498887402
2640000000.0 0.6104044483811828 0.11519558081523042
2660000000.0 -0.4718450310873723 0.4302730711783979
2680000000.0 -0.4168493347918357 -0.49876145979339825
2700000000.0 0.3844518269623206 -0.5365418856491694
2720000000.0 0.6328400947380015 -0.20859466845563687
2740000000.0 0.6659056445865504 -0.08848260070933517
2760000000.0 0.6638552590936804 -0.1143221020749376
2780000000.0 -0.07361736382666018 0.6657384270638487
2800000000.0 -0.22192817142191462 0.6250418148559563
2820000000.0 -0.5676129343064705 0.32231900204405195
2840000000.0 -0.3455731103546252 -0.5406692073849535
2860000000.0 0.6215840781474871 0.08740573805580293
2880000000.0 -0.5962436109756796 -0.14084865284247602
2900000000.0 0.3485857481936452 0.48462162812297477
2920000000.0 0.3209613659261211 -0.4794538127331806
2940000000.0 -0.46259361628855145 -0.30365094355726485
2960000000.0 -0.47241050962761694 0.24182593569710323
2980000000.0 0.07442576294567059 0.5006657228369428
3000000000.0 0.48551179637905095 2.372790672878611e-05
3020000000.0 -0.3674981376522433 -0.279384452679232
3040000000.0 0.23068444848401057 0.3660078847956678
3060000000.0 0.019328813005070004 -0.40222547210713383
3080000000.0 -0.18964845016372012 0.33005509417342527
3100000000.0 0.25442650539558087 -0.2561796090706477
3120000000.0 -0.0017872045202172462 -0.3456173272129363
3140000000.0 -0.017681893243807662 0.3420990064156991
3160000000.0 -0.04699501241885809 -0.33738782089588487
3180000000.0 0.167788199097662 0.28740771181881464
3200000000.0 0.24469543445875871 -0.2090408313614163
3220000000.0 -0.21024354530415404 -0.23568588981745855
3240000000.0 -0.23039059068778975 -0.19290447149493342
3260000000.0 -0.2460600653870005 -0.1513545189498928
3280000000.0 0.08244472803306416 -0.2629846105580567
3300000000.0 0.1362187322270076 -0.21287551791302106
3320000000.0 0.20623375655207196 0.09878833978621902
3340000000.0 -0.18218358948562022 -0.09009126483253262
3360000000.0 -0.12650878152618153 0.1312418670160404
3380000000.0 0.14308066433443556 -0.07592392944744786
3400000000.0 -0.1470304062844434 -0.006273591216318423
3420000000.0 0.12656524125112326 -0.04483268594101239
3440000000.0 0.04348943975401241 0.11195957846140547
3460000000.0 0.08814793816615385 -0.049443372499561135
3480000000.0 0.08187438798097733 0.03370054057539978
3500000000.0 0.07124225298592343 0.027542510869551916
3520000000.0 0.07158528969024347 0.020114149319677983
3540000000.0 0.017337810667033132 0.07595221712001521
3560000000.0 0.07954369746721544 0.02418691713046406
3580000000.0 0.02525021799132327 0.08815878980463857
3600000000.0 -0.08199271119614532 0.04801172622676313
3620000000.0 -0.08736723002583924 0.03925901930483183
3640000000.0 0.01702040889905944 0.09967920949655576
3660000000.0 0.056632073754380535 -0.08560451820506038
3680000000.0 0.1094511902067486 -0.018286913415128843
3700000000.0 0.08349672109790238 0.07783310306464085
3720000000.0 0.08911857411317686 -0.04740619635772093
3740000000.0 0.07785002670198844 0.0332607830080535
3760000000.0 0.05291407304730764 -0.03820446328007359
3780000000.0 0.0532383062380203 0.025374257539511964
3800000000.0 -0.04216016944349823 -0.034796771679178565
3820000000.0 -0.032509334624869234 -0.03913185456972416
3840000000.0 0.003632892942815994 -0.05256987661012386
3860000000.0 0.05873570489704958 -0.02152109406804416
3880000000.0 0.014763026644248264 0.08598833113248913
3900000000.0 -0.08538627426213093 0.06038414248369577
3920000000.0 -0.027502876577382117 0.11049420796199984
3940000000.0 0.08514533546060261 0.0728569733157997
3960000000.0 0.06838234061530578 -0.06689700792099668
3980000000.0 0.07406788120007876 0.0506166623574656
4000000000.0 0.07373709278169227 -0.02000998327370814
