!Created with skrf (http://scikit-rf.org).
# Hz S RI R 50.0 
!freq ReS11 ImS11
400000000.0 0.7548001737753611 -0.42507186117043944
420000000.0 -0.013547559720673688 0.8059975079103991
440000000.0 -0.29612156417832547 -0.7191041642442972
460000000.0 0.3877506713089562 0.6435569248671626
480000000.0 0.5861626008642659 -0.4555704883277126
500000000.0 0.6432066885208279 -0.2194020837599402
520000000.0 0.12574568549907217 0.5462129218673584
540000000.0 0.4468281252813634 -0.0993945186796243
560000000.0 -0.35809628243746966 -0.14804468909821972
580000000.0 0.3384573505247981 -0.09594033935069078
600000000.0 0.034514035912363975 -0.3653623570623096
620000000.0 -0.2860659155577674 -0.20052943821865685
640000000.0 0.05915178086810737 -0.3611128963450038
660000000.0 0.28844809822372874 0.2616015816215694
680000000.0 0.10386477605524452 0.33857484639207724
700000000.0 0.32210973219751504 -0.03887628471546342
720000000.0 0.2710299890582723 0.19686346041063482
740000000.0 0.3314419883342369 0.05632196073788376
760000000.0 0.21461573319957117 -0.262434829035336
780000000.0 -0.0053708127062503525 -0.3328005950631455
800000000.0 -0.02087268412231804 -0.29173888002321063
820000000.0 0.27755141052725407 -0.06275030208757167
840000000.0 -0.1914902121552715 -0.15208163857576384
860000000.0 -0.015160478271015786 -0.1846940932649836
880000000.0 0.13780835606563435 0.062479580431418595
900000000.0 -0.0056939456770593545 -0.11569994095103417
920000000.0 -0.09587015646206853 0.04287541210830551
940000000.0 0.030434819404810076 -0.10365941755311957
960000000.0 0.020612710079631204 -0.10484598340047956
980000000.0 -0.044667960181428136 0.04886666824011227
1000000000.0 -0.023798435197534114 0.05253615501176977
1020000000.0 -0.011406648895715108 -0.07423240528008827
1040000000.0 -0.08247049844902764 0.08414989734016524
1060000000.0 0.1433161745859421 -0.003270853877238938
1080000000.0 -0.12033623998463812 0.09990230478151979
1100000000.0 0.17446880121683367 -0.0976470918260513
1120000000.0 0.1474381310694548 -0.18661838533413586
1140000000.0 -0.04744060497206004 -0.26444698430948876
1160000000.0 -0.006462487732812583 -0.2769874600075992
1180000000.0 -0.10687569790675426 0.2555713735752616
1200000000.0 -0.03416452137919031 0.28685227517642886
1220000000.0 0.17415525591210754 -0.2674563121233073
1240000000.0 0.19950679710513777 -0.26288624259941634
1260000000.0 -0.0018003499146941133 -0.34088856845146254
1280000000.0 -0.050338857030146546 -0.3377919520149778
1300000000.0 0.3181146158718541 -0.12955529546086555
1320000000.0 0.15229444171998305 0.3207895220952335
1340000000.0 -0.2558390179607197 -0.2638744360132572
1360000000.0 0.30366729429816525 -0.2202591676897019
1380000000.0 -0.3205104154736213 0.21462657701264318
1400000000.0 -0.1898001997989627 -0.3445518635474925
1420000000.0 0.2460545369803674 0.287404228706631
1440000000.0 0.36535205618690114 -0.0010886988880475278
1460000000.0 0.35570974334734934 0.039077235410256685
1480000000.0 -0.05152732636097923 -0.3556108289129724
1500000000.0 -0.2923999242838606 0.16832242359328778
1520000000.0 0.15889724262014931 -0.2799225436716274
1540000000.0 -0.2295398285390371 0.18274084739720148
1560000000.0 -0.16949672891416903 0.18961556628801624
1580000000.0 0.025884628306577846 -0.20558866494967398
1600000000.0 -0.08706228754682331 0.15225221585165788
1620000000.0 -0.09960783987889384 -0.10763406226363967
1640000000.0 0.09983168599647753 0.07517193778748557
1660000000.0 -0.08430084530871292 0.04124795615601462
1680000000.0 0.06107875433214666 0.03167070661576919
1700000000.0 -0.05330008072541509 -0.001344690587715634
1720000000.0 0.031160424698395337 0.038727915048966256
1740000000.0 0.03709525934639336 0.04138799785329592
1760000000.0 -0.007979839984785587 -0.07642497301520552
1780000000.0 -0.036662002372963964 0.08879367648440199
1800000000.0 0.10422715915536945 0.07198353413215422
1820000000.0 -0.057091230322783036 0.1569427654725939
1840000000.0 0.16309659456992745 0.1149087407273784
1860000000.0 -0.04547895403757404 -0.22789008054597937
1880000000.0 -0.20187319073286744 0.1356657566204125
1900000000.0 -0.17273527644553657 0.18704206835757398
1920000000.0 -0.15225168712411546 0.2241333110617108
1940000000.0 0.2669755559178822 0.10781402670768402
1960000000.0 -0.08185264771667612 -0.2895893588180616
1980000000.0 0.13728173277352818 -0.28486053254879673
2000000000.0 0.0709749159086719 -0.3111024901352531
2020000000.0 -0.1769609059119861 -0.2559069712575906
2040000000.0 0.2604719455651609 -0.15250766279728467
2060000000.0 -0.018001980844353473 0.2939450640840867
2080000000.0 -0.011684136654885602 -0.2987899460670837
2100000000.0 -0.2978449723083373 0.08485646365878312
2120000000.0 -0.21137709896130993 -0.2345554512211199
2140000000.0 0.07307557493337506 -0.30553345284754796
2160000000.0 -0.0870358209301377 0.28493691027090334
2180000000.0 0.05755605741479354 0.27769429994477673
2200000000.0 -0.27429340994899293 -0.04911821541624584
2220000000.0 -0.14237150657423572 -0.2420999888293063
2240000000.0 -0.01924447990602493 -0.2827819034253717
2260000000.0 -0.1998712064781608 -0.19468911365992309
2280000000.0 -0.2056582939627835 -0.15990838592086284
2300000000.0 0.22633123301070143 0.08973056597473227
2320000000.0 -0.23636748319160303 -0.03314324725521041
2340000000.0 0.0745591433626567 -0.22476681952590258
2360000000.0 0.15202011521557396 0.16758053372436965
2380000000.0 -0.13890218353380512 -0.1845780871274409
2400000000.0 0.20647130648895426 0.12328245083939147
2420000000.0 0.24742016080185608 0.08783681055952697
2440000000.0 0.2804343468151204 0.057704038055588686
2460000000.0 -0.12895859976891502 -0.29467238520721056
2480000000.0 -0.3003246864174992 0.20094930085454923
2500000000.0 -0.23919295907157775 -0.3245231401614692
2520000000.0 0.34816206255120397 -0.27607708784218976
2540000000.0 0.29356282855608457 0.3838388564627724
2560000000.0 -0.5174953982329836 -0.01658553423724363
2580000000.0 0.2913753811967205 -0.46859452649911637
2600000000.0 0.12355499516825565 0.5652960606913746
2620000000.0 -0.4612364014362861 -0.3898982709725403
2640000000.0 0.615721168262071 0.07358560870824431
2660000000.0 -0.4866901196289116 0.41151529426355016
2680000000.0 -0.3398923084593606 -0.5542224676413188
2700000000.0 0.38229116567126215 -0.5387749766057064
2720000000.0 0.6262062051772003 -0.22890813712094513
2740000000.0 0.6677871747885644 -0.07272141840353297
2760000000.0 0.6712670551159129 -0.06024573037560882
2780000000.0 -0.10793296519272931 0.6605921025448013
2800000000.0 -0.26420804988089447 0.6071149461260072
2820000000.0 -0.5770516854585506 0.3040381516693977
2840000000.0 -0.26149217491071575 -0.5851514666205382
2860000000.0 0.5915841699073554 0.21068514726614776
2880000000.0 -0.5754280323423462 -0.21451242399233061
2900000000.0 0.2552093776035489 0.5413356956410968
2920000000.0 0.3744747087817603 -0.4413333527185841
2940000000.0 -0.4686350481150957 -0.3004219792868991
2960000000.0 -0.3899825727790037 0.36609470368710806
2980000000.0 0.3006092933846135 0.408194125336066
3000000000.0 0.4015407789026484 -0.268435654337538
3020000000.0 -0.3813768137455997 -0.25268447407373246
3040000000.0 0.0592306800649818 0.4271370027380715
3060000000.0 0.0720499074756977 -0.3954708953921154
3080000000.0 -0.2970258791769211 0.2388640551912586
3100000000.0 0.19015920151583862 -0.3116358134680998
3120000000.0 -0.3209436500498914 -0.13529334936806311
3140000000.0 0.2703445728688668 0.2027325047834296
3160000000.0 -0.07628366596019454 -0.32425884902116414
3180000000.0 0.1629653722690361 0.2836734724251921
3200000000.0 0.2786808740651696 -0.15280253840506747
3220000000.0 0.04296320945445553 -0.30968462925312956
3240000000.0 0.06891005601936002 -0.29436004587680914
3260000000.0 -0.039903818363888725 -0.2898226597503322
3280000000.0 0.15909884263460516 -0.229749446220811
3300000000.0 0.17691154127757738 -0.18665717143753868
3320000000.0 0.2291658626488068 0.030744958843092387
3340000000.0 -0.20499948472732973 0.016932284714660566
3360000000.0 0.008718639466524259 0.1785207750217029
3380000000.0 0.16014474260244174 0.019269564980623204
3400000000.0 -0.008441484698076785 -0.14877690637497457
3420000000.0 0.11006201623343122 0.08130905110078974
3440000000.0 0.08289716943864801 0.09192924639116704
3460000000.0 -0.08278199643821775 -0.06626300473277306
3480000000.0 -0.08955027653259934 0.012080896142774581
3500000000.0 0.07154843415075816 0.017615015517662775
3520000000.0 0.019726906950807407 -0.06251451901164096
3540000000.0 0.07241575826784837 -0.015188924162564512
3560000000.0 -0.07817620467081797 -0.01484854539769958
3580000000.0 0.07280417011988455 -0.050862308837116336
3600000000.0 0.019950612436609297 0.09190961961438569
3620000000.0 0.03965087946950117 0.09186169669823858
3640000000.0 0.015371025134181199 0.10486712172791843
3660000000.0 -0.10335402352731203 0.02293216537605854
3680000000.0 -0.10218845811324476 0.0326819785586755
3700000000.0 0.04622449847328051 0.09506435839526149
3720000000.0 -0.07488335028202904 0.061638734208748325
3740000000.0 -0.04688561721355983 -0.07483140313056755
3760000000.0 -0.056063469751491964 -0.048677519941513876
3780000000.0 0.007811013867423151 -0.05657310999915107
3800000000.0 -0.03773867072459729 -0.026320778782373815
3820000000.0 0.04114972794556158 -0.013113238298171553
3840000000.0 0.003646546265246917 0.05295184609655231
3860000000.0 0.05350108010741316 -0.03881988270197642
3880000000.0 -0.03218924928535089 0.08413365652837568
3900000000.0 -0.08355318209156523 0.06430539499495165
3920000000.0 0.024198637878113376 0.1115774836471785
3940000000.0 0.03320993485710895 0.10765356622866559
3960000000.0 -0.09947703049838523 0.00477988394642227
3980000000.0 -0.0870484054679829 6.216341145099425e-05
4000000000.0 0.013083422528505103 -0.07365714651635345
