!Created with skrf (http://scikit-rf.org).
# Hz S RI R 50.0 
!freq ReS11 ImS11
400000000.0 0.7384208847506578 -0.44862138122264217
420000000.0 -0.396876991771045 0.7033592865848464
440000000.0 -0.3369082869720267 -0.7105702383148922
460000000.0 0.7038248729752679 0.2738546822172718
480000000.0 -0.27060973055298304 -0.6751515785441365
500000000.0 0.670797343886375 -0.07026820529990409
520000000.0 0.07076514015127945 0.5438260071410571
540000000.0 0.16062777910283257 -0.4228961704919373
560000000.0 0.2525840077427205 -0.2614036230391499
580000000.0 0.0028734420893186995 -0.33416526732422197
600000000.0 0.3179130206888211 -0.08093497631246595
620000000.0 -0.35720209967433014 -0.05128422992108612
640000000.0 -0.3823046939193802 0.022693326313049295
660000000.0 -0.11007125704237324 -0.39790805834213105
680000000.0 -0.3534091900472683 -0.1356845065582589
700000000.0 0.3456396322706213 0.06503158470803828
720000000.0 -0.3001417003112162 -0.2000311443951211
740000000.0 0.33947927637885966 -0.049336422210879305
760000000.0 -0.29644673405977484 0.013476113994445517
780000000.0 -0.2714512018346279 0.17772693138583695
800000000.0 0.009295222558191386 0.307953724613826
820000000.0 0.04341686372372063 0.27919208431838
840000000.0 0.02786880245376208 0.25535116691174015
860000000.0 0.10660248310999526 -0.18042977306457644
880000000.0 0.03393102190881628 -0.16664001132480646
900000000.0 0.0288827991685644 0.1156872804974715
920000000.0 0.10831396064788627 -0.0030620275050829253
940000000.0 0.10345350037103648 0.0572782229552489
960000000.0 0.05605613975905835 -0.06832943670114662
980000000.0 -0.05223715571456078 -0.025667692778862397
1000000000.0 0.028432106444097122 0.04397370499843225
1020000000.0 0.04850465420944336 -0.042010952840680925
1040000000.0 0.059791423411033134 -0.07390865222679295
1060000000.0 -0.12316839524931916 0.06678938800763681
1080000000.0 -0.1768212193862633 -0.02234471589411725
1100000000.0 -0.12122430338672457 0.15797882331277685
1120000000.0 -0.08545336176751014 -0.21260530950612894
1140000000.0 0.2007480318147469 0.1757171712424215
1160000000.0 0.2356595801352353 0.13849011056139016
1180000000.0 -0.186257570903948 -0.21776170871241735
1200000000.0 -0.10224673259160362 0.2847056468367154
1220000000.0 -0.3219206924550211 0.05840115845982832
1240000000.0 -0.30819748436217315 -0.10107437266023125
1260000000.0 0.1462233302288788 -0.302333738652131
1280000000.0 0.30546320948195727 -0.1491440196901596
1300000000.0 0.21551906584018035 -0.27291853178385606
1320000000.0 0.08828772946529086 0.3395093340283868
1340000000.0 0.13847767916311796 -0.34349376923411346
1360000000.0 0.1902356622888119 -0.33021591532394046
1380000000.0 -0.11808777331508168 0.3633070440205998
1400000000.0 0.17537090923728949 -0.3486399479480633
1420000000.0 -0.08802198088019647 0.37578407845709383
1440000000.0 0.35224959997520006 0.12832514447149318
1460000000.0 0.14656967702662962 -0.33722190741404867
1480000000.0 -0.36002411590371775 -0.04960676537263785
1500000000.0 0.33055425393344884 0.0055827214707961596
1520000000.0 0.1376154392793598 -0.27770795464877934
1540000000.0 -0.2831733044282931 -0.03356625685120686
1560000000.0 -0.23653204582431572 -0.08561368590765345
1580000000.0 0.17061511512005736 -0.1257625581000686
1600000000.0 0.07798134593393324 0.16140289646268466
1620000000.0 -0.13122657791411324 0.05245412141346147
1640000000.0 -0.021460224671180066 0.11664148245292927
1660000000.0 -0.0778927810439023 -0.05795010100487964
1680000000.0 -0.05849779767760359 -0.04246981955693102
1700000000.0 -0.04654580739745607 -0.023415481468415694
1720000000.0 -0.03486452259398215 0.02484470818116764
1740000000.0 0.05199410525691638 0.0028449103355279405
1760000000.0 0.04111822931803307 -0.07033740225564519
1780000000.0 -0.09246744309205215 0.06062402701232964
1800000000.0 -0.06238186325375991 0.12264868216393707
1820000000.0 -0.1460322524861742 -0.0727405495382499
1840000000.0 0.01975201491437144 -0.18706396128078848
1860000000.0 0.20889747850263626 -0.07092810136274187
1880000000.0 0.19982305170121167 -0.13610209503978787
1900000000.0 -0.2053366771466771 -0.165928285587781
1920000000.0 0.007898950139820816 0.2840511003210407
1940000000.0 -0.11129899576186891 -0.2726801934585231
1960000000.0 0.03281720799216518 0.2964324354648659
1980000000.0 -0.20307471301650173 -0.21982127626067038
2000000000.0 0.2487019032103774 -0.17918245391817536
2020000000.0 0.28103795380258384 0.11615484449547621
2040000000.0 -0.14792346731829556 0.266472290679462
2060000000.0 -0.1959984287981333 0.2364774390395731
2080000000.0 -0.29066342542692414 -0.09607779075450013
2100000000.0 -0.0013865583969068962 0.30918099454318065
2120000000.0 -0.3084375110154465 0.03543760851861508
2140000000.0 0.21492581439368455 -0.21644037531528826
2160000000.0 -0.29536947880805786 -0.013965368992252824
2180000000.0 -0.21771018600790365 0.1825082227650876
2200000000.0 -0.2762870166550409 -0.05731868375426714
2220000000.0 -0.168098276250032 -0.22561959821590422
2240000000.0 -0.10855452021166852 -0.2594788454319046
2260000000.0 -0.059246061429173345 -0.26763569774853413
2280000000.0 0.11560640176494393 -0.23467095328966914
2300000000.0 0.23620839725489562 0.08367861814717904
2320000000.0 -0.10546172597710193 0.21915300623525777
2340000000.0 -0.1012215556324063 -0.21283811631688096
2360000000.0 0.1847361961950235 0.13265516028046076
2380000000.0 -0.12051255234836412 -0.19769114275070335
2400000000.0 0.23396517868909644 0.03761124525073429
2420000000.0 0.18432380946667457 0.1847724186542551
2440000000.0 0.28319279219561266 0.049061443727636635
2460000000.0 -0.23802485919076774 -0.2188498928538576
2480000000.0 -0.1271530755742229 0.3368475968675401
2500000000.0 -0.26830422204728865 -0.2983033525556497
2520000000.0 0.3892083947243979 -0.20811815846044918
2540000000.0 0.2581730640386721 0.40804500259218707
2560000000.0 -0.5132001121083962 0.06227274407387831
2580000000.0 0.26909323553461983 -0.4801990775872625
2600000000.0 0.12198886146475806 0.564128617353045
2620000000.0 -0.380294654656294 -0.4697235046789995
2640000000.0 0.6150513694412568 0.08870764373317827
2660000000.0 -0.4790443959382422 0.42285765930552616
2680000000.0 -0.35060635855039424 -0.5475679827363862
2700000000.0 0.38615383966358907 -0.535558228831157
2720000000.0 0.6342405648776079 -0.20292829957288244
2740000000.0 0.6696504945315238 -0.04977766796455505
2760000000.0 0.6700424231188765 -0.06537028269951306
2780000000.0 -0.07675270898448261 0.6652293067365485
2800000000.0 -0.27565725799234525 0.6031785417857927
2820000000.0 -0.5882256219498464 0.2834498333796118
2840000000.0 -0.38376861052010314 -0.5143260137527015
2860000000.0 0.6204239120465869 0.09651022160685267
2880000000.0 -0.5933544990962016 -0.15487982645214277
2900000000.0 0.3462156778579084 0.48635361434646
2920000000.0 0.34060662326548746 -0.46586223067869564
2940000000.0 -0.4526759809473293 -0.3169520132409538
2960000000.0 -0.5098690556096402 0.14960385651543157
2980000000.0 0.0862811022634754 0.4993564005690964
3000000000.0 0.4840419929729057 -0.03423585166804597
3020000000.0 -0.37127410387399845 -0.27364156875849327
3040000000.0 0.1781485511031427 0.39486478943213976
3060000000.0 0.0592804620585592 -0.3986659890345449
3080000000.0 -0.1720632433946439 0.3385902089903998
3100000000.0 0.2260159429924377 -0.2832156667372409
3120000000.0 0.004149202774126721 -0.34646809919334465
3140000000.0 0.0027268218647691893 0.3425465762639429
3160000000.0 -0.03573387217905315 -0.3382871229298057
3180000000.0 0.16525000508255214 0.2888808584415929
3200000000.0 0.23261267736761645 -0.22249443845717332
3220000000.0 -0.20416722779857419 -0.23934807002754996
3240000000.0 -0.2024599622474896 -0.22379233153808556
3260000000.0 -0.256683603014616 -0.13347312040168025
3280000000.0 0.058434788209243464 -0.26779710175674326
3300000000.0 0.1548539482121008 -0.20083656758770985
3320000000.0 0.21984715592637352 0.06536095581270657
3340000000.0 -0.1906110126836075 -0.06779556709447593
3360000000.0 -0.171192611613325 0.06199634152429759
3380000000.0 0.11835351253122503 -0.11200149553697465
3400000000.0 -0.14629720440483068 0.012842817712083314
3420000000.0 0.13157848426335675 -0.024119122577742493
3440000000.0 0.012070240618480426 0.11947875244492287
3460000000.0 0.08737497897975299 -0.05099172929676706
3480000000.0 0.08306357610235844 0.02848225271334068
3500000000.0 0.04518211912118084 0.059860398460890335
3520000000.0 0.008636467250366335 0.07480994213647173
3540000000.0 0.07772240668010268 0.018249854347609343
3560000000.0 0.05344608814346579 -0.061829729366661805
3580000000.0 0.042536595889665005 0.07793230147037326
3600000000.0 -0.07687827707465718 -0.054751542156052546
3620000000.0 -0.0962412776592507 -0.004675880099937782
3640000000.0 0.03766915528658231 0.09362551328093294
3660000000.0 0.011169548468153701 -0.10299550301430788
3680000000.0 0.06338705876064785 -0.09089865453688015
3700000000.0 0.09230383286852463 0.06357332875286062
3720000000.0 0.099858925884613 0.016609587355194272
3740000000.0 0.011589803708041396 0.08528050677908414
3760000000.0 0.0005763786699510496 -0.06617533512095233
3780000000.0 0.05427434602458417 0.019294778602865572
3800000000.0 -0.018347276041298613 -0.051443981021725246
3820000000.0 0.027666766294414266 -0.042335556071163225
3840000000.0 0.02437730016861277 -0.046224351392045115
3860000000.0 0.05107649645156189 -0.034787778275545314
3880000000.0 0.01789309022616286 0.08548807162954936
3900000000.0 -0.10249284907987244 0.019267280042981973
3920000000.0 -0.02688868840715379 0.10975966022061102
3940000000.0 -0.023815539406210298 0.1094418474087059
3960000000.0 0.02003068625735688 -0.09743649424538658
3980000000.0 0.06386513104180018 -0.05926817617175303
4000000000.0 0.026386564615608468 0.07100726342394975
