!Created with skrf (http://scikit-rf.org).
# Hz S RI R 50.0 
!freq ReS11 ImS11
400000000.0 0.6834469228028186 -0.5308671693961357
420000000.0 -0.22527403188049142 0.7769517477356108
440000000.0 -0.2621718175106267 -0.7364672063105827
460000000.0 0.6133433774454605 0.44670133219654923
480000000.0 0.045617892779568146 -0.739716570173779
500000000.0 0.2126786916679141 -0.6441066698841874
520000000.0 0.38978601705338983 0.3986736266172511
540000000.0 -0.3889173553099668 -0.21792325836540707
560000000.0 0.20605146693620224 -0.294633057691189
580000000.0 0.13796616419015278 0.32541208057129656
600000000.0 0.32729055368866766 0.15436120427803773
620000000.0 0.0784754062763706 -0.3371169246961158
640000000.0 0.31813023337848745 0.20071669271878284
660000000.0 -0.393978640993812 -0.053249675545123325
680000000.0 -0.18585079277877153 0.3292082213811279
700000000.0 -0.1711624571096812 -0.2990134517224194
720000000.0 -0.3245142002354215 -0.11322107349399499
740000000.0 0.15195054632512203 0.281024612721066
760000000.0 0.05274805515748959 -0.308030277086746
780000000.0 0.3227189998358178 0.005397410188819954
800000000.0 0.2794193298890106 0.07580190564282595
820000000.0 -0.2776114460191633 0.026042951873296784
840000000.0 0.15079010942165694 0.19515337225745039
860000000.0 0.19627011513454262 0.07146318253547197
880000000.0 0.09266752953330158 -0.13706486837996862
900000000.0 -0.07278822479396767 0.09305342866737842
920000000.0 -0.08367753758661058 -0.060277453169650067
940000000.0 0.012223599206331476 -0.11696004253656016
960000000.0 0.08830939630029352 -0.004240626224810617
980000000.0 -0.0016652790952702042 0.057504565212234134
1000000000.0 -0.04226598181524463 -0.027353546212744273
1020000000.0 -0.04318157061829207 0.04950129691939465
1040000000.0 -0.08884877030532469 0.06315209904193088
1060000000.0 -0.0009678833255311062 0.13349271774092958
1080000000.0 -0.1355853623893978 0.08219578741303103
1100000000.0 0.19089228926188795 -0.029981628991992717
1120000000.0 0.09461675391616778 0.22070800826938794
1140000000.0 0.06133391333324946 -0.26403900978351
1160000000.0 0.2140628776890202 -0.16727599318301764
1180000000.0 -0.2306447677845636 -0.16035835997226616
1200000000.0 -0.17758935122526442 0.23989142953060844
1220000000.0 -0.3269631291637722 -0.0332551938516227
1240000000.0 -0.11142932305384708 -0.3069327487198308
1260000000.0 -0.10782241520566281 -0.31868162120532123
1280000000.0 -0.14573064513703973 -0.30440984678842825
1300000000.0 0.21846288532179303 -0.2678380400296446
1320000000.0 0.12515178462079243 0.3260480763181355
1340000000.0 -0.09414327364083196 -0.3536518178299695
1360000000.0 0.3466563447960093 -0.1421043213382037
1380000000.0 -0.38190789980950574 -0.04107025902147083
1400000000.0 0.12691902369819452 -0.37167408876867275
1420000000.0 0.0003492977924791643 0.385345316239781
1440000000.0 0.35803372090800645 -0.09298086327724894
1460000000.0 0.22458403332107127 0.283471336165576
1480000000.0 0.08714538839469847 -0.35863989952053815
1500000000.0 0.3148746002718098 -0.13815419862864378
1520000000.0 -0.3036465007728153 -0.03769360036284821
1540000000.0 -0.22064784201645357 -0.17315553992074365
1560000000.0 -0.07570581175679446 -0.2388462640003482
1580000000.0 0.16783862392166393 0.12360562379767852
1600000000.0 -0.1863256266071343 0.010660559649098714
1620000000.0 -0.12922483600938547 0.0743605400833081
1640000000.0 0.07629111489340998 -0.09632619862205113
1660000000.0 -0.09221988177555676 -0.017095757781458703
1680000000.0 0.029023579972931802 -0.060696829877361635
1700000000.0 0.044406744780609984 -0.0320337328709026
1720000000.0 -0.023673252926326528 0.05042246929284615
1740000000.0 0.024160999171246852 -0.04483194697114266
1760000000.0 -0.04080521576298564 0.04985449873901182
1780000000.0 0.019780898934850147 0.09463643434219367
1800000000.0 -0.13619868562748638 0.003667589862050493
1820000000.0 -0.10546329299029163 0.13937274445857373
1840000000.0 0.03106302014178825 -0.2043106232104439
1860000000.0 -0.14990054623241447 0.17570534385798509
1880000000.0 -0.03139353753377636 0.23194238349242308
1900000000.0 -0.1946338447116079 -0.15977323363663093
1920000000.0 -0.2653780234968598 0.05263573771725773
1940000000.0 0.12630324234040788 0.25856407619114175
1960000000.0 -0.2306622626617469 -0.2007935969642155
1980000000.0 -0.01718564844999174 -0.3127293814280814
2000000000.0 -0.06319743035964341 -0.31190549179048344
2020000000.0 -0.08132832139800017 -0.29342126243501504
2040000000.0 0.15300290672025596 0.2596095309144207
2060000000.0 -0.2203752295649522 0.20859674072472098
2080000000.0 -0.2897663929963276 -0.10075585026241769
2100000000.0 0.033944513095090126 0.30708514758548094
2120000000.0 -0.3093931364086727 0.009297816563118408
2140000000.0 0.2940873132035936 -0.08418639591873485
2160000000.0 -0.3005145484249847 -0.0034580489962902695
2180000000.0 -0.10225486450510708 0.2675216239049622
2200000000.0 -0.25495442413639957 0.12305522436944158
2220000000.0 -0.2723447949076819 0.05966370985681552
2240000000.0 -0.033820208918047136 -0.27519584167131406
2260000000.0 0.13660259013446 -0.23747945550433674
2280000000.0 0.09378093270771204 -0.24644017998182355
2300000000.0 0.24247153400483587 -0.06049730622362907
2320000000.0 -0.07166755123932599 0.2319667371998536
2340000000.0 -0.14053137269169574 -0.1828692270120882
2360000000.0 0.042714975948685584 0.22302041788424887
2380000000.0 -0.04715612124054361 -0.2281329093768887
2400000000.0 0.23655442504262272 -0.04809717750490234
2420000000.0 0.20003985698347615 0.16462167964430074
2440000000.0 0.19039127204056508 0.2154691445269188
2460000000.0 0.022903890139223355 -0.3236879910719488
2480000000.0 -0.29003795714931874 0.2220899405392348
2500000000.0 -0.3294486583510109 -0.23205274780585178
2520000000.0 0.3045558905971915 -0.3216333923536915
2540000000.0 0.2073333341569995 0.4349364402166275
2560000000.0 -0.5158198361961919 -0.05353382408197196
2580000000.0 0.17949203904531857 -0.5227141951165146
2600000000.0 0.2761391645721571 0.5087146407538828
2620000000.0 -0.4753294323938231 -0.3690640109743646
2640000000.0 0.6113942428925576 0.10449358686786386
2660000000.0 -0.5166937968072002 0.37523368241058447
2680000000.0 -0.33133909186641913 -0.5611306677827396
2700000000.0 0.356949245991188 -0.5570173007316014
2720000000.0 0.6297167431533669 -0.22096298669233988
2740000000.0 0.6668833854830674 -0.08724966548792547
2760000000.0 0.674468541061937 -0.011862065111690382
2780000000.0 -0.1499445159980255 0.6537346404674503
2800000000.0 -0.30225383612581813 0.5898053717808872
2820000000.0 -0.5986940435282708 0.2574371177690042
2840000000.0 -0.3449792168546068 -0.5404123135986594
2860000000.0 0.6173946190179472 0.11356649024603892
2880000000.0 -0.601469932359949 -0.11724329550486012
2900000000.0 0.28227537231569755 0.5263873288896653
2920000000.0 0.35531097019479346 -0.45617240158847794
2940000000.0 -0.4959549431311757 -0.2535014760524411
2960000000.0 -0.4573901474835638 0.27592331192664343
2980000000.0 0.24547853983007958 0.4457852637915236
3000000000.0 0.4322368443220463 -0.22212995660011248
3020000000.0 -0.41667586299287557 -0.19671843606492306
3040000000.0 0.19746630888829192 0.3850770783239652
3060000000.0 0.09923151649388422 -0.391517455892684
3080000000.0 -0.14710204265983312 0.35159497662241235
3100000000.0 0.1739251886650749 -0.31588475878779854
3120000000.0 -0.09680775631560848 -0.32994073281488995
3140000000.0 0.053858638874703296 0.3343678077069873
3160000000.0 -0.03388549555528908 -0.3346968917945589
3180000000.0 0.14025814748715418 0.2948661091516121
3200000000.0 0.31446252652286244 -0.04751070643532728
3220000000.0 0.049804103374606896 -0.3128747012890476
3240000000.0 -0.2708170270465012 -0.14257981356670074
3260000000.0 -0.286018282309339 0.030704328521888303
3280000000.0 0.07419384512963245 -0.2643127781090766
3300000000.0 0.25254682676021073 0.000666783957026766
3320000000.0 0.1246238035407731 0.1990260699180168
3340000000.0 -0.15584366357128074 -0.13953926066957692
3360000000.0 -0.0990212361820072 0.1537709533110745
3380000000.0 0.1288900298157341 -0.10130073667139931
3400000000.0 -0.03769257656553225 -0.14671185721335633
3420000000.0 0.1315037706148973 0.035045459194624415
3440000000.0 0.12019343404828962 -0.006107265237840426
3460000000.0 0.02920687619012446 -0.09620625878880855
3480000000.0 0.08497658456556699 -0.005519932059153436
3500000000.0 -0.016628000674458784 -0.07162071783919242
3520000000.0 0.007119747817411228 0.06918136904954815
3540000000.0 0.0005722856153225664 -0.07650735747675867
3560000000.0 0.08150721736948707 0.016377775625937396
3580000000.0 0.012399393342658162 0.08905812135072635
3600000000.0 0.03155782996953133 -0.0845296169610981
3620000000.0 0.09186201200521103 -0.028359056356010357
3640000000.0 -0.012895939747214875 0.1046905104835246
3660000000.0 -0.09916005086686375 -0.03418003773562078
3680000000.0 0.10167976999200043 -0.04415952339061601
3700000000.0 0.10320303081896136 0.04647015007732821
3720000000.0 0.09868733244467091 0.024670096421017963
3740000000.0 0.03595019500090828 0.07949944526940807
3760000000.0 -0.0686889374511573 -0.001757105722811699
3780000000.0 0.009098701940291005 -0.05848806541032382
3800000000.0 0.04990674744299681 -0.014190571948958975
3820000000.0 0.032452128759912796 0.028659176125966895
3840000000.0 0.020362082021822422 0.048754729668620905
3860000000.0 -0.0014025155056633788 0.07119146101718596
3880000000.0 0.07509380899333493 -0.051623253585286695
3900000000.0 -0.007104872864779178 0.10449488711652603
3920000000.0 -0.10680810332477311 0.04019466690912676
3940000000.0 -0.01036754298774612 0.11522580766818452
3960000000.0 -0.050002212479561055 -0.08851447346394323
3980000000.0 -0.06395360971360435 -0.0633973921275449
4000000000.0 -0.018652537465866082 -0.07387058783326099
