!Created with skrf (http://scikit-rf.org).
# Hz S RI R 50.0 
!freq ReS11 ImS11
400000000.0 -0.3443494062770847 -0.7674838133873865
420000000.0 0.6505314663708738 0.4427485197346693
440000000.0 -0.27881330881701405 0.700305092756383
460000000.0 -0.7022822733768488 -0.03192499117577154
480000000.0 -0.5389409693623182 0.3163626779818238
500000000.0 0.32037035223254445 -0.3962741401822265
520000000.0 0.19624362842787121 0.3573605363483546
540000000.0 0.4565435845688514 -0.03320073457328639
560000000.0 -0.4746305679968737 -0.07678368292379885
580000000.0 0.4331701056430773 0.03313725401800288
600000000.0 -0.3813250586492368 -0.09191269988798843
620000000.0 0.3470429106948567 0.1398214468243845
640000000.0 -0.35673313140921303 -0.11829701181621277
660000000.0 -0.2729368765298784 -0.2044798078755159
680000000.0 0.3199686290620329 -0.08260592999996495
700000000.0 0.07374679528957018 0.33123148765327654
720000000.0 0.2702021291801848 -0.22483389597314482
740000000.0 -0.14698798719843553 -0.29892309499151853
760000000.0 0.10603287588254336 -0.2782501749365265
780000000.0 0.21125590180333717 -0.18632154753817332
800000000.0 0.2520200322737908 -0.026547788276321677
820000000.0 0.2103551592386617 -0.000935372914459976
840000000.0 -0.1035529945193534 -0.16766985772432796
860000000.0 -0.16004743092781393 -0.09046673298558452
880000000.0 -0.006767572245022108 -0.18017137710111877
900000000.0 0.15912817692991624 0.035427982809056555
920000000.0 -0.1256400470684415 -0.058094085357949424
940000000.0 0.1265159368278339 0.021764587555947196
960000000.0 0.06493653840906655 -0.07238986581756929
980000000.0 -0.050526519995849194 0.028792228649877315
1000000000.0 0.010930833117358903 0.04290776980375647
1020000000.0 -0.03185125818593748 -0.019144833177641693
1040000000.0 0.0672450943797964 -0.04000365233060243
1060000000.0 -0.1128370147558091 -0.04738147078615359
1080000000.0 -0.07129204845957321 0.13030401934476551
1100000000.0 -0.17405811654281975 0.0693597249912319
1120000000.0 -0.05585357484003826 -0.21431262463148218
1140000000.0 0.14723531661421596 -0.21869666187302622
1160000000.0 0.21805505025984614 0.18955500051303056
1180000000.0 0.3057645696740492 0.11245134689468803
1200000000.0 0.33109125176725734 0.03439478187604478
1220000000.0 -0.14239269532008178 0.30665115857811825
1240000000.0 -0.2665997518372232 0.20885504921484838
1260000000.0 -0.3212110264676002 -0.11717711490834712
1280000000.0 -0.2960337570164226 -0.18341328060493525
1300000000.0 -0.06469694617684141 -0.3425867001198347
1320000000.0 0.350894039877972 0.05072462099601845
1340000000.0 -0.20398147591464308 0.31031657439619037
1360000000.0 -0.31832554572019284 -0.21089368137376946
1380000000.0 -0.10823138736570184 -0.3609916940974374
1400000000.0 -0.27031101323381096 0.2578872840238366
1420000000.0 0.2946579259070442 0.218501909604918
1440000000.0 0.3614537577289232 0.03549407129418923
1460000000.0 -0.04067328557224539 -0.3574933540525023
1480000000.0 -0.07214646626936069 -0.33937729392624866
1500000000.0 -0.1509718163254434 0.30098729956422554
1520000000.0 -0.01778098800925014 -0.3105673167379391
1540000000.0 -0.2582300026810083 0.09764310215524175
1560000000.0 0.15041713968769 0.1907951776558055
1580000000.0 -0.19642129955559887 -0.06645604937110679
1600000000.0 0.12256636268346015 0.12621344012896651
1620000000.0 -0.028816349124634773 -0.14216502818442386
1640000000.0 -0.008673361733340705 0.12680851216865893
1660000000.0 0.05103387316275907 0.09349464392747317
1680000000.0 -0.041263043445754044 0.07148288639318344
1700000000.0 0.06632393798251596 0.010051932186752216
1720000000.0 0.0486427783395875 -0.014945776379755728
1740000000.0 -0.04578395275684706 0.01606916148972538
1760000000.0 -0.0470047050077865 -0.04370112297156982
1780000000.0 0.07191905342871867 0.05377316663263109
1800000000.0 -0.023421028715235055 -0.12189911793915248
1820000000.0 -0.07615547207961615 -0.1368100482161786
1840000000.0 0.06692565878893342 0.17785577688077533
1860000000.0 0.2153173166506557 -0.0535115797305669
1880000000.0 0.21709015216549857 -0.1128031026905674
1900000000.0 -0.08765788500777046 -0.2531906982994089
1920000000.0 -0.28167375679613116 0.058141362394208265
1940000000.0 0.19014228461962082 0.2337218124782063
1960000000.0 -0.30486141645411496 -0.08241693069035037
1980000000.0 -0.09322594213400752 -0.3036535191751586
2000000000.0 0.13345001069017742 -0.2839978823734758
2020000000.0 0.260247640340072 0.17725473889321516
2040000000.0 0.2987844442975571 0.09077888351963961
2060000000.0 0.08992815236331145 0.2955245035550598
2080000000.0 -0.223583372601486 0.21256598111315092
2100000000.0 0.1610398655556042 -0.2700575450071469
2120000000.0 0.08384014284629294 0.29809593398037537
2140000000.0 -0.18035393220679952 -0.2517594218023335
2160000000.0 0.049168701648288474 0.30014226803560135
2180000000.0 0.2950931983005433 -0.04060538523050104
2200000000.0 0.29058831052939393 0.0012156210775829117
2220000000.0 0.2616662287524498 0.1104944746528275
2240000000.0 -0.012914210567039026 0.2767780126916692
2260000000.0 -0.2616022496120247 0.05423014594216859
2280000000.0 0.03396439158657178 -0.25319615325322253
2300000000.0 0.13665364954720283 0.20556723226416954
2320000000.0 -0.23475035886055973 -0.030794765692823262
2340000000.0 0.16067932699396884 0.16201986362065263
2360000000.0 -0.13399491565120303 -0.19003251185263387
2380000000.0 0.23374244784132067 0.07028329533794472
2400000000.0 0.23978467936966028 0.09550916658486296
2420000000.0 0.2614746590522163 -0.10839331800232892
2440000000.0 -0.2909021312708003 0.11960055478723797
2460000000.0 0.23276072139489704 -0.258640603572583
2480000000.0 -0.37762498855941945 0.06872077143450044
2500000000.0 -0.010923015900600833 -0.4224859259038331
2520000000.0 0.42756920613098637 0.16700506088546685
2540000000.0 -0.475803856787486 0.14178351555470411
2560000000.0 0.2126462745069284 -0.4859244612485599
2580000000.0 0.1336805356839928 0.5464568579658448
2600000000.0 -0.4197051886532417 -0.41213971915409847
2620000000.0 0.5946612813116517 0.14056113561599096
2640000000.0 -0.5216777845424516 0.34722138250441864
2660000000.0 -0.10522073943365429 -0.6310396797716642
2680000000.0 0.6314625843086382 -0.14348285976291145
2700000000.0 0.5634302978672575 0.33251623654480206
2720000000.0 0.4760319861761991 0.45296606385073634
2740000000.0 0.5146850080013881 0.4118361867739125
2760000000.0 0.5568530028487835 0.3502997351264883
2780000000.0 -0.49655073046491327 0.41805823448072205
2800000000.0 -0.6287289170081503 0.11703788645254043
2820000000.0 -0.36616416568567944 -0.5110357542157689
2840000000.0 0.6029640194901918 -0.12476129241127892
2860000000.0 -0.5428013457086506 0.2602317116312843
2880000000.0 0.5865446550448965 -0.011815750121733073
2900000000.0 -0.15547753324410005 -0.5474855701552349
2920000000.0 -0.5364117085346257 0.10850983428618649
2940000000.0 -0.13589305073571176 0.5068361745795427
2960000000.0 0.1850934036575956 0.4648850050598649
2980000000.0 0.4434005094111033 -0.18244193240356193
3000000000.0 -0.1923804927840473 -0.41149035444415616
3020000000.0 -0.24101298765795723 0.3568554640933277
3040000000.0 0.3724028095404968 -0.15756127649832746
3060000000.0 -0.3736911810086258 0.056316672379348315
3080000000.0 0.35557909433860563 0.05910470586228809
3100000000.0 -0.33701779977058144 -0.049100229891172464
3120000000.0 -0.22860362574636567 0.2406323897168919
3140000000.0 0.31239524735429386 -0.09208997024877852
3160000000.0 -0.31086996698382785 -0.09732243154142621
3180000000.0 0.3127411186334181 0.07461437873654574
3200000000.0 -0.06723280967102635 -0.30665719565587685
3220000000.0 -0.28741527639066805 0.09952138567260994
3240000000.0 -0.2409813274804116 0.15954337616256653
3260000000.0 -0.27106619333357646 0.01348776594182007
3280000000.0 0.11964093358473955 -0.22297182844234217
3300000000.0 0.10166971935951691 0.2122946033881449
3320000000.0 -0.19697280307073214 -0.09514650451352846
3340000000.0 -0.06929197538259256 -0.1862553435724951
3360000000.0 0.040727910822355835 0.16540090309372388
3380000000.0 0.0782674072490691 -0.12550419729162807
3400000000.0 -0.021475426068780064 -0.1238612981532227
3420000000.0 -0.04259454290904582 -0.10705010127774554
3440000000.0 0.059000958895065216 0.08847727290910223
3460000000.0 -0.023744417223937074 0.09714629593603342
3480000000.0 -0.06815302758069897 -0.059080530712401935
3500000000.0 0.06040863912319842 0.059841697884346644
3520000000.0 0.042802916615764915 -0.05936547531561685
3540000000.0 -0.06765851868550718 -0.006550881003937548
3560000000.0 0.01547687328352361 0.07191341972117289
3580000000.0 0.07225365775913577 -0.030269173424676204
3600000000.0 0.08498383115088465 -0.027262548300345996
3620000000.0 -0.09168580571222071 -0.042824274100352874
3640000000.0 0.09241602990597297 0.0542383323456328
3660000000.0 -0.08702476505718577 0.06078674780032717
3680000000.0 0.09907761564008086 -0.03496099838812669
3700000000.0 0.0682454834429303 -0.07010019929493981
3720000000.0 0.005105287184760509 -0.08817270877188652
3740000000.0 0.07767393250811902 -0.009236110266173063
3760000000.0 0.07442866204952633 0.011442431159427535
3780000000.0 -0.005264650780008644 -0.0658270962712965
3800000000.0 0.04447320391940065 -0.015380514044661555
3820000000.0 -0.018022523487031702 -0.03284812071979416
3840000000.0 0.044089760255091356 0.033812315100084325
3860000000.0 0.07254800044337288 -0.013450166452728852
3880000000.0 -0.02857195301455412 0.09006429088425992
3900000000.0 0.07660147050437081 0.06657665980437034
3920000000.0 0.04897370096629565 -0.09282213173847483
3940000000.0 -0.06376842142824467 0.08269108908946607
3960000000.0 0.04486429849592997 0.09249774821882036
3980000000.0 -0.07031801696352266 0.06645584772424565
4000000000.0 -0.06798698258601306 0.04723232943368554
