!Created with skrf (http://scikit-rf.org).
# Hz S RI R 50.0 
!freq ReS11 ImS11
400000000.0 0.6967874554013187 -0.49615785465047274
420000000.0 0.6259636416175937 -0.5376584746486996
440000000.0 0.6102293827858725 -0.5389766819361076
460000000.0 0.4805480397569937 0.6307331297347982
480000000.0 0.3417180920419915 0.6893562995167611
500000000.0 0.278826987302788 0.7078283195631935
520000000.0 -0.1365948783248019 0.7318082544073998
540000000.0 0.031289121210569024 0.7152971335409523
560000000.0 -0.686982164800594 0.2232551107698451
580000000.0 -0.6472231048725329 -0.28793562037454656
600000000.0 0.32133950796974514 -0.5984647166935552
620000000.0 -0.04930243915659205 0.648618160299916
640000000.0 0.4318165001267104 -0.37040730854683285
660000000.0 0.5860953564484976 -0.06553388284220815
680000000.0 0.39682329291531193 0.485754266100364
700000000.0 0.5542581625093701 0.23700086141027468
720000000.0 -0.10520129684039667 0.6000583664472929
740000000.0 -0.4588311230689735 0.3579086184587717
760000000.0 -0.5348994225578295 -0.17437278664423472
780000000.0 -0.21971956671670004 0.4890774435578044
800000000.0 -0.36793001694648897 0.3809785059123679
820000000.0 0.3550259610140255 -0.33431547407587364
840000000.0 0.32643509496543666 0.313287473543219
860000000.0 -0.18810916592654328 0.3776600000969745
880000000.0 -0.07103152246528112 -0.39138900028379486
900000000.0 0.31941208827591444 0.15979891726668105
920000000.0 -0.11900468250738283 -0.30873407801910163
940000000.0 -0.1358828007880774 -0.2639962976809776
960000000.0 -0.2429505224764576 0.07963035570418604
980000000.0 0.21144721242396955 -0.06850980392499127
1000000000.0 -0.054571251068402424 -0.20181763297257171
1020000000.0 0.14223886298813618 0.10012387241172906
1040000000.0 -0.060864016165001436 0.12015280325638636
1060000000.0 0.1486801725104997 -0.03346492127874802
1080000000.0 0.1473317779428212 -0.016043352446485814
1100000000.0 -0.01115027290263027 -0.1768648719989093
1120000000.0 0.21439473122738928 0.0548370223143601
1140000000.0 0.22730423895629365 -0.08319792235379059
1160000000.0 0.025985636533421265 0.26931762776059565
1180000000.0 0.16749380283994866 -0.261605959767228
1200000000.0 -0.2874507778070876 -0.16738912034240083
1220000000.0 0.14084508653849287 -0.3050813245447299
1240000000.0 -0.239978047574572 -0.2738207377263255
1260000000.0 -0.36152087090162865 0.11967681852866371
1280000000.0 0.3274373025339076 -0.21587828821559363
1300000000.0 -0.07400926667445275 -0.39037679060011554
1320000000.0 0.16025472635733543 -0.3526150064518222
1340000000.0 0.3172572281991506 0.23386918632595433
1360000000.0 -0.39031343472743446 0.08846068498201
1380000000.0 0.3962890487445231 0.002496966253541859
1400000000.0 -0.32876274514742243 0.2174045473283371
1420000000.0 -0.27646956902120534 0.28134161060398083
1440000000.0 0.12467419661927605 0.36338832418535527
1460000000.0 -0.3306383152766978 0.1776490045057432
1480000000.0 -0.23839471372832807 -0.2951859991851282
1500000000.0 -0.053219939621778824 -0.38259142545649366
1520000000.0 -0.3152923801903784 -0.236380337726396
1540000000.0 0.25130669174759895 0.30774390246420325
1560000000.0 -0.24141504702763483 0.31156227911212325
1580000000.0 -0.3313458933160803 0.15889778870986715
1600000000.0 -0.3356097622955334 -0.0332709104952184
1620000000.0 -0.043169071491298894 0.3058121906363692
1640000000.0 -0.24612450171351197 -0.13763592182689877
1660000000.0 -0.2445591702492862 0.0722181678680803
1680000000.0 0.2314115864230485 0.030147077544264288
1700000000.0 -0.16894074216911387 0.12886589941103127
1720000000.0 -0.11081141076237391 0.14639826946020695
1740000000.0 0.10723295158788859 0.10462108827685622
1760000000.0 -0.07050899704025933 0.10079301327498452
1780000000.0 -0.07864801037746025 -0.03645940204164546
1800000000.0 -0.04186068764005582 0.028969610713240838
1820000000.0 0.04420545288546161 -0.02227301152915432
1840000000.0 0.07286563808768876 0.06192905110039809
1860000000.0 0.0061688807569004085 0.1419997273401151
1880000000.0 -0.1711298821319505 -0.06332911117353948
1900000000.0 0.018469772935468552 -0.22143879583824436
1920000000.0 0.16269475692583374 0.2134226254279651
1940000000.0 -0.2880141992206739 0.04372210597407282
1960000000.0 0.31223203018592327 -0.0475546386694757
1980000000.0 0.061684785350321084 0.3353798450477441
2000000000.0 0.339899492105807 0.0908297218209901
2020000000.0 0.31248198259163346 0.16630931722129813
2040000000.0 0.2915028900331325 -0.21849101625951045
2060000000.0 0.21422867122406414 -0.29495103391916705
2080000000.0 0.019587919177188665 -0.36212409816783103
2100000000.0 0.3609419033346357 -0.033049366237780584
2120000000.0 0.14811346708458303 0.32309160363654493
2140000000.0 -0.3440353389346234 -0.03941259349468083
2160000000.0 0.3039391798416204 -0.15239628630375518
2180000000.0 -0.2267215292706145 0.2389436705364591
2200000000.0 0.10705810804229635 0.2986060732335227
2220000000.0 0.21180251981269566 0.21662601710793744
2240000000.0 0.27921085448462635 -0.08386740360301254
2260000000.0 0.26100449069605497 0.0759266958186626
2280000000.0 0.17306036861211718 0.1907048582494781
2300000000.0 0.2236426961019111 -0.0939051428350185
2320000000.0 0.20355320067188748 -0.0935899833845802
2340000000.0 0.18337646204679367 -0.07227671860069426
2360000000.0 0.04977147313428725 -0.1739503537534142
2380000000.0 0.048713235372861236 0.15735436046879236
2400000000.0 0.049011354560820675 -0.14167077940605446
2420000000.0 -0.006694879562709925 0.15384437526225245
2440000000.0 0.16181666787357646 -0.002255932561125067
2460000000.0 0.13500640605005865 0.13320282784535903
2480000000.0 0.13643628152568704 0.1771496568412064
2500000000.0 -0.07990521608920846 0.24699322572581262
2520000000.0 -0.2878206945920843 -0.06311860723055522
2540000000.0 0.03602050161056715 -0.3311633540808117
2560000000.0 0.36337360163084836 0.014625365814043908
2580000000.0 0.0807977374901778 0.3859972334709371
2600000000.0 -0.4150210327412653 0.022785316870837468
2620000000.0 0.14792686523642176 -0.40853606181977103
2640000000.0 0.4401519512651281 0.09187547627072438
2660000000.0 0.09284587900817204 0.4502678843364349
2680000000.0 -0.2141639235364905 0.41230243210028183
2700000000.0 -0.2968381782389284 0.3637218608917298
2720000000.0 -0.23012368184680404 0.4144803026461328
2740000000.0 -0.12432316926105595 0.463298154747694
2760000000.0 -0.06437363027328945 0.4806721629162541
2780000000.0 -0.44339978768781196 -0.20763121919043295
2800000000.0 -0.2491248465592427 -0.4266769788490568
2820000000.0 0.32525525240878556 -0.3779902506241145
2840000000.0 0.23741766396133968 0.44003087778359734
2860000000.0 -0.1801327683066039 -0.46699818989368036
2880000000.0 -0.23442021131429597 0.4393617891626813
2900000000.0 0.35803074116100647 0.34019224524984765
2920000000.0 0.48770043820144227 -0.01763669138116692
2940000000.0 0.345299705369383 -0.34175963754203575
2960000000.0 -0.1433995947399228 -0.4582330422162739
2980000000.0 -0.4715162451254357 -0.06793534436485142
3000000000.0 0.09724679489210696 0.4603712621662674
3020000000.0 -0.027564641878513804 -0.46324966568885817
3040000000.0 0.10857717542510519 0.437823719467013
3060000000.0 -0.16179369352576276 -0.40851872240542547
3080000000.0 0.42222144468382633 0.07163524433500254
3100000000.0 -0.3536223805047519 0.21995959736356055
3120000000.0 0.1770447246157659 0.3670202462361727
3140000000.0 -0.13281540611508777 -0.3783292645378278
3160000000.0 -0.19892671917822843 0.3397725852450737
3180000000.0 0.18826736669987296 0.3403336999187015
3200000000.0 0.38542140355946797 -0.007879425465956599
3220000000.0 0.3805908264309339 -0.0179192999049931
3240000000.0 0.3626169362411276 0.08774848555214751
3260000000.0 0.32360064458895293 0.17110144809582642
3280000000.0 0.3076736812244396 0.17409273934873842
3300000000.0 -0.19048520610628447 0.2734991610286891
3320000000.0 -0.23767957684007882 -0.2040911803663993
3340000000.0 0.08731148453581367 -0.27767311076262946
3360000000.0 -0.0024721791677362864 0.26661251562668536
3380000000.0 0.047139955522798774 -0.24298886954325788
3400000000.0 -0.002761046463138787 0.22904117849432742
3420000000.0 -0.12104258228983725 -0.17875556617962202
3440000000.0 0.1341509590026676 0.15652679810533332
3460000000.0 -0.1860720166764376 -0.06056377381998435
3480000000.0 0.007153347898401118 -0.1921851177285232
3500000000.0 0.1685104795663085 -0.09215339162269154
3520000000.0 0.10893958271828454 -0.1564139409146177
3540000000.0 -0.1777473879194052 0.08261558809761203
3560000000.0 -0.17771003888538636 0.093743230304952
3580000000.0 0.2023103921929956 0.05251861635448278
3600000000.0 0.13834227411206135 -0.16299709496149672
3620000000.0 0.004820436677599829 -0.22565640128705983
3640000000.0 -0.12995553206078378 -0.18560400208327965
3660000000.0 0.19888454609502768 -0.12156200854303502
3680000000.0 0.2348526892957113 0.0242962873897948
3700000000.0 -0.1541525865120604 0.1706314930680787
3720000000.0 0.014237514519646327 -0.21674887664270007
3740000000.0 0.02797535322499805 0.19488481202984123
3760000000.0 0.17931444173831024 0.004048233304844494
3780000000.0 -0.07370830478276189 -0.13182500477506692
3800000000.0 -0.017274345003390864 -0.11803085987303337
3820000000.0 -0.035253391971811064 -0.07925426527880862
3840000000.0 -2.6285637440317744e-05 -0.05888687273840779
3860000000.0 -0.04057608941614349 0.024912150042316897
3880000000.0 -0.0345996577593206 -0.04037016896898454
3900000000.0 0.032375413238032114 0.06458641611884179
3920000000.0 -0.00488790357874475 -0.08343327551595908
3940000000.0 0.08456838954145 0.013231230914334043
3960000000.0 0.07658619440981591 0.006637696080030398
3980000000.0 0.03442443371114115 0.05251804973283738
4000000000.0 -0.006995973000098697 -0.04692762916238209
