!Created with skrf (http://scikit-rf.org).
# Hz S RI R 50.0 
!freq ReS11 ImS11
400000000.0 0.67289798139448 -0.5277116937298556
420000000.0 0.6357518916971463 -0.5261360510507082
440000000.0 0.6538866636921629 -0.48591825664186883
460000000.0 0.4765998483722679 0.6333282427668206
480000000.0 0.36585095251338645 0.6772636875279546
500000000.0 0.2682991356983853 0.7121867547592519
520000000.0 -0.15032928751642177 0.7286496765730364
540000000.0 0.02995593694563054 0.7148103206720223
560000000.0 -0.6895406450106365 0.2171013946128694
580000000.0 -0.6568236193986478 -0.266268726713672
600000000.0 0.3563488087812586 -0.5779029202107754
620000000.0 -0.01035947247064954 0.6499455821873981
640000000.0 0.4268360186912471 -0.3761081671873468
660000000.0 0.5872921442698078 -0.04614045404023456
680000000.0 0.37297590221428484 0.5030178021908637
700000000.0 0.5659069494298332 0.20621616091970343
720000000.0 -0.06822553272649919 0.6042224615554928
740000000.0 -0.4146599837054646 0.40772294258636443
760000000.0 -0.5339195026086379 -0.17655773722178714
780000000.0 -0.19504500003490585 0.49940646132844624
800000000.0 -0.3775159942135475 0.3722626701839804
820000000.0 0.32937786394649415 -0.3595723325088737
840000000.0 0.34035588259849564 0.29756867065960807
860000000.0 -0.23502773299426727 0.35049558445057677
880000000.0 -0.024354546376502223 -0.39703056788638125
900000000.0 0.2914750489977976 0.2048574065816609
920000000.0 -0.16601949172132074 -0.286198672222735
940000000.0 -0.14815568514594576 -0.25750012600118033
960000000.0 -0.2419772657386659 0.08316419971045456
980000000.0 0.21401609159486057 -0.060935726060043494
1000000000.0 -0.029308570900496 -0.20727350057488886
1020000000.0 0.13493237219834306 0.10876515243546227
1040000000.0 -0.026673238660710096 0.1322076411900016
1060000000.0 0.13681260469618073 -0.06592880962983916
1080000000.0 0.14537984987903277 -0.026852612848177377
1100000000.0 -0.0012026452412814204 -0.1766956340471201
1120000000.0 0.21325613031499732 0.06031501651208082
1140000000.0 0.22148095856770889 -0.09734575570019542
1160000000.0 0.053835535665391426 0.26552749464836173
1180000000.0 0.1358654446407682 -0.2788891775183442
1200000000.0 -0.28783498169261856 -0.16814494499636728
1220000000.0 0.09242650584048623 -0.3229101258040393
1240000000.0 -0.22760969459710334 -0.2844365108026591
1260000000.0 -0.36245616626867583 0.11678934629822178
1280000000.0 0.3359788868026557 -0.20213656455421591
1300000000.0 -0.04328752755315982 -0.39428693176190394
1320000000.0 0.1489266101378366 -0.3568632878127407
1340000000.0 0.30543066420602843 0.24861937384745691
1360000000.0 -0.3897005337095543 0.08672855961632585
1380000000.0 0.3954532139920666 -0.017480240232447663
1400000000.0 -0.2986712334534682 0.255975107570409
1420000000.0 -0.2666965260085789 0.28959476673242524
1440000000.0 0.1317127111319294 0.3612555700050586
1460000000.0 -0.3141914693612132 0.20544333076354968
1480000000.0 -0.2721882483004229 -0.2645029351468389
1500000000.0 -0.06484792019568197 -0.38095428446441904
1520000000.0 -0.3104787826080632 -0.24349867558972182
1540000000.0 0.2784516434924178 0.2841271745874888
1560000000.0 -0.24032576804990174 0.31307067568570757
1580000000.0 -0.32903440913209664 0.16442978958846913
1600000000.0 -0.3328713612745261 -0.05139483306645604
1620000000.0 -0.09921150464930681 0.2927899048732398
1640000000.0 -0.22767682492719737 -0.16696687044254713
1660000000.0 -0.24029543898584438 0.08348562701236133
1680000000.0 0.2321225431553311 0.012308817236503884
1700000000.0 -0.18154548520836028 0.10558189295446932
1720000000.0 -0.10627370895439822 0.14926580199359415
1740000000.0 0.14034326837640468 0.054007108552505456
1760000000.0 -0.01927087631696324 0.12107805760092565
1780000000.0 -0.07478060608260244 -0.04448236847969225
1800000000.0 0.008841280173688768 0.05031858291764471
1820000000.0 0.027764120371523576 -0.040901168409838096
1840000000.0 0.09524489951071322 0.008255128800338955
1860000000.0 0.07904272129353694 0.11777341024438495
1880000000.0 -0.1816377124129937 -0.015168660673087864
1900000000.0 -0.05018038718468379 -0.21746671849775304
1920000000.0 0.16567291040038182 0.2127790736349876
1940000000.0 -0.2875315244644621 0.05125858831112585
1960000000.0 0.3160496248697392 -0.013387973212849265
1980000000.0 0.008756395915161561 0.34153653275185036
2000000000.0 0.31971173232238204 0.14737489260550007
2020000000.0 0.2966747458062045 0.19213513194181364
2040000000.0 0.2820983512004249 -0.22910781633148203
2060000000.0 0.1973579026524172 -0.3058939393455893
2080000000.0 0.022887607460229102 -0.3610353711450099
2100000000.0 0.3512165728018124 -0.08896864418721456
2120000000.0 0.21385549220108718 0.28340314428595265
2140000000.0 -0.3431962649683073 0.04629226258732464
2160000000.0 0.28541857301397733 -0.18477040356994073
2180000000.0 -0.2515674665270334 0.21325214366235754
2200000000.0 0.12359165349335516 0.2922975472520111
2220000000.0 0.22540280661286116 0.2033930449373029
2240000000.0 0.28854623212702596 -0.04722368019036802
2260000000.0 0.24834979434547538 0.10958404750761415
2280000000.0 0.13319157060362924 0.22051047014564654
2300000000.0 0.2350675265940743 -0.05924584171990114
2320000000.0 0.2182160861449016 -0.04722512755387857
2340000000.0 0.1931694094970768 -0.03460789291035165
2360000000.0 0.0724939281001945 -0.16519383804389276
2380000000.0 0.06422605971523343 0.15122379485843787
2400000000.0 0.020915927872693696 -0.14783496332211782
2420000000.0 0.025427285748410744 0.15096055522524407
2440000000.0 0.159294607743137 -0.02521291211037296
2460000000.0 0.13975081450967466 0.12741925666489684
2480000000.0 0.18380277109485238 0.12744054356615656
2500000000.0 -0.06359562761516425 0.2519852585267068
2520000000.0 -0.28419182329592185 -0.08094984946864275
2540000000.0 0.023138084411986774 -0.33182079875842396
2560000000.0 0.36379653970767406 -0.016203643529595798
2580000000.0 0.04356483138042495 0.39237170938013255
2600000000.0 -0.41523074295306456 0.01026082758154617
2620000000.0 0.18887103842995734 -0.3913926224172271
2640000000.0 0.4407934728540469 0.08463307912696066
2660000000.0 0.09546700186385561 0.44914626185149337
2680000000.0 -0.22755526762484948 0.4046338862529842
2700000000.0 -0.2780926619242643 0.37782139518329566
2720000000.0 -0.16345107993019023 0.44500496907586223
2740000000.0 -0.02956812984357832 0.4786998250049012
2760000000.0 0.017233799054161007 0.4853194036037586
2780000000.0 -0.4751349312041302 -0.12348107560442621
2800000000.0 -0.27809217552960536 -0.4098209120701801
2820000000.0 0.3259020125403127 -0.3783995969703481
2840000000.0 0.18002055252354154 0.46730525911629917
2860000000.0 -0.12167710866735185 -0.48499200564645245
2880000000.0 -0.2523876990638168 0.4294278530712614
2900000000.0 0.36535824944042267 0.33204743826236655
2920000000.0 0.4872377681081814 -0.01568612919141307
2940000000.0 0.3180757353914664 -0.3657056840262839
2960000000.0 -0.1751379363527767 -0.44662018928356156
2980000000.0 -0.46953564090507105 -0.07510755088034293
3000000000.0 0.12079701334386266 0.45408761862752217
3020000000.0 -0.05133110409077584 -0.4615488319745866
3040000000.0 0.06888392539322478 0.4459241362274899
3060000000.0 -0.2533024023140802 -0.36026579246854734
3080000000.0 0.4286139951703544 -0.0164444538851196
3100000000.0 -0.34567044216136744 0.23492197498324008
3120000000.0 0.1631166919260835 0.3750282114786642
3140000000.0 -0.13118722200781271 -0.38016549243671066
3160000000.0 -0.1736354206340773 0.35484393453687796
3180000000.0 0.17625577375840976 0.34709841578005807
3200000000.0 0.38071666340965155 0.05975230078477097
3220000000.0 0.38063290489402757 0.025717306478295527
3240000000.0 0.36029740820962824 0.09689741784097569
3260000000.0 0.3282335382619254 0.15803713293114852
3280000000.0 0.3086227499117184 0.16776851829097636
3300000000.0 -0.1400984149576169 0.30118156033835586
3320000000.0 -0.2809033235175524 -0.13782460580958122
3340000000.0 -0.006364401594258224 -0.28916754702520225
3360000000.0 0.06278687648349807 0.2568879141672006
3380000000.0 -0.05373496949033143 -0.24025620481030105
3400000000.0 0.1019431122237587 0.20334464498244187
3420000000.0 -0.20767962961421507 -0.05419615830172992
3440000000.0 0.1939790126056394 0.06298338996128773
3460000000.0 -0.1946086773738885 0.0009886258621137677
3480000000.0 -0.08244157828860595 -0.1734929627998467
3500000000.0 0.09256556042081754 -0.1682641233062774
3520000000.0 0.08945800039107069 -0.16820932474044858
3540000000.0 -0.1795908552671219 0.08201048351002047
3560000000.0 -0.1888355296687671 0.07350059039167188
3580000000.0 0.16460802467263275 0.13107006667761933
3600000000.0 0.19831409537650477 -0.0830224738460232
3620000000.0 0.08851994803754505 -0.20810842130714205
3640000000.0 0.001215638366488935 -0.22702911235514753
3660000000.0 0.22858804939544594 -0.04161365532581859
3680000000.0 0.21986144604312693 0.08252630139088692
3700000000.0 -0.15346908889780858 0.16866172113858705
3720000000.0 0.02614344038668713 -0.21353212466087604
3740000000.0 0.09098551903203246 0.17379424015372308
3760000000.0 0.14406725479793783 -0.10484773719014409
3780000000.0 -0.13093990585709842 -0.07395541426628338
3800000000.0 -0.10382546510102447 -0.056778138697841755
3820000000.0 -0.07250421161060719 -0.04888019611857165
3840000000.0 -0.03012755415025259 0.05074969318626159
3860000000.0 0.024533179237301323 0.04009074180147433
3880000000.0 -0.04818506989964327 0.021999548907218572
3900000000.0 0.07044284390770976 -0.009710033537372388
3920000000.0 -0.0727072977259717 -0.03979853715263583
3940000000.0 0.08203916909477547 -0.019436585599412654
3960000000.0 0.07703661228597505 -0.012115455402583072
3980000000.0 0.06435199332362443 0.011279787557234596
4000000000.0 -0.04872301229944764 -0.006267678110115065
