!Created with skrf (http://scikit-rf.org).
# Hz S RI R 50.0 
!freq ReS11 ImS11
400000000.0 0.6780136562554596 -0.5209162816383492
420000000.0 0.6154096947547868 -0.5502467642625152
440000000.0 0.6117307909496624 -0.5372853260830632
460000000.0 0.49385309805705563 0.6200500521106563
480000000.0 0.3542365920676279 0.6837072817799507
500000000.0 0.2882908895549642 0.7046054207417545
520000000.0 -0.1548858846428691 0.7283205502789665
540000000.0 0.005166405793859429 0.7155408684584075
560000000.0 -0.6874407288165841 0.22332625137733444
580000000.0 -0.641914672812631 -0.2996106101986865
600000000.0 0.3462932410277799 -0.5837720633657527
620000000.0 -0.06387476204749301 0.6474450308221579
640000000.0 0.4217134588193416 -0.3820874000465629
660000000.0 0.5843416540199893 -0.07893175778203308
680000000.0 0.438309300095641 0.44868478778172544
700000000.0 0.5620719743580206 0.21813151191965893
720000000.0 -0.03439175221332865 0.6077239283911164
740000000.0 -0.4472340334056622 0.37257939384233874
760000000.0 -0.5180398011506065 -0.2197969824224649
780000000.0 -0.20159340527589387 0.4972901485765353
800000000.0 -0.38374253989173074 0.3652610454952863
820000000.0 0.33462580425965466 -0.3541882782050613
840000000.0 0.35223456071885956 0.2837502565291191
860000000.0 -0.23683617955142508 0.3492468111667274
880000000.0 -0.07312914911335743 -0.39038826156616685
900000000.0 0.3089920713166281 0.17851117697477986
920000000.0 -0.1134462291453039 -0.3116958978598907
940000000.0 -0.16673963431709474 -0.2466695088376547
960000000.0 -0.2503598968328133 0.054058784915666964
980000000.0 0.2207964441289267 -0.030624887961114376
1000000000.0 -0.02881695912199 -0.2067769100806604
1020000000.0 0.15801515823963055 0.07076235120153923
1040000000.0 -0.029359732738265178 0.1317436666803719
1060000000.0 0.13994481306378 -0.06011481286981028
1080000000.0 0.1476954619758205 -0.008693872263765692
1100000000.0 0.018533620025412357 -0.1761412948282005
1120000000.0 0.2114582076277295 0.06569552145926146
1140000000.0 0.2316037131423337 -0.07349989140856136
1160000000.0 0.002618100287247037 0.27066501039811436
1180000000.0 0.1797041785143838 -0.2537106995347559
1200000000.0 -0.30001441109755245 -0.1447532045892833
1220000000.0 0.11333769853780899 -0.31602795928800764
1240000000.0 -0.24653977830545248 -0.2679459121711275
1260000000.0 -0.36245536917393717 0.11771208773244757
1280000000.0 0.32067669653774483 -0.22564475010368915
1300000000.0 -0.07950595337656985 -0.38887518890898526
1320000000.0 0.18171631847529732 -0.3417673468072808
1340000000.0 0.3093493543410433 0.24467672710808547
1360000000.0 -0.38909207754909086 0.09156720373649938
1380000000.0 0.3963747638524436 -0.004259612583145748
1400000000.0 -0.32587720350953553 0.2209906534063377
1420000000.0 -0.28388410910747974 0.2735335428955336
1440000000.0 0.10141420097028422 0.3714165401302872
1460000000.0 -0.32632676537981475 0.18581808797634852
1480000000.0 -0.2052782303002348 -0.319730737518151
1500000000.0 -0.04887080715292713 -0.3834061424246021
1520000000.0 -0.32155331042468743 -0.2282215725711535
1540000000.0 0.25736499810606034 0.3035923916761117
1560000000.0 -0.24738759516028636 0.3071656582563202
1580000000.0 -0.3346670375444284 0.15139761689177425
1600000000.0 -0.3357338748274042 -0.030636108353789424
1620000000.0 -0.07722515061433936 0.30000665751565286
1640000000.0 -0.2619953974000625 -0.10520734864795628
1660000000.0 -0.24024777850443244 0.08422804913159365
1680000000.0 0.22606103205639735 0.05538987706095269
1700000000.0 -0.17222563635150626 0.12266713246740577
1720000000.0 -0.12768614948410967 0.13183882594609242
1740000000.0 0.12387342434903227 0.08428017328104889
1760000000.0 -0.08720422103894071 0.08651787307892503
1780000000.0 -0.07012063463190907 -0.05147449212173278
1800000000.0 -0.030604518792603556 0.040087431589752094
1820000000.0 0.046112405559531805 -0.019225814811487014
1840000000.0 0.0844682380055421 0.0454003684641318
1860000000.0 0.06420609653437288 0.12688776119619932
1880000000.0 -0.16093466609596757 -0.08572358922331681
1900000000.0 0.004180726770504496 -0.22295079527830133
1920000000.0 0.15027673979117404 0.2231961944606989
1940000000.0 -0.2890854213268858 0.03433576743149196
1960000000.0 0.31134881763801897 -0.053207455063709136
1980000000.0 0.037385426123417186 0.33917672090587897
2000000000.0 0.34064638358309646 0.0883467184691691
2020000000.0 0.3113333304713367 0.16878858319051415
2040000000.0 0.25588204268254805 -0.2591206718601519
2060000000.0 0.20073181944980395 -0.30440181471627753
2080000000.0 0.006198506577871451 -0.3630327783100407
2100000000.0 0.3609865850213153 -0.035867625351514984
2120000000.0 0.15288132313471733 0.3210058372538411
2140000000.0 -0.3400499654745179 -0.06571675639429615
2160000000.0 0.3019915086369662 -0.15637333809464157
2180000000.0 -0.2743753785313668 0.18226102009823442
2200000000.0 0.11859001970858764 0.2934099546706843
2220000000.0 0.22145692925691082 0.20653199249992216
2240000000.0 0.28613378317316235 -0.05623540610482944
2260000000.0 0.262481955810708 0.06922206724490686
2280000000.0 0.14964648705780906 0.2095744202266226
2300000000.0 0.22290615744144765 -0.09572092013710287
2320000000.0 0.20876149791100324 -0.07898446181536226
2340000000.0 0.18841330330640876 -0.05701770987221375
2360000000.0 0.06915917737150275 -0.16723200950239456
2380000000.0 0.08054256274996247 0.143979692950747
2400000000.0 0.05062893578795014 -0.14139532217617704
2420000000.0 -0.0014061954252702524 0.15329278997297013
2440000000.0 0.16017439420123628 0.027351433639906452
2460000000.0 0.1297869571744077 0.13881048593555437
2480000000.0 0.14706992884780196 0.1689393806857995
2500000000.0 -0.08614995176631425 0.24478125653311228
2520000000.0 -0.2734728734134587 -0.1106886764525047
2540000000.0 0.05421067919941867 -0.3281515420243514
2560000000.0 0.36340693641704114 -0.00036584268511832726
2580000000.0 0.0467235145550145 0.39155490915857094
2600000000.0 -0.4149829920824773 0.019322732124966897
2620000000.0 0.14890859426152173 -0.40750126487247923
2640000000.0 0.43233269143378106 0.12332117351705334
2660000000.0 0.11388070436577596 0.44520243185216035
2680000000.0 -0.18148725626035833 0.4279642901866946
2700000000.0 -0.28894380632232514 0.3703604593098969
2720000000.0 -0.2058563900698491 0.4277963735160232
2740000000.0 -0.06970756054234942 0.474809189605887
2760000000.0 -0.01235485030774858 0.48529199066673456
2780000000.0 -0.46049650213887844 -0.16877288756359426
2800000000.0 -0.24280417930605613 -0.4311767062260283
2820000000.0 0.3431695782349598 -0.36208205014030515
2840000000.0 0.22516894533678183 0.44670495436307295
2860000000.0 -0.201760330925948 -0.4574742781998573
2880000000.0 -0.22695018635853006 0.44300617173164436
2900000000.0 0.37512394853516623 0.32130541500329224
2920000000.0 0.4869867214702895 -0.028062375828784347
2940000000.0 0.3165127905635339 -0.3679888464722586
2960000000.0 -0.15801393621544005 -0.45389265551902924
2980000000.0 -0.4678198435313828 -0.09001401495622226
3000000000.0 0.10159532694150454 0.45891972872655634
3020000000.0 -0.02194434556423659 -0.463634537703766
3040000000.0 0.002796852590265702 0.45101633963506227
3060000000.0 -0.25903356605221933 -0.3564656536259929
3080000000.0 0.4250646654678147 0.055655479736595785
3100000000.0 -0.31405634316057224 0.2745102140054346
3120000000.0 0.14833545238619122 0.37990463720766493
3140000000.0 -0.12524801788874046 -0.3809973914318504
3160000000.0 -0.16073722803013854 0.3598289867178676
3180000000.0 0.2056065334681873 0.3295443833768992
3200000000.0 0.3851123076228661 -0.02381996350703051
3220000000.0 0.38202748350030846 -0.013366632769996214
3240000000.0 0.36420741165387976 0.08578001686642106
3260000000.0 0.3247994782443406 0.16898526275345377
3280000000.0 0.295008884166421 0.19512026387777745
3300000000.0 -0.20818357997537573 0.2614023088759609
3320000000.0 -0.23889518684677413 -0.2045562061360887
3340000000.0 0.1550167680349598 -0.24606311960606977
3360000000.0 -0.15792189464663936 0.21473714285810094
3380000000.0 0.09189193057093198 -0.2293408566086085
3400000000.0 -0.0842507112752205 0.21131494134222809
3420000000.0 -0.04872844690573057 -0.20805359148646912
3440000000.0 0.07592193685448673 0.18892415233342075
3460000000.0 -0.1544727464920187 -0.11671139041775963
3480000000.0 0.011796905848308867 -0.1895239680212674
3500000000.0 0.16372121384867336 -0.09499837350295774
3520000000.0 0.12870573246408903 -0.13789159276722696
3540000000.0 -0.15708494511635557 0.11686167279265422
3560000000.0 -0.14706636806236703 0.1369680076908565
3580000000.0 0.2052059973877938 0.04084326870175888
3600000000.0 0.15072560874291943 -0.15141544616637376
3620000000.0 -0.0014733956819396178 -0.22658424477695305
3640000000.0 -0.12116465112806099 -0.19209123166608225
3660000000.0 0.21954770980784893 -0.08012457173314466
3680000000.0 0.22854900176528825 0.0583495986601611
3700000000.0 -0.1728361768499855 0.15132307235241063
3720000000.0 0.06876573672298307 -0.20529770183458088
3740000000.0 0.0572521364991055 0.18920248326731925
3760000000.0 0.17666613249408403 -0.025108183660514777
3780000000.0 -0.05968274933591487 -0.1383354977805721
3800000000.0 -0.014555599744768949 -0.11788612847768278
3820000000.0 -0.02943264737553149 -0.0822109800099855
3840000000.0 -0.05651215554307612 -0.013085535526751254
3860000000.0 -0.04743204265945997 -0.00021198002264299895
3880000000.0 -0.03198279271708714 -0.04278896194577955
3900000000.0 0.042511434865225066 0.05718303338178494
3920000000.0 0.006265222513979923 -0.08240645203261936
3940000000.0 0.04908935872521338 0.06853967453608725
3960000000.0 0.07416888553707444 0.02437880693673781
3980000000.0 0.04872582746139871 0.040643015902440204
4000000000.0 -0.024065225465575473 -0.04109529958526398
