!Created with skrf (http://scikit-rf.org).
# Hz S RI R 50.0 
!freq ReS11 ImS11
400000000.0 0.6547125496588374 -0.5502427219766315
420000000.0 0.6262417402615493 -0.5376760013108942
440000000.0 0.619872872267534 -0.5280459313300317
460000000.0 0.4594061706036106 0.6457583517325842
480000000.0 0.3252790135561731 0.6972080717281556
500000000.0 0.28050644098874983 0.706846120856157
520000000.0 -0.15831499480637734 0.7271852142373253
540000000.0 0.04027640251913506 0.7149831654905702
560000000.0 -0.6952624570117307 0.19731796544307265
580000000.0 -0.6482820730932116 -0.28554919364523806
600000000.0 0.34869543098137035 -0.5821965842742822
620000000.0 -0.04331538251965623 0.6490459389098712
640000000.0 0.3978009104783642 -0.407012371037324
660000000.0 0.5731989195181113 -0.13802970338853365
680000000.0 0.40620454436515296 0.47868183421043237
700000000.0 0.5350388309931463 0.2806409685196015
720000000.0 -0.12128042634302964 0.5984415839720437
740000000.0 -0.49237511381156396 0.31301791317702177
760000000.0 -0.5061330855057875 -0.2470879696213081
780000000.0 -0.2485310985267716 0.476642609480132
800000000.0 -0.4035337144092216 0.34245754086248525
820000000.0 0.3431117131886357 -0.3449699272823033
840000000.0 0.34345634285871435 0.29288914176509345
860000000.0 -0.15239325561594863 0.3930608033231405
880000000.0 -0.18155473556419385 -0.35397862654103057
900000000.0 0.353568704042781 0.0566258839856946
920000000.0 -0.16692359317958463 -0.2887965766323784
940000000.0 -0.11354999728434137 -0.2768108377412353
960000000.0 -0.25663105762945054 0.03151178394929906
980000000.0 0.22282845056889394 0.01756844738547263
1000000000.0 0.07135253981099379 -0.19764460497370048
1020000000.0 0.08602768955092648 0.14969973408861628
1040000000.0 -0.09908945072060507 0.08880658223493473
1060000000.0 0.12238212998679038 -0.08898112572068675
1080000000.0 0.12143354114410171 -0.08616109320566442
1100000000.0 -0.07544253951613203 -0.16271440564649123
1120000000.0 0.21536218007883529 0.060565320830796424
1140000000.0 0.24436778424451053 0.003070452676123902
1160000000.0 -0.1163078179128752 0.24621160703578787
1180000000.0 0.2619890854021716 -0.16852401995540228
1200000000.0 -0.1941188328557604 -0.27107729370918315
1220000000.0 0.1828786365067898 -0.28109662355646414
1240000000.0 -0.20166032628191546 -0.3012844022981905
1260000000.0 -0.36001738071113476 0.12077517984268903
1280000000.0 0.29966531702774274 -0.25203580486126537
1300000000.0 -0.1579954846132811 -0.3642472241413642
1320000000.0 0.07160232125646414 -0.3818784736875865
1340000000.0 0.35638339875125324 0.17176910110732688
1360000000.0 -0.3761394023608481 0.14104203703635484
1380000000.0 0.3990130032526616 -0.007145171350157472
1400000000.0 -0.34843361042668614 0.18827556689024266
1420000000.0 -0.3461335574136637 0.1929229173769118
1440000000.0 0.0711950749110069 0.3787127552857684
1460000000.0 -0.3721367612073791 0.056908971880957886
1480000000.0 -0.1915997261084391 -0.3276461167898901
1500000000.0 0.02097405699290857 -0.38575442888719885
1520000000.0 -0.2587418571809549 -0.2961971290442117
1540000000.0 0.24502184108021102 0.31210258193622803
1560000000.0 -0.24328158154945403 0.3092107427414611
1580000000.0 -0.3288210365164534 0.16322976812745393
1600000000.0 -0.3306288740296343 0.0646525260233923
1620000000.0 -0.027472318088344962 0.30831948315884466
1640000000.0 -0.2637198054533438 -0.1031987197895348
1660000000.0 -0.2462167089514672 0.0707463877894635
1680000000.0 0.23214567151210108 0.029135196846033114
1700000000.0 -0.19242487433404784 0.08991288716437038
1720000000.0 -0.16098187879395165 0.09118613147401725
1740000000.0 0.07053248155674936 0.13254125571899333
1760000000.0 -0.11119151665816107 0.0509940706830515
1780000000.0 -0.048773016929064744 -0.07135131452808795
1800000000.0 -0.04985252053271964 0.00984589595451564
1820000000.0 0.04142799993186612 0.027663344394845555
1840000000.0 0.0647077994973138 0.0704566635955703
1860000000.0 -0.04502170260456253 0.13459615900874586
1880000000.0 -0.151572727227604 -0.10180548789977786
1900000000.0 0.05178686527607936 -0.21612808095293476
1920000000.0 0.15137116099643638 0.22129917902047966
1940000000.0 -0.2888261547949927 0.035866993464062434
1960000000.0 0.30890141441183816 -0.06255326952275138
1980000000.0 0.06454472440239657 0.3348399091845416
2000000000.0 0.3459351683593816 0.06277579248364078
2020000000.0 0.3162367170195043 0.15991206198877683
2040000000.0 0.28536821937362944 -0.22741613100616748
2060000000.0 0.2404617394802666 -0.274729861807254
2080000000.0 0.04150502113928043 -0.36107920657888004
2100000000.0 0.3622515803414725 -0.01783842733599458
2120000000.0 0.14998301173837192 0.3226130155074543
2140000000.0 -0.33601198956166606 -0.08406696022810438
2160000000.0 0.3062261294773937 -0.14727857878351308
2180000000.0 -0.24061709178712054 0.22487086062565717
2200000000.0 0.13345093862914753 0.28730516793785954
2220000000.0 0.21140612612806933 0.21587147177211694
2240000000.0 0.2870356878321556 -0.05011348074793544
2260000000.0 0.26811036614802924 0.04428155874162036
2280000000.0 0.19408084981165838 0.16972268985053987
2300000000.0 0.2196445498760348 -0.10314559479017917
2320000000.0 0.2147312111107429 -0.06429299641983809
2340000000.0 0.1790438688588332 -0.08415969474684803
2360000000.0 0.04409013743532159 -0.17568667663808976
2380000000.0 0.043277777996025196 0.1591081993457718
2400000000.0 0.07131991433292979 -0.13158975109235854
2420000000.0 -0.06523751122523708 0.13978861243488513
2440000000.0 0.1620538073198482 -0.005720935314122739
2460000000.0 0.1310975286148398 0.13667042961928047
2480000000.0 0.08114882602081906 0.20778687293110132
2500000000.0 -0.1214633348110018 0.2289478327047113
2520000000.0 -0.27223447577382615 -0.1131407852035997
2540000000.0 0.0384619061599782 -0.3298267756632067
2560000000.0 0.3628703804262968 -0.017765336425947683
2580000000.0 0.04416399525422684 0.39142611395057375
2600000000.0 -0.4142306882422153 0.03185241535543034
2620000000.0 0.13951518570686947 -0.41232495622797166
2640000000.0 0.4383255670865283 0.10245042642519753
2660000000.0 0.08659285074766834 0.4518402159332902
2680000000.0 -0.29561352374111705 0.35960732510020155
2700000000.0 -0.36479282398797186 0.29597708974737513
2720000000.0 -0.2863066509380248 0.3780101788577566
2740000000.0 -0.1317478902320704 0.4611575792614043
2760000000.0 -0.11595611347684928 0.4704081521829391
2780000000.0 -0.42378503283416596 -0.2437588066704027
2800000000.0 -0.24911877519303094 -0.42600477073097365
2820000000.0 0.32346827425419944 -0.3786760790567766
2840000000.0 0.19990091663756987 0.4580343152141637
2860000000.0 -0.15508164073298714 -0.4751014847899438
2880000000.0 -0.21733413247775513 0.44820271539151046
2900000000.0 0.3716592486073396 0.32593221634431857
2920000000.0 0.4883026409987055 -0.01957552879105375
2940000000.0 0.3397829192945717 -0.3481487750583468
2960000000.0 -0.09053317359753786 -0.472976039199476
2980000000.0 -0.46525777971646004 -0.1053145836586949
3000000000.0 -0.0003846846472732159 0.47050389384142993
3020000000.0 0.06428167494790701 -0.45996716155307626
3040000000.0 0.017188930109847258 0.4501774049386612
3060000000.0 -0.13273937618659476 -0.41849456549991965
3080000000.0 0.41200807113283294 0.11368635298431116
3100000000.0 -0.32919402399713693 0.2533403251868647
3120000000.0 0.12126027161050261 0.3876810295035587
3140000000.0 -0.1370855280185673 -0.3759544218774238
3160000000.0 -0.17638648188064093 0.35197770620380786
3180000000.0 0.23134677168667336 0.3127010054512483
3200000000.0 0.3852677731292024 -0.014590986925914082
3220000000.0 0.3804458647973108 -0.02491353966853299
3240000000.0 0.3647527994305283 0.08519855902159776
3260000000.0 0.3155685113993016 0.1872465480864379
3280000000.0 0.3180455866239044 0.15326115179188562
3300000000.0 -0.21986269768644648 0.25173619510488165
3320000000.0 -0.2002890541367059 -0.24239955809147867
3340000000.0 0.11292618227527088 -0.26816391647314686
3360000000.0 -0.07955377973432794 0.25447031198042563
3380000000.0 0.06789033001261292 -0.23848292301130453
3400000000.0 -0.0578065018495006 0.22069259198739358
3420000000.0 -0.09388441602276645 -0.1938306501592832
3440000000.0 0.07804132198106296 0.18924140039361917
3460000000.0 -0.18493562283404877 -0.06290116134061692
3480000000.0 -0.013007494149590229 -0.19175475416442478
3500000000.0 0.15374430438012765 -0.1128640731866688
3520000000.0 0.11182982571171728 -0.15329821076715594
3540000000.0 -0.16070438410853458 0.11261118171908492
3560000000.0 -0.14992206036532565 0.13460004524563168
3580000000.0 0.20569606738458862 0.03893709541948863
3600000000.0 0.12040778183447695 -0.1770112033018814
3620000000.0 0.0026822615875727474 -0.22593209600782982
3640000000.0 -0.09919509984841482 -0.2053224879311863
3660000000.0 0.21960161589421107 -0.08141744813893752
3680000000.0 0.23144717349221736 0.048013010104902276
3700000000.0 -0.15888069127961896 0.16627686839592865
3720000000.0 0.06539166821676223 -0.20696883081529965
3740000000.0 -0.015349404375031067 0.19688281145886125
3760000000.0 0.17629984369279403 0.030864385349334365
3780000000.0 -0.04416296705969268 -0.14371228474058007
3800000000.0 0.027001982910232303 -0.11494778744322234
3820000000.0 -0.012017764418201918 -0.08624659450539347
3840000000.0 -0.04571547846775336 -0.03573479829883865
3860000000.0 -0.03884415111096265 -0.026561473485521948
3880000000.0 -0.013415073556950331 -0.05092219543550426
3900000000.0 0.021669028033982057 0.06898231459048094
3920000000.0 0.014006064304088775 -0.08128003229283899
3940000000.0 0.05837648555267393 0.06080908446763224
3960000000.0 0.07181687360829477 0.02666572787954654
3980000000.0 0.054710279813265414 0.02960944502981121
4000000000.0 -0.04695149782476177 -0.0026605008864912074
