!Created with skrf (http://scikit-rf.org).
# Hz S RI R 50.0 
!freq ReS11 ImS11
400000000.0 0.6744451246783676 -0.526407440358951
420000000.0 0.6318797300317954 -0.5309321416930154
440000000.0 0.5977025929034635 -0.5526712500062088
460000000.0 0.5046905701185975 0.61116182472729
480000000.0 0.38561879290501294 0.666199423301567
500000000.0 0.32419917037796864 0.6886958854659867
520000000.0 -0.09456168515874744 0.7379877221291069
540000000.0 0.02034031090244652 0.7156144436319907
560000000.0 -0.6817631970180373 0.24082562090224793
580000000.0 -0.6597040841492662 -0.25917787409963
600000000.0 0.34596030790306115 -0.584442972330108
620000000.0 -0.0537347559900763 0.648240074854545
640000000.0 0.41905918041452905 -0.38469833214574056
660000000.0 0.5871599671222474 -0.05153609239627996
680000000.0 0.41269236840683654 0.47221758838803285
700000000.0 0.5690192481599177 0.19968577718015237
720000000.0 -0.11533181438267737 0.598172644907408
740000000.0 -0.4481068546844948 0.37173762569796603
760000000.0 -0.5236359141772104 -0.20520154875571353
780000000.0 -0.2132476577524921 0.4930473862582316
800000000.0 -0.3591663503010585 0.3889503012498089
820000000.0 0.33022648658462866 -0.35779369950280493
840000000.0 0.34130062574976455 0.297389168127286
860000000.0 -0.20946058971470968 0.36627287716476625
880000000.0 -0.07855425689460321 -0.38953325836059327
900000000.0 0.3376367412736835 0.11726777145645335
920000000.0 -0.10072508787774921 -0.3156680736372348
940000000.0 -0.13776414046402785 -0.2633594658415875
960000000.0 -0.24946649979628424 0.06013923926304693
980000000.0 0.20346240811368768 -0.08859705420447331
1000000000.0 -0.041642018712047646 -0.20481381398177673
1020000000.0 0.16351923923178602 0.05765827668134175
1040000000.0 -0.05187657335105685 0.124316453496377
1060000000.0 0.14796180602378844 -0.03695489053169163
1080000000.0 0.14848932367502085 -0.004392075652065358
1100000000.0 0.012639521913776751 -0.17648495727586375
1120000000.0 0.20782361466536764 0.07476685655902818
1140000000.0 0.21490552342413843 -0.11188214560521771
1160000000.0 -0.020944655494979623 0.2695038020184848
1180000000.0 0.15587651695822097 -0.2679144403276537
1200000000.0 -0.29194958358108775 -0.1597604091008916
1220000000.0 0.09050563048026045 -0.3235332295759446
1240000000.0 -0.2587060384496343 -0.2563768252960344
1260000000.0 -0.3659063351246066 0.10597362395175267
1280000000.0 0.3420487290049276 -0.19176075243074558
1300000000.0 -0.07287491436918365 -0.39044739063581396
1320000000.0 0.19710580793940205 -0.33315828201054454
1340000000.0 0.2997054333829172 0.25550258349363086
1360000000.0 -0.3911897610775038 0.08032525920907244
1380000000.0 0.3956661313925881 0.01826208751280686
1400000000.0 -0.3343804408785722 0.20700981338015537
1420000000.0 -0.2638772647158576 0.29223925496027425
1440000000.0 0.14520853739727546 0.356114776034518
1460000000.0 -0.33681569432468084 0.1669448232829539
1480000000.0 -0.2744487688697384 -0.26111636183549075
1500000000.0 -0.07734192056298476 -0.3788524326497105
1520000000.0 -0.3272230897248988 -0.21953101934163177
1540000000.0 0.2875609079917749 0.27516074171733657
1560000000.0 -0.24442612422504922 0.31002235100896647
1580000000.0 -0.341431727466285 0.13672587637263167
1600000000.0 -0.3359185724583224 -0.03353908453936717
1620000000.0 -0.08425759982910719 0.2975674384747565
1640000000.0 -0.24978966957148102 -0.13097537024489597
1660000000.0 -0.2543264278590576 0.011908773088461987
1680000000.0 0.2280346823288011 0.044562331013425174
1700000000.0 -0.18970228252665702 0.09136332011952854
1720000000.0 -0.0947743227101665 0.15686375062036642
1740000000.0 0.1288878371713446 0.0756430669901341
1760000000.0 -0.03672290396086998 0.11673890747530775
1780000000.0 -0.08617639963910961 -0.008631094498874255
1800000000.0 -0.006478677286004665 0.05079556544991092
1820000000.0 0.02791152633413451 -0.0403504107999236
1840000000.0 0.09490849971306424 0.00045967775656947354
1860000000.0 0.04814668914121157 0.13283530406591326
1880000000.0 -0.1822028568638863 -0.013637261463037927
1900000000.0 -0.040530427639160725 -0.2187319596953378
1920000000.0 0.18667215383919883 0.19341730480714747
1940000000.0 -0.28798047565490964 0.049331474562593694
1960000000.0 0.3130155614429843 -0.04597723950208447
1980000000.0 0.03612461207497267 0.3395642624644363
2000000000.0 0.3228577913695239 0.14022397602237952
2020000000.0 0.31532464552452677 0.1603737323915566
2040000000.0 0.30120885695637994 -0.20455824587186885
2060000000.0 0.2080051098979572 -0.2988594016350614
2080000000.0 -0.030175832509404903 -0.36110368723400904
2100000000.0 0.3596981846907909 -0.04671820216766919
2120000000.0 0.15645748818667252 0.3193833153904947
2140000000.0 -0.3449061728218523 -0.029214013046019244
2160000000.0 0.2802372256531867 -0.19159083813161745
2180000000.0 -0.25056547363971615 0.21405240509169066
2200000000.0 0.15613049950365532 0.276072572689346
2220000000.0 0.21456610466367518 0.21388234655957913
2240000000.0 0.28907364858320106 -0.04095910567482166
2260000000.0 0.26152431003813215 0.07409068889357025
2280000000.0 0.1542827644736657 0.20594106193076683
2300000000.0 0.22506978014347764 -0.08866445250043832
2320000000.0 0.21829600156310452 -0.047308286529899365
2340000000.0 0.18476420251188935 -0.06862158963873365
2360000000.0 0.0557676956584152 -0.17203001686521455
2380000000.0 0.10233043266176382 0.1284083364797814
2400000000.0 0.028859323855072366 -0.14691944274329863
2420000000.0 0.013430967088141281 0.1535917457051047
2440000000.0 0.16051135668649538 -0.02683579153893528
2460000000.0 0.1353191711390804 0.1331490263008219
2480000000.0 0.14595286112186667 0.16917482751412297
2500000000.0 -0.07765385388683713 0.24801506846438176
2520000000.0 -0.27569550982616264 -0.10650155127934428
2540000000.0 0.04978515280465987 -0.3288135471486035
2560000000.0 0.36299290767564846 -0.016516696455442424
2580000000.0 0.04568811083286679 0.3917412657223736
2600000000.0 -0.41459423347964286 0.029189498473425696
2620000000.0 0.16504381500009876 -0.40216010081868353
2640000000.0 0.4436479297601052 0.07402538762233031
2660000000.0 0.1291146083394917 0.4411851847841352
2680000000.0 -0.2593804361782564 0.38630614471656555
2700000000.0 -0.35105338537377684 0.31223898707299286
2720000000.0 -0.24137523430504174 0.4086766033211342
2740000000.0 -0.07385802567211565 0.4735860440702922
2760000000.0 -0.03617856657166539 0.4841988467970674
2780000000.0 -0.4565247055606759 -0.17836159037507487
2800000000.0 -0.26764150860606734 -0.41571685055593116
2820000000.0 0.3215104134839911 -0.38168642620401616
2840000000.0 0.2273965199511927 0.4456530480332996
2860000000.0 -0.1944170051580176 -0.460723663137664
2880000000.0 -0.2204258972271817 0.44637710976273565
2900000000.0 0.3767405422768951 0.3191864040504201
2920000000.0 0.48646465612581485 -0.038235868298221176
2940000000.0 0.34031294917618593 -0.34634295710674734
2960000000.0 -0.15164359118396803 -0.45609969620152313
2980000000.0 -0.47172216789325694 -0.06399719034968922
3000000000.0 0.1045316349970813 0.459258851726921
3020000000.0 -0.03154989648376237 -0.4632587617923978
3040000000.0 0.10788041039019611 0.4379010519849337
3060000000.0 -0.1955206574525046 -0.3935763329529619
3080000000.0 0.4242097894561079 0.057055799519671886
3100000000.0 -0.38865897316352105 0.14952375572337426
3120000000.0 0.13959508841696405 0.3828394943393961
3140000000.0 -0.11673619082062534 -0.3837388368813935
3160000000.0 -0.19274155366019205 0.34383777503306323
3180000000.0 0.1887285171088003 0.33970868177295377
3200000000.0 0.38535045687782266 -0.015451235103681866
3220000000.0 0.38102339070229047 -0.023910734257937934
3240000000.0 0.36619980076318337 0.07705048049358691
3260000000.0 0.32878703126497566 0.16128274191032604
3280000000.0 0.3004280664524833 0.1861824288437537
3300000000.0 -0.16753485563576637 0.2883275788895773
3320000000.0 -0.25759629902827996 -0.18059359860449858
3340000000.0 0.10298065816298912 -0.2724768866566396
3360000000.0 -0.06673216437586325 0.2585210073939803
3380000000.0 0.020557392867227273 -0.24709242167163248
3400000000.0 0.010337129360460478 0.2283101939329816
3420000000.0 -0.1401959745990536 -0.16392446504071367
3440000000.0 0.13299855434207444 0.15633957788236075
3460000000.0 -0.18647892647027128 -0.06064658955441911
3480000000.0 0.0011468820870040978 -0.19257949848537417
3500000000.0 0.1736223491850397 -0.08275185212161248
3520000000.0 0.14456673162717007 -0.12341439051826468
3540000000.0 -0.18942156093872722 0.05552534368785082
3560000000.0 -0.18508532650005943 0.08158961773930362
3580000000.0 0.18890721451895562 0.09050916453034992
3600000000.0 0.18483888997680364 -0.10707453242703552
3620000000.0 0.07735648496225982 -0.21114544396783846
3640000000.0 -0.07820261966646623 -0.21130829163297934
3660000000.0 0.22099599714221088 -0.07089706737245428
3680000000.0 0.2346633762935336 0.0016051077577694016
3700000000.0 -0.1394014652586634 0.1804188601412962
3720000000.0 0.011752379577235244 -0.21490955525799316
3740000000.0 0.09726139702031587 0.17022209346563466
3760000000.0 0.15321725437997036 -0.09108473307455546
3780000000.0 -0.1318545880465439 -0.07080800341404751
3800000000.0 -0.09889441816811048 -0.06545715313536815
3820000000.0 -0.07705622471409708 -0.04077282863432594
3840000000.0 -0.032383356721129755 0.04850697045947921
3860000000.0 3.7838391259879265e-05 0.047559943409883204
3880000000.0 -0.02474110852508738 0.0472300741082329
3900000000.0 0.06494831770660559 -0.030950008158934863
3920000000.0 -0.02859246317310274 -0.07735891499389556
3940000000.0 0.08457441000579968 0.0016462655087717522
3960000000.0 0.07397185427912763 -0.024234997590732693
3980000000.0 0.032226475034318504 0.054056705686533736
4000000000.0 -0.04663198128849636 -0.0038409710196152936
