!Created with skrf (http://scikit-rf.org).
# Hz S RI R 50.0 
!freq ReS11 ImS11
400000000.0 0.6896112432975439 -0.506327575498925
420000000.0 0.5744840594679427 -0.590959172909956
440000000.0 0.6407707247843074 -0.5042401823243431
460000000.0 0.5185201347921924 0.6009936126402109
480000000.0 0.35206059742963713 0.6836770624678131
500000000.0 0.38676909171856994 0.6559871030129065
520000000.0 -0.12484850104832071 0.7353587555314076
540000000.0 -0.04086027850478084 0.7142766469361485
560000000.0 -0.6824141002814589 0.23981264197173283
580000000.0 -0.6471354433249994 -0.2879125473351073
600000000.0 0.33357231628894657 -0.5903144913219688
620000000.0 0.017154445221771498 0.6498579334906531
640000000.0 0.45320698099724993 -0.3458376388533061
660000000.0 0.5906257387721139 -0.018381375220129108
680000000.0 0.4047175006992165 0.47881549636907017
700000000.0 0.5558478990561473 0.23528436489270152
720000000.0 -0.08420096694043855 0.6027758071612698
740000000.0 -0.44582689066779985 0.3739336655603757
760000000.0 -0.521087889667359 -0.21150225644749956
780000000.0 -0.23989887796168197 0.480278453846158
800000000.0 -0.31500515960267444 0.4252516243758884
820000000.0 0.3364045065876678 -0.35274095645123943
840000000.0 0.36358406283806144 0.2688544105302799
860000000.0 -0.21963779864801283 0.36126174329309896
880000000.0 -0.05476216222423986 -0.3929935525643549
900000000.0 0.30933467840914314 0.17642896707814223
920000000.0 -0.09221562427685452 -0.31783961418643975
940000000.0 -0.1438625767499196 -0.2595606952958136
960000000.0 -0.25331189520619873 0.03560472738896091
980000000.0 0.21759266595181936 -0.04361505958838525
1000000000.0 -0.029994253006100945 -0.2071442511145813
1020000000.0 0.11824363565822665 0.12731233489853377
1040000000.0 -0.026532097429032148 0.13110069455606926
1060000000.0 0.13654919941000007 -0.06723154551525548
1080000000.0 0.14597753031063812 0.02486352198178727
1100000000.0 -0.006983098286310557 -0.17694749691771447
1120000000.0 0.20407966496765167 0.0842190828044208
1140000000.0 0.2349158891955891 -0.059717308693174764
1160000000.0 -0.017742648941021184 0.2690823092573639
1180000000.0 0.17986412197229792 -0.25244008776655513
1200000000.0 -0.3190283429803181 -0.09300084796092038
1220000000.0 0.09171289038711627 -0.3229274286244867
1240000000.0 -0.2544621131822895 -0.2606782042980419
1260000000.0 -0.364408835159773 0.11255698390895522
1280000000.0 0.3419637549481711 -0.19209551955955334
1300000000.0 -0.04288044003546536 -0.394837085414777
1320000000.0 0.20483239079596124 -0.32775150178818246
1340000000.0 0.29081551370095027 0.26596859235677395
1360000000.0 -0.38936576741829376 0.08728867893671859
1380000000.0 0.3953108986607189 0.010329354025152023
1400000000.0 -0.32555152474692706 0.22080192060415746
1420000000.0 -0.3201704762907828 0.2293251962224587
1440000000.0 0.15633728175285105 0.3516412016095484
1460000000.0 -0.3134826802103105 0.2066935576775054
1480000000.0 -0.3019471039633624 -0.22908606272322768
1500000000.0 -0.10971949214007495 -0.3713202132943436
1520000000.0 -0.28891555433365357 -0.26836625444604983
1540000000.0 0.2746868604198272 0.28876655922914674
1560000000.0 -0.2385390501342246 0.3146303831394225
1580000000.0 -0.3434852403538147 0.12950862833783341
1600000000.0 -0.3329632189655664 -0.05269571704095033
1620000000.0 -0.07689543123284512 0.2991839428597661
1640000000.0 -0.253777106990973 -0.12293160179786643
1660000000.0 -0.23477456701950328 0.09654872456024687
1680000000.0 0.22851344635643547 0.04044885309269182
1700000000.0 -0.17871995918165492 0.11200563664024002
1720000000.0 -0.1325601757667933 0.12698624135680428
1740000000.0 0.14066945361442118 0.052756404709465535
1760000000.0 -0.0978869196344659 0.07368106567698715
1780000000.0 -0.08260988016988656 -0.026826226709692872
1800000000.0 -0.013260474341605853 0.04890871206956416
1820000000.0 0.04356016945159072 -0.023581301468684538
1840000000.0 0.09367423654136671 0.020218310897260994
1860000000.0 0.039668079293784894 0.13613804311442834
1880000000.0 -0.1767847551322944 -0.047893002440575025
1900000000.0 -0.019394236280009438 -0.2225136826589158
1920000000.0 0.19292614114603862 0.1879984205112642
1940000000.0 -0.29070661573335493 0.024545204434902226
1960000000.0 0.31349475644142183 -0.0405367571833416
1980000000.0 0.007752937817246781 0.34112632307726815
2000000000.0 0.3202263653203355 0.14809262079332236
2020000000.0 0.3151211878460324 0.16092239444567571
2040000000.0 0.29255254936042496 -0.216897939930301
2060000000.0 0.17189691287951203 -0.32100836853359394
2080000000.0 -0.03737593852839471 -0.36074389884537617
2100000000.0 0.3604233429335159 -0.042754953141690644
2120000000.0 0.16351664005232713 0.3162830932030616
2140000000.0 -0.3458321361570406 -0.020287270794632235
2160000000.0 0.30529786299167344 -0.14912807796974323
2180000000.0 -0.2607252560548323 0.20151338268827385
2200000000.0 0.12894179257905886 0.28903054503698766
2220000000.0 0.23529842176914453 0.191356670488823
2240000000.0 0.2857089958080941 -0.056544851391574134
2260000000.0 0.26092556787539556 0.07563203603758475
2280000000.0 0.13553764930903084 0.2193055540365502
2300000000.0 0.23004347272638043 -0.07695349464166024
2320000000.0 0.2071021375983282 -0.08288846090101092
2340000000.0 0.1938993457983424 -0.032114260294363185
2360000000.0 0.08669151458799206 -0.1582240883085932
2380000000.0 0.03465777755594534 0.1600090375356372
2400000000.0 0.013646961863436316 -0.14894562191280009
2420000000.0 0.01655477555428867 0.15228949429971303
2440000000.0 0.16237005813640118 -0.0008045895151748856
2460000000.0 0.14397340038538375 0.12331853661340304
2480000000.0 0.13868882501522475 0.1754195603503017
2500000000.0 -0.0934154158200404 0.24148965592557448
2520000000.0 -0.27091720695164956 -0.11649761116993182
2540000000.0 0.029688691207394344 -0.3313153849260433
2560000000.0 0.3633897321271647 0.01868159853021947
2580000000.0 0.07168547608606796 0.387844779278039
2600000000.0 -0.4155800293537485 -0.007712060054063324
2620000000.0 0.18169121883043685 -0.39452548736650694
2640000000.0 0.43991989267034215 0.08985607470942222
2660000000.0 0.10185184181026641 0.4473917029563451
2680000000.0 -0.22579391263400606 0.4061222655153159
2700000000.0 -0.2940698476017325 0.365542333081575
2720000000.0 -0.1976846086795577 0.4306606085504904
2740000000.0 -0.0041241957647531 0.4794012341739877
2760000000.0 0.007473430423049965 0.48494592111929913
2780000000.0 -0.47013937431747765 -0.13923466694292883
2800000000.0 -0.2818401527559411 -0.40670704572486044
2820000000.0 0.30710178746435607 -0.39355738559383086
2840000000.0 0.23702116453037858 0.4409539967006517
2860000000.0 -0.16498060356599806 -0.4724568426344382
2880000000.0 -0.22688839415933654 0.4435199065629727
2900000000.0 0.3573485774186336 0.3411736338050811
2920000000.0 0.48757212425311447 0.010105030482018636
2940000000.0 0.3506737704442115 -0.33484500097450065
2960000000.0 -0.1519673558587437 -0.45526661609460295
2980000000.0 -0.46619256957531985 -0.09562235928314741
3000000000.0 0.08769854291848472 0.4609116524453787
3020000000.0 -0.019938158817682097 -0.462457941280035
3040000000.0 0.16982976723479576 0.41662291042412775
3060000000.0 -0.2601503045779608 -0.35474456906037183
3080000000.0 0.4283694161196582 -0.005928187733586463
3100000000.0 -0.2813284129645458 0.3087302052661396
3120000000.0 0.24123357700705625 0.3302500141769928
3140000000.0 -0.10543830062764802 -0.38797453813646504
3160000000.0 -0.13026530863264427 0.3733306713481852
3180000000.0 0.19434663784061154 0.3377523575787234
3200000000.0 0.3866757895505182 0.004927104911390771
3220000000.0 0.38109193770725464 -0.01679395159771945
3240000000.0 0.34196552031266864 0.15387424705671035
3260000000.0 0.28379052909374697 0.23205656651468387
3280000000.0 0.2938739722663889 0.1938966014724466
3300000000.0 -0.2422849308014471 0.22979294098600359
3320000000.0 -0.21221262836055155 -0.23070148319991646
3340000000.0 0.1522803196643571 -0.24576841144567355
3360000000.0 -0.10771925346730118 0.2421749860855508
3380000000.0 0.1200472433741269 -0.21458149529261716
3400000000.0 -0.05268364149471083 0.2205935923227205
3420000000.0 -0.059798911369871824 -0.20464057874152602
3440000000.0 0.06223353969923135 0.1935761231152096
3460000000.0 -0.16610724565967455 -0.10045457604343716
3480000000.0 0.046435633276547456 -0.1850610276606352
3500000000.0 0.18894837668666106 -0.011467553947985964
3520000000.0 0.16146636825281155 -0.09695380701007864
3540000000.0 -0.18776440925825294 0.05360017413320833
3560000000.0 -0.18146154015265742 0.08373638450450081
3580000000.0 0.19660352943636497 0.06861684571804208
3600000000.0 0.15582729407310245 -0.14464731378066892
3620000000.0 -0.007545017027065576 -0.2250031489971547
3640000000.0 -0.13857084774288214 -0.17925374443535633
3660000000.0 0.18687396062244754 -0.13852537467597564
3680000000.0 0.23579718204112918 0.009378039262671133
3700000000.0 -0.14695093980971619 0.17726081103703992
3720000000.0 0.08446294895119896 -0.20037395997762414
3740000000.0 0.07348750180037696 0.18377260678026316
3760000000.0 0.1768530868149779 -0.027629332013688664
3780000000.0 -0.09047070258304435 -0.12137452665071201
3800000000.0 -0.030639154849257808 -0.11508353006348997
3820000000.0 -0.031731801228775024 -0.08167400962019998
3840000000.0 -0.03585019290125154 -0.04629304494062243
3860000000.0 -0.038312360701860206 -0.028046685029218327
3880000000.0 -0.010369576363981765 -0.05226908207722623
3900000000.0 0.031598398616152074 0.06367062580576058
3920000000.0 0.03019687685763229 -0.07669790253944359
3940000000.0 0.0687877386482196 0.04927873622476216
3960000000.0 0.07399100344030607 -0.023529257362037405
3980000000.0 0.06191848959717927 0.0010139756664724173
4000000000.0 -0.006605921943401584 0.04572981021681293
