!Created with skrf (http://scikit-rf.org).
# Hz S RI R 50.0 
!freq ReS11 ImS11
400000000.0 0.6836068876580799 -0.5139941645523414
420000000.0 0.6323954631662013 -0.5303730906008997
440000000.0 0.6046212763013027 -0.5452413867266677
460000000.0 0.4817823463191792 0.6295395205550075
480000000.0 0.3500824944681243 0.6856394829559722
500000000.0 0.2826098224301961 0.7065809603241442
520000000.0 -0.14132118802106852 0.7306163278913382
540000000.0 0.025750458041155222 0.7151716996601658
560000000.0 -0.6896281228528935 0.21605996655727727
580000000.0 -0.6518048829183237 -0.2777499593107275
600000000.0 0.33860506538307855 -0.5884671963361413
620000000.0 -0.045995415512211146 0.6488289772760567
640000000.0 0.43562014690160017 -0.3660374010154573
660000000.0 0.5886383935377705 -0.03845783716016116
680000000.0 0.39874522734926215 0.48371116484617405
700000000.0 0.5658630567042021 0.20558672581346366
720000000.0 -0.06976279399315982 0.6042717905710026
740000000.0 -0.42956677072787974 0.39250953633618185
760000000.0 -0.5256663228110212 -0.20062453990302945
780000000.0 -0.21357709193947697 0.4923580526767934
800000000.0 -0.3843374255184623 0.3645497920346455
820000000.0 0.3368157779176824 -0.3519918791484539
840000000.0 0.34527556380575053 0.29196613493930007
860000000.0 -0.2292497489534498 0.3541090019015252
880000000.0 -0.07021675169440965 -0.3911949116471278
900000000.0 0.3069036963059462 0.18159929044348777
920000000.0 -0.1012718352400642 -0.31528002546699607
940000000.0 -0.1747484879798936 -0.24017770686770212
960000000.0 -0.24530175942392113 0.0728922398740653
980000000.0 0.21215204039729788 -0.06820111077032935
1000000000.0 -0.05400066925628905 -0.2019935491273071
1020000000.0 0.1538534059719686 0.0802727352931435
1040000000.0 -0.05565979021493854 0.12283837144751766
1060000000.0 0.14490150233493326 -0.04701598419157899
1080000000.0 0.14648283456441555 -0.01932978435574485
1100000000.0 -0.010425152200301883 -0.17646617097826303
1120000000.0 0.2177605341546225 0.03847425254200827
1140000000.0 0.22284049312106166 -0.09593745306540871
1160000000.0 0.0337263759294272 0.2681639015694204
1180000000.0 0.15596969947522393 -0.26887703616891695
1200000000.0 -0.30221004635440846 -0.1399827596387622
1220000000.0 0.11738462526342222 -0.3148861127604013
1240000000.0 -0.25354644991527786 -0.2616543316830623
1260000000.0 -0.3652099887365591 0.1088864877958526
1280000000.0 0.33189799923352875 -0.2086588831527229
1300000000.0 -0.05668880685501498 -0.39268036311554444
1320000000.0 0.20392739403283675 -0.3286830339001532
1340000000.0 0.3027621148670725 0.2520066354316363
1360000000.0 -0.385225940820074 0.1044927178912544
1380000000.0 0.39591273598461146 -0.0010417365215201842
1400000000.0 -0.3207194577291841 0.22775585163387393
1420000000.0 -0.28903720239971303 0.26778611009765707
1440000000.0 0.14983312024607134 0.3546207260207766
1460000000.0 -0.3304600795289824 0.17833183029995778
1480000000.0 -0.28078081971220004 -0.25407725834671885
1500000000.0 -0.0843994893568069 -0.3775198913077781
1520000000.0 -0.3101861478297015 -0.24332235242708783
1540000000.0 0.2818106258985771 0.28133513608331673
1560000000.0 -0.23499082260910345 0.3173404704304383
1580000000.0 -0.3371559742457594 0.14630153941066756
1600000000.0 -0.33481397952563885 -0.0395486050875633
1620000000.0 -0.08274752650239232 0.29764999558411176
1640000000.0 -0.26171346576962656 -0.10449389993919313
1660000000.0 -0.23806590732020955 0.08858408937802564
1680000000.0 0.23029845805814447 0.03346979871383015
1700000000.0 -0.16392039721927656 0.1328586668199706
1720000000.0 -0.09598552374545724 0.156172815182898
1740000000.0 0.13388441524299582 0.06683142758777076
1760000000.0 -0.056536288067749 0.1091811860883322
1780000000.0 -0.08269668095119348 -0.027463564396743717
1800000000.0 -0.020962103757445436 0.046559535718871156
1820000000.0 0.031875034848841605 -0.03800283979123226
1840000000.0 0.09515759460896528 0.013023194455841169
1860000000.0 0.07799084484385768 0.11852610981004254
1880000000.0 -0.18053536779840884 -0.028510391123713848
1900000000.0 -0.035863845417698645 -0.22025632736239367
1920000000.0 0.16215651354393862 0.21529725860214677
1940000000.0 -0.2882020251766801 0.045072050711903656
1960000000.0 0.3147461590358233 -0.029577088794496307
1980000000.0 0.03050542639625738 0.3398420208008356
2000000000.0 0.3349439332388341 0.10787850567513853
2020000000.0 0.3045198011568256 0.17957424965266192
2040000000.0 0.2749940635694032 -0.23777794269227312
2060000000.0 0.18665271301332814 -0.3121456066573479
2080000000.0 0.033176667050022195 -0.360791868223978
2100000000.0 0.35632051295979617 -0.06564585895969319
2120000000.0 0.1445219353883278 0.3246485561859521
2140000000.0 -0.3458456440738702 0.010793158101158164
2160000000.0 0.2802763081829314 -0.19310954093547283
2180000000.0 -0.2647864967242224 0.19611412587845045
2200000000.0 0.129616388344833 0.2896358835904519
2220000000.0 0.21528585654399485 0.21329622524886382
2240000000.0 0.28796920958860484 -0.048599181356458514
2260000000.0 0.254393465175 0.09569351601638403
2280000000.0 0.112841659212767 0.23155567054093
2300000000.0 0.23004546333666806 -0.07725800675098456
2320000000.0 0.2160089081387974 -0.05545382231597525
2340000000.0 0.1923321771728398 -0.041410481397428936
2360000000.0 0.07337861000930619 -0.16503824092022362
2380000000.0 0.06905071560430667 0.14925513021281814
2400000000.0 0.011934442793014597 -0.14899267581058434
2420000000.0 0.024935408638842426 0.15108449880769115
2440000000.0 0.16086125033156295 -0.019515340454486607
2460000000.0 0.14337544056817986 0.1234852825779771
2480000000.0 0.15337816816923688 0.16278096998644107
2500000000.0 -0.06221897057328824 0.25196854812041936
2520000000.0 -0.28343233784712385 -0.08326809599671804
2540000000.0 0.03518201474517237 -0.331025878433081
2560000000.0 0.3639575851487035 -0.0022566576779966237
2580000000.0 0.038728093760669734 0.3925001752997915
2600000000.0 -0.41548955027177786 0.006437680924999433
2620000000.0 0.160227999401647 -0.4034074665105781
2640000000.0 0.4385021555346423 0.0971070325036327
2660000000.0 0.10392713116835316 0.44737327947092054
2680000000.0 -0.21111712852419637 0.41346907995110876
2700000000.0 -0.26881898137549554 0.38443698530637704
2720000000.0 -0.1859795337624353 0.43632438015220254
2740000000.0 -0.022453236692636602 0.4792558943143093
2760000000.0 0.04283846060177484 0.4834145712690829
2780000000.0 -0.46148846538463134 -0.16712674731546392
2800000000.0 -0.24002007393499988 -0.43301912463111
2820000000.0 0.3340529453271374 -0.37108065672389584
2840000000.0 0.22620591378713312 0.44647176243152153
2860000000.0 -0.17247697386525002 -0.469614004799763
2880000000.0 -0.2119703865181553 0.4501286136633971
2900000000.0 0.3574818865085097 0.3406555813262558
2920000000.0 0.48615184651063864 -0.03502608671940177
2940000000.0 0.3111603009514602 -0.3717580167156884
2960000000.0 -0.14384502942579552 -0.4583621762640212
2980000000.0 -0.47035643403133187 -0.07549002177391827
3000000000.0 0.12704542399328805 0.4521577939387719
3020000000.0 -0.09660428699188693 -0.4535045781554664
3040000000.0 0.10065227082913986 0.4396130380862581
3060000000.0 -0.2687968015485258 -0.34892216258504566
3080000000.0 0.4293732111970073 0.00026117352441265996
3100000000.0 -0.3252345801224933 0.2625266136418549
3120000000.0 0.20037916057241273 0.35681054656119204
3140000000.0 -0.12593838345223404 -0.38188762674393484
3160000000.0 -0.1754551903956913 0.353342363961522
3180000000.0 0.17581497154975365 0.3468713302925406
3200000000.0 0.38519028787246584 0.017250455443850142
3220000000.0 0.3813049536949828 0.0119101345950735
3240000000.0 0.36019688861237675 0.0951033917355169
3260000000.0 0.3229302837705584 0.16911177694698604
3280000000.0 0.3168921589316581 0.1532262532928592
3300000000.0 -0.13966570839142706 0.30167238663195295
3320000000.0 -0.2845735521567002 -0.12928878103343616
3340000000.0 0.040369543885981504 -0.2863669551064429
3360000000.0 0.008555211614203572 0.26555315210342256
3380000000.0 -0.08300087090868734 -0.23182764513888168
3400000000.0 0.10140879233037602 0.20328892125080664
3420000000.0 -0.17692373996502092 -0.12019671061502195
3440000000.0 0.17795135170945284 0.10022865247604816
3460000000.0 -0.1898522492997232 0.04452146729046423
3480000000.0 -0.11509594899438648 -0.15333639776657879
3500000000.0 0.12778186394153737 -0.1418240623966518
3520000000.0 0.11322385301679556 -0.15384227383816465
3540000000.0 -0.16868527255414736 0.10304185697720145
3560000000.0 -0.17882015898546358 0.09530364405306735
3580000000.0 0.17781139707951152 0.11126129505281841
3600000000.0 0.2041936773713232 -0.06263765862762027
3620000000.0 0.06690361007927063 -0.21602875881756023
3640000000.0 -0.04571171975066769 -0.2220581396592863
3660000000.0 0.2236003213626776 -0.062346681698285826
3680000000.0 0.22402365491621504 0.06817819906028899
3700000000.0 -0.16145082591814286 0.1616271717416264
3720000000.0 -0.004412513313807224 -0.21548383911235036
3740000000.0 0.10258888649830274 0.1674280835412933
3760000000.0 0.162578758651362 -0.07135800269987395
3780000000.0 -0.12180097937462202 -0.08848967540648409
3800000000.0 -0.08735057180659722 -0.08043209085748611
3820000000.0 -0.08724153637131357 0.004574860645125955
3840000000.0 -0.02586395181533879 0.05231701221352403
3860000000.0 -0.0021372201844100727 0.04720787954290402
3880000000.0 -0.024706817285678234 0.04670211527276491
3900000000.0 0.07054088433115988 -0.005279019917218598
3920000000.0 -0.05274781518211524 -0.0637437159464724
3940000000.0 0.08503962957500179 -0.0015493942738460929
3960000000.0 0.06332372471948991 -0.04580595801207327
3980000000.0 0.060110929310799484 0.021707018854159075
4000000000.0 -0.04482530504294067 -0.01843287347760259
