!Created with skrf (http://scikit-rf.org).
# Hz S RI R 50.0 
!freq ReS11 ImS11
400000000.0 -0.8137429415100113 -0.04458435255737831
420000000.0 0.6082749692335884 -0.45577548262183826
440000000.0 0.6526956746683743 -0.2795364286751817
460000000.0 -0.35315159998236334 -0.5305207099841206
480000000.0 0.3919776876584171 0.42200728756138456
500000000.0 0.33664774541937753 -0.45328489713966785
520000000.0 0.19775034206072542 0.421024627273513
540000000.0 0.4182722817712242 -0.009926081244864946
560000000.0 -0.10523856649819625 0.3969623710304314
580000000.0 -0.3327223666509622 -0.20588830795222046
600000000.0 0.097256455569194 -0.39023165566822277
620000000.0 -0.39567100277868567 0.10084900109809646
640000000.0 0.10023047261694994 0.39509218101153293
660000000.0 0.015392518056629475 0.3842701008625966
680000000.0 0.3339905323947229 0.17742913691794474
700000000.0 -0.3447530030638967 0.12336223933424761
720000000.0 0.14769768673793832 0.31139456759602263
740000000.0 0.2870530356610045 0.16446384564011804
760000000.0 -0.27308167855056403 0.05227114937471996
780000000.0 0.04306963314671677 0.2894383244517126
800000000.0 0.004349754292647296 -0.25596249303927926
820000000.0 0.22599596059443428 0.08393185559914855
840000000.0 -0.20924799953738693 -0.06110087166774353
860000000.0 -0.048488768169347184 -0.2015965802058593
880000000.0 0.17128764749539402 -0.09699639165834018
900000000.0 0.10780238510896042 0.11048526801406713
920000000.0 -0.035446060255064325 0.12378820096370921
940000000.0 -0.08300113256689318 0.08621159753934915
960000000.0 0.0623683605247916 -0.020778295235234653
980000000.0 -0.05868715100508666 0.018028762557485107
1000000000.0 -0.04823991820343536 -0.028754154525405078
1020000000.0 -0.03328795886973861 -0.00668349273764633
1040000000.0 -0.049830729289366736 -0.0284047529175978
1060000000.0 -0.09939436149956726 -0.008583911417173094
1080000000.0 0.07626775900565354 0.10301070459759473
1100000000.0 -0.10469153978429732 -0.16171608990595895
1120000000.0 -0.08702933618518868 -0.19980423092772362
1140000000.0 0.2225351443968655 0.09894208122563436
1160000000.0 0.24052027905718334 0.13571197914378566
1180000000.0 -0.10150369376950412 0.2683744790707106
1200000000.0 0.21802499805761033 -0.209290204208616
1220000000.0 0.2708896630741575 0.17421471178779627
1240000000.0 -0.117257230188753 0.32702870764342346
1260000000.0 0.12094058488727663 -0.3141930234346585
1280000000.0 0.30733979207649254 0.14315667679434516
1300000000.0 0.3469638564024261 0.0032084790677772723
1320000000.0 0.07751145269593211 0.35310330911987214
1340000000.0 -0.1476701106023801 -0.33481491532077534
1360000000.0 -0.0542712426361284 -0.36687311257667454
1380000000.0 -0.36648424410545205 -0.0420577197443382
1400000000.0 -0.14906494737146403 0.34998675249280964
1420000000.0 0.36747910126839106 -0.05324039194565009
1440000000.0 0.15825105346003698 -0.34494585526780946
1460000000.0 -0.35876120882732193 0.09810633809565078
1480000000.0 0.2556171838185383 0.25668604793691735
1500000000.0 0.3243153427151796 0.052001903853575754
1520000000.0 0.022104482821041223 -0.31282702234468285
1540000000.0 -0.27512928064430825 0.054662232171304836
1560000000.0 -0.13465991841063193 0.22476030068918296
1580000000.0 -0.09103308548962885 -0.1989132838026648
1600000000.0 -0.0921433421167713 0.17673873208607843
1620000000.0 -0.16523473381491155 -0.014136086045180057
1640000000.0 -0.13491422548760865 0.001948324083468099
1660000000.0 0.10691600811458837 -0.029003175407878806
1680000000.0 0.023875882265071997 -0.09628246205771665
1700000000.0 0.08211618076354953 -0.014227378027325774
1720000000.0 -0.03267424158610426 -0.058988133793958175
1740000000.0 0.024335409585801104 0.06160767543021938
1760000000.0 -0.03232892951252987 -0.07376796467301638
1780000000.0 0.09800021151098796 -0.05069413803882662
1800000000.0 -0.0057247075865403405 -0.1378378455967644
1820000000.0 0.13550191810943613 -0.09611807813021955
1840000000.0 -0.017032545689301733 -0.2056971167463582
1860000000.0 0.022844624945522887 0.23994731548005999
1880000000.0 0.2676592466677561 -0.013464145396813617
1900000000.0 -0.29166778494434714 0.002944548283821888
1920000000.0 0.2583124798895155 0.14219862517247092
1940000000.0 0.24083170465481196 -0.20235416856044247
1960000000.0 -0.2637481328147731 0.17260778026163479
1980000000.0 0.2758442481867268 -0.1692961741410482
2000000000.0 0.1539830198179127 0.28006171605160535
2020000000.0 -0.09895574403867882 0.3018735485207353
2040000000.0 -0.04575035555215297 -0.3042818201104002
2060000000.0 0.2537954364805319 -0.18558530554788488
2080000000.0 -0.2452423301042238 -0.19301976141703334
2100000000.0 -0.0210972179662878 0.30270437877633755
2120000000.0 0.04272048429205552 -0.2970731245549263
2140000000.0 0.17369752141788827 0.23864532904036137
2160000000.0 0.19959398809075576 -0.18101576691681304
2180000000.0 0.15720592015312837 -0.2296647253588637
2200000000.0 -0.22863005517602084 -0.1368878802920233
2220000000.0 -0.07426750261769503 -0.24676240622343665
2240000000.0 0.135315114008216 -0.20312705410790363
2260000000.0 0.2254541581680476 -0.09367843778574671
2280000000.0 0.10019372063549492 0.19284209205443184
2300000000.0 -0.20255585698947687 0.009575906270848098
2320000000.0 0.1759854623151474 0.07249040935203997
2340000000.0 -0.020436051554208155 -0.1741119157241518
2360000000.0 -0.11149680291856358 0.12954989124414182
2380000000.0 0.05096948335671844 0.17032784959097724
2400000000.0 -0.18663859919068568 0.022339829639982822
2420000000.0 0.09564687358202424 0.18280717157948856
2440000000.0 -0.22160151290559268 -0.06252261165886898
2460000000.0 -0.07365877315946243 -0.24245866012430511
2480000000.0 0.1533191623506757 0.2379852699302694
2500000000.0 0.3041382555397585 0.08134858599538447
2520000000.0 0.08296349800902823 0.33035629913372705
2540000000.0 0.19145762985895795 0.3236657307926127
2560000000.0 -0.3164839952702601 0.24422582750894334
2580000000.0 -0.25361661706822564 -0.33204502710179334
2600000000.0 0.403869352176918 -0.16934774550630602
2620000000.0 0.11809036578685016 0.43814697537114616
2640000000.0 -0.458791100495163 0.06018693608062451
2660000000.0 -0.13773378026750738 -0.44939456840636344
2680000000.0 0.2793816461275249 -0.38108540681123554
2700000000.0 0.3834699257793888 -0.2827181301173267
2720000000.0 0.3682522926181304 -0.3085417976815671
2740000000.0 0.23398565038551186 -0.4235453632875049
2760000000.0 0.2231939155196377 -0.4353432809380854
2780000000.0 0.31820605647911865 0.376767557728362
2800000000.0 0.000979787174822093 0.49821631196892757
2820000000.0 -0.48834784256520314 0.11696317804655372
2840000000.0 0.2187345615725669 -0.45607633714254747
2860000000.0 -0.21155197766917305 0.46200808673357413
2880000000.0 0.4631760798544138 -0.20983333234621596
2900000000.0 -0.3213463519498173 -0.38865687854612413
2920000000.0 -0.3642470323956831 0.34084141415817437
2940000000.0 0.265231595884639 0.41161762199257584
2960000000.0 0.41403950059552236 -0.23907085828099015
2980000000.0 -0.16413840191076748 -0.4335347866791748
3000000000.0 -0.39673311922838483 0.21079389287388303
3020000000.0 0.42481574017353624 0.08041306270885439
3040000000.0 -0.18663862963549893 -0.3729415763614246
3060000000.0 0.08899677481045892 0.39559208316076916
3080000000.0 0.01170891846605504 -0.39330393715367096
3100000000.0 -0.2567812418295449 -0.28470198842149974
3120000000.0 0.21533681640078134 0.3132480057314733
3140000000.0 -0.08141972415959044 -0.3694100884006069
3160000000.0 -0.3519200456075535 0.135956230910623
3180000000.0 0.1847551430053741 0.32826074742460304
3200000000.0 0.3500853216286444 0.1300408816667562
3220000000.0 0.36884290287233135 0.02489762156854287
3240000000.0 0.2810764971922542 -0.23481910079748616
3260000000.0 0.34620008972172694 0.0684600698465676
3280000000.0 -0.047249225533032464 0.3345105550863527
3300000000.0 -0.26627520424232626 0.17731104535178618
3320000000.0 -0.1811810970504796 -0.24190629848804937
3340000000.0 0.0763915638372185 0.27508493469041423
3360000000.0 -0.2320673150956325 -0.12528808894134838
3380000000.0 0.12395418206503526 -0.2072047896251274
3400000000.0 -0.057293427002031834 0.2166105591804972
3420000000.0 -0.01813426048625609 -0.21150586307353295
3440000000.0 0.07706918399053224 0.18458665349999806
3460000000.0 0.11658029249870208 0.14673837473834275
3480000000.0 0.16417386656080557 0.07347290753571324
3500000000.0 -0.1724879985235411 -0.02137186512524403
3520000000.0 0.15710775638979688 0.0671680704336117
3540000000.0 0.1429599025812227 -0.08796846901855121
3560000000.0 0.06951309889869788 -0.15879089446699632
3580000000.0 0.17641280254872918 -0.014581056856820407
3600000000.0 0.17382500731197154 0.04178266373381809
3620000000.0 -0.12129313247406262 0.14307796933335545
3640000000.0 -0.18745970376092505 0.06368144849730492
3660000000.0 0.15062123999208354 -0.13467086918558052
3680000000.0 -0.000369735663010255 0.1991661365307932
3700000000.0 0.19688115837778392 0.028500290791918906
3720000000.0 -0.07447334637370089 -0.17686356295815425
3740000000.0 0.1323389199354389 -0.12639983160387813
3760000000.0 0.10678655018214475 -0.13639619411178705
3780000000.0 0.16583486702482886 -0.017929078137699818
3800000000.0 0.15111608593395176 0.00973421934778457
3820000000.0 -0.10219959497753493 0.08541954184459721
3840000000.0 0.1132587798796428 0.018373692637399505
3860000000.0 0.08095762595396155 0.056545689274392914
3880000000.0 -0.027916288580471633 0.0775483892721146
3900000000.0 0.07674659982734539 0.0124007588819227
3920000000.0 0.05659589712348965 0.046034469706319345
3940000000.0 0.049121652677369294 0.03642175645788402
3960000000.0 -0.00214339127653735 -0.05518986127442769
3980000000.0 -0.012771474930770556 0.04325537869066307
4000000000.0 -0.02354361576126475 -0.029238826363505502
