!Created with skrf (http://scikit-rf.org).
# Hz S RI R 50.0 
!freq ReS11 ImS11
400000000.0 -0.6438227760075272 0.522854369683991
420000000.0 0.23669773184806567 -0.7427904276800373
440000000.0 0.6724216278459143 -0.30331190107798894
460000000.0 0.012047547827401623 -0.6595165671872062
480000000.0 -0.06285673119651193 -0.5322673290739551
500000000.0 -0.38889546570621863 0.14397732899333626
520000000.0 -0.43656127764783453 0.07789179020378029
540000000.0 0.46477805728806487 -0.14604060744845165
560000000.0 0.28199614123810585 -0.37401823453420635
580000000.0 0.10584171515662356 0.4013464279596401
600000000.0 -0.2183016687042727 -0.3260940029767506
620000000.0 -0.30224320751509415 -0.20900908780448813
640000000.0 0.34560938760132537 0.08088105096703095
660000000.0 0.35105237980595816 0.00901079562989083
680000000.0 -0.31429011738737667 -0.12310247189432567
700000000.0 -0.36027695426273465 -0.0688379081112872
720000000.0 0.35021774116245963 0.07907058677522671
740000000.0 0.32656699482343704 0.03325064351032251
760000000.0 -0.02621124619710291 -0.31200360137037597
780000000.0 -0.23006752790545704 -0.20404913113667877
800000000.0 0.2608932547387411 0.04866586650100181
820000000.0 -0.14409305008220272 -0.17108475043646862
840000000.0 0.13869120697348813 -0.16588395117379606
860000000.0 0.11929944403836175 -0.16223121769108595
880000000.0 -0.1848638995132084 -0.046196548461012274
900000000.0 -0.1591590471986626 0.011687377465882644
920000000.0 -0.07832141906390633 0.13094999394588488
940000000.0 0.12465932158873436 0.05469298330436967
960000000.0 -0.07588040442591254 0.06989958039262101
980000000.0 -0.04471940115561799 0.045169489105170206
1000000000.0 0.023681916148418507 -0.03176713447392544
1020000000.0 0.04938561524767257 -0.011673391491403392
1040000000.0 0.07693577056335071 -0.03309122842391179
1060000000.0 0.11002330311103564 0.004162820256245124
1080000000.0 -0.15867673637115698 -0.02909220215114877
1100000000.0 -0.015176760087254309 -0.18403441304156185
1120000000.0 -0.02589735358411022 -0.21748625360950505
1140000000.0 -0.25099025011616793 -0.05775163081133803
1160000000.0 0.2480809610083789 0.13114146649489034
1180000000.0 0.2873961209203702 0.10999049232271482
1200000000.0 0.028771723252552478 0.3202295675444713
1220000000.0 0.03509439755600358 0.33088601125734285
1240000000.0 -0.320375860706228 0.09556442657263182
1260000000.0 -0.33588848096143453 0.03376496975082437
1280000000.0 -0.3127681762989438 -0.14313305289607323
1300000000.0 0.23708011277269675 -0.25702965720112064
1320000000.0 0.30764766025413576 0.20545721461248911
1340000000.0 -0.13721924175412353 0.34574561089229344
1360000000.0 -0.22510729979672645 -0.31067653850730786
1380000000.0 0.34482014110009324 -0.15790367100341196
1400000000.0 -0.08861226432062663 -0.36930954288563006
1420000000.0 0.041402552399393916 0.3743687523109591
1440000000.0 0.2840281710148103 0.23120294095753877
1460000000.0 0.32265968164897163 -0.16165887457832392
1480000000.0 -0.01830889623343119 -0.34757769002948297
1500000000.0 0.008721834853853545 0.3373462213084693
1520000000.0 0.08927916908685748 -0.2938014682334758
1540000000.0 -0.22627514901023804 -0.15438174810734853
1560000000.0 0.20860690412401958 0.13528022792890515
1580000000.0 -0.2075212780485011 0.0362697433821842
1600000000.0 0.17701045063070453 0.019809283091829742
1620000000.0 0.07257609476351826 -0.1397682019355647
1640000000.0 -0.011597280832084349 -0.13362412288562556
1660000000.0 0.08538078595387581 -0.06698983704525827
1680000000.0 -0.06521668624593559 0.05770169361760306
1700000000.0 0.06735547594775368 -0.030747793464737976
1720000000.0 0.043482427500812486 0.023432864170279163
1740000000.0 0.02284493380806648 0.04684052801492124
1760000000.0 -0.05812316576687114 -0.015159949900961141
1780000000.0 -0.02916957252192538 -0.08985620555918011
1800000000.0 -0.09299099425162104 0.0837962873744049
1820000000.0 0.04656593747719345 0.15074326305938435
1840000000.0 -0.05042268318971785 0.18359266017175693
1860000000.0 0.07234011712420713 0.20426451979620588
1880000000.0 0.020012794132681026 0.2385104506591639
1900000000.0 0.2368711394319457 -0.12442007749436201
1920000000.0 -0.2856726825314795 -0.020630680091633543
1940000000.0 -0.08552997127692111 0.28461229810379657
1960000000.0 -0.3130758480346378 -0.006211018146778012
1980000000.0 -0.13265161416373802 -0.2856727176411765
2000000000.0 0.29868448163571587 -0.08858624447641932
2020000000.0 0.2504639155460846 0.19120808354546867
2040000000.0 0.13341139316416437 0.28500893397480037
2060000000.0 0.033201322413207245 0.3063827192589371
2080000000.0 -0.3014515488341529 -0.0683917462783537
2100000000.0 0.30757452496006493 -0.028134791207516857
2120000000.0 -0.2952300427864604 0.08886165377754761
2140000000.0 0.12773119184207665 -0.27434381742009223
2160000000.0 -0.1685793090580699 0.24798532710695986
2180000000.0 0.20686701271118485 0.2064649772863052
2200000000.0 0.27983128355867753 0.043704369320396286
2220000000.0 0.27420921547570365 0.014002691908834837
2240000000.0 0.11556556567684004 0.24386989770719972
2260000000.0 -0.1151445393621028 0.2325676627270334
2280000000.0 -0.22145541278997577 -0.11610943118982478
2300000000.0 0.15576159817743593 -0.1813277835423633
2320000000.0 -0.013569696441865217 0.22863003357668543
2340000000.0 0.07721459182936581 -0.20742581729726436
2360000000.0 -0.06395017685129346 0.21306702897739568
2380000000.0 0.08849527137334715 -0.2131244426120801
2400000000.0 -0.10192253350943295 0.22260074767294147
2420000000.0 0.061128998755230264 0.2676565270799315
2440000000.0 -0.009162435997970316 -0.3036963388944863
2460000000.0 -0.0871228324396181 0.32620361676521326
2480000000.0 0.3496360908691325 -0.12550505387225513
2500000000.0 0.08090199291663452 0.4015531367493016
2520000000.0 -0.4392130548537369 -0.0671185665435046
2540000000.0 0.09476549998180131 -0.47324281978689053
2560000000.0 0.2390774089237674 0.45916585131365306
2580000000.0 -0.5298097955633837 -0.14499511573255477
2600000000.0 0.5317368793539256 -0.22618361785526173
2620000000.0 -0.3207733560791654 0.5097310096931207
2640000000.0 -0.042547964488005414 -0.6200491023642444
2660000000.0 0.5364026474715144 0.34476942685757406
2680000000.0 -0.4759530147705365 0.4423907103272335
2700000000.0 -0.5895321473448295 -0.29614488679536005
2720000000.0 -0.21818238260557687 -0.6296751801357635
2740000000.0 0.03793152528860824 -0.6702961530581805
2760000000.0 0.10920180998116906 -0.6620190283270978
2780000000.0 0.6326832102954 0.2119005818477486
2800000000.0 0.5446233470259635 0.3714032129803641
2820000000.0 0.08527527804491324 0.6413064689353803
2840000000.0 -0.6043365432653433 0.19652633295879482
2860000000.0 0.3235877698099719 -0.5311045320481488
2880000000.0 -0.34402603888373284 0.49666827387030704
2900000000.0 0.5853736921587944 -0.04374788380444435
2920000000.0 -0.3764532048835874 -0.42473066844201385
2940000000.0 -0.4666719612600255 0.2732769908726978
2960000000.0 -0.16509807924460923 0.49347179426276205
2980000000.0 0.4680187430052588 0.16350662727365112
3000000000.0 0.2307872066733517 -0.41243403597043343
3020000000.0 -0.419097654620671 -0.16109864235031104
3040000000.0 0.40508838181517776 0.12020929608001696
3060000000.0 -0.19642693973504544 -0.34289432902421213
3080000000.0 -0.07183655745905947 0.3653699903803005
3100000000.0 -0.0705610691922799 -0.34424619759376396
3120000000.0 -0.21374283917130124 -0.26219959447026897
3140000000.0 0.033578515058579936 0.3308663062047439
3160000000.0 -0.1401338914144895 -0.2968249386078638
3180000000.0 0.12054063965179077 0.3000348652326024
3200000000.0 -0.020039168263189893 -0.3174924677576554
3220000000.0 -0.267453539340576 0.15046035502786936
3240000000.0 -0.1664518742558034 0.2445824116340788
3260000000.0 -0.13337843541274022 0.24460461937846859
3280000000.0 -0.24679962752137635 -0.09159749647642657
3300000000.0 0.03444037652725287 -0.24558290239769506
3320000000.0 0.13230928784443632 0.1865071249883258
3340000000.0 -0.18550600859052216 0.09686615659928813
3360000000.0 -0.11149286064028915 -0.14655406184550848
3380000000.0 -0.09653473617292628 0.12181105261360275
3400000000.0 0.12387051775457954 0.037484741155828935
3420000000.0 -0.11359435515099169 0.03709084594695779
3440000000.0 0.01589548795200183 -0.10961052231169542
3460000000.0 -0.025730318779836062 -0.09762987433788727
3480000000.0 -0.04817126869264795 0.07571451657178915
3500000000.0 0.003665894491374033 0.0812461004039458
3520000000.0 0.06539037675906885 -0.033298763407611905
3540000000.0 -0.02152653633665135 0.06495648379382869
3560000000.0 -0.017778700063253394 -0.06842494811700287
3580000000.0 0.041994814714676754 -0.06696496805435294
3600000000.0 -0.07593587435892292 -0.05229940196572606
3620000000.0 0.10159772249159248 0.0013534525395372924
3640000000.0 0.019212628516110455 0.10908712239655113
3660000000.0 0.014577759175512734 0.11369814224059241
3680000000.0 -0.003718753878271496 -0.11255946019005997
3700000000.0 -0.1029025474445374 0.014042912500417611
3720000000.0 0.07167468020816381 -0.05917474921441341
3740000000.0 -0.004784259135651803 -0.08349953799483897
3760000000.0 -0.07677730540574469 0.017981243245490598
3780000000.0 0.06840958393992531 -0.009192990776622077
3800000000.0 -0.03859313299745071 0.022711519502479727
3820000000.0 -0.04217455370485004 0.0021807344614720886
3840000000.0 0.026136497316113415 0.040859752662295176
3860000000.0 0.07441691940479277 -0.003926375504137055
3880000000.0 -0.08892586062222396 0.012288779626109641
3900000000.0 0.00235265726383638 -0.10302034411817881
3920000000.0 -0.07721699834418 0.0715224599468617
3940000000.0 0.094928065862264 0.04690648610050052
3960000000.0 0.04706949524655631 -0.09223882150086718
3980000000.0 -0.0935682503979242 0.021519815232815837
4000000000.0 -0.029333068022148287 0.07885240078686906
