!Created with skrf (http://scikit-rf.org).
# Hz S RI R 50.0 
!freq ReS11 ImS11
400000000.0 -0.8126464116435409 0.016078499009404088
420000000.0 0.5293583062608112 -0.5464415877281432
440000000.0 0.7077471487394799 -0.06465436167189127
460000000.0 -0.5218383418217448 -0.37598928358699124
480000000.0 0.5700283434884789 0.0031207256581629777
500000000.0 0.554801699624972 -0.057335754105678205
520000000.0 0.04588282129976152 0.4692750256374408
540000000.0 0.1922713829987519 -0.3737111401083716
560000000.0 -0.17144549841167345 0.364705527438229
580000000.0 -0.33364793964183637 -0.20942492818083977
600000000.0 0.1856939842483762 -0.3584127437068347
620000000.0 -0.39994571650543803 0.06807103407611982
640000000.0 -0.20840076217976797 0.3433655245026496
660000000.0 0.10893581435573343 0.37808890578995863
680000000.0 0.35242538486214964 0.12890690820306025
700000000.0 -0.3519792379173529 0.09260229776423623
720000000.0 0.011366863753321736 0.3484253455294784
740000000.0 0.31147585376452563 0.10524571582560095
760000000.0 -0.24349358682018446 -0.14041922718556824
780000000.0 -0.02606861834843506 0.29006018346795265
800000000.0 0.15530255383052202 -0.19609749511726027
820000000.0 0.2351643690103286 -0.06687642458762952
840000000.0 -0.16108659267691278 0.14562952639598384
860000000.0 -0.1461700419810455 -0.13838899065409987
880000000.0 0.1816619327080141 0.07232965651991823
900000000.0 0.04994585838104234 0.15140663845597863
920000000.0 0.1276546835325045 0.016315135635223844
940000000.0 -0.03775448502187585 0.11152359358386463
960000000.0 0.06276438789458702 0.02454820273776831
980000000.0 -0.061842383441410916 -0.006532746037356458
1000000000.0 -0.030426236053604925 0.047206140511282885
1020000000.0 0.003928804639365226 0.030912578829467994
1040000000.0 0.024770231373261672 0.05393806502411273
1060000000.0 -0.09142511945395485 0.04332171552525295
1080000000.0 0.02499904185751589 0.1261836844469375
1100000000.0 -0.18643002559854205 0.04471042133763652
1120000000.0 -0.08462890565980653 -0.2002682525604874
1140000000.0 0.040455679160097575 0.24329533659684388
1160000000.0 0.27879308250090556 -0.0008427303127474343
1180000000.0 -0.04980425962324616 0.2802406065095385
1200000000.0 0.23184455663000397 -0.19200099548028518
1220000000.0 0.3021982699325457 0.11748452016975344
1240000000.0 0.009813647989768722 0.344549496798617
1260000000.0 0.1897598645172792 -0.2783738070283745
1280000000.0 0.33770918679574397 0.036406723423166566
1300000000.0 0.3493577010916751 0.02419931083858448
1320000000.0 0.09546230566425372 0.3470010078854345
1340000000.0 -0.16407666128057535 -0.32611157574344946
1360000000.0 0.1315684661923081 -0.34628983579468975
1380000000.0 -0.3688418303584072 0.020610082166512143
1400000000.0 -0.15239191216045803 0.3467374149093805
1420000000.0 0.3708809832168769 0.0069405194332092515
1440000000.0 0.031132232038541697 -0.37598133108749077
1460000000.0 -0.36535491197082254 0.06749263167847203
1480000000.0 0.2747497889799568 0.23491273430887233
1500000000.0 0.3252027128117217 0.049343406433399156
1520000000.0 -0.09983416445434849 -0.296195736106
1540000000.0 -0.28210726912345857 0.010508497634579136
1560000000.0 -0.09903616890109629 0.24272793266501497
1580000000.0 -0.151484904494114 -0.16015426144023567
1600000000.0 -0.08355363266340723 0.18115332029726477
1620000000.0 -0.09340706269802883 -0.134023529281526
1640000000.0 -0.08825965160557915 -0.10641737987851523
1660000000.0 0.09761408985454458 -0.052775272861441395
1680000000.0 -0.08225843062475856 -0.05445325283987201
1700000000.0 0.07391366899225903 0.026166420641906194
1720000000.0 0.069895000484391 -0.010010741665483196
1740000000.0 0.027804504686706217 -0.05860820863763069
1760000000.0 -0.034420512049705726 -0.07090602935504725
1780000000.0 0.10569384504264126 0.022324802331023387
1800000000.0 -0.09972450944213118 -0.09931997831813487
1820000000.0 0.031318305787009525 -0.1603962817367413
1840000000.0 0.02312828194956218 -0.20694189786484035
1860000000.0 0.10694748725361647 0.21380902027132145
1880000000.0 0.26577947997779244 -0.028024708033922756
1900000000.0 -0.2932663218530129 -0.029010776063390982
1920000000.0 0.28700284150329713 0.06839208526516205
1940000000.0 0.18619640447328362 -0.25287044301906564
1960000000.0 -0.30668463410392843 0.06928932045274674
1980000000.0 0.3116263822571109 -0.08840062743236779
2000000000.0 0.12100625134616765 0.2970376449490253
2020000000.0 -0.0451085030913383 0.3126800531894503
2040000000.0 0.0695905785405213 -0.2968149163350529
2060000000.0 0.29331425114729065 -0.11415932130664534
2080000000.0 -0.2854379555505389 -0.12895866286945776
2100000000.0 0.19950435842043399 0.22659900657216983
2120000000.0 0.02798212136297452 -0.2975265567550874
2140000000.0 0.1253041106863224 0.26790466831938275
2160000000.0 0.13551587360882378 -0.23753392091130202
2180000000.0 0.008287000880065402 -0.27829762564834754
2200000000.0 -0.2511880800004688 -0.08672218131654877
2220000000.0 0.08348644779064845 -0.24423787041704073
2240000000.0 0.12719328588776588 -0.212219066430962
2260000000.0 0.22827652750556576 -0.08436550270530806
2280000000.0 0.11248280942299434 0.18498627623112943
2300000000.0 -0.16249363578505416 -0.11867003286802333
2320000000.0 0.1890948410563253 -0.009358095087378187
2340000000.0 -0.017523162103577922 -0.17236337077515618
2360000000.0 -0.11516182995024309 0.12271783752413157
2380000000.0 0.073149798772765 0.16033103335893734
2400000000.0 -0.18486941443446553 -0.02618046025495671
2420000000.0 0.05840328505086923 0.19525081840492284
2440000000.0 -0.2043682207332408 -0.10200567378880102
2460000000.0 -0.10320223791647946 -0.23201904867153067
2480000000.0 0.21736130085989566 0.18098991393185185
2500000000.0 0.30425973027413195 0.0755148893460491
2520000000.0 0.05858798649073935 0.3365461924701776
2540000000.0 0.10039376494310248 0.3623455844780496
2560000000.0 -0.36229900273442406 0.16940309150081595
2580000000.0 -0.19034725572927771 -0.37226167104911484
2600000000.0 0.4361897100148938 -0.03773147419627132
2620000000.0 -0.026627195730201468 0.4522340435914751
2640000000.0 -0.45956355875231575 -0.03818893759095544
2660000000.0 -0.024419143880015464 -0.46789533144131973
2680000000.0 0.30065632489626876 -0.36287992440260564
2700000000.0 0.42990064125070626 -0.2023281081824073
2720000000.0 0.3737835343451678 -0.2996726684305634
2740000000.0 0.33622337365610594 -0.3475535188388423
2760000000.0 0.24984741655976214 -0.42152281971622685
2780000000.0 0.28306410031203477 0.40499669921127107
2800000000.0 -0.05855877750883029 0.4961533259663571
2820000000.0 -0.5029321601034893 0.030817436393729487
2840000000.0 0.31224133015169214 -0.3998202422018965
2860000000.0 -0.3097240838201267 0.4043784108260788
2880000000.0 0.5084031665679637 -0.032659231762503224
2900000000.0 -0.2372282694371754 -0.44576956414259516
2920000000.0 -0.4265636354405038 0.2562869295609441
2940000000.0 0.18773613443015819 0.45086577866425454
2960000000.0 0.4466290775539132 -0.16888574206561816
2980000000.0 -0.19798430236732342 -0.41803831325780394
3000000000.0 -0.3140727834677083 0.3170927733882926
3020000000.0 0.42610828032434206 -0.06060632113197236
3040000000.0 -0.22018345160279462 -0.3537579826336916
3060000000.0 0.23335325654870298 0.3316399124962884
3080000000.0 -0.13142824893838284 -0.3712490806719321
3100000000.0 -0.3771940325116525 -0.07645078591875026
3120000000.0 0.27673395837975273 0.2618657018681377
3140000000.0 -0.06920652211993326 -0.3740651737338929
3160000000.0 -0.3441681676438618 0.1601457253294135
3180000000.0 0.25508968920094444 0.28157060186839483
3200000000.0 0.3661330594705377 0.07748073489190692
3220000000.0 0.36015913476979833 0.08067105743278323
3240000000.0 0.3554094675033828 -0.09564195552722611
3260000000.0 0.3177496294319348 0.15655754748146256
3280000000.0 -0.05096559596214815 0.3340736347302909
3300000000.0 -0.3099500940123459 0.07191347429165042
3320000000.0 -0.039777697525178714 -0.2992490695168392
3340000000.0 0.10757859977637206 0.2636469242369384
3360000000.0 -0.24155703316052704 -0.10034186621251145
3380000000.0 0.12192962634979941 -0.20637925863335735
3400000000.0 -0.07347953049076986 0.2106109695364886
3420000000.0 -0.05493348814665194 -0.20338945513648762
3440000000.0 -0.0030622880397747324 0.1992798761115429
3460000000.0 0.012135148614813915 0.1867272660332432
3480000000.0 0.14025092391322294 0.11035210085720194
3500000000.0 -0.16805637344900937 -0.04206384605168594
3520000000.0 0.10436102024885274 0.13389138532176614
3540000000.0 0.07978504121817209 -0.1471150116594154
3560000000.0 0.030440379961570434 -0.16857881024914134
3580000000.0 0.17517874614068285 0.022126133379663744
3600000000.0 0.1772605520846375 -0.03273285052765944
3620000000.0 -0.03993410537840457 0.18238938982890185
3640000000.0 -0.18980879216994728 0.0473054392017909
3660000000.0 0.1795233010583354 -0.0975157728454992
3680000000.0 -0.01835730882773938 0.19865247896559873
3700000000.0 0.14202615282042858 -0.1397575507345615
3720000000.0 -0.09391655332245159 -0.16477552761855588
3740000000.0 0.13586413304453043 -0.122840472522455
3760000000.0 0.12324476317313827 -0.12245202131893425
3780000000.0 0.09643116861997675 -0.1345629753471774
3800000000.0 0.12685170058657433 0.07993141639501046
3820000000.0 -0.12320378192633354 0.05361264561586862
3840000000.0 0.10290038555836271 0.051296318808449495
3860000000.0 0.08919076975892104 0.037778049304136856
3880000000.0 -0.07834639826310695 0.02448638886041641
3900000000.0 0.0691454843355022 0.030975405962174286
3920000000.0 -0.024785888911102703 0.06633954043638308
3940000000.0 0.049585361440962455 0.034456530564540976
3960000000.0 -0.018524338513354513 -0.0499224052876558
3980000000.0 0.03343647540473316 -0.027443020863076827
4000000000.0 0.011414789788732251 0.03499329795318429
