!Created with skrf (http://scikit-rf.org).
# Hz S RI R 50.0 
!freq ReS11 ImS11
400000000.0 -0.807522441760846 -0.10099853635630086
420000000.0 0.5056155483556456 -0.5688316558052026
440000000.0 0.7068318789539618 -0.0766120684785278
460000000.0 -0.5208437832213374 -0.37764801737586656
480000000.0 0.5679637397905287 -0.05422707557836145
500000000.0 0.5501729586679521 -0.08557056761027237
520000000.0 -0.009400551256267828 0.4706341566281104
540000000.0 0.2358070556584055 -0.3484329601722406
560000000.0 -0.18497331168690978 0.35873722049264806
580000000.0 -0.3537525668401834 -0.1733627146395528
600000000.0 0.17417341250189436 -0.363872741855282
620000000.0 -0.3950146777655851 0.08893919757750324
640000000.0 -0.18570495044075053 0.3560854782068787
660000000.0 0.1288728593409885 0.37172176229929393
680000000.0 0.349319801152085 0.13665713721023212
700000000.0 -0.3515726908294882 0.0938890302207595
720000000.0 -0.0028450504486298104 0.3482956284603678
740000000.0 0.3147659225434059 0.0940338138345542
760000000.0 -0.24242535804465218 -0.14219569943624152
780000000.0 -0.04657802647333345 0.28751240751571433
800000000.0 0.16180468736904316 -0.1905177816749621
820000000.0 0.2320401782513912 -0.07640186110835458
840000000.0 -0.15732661274114088 0.14906347633897085
860000000.0 -0.15439680108941733 -0.12899397884692887
880000000.0 0.1875524262889518 0.055883022874983417
900000000.0 0.0553797043627102 0.14970664231716102
920000000.0 0.12680378914003151 0.02251646587587385
940000000.0 -0.0367475751441745 0.11165588354879576
960000000.0 0.06498010018448187 0.01713578401506839
980000000.0 -0.06199342659182009 -0.001530200099136739
1000000000.0 -0.03342154883680842 0.04488542946223352
1020000000.0 0.017478316340689387 0.025790595236948148
1040000000.0 0.016297069747178476 0.05737639887530309
1060000000.0 -0.09215918753000224 0.041963358683065645
1080000000.0 0.016975831291380753 0.12768117622271516
1100000000.0 -0.1852168068416028 0.04949292220157061
1120000000.0 -0.07503766773607161 -0.20406938413601278
1140000000.0 0.0005089077596125287 0.24637701622356242
1160000000.0 0.2788922618146431 0.00524529261051732
1180000000.0 -0.048789604136281924 0.28029415065292707
1200000000.0 0.23391793243200884 -0.18935787022583564
1220000000.0 0.30532126331537385 0.10863019124505993
1240000000.0 0.018379169799381884 0.3443015345931603
1260000000.0 0.1828284362581799 -0.2831421229545357
1280000000.0 0.33781059603180985 0.036344568374640236
1300000000.0 0.3469543910975045 0.04699679869267861
1320000000.0 0.11826194072771791 0.33967421661281383
1340000000.0 -0.14629772931861149 -0.33485133009777257
1360000000.0 0.13075604922449302 -0.34652102366774495
1380000000.0 -0.3648099223794735 0.057900021764296934
1400000000.0 -0.12949562176614327 0.3559774714691593
1420000000.0 0.36913732413646494 -0.037156298863160554
1440000000.0 0.025621632773279498 -0.37625937040398283
1460000000.0 -0.3659888029867276 0.06303645591259793
1480000000.0 0.20899556888963897 0.2959969380172045
1500000000.0 0.32165920039205276 0.06837403678410485
1520000000.0 -0.1230198389442679 -0.2874977258812072
1540000000.0 -0.28237388716651607 -0.0058419220152614495
1560000000.0 -0.08722761652594233 0.24722372906802242
1580000000.0 -0.15981074782511218 -0.15210715133627378
1600000000.0 -0.07667182718317564 0.18425926065598494
1620000000.0 -0.10276724984715079 -0.1265524878341838
1640000000.0 -0.07553601549635036 -0.11579654599125046
1660000000.0 0.09801685592996343 -0.05171354975373705
1680000000.0 -0.09288923048147027 -0.03412297642686115
1700000000.0 0.06835105034541275 0.03811782952953938
1720000000.0 0.05807119160186699 -0.039390611622056676
1740000000.0 0.04035210921288873 -0.050617905550147904
1760000000.0 -0.0518732150128352 -0.059411211383363055
1780000000.0 0.10591978789555667 0.020852032245574394
1800000000.0 -0.07436615698235825 -0.11941425745949774
1820000000.0 0.016072742897708017 -0.16286507274529916
1840000000.0 0.00826491254294691 -0.20809604306503757
1860000000.0 0.11668966283850284 0.20873803818548275
1880000000.0 0.265107737741371 -0.0352064529392258
1900000000.0 -0.2932329433601879 -0.031119930578471202
1920000000.0 0.28556893335734057 0.07496690938243135
1940000000.0 0.1970359897215885 -0.2446311444272693
1960000000.0 -0.3095000002276853 0.05546764366105404
1980000000.0 0.31394581491371715 -0.07850180202884685
2000000000.0 0.07908348362824374 0.31108312245443454
2020000000.0 -0.04390844303354309 0.3126157619020101
2040000000.0 0.05706898019781145 -0.2993640545787259
2060000000.0 0.2712502949927402 -0.15908169553036394
2080000000.0 -0.26050569266447327 -0.1743882368396546
2100000000.0 0.21356989933236376 0.21344576869281306
2120000000.0 0.049808394147542484 -0.2949642351620522
2140000000.0 0.11113219253097566 0.2739723727527898
2160000000.0 0.13210767353412978 -0.239637416134641
2180000000.0 0.019991269750224104 -0.277743346867697
2200000000.0 -0.2429186273474287 -0.10777729334669402
2220000000.0 0.08419353307453852 -0.2439888398203479
2240000000.0 0.12652170254038755 -0.21251609487390866
2260000000.0 0.23101667762371506 -0.07547936257651926
2280000000.0 0.12219785778947859 0.17844103986066517
2300000000.0 -0.16831720780592058 -0.11040035484905833
2320000000.0 0.18740697681826599 -0.025623219361670065
2340000000.0 -0.023114652686855197 -0.17188564572450052
2360000000.0 -0.11340164898745211 0.12449376797699356
2380000000.0 0.07392749261471314 0.16016821608617457
2400000000.0 -0.18377566572124263 -0.03459808563444753
2420000000.0 0.08132261004217331 0.18684291736356742
2440000000.0 -0.19465972494038475 -0.1195828627387972
2460000000.0 -0.10266179661802691 -0.23246300062348274
2480000000.0 0.2090651058162829 0.19070427387315633
2500000000.0 0.3097395377110593 0.049977099949163065
2520000000.0 0.06730060487319238 0.3347660801799024
2540000000.0 0.10483566449107883 0.36081920265587664
2560000000.0 -0.3568331815024324 0.18013163958984113
2580000000.0 -0.18072031524179638 -0.3766142643116829
2600000000.0 0.43285172515060855 -0.06423819390186387
2620000000.0 -0.002259047414357686 0.4533355290862745
2640000000.0 -0.4605996739962975 -0.027655946580259518
2660000000.0 -0.04487148697313619 -0.4663733441395311
2680000000.0 0.33251271656865217 -0.3339913199956145
2700000000.0 0.4336757421557907 -0.19431355944981019
2720000000.0 0.38417002977724507 -0.28603347855736794
2740000000.0 0.3114411340836364 -0.36988734218763814
2760000000.0 0.2323104550561549 -0.431408540729011
2780000000.0 0.3076465931627785 0.38649177980996774
2800000000.0 -0.05562556356675373 0.49625719070326685
2820000000.0 -0.5018750938891895 0.04491237341383353
2840000000.0 0.3375371745368827 -0.379134402192231
2860000000.0 -0.2939503576549678 0.41612647747182563
2880000000.0 0.5051750693008353 -0.0669394434512596
2900000000.0 -0.22696293203441453 -0.4514721761107408
2920000000.0 -0.4403937411073323 0.23269231009861943
2940000000.0 0.14142710756972296 0.468006637455061
2960000000.0 0.4412228227660029 -0.18176673700478913
2980000000.0 -0.20550189122679047 -0.41449502554936746
3000000000.0 -0.340921038973961 0.288830844604434
3020000000.0 0.4299708083618499 0.031480813766762046
3040000000.0 -0.13237207457858566 -0.39542260122497624
3060000000.0 0.2389634530418603 0.3277393383040386
3080000000.0 -0.12785759250137926 -0.3725284502245704
3100000000.0 -0.38031123231489944 -0.06072475558801316
3120000000.0 0.2707742258579533 0.2683287057549103
3140000000.0 -0.08957365722599372 -0.37026602004573334
3160000000.0 -0.34619678770341755 0.1559251249343771
3180000000.0 0.25148830077980094 0.28504215391958654
3200000000.0 0.3637052531735703 0.08876128884351119
3220000000.0 0.36063030477261954 0.07436678692917008
3240000000.0 0.35075746340741026 -0.11024862384110523
3260000000.0 0.3060477807606228 0.17909503372663232
3280000000.0 -0.03250164452064322 0.33482319144193406
3300000000.0 -0.3167069119588619 0.03533735673121885
3320000000.0 -0.016809651608933 -0.30131311254424636
3340000000.0 0.1092821449346052 0.2628376120374389
3360000000.0 -0.2402342873110378 -0.10252092996523693
3380000000.0 0.1463333791964307 -0.18973910805143646
3400000000.0 0.0225161261879125 0.22173005014010438
3420000000.0 -0.08909403568156893 -0.19106225327676282
3440000000.0 0.015972957034494077 0.19845349452068645
3460000000.0 0.0455672560679076 0.1817289621305844
3480000000.0 0.14401743964797992 0.10563036752322724
3500000000.0 -0.17040349540992974 -0.03200040261208336
3520000000.0 0.0975033221704432 0.13955614203240374
3540000000.0 0.09961801523642243 -0.13447879265374052
3560000000.0 0.03478036937636807 -0.16807249123890194
3580000000.0 0.1724335526880068 0.040150266704576
3600000000.0 0.17841776351344077 -0.028760328040600153
3620000000.0 -0.036169408017637544 0.18271882025613467
3640000000.0 -0.19531998220280322 0.020858419957701185
3660000000.0 0.187490197989774 -0.08199157866373923
3680000000.0 -0.021660626829466404 0.198627978769122
3700000000.0 0.15811239162720328 -0.12196085934403571
3720000000.0 -0.0941468810262905 -0.1647718344094721
3740000000.0 0.13943744580520362 -0.11856631833302608
3760000000.0 0.12961311572016768 -0.11570402551497852
3780000000.0 0.07558451447061088 -0.14765616684764865
3800000000.0 0.1307046242118888 0.07342094697290173
3820000000.0 -0.11196762442504314 0.07473370106443138
3840000000.0 0.07812020306932681 0.08392500491666653
3860000000.0 0.08439973283282763 0.047994054869232604
3880000000.0 -0.08251865444007044 0.0008393016714096508
3900000000.0 0.06334881194482656 0.04213483520638696
3920000000.0 -0.0515211992181362 0.04882986582290693
3940000000.0 0.02511419236460727 0.05501125870714636
3960000000.0 0.004768194245168492 -0.05292891283150872
3980000000.0 0.03832634884366901 -0.019677058945542673
4000000000.0 0.007049397700046848 0.03600766556158938
