!Created with skrf (http://scikit-rf.org).
# Hz S RI R 50.0 
!freq ReS11 ImS11
400000000.0 -0.810346084038856 0.06164554946740851
420000000.0 0.5074653837129489 -0.5670336293331092
440000000.0 0.6995294096256661 -0.12202763278742279
460000000.0 -0.5012747980084137 -0.40215414813849043
480000000.0 0.553989821434949 0.1314564963883492
500000000.0 0.5561318391973828 -0.07133942628900582
520000000.0 0.08066058308247419 0.46401690202605617
540000000.0 0.1620361399845631 -0.3854421455430267
560000000.0 -0.25410170155283973 0.31353909977483235
580000000.0 -0.3434108137418791 -0.1935263225543585
600000000.0 0.1748832224786763 -0.3637016934008215
620000000.0 -0.368311012873701 0.16953525614163895
640000000.0 -0.1599249404608424 0.36814160008653884
660000000.0 0.11279428187511494 0.37648329145825615
680000000.0 0.3560658104345529 0.1184303712838016
700000000.0 -0.35594295106221824 0.07666228464719793
720000000.0 0.08581744701484029 0.33762118929616997
740000000.0 0.3238882957954198 0.05386015756558957
760000000.0 -0.22960601744734954 -0.16009596635953585
780000000.0 -0.014463121892955002 0.2926258332254028
800000000.0 0.15351182472479097 -0.1974360494636868
820000000.0 0.2419823698245371 -0.03967840539411379
840000000.0 -0.14020961321205308 0.165812539635708
860000000.0 -0.13963540492789564 -0.1448108801222614
880000000.0 0.18241324160617825 0.06861297409090901
900000000.0 0.06524229437163215 0.14606050419584532
920000000.0 0.1275364213392517 0.01574588303390033
940000000.0 -0.04141968745236939 0.1096426067822266
960000000.0 0.062446010621479246 0.023904635018022626
980000000.0 -0.05856574809920834 0.021799644836515926
1000000000.0 -0.0494536543976371 0.025891970092945985
1020000000.0 0.020034685114693508 0.02418202715028043
1040000000.0 0.04202739878854109 0.041742744560375446
1060000000.0 -0.10111440183808168 0.006603330620818135
1080000000.0 0.047336877553026006 0.11960656029137894
1100000000.0 -0.19150965630522482 0.006103673556271643
1120000000.0 -0.0695466319863697 -0.20623596923938847
1140000000.0 0.07861174136857106 0.23351514416912447
1160000000.0 0.2790479708162716 0.0008943648761743683
1180000000.0 -0.06364104180030856 0.2773905412299781
1200000000.0 0.24487821831211254 -0.1760274015098665
1220000000.0 0.3076579312605525 0.10149615177477903
1240000000.0 0.00016879639875958587 0.34477412185103673
1260000000.0 0.18183100947292857 -0.28363093981015886
1280000000.0 0.33553604961553984 0.05177243025660955
1300000000.0 0.34784398619074824 0.036346510547807916
1320000000.0 0.11128685240414665 0.3422803571833974
1340000000.0 -0.18962728480942415 -0.31129371872128
1360000000.0 0.14058435021402904 -0.34261969617091786
1380000000.0 -0.36575570179616246 0.04924881973183866
1400000000.0 -0.10184722001751437 0.364947314009633
1420000000.0 0.3707104993006787 0.012731520036011825
1440000000.0 0.033391589438481264 -0.3762323958246007
1460000000.0 -0.359722732000978 0.08991512868978539
1480000000.0 0.20544990629913407 0.29814031808045766
1500000000.0 0.32346543052765964 0.05905167010142887
1520000000.0 -0.08792338068817405 -0.2997640441619609
1540000000.0 -0.2820764988337314 -0.014656639793824243
1560000000.0 -0.0925163895495613 0.24494516491000284
1580000000.0 -0.18080695224918983 -0.1255357791679447
1600000000.0 -0.13105828778193776 0.15024870423267328
1620000000.0 -0.13408470437608913 -0.09336166828344437
1640000000.0 -0.07910015721896907 -0.11265720873237213
1660000000.0 0.09188843382298575 -0.061937030431860655
1680000000.0 -0.09354787712818025 -0.032170256945874345
1700000000.0 0.065198922455226 0.04348048304608429
1720000000.0 0.06682701318014556 -0.022259725696514392
1740000000.0 0.019367129881811173 -0.06231456086499358
1760000000.0 0.003031619198761088 -0.07857816424673447
1780000000.0 0.10798075356855664 -0.004502221292497266
1800000000.0 -0.06386737231832872 -0.12542215176095856
1820000000.0 0.024497877521327916 -0.16187162809723218
1840000000.0 0.01993942054525145 -0.20740709597832324
1860000000.0 0.09842921048602007 0.21800673583028685
1880000000.0 0.26678171533131384 -0.0012799032862049037
1900000000.0 -0.2948723196021535 -0.022054187419004345
1920000000.0 0.28022233170105953 0.09239978495468654
1940000000.0 0.19948503853255486 -0.24213850441254756
1960000000.0 -0.3066577401774089 0.06867407445038808
1980000000.0 0.30767997379320616 -0.10160445830403007
2000000000.0 0.11362216594795284 0.29983019919263154
2020000000.0 -0.007118315717773815 0.3159047427053478
2040000000.0 0.06580089645463007 -0.29734353354765247
2060000000.0 0.26776151713878094 -0.16521225572323028
2080000000.0 -0.28928573679404557 -0.12218927766994543
2100000000.0 0.21741296196376944 0.20833518539294046
2120000000.0 0.052035031506366396 -0.2947238644831853
2140000000.0 0.12748368336462126 0.2665661544068887
2160000000.0 0.16222184187798666 -0.22032077187913995
2180000000.0 -0.004224017730764125 -0.27928009052847075
2200000000.0 -0.2360330278568251 -0.12099705761959509
2220000000.0 0.07519184311759969 -0.24711057730509547
2240000000.0 0.13134678059495883 -0.20977286490134794
2260000000.0 0.224459055164075 -0.09488697237859677
2280000000.0 0.11634823039784545 0.18144078833046545
2300000000.0 -0.15930706078960433 -0.12344604283358324
2320000000.0 0.18854572568260006 0.01061602610304136
2340000000.0 -0.03686412881745946 -0.1700151577736384
2360000000.0 -0.1265547875258857 0.11150636604327165
2380000000.0 0.08113095446507258 0.1554887250192075
2400000000.0 -0.16035954682120904 -0.09611894176334279
2420000000.0 0.07468090977906942 0.19105459041396472
2440000000.0 -0.2217677850417424 -0.051832793861224066
2460000000.0 -0.07343788680154756 -0.24285021105945867
2480000000.0 0.18377592211622157 0.2146715704144209
2500000000.0 0.3126002948538293 0.03664909591729529
2520000000.0 0.07852632524248948 0.3326404789632183
2540000000.0 0.10296917829739677 0.3614148945825152
2560000000.0 -0.3559298595531719 0.18198609430674226
2580000000.0 -0.1511078263444952 -0.38968241939796766
2600000000.0 0.43616741676390147 -0.041050258807521035
2620000000.0 -0.04312479814700196 0.45161695075154035
2640000000.0 -0.4607150265258717 -0.013323398335918262
2660000000.0 -0.018817549984272645 -0.46795118400078517
2680000000.0 0.348297098351007 -0.31725616859625194
2700000000.0 0.443365504225806 -0.17068457876243928
2720000000.0 0.3897062846752622 -0.27905193843331255
2740000000.0 0.2894444224248945 -0.3875669688325926
2760000000.0 0.2577585977853477 -0.41665616232293534
2780000000.0 0.2907603968129021 0.39951162287993147
2800000000.0 -0.04715970950226794 0.49737977724962834
2820000000.0 -0.5028175296255304 0.03656623135211131
2840000000.0 0.29797487133594946 -0.41087395403444427
2860000000.0 -0.35991346254727874 0.3607209868054106
2880000000.0 0.5052238480987402 -0.06672337343311005
2900000000.0 -0.22724153294561555 -0.4509987343726229
2920000000.0 -0.4452820070032214 0.22215325053359722
2940000000.0 0.17427250823106205 0.45667866520133243
2960000000.0 0.43563046962784713 -0.19441823453785587
2980000000.0 -0.20863691070772625 -0.41268734897957426
3000000000.0 -0.3268707080145812 0.30409782534110374
3020000000.0 0.43052486334427775 -0.019451641989991438
3040000000.0 -0.21530580022709264 -0.356742590453546
3060000000.0 0.25283928809877465 0.31767184505550966
3080000000.0 -0.14968022778929663 -0.3639208374421803
3100000000.0 -0.35129588572843057 -0.15631773591776596
3120000000.0 0.3036398335978441 0.23141665933588657
3140000000.0 -0.0947746870037623 -0.3683057015112431
3160000000.0 -0.3470590712422998 0.15294964372298275
3180000000.0 0.27908323577407934 0.257578043009858
3200000000.0 0.3702661784673419 0.054225169577792526
3220000000.0 0.3639956655739898 0.061110575448403294
3240000000.0 0.34465234671131145 -0.12970550872180825
3260000000.0 0.3303218650904994 0.12889300681013302
3280000000.0 -0.06772764716723172 0.3314461919228352
3300000000.0 -0.3100200463091494 0.0735259639167935
3320000000.0 -0.08771524859266257 -0.28902663838207643
3340000000.0 0.07565723309555145 0.27509593049705333
3360000000.0 -0.23582946339461947 -0.11517082070261861
3380000000.0 0.16502231856006036 -0.1748605136131594
3400000000.0 -0.1139143497451934 0.19245417160814907
3420000000.0 -0.06314488184612453 -0.2016002209060206
3440000000.0 -0.024919319556943265 0.19759744275943789
3460000000.0 0.03096629526799914 0.1853766737858873
3480000000.0 0.10394753003472555 0.1444239987676183
3500000000.0 -0.15519291394781004 -0.07597510622045259
3520000000.0 0.09118162957508034 0.14306918603546262
3540000000.0 0.10054207331773943 -0.133600990049133
3560000000.0 -0.00028342139717198395 -0.17095556001061896
3580000000.0 0.17473122444045977 0.018355625581536254
3600000000.0 0.17518532480972906 -0.04149981203676347
3620000000.0 -0.017576227822247586 0.1856562163721185
3640000000.0 -0.18676224239155623 0.059623789335298376
3660000000.0 0.15522165736243448 -0.1340661271633828
3680000000.0 -0.006061847985216915 0.19935574227236394
3700000000.0 0.14679488623889023 -0.13549514994628004
3720000000.0 -0.11720309987728361 -0.1499908765247048
3740000000.0 0.1492161712025869 -0.10700642344598246
3760000000.0 0.0942638236314197 -0.14582210457261924
3780000000.0 0.1166789063808844 -0.11839307586613289
3800000000.0 0.12652577862469394 0.08050272416620774
3820000000.0 -0.1343166134986434 0.005717634200704944
3840000000.0 0.10237511961041018 0.05275813632540005
3860000000.0 0.08490622912762517 0.0474792878122419
3880000000.0 -0.07956733461895557 -0.018296900115473018
3900000000.0 0.04848115393375652 0.058960122087846456
3920000000.0 -0.06242178609906097 0.03491509190828576
3940000000.0 0.05017577670459081 0.03242408412672495
3960000000.0 0.022508548883933242 -0.047917168073448466
3980000000.0 0.04165062246495961 0.010851408716014616
4000000000.0 -0.026331860803821914 -0.024726477839341978
