!Created with skrf (http://scikit-rf.org).
# Hz S RI R 50.0 
!freq ReS11 ImS11
400000000.0 -0.8079517108085073 -0.09750126161193176
420000000.0 0.500243535620985 -0.573585536943655
440000000.0 0.7068457907716624 -0.0771215484509255
460000000.0 -0.5238459892208515 -0.373128629740307
480000000.0 0.5675080274283842 -0.05773545251474658
500000000.0 0.5491171001461992 -0.09143511173509565
520000000.0 -0.014797524158919068 0.47063072184207155
540000000.0 0.22979280259243273 -0.3524159471197177
560000000.0 -0.19680769334945714 0.35231619228697875
580000000.0 -0.351199371274482 -0.17890826642303653
600000000.0 0.16767451145536655 -0.3669121844392613
620000000.0 -0.39693644409582024 0.08151106034564894
640000000.0 -0.19975399405570216 0.34856361301906913
660000000.0 0.11498270357506012 0.3763244560304899
680000000.0 0.34374837710367684 0.15009703299470986
700000000.0 -0.3530267336180623 0.08740204307744807
720000000.0 0.010070037326187161 0.3482293748726362
740000000.0 0.3109743685090015 0.1065752052330601
760000000.0 -0.23984885020298977 -0.14644829224885694
780000000.0 -0.05632029785121983 0.2861174555488991
800000000.0 0.15627812510710523 -0.19521898565927456
820000000.0 0.23147700541089594 -0.07918529630087126
840000000.0 -0.16078865476413748 0.14574429135824643
860000000.0 -0.14616605481095618 -0.13838226751685923
880000000.0 0.18256561503718827 0.06966350826723143
900000000.0 0.035459054918826914 0.15538820837275705
920000000.0 0.12782808230417134 0.012419673426808992
940000000.0 -0.04527220430611479 0.10834004425013351
960000000.0 0.06278164904879231 0.024337286907231415
980000000.0 -0.062123738062064775 0.000579185706012308
1000000000.0 -0.03144397786377079 0.04639802766059579
1020000000.0 0.006813037250034919 0.03036699922735777
1040000000.0 0.022446515627569896 0.05520726423032303
1060000000.0 -0.09080110810092999 0.04447569904016773
1080000000.0 0.02038189699763553 0.12707304395722968
1100000000.0 -0.1864003378894391 0.045061851202809554
1120000000.0 -0.06735193998642626 -0.20654030936723225
1140000000.0 0.044724577930196616 0.24247380269812613
1160000000.0 0.2788829778975138 -0.002283900176127268
1180000000.0 -0.056330355628029245 0.2788788362840852
1200000000.0 0.23004497099837543 -0.19418141889921348
1220000000.0 0.30197033359870656 0.11845692104961017
1240000000.0 0.009109049800102133 0.3445533297723261
1260000000.0 0.19155505487763674 -0.2773316057435735
1280000000.0 0.33759074856455296 0.03721754420786889
1300000000.0 0.34849033493820236 0.03357620128369439
1320000000.0 0.09875183882775403 0.34578025259433387
1340000000.0 -0.14960305726068052 -0.33303655431056645
1360000000.0 0.10643674371678029 -0.35468523128175666
1380000000.0 -0.36668064688448926 0.04339146676729182
1400000000.0 -0.15499884179746803 0.34561933564291586
1420000000.0 0.3705064467215087 -0.022618475042285594
1440000000.0 0.05029507288918044 -0.37375145305567253
1460000000.0 -0.3657019508292442 0.06507899560717406
1480000000.0 0.2700465978459076 0.24036501626648762
1500000000.0 0.32214724374645454 0.06627878448322323
1520000000.0 -0.09870361111090782 -0.2966511476471053
1540000000.0 -0.2822897168397531 0.008317857269765094
1560000000.0 -0.09103223902420965 0.24581492525035412
1580000000.0 -0.15775916090839265 -0.1540346454876928
1600000000.0 -0.07777482922053616 0.18367732222666536
1620000000.0 -0.09793715310965544 -0.13070226997171733
1640000000.0 -0.09265774443992789 -0.10218251315631642
1660000000.0 0.10230304904497538 -0.043437662138660856
1680000000.0 -0.08247811767228941 -0.053788308138433695
1700000000.0 0.07458753920541947 0.024754998464966482
1720000000.0 0.06457142245267716 -0.027999285880200887
1740000000.0 0.05250232843342541 -0.03806131673755907
1760000000.0 -0.05971954821705108 -0.05143447065054862
1780000000.0 0.10492666664545576 0.02543391462613262
1800000000.0 -0.08365570645773805 -0.11308561281286035
1820000000.0 0.019768003601470584 -0.1622533512240922
1840000000.0 0.019674555818993734 -0.2071905605402643
1860000000.0 0.09499840549422488 0.21924828068114954
1880000000.0 0.2662237107002167 -0.02108585422020281
1900000000.0 -0.2934085515758422 -0.030251138179797594
1920000000.0 0.28640190561113077 0.07086496546136968
1940000000.0 0.19359925029133163 -0.24721013166972455
1960000000.0 -0.3067160277497645 0.07014420893718659
1980000000.0 0.3127477009209153 -0.08451406542374598
2000000000.0 0.10798339947446192 0.3021635938913029
2020000000.0 -0.023818529235658133 0.3147502319750807
2040000000.0 0.0637410366289697 -0.29786041470162095
2060000000.0 0.2798043395974033 -0.144222443327099
2080000000.0 -0.27684370078839854 -0.1462345278877006
2100000000.0 0.19657560068177835 0.22889840125644173
2120000000.0 0.005670363605742168 -0.2990884585316593
2140000000.0 0.120835850725683 0.26984359807223657
2160000000.0 0.1156226638648329 -0.2479813398179536
2180000000.0 0.016855287691335673 -0.2778216239300802
2200000000.0 -0.25093128204754833 -0.08748535050276686
2220000000.0 0.07267091076149912 -0.24773068313973554
2240000000.0 0.1278418055672998 -0.21148370277052514
2260000000.0 0.2289613161613205 -0.08194236783398384
2280000000.0 0.11742197135135536 0.18178243626669233
2300000000.0 -0.16817689980941064 -0.11064390173247188
2320000000.0 0.18817641912639746 -0.02133626715695377
2340000000.0 -0.023869244640313963 -0.17168478327968856
2360000000.0 -0.11533833940554389 0.12278990234868652
2380000000.0 0.06371226319142888 0.1644826125064134
2400000000.0 -0.18551096860711078 -0.02150014878369614
2420000000.0 0.06906714906947595 0.19157773399239386
2440000000.0 -0.20144508721296464 -0.10779170261015014
2460000000.0 -0.09904438153347025 -0.23389927002116198
2480000000.0 0.21316370905364992 0.18591023685516367
2500000000.0 0.3070924380341908 0.06283764335628265
2520000000.0 0.05279292530818766 0.33738995046141357
2540000000.0 0.059615093097234534 0.3708198252672149
2560000000.0 -0.35722487488261 0.17958028003345644
2580000000.0 -0.16379108216957372 -0.38459831739753686
2600000000.0 0.43460949271421995 -0.050218329738036846
2620000000.0 0.02342796202841656 0.4519550328728151
2640000000.0 -0.460935833254495 -0.011327626067646175
2660000000.0 -0.04311203796499339 -0.46625304924623084
2680000000.0 0.3226547026515518 -0.34350604987835626
2700000000.0 0.42472798750674257 -0.21310748612009836
2720000000.0 0.374281917584636 -0.2990977358882992
2740000000.0 0.34400525730679227 -0.3399957914018498
2760000000.0 0.26917650309321983 -0.40943547248966305
2780000000.0 0.28829626771778855 0.4013916690573617
2800000000.0 -0.10550565288304013 0.48813467287327106
2820000000.0 -0.5031170777633234 0.028244858201109786
2840000000.0 0.3523481122237167 -0.365290648169174
2860000000.0 -0.3471115789833472 0.37251411235259946
2880000000.0 0.5082302896168894 -0.036177841649410465
2900000000.0 -0.22488137214184656 -0.45232640370440136
2920000000.0 -0.44981479964889687 0.21401622309491125
2940000000.0 0.17868399906722132 0.45467962361302194
2960000000.0 0.4389655434096092 -0.1876365233933303
2980000000.0 -0.2018261309822991 -0.41637189775133304
3000000000.0 -0.3179256273932525 0.313206235011266
3020000000.0 0.429217235125654 -0.032964418488378784
3040000000.0 -0.22245483033784455 -0.352338131100521
3060000000.0 0.24116727375471417 0.3259738350616048
3080000000.0 -0.13815525640061274 -0.3689565227823394
3100000000.0 -0.36127772034350947 -0.13292335597884836
3120000000.0 0.30591510426401947 0.22806529348404525
3140000000.0 -0.07949574792280951 -0.37224144048588653
3160000000.0 -0.3361319167226258 0.17644854924987857
3180000000.0 0.2689283816013797 0.2682285453788387
3200000000.0 0.3663101892380312 0.07710352852196549
3220000000.0 0.35946130359930945 0.08409305121477063
3240000000.0 0.3533360476946739 -0.10258581202011502
3260000000.0 0.3156557532047946 0.16125427061342948
3280000000.0 -0.05136974388272548 0.33398712568649475
3300000000.0 -0.3109944796408067 0.06643798948032463
3320000000.0 -0.044262041968498776 -0.29840462242008137
3340000000.0 0.08199188294912783 0.27284375594694066
3360000000.0 -0.22687120656747561 -0.1298240015895034
3380000000.0 0.12415194428987399 -0.20472491899490128
3400000000.0 -0.05097481527315079 0.21693577377505735
3420000000.0 -0.0847515030649659 -0.19268998776945623
3440000000.0 -0.016982194446720476 0.1982515590699496
3460000000.0 0.04294513008623633 0.18204475781324947
3480000000.0 0.14456976981261224 0.10445872712072728
3500000000.0 -0.1705907078076931 -0.029397674468264422
3520000000.0 0.10652716285351188 0.13255972612348127
3540000000.0 0.08211050144588967 -0.1458771678073748
3560000000.0 0.03206301353328004 -0.16844703713229844
3580000000.0 0.17572056102307645 0.02381421333956506
3600000000.0 0.1780320056653838 -0.033528809962837545
3620000000.0 -0.03811065469815159 0.18271147939525362
3640000000.0 -0.195488295626394 0.021025905643935274
3660000000.0 0.18330470613134334 -0.0905822410861989
3680000000.0 -0.04491233072339381 0.1947371298189881
3700000000.0 0.13813023196781768 -0.1439809295565808
3720000000.0 -0.06794375326711194 -0.17709530600129703
3740000000.0 0.13681454400434748 -0.12146132895120547
3760000000.0 0.12964574314805952 -0.11547030251177935
3780000000.0 0.10078854638642014 -0.13157784581324422
3800000000.0 0.13041084928539526 0.0741844823825216
3820000000.0 -0.0948747461515332 0.09593544930352524
3840000000.0 0.09914853040194319 0.058685865456146166
3860000000.0 0.08892000220936366 0.038896305382255275
3880000000.0 -0.08168556415939807 0.009978958171498289
3900000000.0 0.06400300431901394 0.041234632991955816
3920000000.0 -0.03807436315487763 0.05983834493852683
3940000000.0 0.037974197322862266 0.04737984867081305
3960000000.0 0.005141145553101791 -0.05294339010120134
3980000000.0 0.03133608356724454 -0.02970859374129222
4000000000.0 0.0013860393479191763 0.03666366898125839
