!Created with skrf (http://scikit-rf.org).
# Hz S RI R 50.0 
!freq ReS11 ImS11
400000000.0 -0.8116757350214511 0.042938425596924824
420000000.0 0.5027560230860526 -0.5713545411833759
440000000.0 0.7000202710484954 -0.11748776125055684
460000000.0 -0.5053463468025073 -0.3967483046653128
480000000.0 0.5596108823143561 0.10544318848160171
500000000.0 0.5548982370819863 -0.07973996285133772
520000000.0 0.07413634697387925 0.46533226826552476
540000000.0 0.14992631554062444 -0.3908964398438373
560000000.0 -0.2234372301142408 0.3360213103813995
580000000.0 -0.32580428482767687 -0.22131842470173724
600000000.0 0.1783359550521734 -0.3621846925195243
620000000.0 -0.38483931669767507 0.12759536908278235
640000000.0 -0.1783931882517238 0.3594336015960386
660000000.0 0.12053244958647877 0.37441923243057
680000000.0 0.3624158257558774 0.09586636440851452
700000000.0 -0.35650835366820055 0.0741447414161117
720000000.0 0.06688718502086245 0.3418712460404232
740000000.0 0.3176588029696388 0.08426899840883009
760000000.0 -0.24777238815315927 -0.12998172920448425
780000000.0 -0.07124556983218043 0.28410051285613486
800000000.0 0.13518325216495689 -0.2105772742943002
820000000.0 0.23962978993909437 -0.05127356483640296
840000000.0 -0.1545149924673463 0.1525886223562915
860000000.0 -0.14022320352286893 -0.14405938567817694
880000000.0 0.1837359459295082 0.06475961017994708
900000000.0 0.06472440593884857 0.1466035322626307
920000000.0 0.12809313304439368 0.011488900454622492
940000000.0 -0.053462828459459356 0.10436559575841324
960000000.0 0.061526329740822824 0.02621529463240258
980000000.0 -0.06133358807895663 0.01372216474744262
1000000000.0 -0.04437212296823977 0.03336230666314578
1020000000.0 -0.010851475700761372 0.029610117766110545
1040000000.0 0.05578958542908889 0.020166506603194564
1060000000.0 -0.09986602285874387 -0.015567469952746122
1080000000.0 0.053800820394163805 0.1170087297733665
1100000000.0 -0.19180256105339125 0.0031760100416807963
1120000000.0 -0.07241381699104975 -0.20518848208533885
1140000000.0 0.0684456378762243 0.23657485246190652
1160000000.0 0.2787445919040391 -0.01000569350484308
1180000000.0 -0.060699703996464724 0.27789316255239854
1200000000.0 0.2365633668427324 -0.18671553399741467
1220000000.0 0.3048563646709398 0.10942543225410138
1240000000.0 0.02249445595554677 0.3441489003023657
1260000000.0 0.18596465436246049 -0.2809464672491775
1280000000.0 0.3370783723054163 0.03899131027467339
1300000000.0 0.3483165485822596 0.033292011294475114
1320000000.0 0.10114935480086601 0.3455096914401838
1340000000.0 -0.17654735589959927 -0.3191589882493878
1360000000.0 0.14723495959067903 -0.33980187839280973
1380000000.0 -0.3680944684947369 0.028376556481389183
1400000000.0 -0.10256271755653996 0.36458376578525475
1420000000.0 0.3707244421785494 0.011399547202173994
1440000000.0 0.033567678144538746 -0.37628725939252283
1460000000.0 -0.3630479865316702 0.07602612287556465
1480000000.0 0.18243711051256364 0.31269240692958344
1500000000.0 0.32421856517133724 0.05546509899279563
1520000000.0 -0.09811562031687833 -0.2965576165035489
1540000000.0 -0.28283902189417653 0.0036775159616861644
1560000000.0 -0.0819165705438234 0.2489711296810654
1580000000.0 -0.17730679088261736 -0.1306432519919438
1600000000.0 -0.12166368242536887 0.15809753986531258
1620000000.0 -0.13081870300301165 -0.0981134199568891
1640000000.0 -0.09494884787169983 -0.09967093705665848
1660000000.0 0.10097347942396852 -0.04544498320530805
1680000000.0 -0.09933913087386327 -0.00020255312671160086
1700000000.0 0.05533478976314276 0.05505621506945486
1720000000.0 0.06544064837573896 -0.02560866737387296
1740000000.0 0.023479299020129123 -0.06067539922338801
1760000000.0 -0.023874034629059585 -0.07470126818774579
1780000000.0 0.10777200227644575 0.009494257427346256
1800000000.0 -0.09799060343305702 -0.1011403838816456
1820000000.0 0.05357671669470483 -0.1546765967038405
1840000000.0 0.018619481961431438 -0.20764778820519153
1860000000.0 0.1171521396933829 0.20852155189880398
1880000000.0 0.26581635625847344 -0.0263056229582515
1900000000.0 -0.29507028033820515 -0.015918918032935016
1920000000.0 0.2785819429198233 0.09741386357579351
1940000000.0 0.19199917192221422 -0.24823547622797246
1960000000.0 -0.30718251873785507 0.06607992761612375
1980000000.0 0.30514469959922874 -0.10811033906241908
2000000000.0 0.12488726895129292 0.29478946354963464
2020000000.0 -0.024770462037693165 0.31509731422270276
2040000000.0 0.047720991503682364 -0.3008081769531193
2060000000.0 0.2636151370324385 -0.17122447737077595
2080000000.0 -0.29331006004084725 -0.11224165536122922
2100000000.0 0.2321680827473691 0.19184018444474385
2120000000.0 0.029722616632332742 -0.29819055200137096
2140000000.0 0.11621267011258204 0.2716330269890116
2160000000.0 0.14192049896594902 -0.234220228806801
2180000000.0 -0.010632818506720002 -0.27910636974647623
2200000000.0 -0.2410284941820131 -0.11043390146694367
2220000000.0 0.09058325931135966 -0.24160877332563202
2240000000.0 0.1339275755869705 -0.2079354849215403
2260000000.0 0.22429292455477326 -0.09553091714366675
2280000000.0 0.1150585741927962 0.182002218650733
2300000000.0 -0.16109308120971125 -0.12121794211399378
2320000000.0 0.18885519926422262 0.008930623184354433
2340000000.0 -0.05716962029472168 -0.16377697418582063
2360000000.0 -0.1230315738487844 0.11560618515101939
2380000000.0 0.07250200915959079 0.15995100615563468
2400000000.0 -0.17345879354514082 -0.07011645889346323
2420000000.0 0.07623026609935284 0.1907194499136835
2440000000.0 -0.2168937696115865 -0.07046695551552389
2460000000.0 -0.04773754221436285 -0.24898938776908233
2480000000.0 0.22146965425916695 0.17585210200417092
2500000000.0 0.28628316117076197 0.12908642913649643
2520000000.0 0.046541109602532896 0.3384340726301872
2540000000.0 0.10994248959958085 0.35925147493498694
2560000000.0 -0.35257678871173953 0.1884443073737182
2580000000.0 -0.1619055319707327 -0.38506928007139823
2600000000.0 0.4364657469421154 -0.03942970927162613
2620000000.0 -0.011263660116219886 0.453115261696432
2640000000.0 -0.4588440808960351 -0.046339149513226714
2660000000.0 -0.04571418397559837 -0.46598805790713943
2680000000.0 0.2903704487805502 -0.3708270026964977
2700000000.0 0.43174670672612525 -0.19824152619832489
2720000000.0 0.3698779311871996 -0.30451553289458094
2740000000.0 0.3643500090977753 -0.3180727918281346
2760000000.0 0.3033412269142954 -0.3840048298626215
2780000000.0 0.30549339674678727 0.3882058024410668
2800000000.0 -0.03593429718149371 0.49822383294872274
2820000000.0 -0.5022541802565824 0.04156542971986306
2840000000.0 0.29034040021262547 -0.4162521981027281
2860000000.0 -0.3517811995512668 0.36849844867034653
2880000000.0 0.5076248476844777 -0.046429077296698304
2900000000.0 -0.22650133336810646 -0.45158120089741405
2920000000.0 -0.4457906777812233 0.22193677973260584
2940000000.0 0.14402991440822063 0.467124723144936
2960000000.0 0.4476956487099542 -0.1661107398795728
2980000000.0 -0.20335799023747933 -0.41527785248529153
3000000000.0 -0.3312485692481707 0.29906823497082446
3020000000.0 0.42882472873796024 -0.041076277099509756
3040000000.0 -0.1895404054885397 -0.37094404659796665
3060000000.0 0.23379266014554828 0.33171542844926555
3080000000.0 -0.14279703148860648 -0.3666221606584619
3100000000.0 -0.35743988846175717 -0.1423695095186015
3120000000.0 0.3132343977094683 0.21879203614806686
3140000000.0 -0.10754000544367635 -0.3647866794432038
3160000000.0 -0.34446826563810784 0.15893189250979664
3180000000.0 0.28617017466289624 0.24994454084425044
3200000000.0 0.3710373419522456 0.048773961384471834
3220000000.0 0.362777749310987 0.06887607375725346
3240000000.0 0.34569123531446316 -0.12720405615873798
3260000000.0 0.3274634270105912 0.13575333041286253
3280000000.0 -0.057658823515723906 0.3331697945152297
3300000000.0 -0.3112480936464721 0.06763038795998298
3320000000.0 -0.08902414763496946 -0.2887339983086695
3340000000.0 0.06301430729693018 0.2783983348782228
3360000000.0 -0.2320528359111421 -0.12290275125547954
3380000000.0 0.14556493853320748 -0.19117947502836138
3400000000.0 -0.10395517637818093 0.19789748393776543
3420000000.0 -0.06370777408739373 -0.20131834973415352
3440000000.0 -0.0342772533591249 0.19609057018247464
3460000000.0 0.0347206812052654 0.18448373244548835
3480000000.0 0.11528463142539765 0.13608708549527712
3500000000.0 -0.16171828266775054 -0.06043693346179523
3520000000.0 0.0885933470784133 0.1447580893815064
3540000000.0 0.0960789792978039 -0.13683669553568897
3560000000.0 -9.583904930243867e-05 -0.1709001452222837
3580000000.0 0.1755915985571266 0.016695171119067393
3600000000.0 0.17514730829703787 -0.041550409382693415
3620000000.0 -0.02078922018204422 0.18545747971800577
3640000000.0 -0.19445910098421232 0.032522164151382225
3660000000.0 0.16573415443666645 -0.12070637646624034
3680000000.0 -0.002811492357613498 0.19942166445620382
3700000000.0 0.15104950629295838 -0.13048556367398614
3720000000.0 -0.11092000524761665 -0.1545613228133726
3740000000.0 0.1435008771103767 -0.11479670563301364
3760000000.0 0.0777422215004626 -0.15499479357848758
3780000000.0 0.13531245517027984 -0.09614052084840771
3800000000.0 0.13445346549713227 0.0661540853766454
3820000000.0 -0.13368343940377062 0.01533636358824458
3840000000.0 0.10015643680773785 0.056771048656928114
3860000000.0 0.08444299629156411 0.04771498718630316
3880000000.0 -0.08188686449124652 0.004318340777300312
3900000000.0 0.05453312602908708 0.05343485956129765
3920000000.0 -0.037680557850099605 0.06108448024731176
3940000000.0 0.05361881387603585 0.027031943959416355
3960000000.0 0.0009535800681675885 -0.053271311834560825
3980000000.0 0.029995691858823986 0.03151707307813597
4000000000.0 -0.008975550837778838 -0.03465747431897283
