!Created with skrf (http://scikit-rf.org).
# Hz S RI R 50.0 
!freq ReS11 ImS11
400000000.0 -0.8098816098491529 0.07045174079446447
420000000.0 0.49795171293680085 -0.5745495248277471
440000000.0 0.7074783014876271 -0.06871900545347372
460000000.0 -0.5222238521878094 -0.37623977432644345
480000000.0 0.5696352316426296 0.0013670344681354924
500000000.0 0.5576197239034956 -0.02302289207496745
520000000.0 0.0751169012406642 0.46580442523182897
540000000.0 0.1542298945818596 -0.3909456219409299
560000000.0 -0.16522825948059666 0.3671323590982826
580000000.0 -0.3339591956026491 -0.2085836871489534
600000000.0 0.1840714488977389 -0.3592254146822989
620000000.0 -0.4016005194311891 0.05605127257555244
640000000.0 -0.20660609021018372 0.34458065030846036
660000000.0 0.14026519497967693 0.36733528807749816
680000000.0 0.3508304578592406 0.1331598841534972
700000000.0 -0.35471843512257883 0.0822980352173573
720000000.0 0.048633053125406785 0.3450887489357531
740000000.0 0.31633050362105297 0.08801422946813292
760000000.0 -0.24824021957022374 -0.13181733275804386
780000000.0 -0.01969085543971263 0.29097797663476277
800000000.0 0.15109573252063108 -0.19937708405922633
820000000.0 0.23215137362968108 -0.07636377405128918
840000000.0 -0.16506481307380677 0.14069151210220132
860000000.0 -0.15465327623869957 -0.12891409628720163
880000000.0 0.18683630768677834 0.05769546063176155
900000000.0 0.058936261836991855 0.14853331359507257
920000000.0 0.1281859941978065 0.016015485386379154
940000000.0 -0.036454013623416666 0.11195411982024975
960000000.0 0.06454361434313348 0.019361810325472933
980000000.0 -0.06194706861007121 0.0013475277699560935
1000000000.0 -0.03879100772573992 0.040552316189852465
1020000000.0 0.023625241045597732 0.02096440208381477
1040000000.0 0.011365018239477937 0.058170149735866226
1060000000.0 -0.08793099435712794 0.04974229106086707
1080000000.0 0.031807353648481175 0.12459746634637557
1100000000.0 -0.1823779216978746 0.05871532368750904
1120000000.0 -0.0856504172424169 -0.19983613996353278
1140000000.0 0.057622255746595366 0.2397014425789385
1160000000.0 0.2790858299847412 -0.013811814300895578
1180000000.0 -0.056301980473634154 0.278964001187797
1200000000.0 0.23791349889756835 -0.1848606544947578
1220000000.0 0.3009912310553779 0.12002317218665148
1240000000.0 0.005077612490134207 0.3447841899441409
1260000000.0 0.17852127875788065 -0.28575224269263205
1280000000.0 0.3364084494796506 0.04619199133354065
1300000000.0 0.34986287253180226 0.005245047745191414
1320000000.0 0.09421861673673829 0.34732802371218313
1340000000.0 -0.17095230776238182 -0.32253451713048703
1360000000.0 0.10510524432901644 -0.3550959801269727
1380000000.0 -0.3660981443278942 0.04979315005766943
1400000000.0 -0.13228557752309092 0.35499090095523966
1420000000.0 0.3710569213680957 -0.0002848895133160279
1440000000.0 0.0210016393832252 -0.37658143335905886
1460000000.0 -0.36711179692324813 0.05613199122085302
1480000000.0 0.25721370306981295 0.2545785416842256
1500000000.0 0.3236994466824395 0.058486681620857225
1520000000.0 -0.10025453498243007 -0.29619104475398306
1540000000.0 -0.28211173181910276 -0.007059924250811239
1560000000.0 -0.08430277544791945 0.248045304015732
1580000000.0 -0.16265635980044488 -0.14918797669874492
1600000000.0 -0.07576719297382807 0.1846976634642804
1620000000.0 -0.10673915051025012 -0.12353876114299935
1640000000.0 -0.07856391182356143 -0.11369735236590806
1660000000.0 0.09292794900553328 -0.06055240903311681
1680000000.0 -0.08557035193272512 -0.04926649954603285
1700000000.0 0.07088803096320118 0.03379377065257445
1720000000.0 0.06922767975805816 -0.012853721738028736
1740000000.0 0.03072592664891907 -0.05712239820748471
1760000000.0 -0.02104825290144024 -0.07585773709716456
1780000000.0 0.10712203967891665 0.014973006721830726
1800000000.0 -0.09346051185664424 -0.10536631170885412
1820000000.0 0.038665996901952986 -0.1586849503412416
1840000000.0 0.014692838742852137 -0.20759858963292702
1860000000.0 0.11247855703326401 0.2110348386823686
1880000000.0 0.2636862114090156 -0.04293294866265833
1900000000.0 -0.29298412695655124 -0.033835931233565666
1920000000.0 0.28767730458501856 0.06604406537103383
1940000000.0 0.19712929937870127 -0.2445139254327067
1960000000.0 -0.30530808788840763 0.07490061075570861
1980000000.0 0.308670899562579 -0.09743049083001921
2000000000.0 0.11983430963807415 0.2975255942641737
2020000000.0 -0.02940844318837217 0.3143611565644053
2040000000.0 0.0738770700624539 -0.295745971788001
2060000000.0 0.2773841431098766 -0.14854199037181556
2080000000.0 -0.28285509248754015 -0.13503356366994365
2100000000.0 0.1922919807720529 0.23258345487658225
2120000000.0 0.01042427737305375 -0.29896204717318126
2140000000.0 0.115159080925171 0.27199772375106585
2160000000.0 0.1080246356897516 -0.2512908386357743
2180000000.0 0.0035125294017729417 -0.27839261936703147
2200000000.0 -0.2525604160897134 -0.08282005545339373
2220000000.0 0.06829035596774918 -0.2490264779604607
2240000000.0 0.1268222609200407 -0.21243119100646057
2260000000.0 0.23130474306404383 -0.07677065976410372
2280000000.0 0.11487217820932467 0.18334268472837603
2300000000.0 -0.1691505247951394 -0.10908232183822451
2320000000.0 0.1865089760581446 -0.031051922228891173
2340000000.0 -0.04129703360539497 -0.16832289766157196
2360000000.0 -0.10655525683337523 0.13038639559109308
2380000000.0 0.08145186260727173 0.15665770279761124
2400000000.0 -0.18607750937479925 -0.017641140796392896
2420000000.0 0.06374518467044128 0.1937517437222895
2440000000.0 -0.18535295582926525 -0.13361323882658185
2460000000.0 -0.06489413377304445 -0.24531800529974274
2480000000.0 0.21102662888242524 0.1882101601565574
2500000000.0 0.3077168194234056 0.06140914976419004
2520000000.0 0.03916926945086029 0.33934201331472724
2540000000.0 0.09212104131143815 0.36420840879761446
2560000000.0 -0.3540239025788298 0.1859766601639051
2580000000.0 -0.18748686804788328 -0.37383124543587054
2600000000.0 0.43610977808931 -0.037098696000311425
2620000000.0 0.0030590458048200455 0.4530636687717335
2640000000.0 -0.458215418578422 -0.05481612426797771
2660000000.0 -0.011524988737811926 -0.46864283981563626
2680000000.0 0.32448326072302475 -0.3416212328822223
2700000000.0 0.4390535041232728 -0.1822538061675175
2720000000.0 0.3814148505920031 -0.2901079958262172
2740000000.0 0.29710141388440164 -0.38184606348362066
2760000000.0 0.24770231488738267 -0.4225146122659844
2780000000.0 0.31221587827091524 0.3831705349811019
2800000000.0 -0.05122046556823205 0.4969637837653099
2820000000.0 -0.5035637733326228 0.021553278748597943
2840000000.0 0.3005665906136832 -0.40888589671590747
2860000000.0 -0.34949615852145816 0.3702739464510183
2880000000.0 0.5074872827918337 -0.044883576897633226
2900000000.0 -0.2282231378743237 -0.4507196616300862
2920000000.0 -0.44296803310502997 0.22696226495497013
2940000000.0 0.16329937232878405 0.46057767975562525
2960000000.0 0.43611292933756585 -0.19364248119090566
2980000000.0 -0.19951911626457808 -0.4179556153827324
3000000000.0 -0.32613050041507385 0.305036020891806
3020000000.0 0.43044209796322097 -0.014497840519129711
3040000000.0 -0.14183782638697834 -0.3921899589217385
3060000000.0 0.24213722610757155 0.32618894576389684
3080000000.0 -0.1028263029778799 -0.3802687475147455
3100000000.0 -0.3748222283972057 -0.0873842319108915
3120000000.0 0.3355346950328754 0.18208944900377302
3140000000.0 -0.05824155758098386 -0.37578999377486316
3160000000.0 -0.35107739024316437 0.14449440645496328
3180000000.0 0.25890987584725206 0.27783961841971305
3200000000.0 0.36675526851567625 0.07544602090549044
3220000000.0 0.3647061688516006 0.04930076320704546
3240000000.0 0.3589780866906016 -0.08292009244685984
3260000000.0 0.3158468960207546 0.16191382827921685
3280000000.0 -0.011996048732764756 0.33665256617165384
3300000000.0 -0.3156291813764184 0.045695145756149746
3320000000.0 -0.01962334411407267 -0.3016806518767382
3340000000.0 0.13158609891772172 0.2527253077805016
3360000000.0 -0.26033418372033995 -0.01768199643651301
3380000000.0 0.14612257698452424 -0.19030942574452672
3400000000.0 -0.02527581543982184 0.2216290970686464
3420000000.0 -0.07859118357842583 -0.19564477315559348
3440000000.0 -0.03238537133574919 0.19648073441333436
3460000000.0 0.026045342819679896 0.18561345578356858
3480000000.0 0.12866251862667902 0.12312242907517028
3500000000.0 -0.16541578486141123 -0.05079533881217367
3520000000.0 0.09865504838235754 0.13795314701529407
3540000000.0 0.07973057644208364 -0.14683823992804493
3560000000.0 0.03351817233511921 -0.1682098616954651
3580000000.0 0.17659410928250782 0.009842145952815656
3600000000.0 0.17623984597610495 -0.03773306615248566
3620000000.0 -0.03751325337166349 0.18276814979261963
3640000000.0 -0.1937087886032683 0.032810948210685725
3660000000.0 0.17761714717617488 -0.10136913922381291
3680000000.0 -0.029906923289424073 0.19786178241752797
3700000000.0 0.14669274686834421 -0.1347377987405833
3720000000.0 -0.11019809038987725 -0.1547152708939456
3740000000.0 0.14491558850406724 -0.11172995378631252
3760000000.0 0.12114195012125414 -0.12422501534100595
3780000000.0 0.10226913641910917 -0.12996811798356966
3800000000.0 0.13682083417732746 0.060973282539710086
3820000000.0 -0.11293594368474598 0.07341787480370209
3840000000.0 0.09542326130112035 0.06300651835300602
3860000000.0 0.09574693393609568 0.016721802400046844
3880000000.0 -0.08055346095348369 0.014905549695464678
3900000000.0 0.07520490429269025 0.012928469033243694
3920000000.0 -0.04189333219837565 0.05706855682875303
3940000000.0 0.05695046525877254 0.022840781833403285
3960000000.0 -0.00810395538467232 -0.05275676856281489
3980000000.0 0.04119513084939851 -0.013124522043538412
4000000000.0 -0.021806690002180103 0.029455142145174685
