!Created with skrf (http://scikit-rf.org).
# Hz S RI R 50.0 
!freq ReS11 ImS11
400000000.0 -0.8077786512809718 0.0888528929719516
420000000.0 0.5092981060540959 -0.5655090059957191
440000000.0 0.7004465066413835 -0.11642759532749418
460000000.0 -0.5057429653027752 -0.3968012366065701
480000000.0 0.5542826135035881 0.1298555777909144
500000000.0 0.5545978970465255 -0.08122209120732318
520000000.0 0.09578167844461657 0.4617068508166227
540000000.0 0.17234435116300514 -0.3808129223987783
560000000.0 -0.2569603831682613 0.311375602432186
580000000.0 -0.3376460091142056 -0.2039021499680031
600000000.0 0.1782761502942428 -0.36255552878552566
620000000.0 -0.37808456999430806 0.14536338858393386
640000000.0 -0.1637603627655065 0.3661933297356489
660000000.0 0.09012992013811517 0.38258806041476506
680000000.0 0.357280878110113 0.11551967980455684
700000000.0 -0.3598777446976401 0.054857595872850426
720000000.0 0.04939922166025165 0.34501199656431586
740000000.0 0.32477806064328574 0.05032318768200601
760000000.0 -0.22628928961960804 -0.16432833473888586
780000000.0 -0.01754092323936851 0.29228371988292373
800000000.0 0.13559790420743145 -0.2096421903223946
820000000.0 0.23975111609252317 -0.05296537645587568
840000000.0 -0.1536154586549909 0.1535963363222415
860000000.0 -0.13446215907141104 -0.14987032821580692
880000000.0 0.17640042384575177 0.08306928651015534
900000000.0 0.047926568174474174 0.152635206810907
920000000.0 0.1286240102474888 -0.002587050787289997
940000000.0 -0.03630665675425424 0.1112509843910754
960000000.0 0.06047530702366507 0.0296828653163964
980000000.0 -0.062477713788964974 0.001181147960418956
1000000000.0 -0.04009253945383294 0.03887111542077708
1020000000.0 0.017816820593211467 0.025639787551974276
1040000000.0 0.031843492962105285 0.049842015081151034
1060000000.0 -0.10096249865544281 0.0029151247721071675
1080000000.0 0.05240824251286269 0.11741084427214372
1100000000.0 -0.19037088471176794 0.01830541181700861
1120000000.0 -0.08027889654280053 -0.20206472291593577
1140000000.0 0.07089730365390076 0.23584861642836555
1160000000.0 0.2787203999298868 -0.009482248604685002
1180000000.0 -0.058501864771529695 0.2784221385987704
1200000000.0 0.2321548587658759 -0.1925023343557915
1220000000.0 0.3098915839390637 0.09435100440634124
1240000000.0 0.0009058721167960924 0.3446420987432982
1260000000.0 0.17604661749157796 -0.2873172995743261
1280000000.0 0.33709910674893884 0.041646022248751316
1300000000.0 0.3474220459424217 0.041569424914937175
1320000000.0 0.10670805321930762 0.3439369911788339
1340000000.0 -0.15266816493369412 -0.33166800264011564
1360000000.0 0.11443994413450198 -0.3520227761534061
1380000000.0 -0.36209907689095044 0.07329624318116265
1400000000.0 -0.11055015794972695 0.36205019295373686
1420000000.0 0.3695281886398863 -0.03362880101170662
1440000000.0 0.026771239724174202 -0.37662586374530327
1460000000.0 -0.3618984063662175 0.08183465528911504
1480000000.0 0.16689727894133877 0.3213097193211008
1500000000.0 0.32632766969203275 0.04187649917392882
1520000000.0 -0.09342006638682732 -0.29801082518204297
1540000000.0 -0.28188712401538824 -0.01966236986126309
1560000000.0 -0.09286564832718512 0.24507828036321228
1580000000.0 -0.1767718353323052 -0.13113633557997253
1600000000.0 -0.13068648817636397 0.15071689692400816
1620000000.0 -0.1226178407164403 -0.10806157452677356
1640000000.0 -0.09620912013608297 -0.09811912928010393
1660000000.0 0.0921242737429175 -0.06185075116140315
1680000000.0 -0.09880619069663801 -0.007013490451084357
1700000000.0 0.06800877213925278 0.039637571526267325
1720000000.0 0.060080297908735265 -0.03697242148234058
1740000000.0 0.023071496955891828 -0.061067533402536275
1760000000.0 -0.03577352491110699 -0.06998954131337018
1780000000.0 0.1079909096516492 -0.004911571010035643
1800000000.0 -0.10639464578070337 -0.09253046862449406
1820000000.0 0.02058923826866238 -0.16250909433857808
1840000000.0 0.03046036449901046 -0.20624788054953722
1860000000.0 0.11143621151294043 0.21183736247692458
1880000000.0 0.26485198612281285 -0.03501018420651733
1900000000.0 -0.29399461419518746 -0.028876130685796367
1920000000.0 0.28497597332501134 0.07719090064307063
1940000000.0 0.19035176773457477 -0.24958138020782342
1960000000.0 -0.30586227671013777 0.07217748480144578
1980000000.0 0.30430143300610957 -0.11076942534537366
2000000000.0 0.13348951658358435 0.2912289196779711
2020000000.0 -0.026384696042904443 0.31512444270807677
2040000000.0 0.04575705521504581 -0.30124688437935504
2060000000.0 0.2685284312875217 -0.16361157584765829
2080000000.0 -0.2964496564569018 -0.10380682934607405
2100000000.0 0.21798111161829273 0.20806933667581612
2120000000.0 0.01169472360500195 -0.29942627886430384
2140000000.0 0.1250345560110303 0.2677336938721635
2160000000.0 0.16575824875419065 -0.21778888823177522
2180000000.0 -0.006723946055135609 -0.27905778561886424
2200000000.0 -0.24615980881105054 -0.09903332576679472
2220000000.0 0.0783898128214549 -0.24599324341477696
2240000000.0 0.12421390058384812 -0.21413551082287674
2260000000.0 0.21908536256018088 -0.10672653656611379
2280000000.0 0.11185589606034047 0.18441680647046427
2300000000.0 -0.1620571773469926 -0.11976456588185645
2320000000.0 0.18844319478926394 0.015390775220467025
2340000000.0 -0.03301188130000138 -0.17089279912047156
2360000000.0 -0.12259325865007424 0.11587191734237873
2380000000.0 0.0776536645260308 0.15728535560623194
2400000000.0 -0.17296851291218465 -0.07064219862381682
2420000000.0 0.06845743614405006 0.1936175781047346
2440000000.0 -0.22037337531465676 -0.05767265224617396
2460000000.0 -0.0719684836448134 -0.24312110294898712
2480000000.0 0.21995151076489802 0.17766505785878717
2500000000.0 0.31190342961013023 0.04091914950855777
2520000000.0 0.10451275665316702 0.32570311632169907
2540000000.0 0.11857055392410377 0.356770856323697
2560000000.0 -0.3516976539811628 0.1901835096757662
2580000000.0 -0.1589320719403651 -0.38639460586960817
2600000000.0 0.43550680018758187 -0.04875782737448942
2620000000.0 0.0027647336731731207 0.45330802632529626
2640000000.0 -0.45838335483932635 -0.05140570542628193
2660000000.0 -0.035238087788414064 -0.46677849541669314
2680000000.0 0.32403623802511206 -0.34208881023574655
2700000000.0 0.4343798838175188 -0.1920724730788477
2720000000.0 0.3984657356398544 -0.266317199768833
2740000000.0 0.3086870977449619 -0.372289489137515
2760000000.0 0.26589163448665154 -0.4113552820893456
2780000000.0 0.3092285622956176 0.38523733862337234
2800000000.0 -0.08012779528772324 0.49298763237103355
2820000000.0 -0.5027973880765952 0.03452677111621115
2840000000.0 0.3490308922107909 -0.36850334097308735
2860000000.0 -0.34885007218647757 0.370964312871148
2880000000.0 0.5076058233148867 -0.04784022322887804
2900000000.0 -0.23629996657107383 -0.44656353896998857
2920000000.0 -0.4334696130980882 0.24412715147494102
2940000000.0 0.1658392580746009 0.4597023560091399
2960000000.0 0.43794634095741924 -0.18937356445559564
2980000000.0 -0.21146512040075788 -0.4116669720306532
3000000000.0 -0.32907671918270065 0.3007795667664309
3020000000.0 0.43038101211767044 0.013485164472761968
3040000000.0 -0.1523559931283117 -0.38771363446281343
3060000000.0 0.18830508704149385 0.3591176853371795
3080000000.0 -0.11578334643855324 -0.3760827654880729
3100000000.0 -0.37989100691632044 -0.06104695538737326
3120000000.0 0.2785360964159932 0.2607274888225452
3140000000.0 -0.08135399776473974 -0.3710051191074264
3160000000.0 -0.3471978072856373 0.15282936513981968
3180000000.0 0.29181800621649573 0.243399632222399
3200000000.0 0.37134734585659446 0.047597444350930274
3220000000.0 0.366893050234342 0.030263707264153703
3240000000.0 0.35349729496397386 -0.10592308793853189
3260000000.0 0.3241908660897399 0.1441252442170048
3280000000.0 -0.009066428754139691 0.33705000120632483
3300000000.0 -0.3064449795760848 0.08880063570680301
3320000000.0 -0.06513473859768294 -0.2955645691863442
3340000000.0 0.11846685032168476 0.2596310741239302
3360000000.0 -0.26168605305898296 -0.01683891338569574
3380000000.0 0.1408788009850527 -0.19490019977160772
3400000000.0 -0.0812113608181943 0.2084532178029956
3420000000.0 -0.04783924628612253 -0.2063486267071712
3440000000.0 -0.04859560244319063 0.19327489057199207
3460000000.0 -0.005189223838960386 0.1875809327380183
3480000000.0 0.0866012921648985 0.15573242788738675
3500000000.0 -0.14663449060602096 -0.09104285781615164
3520000000.0 0.07225512351717706 0.1531640662834352
3540000000.0 0.10140117135831832 -0.13258753787324207
3560000000.0 -0.0019975577493666517 -0.1708060930357092
3580000000.0 0.17453502191484394 0.020099538615241417
3600000000.0 0.1693014472754184 -0.06040440302372091
3620000000.0 -0.004468582189312787 0.18582034728448477
3640000000.0 -0.19595384998262322 0.02186883656104747
3660000000.0 0.15534692097011052 -0.133730368794511
3680000000.0 0.018043765384975385 0.19864211504039328
3700000000.0 0.14489000016706297 -0.13754539873173996
3720000000.0 -0.12670615183358738 -0.1422330994621705
3740000000.0 0.15271758144287045 -0.1025791833604747
3760000000.0 0.07308539017678661 -0.1576686505388156
3780000000.0 0.103370754855277 -0.13078275325028912
3800000000.0 0.12845143783830487 0.07789373967994102
3820000000.0 -0.13417162763797888 0.015966800614654976
3840000000.0 0.08265978359556395 0.07980578589282641
3860000000.0 0.08848479755394788 0.040258658974036535
3880000000.0 -0.08138822399317099 -0.011598071980405727
3900000000.0 0.03968816632875421 0.06490983905432843
3920000000.0 -0.056248152401654115 0.044299600010810146
3940000000.0 0.04928621995673518 0.03541914931979441
3960000000.0 0.028428601103508082 -0.04534155171375941
3980000000.0 0.014585128745141963 0.04048323148097018
4000000000.0 -0.026596349225494555 -0.024155415031982933
