!Created with skrf (http://scikit-rf.org).
# Hz S RI R 50.0 
!freq ReS11 ImS11
400000000.0 -0.8098983711568819 0.07072279895430274
420000000.0 0.525317778304376 -0.5504758631675953
440000000.0 0.7045331411686273 -0.09182509267608369
460000000.0 -0.5300488927649369 -0.3653044200082727
480000000.0 0.5661519548078023 0.044730544652805695
500000000.0 0.5600296333611445 0.01582295602337834
520000000.0 0.09687084932821144 0.46148788226026033
540000000.0 0.19291780000328837 -0.37222587797589696
560000000.0 -0.22736581398505595 0.3339556446686202
580000000.0 -0.3222003631750366 -0.22727189400112852
600000000.0 0.14588364634296666 -0.3757070348597256
620000000.0 -0.3932008506792015 0.09686452078596686
640000000.0 -0.11463605749301774 0.38450160373545017
660000000.0 0.0742823785345964 0.38517998071445736
680000000.0 0.36040130668204573 0.1056703392223135
700000000.0 -0.3609623774777926 0.0464951863541174
720000000.0 0.0625413348799754 0.3429527262283455
740000000.0 0.32680797607904993 0.039402689063355756
760000000.0 -0.2443130382521061 -0.13759195820399997
780000000.0 -0.0027006559607680417 0.2933576118113065
800000000.0 0.17421983915475925 -0.178579454984297
820000000.0 0.24297571863619108 -0.03173082790889602
840000000.0 -0.12817089142519272 0.17400460098852744
860000000.0 -0.13914869567886734 -0.14616703458134778
880000000.0 0.16020821907472826 0.11115756045185726
900000000.0 0.04284258797647727 0.15365500857098757
920000000.0 0.1270791806878652 -0.021288426065916865
940000000.0 -0.033593628408646055 0.11233150659885385
960000000.0 0.061704543822274895 0.02660521863048486
980000000.0 -0.06125794819721139 0.009771705518227869
1000000000.0 -0.05393863044287543 0.011013864524707246
1020000000.0 0.0018417944329902794 0.031226297023753798
1040000000.0 0.05793265780784941 0.010283437169240548
1060000000.0 -0.10096346518651098 0.0032367734776222756
1080000000.0 0.016630845684656566 0.12811598505801666
1100000000.0 -0.18112597377214662 0.0603618641794907
1120000000.0 -0.06800175153330482 -0.2067474643720516
1140000000.0 0.058248196357510246 0.2390371185568641
1160000000.0 0.27878789968132794 -0.008371793754679972
1180000000.0 -0.04214638742553352 0.2814249861540089
1200000000.0 0.2245440502058186 -0.2012770352974305
1220000000.0 0.30569962304803855 0.10738167168684042
1240000000.0 0.02495144788772555 0.3444755111029243
1260000000.0 0.1695635096919508 -0.2909703134731108
1280000000.0 0.3368908071597004 0.04358234804330278
1300000000.0 0.34934628888693564 0.018662123972598962
1320000000.0 0.1032947404669519 0.34491319308118906
1340000000.0 -0.1288405912247906 -0.3414048809831071
1360000000.0 0.10092068345609637 -0.35588680765347314
1380000000.0 -0.3676289145871048 0.038201244231646614
1400000000.0 -0.11978648939484351 0.35913545600145175
1420000000.0 0.3665110451333839 -0.05562588740876265
1440000000.0 0.026257850060404757 -0.37644227010937364
1460000000.0 -0.36747985710992354 0.05047202635497842
1480000000.0 0.19428214738509614 0.3052647134580737
1500000000.0 0.32210244109156316 0.06588282614072831
1520000000.0 -0.12088540485486071 -0.288301897461725
1540000000.0 -0.2824788568810953 0.0038498347485595203
1560000000.0 -0.08569388266054524 0.2476051217702819
1580000000.0 -0.17204219091124676 -0.13837958937588013
1600000000.0 -0.13191844933352356 0.14995563397915054
1620000000.0 -0.12044955123051587 -0.11002383691954423
1640000000.0 -0.07658246723249562 -0.1148492773196151
1660000000.0 0.0856905134835203 -0.06991794839172352
1680000000.0 -0.09395473979268029 -0.03201577153759161
1700000000.0 0.0767268609200367 0.013124683264208245
1720000000.0 0.06294382260631005 -0.032539128486107224
1740000000.0 0.050489100174466374 -0.040654176468534586
1760000000.0 -0.014778134412857231 -0.07723748538241743
1780000000.0 0.10729792856810663 -0.012013388496223952
1800000000.0 -0.06293451694705975 -0.12560929067707433
1820000000.0 0.027012413284457682 -0.16116337277263929
1840000000.0 0.013455730195854897 -0.20791523977452891
1860000000.0 0.12402225485000908 0.20472940330170927
1880000000.0 0.26725808080491253 0.007086488588244867
1900000000.0 -0.2940879970881626 -0.03373447581624089
1920000000.0 0.28093102611759635 0.088287234926217
1940000000.0 0.1657342374909477 -0.26639858934491445
1960000000.0 -0.3088792852179416 0.05615292899398188
1980000000.0 0.3049644943642753 -0.10906573597030957
2000000000.0 0.10963929058554149 0.3014711604859841
2020000000.0 -0.040895401164528104 0.3134283498020251
2040000000.0 0.035914374338793645 -0.3025244327767719
2060000000.0 0.2799266102048307 -0.14324006698452613
2080000000.0 -0.2911558666281426 -0.1179625371636706
2100000000.0 0.21149587668703568 0.21441568632436453
2120000000.0 0.0566128444480607 -0.29373140036861856
2140000000.0 0.12317878155407949 0.26852418886632407
2160000000.0 0.15058402198556817 -0.2281021295227663
2180000000.0 -0.015958367091710435 -0.27855461786469493
2200000000.0 -0.24380177919605164 -0.1060316382957154
2220000000.0 0.05971502809343636 -0.25055349655458414
2240000000.0 0.14370140490150468 -0.20162288392349298
2260000000.0 0.22868665202278424 -0.08393186954789095
2280000000.0 0.12636779057972847 0.17473378727038757
2300000000.0 -0.1706522097112492 -0.10650815997964164
2320000000.0 0.1891319801865926 0.0017972637863739103
2340000000.0 -0.04782418996443713 -0.1669691384031832
2360000000.0 -0.12742263899788908 0.11107136215416867
2380000000.0 0.08883715763967143 0.15164417369044172
2400000000.0 -0.17577507302290638 -0.06355588684500561
2420000000.0 0.08188493224871898 0.18722707042050168
2440000000.0 -0.22138443864241006 -0.05474971024856172
2460000000.0 -0.0896854895886917 -0.23743640999785653
2480000000.0 0.20877447100487903 0.19146674171278721
2500000000.0 0.3128788559166741 0.02765335709491269
2520000000.0 0.0729244701958096 0.3339523067293476
2540000000.0 0.0738260801281456 0.36858777793749004
2560000000.0 -0.35504314494816863 0.18397118378691657
2580000000.0 -0.15822596968406852 -0.3868583337943073
2600000000.0 0.4362540568758226 -0.03827324192297719
2620000000.0 -0.016337327578754918 0.45300573464541216
2640000000.0 -0.4610712736980233 -0.011040852213897301
2660000000.0 -0.020976417427955 -0.46799877277471036
2680000000.0 0.3449776892881569 -0.32141732866293976
2700000000.0 0.44456067833551904 -0.1681273943599108
2720000000.0 0.3884268860806639 -0.280799241436756
2740000000.0 0.28949116462438984 -0.38735142976021275
2760000000.0 0.2570515751151906 -0.4169463870490414
2780000000.0 0.32101089366696944 0.37569956219346506
2800000000.0 -0.042987793187986956 0.49773001433908515
2820000000.0 -0.5012008068683746 0.05252072235478104
2840000000.0 0.2942258782733671 -0.4133293707951424
2860000000.0 -0.2927478169968889 0.41712689083437754
2880000000.0 0.5075174962923007 -0.0475020233368623
2900000000.0 -0.22975975705635976 -0.4500491274808912
2920000000.0 -0.43152502263024706 0.24822634244465272
2940000000.0 0.15692724287457707 0.46289729115755435
2960000000.0 0.4288513836694717 -0.20937874114705352
2980000000.0 -0.20236608519652727 -0.41565504092681194
3000000000.0 -0.3300089740151194 0.30106871759982945
3020000000.0 0.4305176468778875 0.012596978829414636
3040000000.0 -0.2587428390776617 -0.3265035191865126
3060000000.0 0.21862021463272222 0.34170223437415853
3080000000.0 -0.16927375216267793 -0.3554072342928019
3100000000.0 -0.3486294029311335 -0.16276476080012134
3120000000.0 0.303952860623055 0.2305429543110265
3140000000.0 -0.12368613017439287 -0.3599497983408772
3160000000.0 -0.34169824625444156 0.16506244380539165
3180000000.0 0.26993360512670184 0.267245169261868
3200000000.0 0.36756014217146904 0.07139327943982485
3220000000.0 0.35870583548307905 0.0872996515653263
3240000000.0 0.3459158353599436 -0.12587686788006994
3260000000.0 0.3202921294559445 0.15161206164638752
3280000000.0 -0.05125345132019392 0.33447034716226237
3300000000.0 -0.30872666053932973 0.07679712432136543
3320000000.0 -0.09258893895708105 -0.28764447476051463
3340000000.0 0.09732671313898993 0.26794662739913966
3360000000.0 -0.24357940874754475 -0.09696614901573927
3380000000.0 0.12411995025993237 -0.20574851480651687
3400000000.0 -0.09175791936807684 0.20332308566307356
3420000000.0 -0.058673717209231556 -0.20264490759143383
3440000000.0 -0.012997089639214289 0.19882217962476512
3460000000.0 0.05871728366510172 0.17848211634350747
3480000000.0 0.1238128213213725 0.12850637029381987
3500000000.0 -0.16818749531164268 -0.040532081603752
3520000000.0 0.08950563061451232 0.14416664178763947
3540000000.0 0.09063463591961526 -0.14019358160172143
3560000000.0 -0.003659690469059275 -0.17088009985004315
3580000000.0 0.17612454147303963 0.010271734749092437
3600000000.0 0.17241777620581125 -0.053181864902548955
3620000000.0 -0.03370357629432533 0.18328942094020537
3640000000.0 -0.18638112381176522 0.06289037434073355
3660000000.0 0.1637028538081012 -0.12242018206116999
3680000000.0 -0.009042821207498736 0.19930211086423363
3700000000.0 0.1393863604286442 -0.14364935873357743
3720000000.0 -0.1295786070210101 -0.1393490349598391
3740000000.0 0.1507106220674109 -0.10504244892781342
3760000000.0 0.09505991748625747 -0.14507416648172483
3780000000.0 0.07815328566978653 -0.14685252725972342
3800000000.0 0.12912545111008367 0.07654502382763016
3820000000.0 -0.10948966818444598 0.0795842893421281
3840000000.0 0.07010646071767683 0.08968747059368419
3860000000.0 0.08571234867868187 0.045857208187924735
3880000000.0 -0.08172846498781654 0.0012969500742352309
3900000000.0 0.05893743191379469 0.04943936633804485
3920000000.0 -0.04409690836489426 0.05567635222669668
3940000000.0 0.03912540892230565 0.045369714561745704
3960000000.0 -0.01163943201597005 -0.05134170319101767
3980000000.0 0.04304749955197005 -0.0012085516683687002
4000000000.0 0.006772728101541045 0.03622485561056432
