!Created with skrf (http://scikit-rf.org).
# Hz S RI R 50.0 
!freq ReS11 ImS11
400000000.0 -0.8103236993728905 -0.07396450079549963
420000000.0 0.4981221626430891 -0.5750182963538585
440000000.0 0.7038374520565255 -0.09996694654418022
460000000.0 -0.48736422305506794 -0.4203510419752381
480000000.0 0.5684962836977068 -0.04775285445595482
500000000.0 0.5494508088847944 -0.09279527765422134
520000000.0 -0.006199445535743763 0.47054309987815934
540000000.0 0.26319588620814993 -0.3278826836081333
560000000.0 -0.1645108567966061 0.3683102282049818
580000000.0 -0.35104842401036995 -0.17889731421011287
600000000.0 0.17515798704366461 -0.3639393923077512
620000000.0 -0.39987096937282146 0.06128126917341067
640000000.0 -0.21516255233076712 0.3390645081356638
660000000.0 0.12354935729965068 0.37369782705840865
680000000.0 0.35792990995871327 0.11312009579378357
700000000.0 -0.35223395043955585 0.09204572593299613
720000000.0 -0.02515684885053718 0.34786850737873454
740000000.0 0.3089758807584038 0.11160754526055788
760000000.0 -0.24956851526867233 -0.1293683428613488
780000000.0 -0.02969037179949664 0.2900670245984625
800000000.0 0.16010898971799628 -0.19215166308432952
820000000.0 0.23167159624911968 -0.0785169907615105
840000000.0 -0.16945708944690618 0.13577518614448486
860000000.0 -0.14952666802898784 -0.13499767283125227
880000000.0 0.18537278775212787 0.06291666961079222
900000000.0 0.06065024130677087 0.14785345792855312
920000000.0 0.1271007964473644 0.02327459111764932
940000000.0 -0.04988457410703122 0.10606029051545139
960000000.0 0.05435218717239851 0.040146876602522565
980000000.0 -0.056377557581211865 -0.026296338212765346
1000000000.0 -0.04601978422379029 0.031508575735757036
1020000000.0 0.026887877777539114 0.01615656531890011
1040000000.0 -0.002462302299736121 0.05947236742765394
1060000000.0 -0.0973196708769051 0.027460486966304355
1080000000.0 0.003569903764964069 0.12841761200143018
1100000000.0 -0.1850715866140926 0.04865415869027224
1120000000.0 -0.07668296620366555 -0.20318314752977065
1140000000.0 0.04954841072394971 0.24128592647389027
1160000000.0 0.27828922272036793 0.014469957128234784
1180000000.0 -0.04314905843184408 0.28126320220677126
1200000000.0 0.23744992974411222 -0.18494592155218642
1220000000.0 0.3092736884322339 0.09771001452454108
1240000000.0 0.020227243012032894 0.3443074167838852
1260000000.0 0.18651828124510617 -0.28093174786411196
1280000000.0 0.3360210726630702 0.05075215780347651
1300000000.0 0.3490739562280179 0.02803013589559424
1320000000.0 0.08403741837834895 0.35008845934207955
1340000000.0 -0.12049777834988326 -0.34466395423589613
1360000000.0 0.09534282810407191 -0.3577039814526964
1380000000.0 -0.36712897628393226 0.040961995489479854
1400000000.0 -0.11539024008021397 0.3606949942953967
1420000000.0 0.36840010343175705 -0.043420132693965954
1440000000.0 0.026945165620903783 -0.37608651928092884
1460000000.0 -0.366476344398834 0.0604435409760348
1480000000.0 0.22166445593663284 0.2865486460436347
1500000000.0 0.3193982975329036 0.07827788378712848
1520000000.0 -0.1149331145680953 -0.29107341379039864
1540000000.0 -0.2824620585961681 -0.0014056456847973073
1560000000.0 -0.086429206238405 0.24748216375199023
1580000000.0 -0.16701812374035022 -0.1441562554359836
1600000000.0 -0.07759909180833725 0.18387782802713643
1620000000.0 -0.10614661967965897 -0.12374646326295219
1640000000.0 -0.07053203900900541 -0.11903875599640006
1660000000.0 0.09494853503262655 -0.05730411649682983
1680000000.0 -0.0897806707176069 -0.04155970854448345
1700000000.0 0.07123310879432478 0.03251389364084175
1720000000.0 0.06234363625341755 -0.0324046425191125
1740000000.0 0.04177881015234748 -0.04963626851548977
1760000000.0 -0.045620904405064736 -0.06420111717700519
1780000000.0 0.10770569787292585 0.009125484012630703
1800000000.0 -0.08933986456179352 -0.10893368808999844
1820000000.0 0.03302934780824757 -0.1600909930936245
1840000000.0 0.010670284516044274 -0.20790144647296613
1860000000.0 0.10793298548935279 0.2134207545603975
1880000000.0 0.2660524544152959 -0.02552306522548196
1900000000.0 -0.29288448911340137 -0.03358097202201225
1920000000.0 0.2879049342162547 0.06508653699789296
1940000000.0 0.1929274992251984 -0.2477935169791487
1960000000.0 -0.3071065516042813 0.06740831368184462
1980000000.0 0.31083958487513424 -0.09023804841038005
2000000000.0 0.12064429223878813 0.297130346415339
2020000000.0 -0.041049900342314885 0.3131880856094607
2040000000.0 0.037240677170423606 -0.3024096362721318
2060000000.0 0.28605633902813593 -0.1312990983547198
2080000000.0 -0.28292821207601954 -0.13495573300400376
2100000000.0 0.20047519165418354 0.2258966945736116
2120000000.0 0.08651941173734884 -0.2862599738704094
2140000000.0 0.10763628870796006 0.27522709504082976
2160000000.0 0.14224637169975562 -0.23337659433285748
2180000000.0 0.03437801645321604 -0.2761267258839975
2200000000.0 -0.2476214761339817 -0.09627469885937967
2220000000.0 0.09491101306760677 -0.2395716155386767
2240000000.0 0.12220748402007026 -0.21501104075516064
2260000000.0 0.2283005446735388 -0.08382643856532505
2280000000.0 0.12500803530386312 0.17658701445875455
2300000000.0 -0.16997420281110223 -0.1081297155462768
2320000000.0 0.18765817851265956 -0.02408199802645363
2340000000.0 -0.03343198241090385 -0.17026249588827969
2360000000.0 -0.10951281974854843 0.1280800387322417
2380000000.0 0.07269316659914397 0.16101932653433124
2400000000.0 -0.18516973137608667 -0.026854507369440127
2420000000.0 0.07183403378223205 0.1906960809762904
2440000000.0 -0.19589434298811362 -0.11756941620524178
2460000000.0 -0.0837255225322804 -0.23972579716394515
2480000000.0 0.20222251421733176 0.19765796566971539
2500000000.0 0.3080510981362286 0.05851007360011943
2520000000.0 0.05677884224862014 0.3366830573505076
2540000000.0 0.0961972030004142 0.362846347501074
2560000000.0 -0.3545366001988332 0.1848376270396051
2580000000.0 -0.17436191898309145 -0.3798699004535929
2600000000.0 0.4351503483404178 -0.04791727284626573
2620000000.0 -0.004892645570196478 0.45312143987494313
2640000000.0 -0.4606208982240561 -0.026788563573697934
2660000000.0 -0.03311772650943525 -0.4671996014679855
2680000000.0 0.3292508513454055 -0.33746866119674085
2700000000.0 0.4357585113030221 -0.18948101259310265
2720000000.0 0.3782648994848115 -0.29364330129135957
2740000000.0 0.3459775907221075 -0.3378050030901219
2760000000.0 0.2806419052767043 -0.40127063950866854
2780000000.0 0.2983737550126123 0.3938567284482194
2800000000.0 -0.05151974284046673 0.49696783377717246
2820000000.0 -0.5030849326103879 0.02995027177157605
2840000000.0 0.35168656337080517 -0.366028412024468
2860000000.0 -0.3159157383932041 0.4001801371344199
2880000000.0 0.5089740704396147 -0.0296045902783362
2900000000.0 -0.24025109933759392 -0.44446848140545775
2920000000.0 -0.4402010363143789 0.23215222999298266
2940000000.0 0.1604272584252279 0.46164551590818015
2960000000.0 0.44873349776590776 -0.16272574121955688
2980000000.0 -0.20323605531812095 -0.4153298732759322
3000000000.0 -0.3354387404668331 0.29490480482435627
3020000000.0 0.43058950895696235 -0.011380815642946383
3040000000.0 -0.2573298638097764 -0.327664808096568
3060000000.0 0.20708573787620843 0.34891839277941444
3080000000.0 -0.11640550198112881 -0.37641600197530894
3100000000.0 -0.35553130841952885 -0.1474857544283337
3120000000.0 0.3018918675287849 0.23309494181529186
3140000000.0 -0.06833480863482304 -0.3746538212857934
3160000000.0 -0.34570694409350405 0.1572325789412482
3180000000.0 0.24619479505330985 0.2896249378328433
3200000000.0 0.3620372671080976 0.09543329409794675
3220000000.0 0.35771442483970056 0.08998900735357315
3240000000.0 0.35773306713632874 -0.08478510446610123
3260000000.0 0.30731592611373 0.17605648739817786
3280000000.0 -0.040257444384979024 0.33423846682412817
3300000000.0 -0.3095985179392705 0.07265893468887981
3320000000.0 -0.009765101187311925 -0.30156672971910836
3340000000.0 0.126362458113092 0.2548958685647792
3360000000.0 -0.2542918993572495 -0.058437210670532286
3380000000.0 0.12495939192051238 -0.20421287339105504
3400000000.0 -0.020306289608534502 0.22175345445760436
3420000000.0 -0.11368785787085253 -0.17728234377638835
3440000000.0 0.014250339410092057 0.19855977851470588
3460000000.0 0.0558189162337673 0.1786982696916863
3480000000.0 0.1487492774260164 0.09880769853349901
3500000000.0 -0.1704539885482019 -0.03077385969583837
3520000000.0 0.10750076068410533 0.1314063607256086
3540000000.0 0.08096372295161283 -0.1464298696587922
3560000000.0 0.02771229239920263 -0.1692908301023676
3580000000.0 0.17367137390745035 0.03235464176512984
3600000000.0 0.1776332507878609 -0.033140635652663994
3620000000.0 -0.023760218071587572 0.18501474428675385
3640000000.0 -0.1910005691538687 0.04529986323771497
3660000000.0 0.1873800999010617 -0.08170166853048826
3680000000.0 -0.03944271474404884 0.19616959593548655
3700000000.0 0.15424312745417298 -0.12645425045606162
3720000000.0 -0.10271949267888278 -0.1596985881582361
3740000000.0 0.16057727820010068 -0.08774651312892819
3760000000.0 0.12000720524894028 -0.12549302689704528
3780000000.0 0.11636841466637968 -0.11764458825830632
3800000000.0 0.118054020646004 0.09171769665130439
3820000000.0 -0.11125095530574339 0.07543740154387595
3840000000.0 0.0925529122980272 0.06719442512377101
3860000000.0 0.09391721565243522 0.022595464318012737
3880000000.0 -0.08129863923826579 0.011902081426527386
3900000000.0 0.07375506364688073 0.01844931103130255
3920000000.0 -0.0313899149636801 0.06348131045156773
3940000000.0 0.04910941951107666 0.035871866736706885
3960000000.0 -0.007831571326041429 -0.05334564161509759
3980000000.0 0.042539183943431515 0.010162764117748394
4000000000.0 -0.02805436992879132 0.023702010173361942
