!Created with skrf (http://scikit-rf.org).
# Hz S RI R 50.0 
!freq ReS11 ImS11
400000000.0 0.686040533162025 -0.5103422051503111
420000000.0 0.5956978734470457 -0.5702773537223397
440000000.0 0.5979031389180627 -0.5543515142548499
460000000.0 0.4958418696237933 0.6173744937000107
480000000.0 0.3493976908535378 0.6858600709592998
500000000.0 0.3516044036106563 0.6748209324140271
520000000.0 -0.12134042276097769 0.7342585711112639
540000000.0 0.018920015412260356 0.7153896920988934
560000000.0 -0.6763077090427908 0.2574164654246485
580000000.0 -0.6593166666397029 -0.2591513108821646
600000000.0 0.35255786766413305 -0.579589208596406
620000000.0 -0.027340320474891967 0.649350409783747
640000000.0 0.3831186609798504 -0.420728107305591
660000000.0 0.5858978789400926 -0.04736770207329388
680000000.0 0.39410872599115154 0.48934963321540786
700000000.0 0.5238064360790089 0.30039030556803165
720000000.0 -0.011045588729441195 0.6083642660892488
740000000.0 -0.4513751599066404 0.3675805536979645
760000000.0 -0.5344181806722885 -0.17516062092862786
780000000.0 -0.1666303268864547 0.5097951020525041
800000000.0 -0.38824605679536117 0.36145570884214917
820000000.0 0.38492752489363485 -0.2986419366325787
840000000.0 0.366533478814093 0.26424468089560665
860000000.0 -0.17592282772404214 0.3837954812960261
880000000.0 -0.09823657871861469 -0.3853367457742648
900000000.0 0.2914460357888439 0.20454277359501022
920000000.0 -0.1204631919170016 -0.30750768827103914
940000000.0 -0.12003582520314306 -0.2713303875091436
960000000.0 -0.23415938091511035 0.10259999623272142
980000000.0 0.21444474078422934 -0.05512224310063046
1000000000.0 0.020579028149133868 -0.20782068787198513
1020000000.0 0.11222889645093423 0.13306047516041014
1040000000.0 -0.0008684732779471959 0.13419069154107266
1060000000.0 0.10613650723740489 -0.11024174114649471
1080000000.0 0.14962062088179773 0.00021268062282748753
1100000000.0 0.027197145498431954 -0.17336486989294242
1120000000.0 0.20131246340622677 0.09309774159087576
1140000000.0 0.2297214909573723 -0.07512896094821875
1160000000.0 -0.0033402635075336687 0.27066357301731353
1180000000.0 0.13133336067885634 -0.2808645365880254
1200000000.0 -0.3113288550024162 -0.11954500793057657
1220000000.0 0.12279477790630369 -0.3114968846546276
1240000000.0 -0.24381882996771764 -0.27038991141187363
1260000000.0 -0.36498716297458256 0.11135891114030587
1280000000.0 0.3339892829505609 -0.20629796028683284
1300000000.0 -0.08192656880470725 -0.38835988741498517
1320000000.0 0.13386389417970865 -0.36243111833966546
1340000000.0 0.2549175820166094 0.3001178414770095
1360000000.0 -0.38437363370804634 0.10856292862014064
1380000000.0 0.3911418965908176 -0.06417151246206762
1400000000.0 -0.2917544387896177 0.2632257545524137
1420000000.0 -0.31800694299310894 0.2316953015507847
1440000000.0 0.10427108529534757 0.36984273502609766
1460000000.0 -0.321506211356276 0.19405185491702948
1480000000.0 -0.2805670276457091 -0.25475688136016733
1500000000.0 -0.09456668233577718 -0.3752336159228872
1520000000.0 -0.3016357898469749 -0.2531678636925651
1540000000.0 0.26412775328536564 0.2974874585092802
1560000000.0 -0.2194844571228042 0.32868948930831726
1580000000.0 -0.32555864690192626 0.17211907651269984
1600000000.0 -0.33637212428086044 -0.0205280639000904
1620000000.0 -0.0849482164484245 0.2964532242892153
1640000000.0 -0.19654099800365843 -0.20242575454434128
1660000000.0 -0.2538787346338735 0.026585712342935972
1680000000.0 0.2243133127460531 0.06355947642877688
1700000000.0 -0.16073417273907803 0.1366123510022504
1720000000.0 -0.09099042860261444 0.15837437005504315
1740000000.0 0.1033393802280862 0.10740956381800212
1760000000.0 -0.030609675040329812 0.118993032136138
1780000000.0 -0.0825831858908524 0.026884703339679846
1800000000.0 0.03476744155183433 0.037948878321395825
1820000000.0 0.04928760863252681 -0.006809405462607715
1840000000.0 0.08417525228051718 -0.04269960672982235
1860000000.0 0.025202852097033088 0.13914537169458674
1880000000.0 -0.17117337247410075 -0.06128923706241637
1900000000.0 0.02040816585242568 -0.22189185307663115
1920000000.0 0.16754062140037831 0.21218635721005655
1940000000.0 -0.2816608090125537 0.0774019304317132
1960000000.0 0.3142254060805917 -0.03783149703314652
1980000000.0 0.06391425177504714 0.33594826062158617
2000000000.0 0.33803547093514985 0.09945731741835441
2020000000.0 0.32729432219370397 0.13587744578985525
2040000000.0 0.3178885300191578 -0.1780274021213688
2060000000.0 0.20143178469103562 -0.30349856819603876
2080000000.0 -0.002706595524272267 -0.36248242211431814
2100000000.0 0.3606339210437908 -0.03579848814359123
2120000000.0 0.11740483107965373 0.33486299653235285
2140000000.0 -0.3448286248365814 -0.029837568663733712
2160000000.0 0.30857158553424235 -0.14081478476060458
2180000000.0 -0.2674236452920517 0.192219785802045
2200000000.0 0.12078234822432642 0.2922825666416053
2220000000.0 0.19324612228679305 0.23407163069181192
2240000000.0 0.27826143624402105 -0.08968630058527297
2260000000.0 0.2620007943338277 0.06961159838738276
2280000000.0 0.18437869456055675 0.17997850832310036
2300000000.0 0.23643462442713015 -0.05522193438037768
2320000000.0 0.21262091571372366 -0.06994940590851459
2340000000.0 0.18284203342803407 -0.07293559792620063
2360000000.0 0.07467644886604717 -0.16414827669240808
2380000000.0 -0.023095771620836786 0.16265597575028987
2400000000.0 0.07501109663936323 -0.13060784170538148
2420000000.0 -0.03906049802262276 0.14868106199092285
2440000000.0 0.16069894119404976 0.023426282020655265
2460000000.0 0.058663662116626575 0.17970122824546889
2480000000.0 0.09096009152345133 0.2042339903267669
2500000000.0 -0.12384011806420481 0.22797341525336406
2520000000.0 -0.2898626073959392 -0.0563853036329684
2540000000.0 0.011530904157492425 -0.3315204247756785
2560000000.0 0.3631555174522692 0.0002932828181077701
2580000000.0 0.09130931964321543 0.38343777387185507
2600000000.0 -0.4139451341195133 0.03949024926032264
2620000000.0 0.10512839993679561 -0.4218897375003739
2640000000.0 0.4295750240307598 0.13307296024268822
2660000000.0 0.12012061202995453 0.4435053049060495
2680000000.0 -0.22981244663785458 0.4043324165698297
2700000000.0 -0.3284150522613048 0.33604944982697393
2720000000.0 -0.2527386472966077 0.40168830778129466
2740000000.0 -0.2105191134730432 0.43087231219641925
2760000000.0 -0.1309236206070186 0.4661587272943828
2780000000.0 -0.44868953741343476 -0.1953592745041641
2800000000.0 -0.2677271018552656 -0.4154486236879741
2820000000.0 0.3004952630456908 -0.3980380428966202
2840000000.0 0.24932381550609345 0.43411300009643444
2860000000.0 -0.16409485135189145 -0.472590161875573
2880000000.0 -0.2179293376030816 0.4479639087426363
2900000000.0 0.37139170872679167 0.3270176129133921
2920000000.0 0.48845714218923464 -0.005520865860871397
2940000000.0 0.3526562093275512 -0.33474696059324016
2960000000.0 -0.13042226455364672 -0.4620443835185301
2980000000.0 -0.4659712036041796 -0.09604727178458107
3000000000.0 0.09052144843824814 0.4614944601352302
3020000000.0 -0.04366967635923476 -0.46220420925196903
3040000000.0 0.0333532560833425 0.4499884367093748
3060000000.0 -0.19958645171288214 -0.3911860189320034
3080000000.0 0.42081514199727144 0.0738236569336225
3100000000.0 -0.3133673199217856 0.27493148780557863
3120000000.0 0.14751653657124894 0.37965745300984377
3140000000.0 -0.07905543119317675 -0.3932501749711287
3160000000.0 -0.19129749784111658 0.3445810337302687
3180000000.0 0.21902705165203268 0.32134474684000947
3200000000.0 0.38558621627485967 -0.011162176536696615
3220000000.0 0.3807790523197056 -0.02803796677208473
3240000000.0 0.36762735905014693 0.07062967431281003
3260000000.0 0.3251861682110792 0.16949662410413857
3280000000.0 0.28882363627746216 0.20492114811028533
3300000000.0 -0.16841962273316516 0.2884765671186149
3320000000.0 -0.2458573766814207 -0.1972628161216581
3340000000.0 0.12878553910570312 -0.2628806571863396
3360000000.0 -0.060236264302689 0.2620947196379127
3380000000.0 0.07260911731278737 -0.23809282338956922
3400000000.0 -0.09801194805491217 0.2070451736011188
3420000000.0 -0.0890463507135184 -0.1972973277805359
3440000000.0 0.05206553773584334 0.19929322459175278
3460000000.0 -0.17538704766074273 -0.08815254762268296
3480000000.0 0.024288891774713946 -0.19047268925915672
3500000000.0 0.18505894667773673 -0.048983688757069384
3520000000.0 0.1557032891599011 -0.10972907802518943
3540000000.0 -0.18831156155901532 0.056175775538488695
3560000000.0 -0.16027375690091744 0.1212175965515358
3580000000.0 0.18951142855473513 0.08660163437182222
3600000000.0 0.1900176000773042 -0.09535741238596519
3620000000.0 0.046951468440793655 -0.22042533157236113
3640000000.0 -0.04434810076717001 -0.2215749660623758
3660000000.0 0.21738293047521878 -0.07692054774347173
3680000000.0 0.2335030015060528 -0.0033295398438800933
3700000000.0 -0.12623926037485841 0.18947047039849288
3720000000.0 -0.0019319349867869774 -0.2147770660252131
3740000000.0 0.11917053379312945 0.15449619432639064
3760000000.0 0.1575289072311482 -0.07834067003393143
3780000000.0 -0.13156779449999684 -0.06750179486419325
3800000000.0 -0.08433561330026042 -0.08014765498572389
3820000000.0 -0.0724089196608833 0.045952514267423625
3840000000.0 0.00898160983591883 0.05625825268804608
3860000000.0 -0.0013084175093557066 0.04478790669149181
3880000000.0 -0.03203049331602247 -0.0400678439541857
3900000000.0 0.06947044974702578 0.007611198215350066
3920000000.0 0.0022596169361388347 -0.08096834195279981
3940000000.0 0.06516772862216426 -0.05211361513865592
3960000000.0 0.05892153004510186 -0.04937492093144458
3980000000.0 0.062324194359498895 0.013284675295077979
4000000000.0 -0.04860475065441754 0.004469765914586901
