!Created with skrf (http://scikit-rf.org).
# Hz S RI R 50.0 
!freq ReS11 ImS11
400000000.0 -0.5034794490928614 0.678872752451527
420000000.0 -0.03289957693871913 -0.7879318173718025
440000000.0 -0.2210935093177863 -0.6860213403542187
460000000.0 0.07762808796177517 -0.6464201419508779
480000000.0 0.38139482295237126 -0.3575026930827475
500000000.0 -0.2151486014424779 -0.3665568062162597
520000000.0 -0.13158118965885496 0.4301751080760914
540000000.0 0.24059465521907647 -0.4223569575455944
560000000.0 -0.2514094269191051 -0.39101448484657136
580000000.0 0.38954782709294655 0.13715626263490593
600000000.0 -0.3865221273479001 -0.030634454097234348
620000000.0 -0.34043740636449116 -0.08174085125407561
640000000.0 0.25422801580255944 0.2525080058985506
660000000.0 -0.15278235476681695 0.31565558406710936
680000000.0 -0.32506087096302166 -0.1233650570765994
700000000.0 -0.3675921798202745 -0.044149288119465474
720000000.0 0.23758420830282045 -0.27133047071654676
740000000.0 0.3257982563693755 0.023048111031448618
760000000.0 -0.2084421602643665 -0.229678173952164
780000000.0 0.05862152141213915 -0.30043132417230795
800000000.0 0.17108662340375488 0.20784261598116668
820000000.0 0.16434500169263136 0.1629811351066869
840000000.0 0.18446082893286683 -0.09301266324902563
860000000.0 0.16165175556557723 0.12127367639083844
880000000.0 -0.1766329952552885 0.08402268881004317
900000000.0 0.13700735846140655 0.07463601420504813
920000000.0 -0.1052828159617654 0.09928449344348002
940000000.0 0.12244305171235194 0.0668779606903258
960000000.0 -0.05720519861410849 -0.08414185302877855
980000000.0 -0.023288904777997135 0.058316050558231615
1000000000.0 -0.014173598291715406 0.0352541936368464
1020000000.0 -0.016081240809711475 -0.047674219348781285
1040000000.0 0.010198307260636226 0.08310924506269668
1060000000.0 0.10833362831102504 0.045542539598754914
1080000000.0 -0.026934621026030395 0.15573736375292502
1100000000.0 0.18452387290551622 -0.01664273561478638
1120000000.0 -0.21952725512884702 -0.018232862259046592
1140000000.0 -0.1752984388551398 -0.18661207615101252
1160000000.0 0.23670288657625096 -0.15419755713369712
1180000000.0 0.2947696307012791 0.08407365889423304
1200000000.0 -0.03123614810772859 0.31898895886744116
1220000000.0 -0.05081518915969212 0.3292859383647484
1240000000.0 -0.21304802366177533 0.2534368369347386
1260000000.0 -0.31652502939192906 -0.11084065310595013
1280000000.0 -0.09413997667637122 -0.32949902071069176
1300000000.0 0.19301279582961792 -0.2987402709580421
1320000000.0 0.3252918573106413 -0.1606277073225255
1340000000.0 -0.15193104780257763 0.3341941581335856
1360000000.0 -0.25514027969704317 -0.29076661981464347
1380000000.0 0.37067150643372154 -0.08832320175480587
1400000000.0 -0.33329871420050294 -0.18096047697933398
1420000000.0 0.1443801372912941 0.34609131885539934
1440000000.0 0.2521956391823439 0.2657411019250438
1460000000.0 0.27713730094966504 -0.2367283345623078
1480000000.0 -0.15282352202719282 -0.31155432719414866
1500000000.0 -0.06121560344140005 0.3292182103083847
1520000000.0 0.16327424729020182 -0.2596122771479039
1540000000.0 -0.2727887136138186 -0.03092613586208526
1560000000.0 0.23961610033647035 -0.05680771121342215
1580000000.0 -0.06896162863504542 -0.19499089088961788
1600000000.0 0.1690599540436837 0.07609277461855153
1620000000.0 -0.15287539162609018 -0.042224347794969946
1640000000.0 -0.054121450146369696 -0.12142733030842902
1660000000.0 0.031125995445607884 -0.1072361645153139
1680000000.0 -0.08877115519927473 0.018383896506113436
1700000000.0 -0.04518107412713595 -0.0600642532836094
1720000000.0 0.03547881088457203 -0.0331113968773283
1740000000.0 -0.026678615569400797 -0.04579055138072696
1760000000.0 0.05748123917532829 0.018982610198246496
1780000000.0 -0.062120696381599214 0.060914603093666406
1800000000.0 -0.09566041139026982 -0.0751956632384891
1820000000.0 0.09698500709287466 0.12835309505898418
1840000000.0 0.11752856941823822 0.1477386549235215
1860000000.0 0.10996262239342448 0.18683857188517813
1880000000.0 0.06935987877027765 0.22842870523986242
1900000000.0 0.25757002180302346 -0.05742785988916037
1920000000.0 -0.26821362363926365 -0.09816579507795098
1940000000.0 0.005097425704534072 0.29949528698275885
1960000000.0 -0.290106641688033 0.11701707036214212
1980000000.0 -0.10201829798701673 -0.2973176722937273
2000000000.0 0.23874576593947353 -0.20184754089350807
2020000000.0 0.3152774782877447 -0.0020836976788729247
2040000000.0 0.1427009810523563 0.27796997663884754
2060000000.0 -0.13185646134284262 0.2800863684473333
2080000000.0 -0.3047877975668195 -0.06903451023343717
2100000000.0 0.3090958532532439 0.0216165920914748
2120000000.0 -0.30760834756008315 -0.04108764261864639
2140000000.0 0.1699802337149468 -0.2552200636542523
2160000000.0 -0.12266237615324281 0.27266001472075807
2180000000.0 0.1965467900662 0.2121488483197566
2200000000.0 0.26270849913000766 0.10951578669210572
2220000000.0 0.27070251022686054 -0.03871211515235908
2240000000.0 0.013774343607174935 0.26906288428146363
2260000000.0 -0.1391441878825923 0.21871711735800964
2280000000.0 -0.24457685097573487 -0.034911735411481085
2300000000.0 0.23335257930123973 -0.032760226155314154
2320000000.0 -0.16747121653288954 0.15550110518140467
2340000000.0 0.09218016635779541 -0.20202997728148603
2360000000.0 -0.1399458892112019 0.16955123577165537
2380000000.0 0.19281230032129293 -0.12444877086198172
2400000000.0 -0.19205538643566833 0.1481747655938196
2420000000.0 -0.02671480962107986 0.2683736284100335
2440000000.0 0.2961561695444858 -0.04170281919879984
2460000000.0 -0.3303337454864915 0.04654532556055423
2480000000.0 0.2885657421563723 0.22434531210667868
2500000000.0 -0.35730862419296955 0.1859768026673427
2520000000.0 0.057576741835746126 -0.43463440632157413
2540000000.0 0.468520222898835 -0.08968055247558208
2560000000.0 -0.3524573387892023 0.3682254182366492
2580000000.0 -0.022379195434833948 -0.5418230390733947
2600000000.0 0.4037704683064413 0.4054211804359399
2620000000.0 -0.5799629152217838 -0.1415827495609802
2640000000.0 0.5848268797289313 -0.1953814928013278
2660000000.0 -0.2410093538148982 0.5863796670674072
2680000000.0 -0.5185176612415795 -0.3861992047239407
2700000000.0 0.33110347388412326 -0.5679559507953427
2720000000.0 0.6544710156719592 -0.12318946625395226
2740000000.0 0.6639132309447103 0.10253187343954696
2760000000.0 0.6451333986309602 0.19405414474828517
2780000000.0 -0.3024542689309804 0.5990232691694214
2800000000.0 -0.42082557654828423 0.5152031015972839
2820000000.0 -0.6419045325558859 0.13194626098243395
2840000000.0 -0.3235100046976969 -0.5571352498829819
2860000000.0 0.6210925102742502 0.11750797285066045
2880000000.0 -0.6147157575305435 -0.05337653333827897
2900000000.0 0.48995463681383583 0.34636604563179574
2920000000.0 0.007694037475499378 -0.5796912282141516
2940000000.0 -0.549607252060652 -0.07308770671933093
2960000000.0 -0.2969083723890592 0.4423440810432644
2980000000.0 0.23219809833445648 0.4519716100405619
3000000000.0 0.37156635448476455 -0.31537099495111504
3020000000.0 -0.445931433621633 -0.11999461902247187
3040000000.0 0.3825130685612467 0.20454296086445925
3060000000.0 -0.08200734398287318 -0.39885381148455934
3080000000.0 -0.04542792486389817 0.37885393093345143
3100000000.0 0.03752819930634147 -0.35969173052353975
3120000000.0 -0.11472776544175016 -0.32842758579571574
3140000000.0 0.053522378092881455 0.33704330427584833
3160000000.0 -0.11478394801839444 -0.31510923778895084
3180000000.0 -0.10154026449147241 0.31358398718532887
3200000000.0 0.15401519305971298 -0.2866593685757038
3220000000.0 -0.28095243695824584 -0.14050604088107507
3240000000.0 -0.30419803647379234 0.014784751533506458
3260000000.0 -0.2791072049848839 0.0655236370557418
3280000000.0 -0.16606690547580297 -0.21416167913831427
3300000000.0 0.21697446183614058 -0.13599552995189637
3320000000.0 0.10954155275254407 0.2078006777285466
3340000000.0 -0.2003315359384211 0.08041414955948697
3360000000.0 -0.023606485024355518 -0.18699558596945592
3380000000.0 -0.11747450707672129 0.11339150319728365
3400000000.0 0.13580392754672274 0.0015725755036456659
3420000000.0 -0.03224311579484982 0.11975099995818728
3440000000.0 0.07775280636619653 -0.08248752353680468
3460000000.0 0.07236402520694217 -0.07495705626155087
3480000000.0 -0.07610306814099056 0.05147089430645614
3500000000.0 0.03464959603345827 0.07707682536979228
3520000000.0 0.07344351947053855 -0.004876810426925887
3540000000.0 -0.06425933927505743 0.028833560476258756
3560000000.0 -0.05330302181377273 -0.04695146977019923
3580000000.0 -0.01788073695364248 -0.07557290901858357
3600000000.0 -0.05296611816127827 -0.07581874870117622
3620000000.0 0.08605405723642964 0.05640496069785987
3640000000.0 -0.11034961788036264 0.01342024017672347
3660000000.0 -0.05573399096834933 0.10048631139918346
3680000000.0 0.11560202314741878 -0.012315544473461972
3700000000.0 -0.055759851891836056 -0.09079417216166485
3720000000.0 0.09610147841908462 -0.0038309363150067603
3740000000.0 0.045590052855140416 -0.07408843569391904
3760000000.0 -0.055651635898044026 -0.05538351136946377
3780000000.0 -0.06788557712374195 -0.014806465106691277
3800000000.0 -0.012925234909493872 -0.045011405136953155
3820000000.0 -0.012097191782015267 -0.040230785744357796
3840000000.0 -0.03383094086163774 0.03744615313647883
3860000000.0 0.056574317790326845 0.052746119833468344
3880000000.0 -0.02028148846025121 -0.09136745994270502
3900000000.0 0.09499902589003656 -0.048428685078273456
3920000000.0 -0.0931415955831458 0.056812791374526155
3940000000.0 0.09140188906538355 0.05763344580932046
3960000000.0 0.10560026957553068 -0.010318074688680559
3980000000.0 -0.09678237042911182 -0.01619559147461074
4000000000.0 -0.041146972738273786 0.07853572805556347
