!Created with skrf (http://scikit-rf.org).
# Hz S RI R 50.0 
!freq ReS11 ImS11
400000000.0 -0.6334753323170282 -0.5811056791347139
420000000.0 -0.6168036427576644 0.5736738141137272
440000000.0 0.21237501921664484 0.7587916936940068
460000000.0 -0.24040983591972928 0.6752113505345159
480000000.0 -0.6476587101953071 -0.07643103112659186
500000000.0 -0.29761478845685924 -0.5071200232047797
520000000.0 0.5076387706365769 0.1032612246260566
540000000.0 0.32707780252285107 -0.326761716722241
560000000.0 -0.08666294260967967 0.42962703510853556
580000000.0 0.39528341071404544 0.06214862748487361
600000000.0 -0.3632246250443675 0.006594372611460351
620000000.0 0.039020705075301226 -0.3668146492382984
640000000.0 0.40613198884352864 -0.10184694986217659
660000000.0 0.3116111579413675 0.33835151231097976
680000000.0 -0.33942315040380183 -0.3234862068569512
700000000.0 0.3288492892375781 -0.3235099559112946
720000000.0 0.022785016877424888 0.4388347203762674
740000000.0 -0.0982005842112155 0.379242007787107
760000000.0 -0.2785151089175208 -0.218655946689038
780000000.0 0.12042746199444637 0.3009780060522934
800000000.0 0.28291301930546875 -0.10197293383594283
820000000.0 -0.23049608030526458 0.04833879148182558
840000000.0 0.07618237273220924 -0.16214688866571852
860000000.0 -0.12503398188135015 -0.09190019485466937
880000000.0 0.12930747996670433 0.014432392489579667
900000000.0 -0.10992247611142437 -0.004266631040771676
920000000.0 -0.02691006541900491 0.06491019542069512
940000000.0 0.04667802849727574 -0.013715704737924828
960000000.0 0.04207297239653852 0.03424083708536842
980000000.0 -0.003781701308722835 -0.05826174295783625
1000000000.0 0.07241842465059936 -0.03427570129624703
1020000000.0 0.04821463386203856 0.0975603580999309
1040000000.0 -0.1345637702842807 -0.028604084028633518
1060000000.0 0.16796114922601557 -0.020005908577095218
1080000000.0 0.11730630052101426 -0.1692287685226201
1100000000.0 0.06973277604325924 0.2319974836797254
1120000000.0 -0.12652800085434873 -0.23665583108921415
1140000000.0 -0.22541985528404154 -0.172378952199044
1160000000.0 -0.08549677795699859 0.28006587443567454
1180000000.0 -0.30127162161790844 -0.06363024208973286
1200000000.0 0.22844882693768687 0.2351696723067055
1220000000.0 -0.037419402171312684 -0.3459662446404361
1240000000.0 -0.33618987670436956 0.16093891540124153
1260000000.0 0.321210732449043 -0.21009549450001067
1280000000.0 0.16031216278160396 -0.34865735510746687
1300000000.0 0.35745981288020945 -0.16500024344397257
1320000000.0 0.2095276961389223 -0.34736273674706586
1340000000.0 -0.3224514537616227 -0.25596878352960367
1360000000.0 -0.3550217858335498 0.190947839430381
1380000000.0 -0.3428238862244097 0.1976039331699159
1400000000.0 0.342294334074691 0.18021955636630618
1420000000.0 -0.04725392496590676 -0.3574529613421653
1440000000.0 -0.3171655542942651 0.10875790822047818
1460000000.0 0.18967323937184846 0.23639883695937625
1480000000.0 -0.13990440329630083 -0.23198286214548833
1500000000.0 0.026422170973192206 0.22733286714419196
1520000000.0 0.18634870923734226 0.03359549314953639
1540000000.0 0.1461269772491979 0.026818824654317806
1560000000.0 -0.0005219139559747682 0.12133046298573083
1580000000.0 0.08953905730128324 0.04410823172849334
1600000000.0 0.03290326977806984 -0.06696602892539269
1620000000.0 0.005468091761799072 0.05619650218648009
1640000000.0 0.027342637863605666 -0.022794241607163847
1660000000.0 -0.002516316328737033 0.009807644208944402
1680000000.0 -0.004178042998028818 0.010077660156749865
1700000000.0 0.026085013986176873 0.001852801735610821
1720000000.0 0.007552678976950107 0.03491697672483409
1740000000.0 -0.050581066410775005 0.00869921522941168
1760000000.0 0.007306892380020479 -0.0694554559788002
1780000000.0 -0.07513125292832347 0.0743850257404962
1800000000.0 -0.15030282943455597 0.00974672780289877
1820000000.0 0.1768330364858722 0.04374506548328118
1840000000.0 0.13094916967003176 0.16667952869804628
1860000000.0 -0.14211582574736692 0.1990937925866266
1880000000.0 0.008204379000447721 -0.27876998216375715
1900000000.0 0.22977820501692084 0.21394756186661223
1920000000.0 -0.3407845618252968 -0.04981465337822218
1940000000.0 0.36504438951870194 -0.03987642371417513
1960000000.0 -0.36566994898737937 -0.10454576868944766
1980000000.0 -0.23940675282213994 0.30447406571244956
2000000000.0 -0.2580395446664485 0.30468748291284814
2020000000.0 -0.16769192009087697 0.3787205443315702
2040000000.0 0.3588769478282095 0.234998274670464
2060000000.0 -0.11739353706992425 -0.41466292975583324
2080000000.0 -0.30714370022818 0.2881719463476632
2100000000.0 0.24525200932415628 0.3181059007586534
2120000000.0 0.09474442346318442 0.3705245766523186
2140000000.0 -0.3631722411230733 -0.05765252297767982
2160000000.0 -0.2855026348948183 -0.20631103834139564
2180000000.0 -0.26605558373280336 -0.21192835041121197
2200000000.0 -0.22489975737396636 -0.23831083629678043
2220000000.0 -0.10878502732139192 -0.29987095353852056
2240000000.0 0.12263870108595196 -0.2936655659135434
2260000000.0 0.29170915764108785 -0.14004098709787324
2280000000.0 0.33875087597267084 0.017113835172769876
2300000000.0 0.025722322607637342 -0.3654905394051574
2320000000.0 -0.2923615127251077 0.27283594809762446
2340000000.0 0.2919600184680256 -0.3278851015605539
2360000000.0 -0.20239338545278288 0.43863412212592234
2380000000.0 -0.20315174237896133 -0.4955528878087796
2400000000.0 0.5820648815455 -0.08269216021476297
2420000000.0 -0.07016261821615295 0.6332488677246657
2440000000.0 -0.6206127858669652 -0.27848431514877436
2460000000.0 0.6229647447373422 -0.3501931018648773
2480000000.0 -0.355790774907006 0.6497920835327236
2500000000.0 0.335237205168853 -0.67911841497319
2520000000.0 -0.47885079358117316 0.5980809397984125
2540000000.0 0.645159423351876 -0.41514575216866945
2560000000.0 -0.7550832418567879 -0.09555206239797108
2580000000.0 0.4615809210322623 0.5871578383739079
2600000000.0 0.04782188435947592 -0.7233608685205968
2620000000.0 -0.4630697555980565 0.5204551110445115
2640000000.0 0.06811911449714306 0.6597835051899665
2660000000.0 0.21252625594604474 -0.5853384478818305
2680000000.0 -0.3579311130267177 0.45517777295818135
2700000000.0 0.41514876511977655 -0.3353489550349316
2720000000.0 -0.37969624630655924 0.3077636152440441
2740000000.0 0.43594442752385726 -0.08935393002278791
2760000000.0 -0.3365085251321135 -0.23636882160297226
2780000000.0 0.3489016175549896 0.1735062755858943
2800000000.0 -0.3240878024781759 0.18170581211996603
2820000000.0 -0.2073004395244595 -0.29065721019246576
2840000000.0 0.3271888249021969 -0.0954618150943426
2860000000.0 -0.32765632658849386 0.04703519892619314
2880000000.0 0.156569249816978 0.2909130275669227
2900000000.0 0.14600810482827833 -0.30364701104156083
2920000000.0 -0.2653725506350696 0.21988432781818545
2940000000.0 0.32871779506739257 -0.10435789737078201
2960000000.0 0.1040037966776009 -0.320655792233625
2980000000.0 0.2849234608984954 0.17020988618974783
3000000000.0 -0.33384391884672243 -0.05997696202996875
3020000000.0 -0.20489541753306134 -0.28589398407057215
3040000000.0 -0.2849660768388155 -0.2085419623987681
3060000000.0 -0.2157799726295459 -0.267382987930341
3080000000.0 0.2894306186042395 -0.15146475086964845
3100000000.0 -0.3121480456726801 0.006763937019851653
3120000000.0 0.3040387630424269 -0.008308000794613616
3140000000.0 -0.23442327824300627 0.1848234685453048
3160000000.0 -0.061374278809868725 -0.28200906738327536
3180000000.0 -0.2638464041804267 -0.01914224609897995
3200000000.0 -0.22844615679023564 0.019630317130880145
3220000000.0 0.055636731042009516 -0.18540645175656426
3240000000.0 -0.11979204624334905 0.11332072731405703
3260000000.0 0.059136895989265664 -0.1333332028119978
3280000000.0 -0.07101560425727496 0.10500537314334342
3300000000.0 0.08561787904933886 -0.05917036311044105
3320000000.0 -0.016163389045763258 -0.07451536869373918
3340000000.0 0.006177251096864151 0.052388871475143116
3360000000.0 0.03881739149809373 -0.013249038931409201
3380000000.0 -0.0038523926365494265 -0.041445645746656816
3400000000.0 -0.05171668799034549 0.024886900271348242
3420000000.0 -0.06982767069460949 0.03989177191574762
3440000000.0 -0.02745998603876953 -0.09477556748743118
3460000000.0 -0.10827678840137511 0.013601751700484473
3480000000.0 -0.02568221812106193 0.10890358101951854
3500000000.0 -0.03852147050140726 -0.11696092218939305
3520000000.0 0.1114870880304454 0.0890077897121094
3540000000.0 -0.08305596737462745 -0.1443468746431529
3560000000.0 0.17634294592468755 0.014299556055357638
3580000000.0 -0.17492740046234792 -0.021703826314451686
3600000000.0 -0.16864368875758334 -0.03408018569739027
3620000000.0 0.1528491614948865 -0.07107998200875563
3640000000.0 -0.16628335192544377 0.02890829339230583
3660000000.0 0.024305599104285744 -0.1704296705684375
3680000000.0 0.020643826055141232 -0.17253289506690894
3700000000.0 -0.08480962280980378 -0.14236123472728526
3720000000.0 0.04730606891627641 -0.1420285310060804
3740000000.0 -0.04926574167494476 -0.12620176166001335
3760000000.0 0.12344373031425775 -0.034117445163421176
3780000000.0 0.10294120243485586 0.06843685915428369
3800000000.0 0.09241557055940904 -0.07389915550355003
3820000000.0 0.04729636028131734 0.09718927282252984
3840000000.0 -0.04872899717024911 0.09053369866349541
3860000000.0 -0.11750764844963152 0.008533984089881642
3880000000.0 0.1010191085665945 0.09868390853172905
3900000000.0 0.025086644868631273 -0.15173894976663901
3920000000.0 0.04573820478284973 0.14127105333583442
3940000000.0 0.030808141988799432 0.131600352829623
3960000000.0 -0.12463749913135992 0.0100691752366251
3980000000.0 -0.07347377288337878 -0.09294031198207882
4000000000.0 0.044966878191958944 0.09987442619850263
