!Created with skrf (http://scikit-rf.org).
# Hz S RI R 50.0 
!freq ReS11 ImS11
400000000.0 -0.36688932862219065 -0.7228008344415573
420000000.0 -0.6178501437939599 -0.560521482195451
440000000.0 -0.7262184544663225 0.2780877591806415
460000000.0 -0.6648677902136423 -0.2876771633819136
480000000.0 0.6255742577545756 -0.22412719666064254
500000000.0 0.634395977328824 0.14462969810893536
520000000.0 0.5723148806286764 -0.08218918756230117
540000000.0 0.17473558732423145 0.4803495480150547
560000000.0 -0.3732058694938297 0.2688835088345483
580000000.0 0.14827059977513035 0.37521641380471726
600000000.0 -0.055346970806133676 -0.3631070623426997
620000000.0 -0.2693471318355579 -0.239744123969837
640000000.0 -0.1717906400257247 0.3515544084228841
660000000.0 0.3159732520805548 -0.28366458235926645
680000000.0 0.09900466089920837 -0.42741050139240977
700000000.0 0.3999656164788695 0.17822778107685505
720000000.0 0.02640469389077576 -0.4179645474566832
740000000.0 0.35006755188814703 -0.18421410636700178
760000000.0 0.3549240001361338 -0.11606377790890929
780000000.0 0.05999278098615138 -0.3324834910758669
800000000.0 0.04687951567306765 -0.28689465886330623
820000000.0 -0.030700421081359956 -0.24174003465331684
840000000.0 0.18184808892334717 0.07967156473036494
860000000.0 -0.16037094592987394 -0.012869818965931345
880000000.0 0.029194984639420107 0.11270929486048872
900000000.0 -0.07972670062278517 0.0309175767799553
920000000.0 -0.030863795225387174 -0.05448651293664161
940000000.0 0.03177307645908079 0.03041031497147357
960000000.0 -0.05352068500655074 -0.012444691085042295
980000000.0 0.008004564196578202 0.07438956689647847
1000000000.0 -0.020434934788490153 -0.08134209104868134
1020000000.0 0.01342666853805368 -0.10225389307261075
1040000000.0 -0.0409854973134585 0.10880366808726025
1060000000.0 -0.00046607700139792964 -0.14354040768819207
1080000000.0 -0.1794700619677193 0.004742811649453805
1100000000.0 0.1848891790524393 -0.09826777950691046
1120000000.0 0.2411654612897852 -0.0175568974177561
1140000000.0 0.2403433772744974 -0.13782194733300254
1160000000.0 -0.22475776833568195 0.2037982790112608
1180000000.0 -0.2404370398093424 0.21756831735137605
1200000000.0 -0.2531706408938403 -0.23289537133362406
1220000000.0 0.0031528180054162646 0.3578794086971224
1240000000.0 0.3520994760882721 -0.13360232424384022
1260000000.0 -0.08262289061616905 -0.3795681505860984
1280000000.0 -0.3897864054318361 -0.09843347832367348
1300000000.0 -0.28956664402139126 0.2823735538190973
1320000000.0 -0.3673638531934471 0.1763332028833241
1340000000.0 -0.17335495230285172 0.37626124343181566
1360000000.0 0.2741603879704347 0.30689143492827
1380000000.0 0.3932203277896654 0.048419831570369505
1400000000.0 0.2023801910260338 -0.325640963905334
1420000000.0 -0.26484986033755026 -0.24160015078523298
1440000000.0 -0.32399088637896556 0.09270176359695421
1460000000.0 0.2931267065604047 0.10415632628729717
1480000000.0 -0.06426364004105045 -0.273924500538386
1500000000.0 0.2476806494357208 -0.02386034668537585
1520000000.0 -0.17369781484869376 -0.11859118702962292
1540000000.0 0.049987985508505896 -0.16242460410380513
1560000000.0 -0.10831672162949732 -0.07177297877185825
1580000000.0 -0.09982517347267925 0.029170806459367683
1600000000.0 0.014949829389063602 0.0785723071863253
1620000000.0 0.0011228664446558247 0.061086944388443955
1640000000.0 -0.022571455689658897 -0.03338009381216928
1660000000.0 0.014225457764598754 0.010450020626583616
1680000000.0 0.0020363250932118253 0.001387483011812788
1700000000.0 0.01745154433605637 0.018240871800888448
1720000000.0 0.03311440524337788 -0.029197009463241327
1740000000.0 -0.0008277472748990919 0.06361533112379371
1760000000.0 -0.08211561696418147 -0.009230703383171565
1780000000.0 -0.0024809034914941436 0.10671369075748816
1800000000.0 -0.01460340236383358 -0.13997588887577947
1820000000.0 0.17672383865902672 -0.017743479222591327
1840000000.0 -0.1236268617003871 0.16942175104221208
1860000000.0 -0.147635661341253 -0.19895827843854857
1880000000.0 0.2844574311080078 -0.010646890274440015
1900000000.0 -0.23175817497838402 0.21817090595751698
1920000000.0 0.15947395922617652 -0.30810042957995926
1940000000.0 -0.3562556014900129 0.1055131117866586
1960000000.0 0.3482589255597091 0.18399658297132745
1980000000.0 -0.014334328982240917 -0.40720928680065904
2000000000.0 -0.3964030988617791 -0.13015909803767092
2020000000.0 -0.3673078865062371 0.21392933805371092
2040000000.0 -0.09744378794015457 0.419551839168221
2060000000.0 0.4024119112567664 0.1510633681646195
2080000000.0 0.3131597695864102 -0.281913236988166
2100000000.0 -0.06670917714816335 -0.4058860312037433
2120000000.0 -0.37041449368671964 -0.1348762191004715
2140000000.0 -0.31292415368266635 -0.20725664210424538
2160000000.0 0.34210644423980824 -0.10881439085199275
2180000000.0 0.341117258654258 -0.05419197165962021
2200000000.0 0.3296171233823293 0.05661463676915663
2220000000.0 0.20362372164236076 0.2557456847331277
2240000000.0 0.005991259055008894 0.33118775045388416
2260000000.0 0.29435995343320553 0.17238623971618758
2280000000.0 0.26303815724510354 -0.23962017540732033
2300000000.0 -0.3752399798965497 -0.036344756791132915
2320000000.0 0.23634662462337624 0.3287078173694898
2340000000.0 -0.3771903406819821 -0.23477776454184188
2360000000.0 0.43497257101105485 -0.21920983223330168
2380000000.0 0.22227389182045745 0.48694898789598745
2400000000.0 -0.45078355456275415 0.368952821276492
2420000000.0 -0.4863353513786969 -0.3931071406569197
2440000000.0 0.3822217262592174 -0.5398505552393796
2460000000.0 0.3843774227702311 0.5734160312267065
2480000000.0 -0.6964603108198264 -0.14108115842374208
2500000000.0 0.7213244802907006 0.022660236272632143
2520000000.0 -0.7073561312335146 -0.16508638355687097
2540000000.0 0.6479237526435738 0.3187810988259963
2560000000.0 -0.2982504515741889 -0.6476392885692654
2580000000.0 -0.17288018218965487 0.6715442407487918
2600000000.0 0.5338484315113888 -0.39941874143237854
2620000000.0 -0.6367815720395821 0.0244740745440628
2640000000.0 -0.43301034778295905 0.41923184004886743
2660000000.0 0.5594883006772476 -0.061012268005350485
2680000000.0 -0.47155222818820325 -0.22674330505279125
2700000000.0 0.3546318235853905 0.3302563735124085
2720000000.0 -0.2574895380176021 -0.36428175627313175
2740000000.0 0.11191772305463538 0.3955896854044829
2760000000.0 -0.1842170878863893 -0.3341064121410071
2780000000.0 0.3226180685771479 0.15661938863448058
2800000000.0 -0.3381401898464986 -0.04764209711374686
2820000000.0 0.3279056133013212 -0.0681270960684284
2840000000.0 -0.14975996989837764 0.29562270247623945
2860000000.0 0.043417972925513915 -0.32796522065353245
2880000000.0 -0.1142702891449971 0.31074845958650255
2900000000.0 0.32209767872094114 0.08837636429449215
2920000000.0 0.08130686998176115 -0.33165106394626565
2940000000.0 -0.3479654358320249 -0.006966491007985258
2960000000.0 -0.24488859118583273 0.24730175619165895
2980000000.0 -0.30118843535656575 0.17270678976372442
3000000000.0 -0.3026936702902771 -0.17801979203978704
3020000000.0 -0.053257493439876326 -0.34555561350259956
3040000000.0 0.3379770362405617 0.05310612491422164
3060000000.0 -0.31759994739496544 0.10617880786579258
3080000000.0 0.30359045696788245 -0.12945252327906356
3100000000.0 -0.18505939855507048 0.26476361334266035
3120000000.0 -0.1857192108735494 -0.2512603448193986
3140000000.0 0.2928075340652128 -0.049474116883554915
3160000000.0 -0.2358169965646334 -0.1509670976177873
3180000000.0 0.07932022890803771 -0.2461085437845342
3200000000.0 0.22980264610624876 -0.01208722714247339
3220000000.0 0.1306782234052217 0.15039811623832489
3240000000.0 -0.13816064733720418 0.0925831276366432
3260000000.0 0.0691510452905795 -0.11729521315745169
3280000000.0 0.08099162892574664 0.07008557261058564
3300000000.0 -0.07249155345058211 0.034969349325864416
3320000000.0 -0.0003804929876376361 0.059968239185422344
3340000000.0 0.037218334755860956 -0.01791371983626414
3360000000.0 -0.0220591125937158 -0.017528284174049332
3380000000.0 0.011479302508093384 -0.022320148012905213
3400000000.0 0.021596688748289104 0.0205220760338747
3420000000.0 -0.015318917596430703 -0.03466941359003104
3440000000.0 0.006768286884684866 -0.04961944703251431
3460000000.0 0.02461479983223109 -0.06265365523860655
3480000000.0 -0.08324926538166805 0.014847556497785547
3500000000.0 0.0736691856321076 0.07004510771121006
3520000000.0 0.11698769166858357 -0.0289952473376778
3540000000.0 -0.08062101619321345 0.11231411893434892
3560000000.0 0.07947857482913694 -0.12158834459808295
3580000000.0 -0.0596103573144098 -0.1367656042991099
3600000000.0 0.010839892632047892 -0.1557078782783638
3620000000.0 0.07242925327074382 -0.14484847474313048
3640000000.0 0.13778649192196957 -0.08690115274305996
3660000000.0 0.03847088057111882 0.15972638463444835
3680000000.0 -0.15761846228865906 0.05600181381906227
3700000000.0 -0.13995675535560512 0.08975819254231232
3720000000.0 -0.15618563369408225 -0.031847805745462456
3740000000.0 0.08765120721625477 -0.12162833713437352
3760000000.0 0.1098583933211139 -0.08653959715203956
3780000000.0 0.07388217719747742 -0.10663987786146119
3800000000.0 -0.019278046331746967 0.1193042919307861
3820000000.0 0.10107445731930369 0.07268728876636885
3840000000.0 -0.05627994724888894 0.12162342890894065
3860000000.0 0.11376046921599615 0.07937090029445279
3880000000.0 0.07238653400198349 0.12632486796628375
3900000000.0 0.07951595848125567 -0.1357803366760194
3920000000.0 0.013606550727383994 -0.16075689108386543
3940000000.0 0.075835653184355 -0.14155611536846732
3960000000.0 0.03390609954806759 -0.15242341715716426
3980000000.0 -0.04302808208362165 -0.14272683381491325
4000000000.0 -0.1266024503563265 0.04315386264001334
