!Created with skrf (http://scikit-rf.org).
# Hz S RI R 50.0 
!freq ReS11 ImS11
400000000.0 -0.36671967937423067 -0.7342639783121006
420000000.0 -0.7409551991462291 -0.3764073228644896
440000000.0 -0.70640827751444 0.32807279021731917
460000000.0 -0.7099620813071008 0.1327764477811419
480000000.0 0.6339528050098351 -0.16208863556037767
500000000.0 0.6339914140841191 0.10426683716096861
520000000.0 0.43616159744214106 0.3514290231232843
540000000.0 -0.5163402772385159 0.04149438400275408
560000000.0 -0.38147652851055475 0.2617101483243638
580000000.0 0.0621288825633062 0.3983638227449693
600000000.0 0.29461086076932796 -0.21104739136676393
620000000.0 0.3651897404937395 -0.07713055105624919
640000000.0 -0.0936515995802865 0.39414947464116373
660000000.0 0.24461742350586094 -0.3578889038335021
680000000.0 -0.21967823693357683 -0.39056761643065824
700000000.0 0.4314524344171447 0.065959700233374
720000000.0 -0.0057071093068465405 -0.4217592395386586
740000000.0 0.3789043249696615 -0.09801494230968436
760000000.0 0.26657955716037635 0.26734349260692253
780000000.0 -0.01706020821225547 -0.3390395738004408
800000000.0 -0.028573625078387056 -0.2829347640167308
820000000.0 0.21434772426010032 0.09916078384219225
840000000.0 0.09140174739010304 0.1616806403702224
860000000.0 -0.1107134189362876 -0.09906197445010846
880000000.0 -0.10061833050205218 0.04590378763060637
900000000.0 -0.008919777928440443 -0.0752938997722914
920000000.0 0.061153151379924275 -0.012485699905368096
940000000.0 -0.02692248070905448 0.0408966891687732
960000000.0 0.04877234922796209 -0.04413411482249147
980000000.0 0.07662069141349925 -0.043650994721636076
1000000000.0 0.09730060878510212 0.01775340942085122
1020000000.0 -0.10993005872436262 -0.01146913694806397
1040000000.0 -0.10240597479603543 0.08444521161539283
1060000000.0 -0.12513769814710135 -0.10245484304163341
1080000000.0 0.1541064236383178 0.12162481522941887
1100000000.0 -0.13217971735489664 -0.16671381070798136
1120000000.0 0.23778572032114453 0.0047246595167988945
1140000000.0 -0.056843577281914415 0.26191102779526154
1160000000.0 0.15323646107454272 0.25463291156343437
1180000000.0 0.2998647272503363 0.1531904838635441
1200000000.0 0.22363489999356306 -0.28271159049088274
1220000000.0 0.17340527664008829 0.3240387968894948
1240000000.0 0.02656740986422431 -0.36974892127133996
1260000000.0 0.08644459830663448 -0.3568275993485972
1280000000.0 0.3576947119462912 0.13920521512416228
1300000000.0 0.31267739566345243 0.24832361427852007
1320000000.0 0.32658307411832044 -0.26789476828644143
1340000000.0 -0.4262838681005576 0.018916636115335086
1360000000.0 0.24395220627922726 0.3403047613534574
1380000000.0 0.2993364978575089 -0.2591438846182879
1400000000.0 0.01705184025348312 -0.3709397696052962
1420000000.0 -0.17079139450488598 -0.29629186449739736
1440000000.0 0.09343166035928538 -0.30514667989779315
1460000000.0 -0.2059640836161126 -0.221633839459265
1480000000.0 0.15295730411453135 0.23827857561440818
1500000000.0 0.19093202668942888 0.16180396535732455
1520000000.0 -0.20691341206123423 -0.028028158554729895
1540000000.0 -0.12621525108640952 0.10738568768066452
1560000000.0 -0.004326748174627102 -0.11628392955568946
1580000000.0 -0.06669360282695265 0.04952116306852797
1600000000.0 0.018996620401525596 0.06207555808901268
1620000000.0 0.05465576372909524 -0.0009046913582459481
1640000000.0 0.026275518759243235 -0.033660212296818905
1660000000.0 0.02294673793297101 0.002909531265063739
1680000000.0 -0.01629332071261108 0.002447147992070774
1700000000.0 -0.02634112047499138 0.013389384173731504
1720000000.0 0.006109073829548872 -0.04636099156859795
1740000000.0 -0.006933375564527859 -0.06489399185750726
1760000000.0 0.06438350867658625 -0.05671283276300771
1780000000.0 0.08712086846713434 -0.06597749943979547
1800000000.0 0.02729245054082671 -0.137934377332986
1820000000.0 -0.07787730822479391 -0.15299664530366536
1840000000.0 0.17421706527437572 0.09263299915834362
1860000000.0 -0.1952470967959547 -0.12199404523456905
1880000000.0 0.10172367562201544 0.24913200496145435
1900000000.0 -0.21244079159012405 -0.2227662476081901
1920000000.0 0.32221329387015024 0.12376558348672125
1940000000.0 -0.35305455222926646 -0.12639221447540086
1960000000.0 0.4016098619120674 -0.013643204832821144
1980000000.0 -0.4095306340202366 0.043791874359107856
2000000000.0 0.03826811425827935 0.4137830989872846
2020000000.0 0.23330971303391315 0.34592528973164005
2040000000.0 0.15505764728099639 0.3885986636362907
2060000000.0 0.20657921100676013 0.37100957139743296
2080000000.0 0.42397168816727415 -0.06587966528376826
2100000000.0 -0.2692392787347384 -0.3268089969102932
2120000000.0 -0.3009135089298587 0.2740993154805254
2140000000.0 -0.36710965631569126 -0.11544595952437092
2160000000.0 -0.31563901448927145 -0.1774701569172899
2180000000.0 0.13499843787484564 -0.3153391130353965
2200000000.0 0.2796823565318839 0.19129947505969708
2220000000.0 0.038714541373772136 0.3367596863721148
2240000000.0 0.014261005405458256 0.35493863546696097
2260000000.0 0.28522298348234465 -0.23310890507241233
2280000000.0 -0.34135882190761646 -0.16872058468178905
2300000000.0 0.13401553309780623 0.37441506751840786
2320000000.0 0.36896079605148946 -0.20338947306219843
2340000000.0 -0.42633533557740966 -0.183518619398427
2360000000.0 0.5116409010396616 -0.05836007918679982
2380000000.0 0.0034639655481445175 0.5692557603987936
2400000000.0 -0.5900348616920056 0.18680602814303368
2420000000.0 -0.2967698011351653 -0.5898651188589609
2440000000.0 0.6699542833537981 -0.1855342013611722
2460000000.0 -0.23066693714803788 0.6840584366578006
2480000000.0 -0.2006102710202443 -0.7142589176581005
2500000000.0 0.25554418413640456 0.7085154178890639
2520000000.0 -0.0792400767245653 -0.751841731071584
2540000000.0 -0.21795674796166445 0.7179647626045644
2560000000.0 0.6147804159956163 -0.41129974254130613
2580000000.0 -0.6826892038900846 -0.22659920556937085
2600000000.0 0.30673216832103867 0.6196126565149811
2620000000.0 0.3082228315819025 -0.5835129013727274
2640000000.0 -0.14623373070269222 -0.6059455785223821
2660000000.0 -0.25042139350996423 0.5256350637240678
2680000000.0 0.2935502155860304 -0.45166889874888855
2700000000.0 -0.45643866226920854 0.1828971894721809
2720000000.0 0.44846653875741105 0.03259346820637911
2740000000.0 -0.34877650322305137 -0.2142985025939001
2760000000.0 0.13812742512534487 0.3536716129016395
2780000000.0 -0.17737573141847301 -0.31248991241814683
2800000000.0 0.3382995550040732 0.06874389022811364
2820000000.0 0.01018026811931308 0.3346391461841409
2840000000.0 -0.3206316481117377 0.046241029298277204
2860000000.0 0.28296260515212457 -0.1419375093887757
2880000000.0 -0.2717148637842561 -0.1533128567476892
2900000000.0 -0.30472297524245445 0.08629100214024486
2920000000.0 0.11520047488856361 0.3108753275087832
2940000000.0 0.13981399219156582 -0.31228108205840543
2960000000.0 -0.3462943421235768 -0.025331756185285593
2980000000.0 -0.09340047648604563 0.33368139170670275
3000000000.0 -0.06466982553911217 0.3333940261517885
3020000000.0 -0.3269500020460356 0.019769967240517137
3040000000.0 0.31790233779462435 0.033440880993202
3060000000.0 -0.294315414070237 -0.11184657884519983
3080000000.0 0.2029778589191377 0.2377568095883097
3100000000.0 -0.3111794016270875 0.03512750227676018
3120000000.0 -0.18321639772918896 -0.24673652422000444
3140000000.0 -0.14300646888996976 -0.2549402008492191
3160000000.0 0.26704843174035503 -0.01479129547352146
3180000000.0 0.11641698406833673 0.20459713716119607
3200000000.0 -0.17249806942927454 -0.10931525620876369
3220000000.0 0.09607419942049707 0.14994093221964688
3240000000.0 -0.1475622438586791 0.058460001528992556
3260000000.0 0.0710754670439402 0.11476861089926153
3280000000.0 0.09205007617429369 0.04939407727008505
3300000000.0 0.055779145165275996 -0.04414106365373751
3320000000.0 -0.037196346894127374 -0.015798783273906766
3340000000.0 0.016915092066255098 -0.008749656747812804
3360000000.0 -0.010729222002618385 -0.0003430085226807602
3380000000.0 0.0025920169390461958 0.016389649108361975
3400000000.0 0.012658331009771205 -0.03630172616687541
3420000000.0 0.0598837594014703 -0.021884758453159306
3440000000.0 0.006849099984045021 -0.08368942188357326
3460000000.0 -0.07840267455340667 0.05487536585601398
3480000000.0 0.0765465094133373 -0.05928592004258335
3500000000.0 -0.019118187010882297 -0.09690060419531772
3520000000.0 0.11458826326582268 3.2992445002318054e-05
3540000000.0 0.07273465259394134 0.12222136012412561
3560000000.0 -0.16146858130163372 -0.02495836503658516
3580000000.0 0.10360841317858853 -0.14245368521130425
3600000000.0 0.1017275728258669 0.14240549756806906
3620000000.0 0.09449566831325786 0.13637972817633393
3640000000.0 0.10084059247254915 -0.126424697751309
3660000000.0 -0.14700287059300124 -0.08219954634323402
3680000000.0 0.0801468326803707 -0.15864483831641676
3700000000.0 -0.13330906697803338 -0.12380357175810157
3720000000.0 -0.0017386326036357377 0.17799451485103676
3740000000.0 0.15228234957291817 -0.05061409954100445
3760000000.0 0.0687555758067358 -0.11208512465462418
3780000000.0 0.07645934055944476 -0.08157407433537739
3800000000.0 -0.020456562131986718 0.11079147056009336
3820000000.0 -0.11206117293140047 0.05939481516854285
3840000000.0 -0.10157318383912488 -0.08579514866898466
3860000000.0 0.11406555954554067 -0.05510898669136093
3880000000.0 0.011596353229472223 0.11571821646661101
3900000000.0 0.009061477281429652 0.1181539921807633
3920000000.0 0.04497908045305201 0.1260845558508358
3940000000.0 0.13193810723065688 0.06233022830288842
3960000000.0 -0.12340345901873867 0.08123335592212781
3980000000.0 -0.10481853076224604 -0.0830938905759276
4000000000.0 0.0825662702920904 -0.06390389975308083
