!Created with skrf (http://scikit-rf.org).
# Hz S RI R 50.0 
!freq ReS11 ImS11
400000000.0 -0.6015733075582937 -0.5722615064043872
420000000.0 -0.8176448086008278 0.18017728505781092
440000000.0 -0.3928561526738064 0.6745167685891834
460000000.0 -0.6895036230487008 0.2157825949605257
480000000.0 0.48146644735937905 -0.4590802776587248
500000000.0 0.30343507859114127 -0.5624050683107482
520000000.0 0.5166555314224632 -0.20485033155415494
540000000.0 -0.4812423777048898 -0.11390010094986976
560000000.0 -0.4426329146167181 0.11412217103163791
580000000.0 -0.36431712735294175 0.1889393037035751
600000000.0 0.3324501408414835 -0.15835922670733313
620000000.0 0.3491078781114579 0.11079751248262905
640000000.0 -0.39614553709539346 -0.09222172915555749
660000000.0 0.43230275463347306 0.09334071407860176
680000000.0 -0.3826634807615552 -0.2552020714028557
700000000.0 0.10498682475476716 -0.43439539051415377
720000000.0 -0.15965263917051964 0.3989437155206524
740000000.0 -0.09441443285179137 0.3648709303554473
760000000.0 0.30416514954737556 -0.17305212518833712
780000000.0 0.318335774562165 -0.012468571896571875
800000000.0 -0.2559802666725116 0.14065634910058925
820000000.0 0.004402528140129028 -0.24991023380669192
840000000.0 0.06392928393385656 0.1847278765405939
860000000.0 0.03165601300250225 -0.16398724488335817
880000000.0 0.08653668537969449 0.08051848175177372
900000000.0 0.019936594625921514 -0.08246201418714826
920000000.0 0.0003051086530774242 -0.05764618528325727
940000000.0 0.00025596912574097095 -0.041107532500581884
960000000.0 0.05480634934878445 -0.037717765529156566
980000000.0 -0.05875525670080444 0.0510093628405587
1000000000.0 0.07420127250344905 -0.025847899842554457
1020000000.0 0.09460975081479485 0.007718635665466879
1040000000.0 -0.11606188362437916 -0.02545223517546481
1060000000.0 0.09991691676713846 0.13053629922972163
1080000000.0 0.1960916070689904 -0.015883172377520367
1100000000.0 -0.03810387536499299 0.216507553000225
1120000000.0 0.009967053288259017 0.23842524307347465
1140000000.0 0.13699192688583048 -0.22897849255476455
1160000000.0 -0.3037709816956127 -0.039926315250553825
1180000000.0 0.2531077021975393 0.2157277319051742
1200000000.0 -0.22388245543134158 0.25756494588695067
1220000000.0 0.23211930049141927 0.2675342098382358
1240000000.0 0.3590627946803735 -0.10289146009954574
1260000000.0 -0.19525893442002262 -0.33553026640535283
1280000000.0 -0.3049940598078459 -0.2590861440759926
1300000000.0 -0.3899595554157555 0.12923100586181938
1320000000.0 -0.20981587762857173 0.36020030916259344
1340000000.0 0.24816842380755047 0.3395272670754055
1360000000.0 0.3385388772395874 -0.22757294864579658
1380000000.0 0.3890374180694935 -0.012829051294087186
1400000000.0 0.38039220398917656 0.02940762476235408
1420000000.0 -0.006868252363165097 -0.36883991274290173
1440000000.0 -0.17573564613368756 0.30015927962760297
1460000000.0 -0.07161739054868044 -0.3075817310369965
1480000000.0 -0.14968761078453907 0.23284660529884796
1500000000.0 0.09022050639575202 -0.21914792973595718
1520000000.0 0.1488687364980773 -0.1323122899560576
1540000000.0 -0.1640594607097317 -0.02770317016832569
1560000000.0 -0.03675223327937093 0.13206323503454415
1580000000.0 0.008382052518477243 -0.11181010803423191
1600000000.0 0.08547408049679103 -0.003181167831025308
1620000000.0 -0.05880537320451487 0.025173169304255127
1640000000.0 -0.004931864165793469 0.04495816416018753
1660000000.0 0.016416757373052523 0.0012637388814086407
1680000000.0 0.009020088458445564 -0.012269531586157522
1700000000.0 -0.03406345548165209 0.01083955998412423
1720000000.0 -0.04666537794839158 0.01462345014017661
1740000000.0 0.006028546046587909 0.06271418492178474
1760000000.0 -0.06998981479309119 0.033411544511606064
1780000000.0 0.10738407678658124 0.005866191965532642
1800000000.0 0.14830020085306517 0.024407943326051822
1820000000.0 0.09671147342072949 -0.15378465487634702
1840000000.0 -0.03663381049344027 0.20655939652284855
1860000000.0 0.10128136712313118 -0.22576765870959345
1880000000.0 0.24796662732550798 0.14521912723725428
1900000000.0 -0.30941067773160286 0.07515791837180345
1920000000.0 0.3406027628462025 -0.07722451711355628
1940000000.0 -0.35793014152097585 -0.11537936553388292
1960000000.0 0.38950963925957616 0.07850191842422052
1980000000.0 -0.028067673724193835 -0.405445388498771
2000000000.0 -0.36497631229286565 -0.2051214777143887
2020000000.0 -0.31539136911694826 0.2874499607320648
2040000000.0 0.08163052135945878 0.4228140366671069
2060000000.0 0.4063864526661301 -0.13002254771704733
2080000000.0 0.2846523469105896 -0.3026637024131147
2100000000.0 0.14826161412282457 -0.3794252319439878
2120000000.0 -0.014072097340239656 -0.3952381064981295
2140000000.0 -0.32894714933496705 -0.19700715770620994
2160000000.0 -0.04511678341213397 -0.3590881702265272
2180000000.0 0.17139305072531957 -0.2929231727447039
2200000000.0 0.2995454015313744 0.1299520843327473
2220000000.0 -0.17162675302696506 0.2766003441339757
2240000000.0 0.0045662035875782235 0.3366237004780401
2260000000.0 0.34031455968487473 -0.0344328822900737
2280000000.0 0.06237198424317271 -0.34825816351358413
2300000000.0 -0.36158601262954343 0.09741600737296298
2320000000.0 0.3987640125091197 -0.06562601250096609
2340000000.0 -0.38550052660064094 0.21617766219571866
2360000000.0 -0.0450512161661949 -0.4825339448052474
2380000000.0 0.5310398081336597 -0.05083594451013639
2400000000.0 0.15067770956565663 0.561982054599933
2420000000.0 -0.5230018368969335 0.3439276567635633
2440000000.0 -0.4159380669743182 -0.5149301174576686
2460000000.0 0.6201049780892611 -0.30199124263712
2480000000.0 -0.25439151916553626 0.6632120669486682
2500000000.0 0.05238274368864917 -0.719126555305365
2520000000.0 -0.14627655409090637 0.7089173789500273
2540000000.0 0.399480988203745 -0.5988601278925058
2560000000.0 -0.6516393936315075 0.283956256623223
2580000000.0 0.6039970422217141 0.3373108614964883
2600000000.0 -0.19262637568856256 -0.6373102533313423
2620000000.0 -0.4843932673455295 -0.41038073570367806
2640000000.0 0.15226780105347013 0.5808631482665056
2660000000.0 0.24434793601000593 -0.506851513481685
2680000000.0 -0.35230521426854056 0.38712542100650776
2700000000.0 0.3898449532991654 -0.2849388177294671
2720000000.0 -0.3349946198450607 0.28863897116099513
2740000000.0 0.37355266600249515 -0.16133240617040007
2760000000.0 -0.3563282807193339 0.12313734849956558
2780000000.0 0.3351600451273017 -0.12569878161634704
2800000000.0 -0.08579442294228008 0.33532691226409583
2820000000.0 -0.26552039974587366 -0.20416642313830888
2840000000.0 0.2773084396225245 0.17316140842661046
2860000000.0 -0.03795969237838491 -0.32656359435323706
2880000000.0 -0.1599143684151745 0.2956445815985094
2900000000.0 0.34302353521467627 0.03847531547580288
2920000000.0 -0.3059928144474062 -0.18300287000949492
2940000000.0 0.10970190356192298 0.3399229052312254
2960000000.0 0.2737214476871315 0.22183418811910505
2980000000.0 0.013290606682119486 0.34968873428764785
3000000000.0 -0.35278945970873343 -0.009069846049805503
3020000000.0 -0.06995382664578438 -0.34393768288594795
3040000000.0 0.29147112285695065 0.18551410235153376
3060000000.0 -0.33759348708742043 -0.05542462837779292
3080000000.0 0.3117133209839901 -0.12842465319735794
3100000000.0 -0.11140086663503787 0.3084005204682653
3120000000.0 -0.10960639095356776 -0.29615098632028
3140000000.0 0.2981342001163043 -0.03066857952628481
3160000000.0 -0.08152645900380534 -0.2682928207855486
3180000000.0 0.21300545538562393 -0.15076576161695257
3200000000.0 0.2177097415493021 0.08498496466954035
3220000000.0 0.12627465908118216 0.15679298777846554
3240000000.0 -0.1607772432156614 0.039386671452204876
3260000000.0 0.12518052927495263 0.03937995128728959
3280000000.0 0.04258413228301509 -0.09190462919927093
3300000000.0 0.06649223513241408 -0.042450563735745094
3320000000.0 0.045401234168288424 0.04216168578902877
3340000000.0 0.01139474657570335 0.04416622852559942
3360000000.0 -0.030631908890374267 0.009045854353454476
3380000000.0 0.01972109536508581 -0.014761056833856213
3400000000.0 -0.020276467011118623 0.0174159707232086
3420000000.0 -0.015132426312587832 0.027625930475179035
3440000000.0 0.039685699395348835 0.012520534540022915
3460000000.0 -0.06125232342986665 -0.008274840543977256
3480000000.0 -0.03220479473887786 -0.07668841763512489
3500000000.0 0.08598481537648661 -0.04838729646609665
3520000000.0 -0.052512401476876865 -0.09794746983976507
3540000000.0 -0.12197462366632165 0.015489348192127437
3560000000.0 -0.11627574943503341 0.06290083669496765
3580000000.0 -0.12394484517181588 0.06541414599490356
3600000000.0 -0.10315553471870387 -0.10849994733272662
3620000000.0 -0.1348828058584674 -0.0844384608133045
3640000000.0 -0.137417166680942 -0.08863518652824016
3660000000.0 -0.10536348426115877 -0.12720194756176276
3680000000.0 0.11002354916046615 -0.11848093224923584
3700000000.0 0.05459361292969455 0.15000010952469917
3720000000.0 -0.1502843899372242 0.04909554564024706
3740000000.0 0.04288368233356098 -0.14364556647804447
3760000000.0 0.08599992635322572 -0.10865538103027338
3780000000.0 0.07884219108928743 0.1019094378090875
3800000000.0 -0.10622074420158777 -0.0715111330893659
3820000000.0 -0.03824865651641207 -0.12769169641205746
3840000000.0 0.04495242589456156 -0.13292451931090044
3860000000.0 -0.10162215122126843 -0.1103941291017963
3880000000.0 0.1511692447151139 0.0481192889115819
3900000000.0 -0.1155347854789284 0.11316307511534401
3920000000.0 -0.1582821174585095 -0.021123102124154334
3940000000.0 0.10749790995522754 -0.11440031999671173
3960000000.0 0.05357484233577412 0.14716024991714005
3980000000.0 0.14122811630813623 -0.0633689632004809
4000000000.0 -0.08354527030934461 -0.11161860009687087
