!Created with skrf (http://scikit-rf.org).
# Hz S RI R 50.0 
!freq ReS11 ImS11
400000000.0 -0.5243331566334022 -0.6321677141951086
420000000.0 -0.7344070694687753 -0.39912388500308893
440000000.0 -0.3662881743183667 0.6943606880722678
460000000.0 -0.5702967171685966 0.44467714732846136
480000000.0 0.3802840746466609 -0.5357834288620251
500000000.0 0.5878116650011935 -0.258457678385987
520000000.0 0.27472542622888774 -0.49141505429238896
540000000.0 -0.12706746722434184 0.4756118611536679
560000000.0 -0.44998083067765915 -0.06400690377875952
580000000.0 0.20892924957232298 0.3380623558421144
600000000.0 0.15783847965837225 -0.3291009346062731
620000000.0 0.04432881005991028 -0.3599407705412928
640000000.0 -0.3820565442349633 0.11171774591050572
660000000.0 0.36770755297284446 0.2345873280831897
680000000.0 -0.14238265440283235 -0.4322861690226912
700000000.0 0.3927466783054392 -0.21045479325485905
720000000.0 -0.4241501568789127 -0.00018377424821282819
740000000.0 -0.03931662693181462 -0.38175095122298874
760000000.0 0.3361304491984755 -0.1512030530268684
780000000.0 0.3243700181940517 -0.026936689221306494
800000000.0 0.25922560237121256 0.1424143295228543
820000000.0 -0.19212320292286728 -0.14477771280178384
840000000.0 0.10145673582078077 0.15843195904766721
860000000.0 0.022704476665711997 -0.14763420050149303
880000000.0 0.10182781900970532 -0.005696835382585638
900000000.0 0.05747380318012492 0.050167212591371996
920000000.0 -0.03023842034082801 0.032787686599790145
940000000.0 0.02944089853723604 -0.01008081696943287
960000000.0 -0.02709072175259319 -0.04773663533248481
980000000.0 -0.0019853975936980914 -0.07132832604262676
1000000000.0 0.053635252898960165 0.060950423581306576
1020000000.0 -0.06129356603662388 0.07426173080235457
1040000000.0 0.09517574400448102 0.0647446218738733
1060000000.0 0.09327202536863193 0.12030641574409057
1080000000.0 -0.00436668408162542 -0.18715052495026993
1100000000.0 0.009245724402434598 0.21901683377290235
1120000000.0 0.05996001378897968 -0.23620613255085152
1140000000.0 0.22167950508944703 0.14520332174926234
1160000000.0 0.20797809403242554 -0.20021376352044534
1180000000.0 0.29954548191089597 -0.0949419468054362
1200000000.0 -0.039135389094365126 0.3336796910874896
1220000000.0 0.2836393715903216 -0.22036879513745045
1240000000.0 -0.38194368769019044 0.05049545516584991
1260000000.0 0.3982312572196122 -0.033982422745179076
1280000000.0 -0.22473505282092515 -0.3409090828435409
1300000000.0 -0.40640486707868234 0.011114309915174968
1320000000.0 -0.4061085121307437 -0.03694949169003121
1340000000.0 -0.36901476628085667 0.18753610872627158
1360000000.0 0.17336169317647446 0.3670609708085426
1380000000.0 0.31872858376286295 0.22914107969306632
1400000000.0 0.36374281135413733 -0.07531584512557901
1420000000.0 0.2638048626245784 -0.2340835590087535
1440000000.0 -0.12384458445221189 -0.30767514475884694
1460000000.0 -0.18280615651769386 0.2479714584732545
1480000000.0 0.22885299126333208 -0.16528912494650266
1500000000.0 0.24365449237839637 0.046608460635513424
1520000000.0 -0.02105876559166749 0.20875745177467162
1540000000.0 -0.06966782447663754 0.14544645787743418
1560000000.0 0.08928654888218368 -0.07786913553927338
1580000000.0 0.07143661630417261 -0.04802948151400862
1600000000.0 0.007146312657703094 -0.0636441516120315
1620000000.0 -0.007057503627311505 0.042102461687791554
1640000000.0 0.02003330335943611 0.013855906931517338
1660000000.0 -0.007431048500504722 -0.0026297032228611503
1680000000.0 0.007066086462999755 -0.0009857039335505375
1700000000.0 0.011271871758566839 0.014367155438618388
1720000000.0 0.02804020294443331 0.011648528244791994
1740000000.0 -0.02090735000148505 -0.04434897924870043
1760000000.0 -0.018796651726861 0.07022448706639496
1780000000.0 -0.09652042536312065 -0.012785632236201487
1800000000.0 -0.10812549288126531 -0.06627888636316527
1820000000.0 0.1360154256240063 0.07467651928494538
1840000000.0 0.1577559250619173 -0.10288621348930861
1860000000.0 -0.057058149663373484 0.23097446902297936
1880000000.0 -0.22905043664216138 0.1656067502461043
1900000000.0 -0.3054166422747984 -0.09629261310632366
1920000000.0 0.10551803093702586 -0.333401243391584
1940000000.0 -0.1475877464406941 0.34002090693202425
1960000000.0 0.34895729719804286 -0.1691749325006683
1980000000.0 -0.0905041974045173 -0.3902938488316984
2000000000.0 -0.3746288362143165 -0.17791809299163502
2020000000.0 -0.35836795059576915 0.235302094843072
2040000000.0 0.2997409238613091 0.31565935398915995
2060000000.0 0.2437787822016589 -0.35698596321667125
2080000000.0 -0.2713329226507923 -0.32289992333579265
2100000000.0 -0.4082338514990044 0.012693968750040226
2120000000.0 -0.3897203991244219 0.02788265411007848
2140000000.0 -0.3145359620640271 -0.20994148799993512
2160000000.0 0.3284621882138007 -0.16200339687924437
2180000000.0 0.24567259615766712 -0.2577840917217203
2200000000.0 0.0926701208088358 -0.33276484560755837
2220000000.0 0.2765077906692638 -0.18713857384898114
2240000000.0 0.3235951400204465 0.10178023258697623
2260000000.0 0.3473112842024628 -0.03451109087293521
2280000000.0 0.1613898611494326 -0.32979250366210616
2300000000.0 -0.38935431656985325 -0.030972814729064522
2320000000.0 0.31945828252455244 0.2751947007495455
2340000000.0 -0.4102219014988787 -0.21168514072857073
2360000000.0 0.4969684310782754 -0.08081224578362996
2380000000.0 -0.3011280392051493 0.4634322261874787
2400000000.0 -0.3584757631322855 -0.4857873026263449
2420000000.0 0.5017674536063821 -0.4148387898241888
2440000000.0 0.4249834078684851 0.5436168552772229
2460000000.0 -0.6970317751094784 0.1735820545728595
2480000000.0 0.456316110237394 -0.5810887834364563
2500000000.0 -0.3313723209410715 0.6734753139825341
2520000000.0 0.4066165874118902 -0.63643563407774
2540000000.0 -0.6431916802948776 0.3878047102774071
2560000000.0 0.7402609684154342 0.02090612690637802
2580000000.0 -0.4566771071129865 -0.5578077632663684
2600000000.0 -0.031098584583255748 0.6935673279118408
2620000000.0 0.535724928483269 -0.3909307085827273
2640000000.0 0.22180233583186895 -0.5869978139714884
2660000000.0 -0.49226629033160274 0.3235797384277136
2680000000.0 0.4763881401745671 -0.2686020569848158
2700000000.0 -0.48818016241475315 0.11055393244465447
2720000000.0 0.45193770753959056 0.059390877265807225
2740000000.0 -0.22086477111951028 -0.3525352941298392
2760000000.0 0.03401603201392423 0.3856385297382498
2780000000.0 -0.1952389850348192 -0.3088831789200001
2800000000.0 0.3428325737922104 0.059063986498132506
2820000000.0 -0.19694535027701796 0.26995033522926204
2840000000.0 0.0797647960266563 -0.3143936950233963
2860000000.0 -0.15420848210539087 0.2855436383257547
2880000000.0 0.09606712859507834 -0.31299604435960326
2900000000.0 -0.2787055387337617 0.17917286231188534
2920000000.0 0.3366995926363512 -0.040796868920426534
2940000000.0 -0.21821298391880858 -0.2629915657769611
2960000000.0 -0.32504163988350704 0.10070836425653314
2980000000.0 -0.33734804206247404 -0.028352530741810645
3000000000.0 -0.10649475413778527 -0.3229799884524921
3020000000.0 0.22004107151939636 -0.25571569730178234
3040000000.0 0.1764800309135429 0.2822654622060392
3060000000.0 -0.32220124418212115 0.07325328491419943
3080000000.0 0.06060452999458457 -0.31586384521948496
3100000000.0 0.24082322074213983 0.19926156627888575
3120000000.0 -0.2825372776079604 0.09238474099533427
3140000000.0 0.1151847644984606 -0.25743993543145804
3160000000.0 -0.25363200743236475 0.07820607721177249
3180000000.0 -0.18199941123985322 -0.16677724572746175
3200000000.0 -0.1371675704705123 -0.17397615995464707
3220000000.0 -0.15706000116302557 -0.10866633974084072
3240000000.0 -0.10572829335024006 -0.11661741825410779
3260000000.0 0.042146058994282594 -0.11504462087031929
3280000000.0 0.06789815366883167 0.0617705633729921
3300000000.0 0.023772671173708546 0.06315442168296706
3320000000.0 0.037192623330543836 -0.0315607044765376
3340000000.0 -0.028487435139929226 0.02309725682706862
3360000000.0 0.027338479593670983 0.01586527176989054
3380000000.0 0.023199002600722576 0.027422199052266703
3400000000.0 -0.04130139899228359 0.009703402064921283
3420000000.0 0.03299446272581084 0.03802663951508775
3440000000.0 -0.06310158440735368 -0.0051725056200202235
3460000000.0 0.07694147819049417 -0.026716095852279825
3480000000.0 -0.07205444912221065 -0.07206064931342332
3500000000.0 0.09642335765104315 0.06575948959748484
3520000000.0 0.11053508050046883 0.06251453707251053
3540000000.0 0.1258299418456393 0.0578586070832646
3560000000.0 0.1401381150937068 0.04758195691781291
3580000000.0 0.09089494329410222 0.1288726861236573
3600000000.0 0.1474306268143323 0.0803894875172599
3620000000.0 0.16238416207578704 0.05994300529916581
3640000000.0 0.17258255101205586 0.031499635349981174
3660000000.0 0.1522366861238612 0.08588267127406185
3680000000.0 0.025037637647470537 0.16866272743267657
3700000000.0 -0.16415172325735528 -0.015102904162511718
3720000000.0 0.048513076712123925 -0.15264119684853564
3740000000.0 0.09605367022525506 -0.11815027297439032
3760000000.0 -0.13449286478619166 0.027664314685379235
3780000000.0 -0.08437771604218583 -0.08367384367073447
3800000000.0 -0.09726171872243636 -0.04314328165787413
3820000000.0 -0.02370656112754444 -0.10593699045744598
3840000000.0 0.11227951558509212 0.015944552217470077
3860000000.0 0.10700531881681331 0.05935335561694729
3880000000.0 0.10409113162638681 -0.07856799858359434
3900000000.0 -0.12708564722099647 -0.049696260619457824
3920000000.0 0.0784234159635422 -0.11403101093086228
3940000000.0 0.13348793395783562 0.04025220882329478
3960000000.0 0.11703607362954807 -0.07135382109604643
3980000000.0 -0.10658671973802247 -0.07003837637713818
4000000000.0 -0.09163478816599209 -0.059145391869460766
