!Created with skrf (http://scikit-rf.org).
# Hz S RI R 50.0 
!freq ReS11 ImS11
400000000.0 -0.8450404108509965 -0.08344280504918024
420000000.0 -0.31328417595511115 0.7823753051853958
440000000.0 0.5011376163273689 0.6185424977107468
460000000.0 0.6870597581373965 0.236478210184675
480000000.0 -0.6084984294740566 0.189572188592989
500000000.0 -0.08194445624274371 -0.6056200468808075
520000000.0 0.5018099932557564 0.17192087041212062
540000000.0 0.1824847980164072 -0.4433721775891817
560000000.0 0.13624094896942826 -0.4291042678453965
580000000.0 -0.10947207660256536 -0.3955371951378159
600000000.0 0.340278295924899 -0.13400419521575996
620000000.0 0.21769422826869905 0.29407114440067483
640000000.0 -0.3760655324272583 -0.1663215672289012
660000000.0 0.4460774687754995 -0.0628343985040238
680000000.0 -0.40733928830616256 0.2082881170929161
700000000.0 -0.20555911462001847 -0.3938141588711696
720000000.0 -0.10720863993092448 0.40162477173812583
740000000.0 -0.08225576797753144 -0.3645156862716268
760000000.0 -0.12412985941716963 0.3426962813104069
780000000.0 0.2942694807271517 0.18302397863778755
800000000.0 0.2716539972553696 -0.13962974850622353
820000000.0 -0.13607057209133452 0.2302728876902932
840000000.0 -0.20347852806320785 0.004381882243047094
860000000.0 0.10347766196744909 0.09243092760330823
880000000.0 0.008693972796266167 -0.08778430095743318
900000000.0 0.01981602784122119 -0.05513130735000081
920000000.0 -0.008918843835557478 -0.04451932050510684
940000000.0 -0.013863059624504664 0.03306854698158731
960000000.0 -0.04709316129992535 -0.017523298842191684
980000000.0 0.01834679196603218 0.06835174284565591
1000000000.0 0.07307886560991884 0.06207724068291448
1020000000.0 0.011153864931899434 -0.12153553103001578
1040000000.0 0.1416548962845745 0.025133482986353137
1060000000.0 -0.07902074483480798 0.1367005958123369
1080000000.0 -0.17350795001749517 -0.04539250471139126
1100000000.0 -0.05520909408470755 0.1975178882403618
1120000000.0 -0.2027149766950135 -0.13176154612215824
1140000000.0 -0.24124174726114334 -0.13844521640700072
1160000000.0 0.2925218763865759 -0.06531353063579798
1180000000.0 0.11059443796387063 0.2976284392333298
1200000000.0 -0.1054420551997259 -0.32078141944635546
1220000000.0 -0.2917893909544479 -0.2161509899881645
1240000000.0 0.3499302065584648 0.19572697142099824
1260000000.0 -0.3717475883601076 0.17783593890585714
1280000000.0 0.410086310988134 0.06282314529051168
1300000000.0 0.3418914076475394 -0.2089697735547633
1320000000.0 0.22753801538175647 0.32262645343167734
1340000000.0 -0.38013153596093485 0.12933993949361497
1360000000.0 -0.385958883300087 0.1293393530935166
1380000000.0 -0.2979797495436045 0.27879946921903015
1400000000.0 0.3048485917427238 -0.2621695750621148
1420000000.0 -0.2932890892171902 0.23285137328985442
1440000000.0 0.3403896680977855 0.02080287432678657
1460000000.0 0.1384255926471021 -0.2659276725629431
1480000000.0 -0.1841144986755288 -0.1972948331646823
1500000000.0 -0.07970281380595697 0.216470998270959
1520000000.0 -0.18731219086008372 -0.07443971263073458
1540000000.0 0.13193600181596798 0.11065072071965297
1560000000.0 0.06624541500368858 -0.1327976612433077
1580000000.0 -0.045142076818524855 0.11960161328091286
1600000000.0 0.05526136196535778 0.06512967277720406
1620000000.0 -0.027968701034111608 -0.03352140907571826
1640000000.0 0.008409102338281373 -0.004869868676065778
1660000000.0 0.017514594139126108 -0.01803154408818197
1680000000.0 -0.0313439115992672 -0.006354006677076927
1700000000.0 0.023633278292223878 0.019917667381377572
1720000000.0 -0.019485733049007376 -0.029429055072911686
1740000000.0 -0.051190838896629245 0.017072001292324876
1760000000.0 0.02479807080168418 -0.07922196245756395
1780000000.0 -0.10095209069969484 -0.06446323352981904
1800000000.0 0.019337031549732278 0.16053153011275884
1820000000.0 0.15617662234099328 0.12131198797360103
1840000000.0 0.05244057321556048 0.22706549379065744
1860000000.0 0.08844976546102981 0.2481271722788578
1880000000.0 -0.26518625910390536 -0.10644233662960859
1900000000.0 -0.005012922957083642 0.3100317133177791
1920000000.0 0.32732372547020566 0.08909920812261649
1940000000.0 -0.04920386436118709 -0.3696940961575159
1960000000.0 0.27417997893987156 0.28838131865115224
1980000000.0 -0.1758705329918975 -0.3666766952765056
2000000000.0 -0.3993668659337153 -0.09383870223888666
2020000000.0 -0.41340336191727056 0.02893334498400283
2040000000.0 -0.38926853659319194 0.17283803509700618
2060000000.0 0.4296849956035262 -0.002144913067810366
2080000000.0 -0.2736310178065541 -0.315316544791065
2100000000.0 -0.39254086795326687 0.05624569471241227
2120000000.0 -0.3748834937618213 -0.01779132324770449
2140000000.0 -0.249895703351256 -0.26495777313568075
2160000000.0 0.2904003874895034 -0.19526008690870328
2180000000.0 0.3069740126076906 -0.12635967413398436
2200000000.0 0.31511469710685475 -0.07722832156954694
2220000000.0 0.3208844921003122 -0.0008919062071379208
2240000000.0 0.31845458511781755 -0.057791282620718774
2260000000.0 0.2715020942824269 -0.1911490852915623
2280000000.0 0.1084899853446031 -0.3356175671823682
2300000000.0 -0.05785596315762721 0.37474578189016255
2320000000.0 -0.15237991743610058 -0.3826328156012218
2340000000.0 0.449372764153946 0.05193655373583912
2360000000.0 -0.08086339562899082 0.4881908867951546
2380000000.0 -0.5429331000966048 -0.011822756072543949
2400000000.0 -0.10241905603475794 -0.5809213989649662
2420000000.0 0.5537553521350069 -0.3093413749213649
2440000000.0 0.47824862304355953 0.47293184229726737
2460000000.0 -0.5113347128673004 0.4802008568433451
2480000000.0 -0.03343813636373507 -0.7210436921631641
2500000000.0 0.2532757171720205 0.6882106802819462
2520000000.0 -0.2624853176395515 -0.6870111760446831
2540000000.0 0.054440484598731256 0.727054115391061
2560000000.0 0.5493597762600779 -0.45832684072395846
2580000000.0 -0.6578745438794227 -0.2289050906286662
2600000000.0 0.4781874349611042 0.4728043229649719
2620000000.0 0.635288131731211 -0.12213994937843445
2640000000.0 -0.5551612822596979 -0.2586253397576953
2660000000.0 0.19670799009525627 0.5421056972039855
2680000000.0 0.01106829894532948 -0.5367377041757484
2700000000.0 -0.34031443502792114 0.3620895356458589
2720000000.0 0.3995857788793765 -0.23320693277686308
2740000000.0 -0.4114355945799665 0.10918017930040615
2760000000.0 0.39717771870834323 -0.0010072414983218394
2780000000.0 -0.29761505284322604 0.23686664570370858
2800000000.0 0.25453831543721506 -0.26364714664516486
2820000000.0 -0.23876081702764454 0.26380312543673157
2840000000.0 0.3441460907534202 -0.050183770343920873
2860000000.0 -0.11682223268238125 -0.3295005449931735
2880000000.0 -0.06657552375494113 0.34370185603842995
2900000000.0 0.29650194897314264 0.21703215723214614
2920000000.0 -0.028504355135895484 -0.37624113784590646
2940000000.0 -0.36351258813836895 0.09937965309361524
2960000000.0 -0.2664604196947241 0.26056191618443997
2980000000.0 -0.26779742553206554 0.2475148605833822
3000000000.0 -0.025228202500238446 -0.3649252944975323
3020000000.0 0.3074907558517937 0.1993353823101258
3040000000.0 -0.3627665730115502 -0.01757469166627697
3060000000.0 0.14420209289189956 -0.3283484985747658
3080000000.0 0.17766438246231855 0.3002004424520362
3100000000.0 -0.14080705195712043 -0.3053508233508685
3120000000.0 0.31712954040808006 0.043981168527569114
3140000000.0 -0.29447327303588755 -0.07598284442826478
3160000000.0 -0.0785928182327739 0.27863472085526914
3180000000.0 -0.26925014622331755 0.003910617222000085
3200000000.0 0.04468144865775225 -0.23724938895369127
3220000000.0 0.08536312841954803 0.18817252308507623
3240000000.0 0.1556811514383981 -0.07144489351148643
3260000000.0 -0.1385116750438667 -0.023740459057836057
3280000000.0 -0.09848880627635449 -0.041001405472916815
3300000000.0 -0.001108309931757093 -0.08230567305354199
3320000000.0 0.0483330332673963 0.04850498662379821
3340000000.0 0.02232873089525287 -0.05686503373513624
3360000000.0 -0.048003546799520944 -0.012135388504131615
3380000000.0 -0.02695597685397725 -0.029346867538982736
3400000000.0 0.016777401145750576 -0.016533221530371626
3420000000.0 -0.005549554289774496 0.010920996300686782
3440000000.0 0.011884053889888892 -0.007677416495343718
3460000000.0 0.024026310160745662 -0.005961153224483454
3480000000.0 -0.02405189514157192 0.022960637187350048
3500000000.0 0.036589590299051095 0.0017067093525645505
3520000000.0 0.0491238225001261 -0.03777040785553364
3540000000.0 0.046751307647942275 -0.06100040636882648
3560000000.0 0.08052810131830515 -0.015154204787604552
3580000000.0 0.019089489531570355 0.09033237289026015
3600000000.0 -0.08714925287935066 -0.04074071652978643
3620000000.0 0.11566197244987521 -0.009888238166653894
3640000000.0 0.08465046306020246 -0.10040000474797678
3660000000.0 0.13354756387157415 0.052394684241653625
3680000000.0 -0.11168631157770137 0.10655642541954724
3700000000.0 0.08215864484857532 -0.14259046070312278
3720000000.0 -0.14663589110922717 -0.0722687745313409
3740000000.0 0.05754861165525111 -0.14358917870878943
3760000000.0 -0.15824728774698543 -0.06719033306168029
3780000000.0 0.14840148685318336 -0.08744234723482681
3800000000.0 -0.12877601746172768 0.13059429488780336
3820000000.0 -0.0056756516709361785 -0.2010012300133662
3840000000.0 0.2164012922595591 0.0029349181105770925
3860000000.0 0.19028476812247613 0.09698457318714106
3880000000.0 -0.19307252087230842 0.11776204889274217
3900000000.0 -0.18020236778503262 -0.1447452013997883
3920000000.0 -0.12117091390554773 -0.1870220328736986
3940000000.0 -0.21049374904799817 -0.11083818347620591
3960000000.0 -0.22437871123788394 -0.03882078720223401
3980000000.0 0.1478534954869779 0.15121454981918692
4000000000.0 0.15149718930467776 -0.11210326317890025
