!Created with skrf (http://scikit-rf.org).
# Hz S RI R 50.0 
!freq ReS11 ImS11
400000000.0 -0.8450674202640557 -0.0793168716357425
420000000.0 0.0060607989179896 0.8397254555792861
440000000.0 0.5946843205356127 0.510694999289228
460000000.0 0.23704582179831615 0.6804275494033387
480000000.0 -0.6540696126372039 0.013377067701362768
500000000.0 -0.3863156474517678 -0.47823465332853016
520000000.0 -0.032935186210604796 -0.5412739932264738
540000000.0 -0.4230346375267569 0.20918004083811667
560000000.0 -0.1432850386945318 -0.42243947335511656
580000000.0 -0.25740507855511163 -0.2957701104662848
600000000.0 -0.09317782498453507 0.35139819060443883
620000000.0 -0.2814975408941821 0.23688852488868392
640000000.0 0.0356679998621509 -0.4108205786736678
660000000.0 0.4054634944564689 0.2002699386819175
680000000.0 -0.4073134399243909 -0.2283938532952596
700000000.0 -0.1958400271370257 -0.4068528674888992
720000000.0 0.2084534228887012 0.37736420297949985
740000000.0 0.3357618332782581 0.186967468834162
760000000.0 -0.008233599538094044 -0.34406668918615774
780000000.0 0.3264410832733794 -0.007974712792983242
800000000.0 0.23480115776292654 -0.16444562528966436
820000000.0 0.14120243848887826 0.2030225004351396
840000000.0 0.09393608705877951 0.18797620503270893
860000000.0 -0.007183535671205918 -0.1763019623136861
880000000.0 0.12021965059101997 -0.06866680963801215
900000000.0 -0.049195188207535254 0.08138560779684399
920000000.0 -0.059981678645630844 0.015034889516523136
940000000.0 0.015902834363113186 -0.03842607502393675
960000000.0 -0.047421832389498535 -0.006044641374422367
980000000.0 0.05249481489616071 -0.004897702311873419
1000000000.0 -0.027534649342359253 0.05596868986687418
1020000000.0 0.007304594591881186 -0.07728430644041064
1040000000.0 0.0427648006742267 -0.09126763057750695
1060000000.0 0.04036478574549183 -0.1354830863223665
1080000000.0 0.18654974907145275 0.017513158900490055
1100000000.0 0.22187324792996943 -0.07410915165027072
1120000000.0 0.20098172184020782 0.17269202492599817
1140000000.0 0.20081244621212993 -0.20258316936019033
1160000000.0 -0.24731194267611475 0.17112302136802254
1180000000.0 -0.28285096972470414 -0.12313766801636526
1200000000.0 -0.18430454600824536 0.2655874675368792
1220000000.0 -0.1509711993979117 0.3120579135846501
1240000000.0 0.33257948994178776 0.18576135047428885
1260000000.0 -0.3222424961905281 -0.2443341658745019
1280000000.0 0.3940031903758381 0.13226595888545997
1300000000.0 -0.06632811835231887 -0.4003107572485211
1320000000.0 0.2523292592064172 -0.30377888785622015
1340000000.0 0.3829878340407636 0.09427521447199484
1360000000.0 0.0970378790276993 0.378246756720614
1380000000.0 -0.17722457497678376 0.3478402195535553
1400000000.0 0.29601343771387956 0.2537683322446605
1420000000.0 -0.2188371337134088 -0.30351696519767923
1440000000.0 0.27508401082188355 0.21501695822007436
1460000000.0 -0.3011299074367203 -0.06010889458132619
1480000000.0 -0.19641499384489033 0.17400295181314046
1500000000.0 0.001426648776682363 0.2270016489858157
1520000000.0 -0.023985499237960516 0.18855812320240298
1540000000.0 -0.0002774829990930005 0.15442171025219337
1560000000.0 -0.1268930077018278 -0.00561411509491846
1580000000.0 -0.10019210898841686 0.02545360655097808
1600000000.0 -0.07438133096397312 0.02653372932436725
1620000000.0 0.03952388086900254 0.038599279347853115
1640000000.0 0.028976411347686973 0.00043375335050844404
1660000000.0 0.0007231346141462907 0.016392963350898706
1680000000.0 -0.00721306178489424 -0.034280076716982064
1700000000.0 -0.04636955046642085 0.037907751644223775
1720000000.0 -0.0335925680690805 0.06873633019608219
1740000000.0 -0.050099732114664834 0.07536265075908972
1760000000.0 -0.056448018152704664 -0.09169209141445021
1780000000.0 0.09663254514641463 -0.09012112920129543
1800000000.0 -0.031150572417602412 0.16176563035623315
1820000000.0 0.10853144687583442 -0.16279570625586462
1840000000.0 -0.15549660426693088 0.1751554875027493
1860000000.0 -0.24741609715964852 -0.11937078478444059
1880000000.0 0.10537907629364772 -0.29139981480276955
1900000000.0 0.1552900766971343 0.30189141682277304
1920000000.0 -0.2827886300944866 -0.23378250288975236
1940000000.0 0.26512908257687606 0.2863108019514866
1960000000.0 -0.18973111445388788 -0.36069541042283904
1980000000.0 -0.048151353282146245 0.41192932157678785
2000000000.0 0.3908104717126971 0.1433400993744956
2020000000.0 0.4163254735356701 -0.012744337792699139
2040000000.0 0.40709542885485545 -0.09384226359057025
2060000000.0 0.2608909031039508 -0.3290915599033093
2080000000.0 -0.3374981911016299 -0.23943044459133245
2100000000.0 -0.22007991604127217 0.3375840110486295
2120000000.0 0.36381070039948765 0.12202493010937877
2140000000.0 0.09827392708889465 0.3408789046260826
2160000000.0 -0.18062202206115938 0.2749422406651707
2180000000.0 -0.26357207836880964 -0.16297145211493452
2200000000.0 0.15075882106935695 -0.26266237332430276
2220000000.0 0.2793574071965025 -0.11449615742369486
2240000000.0 -0.015224290023773505 -0.30980326827514976
2260000000.0 -0.25180391479412884 0.1896569620756953
2280000000.0 0.24322003467578962 0.21055855429807113
2300000000.0 0.33736148564317375 -0.03579074391747234
2320000000.0 -0.1554622973252185 -0.3418521273180313
2340000000.0 0.39426751542201477 0.15792942830881015
2360000000.0 -0.11248586061819903 0.463542015433271
2380000000.0 -0.5095327640136504 0.14549868907762867
2400000000.0 -0.4123067347351653 -0.4120833573474271
2420000000.0 0.04836584101679373 -0.62816867739704
2440000000.0 0.6301271690311618 -0.22843594160304623
2460000000.0 0.24552478837350467 0.6574062763192385
2480000000.0 -0.6791192762612822 -0.2513334786343548
2500000000.0 0.73166237773354 0.09587368356778764
2520000000.0 -0.7393501862938417 -0.08626195827697805
2540000000.0 0.7171981040838401 0.1872577634781207
2560000000.0 -0.5554135627167442 -0.47561668197230433
2580000000.0 0.17702806305980343 0.6903231654191865
2600000000.0 0.04597930420030299 -0.6856370371223199
2620000000.0 -0.5089267643018524 -0.41511585025331615
2640000000.0 0.28461288253622163 0.5538800985533829
2660000000.0 0.05324310341414489 -0.5845662843963131
2680000000.0 -0.17311961573510418 0.5224221945237676
2700000000.0 0.16768780637528324 -0.48207483015543773
2720000000.0 -0.16759132399721052 0.439793590886755
2740000000.0 0.34826780408528807 -0.26040536728251407
2760000000.0 -0.40611387210720035 -0.02562633327142968
2780000000.0 0.2720493140699128 0.27713438205693475
2800000000.0 -0.03169305711412435 -0.37689367604627816
2820000000.0 0.05107086482777809 0.3739959998307196
2840000000.0 -0.2137618859466112 -0.30826463861116
2860000000.0 0.23388353662260955 0.2882769473178905
2880000000.0 0.03795315890806033 -0.36292817176346953
2900000000.0 -0.2350406080091187 -0.27167727182767204
2920000000.0 -0.10767696288384027 -0.3415809866558285
2940000000.0 0.24491137977431407 -0.26703875645088115
2960000000.0 0.3314386019110926 0.15553786339786466
2980000000.0 0.1333235126373687 0.350341768666993
3000000000.0 -0.1735173159804063 0.33564028962768133
3020000000.0 -0.3619126046779661 -0.07346018032851093
3040000000.0 0.27770120362736456 -0.23047511165541143
3060000000.0 -0.31174139262318623 0.15501832249138994
3080000000.0 0.22196970653504947 0.26144833915054244
3100000000.0 -0.15546357796936988 -0.29646604843412677
3120000000.0 -0.020770488115882786 0.32419709731612445
3140000000.0 -0.028970309690835645 -0.31655688714863867
3160000000.0 0.0911890320642924 0.2875559574321574
3180000000.0 0.2554631345179024 0.10935464681338831
3200000000.0 -0.1320480290239163 -0.2111472002639376
3220000000.0 -0.15753527967910183 0.14875132078884068
3240000000.0 -0.15197907038053593 -0.10911258523016534
3260000000.0 0.08593574673110106 0.1461857512158156
3280000000.0 -0.10079768883539005 0.11667075835064578
3300000000.0 0.054950446501706336 0.13984845966500783
3320000000.0 0.13198638070258453 -0.02782764079148898
3340000000.0 0.09184109041479922 0.060627528276225834
3360000000.0 0.0595491409622555 -0.07123984839014935
3380000000.0 0.07738831185826843 0.008149987393428251
3400000000.0 0.06045674605019416 -0.03865267758453419
3420000000.0 -0.036485190413499916 0.05354039492308535
3440000000.0 -0.06251500536237395 -0.0001044480514281188
3460000000.0 -0.06485797166241991 0.015568635876470676
3480000000.0 -0.026006555092817994 0.061227534315185676
3500000000.0 0.018455767109494602 0.06514108983281995
3520000000.0 -0.05610866142953822 0.044509180797976874
3540000000.0 -0.014672135546195446 0.07494340468352116
3560000000.0 0.050030953504479475 -0.07216394474254793
3580000000.0 0.00493523243345774 0.11565338791788207
3600000000.0 -0.14080850474238213 0.040852861085326875
3620000000.0 0.05432990517676921 -0.15479732309669997
3640000000.0 -0.04272691267059738 -0.1913097094710481
3660000000.0 -0.026464770865947014 -0.21967552975055116
3680000000.0 0.1612969553613435 -0.1648230613760898
3700000000.0 0.1572973569341329 -0.1843819114481719
3720000000.0 0.2200675353035652 0.12309353956819621
3740000000.0 0.02229815832043859 0.26678955807063154
3760000000.0 -0.27727105884648195 0.014834685648730405
3780000000.0 -0.06331460368331891 0.2785730761546238
3800000000.0 0.19154078851027626 -0.21035644271556048
3820000000.0 0.27006554511723724 -0.09684889977569178
3840000000.0 -0.17760866924836513 0.23283545500503908
3860000000.0 -0.29559078126062527 -0.03785083160829444
3880000000.0 -0.1305579762541425 -0.28077136321219726
3900000000.0 -0.17040172146973523 -0.269726609719933
3920000000.0 -0.03569581046267457 0.3117763646896378
3940000000.0 0.30145980032796016 -0.07182542378435439
3960000000.0 -0.22361936936384064 -0.17507293618033237
3980000000.0 0.19528184820737823 0.17877419485987514
4000000000.0 -0.24447647163688266 -0.05306088617982709
