!Created with skrf (http://scikit-rf.org).
# Hz S RI R 50.0 
!freq ReS11 ImS11
400000000.0 -0.5268211201222309 -0.6214530517104908
420000000.0 -0.7581044403323627 -0.35063566966195503
440000000.0 -0.5486081917754049 0.5509624253233434
460000000.0 -0.7041566568477248 -0.15000493904884804
480000000.0 0.6579311726394409 -0.08646120162910402
500000000.0 0.6360717325671511 -0.15438470971755439
520000000.0 0.5610956946574629 -0.09648118124857005
540000000.0 -0.41802397625661736 0.29954444041716904
560000000.0 -0.38200732257792236 0.27337790255970895
580000000.0 0.36812852206155106 0.15511203285590014
600000000.0 0.24257705702662435 -0.2695749156980776
620000000.0 -0.011421762484120832 -0.3619722643813891
640000000.0 -0.3164184714778697 0.23916333136554918
660000000.0 0.3967247661638529 -0.1643422178068047
680000000.0 0.02077541918576798 -0.44179161340052375
700000000.0 0.44270437110119937 -0.02514715032820138
720000000.0 -0.3276521164968953 -0.26974691476293167
740000000.0 -0.05101917975332559 -0.3912022955875735
760000000.0 -0.22833852315070066 -0.28989833696660305
780000000.0 -0.006072661587982843 -0.32736055511601214
800000000.0 0.080982740369389 -0.2737769252337843
820000000.0 0.21280885023388152 -0.11653185771557328
840000000.0 0.18667223202756122 -0.05872868468868916
860000000.0 0.15017542600267816 -0.04603510737450054
880000000.0 -0.1122273619128002 -0.03832343232826409
900000000.0 0.07767847772551337 -0.03481035071640849
920000000.0 0.05846048411966085 0.013163742504292418
940000000.0 0.015486613688975843 -0.041021168181551215
960000000.0 -0.030426167955181306 0.05124037429104272
980000000.0 -0.07611643676424186 -0.00946034166379453
1000000000.0 -0.08104717225269005 -0.029285983313958548
1020000000.0 0.05717709915591293 -0.08263640081779888
1040000000.0 -0.10684415330868136 -0.060323932242673045
1060000000.0 -0.11670890010168249 -0.0901954631801882
1080000000.0 -0.17407485429215125 0.06112792691505085
1100000000.0 0.21168595227832745 -0.04874481861195025
1120000000.0 -0.08506948004708348 -0.2348819823372127
1140000000.0 -0.1930885868618987 -0.20217195716654401
1160000000.0 0.13673983949702398 0.26672698993898986
1180000000.0 -0.17894823585515116 0.26812549110928396
1200000000.0 -0.25486592394902685 -0.22789589750591435
1220000000.0 0.13007835244052887 0.3348906306503069
1240000000.0 0.18080507228280573 -0.330202450099274
1260000000.0 -0.18416418942029789 -0.3368138645507656
1280000000.0 -0.23555878091355936 -0.32455574942455084
1300000000.0 -0.36497329800615835 0.1888883896844583
1320000000.0 -0.21343244415579443 0.35407707869219496
1340000000.0 0.06396319463269641 0.41106385218076913
1360000000.0 0.3948554051996439 0.11333956190647539
1380000000.0 0.3884771382879456 0.07055513417521235
1400000000.0 0.26461903012052357 -0.282100761484891
1420000000.0 -0.17088139007661918 -0.32303570449676056
1440000000.0 -0.224364059581822 0.2627296059153315
1460000000.0 0.28834797029622883 -0.12351001663509129
1480000000.0 -0.2656668032731009 -0.09349339885417729
1500000000.0 0.24056545959762954 -0.025993883418190845
1520000000.0 0.20533518221471558 -0.011491278242708966
1540000000.0 -0.06753819833453352 0.15855874035178785
1560000000.0 0.06276952195196547 -0.12098276933459214
1580000000.0 -0.09943795541080665 0.03462598237212199
1600000000.0 -0.028351783156623848 0.07087314948886968
1620000000.0 -0.034016560167862676 0.04839884435074606
1640000000.0 -0.010591533820000481 0.03809835162119739
1660000000.0 -0.01645278939574311 -0.01199801335851321
1680000000.0 -0.0010055333971604363 0.0024609807146278415
1700000000.0 0.022572020126006554 0.014984335332506607
1720000000.0 0.04649820302782874 -0.018715215558921087
1740000000.0 0.011491824595688852 0.07087866894330724
1760000000.0 0.06121586716433699 0.06565757903545029
1780000000.0 0.036856550917976134 -0.10273331888712668
1800000000.0 -0.11424673500159871 -0.08157900546811518
1820000000.0 0.15661073274995752 0.0835586340555288
1840000000.0 -0.21203725774410212 -0.02364163973324899
1860000000.0 -0.20495312449332762 -0.15138101320655625
1880000000.0 0.04050163371311162 -0.2824907926463523
1900000000.0 -0.004955115461534417 0.3130781402954116
1920000000.0 0.3264770881259855 -0.10209868756709482
1940000000.0 -0.25662780457511575 -0.2732223461262879
1960000000.0 0.2988100768193243 0.2675030642491208
1980000000.0 -0.19025848587332256 -0.36649815561687626
2000000000.0 -0.4153534373266981 0.05613904117005562
2020000000.0 -0.34330135767396996 0.24467369012336285
2040000000.0 -0.13954225624880065 0.40341279650918466
2060000000.0 0.3205191364073054 0.2850069124018026
2080000000.0 0.23069042287788094 -0.35448414764319836
2100000000.0 -0.22459402173940893 -0.34054611526157447
2120000000.0 -0.30023099983459195 -0.250036286972934
2140000000.0 -0.18790883488396054 -0.3237347731298076
2160000000.0 0.34450824216849624 -0.09766571728715326
2180000000.0 0.34013279283078196 -0.03329254271099551
2200000000.0 0.32818663699517076 0.030684668821605306
2220000000.0 0.31689613882216683 -0.04319720083430528
2240000000.0 0.2454714616637108 0.2188916532184683
2260000000.0 0.30394664716553604 -0.15107718895914102
2280000000.0 -0.21386607008997158 -0.2835038534027383
2300000000.0 -0.2703228066898168 0.2684965192883955
2320000000.0 0.3785902738744014 -0.15491907955136738
2340000000.0 -0.2138748008950411 0.3933227697740719
2360000000.0 -0.4593999843712057 -0.1684382606215543
2380000000.0 -0.4082205238699692 -0.3527989140594394
2400000000.0 0.38922300673982146 -0.4414128378486681
2420000000.0 0.6286209408977714 0.06896836451765517
2440000000.0 -0.001600234403048333 0.667773473307147
2460000000.0 -0.5316623254918462 -0.4447473532658519
2480000000.0 0.6041323113839246 -0.37992845559192595
2500000000.0 -0.46002400318087266 -0.553396253869436
2520000000.0 0.6827634561222667 0.23216738351987798
2540000000.0 -0.6845787784274436 -0.20820820567834974
2560000000.0 0.5632972800070967 0.4246189765853914
2580000000.0 0.669537339670367 -0.14114040707581144
2600000000.0 -0.0419560018357336 0.6585719028939009
2620000000.0 0.4954399055586607 0.3927754397227045
2640000000.0 -0.07652668021301882 -0.5927177896514998
2660000000.0 -0.5348405519185059 0.1443189243871016
2680000000.0 0.2912913481761601 0.4206173591497644
2700000000.0 0.39205727436043825 -0.2646820076321652
2720000000.0 -0.3696947833189017 0.2361255863230936
2740000000.0 0.00888785123896936 -0.404685602135734
2760000000.0 0.2534824831412748 0.27801256412798736
2780000000.0 -0.35200447504332527 -0.05113655995181096
2800000000.0 0.12834848028626672 0.31512121396878134
2820000000.0 -0.3156530521743839 -0.11899756529520591
2840000000.0 0.33671551080259376 -0.03900680618821376
2860000000.0 -0.31708492989562437 -0.11405210920648857
2880000000.0 0.1701524095566857 0.28939001865885877
2900000000.0 0.3055811294515431 -0.13712437324653243
2920000000.0 -0.15759341561490361 -0.30356738666055927
2940000000.0 -0.3245458292481049 0.12143554922224405
2960000000.0 -0.21412355880743814 0.28840908018600586
2980000000.0 -0.1006539957749071 0.3431801799836585
3000000000.0 -0.2383569659726281 0.2605062121774155
3020000000.0 -0.269671315196683 -0.21790071977859027
3040000000.0 0.3305291032659447 0.06899206996113233
3060000000.0 -0.3278812998754477 -0.0646557609225957
3080000000.0 0.30782192164836986 -0.11899252973658064
3100000000.0 -0.29990205672020165 0.1257831144586316
3120000000.0 0.06291773276687199 -0.3106196564687488
3140000000.0 0.02465878733938094 0.30160668888868614
3160000000.0 0.20606697215259795 -0.1958103813751278
3180000000.0 0.2365144929161066 0.11679596076038884
3200000000.0 0.23175917143131913 0.03697841179946883
3220000000.0 0.19062258029733756 0.06159161854187594
3240000000.0 -0.13093444999160558 0.10026790393281657
3260000000.0 -0.13584844876891336 -0.003768950830593296
3280000000.0 0.0653068864884832 0.08532835558239041
3300000000.0 0.07638969068977032 0.04154994289447656
3320000000.0 -0.040486857125217775 0.04589900383874262
3340000000.0 -0.039686895618695955 1.949030109572605e-05
3360000000.0 0.018912920639106243 -0.018347433106978957
3380000000.0 -0.01860255264882514 0.010249048424493638
3400000000.0 -0.024525904783074707 -0.007430285321793691
3420000000.0 0.03455984705651893 0.004103785004561226
3440000000.0 0.0016063679579534995 -0.048391885022096
3460000000.0 -0.061429693733449746 -0.009535282785000416
3480000000.0 -0.060440782025295736 -0.02012142827882223
3500000000.0 -0.06720515365700436 0.047597820727891635
3520000000.0 0.06705277973383209 -0.07285208474440454
3540000000.0 0.058150598071267594 0.10337171804143666
3560000000.0 -0.08347414824553598 -0.10357720044802016
3580000000.0 -0.08272339035105805 0.11712043915419364
3600000000.0 -0.14314738012102207 -0.03405445765851046
3620000000.0 -0.11881446615148232 -0.09547693493643589
3640000000.0 -0.04968180938973185 -0.15069322131395
3660000000.0 0.14594230387851428 0.07253372598220068
3680000000.0 0.10825921910280173 -0.1269250384915973
3700000000.0 -0.05070993662573712 -0.15635110047974698
3720000000.0 0.04684435007763801 -0.1514432799792345
3740000000.0 0.011082975965764774 0.1490320346666607
3760000000.0 -0.02355230686296104 0.1385586256693585
3780000000.0 0.016671729891678446 0.13103870705374954
3800000000.0 -0.1178955207922916 -0.041763447075661646
3820000000.0 0.11692005996902098 0.047009747905321336
3840000000.0 -0.11698621219650328 0.0663857881017413
3860000000.0 -0.039379331242252534 0.13847936074376763
3880000000.0 0.1513584008367891 -0.02598363832019405
3900000000.0 -0.15924010294977697 -0.017614131094095913
3920000000.0 -0.13456136419630976 -0.0862864501636725
3940000000.0 -0.017214666783575715 -0.16139194114908734
3960000000.0 -0.0011104757792627456 -0.15417534168615027
3980000000.0 -0.08609721229399783 -0.11917058333127897
4000000000.0 -0.11042554416046046 0.0701543771820682
