!Created with skrf (http://scikit-rf.org).
# Hz S RI R 50.0 
!freq ReS11 ImS11
400000000.0 -0.2820754204429126 -0.7820772189006909
420000000.0 -0.8100377753315482 -0.20252565574417908
440000000.0 -0.22018886410195654 0.747826635703448
460000000.0 -0.7003588672591147 0.16656483755400045
480000000.0 0.24319916021044324 -0.6163148850591608
500000000.0 0.6142811944027858 0.09416272176067737
520000000.0 0.3882946033566002 0.4039054643027137
540000000.0 -0.2883035665047341 0.4116077768580437
560000000.0 -0.43458257495234265 -0.15276506430775721
580000000.0 -0.18038282844099002 0.35452484799978135
600000000.0 0.28404059066755194 0.22330035847321747
620000000.0 0.027336160924137067 0.35716266278307435
640000000.0 0.17286871908748203 -0.36006789456993993
660000000.0 0.09187924533874577 0.4263984232077901
680000000.0 0.3240265715563877 -0.31547107451316764
700000000.0 0.44427132549898796 0.0884965559999036
720000000.0 -0.1637450438362434 0.4023331474171767
740000000.0 -0.15320075905163794 0.3552524247184554
760000000.0 -0.2531036769365758 -0.2551244950590495
780000000.0 -0.33042568350108925 0.046513997608078186
800000000.0 -0.13783787868848374 0.24370123769194746
820000000.0 -0.2285276852678898 0.016933533316850945
840000000.0 0.08069670364700833 0.16624442975192633
860000000.0 0.11928578640073709 0.10716672710679362
880000000.0 0.12554062987329312 -0.005147175516489735
900000000.0 0.036602570995672656 -0.09003844291021645
920000000.0 -0.045649254074866946 0.039008054922310145
940000000.0 0.0405568329721421 0.023661209454298747
960000000.0 -0.02428149232995862 0.0466092681170272
980000000.0 0.042900208850622304 0.03738857342091878
1000000000.0 0.04392289132438287 -0.0645632142953753
1020000000.0 0.07358112826103975 0.07786718701006896
1040000000.0 0.07227434346096484 -0.11570132754594202
1060000000.0 -0.1616626331417892 -0.03070711870633763
1080000000.0 -0.06436664316789957 0.1764587864651313
1100000000.0 -0.021902235533005708 -0.2191839693344843
1120000000.0 -0.2342766307315848 0.06123019896746022
1140000000.0 0.21066910652743287 -0.16867813446616053
1160000000.0 -0.11682855375556186 0.2812573682824887
1180000000.0 0.3199610502377097 0.045751401458414644
1200000000.0 -0.27764314162887826 0.1733727388404672
1220000000.0 -0.057558417192436435 0.3414701327768168
1240000000.0 0.3593411860057091 -0.08351161076937691
1260000000.0 -0.17884306367063843 -0.3426229271731456
1280000000.0 -0.31060678515464374 0.24614862570627932
1300000000.0 -0.2983709181747709 0.2657494659077975
1320000000.0 -0.20902788472694672 0.3423537968937051
1340000000.0 -0.19699303178494407 0.3588979845476797
1360000000.0 0.23606675028277688 0.3355702105454386
1380000000.0 0.3897945011952682 0.1025637525327213
1400000000.0 0.019442576611091618 -0.389808697400619
1420000000.0 -0.35939025561617405 -0.07525342424407486
1440000000.0 -0.0776310914853059 0.33607145010237954
1460000000.0 0.2998552893936952 -0.10425262005367342
1480000000.0 -0.27883145824029687 0.08322908272097948
1500000000.0 -0.18649538736696814 -0.16763131579731616
1520000000.0 -0.1808370603199886 0.0974616049792149
1540000000.0 0.15032985949821143 0.06387842902379781
1560000000.0 -0.0949724182094714 -0.08736355986891496
1580000000.0 -0.11289243091180329 -0.00821632729653946
1600000000.0 -0.005171558944167747 -0.09015454822808006
1620000000.0 0.04367020784278134 -0.05560461433664868
1640000000.0 -0.01562741454644614 -0.042586722365547704
1660000000.0 0.0008069072345892399 -0.020910480887947613
1680000000.0 -0.0024819493792375014 -0.0027305089039725344
1700000000.0 0.025509257712112213 -0.01688644137362179
1720000000.0 -0.006528578246582664 -0.04770722397294796
1740000000.0 -0.06228629483041901 0.002709312421803303
1760000000.0 -0.07004800657891981 0.023250807019562305
1780000000.0 -0.04603645738875896 0.089456539649827
1800000000.0 0.08049197283510624 0.1223999541723055
1820000000.0 0.18097952258205352 0.0021992777561845533
1840000000.0 -0.18201020939441143 0.11171882091232294
1860000000.0 -0.23296727374353104 -0.09339614371101775
1880000000.0 0.2840471319299621 0.03317895459753168
1900000000.0 -0.30102240392581275 0.10073651097522122
1920000000.0 0.24011544590237419 -0.25296852803087816
1940000000.0 -0.361908446857295 0.08604699077455794
1960000000.0 0.3836262210609988 0.08552178819045012
1980000000.0 0.09622602618787936 -0.3920049885938639
2000000000.0 -0.2716372479057931 -0.3128683253804274
2020000000.0 -0.4167618379279068 -0.06608833887219877
2040000000.0 -0.3484139614741671 0.2527240339740896
2060000000.0 0.35228594312130734 0.24780856864265186
2080000000.0 0.10793090199272283 -0.4085955735047757
2100000000.0 -0.28812100734042395 -0.28409243040511345
2120000000.0 -0.2486697757645496 -0.29686797573712953
2140000000.0 -0.21638231976541605 -0.30475544708929964
2160000000.0 0.1775326518075768 -0.3080415083876445
2180000000.0 0.27604151150259354 -0.18898292665724126
2200000000.0 0.29687700608639933 0.11689529842430237
2220000000.0 -0.08330802994651337 0.3031092307607093
2240000000.0 -0.06699657515637998 0.315248540175685
2260000000.0 0.3309386150960869 -0.006475942234149123
2280000000.0 -0.2722916109889542 -0.198539807879416
2300000000.0 -0.24019076494340236 0.25370126478497385
2320000000.0 0.09916436057793258 0.3596954231496398
2340000000.0 -0.16155623569518315 -0.3793902820666796
2360000000.0 -0.2924541301021536 -0.3426958212193726
2380000000.0 0.4364834965197205 -0.23680474230876788
2400000000.0 0.12703020859070546 0.526557916236698
2420000000.0 -0.5858366871037787 -0.037132726222641126
2440000000.0 0.1730910334051697 0.608857819334583
2460000000.0 -0.66478834842945 0.036655530342833774
2480000000.0 0.27445041376528695 -0.6309718928132954
2500000000.0 -0.19291857466214196 0.6751702239942333
2520000000.0 0.28443248579474073 -0.6489795918015046
2540000000.0 -0.6485179676019323 0.2917667952657945
2560000000.0 0.5017748543115279 0.500734818140537
2580000000.0 -0.20885185748664015 -0.6603508560436742
2600000000.0 -0.6320569610883507 0.2435527189080423
2620000000.0 0.6458121803343138 0.0886480005700895
2640000000.0 0.475085081491966 -0.3972158789529671
2660000000.0 -0.10240193110045795 0.566879345362688
2680000000.0 -0.4150761133773748 -0.33859261173853467
2700000000.0 -0.5062700599462496 -0.05094182172156944
2720000000.0 0.09499147996407167 -0.4543880615535295
2740000000.0 -0.33172910351027585 0.2754583582916925
2760000000.0 0.14366056679938824 -0.3699652661442678
2780000000.0 -0.15567773277754401 0.33358125625732843
2800000000.0 0.09100598479730322 -0.33972765851798137
2820000000.0 0.24155395619274406 -0.25539396647574747
2840000000.0 0.26284335853057167 0.23956342185008603
2860000000.0 -0.2739487252833565 0.23612420569607315
2880000000.0 0.3369745505784998 0.12477126331260514
2900000000.0 0.03859008545673489 -0.3665380563918708
2920000000.0 -0.22792947626024593 -0.2930161869275822
2940000000.0 -0.3014178719888113 0.22928365452365015
2960000000.0 -0.01448134063376312 0.3727574672475751
2980000000.0 -0.3644664314610107 0.15210234394253275
3000000000.0 -0.36534183820597976 -0.04470676675227254
3020000000.0 0.22716918502188496 -0.2835968189812627
3040000000.0 0.06826132321066623 0.34684012972162903
3060000000.0 -0.1749964361086626 -0.3057378013498012
3080000000.0 0.3495061135939527 -0.047217319806707625
3100000000.0 0.07460597634300145 -0.35845323485343294
3120000000.0 0.2754361998243355 -0.20972624071472068
3140000000.0 0.2757910482483011 0.15596792618487126
3160000000.0 -0.24275565874431274 -0.16096902582927916
3180000000.0 -0.06460535900404964 -0.2918587522400682
3200000000.0 0.03400978419126362 -0.24191839623859138
3220000000.0 0.12443480003599618 -0.1693470206510863
3240000000.0 0.13589738322870523 0.11220680279307373
3260000000.0 -0.05668204148537772 -0.17433278509811484
3280000000.0 -0.05254869593131197 -0.10726205562607226
3300000000.0 0.0496438204939387 0.08903989649745812
3320000000.0 0.01274008851028196 -0.0832718961864081
3340000000.0 -0.06809355545038098 0.030889891416182313
3360000000.0 0.006326149585980097 -0.04606002155687797
3380000000.0 0.006795604289499131 0.03117548498639084
3400000000.0 0.030231970444525337 -0.011061551940867408
3420000000.0 -0.06830168477399694 -0.010047263460095877
3440000000.0 0.004601649126167221 0.05669795455979747
3460000000.0 0.0799232889370403 0.00796991774916299
3480000000.0 -0.021730896561689018 0.08991598766097145
3500000000.0 -0.07939760728792881 0.07993037534682225
3520000000.0 -0.01716039270262637 -0.11075974429344186
3540000000.0 0.00750697705864973 -0.13082252914596146
3560000000.0 -0.09877837786481167 -0.11166542170722035
3580000000.0 0.14777171766334957 0.06795760751149853
3600000000.0 -0.1125562135642119 -0.12458346793828336
3620000000.0 -0.1596522372231995 -0.048536956131947764
3640000000.0 0.010941112667807552 -0.1706304408704764
3660000000.0 0.17759845042245367 -0.010187305470484805
3680000000.0 0.04156937032738191 0.1779905009536236
3700000000.0 0.03514410920029252 -0.1742738266920988
3720000000.0 0.16664290580952779 -0.011856888958481259
3740000000.0 0.14520144306552646 -0.059743505387194605
3760000000.0 0.03394154399029252 -0.14233226479533914
3780000000.0 0.049941113665581176 -0.13409230911985484
3800000000.0 -0.08248094681664031 -0.11431390011661831
3820000000.0 -0.08562684058148351 -0.10746592111664201
3840000000.0 -0.06439647467600394 -0.11576423168310822
3860000000.0 0.02724234263432351 0.13224866065553748
3880000000.0 -0.0389713485667326 0.13796971115051085
3900000000.0 -0.16022513621926224 0.006803189990615937
3920000000.0 -0.1318707660515147 0.08812028161635055
3940000000.0 -0.05677486975838279 0.15762380374926374
3960000000.0 0.13885603446432257 -0.05772279650170713
3980000000.0 0.11905890429505525 0.08422051263176665
4000000000.0 -0.04793550311160656 -0.1268521274812095
