!Created with skrf (http://scikit-rf.org).
# Hz S RI R 50.0 
!freq ReS11 ImS11
400000000.0 -0.8364016731252139 0.20382756464958485
420000000.0 0.3656047158414047 0.7567972759023444
440000000.0 0.6323333757633045 0.4669714312101019
460000000.0 0.5212214494908256 0.49871455712478513
480000000.0 -0.5690601771827172 0.3139660998555028
500000000.0 -0.5966776686443317 -0.05852767984718954
520000000.0 0.35697040061515684 -0.3784831960894481
540000000.0 0.18072653453596008 -0.4247935697078547
560000000.0 0.3324087981786014 0.28417726006724625
580000000.0 0.39164656150612187 0.008496970624132356
600000000.0 -0.34833618707787617 0.055364116585164054
620000000.0 0.07396490582891338 -0.3525441131917109
640000000.0 0.3603389980079866 -0.20126630666876877
660000000.0 0.28587192249907756 0.34616037856334614
680000000.0 -0.2384043654411508 -0.3934651164431577
700000000.0 0.13649355412799655 -0.4289226608305365
720000000.0 -0.19485957094572565 0.3798100729736982
740000000.0 -0.3145931567144803 0.22749732865253386
760000000.0 -0.13461200810056773 -0.33102321643066274
780000000.0 0.23671172918151395 -0.23391183875533675
800000000.0 -0.2704872811818921 -0.11377482664395676
820000000.0 -0.2364376346382824 0.03176058651917942
840000000.0 0.17072340673517783 -0.09084963145772783
860000000.0 0.1608962454385762 -0.01365507795506549
880000000.0 -0.10040322754668761 0.0807367245767708
900000000.0 -0.020364812337021195 0.09165522479758972
920000000.0 0.05650144396061467 0.030534750016206334
940000000.0 -0.03612942435416972 0.024365121224937208
960000000.0 0.04327973359872939 0.031310607366909826
980000000.0 0.03814821377819374 0.0509681933961457
1000000000.0 -0.03020259956007535 0.07548111721328435
1020000000.0 -0.04972878925846736 0.08831937656431642
1040000000.0 0.038273422915416785 -0.1126488071108752
1060000000.0 -0.09973790934590646 0.11311221870468897
1080000000.0 0.17963394275199016 0.026197974871177542
1100000000.0 -0.18485816253413342 -0.1060058718809207
1120000000.0 -0.19178394994164186 0.14920094580665372
1140000000.0 -0.20966960284448932 -0.17198158643423567
1160000000.0 0.08243789153924969 0.2902053814112758
1180000000.0 0.23112779406411507 0.22665574766744634
1200000000.0 -0.3175420540333935 -0.1281349601776764
1220000000.0 0.09359677283285445 0.34986211251404464
1240000000.0 0.3530209900696089 -0.14986342212165799
1260000000.0 -0.20773073899886327 -0.34047748266995614
1280000000.0 -0.3906483057754746 0.13430564240209047
1300000000.0 0.0704711989819027 0.41375924712942475
1320000000.0 0.3973660416631883 0.13654627814061518
1340000000.0 0.41540953179466433 0.0024990298943866037
1360000000.0 0.4059488541914475 -0.023457456699819582
1380000000.0 0.384568127137235 0.09982766299543029
1400000000.0 0.33758512875831737 -0.1884447917209473
1420000000.0 -0.13143065371222423 -0.346012993988079
1440000000.0 -0.24977578175322346 0.24160100842956972
1460000000.0 0.31149269927003176 0.05986516868020581
1480000000.0 -0.06659227913254487 -0.27810070628096206
1500000000.0 0.10733250231750543 0.22896842527746272
1520000000.0 0.17133860275213028 -0.13454130135628736
1540000000.0 0.046861273822472384 0.17262175882021416
1560000000.0 0.11970122436991565 -0.07370668251930688
1580000000.0 -0.054726198581284795 -0.09596089761920606
1600000000.0 -0.05653954490226531 -0.06164468161739401
1620000000.0 0.05372943850808897 -0.03489442416439288
1640000000.0 0.02834619213717481 0.02520965468299469
1660000000.0 -0.0020823195068159486 -0.008846244776750833
1680000000.0 0.017687525068737185 0.0030512233958602127
1700000000.0 0.03654585921611872 0.0055130812571297155
1720000000.0 -0.02143825457691252 -0.046243511161997874
1740000000.0 0.01959832808744071 0.06513312514348676
1760000000.0 -0.07675594017017465 0.038718934025445705
1780000000.0 -0.00926798640798078 -0.11280231906960145
1800000000.0 0.14964791666329438 -0.014285531149559471
1820000000.0 -0.044603422812223875 0.17772490618661052
1840000000.0 -0.0208544160757771 -0.2191016129349558
1860000000.0 0.20968555356670968 -0.15229155175793158
1880000000.0 0.17007643964050456 0.23771685417151917
1900000000.0 -0.2791662949876336 -0.15654137730993783
1920000000.0 0.23858615162142746 0.2558610289246465
1940000000.0 -0.18409165920055243 -0.3277643615557204
1960000000.0 0.13576139044440802 0.3699749203512655
1980000000.0 0.273541941305659 -0.2973830597601754
2000000000.0 -0.14185692168182543 -0.3883890069159418
2020000000.0 -0.4120595008786375 -0.0873587844765432
2040000000.0 -0.15437786844622317 0.3975527383293645
2060000000.0 0.4167311927206292 0.07711075898459802
2080000000.0 0.14107229506656052 -0.38785167509535357
2100000000.0 -0.31027107248281827 -0.24913332088594883
2120000000.0 -0.3758878533232833 -0.04900525352795549
2140000000.0 -0.3613475590716401 -0.02634328427314149
2160000000.0 0.08587843215602795 -0.3334470423040495
2180000000.0 0.20725774128723312 -0.2574899001789638
2200000000.0 0.17892176273606916 -0.2674112541050186
2220000000.0 0.1497593765948149 -0.2772130997960289
2240000000.0 -0.08986769569313044 -0.30160054921956153
2260000000.0 -0.299654049337835 -0.10306372930153412
2280000000.0 -0.25460507328690785 0.20646792181854
2300000000.0 0.3073808116946684 0.16433840523363455
2320000000.0 -0.24128699998475078 -0.2901105242596349
2340000000.0 0.3315880388511949 0.25104036078958003
2360000000.0 -0.4435849412815403 0.1272921974607966
2380000000.0 -0.1176651663944515 -0.5010951487722055
2400000000.0 0.4783212385466923 -0.30374548509899507
2420000000.0 0.41561019726098064 0.4507915603886981
2440000000.0 -0.5452684886986731 0.3599673453373314
2460000000.0 -0.12157125209343383 -0.6750602106438718
2480000000.0 0.5961288393755336 0.38910760746682094
2500000000.0 -0.6903294796213334 -0.23388402308743333
2520000000.0 0.7302871604897614 0.10941083258066678
2540000000.0 -0.7220939342783464 -0.16000876994932356
2560000000.0 0.7173496021970192 0.1446608933172057
2580000000.0 -0.608646804755057 -0.3790398310394917
2600000000.0 0.29709415418980445 0.6287660436899025
2620000000.0 0.6523956662022565 0.1523597722175442
2640000000.0 -0.4431591866440636 -0.4610521925659099
2660000000.0 0.1294901529045447 0.5900643082078476
2680000000.0 0.0375755018721329 -0.5659245113506394
2700000000.0 -0.21553676811267264 0.48444405031554355
2720000000.0 0.2004971055694348 -0.44882541974778556
2740000000.0 -0.2186718589905967 0.3990586802651855
2760000000.0 0.2807258328131766 -0.3214851549360202
2780000000.0 -0.3585317728397773 0.19163104760269525
2800000000.0 0.3808587571094307 -0.10475720521378158
2820000000.0 -0.3732853684049809 0.1117624075290046
2840000000.0 0.3669515198153282 -0.11657817209568015
2860000000.0 -0.33968527718480646 -0.17928701285989287
2880000000.0 0.08232236432764903 0.375562678580776
2900000000.0 0.3824411982652214 -0.05557636956732297
2920000000.0 -0.08554556241515038 -0.37992603894252575
2940000000.0 -0.3665801769273635 -0.12645653992951697
2960000000.0 -0.28767891777983107 -0.254500308786751
2980000000.0 0.3140327384723363 -0.21806690584971478
3000000000.0 0.10298575057608907 0.37151415899673373
3020000000.0 -0.3835482722416408 0.05343786643157838
3040000000.0 0.015855416430012915 -0.3822377324255741
3060000000.0 0.297655293826275 0.22969434245323303
3080000000.0 -0.3434730241044235 -0.12561040698206197
3100000000.0 0.3466017533052249 0.07479846440892826
3120000000.0 -0.3407187869119917 -0.02304522950434981
3140000000.0 0.25627090201323804 -0.1972219719400278
3160000000.0 -0.2612540234676026 -0.14531544737226879
3180000000.0 0.22269349753978765 0.15723154834591832
3200000000.0 0.07160034793516012 -0.2312135708169415
3220000000.0 -0.1430175611009981 -0.15905174425556068
3240000000.0 -0.17684417254425566 -0.06294101756849255
3260000000.0 -0.045994376236922464 -0.155544653572459
3280000000.0 0.09207628545721774 0.10095973999829451
3300000000.0 0.0856361857248241 -0.07852648450398557
3320000000.0 -0.04154178092875197 -0.0914813834255254
3340000000.0 -0.00867048863253333 0.09049711747833127
3360000000.0 -0.07740060470338342 -0.021229119260982345
3380000000.0 0.06626107575180354 -0.02664019094427739
3400000000.0 0.0033878418836788245 -0.06840878520423721
3420000000.0 -0.006668407731439151 -0.06389237498644385
3440000000.0 -0.03031123560438703 -0.05311413846489338
3460000000.0 -0.05234820344098702 -0.004624634371336468
3480000000.0 -0.003386094388613703 -0.05049721902118517
3500000000.0 0.055432248888373684 -0.011448744966047865
3520000000.0 0.0468117675353692 -0.049492395274721504
3540000000.0 0.009094037746100786 0.08510807068380782
3560000000.0 0.10289383739649502 0.011219219527137725
3580000000.0 0.058320489853221975 0.10825756127957165
3600000000.0 -0.1403685795215623 -0.02412368086350949
3620000000.0 0.1491472065055261 0.0652521227860393
3640000000.0 -0.03573257456258408 -0.18177183722131945
3660000000.0 -0.18176404039362692 0.08954263287289171
3680000000.0 0.05513233249448357 0.21057778721244838
3700000000.0 0.18098953592582687 0.13595851442910822
3720000000.0 0.20997338791668885 0.10584480601355284
3740000000.0 0.2235686197409008 -0.10499460955942488
3760000000.0 0.24740944296022754 0.07550254638647408
3780000000.0 0.2645001327907829 0.059716007095215136
3800000000.0 0.2768543280916124 0.01081103023433554
3820000000.0 0.1364526540224885 0.24667425533721382
3840000000.0 -0.19994344528106817 -0.20428138316007194
3860000000.0 0.0648788822345182 -0.281073525575731
3880000000.0 0.08565604619445624 -0.27730023642772533
3900000000.0 0.11507755834522033 -0.2658606713566143
3920000000.0 -0.21100922707774175 -0.1876833309093412
3940000000.0 -0.2781199759565663 -0.016566953272985758
3960000000.0 0.09474275342064191 0.2529037381635859
3980000000.0 0.2441759439595818 -0.08156413427288968
4000000000.0 0.0003869358539863781 0.2363143646179309
