!Created with skrf (http://scikit-rf.org).
# Hz S RI R 50.0 
!freq ReS11 ImS11
400000000.0 -0.8591486109788009 -0.05201881938323192
420000000.0 0.012467662669127298 0.8395843371209989
440000000.0 0.32409999946310963 0.7208408563038338
460000000.0 0.22008849019509832 0.6922138256644366
480000000.0 -0.5724708098950814 0.3272461077375257
500000000.0 -0.538647087636476 0.2693141030494763
520000000.0 0.09279741928791069 -0.5036580244109394
540000000.0 0.1441613577332041 -0.4385594477452926
560000000.0 0.4335022434057408 0.08671256128867068
580000000.0 0.12343884932231622 -0.3743721626287514
600000000.0 0.21857578265077157 0.2829679684530514
620000000.0 -0.34243510968426294 -0.048088323204941434
640000000.0 0.37818594248507337 -0.12728543514173216
660000000.0 -0.20822258770002328 0.38255172164519374
680000000.0 0.45053747124918436 0.054272737370744395
700000000.0 0.4445901366950873 0.06394006419678666
720000000.0 -0.38329278758531043 -0.19325398260184343
740000000.0 -0.36174695512270616 0.15800118847624695
760000000.0 -0.004743338078025113 -0.35464225970425106
780000000.0 0.166180429584133 0.2961045539893935
800000000.0 -0.22676302573251522 -0.20977569332319976
820000000.0 0.24481125866967587 0.08615900902457853
840000000.0 -0.1957127217089056 0.020477558283428135
860000000.0 -0.11800028269220017 0.07838354128103175
880000000.0 0.08899180191565836 -0.05210047695343156
900000000.0 0.06587076572152123 -0.007434688067545441
920000000.0 0.015521364177059288 0.035948551241016743
940000000.0 0.02686214248112246 0.012892894585111751
960000000.0 -0.005940893711549119 0.04428556829777465
980000000.0 -0.020455049070937772 0.06628450997052651
1000000000.0 0.0652416570792544 0.0676107863616037
1020000000.0 -0.11713929976120345 -0.016481909282920024
1040000000.0 0.13900145200107264 0.026905032464731023
1060000000.0 0.1621454576388639 0.022825305361081738
1080000000.0 0.07991173733676409 -0.1779804919084645
1100000000.0 0.11443628823563101 0.19469261303674865
1120000000.0 0.17516492013009327 -0.17602977471523465
1140000000.0 0.13495594223453106 0.23201578521489197
1160000000.0 0.11694580546215613 -0.2669504715719136
1180000000.0 0.30344997453617095 -0.048690625190541785
1200000000.0 -0.19624397704691812 -0.2567963339121669
1220000000.0 -0.33145094027823746 -0.1008784693999855
1240000000.0 -0.19357214817048665 0.3227114757906598
1260000000.0 0.38387822854985526 0.12064605441337586
1280000000.0 -0.31663041493271016 -0.27610454724151146
1300000000.0 -0.07423869252250026 0.4234092273884924
1320000000.0 0.36083475665712306 -0.24706682885297307
1340000000.0 -0.3942880533501651 -0.16237229420412366
1360000000.0 -0.33855823617270075 0.21669364039713832
1380000000.0 -0.14933263660644652 -0.34680589306348103
1400000000.0 0.3180007732210635 -0.1736646966180108
1420000000.0 0.3099504229087093 0.16631295418352443
1440000000.0 0.34103932091708916 -0.05775786536855422
1460000000.0 -0.3309908131747792 0.01491572793143434
1480000000.0 0.06382335824056604 -0.3011739203353205
1500000000.0 0.23866724711170498 -0.12543322563045545
1520000000.0 -0.2072965111889229 0.09365365851942609
1540000000.0 -0.15581010317180802 -0.08944939298798228
1560000000.0 0.08732418952588554 0.0993003102541348
1580000000.0 -0.04141501806362866 -0.08775054801664611
1600000000.0 -0.018709739724665476 -0.07188744864269861
1620000000.0 0.018872865367615788 -0.05863879906475128
1640000000.0 0.03706005562659628 -0.022318689833410746
1660000000.0 0.02097676835951784 -0.0030679437053455065
1680000000.0 0.0038352725655233346 0.005440502044142251
1700000000.0 -0.013809796573368827 -0.029131377174513612
1720000000.0 -0.034427162603299095 -0.03609825246508331
1740000000.0 -0.05107321892650021 -0.04458719038131181
1760000000.0 -0.06470697094751686 0.05820259481842762
1780000000.0 -0.10711832292431664 -0.02964456413962933
1800000000.0 0.14471984948286523 -0.008776818296805046
1820000000.0 -0.17702062053046044 -0.021222405166032708
1840000000.0 0.22006039590270865 0.010897614756889875
1860000000.0 0.2636700695082822 -0.0015623152308653556
1880000000.0 0.27558577196009487 -0.10824083319602218
1900000000.0 0.16752602864464555 0.2735162890965616
1920000000.0 -0.1813347152197811 -0.29312643678231853
1940000000.0 -0.28232732134251615 0.23403549943109314
1960000000.0 0.1848182835020481 0.3380615332742551
1980000000.0 0.39750886499280175 0.01796142703645443
2000000000.0 0.3174319919263716 -0.2625717918166398
2020000000.0 0.020523684573170605 -0.4259113070802656
2040000000.0 -0.4004780062774779 0.17273687968290924
2060000000.0 0.4008310884781871 0.16568453130171107
2080000000.0 -0.09334427372022559 -0.4101458819535276
2100000000.0 -0.39865272311089517 -0.03675755098898933
2120000000.0 -0.3605512318297392 0.10896599285910952
2140000000.0 -0.3513367230859151 -0.054684149205967515
2160000000.0 0.24375166516312122 -0.2337523270989762
2180000000.0 0.32117857011290113 -0.03301847114361628
2200000000.0 0.30642120363974773 0.06202726573517738
2220000000.0 -0.007106405695736652 0.309574938981525
2240000000.0 0.20731048168302058 0.24282082971085703
2260000000.0 -0.06060492604281806 -0.3151356330028459
2280000000.0 -0.022716782212631882 0.324046279049834
2300000000.0 0.3262306637037107 -0.08754225850508571
2320000000.0 -0.12479784075744438 -0.3410622335551802
2340000000.0 -0.019508756619079703 0.4012171706143725
2360000000.0 -0.29459037692065465 -0.3381077625069863
2380000000.0 0.42103058074245425 -0.2686720419649885
2400000000.0 0.23917756805992596 0.49248425638909354
2420000000.0 -0.5275775440585223 0.2697471672520137
2440000000.0 -0.3390604557528261 -0.5354440754414875
2460000000.0 0.38336250066346783 -0.5514827930645203
2480000000.0 0.5998109194445855 0.37101250572805794
2500000000.0 -0.6296410962873402 -0.3420052517706439
2520000000.0 0.6573206329700397 0.3036214705232934
2540000000.0 -0.5617986082345593 -0.4586715488569673
2560000000.0 0.17014089666069926 0.6981666626111621
2580000000.0 0.3414587616836815 0.6005817195938514
2600000000.0 -0.6249990236855903 -0.28941270488143206
2620000000.0 0.10459334494391309 0.6584727803640833
2640000000.0 0.5781635529666214 0.25960565080861564
2660000000.0 -0.538714459190596 0.22267669604620147
2680000000.0 0.386533041583864 -0.39494270708388096
2700000000.0 -0.39006165557700906 0.33237913670159897
2720000000.0 0.18273152095523607 -0.44378995928735354
2740000000.0 -0.1620094878069841 0.41809883858782626
2760000000.0 0.13226276582625607 -0.4028550047452736
2780000000.0 -0.16991863710568597 0.3603245141566662
2800000000.0 0.21007613200937816 -0.31948950555102384
2820000000.0 -0.18210958415628895 0.3253737393986017
2840000000.0 -0.0026311807858604 -0.3794326247526635
2860000000.0 -0.1877618661237424 0.3285304278627687
2880000000.0 0.381679981877211 -0.005912327649490769
2900000000.0 0.05913604271958118 -0.38156838114551056
2920000000.0 -0.2579242473769633 -0.2937736186912583
2940000000.0 -0.3930990496867444 -0.030938988981989688
2960000000.0 -0.308477045891154 -0.25304085602110926
2980000000.0 -0.019010916055362384 -0.39556377476472154
3000000000.0 0.13076436399856647 -0.363467227399928
3020000000.0 0.3789205786692231 0.038280221669223846
3040000000.0 -0.15695901859091507 0.34207505914300407
3060000000.0 -0.10969788799882543 -0.35472951184831275
3080000000.0 -0.3640748624067723 0.07997200795606471
3100000000.0 0.33812514151076645 0.13137467513977183
3120000000.0 -0.2758528381036675 -0.21402828363047172
3140000000.0 0.2297574497793724 0.24588401945798366
3160000000.0 -0.3123172942760003 -0.07034818936592245
3180000000.0 0.11379162318884567 0.2738117935559501
3200000000.0 -0.2368583397002738 0.10421928841737071
3220000000.0 0.2087652679200971 0.057711285555292785
3240000000.0 0.021011268851318612 0.17769950266223203
3260000000.0 -0.1490961374799548 -0.0692244461768733
3280000000.0 0.061809224753321575 -0.1424450852530158
3300000000.0 0.1223940126864531 0.07602524192408733
3320000000.0 0.12158787670230957 -0.0492167610367046
3340000000.0 0.034776396127442016 0.09976429791973121
3360000000.0 0.05830744162818862 0.04330870550351531
3380000000.0 -0.041284639490992245 -0.02054592037694799
3400000000.0 -0.009515771861941321 0.04241759718283127
3420000000.0 0.03765313073044765 0.026100827421284268
3440000000.0 -0.06235216309132225 0.01905168313851466
3460000000.0 0.013878836042200561 -0.06695837176546503
3480000000.0 0.06871448071572925 0.03591419692711318
3500000000.0 0.07767238003790594 0.04964189153872625
3520000000.0 -0.060411986049023494 0.08669706773991757
3540000000.0 -0.046498618813052 -0.11235640894052125
3560000000.0 0.1342988049946277 -0.023302200183227432
3580000000.0 0.027136916016675745 -0.14763999362980104
3600000000.0 -0.05738044908967548 0.1531570082919355
3620000000.0 0.16447028033626684 0.045474888795309386
3640000000.0 0.1680453779044958 0.054008908147638805
3660000000.0 -0.1418042067158422 -0.13460772687269218
3680000000.0 0.1933122868742597 0.07986210826243312
3700000000.0 0.17604674186619268 -0.11349457883156439
3720000000.0 0.14313061632798954 -0.12489846081697879
3740000000.0 -0.114077067584399 -0.14471151445292174
3760000000.0 0.01418550587872486 0.17811577332634682
3780000000.0 -0.050519300707240436 0.17467341918149087
3800000000.0 0.061974963527319786 0.20878169868519675
3820000000.0 0.07929072705213609 -0.20579413137008012
3840000000.0 -0.01226008191177971 0.2172722536626178
3860000000.0 -0.1439019337201499 -0.1660977323826935
3880000000.0 0.036205220994553367 -0.2224577701678831
3900000000.0 0.20671361126549495 0.0844553927417598
3920000000.0 -0.15771203551346982 0.1028053210850237
3940000000.0 -0.17817880187631685 -0.029045027221378347
3960000000.0 -0.14732369367869796 0.09849902723959662
3980000000.0 0.1328552195836863 -0.12016843791980228
4000000000.0 -0.1471673119498114 0.09338710391570415
