!Created with skrf (http://scikit-rf.org).
# Hz S RI R 50.0 
!freq ReS11 ImS11
400000000.0 -0.7826372237886206 -0.3344031121484667
420000000.0 -0.32542852527893223 0.7762456308686875
440000000.0 0.25247326604665443 0.7402875405658899
460000000.0 -0.33423596263163263 0.6362605702122857
480000000.0 -0.424528470073933 -0.5109257071638985
500000000.0 -0.2084138000042183 -0.5830413268161131
520000000.0 0.08432357175516378 -0.5338445638132837
540000000.0 -0.43489764199921976 -0.17818959573843318
560000000.0 0.269275604499072 -0.35548713407428273
580000000.0 0.023193268485557583 -0.393310710927118
600000000.0 -0.10387521164009823 0.3451674632960725
620000000.0 -0.35652693301724775 0.023120873005611525
640000000.0 0.11885793148406942 -0.3843075952751923
660000000.0 -0.1576575640048362 0.41510085903060695
680000000.0 0.023987919022964526 -0.46665285259453265
700000000.0 -0.18993242172513672 -0.4160721652389816
720000000.0 0.39908645809207055 0.14250799082424442
740000000.0 0.16105894631407802 0.3350458644287072
760000000.0 0.3306335206055006 0.09880624373713334
780000000.0 0.32570769698161217 -0.0771006667781589
800000000.0 0.06710650122326002 -0.28160153013577
820000000.0 0.09502902365347979 -0.23035355130635116
840000000.0 0.12730979115735888 -0.15821472510575577
860000000.0 -0.04769207237872316 0.16558965865932745
880000000.0 -0.11880206574963487 -0.03676103593550529
900000000.0 -0.02492975763268147 -0.08552856174722223
920000000.0 0.03649908642421493 -0.03808068864713122
940000000.0 0.025764255766361828 0.02175166074624611
960000000.0 0.006966765622386286 0.05571945389216272
980000000.0 -0.03968648078604371 0.059532115091220555
1000000000.0 0.08094872580024168 -0.006311301955978282
1020000000.0 0.09347247942071615 0.047395927189546
1040000000.0 -0.0820530373810361 -0.07996437617959819
1060000000.0 -0.14906843951753143 -0.027851228131247307
1080000000.0 0.15960135752416418 0.09258119345911121
1100000000.0 -0.17941673694380994 -0.12719826960291142
1120000000.0 -7.661324098268856e-05 0.2480251277175738
1140000000.0 -0.242063274710815 0.12145213528037875
1160000000.0 -0.07593309447534065 0.28636019658433115
1180000000.0 0.040783562242266355 0.32291349454094415
1200000000.0 -0.3341956853551536 -0.056426953425814726
1220000000.0 -0.14169693352374874 0.3297950715214396
1240000000.0 0.3210692337301943 0.20591955444589394
1260000000.0 0.0392027930801629 -0.40422672007934723
1280000000.0 0.02342119610847245 0.41498700203414196
1300000000.0 0.34739359324912555 0.21942938153246463
1320000000.0 0.3270606872106689 0.24649052437926644
1340000000.0 0.1543762570345766 0.3845224034700407
1360000000.0 0.4148643845403956 0.006840398091046609
1380000000.0 0.3337223961521382 -0.21594469196697139
1400000000.0 0.2180567428315699 -0.3202498123330797
1420000000.0 -0.13327809153809 -0.34307532318938544
1440000000.0 -0.30692559932274954 0.1693797084870938
1460000000.0 0.32017439366275874 0.011500488089392583
1480000000.0 -0.10177259692705913 -0.27038177082343556
1500000000.0 0.10409656966578626 0.23140665462370025
1520000000.0 0.15840481081142502 -0.14943964122273784
1540000000.0 -0.04751226271747113 0.17057495442295753
1560000000.0 0.07870403112684393 0.11270546946741979
1580000000.0 0.07930656411215369 0.07482164547834537
1600000000.0 0.020250230724885455 0.07765629640060003
1620000000.0 0.06411154839827768 -0.0012178101159160185
1640000000.0 0.01486127621098783 0.03752181636261659
1660000000.0 -0.004062592442045939 -0.008565509603659502
1680000000.0 0.020077192892825734 0.007336759310992069
1700000000.0 0.03515549722354652 0.022470075566763812
1720000000.0 0.04873680548026549 -0.014852509915827657
1740000000.0 0.05352313530038384 -0.041584591843187343
1760000000.0 0.06975683911962499 -0.05977530583758117
1780000000.0 -0.04993065661140625 -0.10552918355720656
1800000000.0 0.09539158707065977 -0.11532060228650018
1820000000.0 -0.059499064231655206 0.17248123665226112
1840000000.0 -0.06744432944382113 -0.21052151960565313
1860000000.0 0.18786967530373383 -0.17634360501750374
1880000000.0 0.1548521174878632 0.24795299852734742
1900000000.0 -0.27312066951919506 -0.1711606053208574
1920000000.0 0.3257571731294841 0.13531992785118058
1940000000.0 -0.3088412287197833 -0.21970965076233692
1960000000.0 0.3095331541014331 0.2513677416451917
1980000000.0 0.031134629158503634 -0.40829193158385674
2000000000.0 -0.3313418993219072 -0.24859288532619284
2020000000.0 -0.4154502526985775 -0.07428815576536518
2040000000.0 -0.22258095847835796 0.3670107948598649
2060000000.0 0.4079876393701795 0.13258576739821576
2080000000.0 -0.003502812848620047 -0.4162050926790056
2100000000.0 -0.2608221846802575 -0.3017632590815471
2120000000.0 -0.33426549892190005 -0.18755104367917058
2140000000.0 -0.31192927790560715 -0.19335974919569496
2160000000.0 0.3115100822367752 -0.16152680977386397
2180000000.0 0.3149197662739735 -0.12613031933482113
2200000000.0 0.05851237157997159 -0.32557051192849185
2220000000.0 -0.1257338599178747 -0.2979824288548965
2240000000.0 -0.2630391147576311 -0.1881877694278236
2260000000.0 -0.24969321440728967 0.21286782362690437
2280000000.0 0.11423024751581345 0.31907758511514817
2300000000.0 0.2707054524911571 -0.2426218998660541
2320000000.0 -0.19623796260875911 0.3459782217412967
2340000000.0 -0.17971088477570363 -0.3983597151885619
2360000000.0 0.48210366223706524 -0.0449860384431939
2380000000.0 0.18003544184358006 0.5052625451765496
2400000000.0 -0.5177683993404661 0.27652713308734983
2420000000.0 -0.5117310358271011 -0.3720660839838354
2440000000.0 0.27210516578119387 -0.6139499731460759
2460000000.0 0.5979997628608603 0.3649922820062435
2480000000.0 -0.6882934527376421 0.214594880841728
2500000000.0 0.44176041176755754 -0.5863374774091109
2520000000.0 -0.4519596688353212 0.5853219041197528
2540000000.0 0.6193438747583959 -0.3990415465810478
2560000000.0 -0.6823306318963858 -0.2527131685312696
2580000000.0 0.1616778459589335 0.6915303609725172
2600000000.0 0.22555345272930438 -0.6473429462626704
2620000000.0 -0.40077548283076386 -0.5183333597339829
2640000000.0 0.17098839099303625 0.5954435164959782
2660000000.0 0.008104483038557838 -0.5791598794162073
2680000000.0 -0.17567330282784166 0.5111738244578764
2700000000.0 0.24340600527870793 -0.4411127058529211
2720000000.0 -0.287086270009686 0.36852087480556417
2740000000.0 0.4054757914692919 -0.16221978655778488
2760000000.0 -0.39631273149997015 -0.09961537269735876
2780000000.0 -0.08670638055234761 0.38011897654594967
2800000000.0 0.35882242909600065 -0.13266470206321523
2820000000.0 -0.307589003711209 0.21946904506304188
2840000000.0 0.06953523010791617 -0.37105599331358885
2860000000.0 0.03023297337037823 0.3757365867368188
2880000000.0 0.3331462043968511 -0.17272888526996338
2900000000.0 0.017666480267691267 -0.3763763172027564
2920000000.0 -0.1490718810070917 -0.3458083668022739
2940000000.0 -0.001584682729970654 -0.3771088454406199
2960000000.0 0.04341216614542901 -0.3816978717024717
2980000000.0 0.37550644466322636 -0.09578632577491968
3000000000.0 0.276095432719827 0.2737538064404556
3020000000.0 -0.3713982037650303 0.10471542758036147
3040000000.0 0.12066007530471494 -0.3578633760525387
3060000000.0 0.16229577127346206 0.32662663227279953
3080000000.0 -0.2725670651982997 -0.23571033536974512
3100000000.0 0.30339235841292 0.17377955969272885
3120000000.0 -0.25983593580905895 -0.21252270821857447
3140000000.0 -0.012690508057057934 0.32069608934461885
3160000000.0 -0.069830111719415 -0.28771231835777633
3180000000.0 -0.2246451777531768 0.14260456982107278
3200000000.0 0.20085282139810093 -0.11778016986700511
3220000000.0 -0.11649938453886421 -0.16089847865760254
3240000000.0 -0.08106409561458945 -0.14648409523520564
3260000000.0 -0.14695123092946857 0.039924492467990395
3280000000.0 0.1342319275865643 0.01592874167961571
3300000000.0 0.11264354610998421 -0.039860533656041905
3320000000.0 0.0859006639459567 -0.04032740704030806
3340000000.0 0.003756527904342793 0.07583960558409204
3360000000.0 0.004907260579128418 0.07014258924691003
3380000000.0 0.0456067956298362 0.061461544291465615
3400000000.0 -0.0069989034567096795 -0.08667564004484295
3420000000.0 0.03345096829750388 0.08684294909505585
3440000000.0 0.06902539536658459 -0.05952366759953914
3460000000.0 0.03746442803010412 0.08111318575189076
3480000000.0 0.08514478098898623 0.03761348843248116
3500000000.0 0.021801348540053823 0.09562188037552438
3520000000.0 0.0850318446186419 0.06987944298582158
3540000000.0 0.11545265218037505 0.036208324504371024
3560000000.0 -0.11310943946491066 -0.07543138458575076
3580000000.0 0.14838568244113323 -0.043622463491674895
3600000000.0 0.16275657661003884 0.07471691226289719
3620000000.0 0.21513717681263186 -0.027919148269093023
3640000000.0 -0.1916373630175181 0.14315336919418792
3660000000.0 0.05957980612465888 -0.24950393025679504
3680000000.0 0.0010190160167824543 0.24429389848133812
3700000000.0 -0.16637924249023286 -0.21331339748482797
3720000000.0 -0.23588028145166273 0.14521054411467005
3740000000.0 -0.002706164148421306 -0.21211764028748625
3760000000.0 0.26998886153587415 -0.07832666195275759
3780000000.0 0.2477662796405489 0.14117963184130528
3800000000.0 0.22024927023562876 0.14430996291392936
3820000000.0 -0.007926108818787381 0.2807947745416327
3840000000.0 0.15003936442902646 0.21946359829761203
3860000000.0 -0.25993725980035043 0.16623056735199138
3880000000.0 0.05194483402766337 0.3249093923740641
3900000000.0 0.2647408988004271 -0.20034700876661604
3920000000.0 -0.19792442785278744 -0.2669597576686933
3940000000.0 -0.1440270144016125 0.2940810385338269
3960000000.0 0.28990813214544464 -0.044580898877176006
3980000000.0 -0.16343483937150785 0.17848571753555253
4000000000.0 -0.19791461946559977 -0.11189516638612594
