!Created with skrf (http://scikit-rf.org).
# Hz S RI R 50.0 
!freq ReS11 ImS11
400000000.0 -0.8067122707106036 0.3091719489432361
420000000.0 0.6059165168281052 0.5862841361730307
440000000.0 0.774958351231819 0.06685305378646657
460000000.0 0.21664825343176758 0.6833457385897425
480000000.0 -0.623688644468245 0.19962853269177605
500000000.0 -0.6008468710393393 -0.0520320875393808
520000000.0 0.42340570376950437 -0.31822544738586556
540000000.0 -0.44094175677231007 -0.1322693490560562
560000000.0 0.41471633050700063 0.11329115532547696
580000000.0 0.3454905025751727 -0.1646745938217488
600000000.0 -0.205683878787062 -0.28151545335838196
620000000.0 0.33661543483113543 -0.14684001981214925
640000000.0 0.37977743522574725 -0.17548784092207015
660000000.0 0.439406258271464 0.11563125708414818
680000000.0 -0.4600488657789375 0.011521421295916557
700000000.0 0.04502811098900148 -0.4412014449418866
720000000.0 -0.2530721781842092 0.3423793979784234
740000000.0 -0.2123248864231131 0.3247744672476558
760000000.0 -0.08091482670138236 -0.337462798603209
780000000.0 0.18475244513845637 0.2716136998761528
800000000.0 0.10779010194506498 -0.27971980224787835
820000000.0 -0.21858595787488255 0.11760995140607468
840000000.0 -0.17271157696922715 -0.08903567819377695
860000000.0 0.10027676759485657 -0.11699341271853742
880000000.0 0.02830284290361638 -0.12354239502771956
900000000.0 -0.0975252291228658 -0.025395566983685187
920000000.0 0.009594441608573638 -0.07197084812600651
940000000.0 0.0148043587380409 0.04687220127911929
960000000.0 0.010714713812937912 0.04920229911513009
980000000.0 0.0059208655705021915 0.07284724061069922
1000000000.0 0.037183628558338976 -0.06838044486336232
1020000000.0 -0.09158488238881915 -0.01670868791834613
1040000000.0 0.110146266460498 -0.0398068060909987
1060000000.0 -0.025117166529254796 -0.14977329985888468
1080000000.0 0.1920937727460082 0.013085628271775453
1100000000.0 0.16611803456322505 0.13858762566300495
1120000000.0 0.19958814541958064 0.12514936351866615
1140000000.0 -0.17321847707013088 -0.19520425192744822
1160000000.0 -0.29673206268649915 -0.013665080201450908
1180000000.0 -0.048881070042523594 0.3265435752893916
1200000000.0 -0.2745330667046233 -0.20574073338603976
1220000000.0 -0.07206491921682852 0.35528999859782645
1240000000.0 0.3735558764250678 0.0985746676307181
1260000000.0 -0.28757026655214746 -0.284974941400185
1280000000.0 -0.21168510591656847 0.3529880049212029
1300000000.0 0.07632934904417452 0.4069752223669092
1320000000.0 0.2823958079377577 0.3086378767924267
1340000000.0 0.3713579317004911 0.19014695839788903
1360000000.0 0.34391153771880073 -0.22390669904256325
1380000000.0 0.3873162681689683 -0.06434890957152643
1400000000.0 0.3634356311186345 -0.12282724784117542
1420000000.0 -0.01841196984638542 -0.36752391908087784
1440000000.0 -0.3440798530861791 0.05779206370723679
1460000000.0 0.30232015853242605 -0.10729193473191197
1480000000.0 -0.25885309078899615 -0.11643504520205293
1500000000.0 0.10061888089183328 0.22435890515728502
1520000000.0 0.2082416950857157 0.0451466531552701
1540000000.0 -0.1786922295921286 0.006260974790229823
1560000000.0 0.14086603266760664 -0.002891858742638164
1580000000.0 0.1108057674251695 0.026802020086847636
1600000000.0 0.03618967473853059 0.08406295808050394
1620000000.0 -0.04394942063663674 0.041797457799545364
1640000000.0 0.021454741773057187 -0.01345077752752003
1660000000.0 0.0012534749551361293 0.011270811974711449
1680000000.0 -0.019658255211663186 0.012128450811641895
1700000000.0 0.028735177786140594 -0.026870953534493
1720000000.0 0.03676544064183064 0.027893641783080174
1740000000.0 0.037152631830937644 -0.05054818501702587
1760000000.0 -0.09299495607028004 -0.025699760465539713
1780000000.0 -0.07569284395114526 -0.09949530886911838
1800000000.0 -0.020734408477467617 -0.1504821222579789
1820000000.0 -0.11232682023722412 0.14663681922827998
1840000000.0 -0.21531798785248724 -0.045390939926518305
1860000000.0 0.19583841386548867 -0.15631254259290495
1880000000.0 -0.2565834387816321 0.13235263611995995
1900000000.0 -0.14313082955165393 -0.2947882382269201
1920000000.0 0.3149288192854571 -0.16328314438942484
1940000000.0 -0.36333101033302745 0.05712869372347425
1960000000.0 -0.13004061877942785 0.3648746577975106
1980000000.0 0.3936004613818973 -0.10146427595902202
2000000000.0 -0.28796212502815804 -0.3055503133113168
2020000000.0 -0.2581344456633502 0.3354227633283992
2040000000.0 0.19645581537313517 0.37708871586889564
2060000000.0 0.40819717165636854 -0.10027364270350125
2080000000.0 0.06253955390069979 -0.4075210286707592
2100000000.0 -0.29253816854930226 -0.2717071928737374
2120000000.0 -0.33695533497861907 -0.18100745825215064
2140000000.0 -0.35903206377727276 -0.079794216460326
2160000000.0 0.003951006678185686 -0.3472868213917755
2180000000.0 0.15019752716484297 -0.28993120944546125
2200000000.0 0.31439672590581574 -0.027408260991400694
2220000000.0 0.2950872043726337 0.09762301805032766
2240000000.0 0.16637007163865672 -0.2671537232123792
2260000000.0 -0.28515121040498653 -0.13127898513021577
2280000000.0 -0.2547938513664028 0.1934308521667482
2300000000.0 0.08781592931790891 0.3270290884493033
2320000000.0 0.18834428295448405 -0.3173078657130041
2340000000.0 -0.07852727157172133 0.40348017674269443
2360000000.0 -0.45478890332291133 -0.07052071477630735
2380000000.0 -0.17182494076807245 -0.48434541327615
2400000000.0 0.34487485387020395 -0.450428164633179
2420000000.0 0.6102978717074952 0.08151204930149628
2440000000.0 0.03590256792283223 0.6583395977099288
2460000000.0 -0.6746434178065597 -0.16087033350633526
2480000000.0 0.6314567770477417 -0.34781709121943666
2500000000.0 -0.6111232418106232 0.4129051983986782
2520000000.0 0.6963037142040683 -0.2709319743677077
2540000000.0 -0.7363968171688492 0.13127704149337857
2560000000.0 0.6363397984398046 -0.37752564539805894
2580000000.0 -0.6983231766071137 0.18553870615289
2600000000.0 0.6948138600642195 -0.04981800760912903
2620000000.0 0.40454072846937167 -0.5303750463411501
2640000000.0 -0.5812163287723976 0.25583897962133845
2660000000.0 0.4932492333979162 0.34086210592460736
2680000000.0 0.06148666347062577 -0.5600603008436419
2700000000.0 -0.4284276743004369 0.30848850463667615
2720000000.0 0.4531999713948974 -0.19280550959608506
2740000000.0 -0.42801716213203084 0.15861090551858828
2760000000.0 0.3949098996065149 -0.16847306634268175
2780000000.0 -0.295968758742716 0.27977373130963074
2800000000.0 0.24908852962219338 -0.306706815407676
2820000000.0 -0.2116043217983438 0.32448613160416867
2840000000.0 0.3729882528807081 0.09227194036239704
2860000000.0 -0.19715824691700354 -0.3376513620106767
2880000000.0 0.08170491355644127 0.38445259731040593
2900000000.0 0.39044462940727936 -0.03126351357884191
2920000000.0 0.09818808609785969 -0.3807998183571374
2940000000.0 -0.1382496485873897 -0.36814699588515515
2960000000.0 0.0070659643444913565 -0.3899523603211902
2980000000.0 0.37745722226990536 -0.07897410022808182
3000000000.0 0.05613040357086015 0.3862898942423495
3020000000.0 -0.3894513062544817 0.047679390385323865
3040000000.0 0.11427369703392974 -0.3685807125547322
3060000000.0 0.02266492974739099 0.3770123343708604
3080000000.0 -0.03140967968394114 -0.36201256230516815
3100000000.0 0.26762124447837204 0.2245204662350641
3120000000.0 -0.3110811296833465 -0.11509361389925606
3140000000.0 0.2975434241029284 -0.09790413651832357
3160000000.0 -0.2886180804454208 0.015460387947140239
3180000000.0 -0.24134788660375575 0.10992520050162746
3200000000.0 0.14285196077598397 0.19386178994732722
3220000000.0 0.19271237112964368 0.08161017571121287
3240000000.0 0.12855624688189235 0.1301239620898322
3260000000.0 0.01694680023581458 0.15124484886440684
3280000000.0 -0.048759253337244575 0.10861334194361323
3300000000.0 0.054484278638267984 0.07553713730165207
3320000000.0 -0.07023454492887662 -0.04845062182245698
3340000000.0 -0.02096213678939678 0.08813572231110998
3360000000.0 0.05901093447980864 0.06953675239769366
3380000000.0 -0.08796819529479433 0.010964028422136172
3400000000.0 0.07954594224915479 0.00861000759676999
3420000000.0 -0.07528782052803236 -0.0016816745524282405
3440000000.0 0.0022453922148845317 0.06063924898485717
3460000000.0 -0.040742931919772775 -0.024918356693634843
3480000000.0 -0.0395822698649486 -0.01428889180670676
3500000000.0 -0.029105484193312065 -0.046074087243687986
3520000000.0 0.0811200243884633 0.018396698078471118
3540000000.0 -0.06049014125414994 0.0854046892611082
3560000000.0 0.1234871881434789 0.01290256067139771
3580000000.0 0.09080810100072768 -0.11887020332676324
3600000000.0 0.04682193550713938 0.1673527986682768
3620000000.0 0.1259919786591644 -0.1358027264122198
3640000000.0 0.00523946811817615 0.19903826671450428
3660000000.0 0.06507104198193198 -0.15689295294927616
3680000000.0 0.15058094429443436 0.06280527395390068
3700000000.0 -0.005277204068659913 0.19511952188650136
3720000000.0 -0.19171041719277482 -0.1822786026915844
3740000000.0 0.1032723221532509 -0.2599521040975735
3760000000.0 0.23625884696018903 0.16536850075591575
3780000000.0 -0.294026068440902 0.026382939602283696
3800000000.0 0.19190966046501248 -0.2265184219567646
3820000000.0 -0.07995497076635648 -0.30271681553270713
3840000000.0 0.026902748600273734 0.29777139735165753
3860000000.0 -0.18448298841540509 0.23419376675622788
3880000000.0 -0.004019591967579119 -0.32064432247005653
3900000000.0 -0.2940614579643951 -0.1388869656005864
3920000000.0 0.1536837811558526 0.2223997191830508
3940000000.0 0.23413628777346152 -0.12043455720333725
3960000000.0 -0.10735271632585142 -0.23238587705116964
3980000000.0 0.22791206747662685 -0.10751445875648205
4000000000.0 0.1358713273660078 -0.2082820562489526
