!Created with skrf (http://scikit-rf.org).
# Hz S RI R 50.0 
!freq ReS11 ImS11
400000000.0 -0.8393192472366093 -0.14506229421448796
420000000.0 -0.0776579516763016 0.8317160700268488
440000000.0 0.7319713573517268 0.27579486954189597
460000000.0 0.559486401745666 0.43644301814096004
480000000.0 -0.40051880992725714 0.5038558728094952
500000000.0 -0.5774200009885696 0.05118183629237516
520000000.0 0.26560401358254904 -0.43469239309895813
540000000.0 -0.38861152875062205 -0.23660554991600208
560000000.0 0.3497926855134701 0.2546338736788247
580000000.0 -0.00956909745512971 -0.40273667407200303
600000000.0 0.19118811310293363 0.3143894225147681
620000000.0 -0.3488397323401226 0.12998016838059195
640000000.0 0.04211919908745488 -0.41713656242951547
660000000.0 0.4529639331991376 0.08745949978105104
680000000.0 -0.434290240851605 -0.17934604746394514
700000000.0 0.2445082506791998 -0.3922297033049596
720000000.0 0.036239620722280756 0.4366197711538304
740000000.0 -0.2321949394215869 0.3175261375345023
760000000.0 -0.1778711432886975 -0.3093898255660555
780000000.0 0.06211093490464003 0.32188929489209844
800000000.0 0.30690393321012766 0.014563617184578216
820000000.0 -0.16213335842098603 0.18406559976934772
840000000.0 -0.12904881970709658 0.13397432180028143
860000000.0 0.0691538194567319 0.13902175605243963
880000000.0 0.056753894154520826 -0.11815211239136827
900000000.0 0.008588989107679385 0.11141547820413751
920000000.0 -0.028026377154226473 0.06614476894324832
940000000.0 -0.022866371963032043 0.04487152949385953
960000000.0 -0.05401897323165384 -0.0018223433758675807
980000000.0 0.04387056722396257 -0.03981965562001374
1000000000.0 -0.07366658879710329 -0.025505028181293757
1020000000.0 0.09185027006821396 -0.049999892717232076
1040000000.0 0.1079873096870762 0.07302520301526315
1060000000.0 0.03159437480177521 -0.1543969132241361
1080000000.0 0.022381126555079376 -0.19377837569753997
1100000000.0 0.16661543256075084 0.1612516404803983
1120000000.0 -0.18847728622008303 -0.18063029662232172
1140000000.0 -0.27705793387372035 -0.018772857840344964
1160000000.0 0.08375162635903126 0.27397359455067344
1180000000.0 -0.30114097622734204 0.0169810925732408
1200000000.0 0.31520096250034635 0.06830513249005106
1220000000.0 -0.2682878820199729 -0.2120251042623323
1240000000.0 -0.11934425372689438 0.3442484586878948
1260000000.0 0.11962588742897623 -0.3523523384085436
1280000000.0 0.07982044081212195 -0.36248815367370923
1300000000.0 0.3633532767092669 -0.11715564519149824
1320000000.0 0.2706712435564069 -0.2863173609352989
1340000000.0 -0.20469038065302772 -0.3440677867039443
1360000000.0 -0.367946972531426 0.1383645156429294
1380000000.0 -0.3670655650782216 0.11136587556855962
1400000000.0 0.2973022613921689 0.225556471417166
1420000000.0 0.1658003942752781 -0.3037362724323347
1440000000.0 -0.3023987005902838 -0.10714830790909524
1460000000.0 -0.09163366088023112 0.2709989705966908
1480000000.0 0.2116720361849711 -0.13569192120111176
1500000000.0 -0.006427941020749 -0.20954645550947348
1520000000.0 0.17212090989395806 0.00037608486851816185
1540000000.0 -0.1334950824388834 -0.03844710646554799
1560000000.0 0.11556903104304053 0.027393467322619963
1580000000.0 0.08457753675697303 -0.05415575615454909
1600000000.0 0.06489088313213945 -0.035794286705714586
1620000000.0 0.02021558079205615 0.05090200911133788
1640000000.0 -0.002903893862564019 -0.03187965133112442
1660000000.0 0.008026158661428848 0.018555457587528603
1680000000.0 0.019521177215374403 0.02589601299483273
1700000000.0 0.014270712886368511 0.04499869637496535
1720000000.0 -0.05006766533143341 0.026724854429065203
1740000000.0 0.06021157886167615 0.03909284956507097
1760000000.0 -0.02251207224146734 -0.08755495247787937
1780000000.0 0.008307590158353619 -0.12530174497758167
1800000000.0 0.05438546021365147 0.16030656203063426
1820000000.0 0.18863631439306913 -0.06126747940286158
1840000000.0 0.0444828531224379 0.2207742151937983
1860000000.0 -0.23673523187947113 -0.09826642487184667
1880000000.0 0.2658004416202056 0.11732495314974552
1900000000.0 -0.29323129895239136 0.1385530077548622
1920000000.0 0.21582142432198015 -0.2780675147392516
1940000000.0 -0.21746487767570444 0.30342934001850547
1960000000.0 0.3357983390519277 -0.18566356188693683
1980000000.0 0.051973347305346286 -0.38512686721602096
2000000000.0 0.11160658513912337 -0.3813980530161349
2020000000.0 0.10403657244363894 -0.3973884455365235
2040000000.0 -0.378693322393508 -0.18813598072907345
2060000000.0 0.10220769216654044 0.4089073113861374
2080000000.0 0.32127905214772334 -0.2528578912796995
2100000000.0 -0.04062045876069893 -0.3838457447158079
2120000000.0 0.264802299623155 -0.2507980297398234
2140000000.0 -0.061416401338814035 0.34333676033636495
2160000000.0 -0.29632695578720486 0.14903293212260937
2180000000.0 -0.30066714632386166 -0.10260790312569633
2200000000.0 -0.039144548296335735 -0.3032441725352163
2220000000.0 0.2834057326145498 -0.09575829631262249
2240000000.0 0.16792941896442043 0.24808782196765147
2260000000.0 -0.1412532917020507 0.27600777651922087
2280000000.0 -0.2913109076348889 0.15625007442486502
2300000000.0 0.2784888675116302 0.2295986438192442
2320000000.0 -0.15798833122662614 -0.36503403533854484
2340000000.0 0.3303960938819357 0.2893038449117419
2360000000.0 -0.48439741159107386 -0.045820551787750255
2380000000.0 0.14003707279071267 -0.5229905029790183
2400000000.0 0.5912394048710088 0.057350402422271136
2420000000.0 -0.05233890197306804 0.6405833706308182
2440000000.0 -0.662830581422425 -0.17145205437721114
2460000000.0 0.5162961568378861 -0.49844983466708587
2480000000.0 -0.13794577647946277 0.728629957768851
2500000000.0 0.14974427607681912 -0.7422026796139848
2520000000.0 -0.19711813741283596 0.7396135244775291
2540000000.0 0.4594385115303594 -0.6127605560722102
2560000000.0 -0.7153584839270588 0.2551297822128136
2580000000.0 0.6372121964709373 0.38536179242239454
2600000000.0 -0.31844228461340024 -0.6470954109775553
2620000000.0 -0.17483874227957794 0.6698746337703803
2640000000.0 0.48436908536617906 0.44427552316366326
2660000000.0 -0.2131209089700057 -0.576585927275818
2680000000.0 -0.011559526601005326 0.5691976598479428
2700000000.0 0.18566814969288284 -0.4880371063653097
2720000000.0 -0.2231073316800216 0.4183832471848601
2740000000.0 0.4085101096128252 -0.1340342945230565
2760000000.0 -0.32124532598617167 -0.2322622316891473
2780000000.0 0.3398999842261052 0.1582836239814626
2800000000.0 -0.2864694309694651 0.21071911734020526
2820000000.0 -0.16644577175205427 -0.2955284274780405
2840000000.0 0.29431597370400847 0.1318549733571206
2860000000.0 -0.14723006747416137 -0.2797488243585
2880000000.0 -0.19874922303535247 0.24743708239782747
2900000000.0 0.32458055365964467 -0.013508295372732602
2920000000.0 -0.31001598699751665 -0.11680872685558163
2940000000.0 0.11923501255491792 0.3070711907476371
2960000000.0 0.09487442001827007 0.3080415545054804
2980000000.0 -0.16195404785520398 -0.28017676244233414
3000000000.0 0.30531623750959747 0.1466107000634403
3020000000.0 0.27521853156833487 0.22178117406828174
3040000000.0 0.30735205000868265 0.17457954966164976
3060000000.0 0.17503578889825222 0.2959600210350287
3080000000.0 -0.27863860496010706 -0.17588718470487735
3100000000.0 0.18859544792484456 0.2606222380379162
3120000000.0 -0.21461049537966012 -0.2341778048600105
3140000000.0 0.15458847240868667 -0.27392555576512095
3160000000.0 0.2985561877934389 0.03849204779909368
3180000000.0 0.18732370408010227 -0.19911886106001989
3200000000.0 0.2298846319327395 0.06347463318544823
3220000000.0 -0.2067715217354837 0.02930003739842731
3240000000.0 0.16366515334613066 -0.09006878909843578
3260000000.0 0.15110850949483273 -0.08024743547636157
3280000000.0 0.10450298628494299 0.10848965348927213
3300000000.0 -0.012145266619092402 -0.12384906839559885
3320000000.0 0.08077887696220164 0.0519580892110815
3340000000.0 -0.07386636656971952 -0.015699762490872973
3360000000.0 -0.0210279389560555 0.0637734683168319
3380000000.0 -0.072528384524538 -0.01663610239117029
3400000000.0 -0.039420625200775786 0.08415152786010062
3420000000.0 0.08291901705088588 -0.07806271520837839
3440000000.0 0.11687682806299313 -0.0561897083850073
3460000000.0 -0.08334175483724403 -0.10930780449669866
3480000000.0 0.07887946448224124 0.11731790622284931
3500000000.0 0.04534311041040489 0.1462927510833063
3520000000.0 0.15142108711826596 0.07852285996687725
3540000000.0 -0.10248014079168064 0.15747863268069362
3560000000.0 -0.1874264550211833 0.030483039201110885
3580000000.0 0.17916367842427391 -0.024382834279000655
3600000000.0 0.16691560177316878 0.012484545596208787
3620000000.0 -0.1574717911235043 0.01229639430112917
3640000000.0 0.09756584716076064 0.11787082763150816
3660000000.0 -0.15014598459980286 -0.0122059481711109
3680000000.0 -0.07318824849020768 -0.12305743354492892
3700000000.0 0.12698598147700757 0.014154122889390804
3720000000.0 0.034378692605142626 0.10438973348050382
3740000000.0 0.034541339281582484 0.09856337272605169
3760000000.0 0.02103083967273424 0.10472799294580093
3780000000.0 -0.0016041357317866014 -0.11314127262465001
3800000000.0 0.07517851428103076 -0.09055301580892905
3820000000.0 -0.06516565497383912 0.1059466637604082
3840000000.0 -0.13036966325879462 -0.0518152674724937
3860000000.0 0.156145415072773 -0.05035002928216102
3880000000.0 -0.17774837708406913 0.051229592633453155
3900000000.0 -0.16134351232616911 -0.09905843349428013
3920000000.0 0.09724220368272031 -0.14777721803535943
3940000000.0 -0.1528795415601073 -0.04156641525271752
3960000000.0 -0.10325457358768543 -0.10080869449378396
3980000000.0 0.12771525007929424 -0.0271449891758513
4000000000.0 -0.07180609817411078 0.08731106117213892
