!Created with skrf (http://scikit-rf.org).
# Hz S RI R 50.0 
!freq ReS11 ImS11
400000000.0 -0.8536673583498786 0.10696271310776526
420000000.0 0.1767272416147804 0.8245483035419386
440000000.0 0.6914015786957267 0.37446454874341495
460000000.0 0.27455503273789394 0.6639903284882849
480000000.0 -0.5924993707000782 0.28209798515261547
500000000.0 -0.5966107705367205 -0.006810277728545762
520000000.0 0.48124508116924264 -0.19727968462747097
540000000.0 0.09305117889288163 -0.45377228063098124
560000000.0 0.28359276897660074 0.33717778295716083
580000000.0 0.31666045453771297 -0.2343722345893901
600000000.0 -0.3334395862811319 -0.12596825337650064
620000000.0 -0.3164407172033901 -0.1828832450388838
640000000.0 0.12662747143280034 -0.38974446581468913
660000000.0 0.31629742125455007 0.31336149817029124
680000000.0 -0.19559096112182003 -0.41024732320173557
700000000.0 0.43590533552835986 -0.10434342075559916
720000000.0 -0.2703053201333065 0.3409571019665308
740000000.0 0.2274324871079638 0.31167292919318607
760000000.0 -0.1244180463247329 -0.3220598274219343
780000000.0 0.10726984478961032 0.3087900842294956
800000000.0 0.13513485576755996 -0.26891328459811736
820000000.0 -0.24844612901835242 0.01813056282574816
840000000.0 -0.06161137460329849 -0.18910671393449735
860000000.0 -0.09643871260979747 0.12657625393150151
880000000.0 -0.05275822209526605 -0.10536561497307861
900000000.0 0.09628155414714379 -0.016931536123110293
920000000.0 -0.008559341687454616 0.06707201651724264
940000000.0 -0.032009961689517974 0.03807311763543786
960000000.0 0.0342201622078521 0.04924970552259858
980000000.0 0.06415890930940862 0.005420279721929921
1000000000.0 -0.06939445522887876 0.032868303747469414
1020000000.0 0.09296661927169915 0.02135954508045455
1040000000.0 0.07850070280397921 0.08303734785621637
1060000000.0 -0.0818327057203887 -0.12900194828979644
1080000000.0 0.1077715987231541 0.15119719013722152
1100000000.0 -0.12425935606610275 -0.17955657111087148
1120000000.0 -0.15902937277769807 0.19128837953554134
1140000000.0 -0.269628234306509 0.037957076145012536
1160000000.0 0.1949528988368966 0.2201837432522273
1180000000.0 -0.13298752727565918 0.285339031197335
1200000000.0 0.21885713978915985 -0.25996693604458837
1220000000.0 -0.3547501508613876 0.09454256470769343
1240000000.0 0.39063874477974236 0.02280358607725441
1260000000.0 -0.4038633465428614 0.03301266820264601
1280000000.0 0.00899944451583119 0.4060063884380521
1300000000.0 0.02709907031078379 0.40669376088069825
1320000000.0 -0.05196257469156488 0.41181106417371965
1340000000.0 0.2544164995243082 0.3337531347770183
1360000000.0 0.4158269085779646 0.0039027762657229113
1380000000.0 0.09529683920685193 -0.38870315375237824
1400000000.0 0.07227055300808802 -0.37090546426716786
1420000000.0 0.20989691356636747 -0.293525278942266
1440000000.0 -0.15807890345090433 -0.31210658236205885
1460000000.0 0.2074610956227548 0.25270420781111863
1480000000.0 -0.29053959807395346 -0.0548022781005385
1500000000.0 0.20407309916812955 -0.14654146551096037
1520000000.0 0.0137540473098413 -0.2087827171612589
1540000000.0 -0.06923623298959475 -0.15504393626425128
1560000000.0 -0.09678717298300535 -0.10517391043625085
1580000000.0 0.11770643920238069 0.005855462785060601
1600000000.0 -0.02959523099740513 0.08142051837798983
1620000000.0 0.017096719998390856 0.05738416972624959
1640000000.0 0.028893236806437534 -0.0046419161127404795
1660000000.0 -0.006188513192853783 0.003425030755025788
1680000000.0 -0.02355431713121414 0.0008917866846177634
1700000000.0 -0.021986206842527157 0.029586604598637524
1720000000.0 0.031773062935445365 -0.032004409255582365
1740000000.0 0.06210932537485562 0.013360368148042322
1760000000.0 -0.00614618311343259 0.08684146346956023
1780000000.0 0.09139737407038924 -0.07349461219704248
1800000000.0 0.11146555472966829 -0.103126660438522
1820000000.0 0.0993775062872456 0.1536493769867207
1840000000.0 -0.21091926926983467 -0.0548661463770257
1860000000.0 0.10119260524319136 -0.2343438428845815
1880000000.0 0.19447506603589135 0.21481056605367596
1900000000.0 -0.2849563718451288 -0.14600626610693093
1920000000.0 0.26773671278525796 0.22973825990965763
1940000000.0 -0.3522266530808199 -0.14570568476933257
1960000000.0 0.3483177867554209 0.18736712839589936
1980000000.0 0.1910432022955608 -0.357220878602238
2000000000.0 -0.11473318210598182 -0.40009790893382075
2020000000.0 -0.40169638681524883 -0.14754649322500016
2040000000.0 0.014660612910244834 0.4325928177408809
2060000000.0 0.40104490234795137 -0.1416423966092094
2080000000.0 0.13548814131879736 -0.39017661810605775
2100000000.0 -0.12379421909232598 -0.37794862898455095
2120000000.0 -0.18989859265059303 -0.33268215558501835
2140000000.0 -0.2746803046965046 -0.2436190505361146
2160000000.0 0.2362857833485704 -0.2607701794210227
2180000000.0 0.1254264830525778 -0.3133037196173493
2200000000.0 0.036550753974527284 -0.32080842478426236
2220000000.0 0.19964451613311618 -0.2457903755942483
2240000000.0 -0.005736143286430145 -0.3228189768012584
2260000000.0 -0.3189609961697138 0.07882631732033439
2280000000.0 0.1294099467594027 0.3120645643672571
2300000000.0 0.32580682246532466 -0.1485643009477227
2320000000.0 -0.39039191196291856 -0.039341145257287734
2340000000.0 0.3850524538171333 -0.20295817332110927
2360000000.0 0.18176323065955946 0.44781637596370716
2380000000.0 -0.41928660799332296 0.3321053001491231
2400000000.0 -0.47248197839935835 -0.3459876351833803
2420000000.0 0.24847370931838933 -0.581940651813605
2440000000.0 0.638349965542811 0.2120622092895165
2460000000.0 -0.3715679032497874 0.597015052111605
2480000000.0 -0.2844222003234897 -0.6668787480937347
2500000000.0 0.4152745384819044 0.6102580847386339
2520000000.0 -0.4432524440082896 -0.5962682344643406
2540000000.0 0.3483374352537263 0.6526832750456519
2560000000.0 0.0883602603675021 -0.7250905936481484
2580000000.0 -0.48448715042520746 0.5232728197195924
2600000000.0 0.6837410018223012 -0.08017876394496415
2620000000.0 0.44280933626892643 -0.48799773573361693
2640000000.0 -0.5794976849398751 0.2387160762338677
2660000000.0 0.5893643134933134 0.004272367214376937
2680000000.0 -0.513074899131171 -0.1924653271434581
2700000000.0 0.2660313537546244 0.4326267191147057
2720000000.0 0.002789997794310647 -0.4731281752431745
2740000000.0 -0.16695804596208502 0.4112775717623967
2760000000.0 0.09519794458998591 -0.4069868043433482
2780000000.0 -0.11583900370221066 0.37779977232115425
2800000000.0 0.28365091655738867 -0.2544908125015662
2820000000.0 -0.36597922902447394 0.08261325635607591
2840000000.0 0.3721140827597621 0.03995839845384722
2860000000.0 -0.34897139819551093 -0.14132801798674263
2880000000.0 0.2654041550322058 0.2671525686288702
2900000000.0 0.24124521203474553 -0.2897501106826301
2920000000.0 -0.09469800158990979 -0.36447496895382747
2940000000.0 -0.16113740797614712 -0.34005338743626884
2960000000.0 -0.012836055838045052 -0.37468352211536093
2980000000.0 0.3556112461776292 -0.11874770603753983
3000000000.0 0.10456568962054744 0.3632554493315138
3020000000.0 -0.33193008483095165 0.17662063057876037
3040000000.0 -0.05743607320435156 -0.3665959799755539
3060000000.0 0.26647998336666084 0.24524951105955142
3080000000.0 -0.27549251394997915 -0.21662877844866507
3100000000.0 0.17403432687207906 0.29159920930033606
3120000000.0 -0.1811550434089399 -0.27389386499529916
3140000000.0 0.313483697179576 0.026143490706849074
3160000000.0 -0.18350003251538163 -0.22502842925726835
3180000000.0 0.21877731798818284 0.13989596766501225
3200000000.0 0.13255533198498434 -0.18627020164002794
3220000000.0 0.01251687255268236 -0.19987648265108585
3240000000.0 -0.027744368194057574 -0.17379207633565738
3260000000.0 -0.030093057793419163 -0.1447275132020273
3280000000.0 0.019923757585683266 0.1173951450033039
3300000000.0 -0.0992149431926012 0.01776173514225438
3320000000.0 0.028846690877563502 -0.08675010813412022
3340000000.0 -0.08489809159930028 0.0012731060933255773
3360000000.0 0.04470045349068322 -0.06269389530963149
3380000000.0 0.021860978144974886 0.06462884158426276
3400000000.0 0.03968396064532091 -0.04413210206597189
3420000000.0 -0.034601523331991346 0.04234466247731518
3440000000.0 -0.0020653040711030375 -0.05114535646050273
3460000000.0 -0.04354292294432162 0.016412254153304207
3480000000.0 0.030184664151440825 -0.026917791462090928
3500000000.0 0.00020214216882308555 -0.03615617250259147
3520000000.0 -0.03658950955881207 0.010771972916860075
3540000000.0 0.00973188563358979 -0.04573812363500261
3560000000.0 0.05955395101621588 0.012122333530145017
3580000000.0 -0.0526791772460883 0.05805712118304902
3600000000.0 -0.09704775192132399 -0.010723319179951212
3620000000.0 0.10894266180831177 -0.03978529805737309
3640000000.0 -0.03359668780315983 -0.1304980154495353
3660000000.0 -0.13557867009994698 -0.07579172152221311
3680000000.0 -0.16321985336861192 0.07387730151531546
3700000000.0 0.0986862254368504 0.17300819119799654
3720000000.0 0.07255253474734324 -0.20634160760066445
3740000000.0 -0.17901063819431776 -0.14803314037363646
3760000000.0 -0.18784242710865431 -0.1654781299811086
3780000000.0 -0.2047368421205525 -0.17173805491607075
3800000000.0 -0.24458119492940067 -0.14435916080259037
3820000000.0 -0.265261587258865 0.13515653436281339
3840000000.0 0.113582053821135 0.28251747382829606
3860000000.0 0.2964640387136084 0.07166964309802445
3880000000.0 0.29200056605005037 -0.0876437269612217
3900000000.0 0.19441740912776145 -0.23379871549587433
3920000000.0 -0.09310959056573684 -0.2879417428721261
3940000000.0 -0.28016694833356875 0.10683005663565319
3960000000.0 0.2730851260721869 0.09840491979473164
3980000000.0 0.247592257750201 -0.12559338840018874
4000000000.0 -0.23401043075906852 0.10844201053558856
