!Created with skrf (http://scikit-rf.org).
# Hz S RI R 50.0 
!freq ReS11 ImS11
400000000.0 -0.29125458866521187 -0.803738134543734
420000000.0 -0.7348500878398858 0.4100300932150382
440000000.0 -0.1702309213596129 0.7538588146840409
460000000.0 -0.7108874601966234 -0.08913682629085527
480000000.0 0.3720923823021316 -0.549169135980503
500000000.0 0.09037762337716128 -0.6059473856861451
520000000.0 0.5302803913582759 -0.10008321913374507
540000000.0 -0.468153979811592 -0.03556111000423973
560000000.0 0.4320073196306953 -0.0012103252456184125
580000000.0 0.2810981259552136 0.26784843727246366
600000000.0 -0.23508439371400072 -0.273595896461804
620000000.0 0.010859104122549207 -0.3698560589289092
640000000.0 0.2071803008230649 -0.35779412886605255
660000000.0 0.13958953714892303 0.42882744659959765
680000000.0 0.1030362563522713 -0.4586410013504171
700000000.0 0.2680635700649856 -0.3733549516735988
720000000.0 -0.271054086961872 0.35058860773452927
740000000.0 0.21864241245949595 0.3299347955396128
760000000.0 -0.34952571332385984 0.04740000821058226
780000000.0 0.31193721679732817 -0.06882518045429611
800000000.0 0.21291083657257512 -0.18153590173360254
820000000.0 -0.19443903026432918 0.12219568714969904
840000000.0 0.18470334757141685 0.07366008556918194
860000000.0 0.06625698678074603 -0.15060092432410016
880000000.0 -0.12576925910973957 0.025067773017921926
900000000.0 -0.010905503922322441 0.08774740971577474
920000000.0 -0.05071634705076855 -0.013913754112444493
940000000.0 0.012520584747500637 -0.03082900002888181
960000000.0 0.03428889588392061 -0.026985308029428227
980000000.0 0.0034048431351741816 -0.06049822370412389
1000000000.0 0.04786015570312876 -0.06764812760571003
1020000000.0 0.11416492385719466 -0.052423438764423735
1040000000.0 -0.00797848994329877 0.1495099446170584
1060000000.0 0.06950010508217135 -0.16642132956823905
1080000000.0 -0.08097845146531685 0.19437057638388683
1100000000.0 0.1991141376521959 -0.12806353316558358
1120000000.0 -0.07094195578302381 -0.25505350963480367
1140000000.0 -0.15178572390208322 -0.23643515198618859
1160000000.0 -0.2829491216787317 -0.07218736462791285
1180000000.0 0.1373469722547056 -0.284160632700145
1200000000.0 0.2028757955332689 0.2696731828063287
1220000000.0 0.012216473080878849 -0.35888112461443283
1240000000.0 0.0629476633675898 0.3697498849981752
1260000000.0 0.383665698495903 0.0002678249324396261
1280000000.0 0.18903243053119445 -0.34252289214660825
1300000000.0 0.37661441611353447 -0.12328934758644132
1320000000.0 0.23527920068697647 -0.33915138847097687
1340000000.0 -0.36013169500222875 -0.20429609191409387
1360000000.0 -0.40339721792934957 0.06745553559467447
1380000000.0 -0.3194192702926822 0.24172197872340026
1400000000.0 0.22052182188789804 0.32405683548328423
1420000000.0 0.0021553036922666306 -0.3723828960400811
1440000000.0 -0.008938838628764392 0.34576070097626105
1460000000.0 0.112279803628281 -0.28632297288557035
1480000000.0 -0.2516334035740557 0.08952549782027526
1500000000.0 -0.14756729298998458 0.17642394501317704
1520000000.0 0.12881918647536209 0.15672854504888872
1540000000.0 -0.054234305182686925 0.15365859947539623
1560000000.0 0.12185855593468012 0.03042456381180471
1580000000.0 0.09883308756480902 -0.0025032657770030914
1600000000.0 0.001397678600320814 -0.07935712824485741
1620000000.0 -0.01387121155474505 -0.06341202140922773
1640000000.0 -0.001864343122332299 -0.0360854267946073
1660000000.0 0.00044449432811232553 -0.006501150127760751
1680000000.0 -0.013202065584805585 0.0004753601719628147
1700000000.0 0.014818917397670465 -0.00920453052697976
1720000000.0 -0.011612951868837547 -0.009413473441496626
1740000000.0 -0.040073869717988556 -0.0037785192492231215
1760000000.0 0.016343042929990406 -0.0667954159959921
1780000000.0 0.002668116803371787 0.10492316617775052
1800000000.0 0.12565078860257728 -0.07481993522972759
1820000000.0 -0.16178352081828193 0.06433099376751523
1840000000.0 -0.19727935995909676 -0.05291449014781538
1860000000.0 0.18630763508812012 -0.14351158612457546
1880000000.0 -0.04835069534135305 0.27304414531896093
1900000000.0 -0.2781537327148236 0.14156250534232176
1920000000.0 0.18829025183925083 -0.28260992452024086
1940000000.0 -0.22243950484643335 0.2896183781379505
1960000000.0 0.23591074677252588 -0.30123186930821577
1980000000.0 -0.2764430303701514 -0.2782248716300416
2000000000.0 -0.40087230675720903 0.03205034489545993
2020000000.0 -0.4124320563761987 -0.040518625526830665
2040000000.0 -0.02157014131739469 0.4293257271094956
2060000000.0 0.4086159047198587 -0.12750452645555832
2080000000.0 0.016764569236250183 -0.42253994798974237
2100000000.0 -0.3877252567084532 -0.15275149494345275
2120000000.0 -0.19072144423347354 0.35032308837834786
2140000000.0 -0.3799211157779384 -0.023607668276320715
2160000000.0 -0.3236674024605007 -0.14744257182253556
2180000000.0 0.1905925128312085 -0.2863785179487467
2200000000.0 0.282579835077772 -0.18854183659265283
2220000000.0 0.1797582329458925 -0.2882812935375654
2240000000.0 -0.2163363959754663 -0.2610407670505127
2260000000.0 -0.28982825822688457 -0.1717363974749847
2280000000.0 -0.3096222002367285 -0.15356290771062783
2300000000.0 -0.35785345457464696 -0.07229379967909144
2320000000.0 -0.1944407007027917 0.35292105548528335
2340000000.0 0.11737835865836313 -0.43023218134394386
2360000000.0 0.19177951231411927 0.45215179834389957
2380000000.0 -0.5337085336808522 -0.08067550172227807
2400000000.0 0.40146407885604 -0.4288724624810419
2420000000.0 0.18178622227933716 0.6089010472035208
2440000000.0 -0.6703350522716343 -0.10169572701568037
2460000000.0 0.581718016295017 -0.4129617758258764
2480000000.0 -0.2531541134449609 0.6956244179784649
2500000000.0 0.18187908796010305 -0.7355567825138895
2520000000.0 -0.3163781400466284 0.6968418260182022
2540000000.0 0.5794700770541035 -0.5019080144092164
2560000000.0 -0.7597258536120569 0.03542144370459408
2580000000.0 0.5438655557230891 0.5113215837189764
2600000000.0 -0.0448725583031936 -0.7231828983937104
2620000000.0 -0.3755194639557429 0.5848940917152614
2640000000.0 0.09914579537798705 0.6539506319442503
2660000000.0 0.18398675338782236 -0.5937493380528078
2680000000.0 -0.42790923459877706 0.3901687088014781
2700000000.0 0.4972715008670903 -0.20131112552824548
2720000000.0 -0.4907978128251607 0.03350269179817304
2740000000.0 0.39261334307879386 0.22782227936713345
2760000000.0 -0.4058600940530914 -0.11404004120843311
2780000000.0 0.3889213258262535 -0.06436898091583028
2800000000.0 -0.2427546562055848 0.28220985230592316
2820000000.0 0.1723671650567711 -0.31307455217816826
2840000000.0 0.08669611373661475 0.34255750233877397
2860000000.0 -0.34548800025238247 0.056580876307198304
2880000000.0 0.23264246688458887 -0.25649177958695224
2900000000.0 -0.27970660848859963 0.20021491348448514
2920000000.0 0.32370819644663046 0.10864776902473128
2940000000.0 0.28195945469775413 -0.19393063804015784
2960000000.0 0.21491774019081827 -0.2668932638416473
2980000000.0 0.3241819519254813 -0.11763492478969755
3000000000.0 0.3188631188709747 0.14638381530284048
3020000000.0 0.20433740532749614 0.28552679455284324
3040000000.0 -0.1479463178849256 0.31548625671276814
3060000000.0 -0.3266322648479405 -0.1029917527457285
3080000000.0 0.12929457657616603 -0.30662477683407724
3100000000.0 0.2724639854591212 0.1686690150479058
3120000000.0 -0.30375431159551963 0.029965856467460122
3140000000.0 0.09890336245695151 -0.27539746137277593
3160000000.0 -0.05251616921279545 0.26917487257327005
3180000000.0 -0.19287013116682114 0.15959059784471952
3200000000.0 -0.21965763938821847 0.02877362654293171
3220000000.0 -0.14517590887678342 -0.12154708248794341
3240000000.0 0.08419173343516882 -0.13318882046005595
3260000000.0 0.024755561978306594 0.12669848692285654
3280000000.0 0.0330062875754766 0.09903102839278073
3300000000.0 -0.05199674020101138 -0.06293095282514576
3320000000.0 0.060055923236503675 -0.011887383715095744
3340000000.0 0.022623953004538427 -0.04062895379514792
3360000000.0 -0.011148624695172346 0.04216710127681326
3380000000.0 0.046493237426638884 0.006836659891465278
3400000000.0 0.026420272562999246 -0.04258482647844303
3420000000.0 -0.015544034820669515 -0.05474993302229577
3440000000.0 -0.0668740319703935 -0.019246343934627992
3460000000.0 -0.062357221227807444 -0.06295309481655838
3480000000.0 -0.10322849583979404 -0.018955186235544676
3500000000.0 -0.0856943890887399 0.08472727609676918
3520000000.0 -0.134053514235886 -0.014544398854338288
3540000000.0 -0.15419182036092713 -0.006393537239981149
3560000000.0 0.047308543784351544 0.16188698468671248
3580000000.0 0.04603792634623664 -0.17039464038365676
3600000000.0 -0.08207663973654429 -0.158487875405087
3620000000.0 0.1105909465997517 -0.14127198267162386
3640000000.0 0.17093092840417487 0.06116476778546674
3660000000.0 -0.013849751571248785 0.18130169646356933
3680000000.0 -0.1680525931463409 0.06506680211934052
3700000000.0 -0.16895875008630834 -0.05128534332179837
3720000000.0 -0.07726244192080428 -0.15277103367263917
3740000000.0 0.10271880868294526 -0.12538688180124746
3760000000.0 -0.1491410539927642 0.02705666257942565
3780000000.0 0.06021445166523856 -0.1247494516297491
3800000000.0 0.02840524392684158 -0.11564050338530289
3820000000.0 -0.09831583946506091 0.047713881430503285
3840000000.0 -0.09721910876676323 0.032862815424373644
3860000000.0 -0.07155988860740019 0.08080444386976575
3880000000.0 -0.08212207958779966 -0.08318631892033204
3900000000.0 -0.015037543696854418 0.12471110141119601
3920000000.0 -0.034968939886441196 0.12416051354626653
3940000000.0 -0.12650255909428898 0.007966729534656347
3960000000.0 -0.08692128498394833 0.08701136905154089
3980000000.0 0.008712302181761862 0.11619109285228603
4000000000.0 0.09933887254602396 -0.005734858806394181
