!Created with skrf (http://scikit-rf.org).
# Hz S RI R 50.0 
!freq ReS11 ImS11
400000000.0 -0.5903065290296987 -0.5855081722746216
420000000.0 -0.7990559811417279 0.24660766479387042
440000000.0 -0.24293882634612463 0.7370717152944216
460000000.0 -0.7071778390690662 0.12512042911374746
480000000.0 0.5591937907598311 -0.3472061665739852
500000000.0 0.60998170298761 -0.20176168046069204
520000000.0 0.49690668885830297 -0.27116055568445674
540000000.0 -0.014163272053731364 0.4965783265518694
560000000.0 -0.4502596052234955 0.08176523542277131
580000000.0 0.26915310207937615 0.2912243457508937
600000000.0 0.07294853607144366 -0.3412396629635533
620000000.0 0.18526793534376626 0.29541356101042515
640000000.0 0.20789568464880082 -0.33995679368642745
660000000.0 -0.09519505017336617 0.42872948635808883
680000000.0 0.3699199182417644 -0.2802194311950291
700000000.0 0.06476423796999199 -0.4495901943519218
720000000.0 -0.3222634640138987 0.2749329498670324
740000000.0 -0.3456720584577859 0.16050747946462587
760000000.0 0.19008363391202457 0.3026210889551679
780000000.0 0.29100261957386186 -0.16917150478441723
800000000.0 -0.06949449314735448 -0.2767986014382338
820000000.0 0.028851354080309113 -0.22860634305770727
840000000.0 0.19058362203481644 -0.017580426280975787
860000000.0 -0.07988216362058252 -0.15218845748918045
880000000.0 0.05001195484696461 0.13279549442909078
900000000.0 0.09092841434298343 0.024902406791803746
920000000.0 0.05616082157916594 0.03414976643819957
940000000.0 0.04678899108410489 0.001859002056177845
960000000.0 0.04045958556777998 0.0442654130785289
980000000.0 -0.004272784973932972 -0.07399888567905855
1000000000.0 -0.04119621096435837 -0.052089600452819275
1020000000.0 0.058510863978271155 -0.06812596418037496
1040000000.0 -0.04812627599239445 0.10181773147662805
1060000000.0 0.13406242635833637 -0.06749020631925212
1080000000.0 0.14725859881848777 0.12324595439428085
1100000000.0 -0.22331029887759454 -0.008229674555980948
1120000000.0 0.2306284298415596 -0.13685942446776453
1140000000.0 -0.036412751367924504 0.28215803063038786
1160000000.0 0.28037548627360864 -0.07629773672997531
1180000000.0 0.022631289340414345 0.30385204290860135
1200000000.0 0.3148391959840359 0.04698653873799488
1220000000.0 0.3395916367997806 0.1140051811972887
1240000000.0 -0.06218915077112934 0.389525159906139
1260000000.0 -0.3588094642895141 -0.1951453235244594
1280000000.0 0.37527250774824567 0.14080954302323018
1300000000.0 -0.13124674056733385 0.364498796582013
1320000000.0 -0.399770707072416 -0.031407459269508775
1340000000.0 -0.39419835640318374 0.11132051335118916
1360000000.0 0.10592896888435231 0.39966139030854025
1380000000.0 0.23518854101276712 -0.3168337485892988
1400000000.0 -0.07304889482131029 -0.3613228328142127
1420000000.0 0.3123189569423448 -0.14088773938648064
1440000000.0 0.31850331021463896 0.10402501307787596
1460000000.0 -0.32108600010114063 0.0598330666363279
1480000000.0 -0.20516529893103028 0.2195073029258534
1500000000.0 -0.24568465280232551 -0.01854297366400831
1520000000.0 0.18181299635583384 0.06956982775655365
1540000000.0 0.1169033527081225 0.09564841307604327
1560000000.0 -0.09226788026315823 -0.08780139201201095
1580000000.0 0.07343635646314538 -0.08509736924475547
1600000000.0 -0.06148806454998962 -0.06628938626381653
1620000000.0 -0.05071758442331661 0.04396280659882143
1640000000.0 -0.03582877921167765 -0.020252185381349035
1660000000.0 0.002418610843666091 0.014936000767055832
1680000000.0 -0.017090359918557677 -0.0178218747129051
1700000000.0 -0.03282073386137182 0.0123867118127894
1720000000.0 -0.00048617040799732463 0.03998426943212381
1740000000.0 -0.0008493436482695894 0.04795640426270415
1760000000.0 0.04546708758077708 0.045445656144466384
1780000000.0 0.07643768737593326 -0.04297094621208716
1800000000.0 -0.09831397691748496 -0.08625132751168162
1820000000.0 -0.10208714599778163 -0.14057942920859848
1840000000.0 -0.08919724402543266 -0.19776259770389373
1860000000.0 -0.25455624994924614 0.006514375603859842
1880000000.0 -0.042933784688310106 -0.2803052312226316
1900000000.0 0.21278639630677895 0.22456011311063231
1920000000.0 0.28278075600516533 -0.1763905473501331
1940000000.0 0.008373747255147383 -0.36932981254687586
1960000000.0 0.022987019551295045 0.4003067474617387
1980000000.0 -0.05408984267961023 -0.41873324896388653
2000000000.0 0.10999027331995065 0.4146588579779967
2020000000.0 0.41862697564608603 0.01585059403836858
2040000000.0 0.3119607169124359 0.27436366913965643
2060000000.0 0.2889305254921329 0.30054676770981315
2080000000.0 0.26000428292277605 0.33023880718381443
2100000000.0 0.2556960319279133 -0.333567731327551
2120000000.0 -0.37981597143673507 -0.14391603846695702
2140000000.0 -0.3001859368628251 -0.23928465257615156
2160000000.0 -0.2967028952374488 -0.1957372072286958
2180000000.0 0.33369413664465664 -0.02234284149056842
2200000000.0 -0.261034976244782 0.203525321773516
2220000000.0 -0.33502083270004807 -0.07064148460345189
2240000000.0 0.3007358209968614 0.19260120409965964
2260000000.0 -0.1707441064538263 -0.309429981237534
2280000000.0 -0.33113563846119903 -0.12699823861533333
2300000000.0 -0.3346192386286415 -0.15473459331937106
2320000000.0 -0.32337225508330725 0.24897424361552375
2340000000.0 0.10923287948467994 -0.44457560237423316
2360000000.0 0.4994308365295194 -0.05472554664476201
2380000000.0 0.19758799229622295 0.5083659280590548
2400000000.0 -0.5863200138533993 0.049578864742222825
2420000000.0 0.12977990885583723 -0.6195258171994403
2440000000.0 0.6378836437176285 0.21205188772527697
2460000000.0 -0.44291777368468555 0.5448550559331249
2480000000.0 -0.12204839272530128 -0.7122938242146003
2500000000.0 0.2567363805267354 0.6867856523184434
2520000000.0 -0.08767131619663514 -0.7317416991622836
2540000000.0 -0.15879589668123636 0.7151260743302728
2560000000.0 0.6291245232723115 -0.3586472601352435
2580000000.0 -0.680213590773248 -0.1889103675535635
2600000000.0 0.3406609208412455 0.5874907068124853
2620000000.0 0.023117438424681985 -0.6471731470293917
2640000000.0 -0.3639371874155673 -0.4903621503693286
2660000000.0 0.024716000765700716 0.57053272088501
2680000000.0 0.2659307163089542 -0.45850935038667784
2700000000.0 -0.3420470045193723 0.3505663931223438
2720000000.0 0.33897483451619803 -0.29400439963205066
2740000000.0 -0.38647850494642255 0.1445996287662669
2760000000.0 0.32071290567960986 -0.21110980605872995
2780000000.0 -0.1810169852634782 0.3111228732733259
2800000000.0 -0.06334081350308225 -0.33617232956400656
2820000000.0 0.20433245180281664 0.25817270492755706
2840000000.0 -0.16403124733159533 -0.2819732399327916
2860000000.0 0.28150774981794713 0.17503664467882737
2880000000.0 -0.3273869405380218 0.06822132249533809
2900000000.0 0.3353319428809369 0.03466237718909066
2920000000.0 -0.19650894322242413 -0.2758548512309182
2940000000.0 -0.33816893870705295 -0.008007677928971701
2960000000.0 -0.31759436983889766 0.11971776878130902
2980000000.0 -0.32577592307788406 -0.10000622312251224
3000000000.0 -0.15154783445822118 -0.31059465525587404
3020000000.0 0.06446569836889506 -0.33852019236856407
3040000000.0 0.3108551718213784 0.13762851027428388
3060000000.0 -0.11136192457589505 0.31426560654896885
3080000000.0 -0.06014723761869647 -0.31600839897448996
3100000000.0 0.06866723609378066 0.3022228341272954
3120000000.0 -0.1475357899859431 -0.2622388529699236
3140000000.0 0.28273119399180413 0.07702425583817514
3160000000.0 -0.25633110983823476 0.10998397044988216
3180000000.0 -0.1517511064251976 0.20606917743642428
3200000000.0 -0.14619200917040512 0.16897081829178537
3220000000.0 -0.1821568001937848 -0.044493706877086224
3240000000.0 0.1417521035449142 0.057498169264219696
3260000000.0 0.016505646752557057 -0.12541430628584627
3280000000.0 0.10601366214479313 0.011501886165380563
3300000000.0 -0.04177186765158919 0.0750091644567603
3320000000.0 -0.04233223236336108 -0.039501958331789606
3340000000.0 -0.024036546545264492 0.025068952228091777
3360000000.0 0.018879046749373154 -0.0117239475600096
3380000000.0 -0.017952214897559365 0.011857113565005354
3400000000.0 0.03448866434412369 0.008605609474984266
3420000000.0 -0.048607057078159176 0.024510086641490132
3440000000.0 -0.05623350341681759 -0.04496390715039764
3460000000.0 -0.0673111093262216 -0.04533379255992537
3480000000.0 0.008806372680723937 -0.08692738547717369
3500000000.0 0.021633904105614714 0.09759960664793568
3520000000.0 -0.11815730441235987 0.0211775571172486
3540000000.0 0.12256456129414671 0.0664232072450784
3560000000.0 -0.07226417987141243 -0.13179019619100238
3580000000.0 -0.024341124807514 0.1535296672309238
3600000000.0 -0.09163469512842785 0.1264959838895167
3620000000.0 -0.12927010005537254 -0.09695762513939149
3640000000.0 0.09482160796466434 -0.14096259694771512
3660000000.0 0.030386285067493975 -0.17330561639019762
3680000000.0 -0.0870327672579886 -0.14954194492331085
3700000000.0 0.038004104277051226 -0.16189779868745924
3720000000.0 0.14649049694963845 -0.06793426064596311
3740000000.0 0.12120389720256051 0.08882650265976985
3760000000.0 0.06909934777934708 0.11433729426301376
3780000000.0 0.003789157060081299 -0.12114849283912264
3800000000.0 -0.05091557992363098 0.10972370778090465
3820000000.0 -0.04633286553903074 0.11699427834577562
3840000000.0 0.12092960565745484 -0.020731065959248077
3860000000.0 -0.11866658513236338 -0.005974864215375484
3880000000.0 0.08318509429228046 0.10098614026318276
3900000000.0 -0.13789333974867848 -0.053281657546003156
3920000000.0 0.06720402066869303 0.13645227178733735
3940000000.0 0.06496536271075845 0.12989151244081054
3960000000.0 -0.12232665619679807 0.05750371485912361
3980000000.0 0.0053904276821131495 -0.12721283759608404
4000000000.0 0.06842972716035804 -0.09891984259995218
