!Created with skrf (http://scikit-rf.org).
# Hz S RI R 50.0 
!freq ReS11 ImS11
400000000.0 -0.795443192357755 0.3366960103626072
420000000.0 0.43834188281941144 0.7150935200744557
440000000.0 0.577526545244082 0.5306428676871637
460000000.0 0.35698818924705733 0.6323324256706433
480000000.0 -0.4421439543041145 0.4807589254943384
500000000.0 -0.48963102999030683 0.34388636328421607
520000000.0 0.5105830462927176 -0.0788019392375791
540000000.0 0.1260010800076183 -0.44712422408331487
560000000.0 0.42624008520937257 -0.0966228517922927
580000000.0 0.38529465224334447 -0.01304869705992128
600000000.0 -0.11665482175772696 -0.3362140340669265
620000000.0 -0.10909230454023719 -0.3479639506869167
640000000.0 0.4165005112293166 -0.004306352333291899
660000000.0 0.37602080630560175 0.25624654915607337
680000000.0 -0.42615660800504507 -0.1974544945216323
700000000.0 -0.4534026680795652 -0.03880759127811331
720000000.0 0.3852990245442915 -0.1728347455853465
740000000.0 0.17996572689628418 0.3187150909833311
760000000.0 0.33483517665969875 -0.05246668320347609
780000000.0 -0.15556220343171123 0.2801558169935816
800000000.0 -0.2229812536745548 0.18869160673097243
820000000.0 -0.18912316563374845 0.17661518384234118
840000000.0 0.03920525223497374 0.22489634936808806
860000000.0 0.14632966969820227 -0.12796699689316787
880000000.0 0.1477062985837427 -0.018062563131372156
900000000.0 0.08939702840522797 0.024312101771757494
920000000.0 0.05056596769974514 0.022540661805860063
940000000.0 -0.026890157426778562 -0.02601357050601877
960000000.0 0.011235224176230563 -0.030320804334327687
980000000.0 0.03144189243268221 -0.010919401010167081
1000000000.0 -0.008121517212079465 -0.05092157683396145
1020000000.0 -0.02198523326442078 -0.09053973464027243
1040000000.0 0.029436149644149825 -0.1285862432043592
1060000000.0 -0.1713293256968382 0.040780475648099654
1080000000.0 0.01367991917206983 -0.21421617971163376
1100000000.0 0.10702911048363381 -0.19924256230693138
1120000000.0 0.003842352326133353 -0.24333011807875476
1140000000.0 -0.14134223493880896 0.21531815330433265
1160000000.0 -0.24613477522622973 0.15833728964743238
1180000000.0 -0.1266984073895959 0.29746433883050616
1200000000.0 -0.23447566041096193 -0.24602229115733948
1220000000.0 -0.13667002594068514 0.3362457388065816
1240000000.0 0.35392559767640314 -0.1389032255803541
1260000000.0 0.1381006983051929 -0.371613311506047
1280000000.0 -0.3833122543159324 -0.16081491741558437
1300000000.0 -0.017226004885525472 0.4204229213041428
1320000000.0 0.3485669903308877 0.24380136296142785
1340000000.0 0.3099150837591568 -0.2853901688198433
1360000000.0 -0.03216902257645622 -0.40554565692540434
1380000000.0 0.22614178988426026 -0.3120248547162523
1400000000.0 0.36133788841639586 -0.1032252998616758
1420000000.0 0.18021878603975494 -0.31259691951124075
1440000000.0 -0.22536063393878702 -0.2576705728606013
1460000000.0 -0.17849784748968311 0.26430605493986786
1480000000.0 0.153206730419821 -0.24783148351746634
1500000000.0 -0.22105415835753736 0.13078034703168415
1520000000.0 0.06863746424022504 -0.21545073570822296
1540000000.0 0.15320539376802575 -0.09740226462378924
1560000000.0 0.026337772111486298 0.1347396822364318
1580000000.0 0.08583844390895153 0.043503902169904116
1600000000.0 -0.06656520532274258 0.015732334161462403
1620000000.0 -0.031316008095282497 -0.044941429256583586
1640000000.0 0.02559014523594048 0.029456922985531916
1660000000.0 -0.021022207987291774 0.011238739076335887
1680000000.0 0.005244394462421021 -0.003439822033345439
1700000000.0 -0.031616577808783373 -0.016470125656286663
1720000000.0 0.05036935618699297 0.028602477575885403
1740000000.0 0.07320259661981678 -0.03326613901454972
1760000000.0 0.0004146199631019154 0.09746107512741926
1780000000.0 0.11802196853011455 0.015162037359355427
1800000000.0 -0.1195976538281391 0.08319310375079776
1820000000.0 -0.04062383064725327 0.17103300224497317
1840000000.0 -0.034542890782815784 -0.2156417804230212
1860000000.0 0.11151132256829781 -0.22947285256696973
1880000000.0 0.2640339547416365 0.11058401456050392
1900000000.0 -0.07451651306410544 -0.3045769025882433
1920000000.0 -0.2387694551685455 0.2568081737402153
1940000000.0 0.11022265718807021 -0.3715092965755299
1960000000.0 0.39642081271780033 0.09780075133220119
1980000000.0 -0.3613963869086022 -0.19485316369736255
2000000000.0 -0.37134365306624983 0.17457743313666388
2020000000.0 -0.3984632522218155 0.1149189339549865
2040000000.0 -0.33787580899141545 0.2543498253795051
2060000000.0 0.2812722004495609 0.3192263512426349
2080000000.0 0.30758635835070064 -0.2854489067720267
2100000000.0 -0.34502627212111 -0.21347707742261407
2120000000.0 -0.38430033963809773 0.0014903498264765733
2140000000.0 -0.3618671694455125 0.06815257578438584
2160000000.0 -0.0029746630282835563 -0.34999943911807857
2180000000.0 -0.07393470272933919 -0.32833344483423993
2200000000.0 -0.07835035297003673 -0.30844077717362195
2220000000.0 0.30212336461349376 -0.0771282792352206
2240000000.0 0.31099575900897863 -0.07417494399748968
2260000000.0 0.08658325569101327 -0.32014884619993494
2280000000.0 -0.24860811551055093 0.2458199194979108
2300000000.0 0.19178289044560254 -0.3154706652395953
2320000000.0 -0.19087117582884217 0.3446518884270669
2340000000.0 0.1634425295112942 -0.3965338038602677
2360000000.0 -0.03657212388086858 0.4737275928295363
2380000000.0 -0.5300624250183474 -0.03065996835664443
2400000000.0 -0.16046557404940165 -0.5609905670970808
2420000000.0 0.5132002591084819 -0.36868730788186593
2440000000.0 0.4718504038385075 0.4794801213946328
2460000000.0 -0.5600871522416568 0.4267866118201892
2480000000.0 0.06405109849152907 -0.7237516373434593
2500000000.0 0.21674156064310562 0.7072091437503888
2520000000.0 -0.2320508474594387 -0.7077042171838507
2540000000.0 0.01188679207337033 0.7421883285178382
2560000000.0 0.3632399360994512 -0.6373131729091693
2580000000.0 -0.6366021827393034 0.32604409089731884
2600000000.0 0.6799946580875292 0.11845753387413235
2620000000.0 0.5719044679509174 -0.32869068088637865
2640000000.0 -0.6104489926031669 -0.13332560290581286
2660000000.0 0.36220411876122793 0.4635702793349955
2680000000.0 0.017240191254034976 -0.5510369537006791
2700000000.0 -0.08835252905669634 0.5091584595380223
2720000000.0 0.11767999760805649 -0.4643684985567668
2740000000.0 -0.10107695111660683 0.43561751809097204
2760000000.0 -0.056728768983789465 -0.4092719621211359
2780000000.0 -0.23961409268425085 0.30355433895758016
2800000000.0 0.3696358898432719 0.04771099178402144
2820000000.0 -0.137275628282931 -0.34265088213136846
2840000000.0 0.08965155792568177 0.36123572046979124
2860000000.0 -0.21506953200395915 -0.3066343689869339
2880000000.0 0.09345969334143855 0.3636537670165728
2900000000.0 0.26498178182118015 -0.26361281132160624
2920000000.0 -0.14319284580589936 -0.3457765752019641
2940000000.0 -0.3339653200520104 -0.15954449029561013
2960000000.0 0.02360079206138709 -0.3665810622853758
2980000000.0 0.36981472418926553 -0.014029026950142142
3000000000.0 0.12996716813506815 0.35428852954570283
3020000000.0 -0.1891035826156473 0.3264604004741269
3040000000.0 -0.36013042672241696 -0.06621113284849194
3060000000.0 0.3487461248501806 0.05950170588009326
3080000000.0 -0.33457379681416327 -0.0794898202351211
3100000000.0 0.22314834110876713 0.24755399770616823
3120000000.0 -0.09754150427857425 -0.30880861838811996
3140000000.0 0.30445037662970703 0.06696346441341904
3160000000.0 -0.21730815483879057 -0.19370348150803054
3180000000.0 0.21536422486862683 -0.14696532491346848
3200000000.0 -0.2138045354249162 -0.07365004274888724
3220000000.0 -0.157330980080566 0.11502840647079766
3240000000.0 -0.14340577813461333 0.08490837616413484
3260000000.0 -0.13105037105111808 -0.04433322880397877
3280000000.0 0.09965014719551536 0.04727416036857514
3300000000.0 -0.09127241117528598 -0.0005645366008187883
3320000000.0 0.06750229129102878 -0.041490919500353544
3340000000.0 0.06916916101585979 -0.021441800260302492
3360000000.0 -0.06150407691760942 -0.005909373934209809
3380000000.0 -0.009356884091429452 -0.05338529187696789
3400000000.0 -0.046637074477836736 -0.012775012010860287
3420000000.0 0.03976024696216428 -0.00416465671560756
3440000000.0 0.01025639937076146 0.028366572691249488
3460000000.0 -0.019176485021573413 0.0011765755522338296
3480000000.0 -0.01185339464726639 -0.004398619764771153
3500000000.0 -0.0074013283982753844 -0.004769849328381165
3520000000.0 0.011197394103273587 -0.014266372178839271
3540000000.0 -0.02547711923473868 0.015243434136068783
3560000000.0 -0.03344671958315887 0.015348880125287036
3580000000.0 -0.007275182690969667 0.04690934260188366
3600000000.0 -0.0025078657534294774 -0.06164219866313017
3620000000.0 0.05422868299531517 0.05183876235802025
3640000000.0 -0.02632602897166269 -0.08521908036517518
3660000000.0 -0.02881913233730564 0.1035164270772041
3680000000.0 -0.11024663069559049 -0.06635116364930699
3700000000.0 -0.11896556600737442 -0.08522640585478429
3720000000.0 -0.03570030007959542 -0.15939169198371445
3740000000.0 0.17765110962398198 -0.012145587256072262
3760000000.0 -0.1780395502885648 0.09643148741033021
3780000000.0 -0.049032051333102566 -0.22473243395205325
3800000000.0 -0.00594947120584384 -0.25464016892478253
3820000000.0 -0.2775067789937842 0.017330330473847334
3840000000.0 0.11770101125694506 0.267185300265926
3860000000.0 0.27952313713295535 -0.11252620207186978
3880000000.0 -0.07227914084013429 -0.30174977452772034
3900000000.0 -0.3158636486833066 0.00616746260253546
3920000000.0 0.16982191438904842 0.2668634872980758
3940000000.0 0.24862896227460926 -0.18865410085340695
3960000000.0 -0.3035382980086511 -0.05424781161606015
3980000000.0 0.29813312114731444 0.02872577654035352
4000000000.0 0.020851199025129837 -0.28237626896920315
