!Created with skrf (http://scikit-rf.org).
# Hz S RI R 50.0 
!freq ReS11 ImS11
400000000.0 -0.48159101314041514 -0.6910252162379855
420000000.0 -0.7888911539927148 0.28474527933979704
440000000.0 0.1585944500731606 0.7658030004375109
460000000.0 -0.4758965700914787 0.5400797114739839
480000000.0 -0.10694632170922468 -0.6489233877181332
500000000.0 0.4929500121228441 -0.3696689394691705
520000000.0 0.5505889211760223 0.04368680148946043
540000000.0 -0.48995144534485796 0.03558893697353088
560000000.0 0.02646609706398026 -0.4530301792979018
580000000.0 0.005941037968216537 -0.3949382448447164
600000000.0 -0.30309752720732314 0.20106524036293516
620000000.0 -0.34703265770334774 0.0939110102662982
640000000.0 0.29340473907824177 -0.28074389423930324
660000000.0 0.12511283001308918 0.42817578943317414
680000000.0 -0.27266245907553777 -0.3755267676972191
700000000.0 -0.21720120743597982 -0.399722419260276
720000000.0 0.17486732561931914 0.39881194257413716
740000000.0 0.35477519359938137 -0.15731605863740655
760000000.0 -0.31879870338028155 0.1381383777423044
780000000.0 -0.21477890223661014 -0.23640575951064366
800000000.0 -0.24583745815104205 -0.1371438456841055
820000000.0 -0.09445748807619729 -0.2066610368995037
840000000.0 -0.17726069782723836 0.06682074351311333
860000000.0 -0.13913782412091674 0.07068494271276296
880000000.0 -0.11558101082074128 0.051241411908678966
900000000.0 0.06960523327480661 0.06556794896121627
920000000.0 -0.05894616146989745 -0.007115572985008356
940000000.0 0.010954626282557032 0.04820589426549646
960000000.0 0.018185287429276616 0.05758816554533142
980000000.0 0.07453114608577148 -0.003521708852276307
1000000000.0 0.036807286779588444 -0.07860455023797472
1020000000.0 0.018026546302849115 0.10664304341932444
1040000000.0 0.08954653446845137 0.0925359368719105
1060000000.0 -0.0701258009719679 -0.14398949051105883
1080000000.0 0.050966307280548434 0.18909994886185838
1100000000.0 -0.20137832638413072 -0.10872816854039477
1120000000.0 0.09255784793001337 0.24057559641872076
1140000000.0 -0.06895649043604646 0.27096325186220904
1160000000.0 0.2931805943449843 -0.08090669613804473
1180000000.0 0.22019295539808004 -0.23579404068925972
1200000000.0 -0.18798754694324704 0.27582872396453834
1220000000.0 0.13644120230488702 0.3244776641287188
1240000000.0 0.36531334951051175 -0.0933750306100088
1260000000.0 -0.35479912908299716 -0.16712464581806488
1280000000.0 -0.3376069308530509 0.20770878738902823
1300000000.0 -0.39438258163476525 0.08168053823587586
1320000000.0 -0.41410552154479174 0.041435139356529385
1340000000.0 -0.06288101264949296 0.4206989460969307
1360000000.0 0.4192394912145809 0.0027336182865460266
1380000000.0 0.3686092835092541 -0.16569220190861253
1400000000.0 0.14523395096880654 -0.3634082810759882
1420000000.0 -0.35734227664880996 -0.10995927564882191
1440000000.0 0.20954867011598707 0.28209729391519056
1460000000.0 -0.06302486446440712 -0.3122082028328579
1480000000.0 -0.06962109264219926 0.27592540546516076
1500000000.0 0.09361105500178801 -0.22708580904398548
1520000000.0 0.031077359469280214 -0.20571219284154973
1540000000.0 -0.13320021129218523 -0.10269100161344631
1560000000.0 -0.13302045251749078 -0.03616056961350617
1580000000.0 -0.10813491764700946 0.025659990700901386
1600000000.0 -0.08269769578686173 0.019596561610739593
1620000000.0 -0.021979560571910896 0.06321677706923638
1640000000.0 0.026590380594777516 0.038443091942658936
1660000000.0 0.020704855541825776 0.0003630952508171188
1680000000.0 0.008205744199658017 -0.007889851229351569
1700000000.0 -0.0194895472035245 0.027207407898682055
1720000000.0 -0.04526583847664242 0.003065231606594145
1740000000.0 -0.04254988890510087 -0.03947110780754632
1760000000.0 -0.06341611007882254 -0.04505335739375276
1780000000.0 0.05524402627844434 -0.09806776102631089
1800000000.0 -0.12784357055945558 -0.08757883674085334
1820000000.0 -0.18261095317393494 -0.056528952305953166
1840000000.0 0.003674946176180092 -0.22531126950083583
1860000000.0 0.21957171489722735 -0.14505068782315383
1880000000.0 0.2019154956089001 0.21819433110455663
1900000000.0 -0.28837371045116145 0.15537501320013797
1920000000.0 0.23608114350243314 -0.25951977241761737
1940000000.0 -0.36602712907561236 0.06732949163621882
1960000000.0 0.3368790766732407 0.19214863745758656
1980000000.0 0.25547792738402153 -0.30620410494295497
2000000000.0 -0.23055158625769975 -0.33981206858800295
2020000000.0 -0.39596549208753784 -0.13328506190203904
2040000000.0 -0.40264972325023024 0.1332205819641144
2060000000.0 0.1309512756462695 0.40545364677523993
2080000000.0 0.3237122612395643 -0.2634052792157048
2100000000.0 -0.18385674671208382 -0.3562444412862061
2120000000.0 -0.3397530325169971 -0.17771490599129686
2140000000.0 -0.31483382027503237 -0.18633734512270841
2160000000.0 0.15045183121015174 -0.31320371985877377
2180000000.0 0.2971899623292088 -0.1484469887381574
2200000000.0 0.3191727073806246 -0.034678083869420756
2220000000.0 0.22167959122156217 0.21962022289275293
2240000000.0 0.10293566012710934 -0.2856190755976519
2260000000.0 -0.23613842133828067 -0.1971510876196286
2280000000.0 -0.23569407809901305 0.21005070985918792
2300000000.0 0.2325437684776359 0.24267594688405955
2320000000.0 0.031856152533638625 -0.36703911388714056
2340000000.0 0.237216582809842 0.33518981456115393
2360000000.0 -0.43684656601935085 0.13293475701351548
2380000000.0 -0.13421664065396494 -0.4896811090515329
2400000000.0 0.5415265206854968 -0.1431284894917566
2420000000.0 0.2973372050016506 0.5335623052687446
2440000000.0 -0.46153669055883567 0.4640295026503375
2460000000.0 -0.43632342273371183 -0.5338117108250054
2480000000.0 0.7171573726463414 -0.020046136429092826
2500000000.0 -0.6757040783164601 0.29173276735682757
2520000000.0 0.6377290026196066 -0.38312293120792174
2540000000.0 -0.7125732836326654 0.21552651490855712
2560000000.0 0.7284889887428797 -0.05170400290523158
2580000000.0 -0.5451851052956803 -0.45539044767161785
2600000000.0 -0.5581165625967955 0.3802497746607604
2620000000.0 -0.5432521026391128 0.3460327893153182
2640000000.0 -0.0030882706740039696 0.6065213776235941
2660000000.0 0.5684838701804834 -0.04957332413318185
2680000000.0 -0.3650320617082262 -0.3883621453829251
2700000000.0 -0.05232513061379967 0.4935503206350112
2720000000.0 -0.2297203305438397 -0.39637404099710316
2740000000.0 -0.27767124294131795 0.35061580090285477
2760000000.0 0.15201386984459256 -0.40129439686613716
2780000000.0 -0.20323507155853238 0.3563125669946523
2800000000.0 -0.0753128352642756 0.36108127833375236
2820000000.0 -0.10842586691577132 -0.34402605248035034
2840000000.0 0.31817494594581597 0.16205799146474234
2860000000.0 -0.3363188780768154 -0.11737465890772347
2880000000.0 0.0849274913277338 0.3393915502321445
2900000000.0 0.346726565370802 -0.039508058995894726
2920000000.0 -0.16321692462971057 -0.3190674047325657
2940000000.0 -0.29323936647069854 -0.2630026246324467
2960000000.0 0.2682250655894053 -0.2918690639734145
2980000000.0 0.35732351161524545 -0.16968674066099412
3000000000.0 0.0766345651940763 0.3873772674957141
3020000000.0 -0.3830208598304236 -0.07053851542912058
3040000000.0 0.2755887356917514 -0.26733254829111625
3060000000.0 -0.0015472319582927627 0.3759471786151987
3080000000.0 -0.10228022320878775 -0.35146456727418735
3100000000.0 0.15660454692596765 0.31822516808771273
3120000000.0 -0.24246762902628943 -0.23708995703047778
3140000000.0 0.2938539053079159 0.1316611620881132
3160000000.0 -0.3007259541132737 -0.03338935569697814
3180000000.0 -0.04693080176022069 0.2753908184146405
3200000000.0 0.24742451064296134 -0.011494137156316635
3220000000.0 -0.009858999060993683 -0.21404858533760143
3240000000.0 0.13258816710099702 -0.12676997667541431
3260000000.0 -0.06346019940207707 0.14951320226780487
3280000000.0 -0.014254822831655604 0.14808478253336943
3300000000.0 0.11508617653670215 0.07655851009739707
3320000000.0 0.06859023375903298 0.10222849077987495
3340000000.0 -0.014784636314545891 0.09810432822893209
3360000000.0 -0.022583016819582184 -0.048540781344380966
3380000000.0 0.032285737565676216 0.01225254795940975
3400000000.0 -0.009554984885271314 -0.03302983010194287
3420000000.0 0.03362365014269711 0.024145274698036505
3440000000.0 0.02235622634259491 -0.049304007196111756
3460000000.0 -0.06103823047168556 -0.028624685668374016
3480000000.0 -0.0801691308287586 0.01083873057036273
3500000000.0 0.019473123575031174 0.09711142705673828
3520000000.0 0.11831253252578913 0.01605039453514175
3540000000.0 0.13113278257331978 -0.04181990869680886
3560000000.0 -0.016166392369410677 0.1502235923523514
3580000000.0 0.08656055210370688 -0.1331529313657941
3600000000.0 -0.05434298134629443 0.15793335079572407
3620000000.0 -0.12669325408546564 0.11569583334775901
3640000000.0 -0.1766265536182228 0.005717686342626565
3660000000.0 -0.17790341304537272 0.00456093461531283
3680000000.0 -0.11914659799374161 0.2018587307942962
3700000000.0 -0.2434126569691786 0.007514181412935736
3720000000.0 0.2327375640613067 0.051799723671343126
3740000000.0 -0.09659898538818536 -0.2342155065060837
3760000000.0 0.23417768505527262 -0.15719028822610637
3780000000.0 -0.04040673483598699 0.2747077283335177
3800000000.0 -0.25850739884745655 -0.024724217787936608
3820000000.0 -0.08504165750788792 -0.23621927794312314
3840000000.0 0.24373886624614605 0.04298194682095933
3860000000.0 -0.226274789810679 0.10141719204371327
3880000000.0 0.21595438143354334 -0.1480760434964042
3900000000.0 0.1832804644931885 -0.2077431270868011
3920000000.0 0.13530588169349758 -0.2066835035235193
3940000000.0 -0.19845298310704043 0.07335775887621025
3960000000.0 -0.1615795951271357 -0.047216972436008274
3980000000.0 -0.14440210459447722 0.049255690346228516
4000000000.0 -0.12541325422565627 -0.05174456640244355
