!Created with skrf (http://scikit-rf.org).
# Hz S RI R 50.0 
!freq ReS11 ImS11
400000000.0 -0.7314315154933271 -0.4552114359366981
420000000.0 -0.5635648058508088 0.6223042247783739
440000000.0 0.3104226309230286 0.7235996356681219
460000000.0 0.0672531806693502 0.715188915881407
480000000.0 -0.6450436391592114 0.03148536795469513
500000000.0 -0.11854221174574857 -0.5708088521067572
520000000.0 0.13205287235712015 0.5025292000257173
540000000.0 0.1886238452112591 -0.41915821517530577
560000000.0 -0.1270698087951834 0.4078678063301286
580000000.0 0.08633207589914037 0.37934010126284645
600000000.0 -0.018894121604354937 -0.36148024752809005
620000000.0 0.10646838565182516 -0.3465372100473836
640000000.0 0.4003165227152839 -0.0997420675642751
660000000.0 0.11354549361452598 0.43523848661976383
680000000.0 0.1969923214091023 -0.4145699107465639
700000000.0 0.36452966121655905 0.2760687908234475
720000000.0 -0.43672190507957726 -0.08510030009136428
740000000.0 -0.0628525396393733 0.3975268911210286
760000000.0 -0.22528017858809843 -0.2685193690819686
780000000.0 0.10505340251013351 0.3153418287706197
800000000.0 0.2515273665113453 -0.14264063176200206
820000000.0 0.18780479234481776 0.14794277451107934
840000000.0 -0.17984179013398166 -0.08099651027594425
860000000.0 -0.1607460641516711 -0.008936076805289685
880000000.0 -0.07532469119798099 0.09823705812945767
900000000.0 0.002440256165140518 0.08847950685318365
920000000.0 -0.033740853207590904 0.04108001542065764
940000000.0 -0.03066826811212998 0.020005913949826006
960000000.0 -0.0297206134544292 -0.04419229471636581
980000000.0 0.06142893835640091 -0.029818742282047145
1000000000.0 -0.04891724458912417 -0.07007756792544163
1020000000.0 0.03224648485090612 -0.1139745996584286
1040000000.0 -0.08570012101313838 0.10652349947648604
1060000000.0 0.035801120231387054 -0.1750451649016564
1080000000.0 -0.13663926007264 0.15083248912735592
1100000000.0 0.13271696855676024 0.19242912254342368
1120000000.0 0.13250262091360174 -0.22852220115106506
1140000000.0 0.25509577795032035 -0.12310197822820176
1160000000.0 -0.20471730292860896 -0.223778905710356
1180000000.0 -0.26423284257189467 -0.18355996174228303
1200000000.0 0.30740389335226703 0.13338672095829873
1220000000.0 -0.08325795559556991 -0.3465369470108257
1240000000.0 -0.25116527201148564 0.28025130108167046
1260000000.0 0.35774632905393955 -0.15412681179314333
1280000000.0 0.007743711534499138 -0.390499839699336
1300000000.0 0.2060731002543444 -0.3389834980294396
1320000000.0 0.0538294597354291 -0.40225548277048423
1340000000.0 -0.16357865781996536 -0.3783817046215724
1360000000.0 -0.3745518776632393 0.16451593060496705
1380000000.0 -0.2262148643062296 0.32719176991966836
1400000000.0 0.2811725365672785 0.2619423253839973
1420000000.0 0.27625059794585155 -0.2361970587748686
1440000000.0 -0.27396649237590753 -0.20641168366709217
1460000000.0 0.21658464407966294 0.22700895237963928
1480000000.0 -0.14811889474957587 -0.23770676526461268
1500000000.0 0.2051598072268906 0.128866438928925
1520000000.0 -0.0720194206283034 -0.1900962720431531
1540000000.0 0.08893230590817665 0.13163717320765886
1560000000.0 -0.019400943425580346 0.12321654776764467
1580000000.0 0.10434093116425872 0.0008618701160059051
1600000000.0 0.05752690966579702 0.057087149436485254
1620000000.0 -0.021945661658211008 0.05674530986008406
1640000000.0 -0.02507643146558015 -0.02789905827471864
1660000000.0 -0.011105196319723933 -0.01086343435386196
1680000000.0 0.013219326684842351 -0.0010594667125050539
1700000000.0 -0.020631503101116132 0.012871506441279875
1720000000.0 0.03506760750708187 0.005883931341792007
1740000000.0 -0.031868934508749294 0.042132121224138425
1760000000.0 -0.06951808142016805 -0.013574603623462415
1780000000.0 0.08987890874996468 -0.036334492280969376
1800000000.0 -0.031911457917765035 -0.127692278544152
1820000000.0 0.11866552793555524 -0.11687756937395168
1840000000.0 0.19723757682084989 -0.06197384995690723
1860000000.0 0.18682739580512428 -0.16103401019830768
1880000000.0 0.2722560719914943 -0.06658990189062208
1900000000.0 -0.0805880064449306 0.2974733332360897
1920000000.0 0.12409733559070892 -0.3116662875319267
1940000000.0 -0.29360768794623066 0.21061358435684222
1960000000.0 0.37183824039843844 -0.08346959843896076
1980000000.0 -0.12450355856493202 -0.374834740019737
2000000000.0 -0.40648664199994444 -0.021204662635046514
2020000000.0 -0.25815027138072894 0.3256523970744198
2040000000.0 0.11518396317126796 0.4060213547166028
2060000000.0 0.42312856286937534 0.017557588845304138
2080000000.0 0.11931276485404699 -0.4027047220839241
2100000000.0 -0.3654697049628894 -0.1860141811160592
2120000000.0 -0.38524474564059896 0.0918012997848961
2140000000.0 -0.2410869479456543 -0.294675513607476
2160000000.0 -0.2027911889842728 -0.2972190598002119
2180000000.0 0.016435286078988517 -0.3465241804187936
2200000000.0 0.11741885804267153 -0.31696620527379393
2220000000.0 0.21867538841477932 -0.25113620819295723
2240000000.0 -0.012731216289454414 -0.33557441832784746
2260000000.0 -0.07273059293343143 -0.328420234617123
2280000000.0 -0.2582734192515092 -0.23197481704747602
2300000000.0 -0.36466136557922246 0.01171360476066425
2320000000.0 -0.07095820388014741 0.3915806931848998
2340000000.0 0.23913931981692527 -0.36744440186493643
2360000000.0 -0.15359076573783004 0.45954936381062667
2380000000.0 -0.3042101693495809 -0.43956746238354005
2400000000.0 0.5810212955442079 -0.059109578181451836
2420000000.0 -0.23245842007749623 0.5872069221400082
2440000000.0 -0.47328821629123363 -0.4798739415568389
2460000000.0 0.7082399973719693 -0.0407062655380322
2480000000.0 -0.628800549989948 0.3843300895504171
2500000000.0 0.5703493612895605 -0.4946050198253327
2520000000.0 -0.6870415643962001 0.33384401104757805
2540000000.0 0.7637747357511954 -0.05245183839221992
2560000000.0 -0.644689129512417 -0.404423872409934
2580000000.0 0.16880728676916276 0.7287920813216429
2600000000.0 0.350961440936524 -0.6359285543671886
2620000000.0 -0.636529278630208 0.2887333914291064
2640000000.0 -0.24506616293563652 0.6175724936782695
2660000000.0 0.5005319275206908 -0.37371661560586866
2680000000.0 -0.5788354825985292 0.06417243424625176
2700000000.0 0.5068552637529954 0.1899172526491559
2720000000.0 -0.46119091285347685 -0.18751437528759848
2740000000.0 0.36348666211535835 0.27664736280452684
2760000000.0 -0.28902223543925454 -0.3050261603639711
2780000000.0 0.17193932083324248 0.353930252624987
2800000000.0 -0.2596062465659506 -0.27507580876335
2820000000.0 0.3397779302273966 -0.14429675328377523
2840000000.0 0.22749028906150118 0.28116945596706006
2860000000.0 -0.25125602907451666 0.2500664891018911
2880000000.0 0.046339504726122825 -0.3420290942250488
2900000000.0 -0.3230936475322095 0.1075899032750344
2920000000.0 0.058943251782191244 0.33729623990171903
2940000000.0 0.347196399727728 -0.02329726062051334
2960000000.0 0.11185070811729432 -0.3298434653147617
2980000000.0 0.15147476536811158 -0.3107280808949568
3000000000.0 0.34740420199004163 -0.017099552346822398
3020000000.0 0.17141263528626877 0.30233292267580353
3040000000.0 -0.3166835563545098 0.13759825111726226
3060000000.0 -0.17792426401082437 -0.29139007672076345
3080000000.0 0.33128529946631524 -0.03488237893575589
3100000000.0 -0.017283600031418024 0.32330463261360304
3120000000.0 -0.30965688604258246 -0.0031289194795780734
3140000000.0 -0.08329989225489738 -0.2827313231481142
3160000000.0 0.026853763862875246 0.27063379613454536
3180000000.0 -0.2460896150464941 0.03738179350582056
3200000000.0 -0.1352001812737501 -0.17731955957373882
3220000000.0 -0.08837227749680553 -0.17216706886880223
3240000000.0 -0.04263133616416871 -0.15541204630315827
3260000000.0 0.1274948819119518 -0.01582034874634823
3280000000.0 0.007518627154380516 0.10074703492132099
3300000000.0 -0.0036689362861787086 0.08170199677915259
3320000000.0 -0.023186481681887774 -0.06173471702409972
3340000000.0 -0.04663396141862331 -0.025189941961717238
3360000000.0 -0.04864575165580612 0.005727109283947017
3380000000.0 0.026632816648994286 0.04161832808785793
3400000000.0 0.038494607796239706 0.034445600396353616
3420000000.0 -0.021196605873914365 -0.05375194042576782
3440000000.0 0.02353859355696613 0.06540557164822187
3460000000.0 -0.08192265479369899 0.027143636515940192
3480000000.0 -0.061813439744849145 0.08035634399316724
3500000000.0 -0.09698094865011138 0.06313085861534465
3520000000.0 -0.03468307088696323 -0.1264379855229002
3540000000.0 -0.020798203598849326 -0.14940943025036377
3560000000.0 -0.15585912876948974 -0.06015365722571902
3580000000.0 0.10600600191998526 0.1454116883923429
3600000000.0 0.06332831460012361 -0.1740175956328182
3620000000.0 -0.04351035106863621 -0.1806777594090524
3640000000.0 0.09904333276283715 -0.1546676945880393
3660000000.0 0.15997598430275098 0.08567170670120931
3680000000.0 -0.1790066653876884 0.01149172104521992
3700000000.0 -0.09731173187408694 -0.149192275114544
3720000000.0 -0.028011895158610963 -0.17067868644604295
3740000000.0 0.03425001357947179 -0.15861438079434242
3760000000.0 -0.14625486816650904 -0.022706172530037202
3780000000.0 -0.12734787956431884 0.04988706342323051
3800000000.0 -0.10277811770338928 0.07628024257180553
3820000000.0 -0.10502216244462019 0.055821838979253274
3840000000.0 0.09987055157428097 -0.030904565728902846
3860000000.0 -0.02485603293175699 0.09920330411890832
3880000000.0 0.06876141591623197 0.08932771373807265
3900000000.0 0.08844737346014284 -0.09350706820020438
3920000000.0 0.00221793500959336 -0.13548549349940334
3940000000.0 -0.13096545615010882 0.020542942574302368
3960000000.0 0.007503811563124134 0.12490517508799567
3980000000.0 0.0923205535633751 0.06286587994615081
4000000000.0 0.03814667193437621 0.08560298818567187
