!Created with skrf (http://scikit-rf.org).
# Hz S RI R 50.0 
!freq ReS11 ImS11
400000000.0 -0.49490679412395466 -0.6722008468315223
420000000.0 -0.7749278747833213 0.3199438201341305
440000000.0 0.2646088780976523 0.732500978075618
460000000.0 -0.007547462724912688 0.7213798046710751
480000000.0 -0.19211351049781195 -0.6086533950863829
500000000.0 0.23009232192846363 0.5721577088817861
520000000.0 0.08864448008374289 0.5604901358557601
540000000.0 -0.31947719935400914 0.3881873574594184
560000000.0 0.03223440795364598 -0.46656149505999417
580000000.0 -0.3334278228534626 0.25397869097914877
600000000.0 0.07218074529787548 -0.37234129858351467
620000000.0 -0.1443938326273148 -0.3196227059638467
640000000.0 -0.3718195829251414 -0.10554162487633245
660000000.0 0.3177098612487977 0.27794409823900423
680000000.0 0.34291543872131186 -0.2846641159259629
700000000.0 0.3267468519753618 0.29414418168193524
720000000.0 -0.027182482985863864 -0.4316595109113518
740000000.0 -0.3978222180528047 0.0605005310804536
760000000.0 -0.3345556613878717 0.16379731166535288
780000000.0 -0.30785288835292807 0.10896182262034182
800000000.0 -0.02321116827284221 0.2841767506513175
820000000.0 -0.012727449659703408 0.22583712157765012
840000000.0 0.148213294948193 -0.09822626869643439
860000000.0 -0.14561710736182099 0.00786393945141964
880000000.0 0.0345790613279118 0.10746353697742428
900000000.0 -0.06787637761690798 0.048332240954567375
920000000.0 -0.01087525961390399 -0.058320867988634326
940000000.0 -0.04041177189386332 -0.032807239045490634
960000000.0 0.007292951270169201 -0.06389051704851105
980000000.0 -0.0398583156048013 0.06635643258199295
1000000000.0 -0.04426203150854515 0.07797233315998996
1020000000.0 -0.1054632494798467 -0.011672822951073662
1040000000.0 0.10413171240503843 0.07447140675627524
1060000000.0 -0.10654847357316385 -0.12362551363162853
1080000000.0 -0.07118884969997505 -0.17984728524969373
1100000000.0 0.21301161159193122 0.027331461966194914
1120000000.0 0.1433820858451334 0.18585288879878872
1140000000.0 0.028098546190166544 -0.26333956712785295
1160000000.0 -0.23411840584909704 0.18945059009005707
1180000000.0 -0.04901986268419765 0.32434753259858146
1200000000.0 -0.3308406600173149 -0.06991755014610865
1220000000.0 0.31104015115734956 0.18128399403122025
1240000000.0 -0.3448118767291561 -0.16064918452932503
1260000000.0 -0.009139166239413502 0.3835740268665012
1280000000.0 -0.010746020154755844 0.38729193731706224
1300000000.0 -0.29692364722841613 -0.2451066160627373
1320000000.0 -0.14552725064793348 -0.3766535675629417
1340000000.0 -0.3629802687727456 0.20045725927467328
1360000000.0 0.18311286390222323 0.3708980139921536
1380000000.0 0.33107531235902865 -0.22634100086226466
1400000000.0 -0.37584656918057546 -0.12191828675905643
1420000000.0 0.041128742715559684 0.3590978220179001
1440000000.0 0.07011809477761473 0.32441193774674393
1460000000.0 0.295281966140173 -0.04413654922921264
1480000000.0 0.22938296653901613 -0.14952035613053719
1500000000.0 0.08635630809393981 0.23251835580428612
1520000000.0 -0.20642732614079856 -0.05357796963461297
1540000000.0 -0.1590951079824323 -0.05819348647564615
1560000000.0 -0.11402840409601421 -0.05355008948010764
1580000000.0 -0.035546105879738644 -0.09920588962829667
1600000000.0 -0.07543238326687254 0.0030328117856140034
1620000000.0 0.04828665959794478 -0.011352882317624192
1640000000.0 -0.034082346664343774 0.017522367816232585
1660000000.0 -0.003966425720692 0.021396997042229568
1680000000.0 -0.006523738677672564 -0.00013698570621025982
1700000000.0 0.008034635431029218 0.02348295850000414
1720000000.0 -0.02505527687943401 0.03003941069476798
1740000000.0 0.017046569209163493 -0.05421820513309336
1760000000.0 -0.08000422060620777 -0.006642274061564431
1780000000.0 -0.014878496708065264 -0.11996589687026094
1800000000.0 -0.1306624071056363 0.06857343455690063
1820000000.0 -0.16136754330105035 -0.058288216552358975
1840000000.0 -0.207094390265661 -0.06310011376590273
1860000000.0 0.03281202765290987 -0.2507968329127757
1880000000.0 0.2623905751521009 -0.11902459455107878
1900000000.0 -0.0618553514524153 0.3111784547115605
1920000000.0 0.27760846386797794 -0.20320412003730257
1940000000.0 -0.3656970192230676 -0.06155528608956659
1960000000.0 0.3727320544033904 0.13344926453430075
1980000000.0 -0.3264728444796337 -0.2466723509714511
2000000000.0 -0.3968041940838773 0.10907720807837033
2020000000.0 -0.36734481028637966 0.1990057827170246
2040000000.0 -0.04416080304053129 0.4275178561605984
2060000000.0 0.3770803885883276 -0.20516519827474847
2080000000.0 0.07458136249872119 -0.41047909755324896
2100000000.0 -0.15054500744382665 -0.38054587694714
2120000000.0 -0.38510941372619606 -0.09183487239395463
2140000000.0 -0.35692017477056126 0.13101384219869713
2160000000.0 -0.13814286118233182 -0.3173839104948313
2180000000.0 0.11308965971078512 -0.3026697841391305
2200000000.0 0.27889213576829364 0.15474910765748048
2220000000.0 -0.2856810250031775 0.1481482739181321
2240000000.0 0.036745979914752994 0.33942118963618073
2260000000.0 0.1911961430624637 -0.2886794479707949
2280000000.0 -0.2678304226442266 -0.22718332434406077
2300000000.0 0.25795464920338884 0.22414397215681603
2320000000.0 0.28164345144276487 -0.23806611191680446
2340000000.0 -0.3686791036743386 0.16470832698069032
2360000000.0 0.2297805636489506 -0.3855120487431496
2380000000.0 -0.43573061095381105 0.26591016838560805
2400000000.0 -0.2324587901143263 0.4981255536556385
2420000000.0 -0.0680681338365555 -0.5927338250484743
2440000000.0 -0.42436452584668 0.5043635286370561
2460000000.0 -0.19445997209446403 -0.6651383191200453
2480000000.0 0.6505345190777356 0.28720183896479845
2500000000.0 -0.6739240180938519 -0.26510619991903017
2520000000.0 0.704842920834635 0.17595106882186407
2540000000.0 0.682339630221688 -0.1758697328426739
2560000000.0 0.6782450709371621 -0.2688767971229791
2580000000.0 -0.6856666787471801 -0.19185399347596005
2600000000.0 -0.5030000688142026 -0.44844175875777453
2620000000.0 0.42594956654507027 0.5148182707912737
2640000000.0 0.6331744098919783 0.0251943018150247
2660000000.0 -0.4755789633233458 -0.3555936152277337
2680000000.0 0.302881375997919 0.4688344421963309
2700000000.0 -0.26668007239424657 -0.4384622700399082
2720000000.0 0.1311346691871621 0.45211607042521706
2740000000.0 0.0010254209348840092 -0.43649865107406793
2760000000.0 0.3719453898392815 -0.1459250477755022
2780000000.0 -0.2343500243021976 0.28494259838240155
2800000000.0 0.1952722903651476 0.29513866477903256
2820000000.0 -0.19823916578800896 0.2846092014223853
2840000000.0 0.07349301724151819 -0.3379673743399678
2860000000.0 0.14314103458791558 0.3114376696096724
2880000000.0 -0.1953728731589419 -0.28038769460953633
2900000000.0 -0.23359149986070624 0.2507601719892363
2920000000.0 0.34869112624091025 -0.07290087187057473
2940000000.0 -0.34460443274430347 -0.09644784651815545
2960000000.0 -0.3168079429513088 0.15223695496356
2980000000.0 -0.34660766538450233 -0.05107680113373773
3000000000.0 -0.09544311571261231 -0.33730761403954496
3020000000.0 -0.007272585745863606 -0.3600284858819208
3040000000.0 0.36440979023820985 0.025135145323898878
3060000000.0 -0.3355037207764321 0.059825895906843944
3080000000.0 0.32005358188218896 0.08051157937177776
3100000000.0 -0.3285130748889711 0.017992469499726865
3120000000.0 -0.18124304233703897 -0.2695642124836366
3140000000.0 0.00875946361507562 -0.31372542363043326
3160000000.0 0.046847288768217844 0.27411364726833604
3180000000.0 -0.21528942935457313 -0.13482677222303874
3200000000.0 0.03849135361384156 -0.22826408344545332
3220000000.0 -0.08553370412597353 -0.17812458603327105
3240000000.0 0.15964374054410552 -0.011023878045643228
3260000000.0 0.05711261684447414 -0.12318880847005766
3280000000.0 0.1399500102850678 -0.05912481449189321
3300000000.0 -0.030145436734935645 0.14037788317172856
3320000000.0 -0.03338994857475976 -0.04582332972027648
3340000000.0 -0.025649513432585105 -0.026770883316657786
3360000000.0 0.016650874386202493 0.03060590302192371
3380000000.0 -0.0019396161366868115 0.04223618580085734
3400000000.0 0.033828073684904335 -0.04097814901459956
3420000000.0 -0.05707359724126341 -0.011688988559283332
3440000000.0 -0.014568588208200877 -0.05889845524599306
3460000000.0 -0.041281848970189834 -0.06790127137069107
3480000000.0 0.0952966415221015 -0.020474479099561058
3500000000.0 0.09674219438720376 -0.054685297767121485
3520000000.0 -0.10845860739085471 0.05869255124249496
3540000000.0 -0.06945128437937895 0.1262596285477167
3560000000.0 0.15794787728495346 -0.031535922507399915
3580000000.0 -0.13789737900842353 0.09889625801903729
3600000000.0 0.03814072636771116 0.167615111914427
3620000000.0 -0.1082152364698337 -0.13332023848198607
3640000000.0 0.08732720833857506 0.1584909677291219
3660000000.0 -0.16293524104193308 -0.0931906133433183
3680000000.0 -0.1660697274916093 -0.0632235154975341
3700000000.0 -0.15417636992235276 0.09370695424520663
3720000000.0 0.10400752848035476 0.13289305999595444
3740000000.0 -0.03767317695612663 -0.155955172024756
3760000000.0 0.011372537078281592 -0.15544420988958899
3780000000.0 -0.06331353225498186 0.1686391159671352
3800000000.0 0.15886003640257151 0.08971639171984702
3820000000.0 -0.10769962770926683 0.0728959535847076
3840000000.0 -0.12612062271752653 0.018647623283923578
3860000000.0 0.15189019764356007 0.0782205208475546
3880000000.0 0.035264980007804765 -0.17650086904713805
3900000000.0 0.07109700488710737 0.1708947943580964
3920000000.0 0.14783134316774277 -0.010185172197127307
3940000000.0 -0.15011573483933907 -0.09619466136853295
3960000000.0 -0.0071824909192770925 -0.20000588042776843
3980000000.0 -0.0856604166745034 -0.10803851764868082
4000000000.0 -0.08263132450407323 -0.08261036702604818
