!Created with skrf (http://scikit-rf.org).
# Hz S RI R 50.0 
!freq ReS11 ImS11
400000000.0 -0.8001515678800858 0.30649351572797084
420000000.0 0.09202823915124932 0.8345645802364968
440000000.0 0.6436765648506646 0.4548896857697662
460000000.0 0.4897881636188505 0.5251545735023975
480000000.0 -0.6540895286744818 -0.0407848396215003
500000000.0 -0.5951309022564558 -0.08398192330269387
520000000.0 0.4700871646886978 -0.2328278348346575
540000000.0 0.06805789564931194 -0.46058657475856046
560000000.0 0.4432293186505468 0.06888779863348067
580000000.0 -0.18289534812502975 -0.3477314195688137
600000000.0 0.04212911266994682 0.3471925761603032
620000000.0 0.22945918834426737 -0.2690381451759279
640000000.0 0.36747674990766205 -0.18733452208621698
660000000.0 0.05106562844283504 0.44304075400980264
680000000.0 -0.18534487562905338 -0.4266985849460045
700000000.0 -0.09547404124136487 -0.4412560181908344
720000000.0 -0.16389918849812157 0.3913240508300386
740000000.0 -0.19618979821230603 0.33671548835714193
760000000.0 -0.29841607932035774 -0.18314825086161426
780000000.0 0.2855630384878262 -0.16448602251849184
800000000.0 -0.2905576187809743 0.006662466425013196
820000000.0 -0.1696481395293242 -0.15946994394523237
840000000.0 -0.03719668480182248 0.1909481514229188
860000000.0 0.1256041319526565 -0.1151820116544612
880000000.0 0.12938586268324304 0.03494435878305263
900000000.0 -0.06949390181928253 0.0629989764745257
920000000.0 -0.033516382951253594 0.05036230544278012
940000000.0 0.006295407964453763 -0.03666179622134769
960000000.0 0.04941346750674159 -0.012237576264419976
980000000.0 0.009090115447209971 0.06867879128084316
1000000000.0 -0.06857245725144456 -0.0421181668838521
1020000000.0 0.04278858748593936 0.08649643783019799
1040000000.0 0.10774183882742538 -0.04413850360261771
1060000000.0 -0.05690446743960507 -0.1391077276104298
1080000000.0 0.10177071690783931 0.156295670794635
1100000000.0 -0.007777278104529734 -0.21595510299307752
1120000000.0 -0.2536095690099865 0.0032751300291736685
1140000000.0 -0.04683738271084916 0.2744198136091264
1160000000.0 0.29101648725711465 -0.03835178646542996
1180000000.0 0.05341933034231828 0.31156458857721375
1200000000.0 -0.06778910429819615 -0.3338833396482504
1220000000.0 0.1148368664729655 0.34725264128585503
1240000000.0 0.3416394950365436 -0.15270735644926595
1260000000.0 0.21794846218067576 -0.3383823439892341
1280000000.0 -0.29301247202267594 0.2986040552610711
1300000000.0 0.3906849344137793 0.15122367901830383
1320000000.0 0.40514122761389953 -0.07552741785117875
1340000000.0 0.37929668916981185 0.15546509838473677
1360000000.0 0.40110342315264447 0.06243247623183068
1380000000.0 0.3661871298519211 0.15173530250539932
1400000000.0 0.38896977741384514 0.0005912100277162951
1420000000.0 -0.20259526706558692 -0.31512152519279996
1440000000.0 -0.007223481493187564 0.347914306848077
1460000000.0 0.3041953216148836 0.07068746808334017
1480000000.0 0.1693863238060389 -0.2316716917053612
1500000000.0 0.10362066115048775 0.23503247051503826
1520000000.0 -0.12397996246843039 -0.1811216563362643
1540000000.0 0.16841167658125986 -0.022284775935600215
1560000000.0 -0.058046233616606914 0.11720882550168493
1580000000.0 -0.09628401746232972 -0.05046148865150462
1600000000.0 -0.017060592725053805 0.08571725873861102
1620000000.0 -0.03163977582881331 -0.05661602413355631
1640000000.0 -0.020411103679034034 -0.02691104852534534
1660000000.0 0.0003199245137563345 0.005755042145505143
1680000000.0 0.021768992199941637 -0.009128427321880704
1700000000.0 0.02470484973056109 -0.02789066222497635
1720000000.0 -0.007632576805409973 0.05234845430886834
1740000000.0 0.02646517332210684 0.06564889012364387
1760000000.0 -0.062499898725084824 0.06173394743642568
1780000000.0 0.03073408731089826 -0.10947059550415264
1800000000.0 0.03751441332109453 0.14731594938659523
1820000000.0 -0.05581331866090519 0.1787142539259326
1840000000.0 -0.013985023543794523 -0.22343136107298683
1860000000.0 0.21494754104918906 -0.1506291854743789
1880000000.0 0.2768798159105261 0.1127474940634994
1900000000.0 -0.20643524576449412 0.24819681751381867
1920000000.0 0.34288460291586315 0.06806535410756283
1940000000.0 -0.2767675977525982 -0.25262827321774406
1960000000.0 0.08601141732558443 0.38605776793313057
1980000000.0 0.34706160015223286 -0.21720250743587582
2000000000.0 -0.2900817303992498 -0.3067064173341894
2020000000.0 -0.3579117611329068 0.23444937490538603
2040000000.0 0.2875266810290473 0.3167303006369589
2060000000.0 0.4152688516586483 -0.07057881153389653
2080000000.0 0.27739981803217123 -0.3058379398736285
2100000000.0 -0.09451593043230624 -0.39271707979200965
2120000000.0 -0.3766656968906492 -0.09608141268934808
2140000000.0 -0.3696270402952993 0.00259051081903424
2160000000.0 -0.0019673498372198626 -0.35304537185297585
2180000000.0 0.10019612114533373 -0.3217524651624447
2200000000.0 0.19335429424715594 -0.2649851492158297
2220000000.0 0.1390896206697433 -0.2944884544987057
2240000000.0 -0.30982936407380546 -0.11288072677284829
2260000000.0 -0.08979973971316296 0.31842352941096075
2280000000.0 0.29338400189759367 0.17306308131327103
2300000000.0 0.06704315527879479 -0.35797970052046535
2320000000.0 -0.21085832354273404 0.3367125372805224
2340000000.0 -0.065155400433358 -0.43596888825623237
2360000000.0 0.4778998511351113 -0.10596376790769917
2380000000.0 0.25331218630893954 0.47433425145957187
2400000000.0 -0.3413699329779637 0.4759804259707262
2420000000.0 -0.6195414741973255 -0.12836841821223707
2440000000.0 0.09998551315684535 -0.66561728240566
2460000000.0 0.6286607923452806 0.3133342043991776
2480000000.0 -0.6707025587016654 0.26539393063284544
2500000000.0 0.5073992160257431 -0.5344907868461883
2520000000.0 -0.5987702106094878 0.4375468413886624
2540000000.0 0.7038771985310012 -0.22136491635228472
2560000000.0 -0.7155719606572425 -0.13652042966012332
2580000000.0 0.4382226547354724 0.5584681550256049
2600000000.0 0.11289912946318725 -0.6770290505052884
2620000000.0 -0.26012561911454324 -0.6028905602747334
2640000000.0 -0.11815383275662918 0.6114978223214754
2660000000.0 0.4773362556778511 -0.3403508832367696
2680000000.0 -0.5389053459215862 0.10095871968972205
2700000000.0 0.509249811764185 0.011284226548264324
2720000000.0 -0.4180635486568703 -0.21395089824909427
2740000000.0 0.12417290661964113 0.41949703703563646
2760000000.0 -0.22146482651178317 -0.34967992242859885
2780000000.0 0.15571606169922406 0.3625740872139834
2800000000.0 0.14674729189785254 -0.3530779268589329
2820000000.0 -0.19348483228076077 0.32067864990058886
2840000000.0 0.325512043229078 -0.1800129009691922
2860000000.0 -0.33977125534558267 0.15980892920221054
2880000000.0 0.35238212296369414 0.12068579703793528
2900000000.0 0.3123649902664639 -0.20556748458432947
2920000000.0 -0.17978830764951734 -0.33421523638440503
2940000000.0 -0.3710654642245672 -0.06390670875979487
2960000000.0 -0.06499446632968613 -0.3701930655688629
2980000000.0 0.3506139288868759 -0.13374281517941206
3000000000.0 0.350007628438418 0.14723683608360066
3020000000.0 -0.19346250071785437 0.3272426354361344
3040000000.0 -0.29459032442403915 -0.2316799782907001
3060000000.0 0.20063360334682892 0.3047660546029826
3080000000.0 -0.1093967195539714 -0.337136827065645
3100000000.0 0.17257622702743203 0.29889173008724856
3120000000.0 -0.19373677084051416 -0.2651001517785567
3140000000.0 0.1675709675348353 0.2663471725795829
3160000000.0 -0.22708766688637694 0.1947543429295534
3180000000.0 -0.14573050695218456 0.227120635452561
3200000000.0 0.20580892470364276 0.11666218495753698
3220000000.0 0.12930771159063636 -0.15769591772989838
3240000000.0 0.13621650601508323 0.10949995676760675
3260000000.0 -0.021335896271012563 0.15917381243562173
3280000000.0 0.05500850254440787 0.12051549091424708
3300000000.0 0.11133532495145326 0.0311937622460255
3320000000.0 0.10118959323046633 -0.030986319476783115
3340000000.0 -0.08946543013419131 0.032863984418128725
3360000000.0 0.06501791519077005 0.07107589152374019
3380000000.0 0.07012061721854866 -0.060809328213688514
3400000000.0 0.04510854385879789 -0.06259050669217416
3420000000.0 0.05858546648343947 -0.012866474058002652
3440000000.0 0.01637524718868818 -0.07532468952422737
3460000000.0 -0.03200465753619205 0.04648326246585945
3480000000.0 -0.02575876590175285 -0.052367825162167175
3500000000.0 -0.06384807338952839 0.02008139457887275
3520000000.0 -0.07849944304531377 -0.014594990305523022
3540000000.0 0.017904076676404944 -0.08882984385096196
3560000000.0 0.10001181672451344 -0.018824777858742675
3580000000.0 0.07046817115892437 0.08996398251297266
3600000000.0 -0.006229177327895078 0.13880650374161743
3620000000.0 -0.0165662810313162 -0.15396098967594712
3640000000.0 -0.029591739898364597 -0.15081347587921412
3660000000.0 0.14613285248628885 0.10929235128999484
3680000000.0 -0.008226670924136507 -0.2324479957470677
3700000000.0 0.22192727262975329 0.0747424392353453
3720000000.0 0.14757803388654586 -0.2031686665269752
3740000000.0 -0.21136830334741005 -0.15577260836519558
3760000000.0 0.27805945562947937 -0.05854885338687616
3780000000.0 -0.22716809790720985 0.18719791873844388
3800000000.0 -0.09804932665995932 0.290181716712397
3820000000.0 -0.054201635174814536 0.30560021833132395
3840000000.0 0.2958662195839255 -0.07236163766655714
3860000000.0 0.1199014316138236 0.28217496029548367
3880000000.0 0.12707353423623863 0.2743026880834106
3900000000.0 0.2738769381694364 -0.0997037262430017
3920000000.0 0.08780834385427022 0.26077099989822244
3940000000.0 0.26937125755957686 -0.014608918115387242
3960000000.0 -0.22207571079958507 0.15587703639668335
3980000000.0 -0.23979591874052494 0.0782139426610198
4000000000.0 -0.2147398379288397 -0.03991847314768717
