!Created with skrf (http://scikit-rf.org).
# Hz S RI R 50.0 
!freq ReS11 ImS11
400000000.0 -0.6913001961885585 -0.48947137087969894
420000000.0 -0.536072098819232 0.6516826692398286
440000000.0 0.20062470873561072 0.7642529707741391
460000000.0 -0.05675806658522995 0.7199538574850891
480000000.0 -0.4259437424951951 -0.49629322269020737
500000000.0 -0.17682386488282725 -0.5984738749304462
520000000.0 0.5170848316776169 -0.1571424345495708
540000000.0 -0.07801296783906932 -0.47607366069921814
560000000.0 -0.3142666898793017 -0.32206627196490195
580000000.0 -0.27542158614918655 -0.29455874967670764
600000000.0 0.3401644795693647 -0.11277099849437809
620000000.0 -0.2935384216747753 0.19514101553242225
640000000.0 0.18067415170147938 -0.37178461747650177
660000000.0 0.4456154900950838 -0.05176687175773476
680000000.0 -0.23144247118504038 -0.38735388734247383
700000000.0 0.4503054906657281 0.06604628744559345
720000000.0 -0.30394648674881486 0.3193500102373551
740000000.0 0.23745744887855 0.3118175155926004
760000000.0 -0.1998607452110687 -0.29015709978715826
780000000.0 0.30793930932542213 -0.116764558335288
800000000.0 0.17658507537249216 -0.23182209397912468
820000000.0 -0.11726841044890922 -0.21377290539722837
840000000.0 0.1945522837811707 -0.024770550817020773
860000000.0 -0.14670614062283838 -0.057509642344876453
880000000.0 0.04660377692690911 -0.10862188128437303
900000000.0 -0.088873862440626 -0.01931118651280591
920000000.0 0.03476790879129633 0.04062614970856426
940000000.0 0.03558834422529397 -0.006911632935384366
960000000.0 0.048600206440772585 -0.007092451244868281
980000000.0 0.06176921409577659 -0.014241202340667062
1000000000.0 0.036726352552127604 0.06857805783316527
1020000000.0 0.07764544438355403 0.05829007347408006
1040000000.0 -0.07621143097487165 0.08204445234237552
1060000000.0 -0.14896854759978545 0.038432403418954396
1080000000.0 -0.17787632623271848 -0.09116403638687431
1100000000.0 -0.19284925257220614 -0.12734532851627903
1120000000.0 0.24730314912204765 0.07713397000327528
1140000000.0 0.07224374861980866 0.2635111792465844
1160000000.0 0.2267429722314375 0.19101604937556793
1180000000.0 -0.18078634213052536 0.26615873601860934
1200000000.0 0.0002427680825974212 -0.35271965592472926
1220000000.0 0.31346197007013143 0.20256814508229282
1240000000.0 -0.17250549250855596 -0.34552444135258553
1260000000.0 -0.3853110607847022 0.07135250685123842
1280000000.0 -0.32670773799399366 0.2298186296822774
1300000000.0 -0.31324403767660747 -0.25978487899443536
1320000000.0 -0.33329657271267055 0.26411736631818467
1340000000.0 0.3021906295109847 0.3025054967837561
1360000000.0 0.30433158353058204 -0.2795507273640291
1380000000.0 0.37221917996665066 -0.12990139918695418
1400000000.0 0.32292606372384075 -0.20388651270257793
1420000000.0 0.1252930796122866 -0.34262609850964915
1440000000.0 -0.3089533151068984 -0.16355615310485047
1460000000.0 0.2691113650915069 0.17324922130832976
1480000000.0 -0.26670681377969024 -0.11654558231031022
1500000000.0 0.09195877544653348 -0.2308158749730664
1520000000.0 -0.09485208800788791 -0.18240817447499952
1540000000.0 0.07480103509419532 0.1484730802836094
1560000000.0 0.05873880875675135 0.11457947062017658
1580000000.0 0.01158520911177785 0.10510266889733519
1600000000.0 0.05368369763408874 0.05600683800678424
1620000000.0 0.05881533846478458 -0.026784724174109015
1640000000.0 0.04088180384972802 0.012905142407049243
1660000000.0 0.010372695147103443 -0.007828695708108329
1680000000.0 0.011462727177342803 0.013953864845941123
1700000000.0 -0.030009788777784926 0.0293508255643699
1720000000.0 -0.023391175279018538 -0.044446215160375724
1740000000.0 -0.05936099251981398 0.009761161546732561
1760000000.0 0.0025611701114509554 0.07958986915665314
1780000000.0 -0.03903077487370587 -0.10662986440866483
1800000000.0 -0.11551388839650688 0.11056410367583587
1820000000.0 0.19038572047078076 0.022059903319329954
1840000000.0 -0.13584551244241508 0.1693346127250673
1860000000.0 0.1183507849109124 -0.22426316090326714
1880000000.0 0.16725100841062687 0.2377263257167915
1900000000.0 -0.3161569460545444 -0.048978200061088106
1920000000.0 0.3154763026276244 0.15157068262134393
1940000000.0 -0.27912250944852035 -0.25335702234918767
1960000000.0 0.3437786031928193 0.1939508799364816
1980000000.0 0.19482925207400692 -0.35124629778654826
2000000000.0 -0.1934804425312392 -0.3652013410127482
2020000000.0 -0.41645513968287823 -0.04888367016025741
2040000000.0 -0.39321962560698165 0.16471599794953298
2060000000.0 0.36451838585562607 0.22690139297787354
2080000000.0 0.2041808895664231 -0.3662106054481052
2100000000.0 -0.3773111445616674 -0.1511762515009952
2120000000.0 -0.3462897625162259 0.16099255874095741
2140000000.0 -0.3638364573244938 0.026238809293028676
2160000000.0 0.060335363333507884 -0.3427044449306756
2180000000.0 0.1589990601603674 -0.2938889065771216
2200000000.0 0.15762690199452098 -0.2819778515275915
2220000000.0 0.31823101139983784 -0.009676387733202486
2240000000.0 0.32435157076898574 0.02999263995637016
2260000000.0 0.07467905064437404 -0.3286650256078922
2280000000.0 -0.35005002763463205 0.0368878531863313
2300000000.0 0.3644002703128222 0.08188705848166211
2320000000.0 -0.36475066661368316 -0.1712110320261591
2340000000.0 0.43030551763443764 -0.11450257555012248
2360000000.0 -0.008053194084999707 0.49089768131006817
2380000000.0 -0.5431017311135756 0.015016519841952156
2400000000.0 -0.05088440147089594 -0.5906603578857957
2420000000.0 0.6280779272615878 -0.12573765865840006
2440000000.0 0.17781678261391679 0.6564870475280888
2460000000.0 -0.7055358660133535 0.08827734577665135
2480000000.0 0.3393704648836555 -0.6512756701211326
2500000000.0 -0.017949494933721676 0.7467889565995692
2520000000.0 -0.14807213994947338 -0.7366657073670347
2540000000.0 0.2755513454704207 0.695144890140517
2560000000.0 0.1539134927875377 -0.7233021658352254
2580000000.0 -0.6455861182095937 0.3219742509873638
2600000000.0 0.6848688229014236 0.1217883763093654
2620000000.0 0.6498472792591611 -0.15030985974548244
2640000000.0 -0.5983003925368842 -0.20760025598544607
2660000000.0 0.26678925857526015 0.532076147033425
2680000000.0 -0.010941763770910136 -0.5564257646532481
2700000000.0 -0.012674179400039903 0.5162956466299093
2720000000.0 -0.058764434693768776 -0.4743404426702941
2740000000.0 0.028386176356234392 0.4405701679133697
2760000000.0 0.240714655880264 -0.3342535988088787
2780000000.0 -0.37036908652368267 0.12700566157973311
2800000000.0 0.3775637193598749 0.05277118036449958
2820000000.0 -0.3714652234609939 -0.013747910647617975
2840000000.0 0.32474212612243886 0.1680225095635048
2860000000.0 -0.15813249758258455 -0.3313461035357911
2880000000.0 -0.09900501091248423 0.3553639286910196
2900000000.0 0.34851451637751474 0.1275954326017689
2920000000.0 0.20182555441872255 -0.31662878597988103
2940000000.0 -0.16284425354037357 -0.3407473933241724
2960000000.0 -0.21688979816147472 -0.30396914625817706
2980000000.0 0.04417778932165326 -0.36967146946806434
3000000000.0 0.370412384316009 -0.027921689742924236
3020000000.0 0.0347330378555324 0.36700757398392786
3040000000.0 -0.32817491221416817 -0.14336186175535623
3060000000.0 0.3317405694713296 0.10989979140420275
3080000000.0 -0.302964510450655 -0.1555692111321585
3100000000.0 0.22635212111694034 0.24244172114081744
3120000000.0 -0.2833691483231738 -0.1518126361953117
3140000000.0 0.302214689225187 -0.038400286266872745
3160000000.0 -0.20215963274268806 0.19893735135352908
3180000000.0 0.23518479038619214 0.10766015233718716
3200000000.0 -0.19083643968492928 -0.12383733806703322
3220000000.0 0.08881134582066569 0.17285417774929354
3240000000.0 0.06537590514040924 0.14227256374412212
3260000000.0 0.1281564875263643 0.0021748499974127123
3280000000.0 0.08753710588686762 -0.05959142332381006
3300000000.0 -0.003484939451112746 0.09044970238881396
3320000000.0 -0.0021181929579010468 -0.0784017766466596
3340000000.0 -0.008240235276240262 0.0730136321885107
3360000000.0 0.06275486989192441 0.031689001670364716
3380000000.0 -0.05842716837538225 -0.030595067008259366
3400000000.0 0.05711770038027864 -0.018912640821057373
3420000000.0 -0.034681632274333754 -0.03876042632008209
3440000000.0 -0.03848846496967675 0.02400202946665302
3460000000.0 0.016742131403222563 -0.029009542963476256
3480000000.0 0.02106090906024247 -0.010682237474479848
3500000000.0 -0.009522401842530465 0.010802695291851919
3520000000.0 -0.005047076101839492 0.004609324095936358
3540000000.0 0.012823843743505507 0.0031649120378886616
3560000000.0 -0.016430989388188894 -0.0213311007193588
3580000000.0 0.03361829639623713 -0.028039656566232907
3600000000.0 0.007327047463263689 0.05744647085255049
3620000000.0 0.05829546403944894 -0.05273813940148627
3640000000.0 0.04913454860712334 -0.08210737152886856
3660000000.0 0.022564415802185923 -0.11269704871033748
3680000000.0 -0.11956718307809351 0.054253488378822136
3720000000.0 -0.12774888018057493 0.13674315917509555
3740000000.0 0.10021200187628579 0.19506530008878203
3700000000.0 -0.14347274512577163 0.031390165011474014
3760000000.0 -0.008195944961799468 0.24755042186481477
3820000000.0 -0.1843616596126089 0.2531582961972499
3780000000.0 0.1213481435147086 0.2447310025554557
3840000000.0 0.24803526312870763 -0.1989845962568989
3800000000.0 0.20923315478251936 -0.20688316066430656
3860000000.0 -0.018914623159354847 -0.32821135964883036
3880000000.0 -0.2839762449185832 0.17215627420909832
3900000000.0 0.10114109020312415 0.3186607752636869
3920000000.0 0.2683925594174166 -0.19262411429265594
3960000000.0 -0.025227492477326755 0.31446944023751233
3980000000.0 0.27304216487764704 0.12779355311070695
3940000000.0 -0.226240492297877 -0.23299601155646912
4000000000.0 -0.2678130982111325 0.08238994479588777
