!Created with skrf (http://scikit-rf.org).
# Hz S RI R 50.0 
!freq ReS11 ImS11
400000000.0 -0.6005213232874785 -0.58790072399767
420000000.0 -0.6148195573881039 0.5788196885542165
440000000.0 0.011420178259929841 0.7802548880100172
460000000.0 -0.34589596498729736 0.629633049731812
480000000.0 0.2500440441163976 -0.6053568589051768
500000000.0 0.5842105378961812 -0.23706133833297932
520000000.0 0.5231098738341242 0.21027976544558213
540000000.0 -0.4838295748026953 -0.096163026087889
560000000.0 -0.45448485882541806 0.07807850858343575
580000000.0 -0.3923599765429038 0.12476426066440945
600000000.0 -0.03767820875502962 -0.3624413201298816
620000000.0 0.3457951547471454 0.08962683987810575
640000000.0 -0.3753460733325298 -0.13846943315678098
660000000.0 0.4223227086994809 0.12244081184199203
680000000.0 -0.1748107107496292 -0.41713029825368547
700000000.0 0.4321593439155882 -0.1139546013445557
720000000.0 -0.4324028092640636 0.001232974305737595
740000000.0 -0.17446885130223955 0.34818302700263387
760000000.0 0.26776387880733554 -0.2382084555433068
780000000.0 0.1517659501892573 -0.2969583759890546
800000000.0 -0.1305320896186615 -0.26096583407238527
820000000.0 -0.034985710401379655 0.23929586049066676
840000000.0 0.14720840535051646 0.09210506661141002
860000000.0 0.0744944431873553 0.1376118248216023
880000000.0 0.08377623678678797 -0.0998747153834601
900000000.0 -0.014537502560063104 0.10825881031663655
920000000.0 -0.07399525650096488 0.044268433904616274
940000000.0 -0.015664204158198452 -0.059304897103208104
960000000.0 0.05664523855548737 0.03706638636300549
980000000.0 0.07166594018440092 0.02551768438838535
1000000000.0 0.06413029482667149 -0.03658634506679565
1020000000.0 0.035869288179286814 0.09249367143768827
1040000000.0 0.08848973220900092 0.07401314373133142
1060000000.0 -0.07115318231893458 -0.12882336349605722
1080000000.0 -0.03656059027858407 0.18194717046556189
1100000000.0 0.16437383314612483 -0.13887708507177476
1120000000.0 0.12373921478804407 -0.22598025425938076
1140000000.0 -0.17615739513212703 -0.2276273512517
1160000000.0 0.215050829244692 0.2315558266906007
1180000000.0 -0.030625533125039232 -0.334663147227207
1200000000.0 0.21897142350339685 0.2453361185042825
1220000000.0 -0.024071428684155065 0.34610852239144163
1240000000.0 0.002641848964328965 0.37070645982562156
1260000000.0 0.3440303619314861 0.1957686467003597
1280000000.0 -0.09955742733165349 -0.41123557294319835
1300000000.0 0.020622706431685598 0.42302073473367297
1320000000.0 0.4143457305831552 0.08198587655131515
1340000000.0 0.38367916541942976 0.1574957593677348
1360000000.0 0.4015743979300081 -0.0858470280040581
1380000000.0 0.3943375336132891 -0.02069460265395499
1400000000.0 0.362477643155469 -0.13160196905831173
1420000000.0 0.09761154151666876 -0.3579249223623062
1440000000.0 -0.2959897173216974 0.19441070148446662
1460000000.0 0.10791979266726247 -0.3034246422968043
1480000000.0 -0.07823116328452566 0.2699332841847758
1500000000.0 0.18220007642178274 0.14814687664091042
1520000000.0 -0.10741986744080272 0.17778290995163606
1540000000.0 0.09263849580343841 -0.14560120805945023
1560000000.0 0.01668027462622849 -0.14230060210740658
1580000000.0 0.10405057415049337 -0.06402866848706902
1600000000.0 -0.05291948916322675 -0.0713689226643919
1620000000.0 -0.032410116909608655 0.04651155369900294
1640000000.0 -0.025720766557407824 -0.00019105177108458762
1660000000.0 0.0015713009464371958 -0.006475360777004156
1680000000.0 0.007988834534646652 -0.01676596873712633
1700000000.0 0.03757830965603723 0.0027283270948148535
1720000000.0 -0.0004758057651955491 0.04696507329946567
1740000000.0 0.04489393454590577 0.040475274442250124
1760000000.0 -0.08004575953949752 0.010931386801661603
1780000000.0 -0.1075591990137055 -0.02612084485444729
1800000000.0 -0.14442286006040278 0.047713517723513905
1820000000.0 -0.10053658219476189 0.1551481488623868
1840000000.0 -0.11789138312910741 -0.1867364801532394
1860000000.0 -0.0665891101662848 -0.249680491906576
1880000000.0 0.27500763388446103 -0.09394749991424078
1900000000.0 -0.05632665054793186 0.3102958124473818
1920000000.0 0.33840871391195276 0.007415081319052998
1940000000.0 0.022694861262671503 -0.36992674883204474
1960000000.0 -0.14211363576010316 0.3714303233032354
1980000000.0 0.30196514704972194 -0.28411409371539426
2000000000.0 -0.42137425247647237 -0.031536111342356433
2020000000.0 -0.26383890235601215 0.32870872944145707
2040000000.0 -0.14369525786381518 0.39872580607307645
2060000000.0 0.31944928113584775 0.27631782903456786
2080000000.0 0.4176482963001014 0.007026986699027714
2100000000.0 -0.006202656988565004 -0.41058404463237363
2120000000.0 -0.38981851255402583 0.021730046769859224
2140000000.0 -0.3669735742398058 0.04224287428731663
2160000000.0 0.016253028040366047 -0.3487630290901804
2180000000.0 0.1944130531593473 -0.2694192408846069
2200000000.0 0.3075417766926977 -0.0938628113750672
2220000000.0 0.256573148258983 0.18971471615947658
2240000000.0 0.31447295811096 -0.09764848271903118
2260000000.0 -0.21420829540151215 -0.2570088482628615
2280000000.0 -0.31128812183594073 0.15537939295214914
2300000000.0 0.36730741356949004 0.03955834728254888
2320000000.0 -0.3482610070220392 -0.19909755268659476
2340000000.0 0.43312561129222593 -0.09126492771558867
2360000000.0 -0.1365601448837183 0.4714289202059827
2380000000.0 -0.5453448691304328 -0.020403618164938943
2400000000.0 -0.27200869415317924 -0.5313985945726084
2420000000.0 0.46785934081351926 -0.4416928612430497
2440000000.0 0.5371445750873037 0.4225543411365834
2460000000.0 -0.57191828135626 0.428073522426635
2480000000.0 -0.0024479721816550513 -0.7368671071345282
2500000000.0 0.2447551072629447 0.7079020190812859
2520000000.0 -0.200440880809368 -0.7259058813787631
2540000000.0 -0.031122066843115796 0.7485113476702169
2560000000.0 0.4046445491397108 -0.6199407483766484
2580000000.0 -0.6855362719091288 0.22438702234853997
2600000000.0 0.6796965871930722 0.1408814089153128
2620000000.0 0.5923941779842401 -0.29591442939846835
2640000000.0 -0.6130567372305586 -0.125897063222592
2660000000.0 0.3806604144153509 0.44959753793434654
2680000000.0 -0.15600660525966212 -0.5291165321574088
2700000000.0 0.031219261061819256 0.5129072520333251
2720000000.0 -0.025186024407208542 -0.4753028772567791
2740000000.0 -0.039364032407852315 0.44064206262433386
2760000000.0 0.031677733743061674 -0.41155469686208007
2780000000.0 -0.19221085654222825 0.3385855014605071
2800000000.0 0.32384522026055496 -0.19106272015768366
2820000000.0 -0.3596239063494548 0.08272600052586336
2840000000.0 0.35719408433879746 0.08236483049986451
2860000000.0 -0.27509593794730103 -0.24500257432350625
2880000000.0 0.10295213993139611 0.3547601778620769
2900000000.0 0.3689073384609929 -0.0004280306786133058
2920000000.0 0.2641366733205349 -0.2610251102973974
2940000000.0 0.13586995131401375 -0.350105915661259
2960000000.0 0.1161497693089931 -0.3570182288833511
2980000000.0 0.319009015483313 -0.19776501253913803
3000000000.0 0.33615599944042857 0.16867590391631274
3020000000.0 0.08729381339044832 0.3593404434791198
3040000000.0 -0.3429212633497003 -0.08835456000672853
3060000000.0 0.043558976407799294 0.33843953858506803
3080000000.0 0.2970502181365544 -0.1642917495365248
3100000000.0 -0.1900909764630248 0.2753392102721173
3120000000.0 -0.07987680138228484 -0.3139547686577984
3140000000.0 0.3040949513201791 -0.04272165269607495
3160000000.0 -0.21077687317668353 -0.18475406060348556
3180000000.0 0.18391781103078703 0.17160186171362693
3200000000.0 0.09026563948919168 -0.19985840024043047
3220000000.0 -0.08833349372219593 -0.17129990880068366
3240000000.0 -0.16406496462133885 0.018291228311521683
3260000000.0 -0.13183544510484121 0.023681135918825893
3280000000.0 -0.04015004568440308 0.09512669893299719
3300000000.0 0.06424823486446851 0.05523985062135435
3320000000.0 0.05937675908323047 0.0505029179278241
3340000000.0 0.07683559081650532 0.010674634621667518
3360000000.0 0.06459794716089348 0.02577641875883331
3380000000.0 -0.011670372389585643 -0.05780433748944323
3400000000.0 0.04109973467217552 -0.029107712053804257
3420000000.0 0.02560752987654795 0.03963184817958551
3440000000.0 0.029738393279422043 -0.03282644676013215
3460000000.0 -0.00022148155179865347 -0.035799374246946764
3480000000.0 0.02228350921677787 -0.0051515689082343484
3500000000.0 0.010486665839692957 -0.008292334869011516
3520000000.0 -0.01292995061842522 0.0013076039905917944
3540000000.0 0.012829439653762027 -0.015829508380559555
3560000000.0 0.025503829537783507 0.019288741912965774
3580000000.0 -0.008586190719159961 -0.045815691991153706
3600000000.0 -0.007679505757348032 0.06315464459873298
3620000000.0 0.07543525862226652 -0.03273949446188925
3640000000.0 0.02668169391384899 -0.09795538730295818
3660000000.0 0.03279460872776802 -0.11718222216905978
3680000000.0 0.05898079289345681 -0.13307402182055036
3700000000.0 -0.09239847420327789 -0.1396927269258469
3720000000.0 -0.04779871570523985 0.18268859989177716
3740000000.0 -0.0720787712037962 0.2000422940932186
3760000000.0 -0.15608453490634702 0.18319289827793186
3780000000.0 0.2615176323688242 0.0072417043255148545
3800000000.0 -0.14085255898935142 -0.2380496148660289
3820000000.0 -0.14677346958217652 0.25230375606929883
3840000000.0 0.2300177360932385 0.19568994055625671
3860000000.0 0.28290461809118334 -0.12149786026240895
3880000000.0 -0.06393561101977932 -0.30539345092229664
3900000000.0 -0.2768585358062209 0.17109878086851005
3920000000.0 0.32365781574659835 -0.06485928574617483
3940000000.0 -0.2765738042859179 -0.1660974108848971
3960000000.0 -0.23056034073909704 0.19848705158992896
3980000000.0 -0.2807970520575585 0.05503297261437614
4000000000.0 0.26274851301658986 0.06649291918140293
