!Created with skrf (http://scikit-rf.org).
# Hz S RI R 50.0 
!freq ReS11 ImS11
400000000.0 -0.8435820597253475 0.17229481579612496
420000000.0 0.23330493934043925 0.8099390861613627
440000000.0 0.46869333261354973 0.6357971175747292
460000000.0 0.19601186796783368 0.7005876231059581
480000000.0 -0.5674285843372995 0.3439730451621305
500000000.0 -0.5661674255342353 0.22997343463681671
520000000.0 -0.09648501842049513 -0.5175309877309267
540000000.0 -0.4600557269018544 0.008199812763564959
560000000.0 0.39807388829429297 0.17087049835304138
580000000.0 0.39257775865465844 0.0004256121806417165
600000000.0 -0.3483536255150812 -0.08493155684219669
620000000.0 -0.3142126701294489 -0.18693093111113065
640000000.0 0.040614928134977295 -0.40672683720805725
660000000.0 0.338458521307295 0.2917322599990116
680000000.0 -0.32097566662761234 -0.3281497205842805
700000000.0 0.18962058676628685 -0.40816916634463013
720000000.0 -0.17378527402214206 0.39153311033940097
740000000.0 -0.2667131192245489 0.28554616585684
760000000.0 0.03009813853161442 -0.3582427442850251
780000000.0 0.3049453803972294 -0.15316755582700314
800000000.0 -0.30336277349262114 0.07147936176203132
820000000.0 0.02720444776490067 -0.25441251943155097
840000000.0 -0.16638041293652578 -0.10386372999718245
860000000.0 0.1446509320732453 0.0018917133887666239
880000000.0 -0.0312107033983841 -0.09101065286666916
900000000.0 -0.06966379873821094 0.0034714302567962338
920000000.0 0.040144323258895484 0.013005071908379573
940000000.0 0.016131034337133313 -0.030581315222349578
960000000.0 -0.0018613178240735166 -0.04495687216501919
980000000.0 0.0510543899175335 -0.041225308319070966
1000000000.0 -0.08331038875147702 0.012100158007923908
1020000000.0 0.10597460288763237 0.014117057643982368
1040000000.0 -0.13314696809594842 -0.025423983213796505
1060000000.0 0.02212820566679953 -0.15347679361006283
1080000000.0 -0.06464256851846889 -0.17742320924934288
1100000000.0 0.20736150161763317 0.07725154546995051
1120000000.0 0.05113419425430508 -0.23833471837633527
1140000000.0 0.23404233689379705 0.12220907779922349
1160000000.0 0.28493787496544715 -0.00863691703460914
1180000000.0 -0.021632204059994893 0.31214732801286554
1200000000.0 -0.06676778719465029 -0.3255934818529778
1220000000.0 -0.35940173794486197 -0.0520217460086504
1240000000.0 0.37955950535309474 -0.09133060896318976
1260000000.0 -0.4016405527996588 0.015734806506349078
1280000000.0 0.10578608118545187 0.3931714500527959
1300000000.0 0.35481673678901354 0.19369239973773042
1320000000.0 -0.06859160231772106 0.39358982672743065
1340000000.0 -0.4101176529180471 0.0151001950809318
1360000000.0 -0.32235873297359685 0.26343416056910507
1380000000.0 0.0035808853168091677 0.414977444279222
1400000000.0 0.26898619822312075 -0.30361863645626697
1420000000.0 -0.3839293097065086 0.037896341943129366
1440000000.0 0.35578218040923426 -0.011853225177034812
1460000000.0 -0.2771980828618335 -0.14826336771182555
1480000000.0 -0.2731265092810099 0.03916686751398254
1500000000.0 -0.013154022772324128 0.241744011029695
1520000000.0 0.15247884630887673 0.15004068037792798
1540000000.0 -0.175294780143896 0.012751794289821055
1560000000.0 0.048694747732247794 0.1314583373380696
1580000000.0 0.09928129932690122 -0.0483777340880141
1600000000.0 -0.06269011238174774 -0.05556446987278923
1620000000.0 -0.050012330596206904 -0.030452111460281373
1640000000.0 0.01862812835314947 -0.02102867240137541
1660000000.0 0.0022106596172652656 -0.013733278705339084
1680000000.0 -0.01519804519079918 -0.011731334876246325
1700000000.0 -0.02280291914192052 0.020101424325604935
1720000000.0 0.03753525355377239 0.02923882141003986
1740000000.0 0.03458466377405608 0.06819630268754792
1760000000.0 0.035515171844439856 0.10002465151316685
1780000000.0 0.11839614347072398 0.06401437666632163
1800000000.0 0.05528810828712758 -0.1482868284407625
1820000000.0 -0.17026780320161605 0.04629658610260628
1840000000.0 -0.14877833433667007 0.1432618925603709
1860000000.0 0.20540581546572495 -0.13224821450306407
1880000000.0 -0.19504696533669275 0.20587874234088938
1900000000.0 0.14395444707652827 -0.28221603029953507
1920000000.0 -0.2158906208446902 0.2756906823026059
1940000000.0 0.2768681292124277 -0.26211548734970125
1960000000.0 -0.26584297263857964 0.30792831034415186
1980000000.0 0.17988905123692708 -0.3824310128362567
2000000000.0 -0.3421312470418869 0.25622032701704445
2020000000.0 0.32209198340526796 0.2742611436030127
2040000000.0 0.40975199724908673 0.0608009233204508
2060000000.0 0.40493263517709194 0.04814609045873515
2080000000.0 0.3978517597642191 0.0233003744691769
2100000000.0 0.31758938385434093 0.2318928474281234
2120000000.0 0.3864417877628463 0.06509957250409212
2140000000.0 -0.05754775768926074 -0.38064608456021437
2160000000.0 -0.31459163547582564 -0.1876391033051847
2180000000.0 -0.24479909374760012 0.23625211592778167
2200000000.0 -0.1873128980413302 0.25683934036098
2220000000.0 -0.289896059539914 -0.08722939796349531
2240000000.0 0.009345102667259105 -0.3044839102598534
2260000000.0 -0.10118647863433136 -0.2992549137051678
2280000000.0 -0.3285174604848495 0.06073583653737038
2300000000.0 0.336819191474239 0.1265743061546248
2320000000.0 -0.3883886514222641 0.054668828724237326
2340000000.0 0.23082298186966238 -0.36548675498789535
2360000000.0 0.3423922266735916 0.33268513197770877
2380000000.0 -0.36456357547661394 0.38278538178500165
2400000000.0 -0.5301472298311135 -0.2331345570927315
2420000000.0 0.1231164015553391 -0.6121104044293293
2440000000.0 0.6602838822860436 0.07964614995344936
2460000000.0 -0.232588845729519 0.6565621060114625
2480000000.0 -0.36641679847508296 -0.6194851758212852
2500000000.0 0.5843430272284558 0.4441095833202483
2520000000.0 -0.6308107900926329 -0.38703317321177116
2540000000.0 0.5457689859280389 0.4968451293176059
2560000000.0 -0.25211439794519774 -0.6847579230524045
2580000000.0 -0.22738619824755235 0.6751302241655277
2600000000.0 0.526367567890557 -0.44244343363570166
2620000000.0 0.15313573003738962 -0.6426582395543776
2640000000.0 -0.43810728707262436 0.45018875235996564
2660000000.0 0.5676225000062914 -0.16853641890384824
2680000000.0 -0.5495009483418184 0.07886417254189945
2700000000.0 0.516106239428699 0.0008331356822947157
2720000000.0 -0.47702438221600957 -0.022581747886033135
2740000000.0 0.4011237783536344 0.18464039526682766
2760000000.0 -0.19783971867131644 -0.3627842462285789
2780000000.0 -0.12393263008487071 0.3738954936795195
2800000000.0 0.36959067071692336 -0.0981317045422068
2820000000.0 -0.3532621976159784 -0.1489175980988117
2840000000.0 0.38732599651408495 -0.02129482226928628
2860000000.0 -0.22243764415950024 0.3192655959329869
2880000000.0 0.2578175605447828 -0.2845495445829984
2900000000.0 -0.2506539852422451 -0.28253388310907934
2920000000.0 -0.3246406343540445 -0.19176250977848194
2940000000.0 -0.33854185635182776 -0.16477159131087457
2960000000.0 -0.053230452729764 -0.3690483046955481
2980000000.0 0.35107137791392906 0.13378601770334067
3000000000.0 -0.23335034334571306 0.30334789490184366
3020000000.0 -0.3649633260246638 -0.13458704186685994
3040000000.0 -0.06234290840646166 -0.37921336611542794
3060000000.0 0.37136829631199464 0.04683891288533765
3080000000.0 -0.34461673806549625 0.09969759872083636
3100000000.0 0.3238408165322816 0.11181281374006286
3120000000.0 -0.24112288553489977 -0.22257196636975582
3140000000.0 0.03199095034657985 0.3113786831202511
3160000000.0 0.0244400355455605 -0.2957799934091112
3180000000.0 -0.27217364029925256 -0.0025059279487016565
3200000000.0 0.08229891006436793 0.23082913623146817
3220000000.0 0.043644812264541526 -0.2129568773225017
3240000000.0 -0.130108134275674 -0.13391038887221637
3260000000.0 0.12872008929807147 -0.08826885675050608
3280000000.0 -0.10348725035438663 -0.07991973067950327
3300000000.0 -0.0858915841235874 -0.07740144551604804
3320000000.0 -0.10223006973733365 0.02621970179185231
3340000000.0 0.08576417250803978 -0.04416245544105519
3360000000.0 -0.08736414375211428 0.002538145178749027
3380000000.0 0.08236585881846317 0.004466166710129005
3400000000.0 0.03542079941180886 -0.07243061001147716
3420000000.0 0.04387743381847245 -0.06403598103454575
3440000000.0 0.0298848572231518 -0.06524603374235415
3460000000.0 -0.04028964027425872 0.05053170982491075
3480000000.0 -0.03803317912394769 -0.048451489927990185
3500000000.0 0.06161936183863141 -0.011322672224569542
3520000000.0 0.06700942481361918 -0.02186734706124211
3540000000.0 -0.07650079894641111 -0.03094201273067952
3560000000.0 -0.05223587962860505 -0.08599558316652622
3580000000.0 0.030146707721290706 -0.11781017558390124
3600000000.0 0.1405663967382554 0.04128313672389705
3620000000.0 0.02864393948286454 0.16860351674866156
3640000000.0 -0.18116340050820406 0.06890361259912599
3660000000.0 0.1394383216975595 -0.15861134869997193
3680000000.0 -0.2233612980488371 -0.025766918312787702
3700000000.0 0.013653692584537162 0.23576374635770259
3720000000.0 0.24316682675031437 -0.053512549020572356
3740000000.0 0.04048312922049481 -0.2542499672486518
3760000000.0 0.1959562411267192 -0.18442831247957436
3780000000.0 0.2683017882580842 -0.0804101095216502
3800000000.0 0.22859549460836587 -0.1746313295701181
3820000000.0 -0.015882455012145667 -0.29099639022480933
3840000000.0 -0.22888492529690674 -0.17345074701730187
3860000000.0 -0.19015093085528278 -0.20715480768210764
3880000000.0 0.13458962256727822 -0.23793694667196347
3900000000.0 0.2418165487135911 0.12152280996120782
3920000000.0 0.2406388251205565 0.12448574788723306
3940000000.0 0.2538846599429096 -0.09410360255478463
3960000000.0 -0.24530694327324354 -0.0988054956294846
3980000000.0 -0.19653396985101138 0.15862332673554522
4000000000.0 0.07531402741064576 -0.2212979516931681
