!Created with skrf (http://scikit-rf.org).
# Hz S RI R 50.0 
!freq ReS11 ImS11
400000000.0 -0.8517785430569952 0.07825744871533986
420000000.0 -0.11047398421270321 0.8327816022706187
440000000.0 0.5448387624213111 0.574360460299567
460000000.0 0.5331513202937616 0.4787902510444095
480000000.0 -0.37497331265648726 -0.5291450943947895
500000000.0 -0.36817104497516895 -0.4968948685476904
520000000.0 0.18502987878549648 -0.506323412314206
540000000.0 -0.2777647195203025 -0.37736915687097083
560000000.0 0.08852014669562648 -0.44103935115126275
580000000.0 -0.24030069815930094 -0.310651593241278
600000000.0 0.342862265777748 0.0779505137357749
620000000.0 -0.19164471042989092 -0.29041685878368484
640000000.0 0.21006818790137374 -0.3467156633134344
660000000.0 0.029980166819970535 0.4406175657393174
680000000.0 -0.1827003279993308 -0.42527857680274583
700000000.0 -0.0871352727636405 -0.4382448376595888
720000000.0 -0.3336985443279678 0.2603523528426123
740000000.0 -0.3287684100979159 0.207001845186413
760000000.0 -0.2286815249496692 -0.26905090326460623
780000000.0 0.321581717877659 0.026476021157570143
800000000.0 0.2230425377699674 0.18944069717356216
820000000.0 0.19619407542780504 -0.1641789667685594
840000000.0 0.09834249869222542 -0.1833287019446944
860000000.0 -0.16515714885989147 0.06747379408602795
880000000.0 0.12889299078968056 0.04254028074194781
900000000.0 0.08690097922593934 0.021197984892921087
920000000.0 -0.05364465527666118 -0.0317123725334488
940000000.0 -0.03693730998247976 -0.0016712612540044716
960000000.0 0.00020177628817217712 -0.05447566734210615
980000000.0 0.054927628656912496 -0.037742933232680374
1000000000.0 -0.038149908203869 0.05732571030411893
1020000000.0 -0.06488485545524979 0.05654939120629442
1040000000.0 0.025103278910911856 0.10749196422876929
1060000000.0 0.020088988820947666 -0.14565501470262954
1080000000.0 -0.029518611948332198 0.17863485693109324
1100000000.0 0.16230763739527293 -0.1427111320233331
1120000000.0 -0.21879221529868154 0.1327654898748826
1140000000.0 0.09881444000569 0.25564090234991904
1160000000.0 0.22723734260171974 0.18771876061135223
1180000000.0 0.15870178984598934 0.2759167353433405
1200000000.0 -0.02249868131620227 -0.3363068351938546
1220000000.0 -0.36371978972016755 0.035630048367660885
1240000000.0 0.3890728761455973 -0.03990198553530224
1260000000.0 -0.34634090675952334 -0.20718070670448516
1280000000.0 -0.28433711088221625 0.29691245662281907
1300000000.0 -0.00028439786965695814 0.41805271661726456
1320000000.0 0.40450175849828285 0.11663700671202058
1340000000.0 0.4115878747922684 0.060605288048610775
1360000000.0 0.3931477976748315 -0.12552509711834708
1380000000.0 0.15164214371556567 -0.3687508129873049
1400000000.0 -0.02325384614275444 -0.37730996771210173
1420000000.0 0.20204511550306548 -0.30066486217478977
1440000000.0 -0.33621057728787124 -0.08541224900774008
1460000000.0 0.05126214982643145 0.3151531927109937
1480000000.0 0.08397577138285857 -0.28064815835924023
1500000000.0 0.16013745724848147 0.1975607147843847
1520000000.0 0.21114500594456076 -0.0449276764303249
1540000000.0 -0.1204502993901011 -0.13152852842027662
1560000000.0 0.08152044157284064 0.12137639822147155
1580000000.0 -0.07059775032945666 -0.0898827861495582
1600000000.0 -0.07563717610471198 -0.040401059320145656
1620000000.0 0.008114248682157271 0.06303144039786372
1640000000.0 0.007894462247927368 -0.034581904098996086
1660000000.0 0.0008018854666752182 -0.005044664417547828
1680000000.0 0.0022559612146751742 0.031721521012835006
1700000000.0 0.04844415448534927 0.019482814589654097
1720000000.0 -0.0265894279302492 -0.050992253144745925
1740000000.0 -0.06878551580968442 -0.008495073567337525
1760000000.0 0.07622875561207734 0.03553702744222264
1780000000.0 -0.10159018663795415 -0.035287894493657324
1800000000.0 -0.036644439001795225 0.1377920144771986
1820000000.0 -0.047744132272648836 -0.17748761103621677
1840000000.0 -0.011844042097710214 -0.22555399698506456
1860000000.0 0.039470873332869486 -0.2570569333806605
1880000000.0 0.27342280192232044 0.09994968305051256
1900000000.0 -0.31892786629913633 0.036583784665871595
1920000000.0 0.34735959987390774 0.00753521373771394
1940000000.0 -0.13094283848817292 -0.3472581010548779
1960000000.0 -0.13668592798523047 0.3703597720070839
1980000000.0 0.3967782930244324 -0.10576632499633615
2000000000.0 -0.15417187686608 -0.39187402604760446
2020000000.0 -0.42369096375028775 0.059558882960221056
2040000000.0 0.1604679750229039 0.399316678383427
2060000000.0 0.4012436883944423 -0.13315447625439186
2080000000.0 0.10266941830947461 -0.39813935606665274
2100000000.0 -0.09289436371040917 -0.38554352040484313
2120000000.0 -0.1471963658077474 -0.35604845168502613
2140000000.0 -0.3484752697771899 0.13012289305023125
2160000000.0 -0.26919816155363213 -0.21770387893615237
2180000000.0 0.09876257364259948 -0.3123127501716834
2200000000.0 0.1710675889688201 -0.26948887568788626
2220000000.0 0.2906095043228004 -0.11516691731197144
2240000000.0 0.17134394493253888 -0.271732523898852
2260000000.0 -0.305621353965293 -0.12275294487921376
2280000000.0 0.1918854219545745 0.28027801004145764
2300000000.0 0.19969112144519824 -0.29583453680356714
2320000000.0 -0.34661624472492586 0.17487796141523326
2340000000.0 0.2192689724993424 -0.3694944926603566
2360000000.0 0.25211732482133087 0.4020546277868207
2380000000.0 -0.45006104583723094 0.2754583356715769
2400000000.0 -0.439922843551125 -0.3783767724501866
2420000000.0 0.2455083593036015 -0.578362306733499
2440000000.0 0.656975506307911 0.12998815944192535
2460000000.0 -0.24967718252235638 0.6556952448559717
2480000000.0 -0.4379143998273213 -0.5781066578920809
2500000000.0 0.6275793071556361 0.3892874465022832
2520000000.0 -0.6347254488582132 -0.38727221269294
2540000000.0 0.5138264827919087 0.5352631028492599
2560000000.0 -0.21540913046757937 -0.7009233372022149
2580000000.0 -0.2503007198121033 0.6713041412516086
2600000000.0 0.5972498967882035 -0.3497045372605405
2620000000.0 0.20316510717258346 -0.6299477328251073
2640000000.0 -0.4277626382436682 0.46102451940771483
2660000000.0 0.5742218712398869 -0.14503564978693598
2680000000.0 -0.5531772440105225 0.019219546962540923
2700000000.0 0.4846852603730776 0.1743084135561605
2720000000.0 -0.40771122286850403 -0.24757158627662265
2740000000.0 0.24762926204143257 0.37136131041831194
2760000000.0 -0.23296653829065983 -0.34700072285503214
2780000000.0 -0.05331858290553433 0.3928853563527502
2800000000.0 0.15226805705866645 -0.3553294175087948
2820000000.0 -0.12594242706340275 0.3577751386058859
2840000000.0 0.2366508675872356 -0.2910107707648849
2860000000.0 -0.3618126850974391 0.09683123779854909
2880000000.0 0.19532391503679822 0.3189716010397372
2900000000.0 0.37756758847320737 0.026678919231672014
2920000000.0 0.19517715485017206 -0.33103147556498913
2940000000.0 -0.13896238785995962 -0.3605458211952635
2960000000.0 -0.11386527786056387 -0.36538855472145393
2980000000.0 0.31441255498599074 -0.2137509767189183
3000000000.0 0.30955535168710746 0.22558579178865623
3020000000.0 -0.1896943552116336 0.32524864377456264
3040000000.0 0.09324278194670646 -0.3585437290718703
3060000000.0 -0.008256875999235427 0.3634692219312298
3080000000.0 0.024994637592277852 -0.35440960614590583
3100000000.0 -0.010375912420873224 0.3460115740830593
3120000000.0 -0.02060723475603295 -0.33229445373436933
3140000000.0 0.11453602296247581 0.2986944588979949
3160000000.0 -0.284455363254181 -0.08701422482990166
3180000000.0 -0.13585607900586535 0.23149391111912784
3200000000.0 0.21769041143769696 0.09967780364556782
3220000000.0 0.09316666309758717 -0.18876826970314772
3240000000.0 0.10366908020186515 -0.14628653851932547
3260000000.0 -0.049581329437750316 0.14468697980529424
3280000000.0 0.12165777397011987 0.05160889653969901
3300000000.0 -0.0845674597538983 -0.08369899748834518
3320000000.0 -0.008233241959276919 -0.10486811451372961
3340000000.0 -0.06339667524549758 0.07704673379729793
3360000000.0 -0.09129700630135698 0.0077200280458889995
3380000000.0 0.020808661748766024 -0.08193033100381239
3400000000.0 0.021691307265639437 -0.07622630696384292
3420000000.0 0.07131441353675026 0.01931678917917305
3440000000.0 -0.015019480041956811 -0.06394692123878225
3460000000.0 0.03438104126699163 -0.04860137913182382
3480000000.0 -0.025109646994397744 -0.05240315310456486
3500000000.0 0.02864821970768878 0.05361645453451839
3520000000.0 -0.06702102882469861 -0.020963785819957354
3540000000.0 -0.08178167814458048 -0.0025947284487439193
3560000000.0 -0.04105798323925493 0.08747080473754425
3580000000.0 -0.11295744062395126 0.014746899363536629
3600000000.0 -0.02441537304989345 -0.1329338625408475
3620000000.0 0.15909956648130724 0.003096230170727444
3640000000.0 -0.0657616525093119 0.17001825193673412
3660000000.0 0.05987156290860844 -0.1950292212771395
3680000000.0 -0.13302457196067272 0.1785239219302999
3700000000.0 0.23069879033937038 -0.05711667888162788
3720000000.0 -0.21844328426619172 -0.12603599648495145
3740000000.0 -0.035535801689841655 0.26045184165416896
3760000000.0 0.07413143446733327 0.2633843270872101
3780000000.0 0.034430027531051725 0.2806233405717621
3800000000.0 0.06180893241130076 0.2814317345084424
3820000000.0 0.11546608408184818 0.2689751122769303
3840000000.0 0.18450587742000837 0.22783812526215455
3860000000.0 0.2575720475979783 0.13880300003184012
3880000000.0 0.28072375481920053 0.07038049833469852
3900000000.0 0.2528092625258334 0.1370204136140802
3920000000.0 0.2763092734835645 -0.07016607860219304
3940000000.0 0.05868404306190265 -0.27083713389793923
3960000000.0 -0.26360815289339734 0.0374794336746361
3980000000.0 -0.24186827237086128 0.07803939648045555
4000000000.0 0.18200363929539098 -0.15409225158181183
