!Created with skrf (http://scikit-rf.org).
# Hz S RI R 50.0 
!freq ReS11 ImS11
400000000.0 -0.6843079101985242 -0.5259718165510653
420000000.0 -0.47026602110427573 0.6988636578919778
440000000.0 0.21056961610191935 0.7571151242750829
460000000.0 0.030642239353458545 0.7189699973068724
480000000.0 -0.6461211279321167 -0.034698486623680885
500000000.0 -0.15747639608610517 -0.5646481266782285
520000000.0 0.17788695470462024 0.49317454423133567
540000000.0 0.08556520477719595 -0.4584500991565277
560000000.0 0.06416705391710767 0.42867034957932887
580000000.0 0.23648721271265413 0.3151160491042765
600000000.0 -0.1562952651017494 -0.3307677001548459
620000000.0 -0.08263893080218714 -0.3580331699530324
640000000.0 0.3402280902889793 -0.23232094567557046
660000000.0 -0.0812645893587744 0.44581551371259787
680000000.0 0.1993666621002267 -0.42319984376904546
700000000.0 0.37866622397849037 -0.26702941618426773
720000000.0 -0.23593919048138545 0.3751829032780744
740000000.0 0.28256168664916015 0.2790425153550605
760000000.0 -0.3430327012808921 -0.04273789850420416
780000000.0 0.2128885196866441 0.24167346265644765
800000000.0 0.28261889164721454 -0.014785027708172204
820000000.0 0.12513855394118184 0.19797802483203059
840000000.0 0.047284173430340797 -0.18691863082940796
860000000.0 0.004374228669367072 -0.16008195018264415
880000000.0 -0.09818989564198499 -0.07010172767951986
900000000.0 -0.08307846117915425 0.022444149069630773
920000000.0 -0.018806430338451387 -0.044230561497136625
940000000.0 0.0333394295901671 -0.009811418472383442
960000000.0 0.04861228647199531 -0.013960634764768038
980000000.0 -0.035458417519454 0.0567064889318613
1000000000.0 0.047339730695558406 -0.07286783120859548
1020000000.0 0.059173672348997224 -0.10539757027830478
1040000000.0 0.03007975631641182 0.13549597451687614
1060000000.0 0.10012939030260262 -0.14600252023476726
1080000000.0 -0.20301691087209603 0.01821379007421902
1100000000.0 0.04972296690328664 0.22827459724697372
1120000000.0 0.20012662624535518 -0.17148611390493668
1140000000.0 0.2692601450266743 -0.08803366157968345
1160000000.0 -0.2813079845751294 -0.11300011945047128
1180000000.0 -0.3193716983819761 0.006798280934417499
1200000000.0 0.3198898073997736 0.08397764947960243
1220000000.0 -0.06765950450569264 -0.34702164147782416
1240000000.0 -0.2983465313164937 0.2246700443094594
1260000000.0 0.3795439415998787 0.08664929769225975
1280000000.0 0.12188968731925034 -0.37407445296969843
1300000000.0 0.25979591039839384 -0.30426651067751487
1320000000.0 -0.034076528592269326 -0.40685174962018267
1340000000.0 -0.2160591865579875 -0.3528962386584923
1360000000.0 -0.34725646903862045 0.2189612431701101
1380000000.0 -0.1791407486012119 0.3569617025208314
1400000000.0 0.36206041244364734 0.13520005359955858
1420000000.0 0.06039842738964681 -0.3586777133469057
1440000000.0 -0.3367912228460468 0.0559762873849142
1460000000.0 0.3085334867960792 0.03244031895506161
1480000000.0 -0.26479312601742394 -0.07604153289150585
1500000000.0 0.22270779301591345 0.0782338524224273
1520000000.0 0.02701700220167212 -0.19629568729857194
1540000000.0 -0.01927656650619422 0.1556263469622479
1560000000.0 -0.05071400230183174 0.11319340262121562
1580000000.0 0.08993234878637422 0.047440479139025125
1600000000.0 -0.07913697908047596 -0.003465239219108269
1620000000.0 -0.028139426576507066 -0.05275678847050838
1640000000.0 -0.035135717085034684 0.000776597329679183
1660000000.0 -0.012447406322287169 -0.004089973874306396
1680000000.0 -0.0015666953604577122 -0.00870481425198842
1700000000.0 -0.02064389583175769 -0.0009826711132908724
1720000000.0 -0.023684255823090705 -0.02079234644986764
1740000000.0 -0.014790136975917752 0.045498425814922076
1760000000.0 -0.011337498632863983 -0.06355077089715326
1780000000.0 -0.0030171061359016674 0.09206693249624821
1800000000.0 0.12699234524977704 -0.023110831296538067
1820000000.0 0.16137677313800608 0.03708344204283025
1840000000.0 0.14649649354002145 0.14460567814813116
1860000000.0 0.24787276969500813 0.0038379686468153207
1880000000.0 0.2813752262895715 0.013979928827766873
1900000000.0 -0.08718382331535442 0.29628549305382945
1920000000.0 0.1345963442807646 -0.3073358107994118
1940000000.0 -0.29212967584377264 0.21255608888379113
1960000000.0 0.38063581152458803 -0.012417176736392256
1980000000.0 -0.0897223030057611 -0.3852235300981039
2000000000.0 -0.4063537886618228 -0.0173248967534287
2020000000.0 -0.25512813490314834 0.32732654550551576
2040000000.0 0.10628612359876076 0.40784741848909384
2060000000.0 0.4228692892189931 0.003233097209680017
2080000000.0 0.12750936540599328 -0.3989676003266963
2100000000.0 -0.32416365984340284 -0.24846240951249748
2120000000.0 -0.3916031173188777 0.0380886212057909
2140000000.0 -0.29147094504684107 0.24063088833398083
2160000000.0 -0.15665531455574244 -0.32063060955429984
2180000000.0 0.06948508857969639 -0.33630284375419356
2200000000.0 0.16747498293750585 -0.28800330143078623
2220000000.0 0.28069091705892946 -0.16802285374382833
2240000000.0 0.20785979637189014 -0.2544655195521586
2260000000.0 0.20175629729785108 -0.2593961167096646
2280000000.0 0.037549203035854586 -0.3378008917578084
2300000000.0 -0.17923727808390927 -0.30848666119229196
2320000000.0 -0.38321872117436084 0.06252393802443061
2340000000.0 0.3771615389194054 0.20159226240091202
2360000000.0 -0.46159677624610446 -0.10689296424702861
2380000000.0 0.403498346346116 -0.33368159569225364
2400000000.0 0.04279385751189426 0.5717907913979193
2420000000.0 -0.5714738875250656 -0.24377009477181993
2440000000.0 0.511672561659009 -0.4241373611807807
2460000000.0 -0.006405722170587523 0.7006051241814413
2480000000.0 -0.34081067614306915 -0.645478465241171
2500000000.0 0.43545292685178694 0.6109827824041842
2520000000.0 -0.30973092939241187 -0.6965684030739703
2540000000.0 -0.05329501987187392 0.7644326171928028
2560000000.0 0.4548340094327332 -0.6112921495588487
2580000000.0 -0.7513297511334798 0.004622071007406373
2600000000.0 0.5703153104867454 0.458819235135601
2620000000.0 -0.24438199800419852 -0.6625435066242871
2640000000.0 -0.6045022706560491 -0.29807639965446303
2660000000.0 0.3514493645792162 0.5299418997402092
2680000000.0 -0.04197112530231378 -0.5920863465670931
2700000000.0 -0.10233404660089472 0.5426510079262381
2720000000.0 0.0031999502392618764 -0.5088913544727762
2740000000.0 0.042810975003119596 0.46497549067236277
2760000000.0 -0.03990443651416744 -0.4268445469836853
2780000000.0 -0.06689361812977779 0.3945023760723421
2800000000.0 -0.0070313372530987454 -0.3833005346957238
2820000000.0 0.3334342360645516 0.1690292745605096
2840000000.0 -0.06888623341446061 0.3605064166661792
2860000000.0 -0.3605962379053702 -0.008902472780778612
2880000000.0 0.2624920380794345 -0.23377239441543718
2900000000.0 -0.33398256894676975 -0.09237690334623642
2920000000.0 -0.18712096958103946 0.2935903571997895
2940000000.0 0.25679629103793294 0.24342814372434537
2960000000.0 0.2685313471859215 -0.2306511614531903
2980000000.0 0.2974114056010084 -0.18829579936943378
3000000000.0 0.32511768387044687 0.14109527772534194
3020000000.0 0.04182743923404493 0.3509021056297478
3040000000.0 -0.3497316675614992 6.671834098239306e-05
3060000000.0 -0.06525497032503091 -0.3409022539095986
3080000000.0 0.3355974978277875 0.051477945018524936
3100000000.0 -0.01793377127529845 0.3295137374547902
3120000000.0 -0.31485076846781196 -0.018000212398168687
3140000000.0 -0.06079539242896839 -0.2924815755636638
3160000000.0 -0.001109840712036692 0.2743344010360102
3180000000.0 -0.2443590427170348 -0.05493341113440056
3200000000.0 0.05242014074068181 -0.21779904986307494
3220000000.0 0.13994777547858964 -0.13780886434898088
3240000000.0 0.1379899713702398 -0.09021370407286229
3260000000.0 0.11160757736385352 0.0701390210380546
3280000000.0 -0.023280659791995926 0.10030598244808323
3300000000.0 -0.06472151049383386 0.04902477745482962
3320000000.0 0.05069390747867235 0.04187295040696008
3340000000.0 -0.013885729674167496 0.05068501463408489
3360000000.0 -0.04200907467743502 0.02329704974496652
3380000000.0 0.047777372589247864 0.007667693606514531
3400000000.0 -0.010090081309006639 -0.050604935475084815
3420000000.0 0.046623134687810236 -0.03469929850424444
3440000000.0 -0.06904379966952871 0.0069995888362495194
3460000000.0 0.06676482143126397 -0.05651554255489448
3480000000.0 0.025726260156151138 -0.10129528535682067
3500000000.0 -0.11390599499092466 -0.03565055718020391
3520000000.0 -0.04301478834722352 -0.1272026474722793
3540000000.0 -0.05318177670716407 -0.14180328080226617
3560000000.0 -0.16570421482751685 -0.016873342143064133
3580000000.0 0.08549350218036876 0.15813816500076538
3600000000.0 0.13297677550506473 -0.12834898819069873
3620000000.0 0.04504427394606693 -0.18051402986333237
3640000000.0 0.15125765057842627 -0.10390717899193899
3660000000.0 0.052978764347136095 0.17260789694885803
3680000000.0 -0.15039756595407408 -0.09697066098314996
3700000000.0 0.05972523656646999 -0.1684094346478791
3720000000.0 0.11324031628533794 -0.13501317144213557
3740000000.0 0.09493176065892005 -0.13666525999998969
3760000000.0 -0.14635982112487514 0.033222079501789584
3780000000.0 -0.1084189501949241 0.08210892402361476
3800000000.0 -0.12731426979215785 -0.014432327932219704
3820000000.0 -0.12149454019039818 0.009129086314355493
3840000000.0 0.0795307928027663 -0.0737432068931545
3860000000.0 0.10498326175563895 0.003197620979114923
3880000000.0 0.11282259887329811 -0.012817472050703214
3900000000.0 0.11615233903636206 -0.05618629217473564
3920000000.0 0.055139855704135085 -0.126052315986272
3940000000.0 -0.125331149374329 -0.05252053228518141
3960000000.0 -0.06004102495929653 0.11289997435169062
3980000000.0 0.04273249971030552 0.10545660075975223
4000000000.0 -0.09663334767755431 0.007026085726885375
