!Created with skrf (http://scikit-rf.org).
# Hz S RI R 50.0 
!freq ReS11 ImS11
400000000.0 0.08872970943145699 -0.8186776028713524
420000000.0 -0.36426438487645785 -0.7482873583604771
440000000.0 -0.7370828782570545 0.2444443326354407
460000000.0 -0.6617145982840036 -0.2855407649719806
480000000.0 0.5696559764533029 -0.33776430254980394
500000000.0 0.5150568049542367 0.3535775058242403
520000000.0 0.28468450118348526 0.490308180870349
540000000.0 0.08434920612631695 0.4967800917239454
560000000.0 -0.45454614847500663 0.039960070114494095
580000000.0 -0.3619424077385468 0.16259322832576187
600000000.0 0.2797864160023096 0.23359579044856418
620000000.0 0.25695794137352174 0.24711400331548447
640000000.0 0.02650990595786201 -0.3957258673611954
660000000.0 0.04985433154449256 0.43428619688451914
680000000.0 0.21714425145147512 -0.3999218812637073
700000000.0 0.4368597898916455 0.09577203477665881
720000000.0 -0.3171071712194507 -0.29229228212903663
740000000.0 -0.2622400423478825 -0.29774955688619936
760000000.0 -0.2698672795940384 -0.2520834738943402
780000000.0 -0.16529323609253904 -0.28111289949126994
800000000.0 0.01277238959332789 -0.28348684063386526
820000000.0 -0.15855900877088763 -0.17052173906595258
840000000.0 -0.14323653128463684 0.11444418287866692
860000000.0 -0.15184438783102885 0.018927913321336837
880000000.0 -0.08043030072015711 0.08146647373354916
900000000.0 -0.06684608260870517 -0.051097475847705166
920000000.0 0.023269414933723028 -0.04616624943314475
940000000.0 -0.02729446596688284 0.026233112799744687
960000000.0 -0.016044904001139587 -0.054968332381164865
980000000.0 0.04496647215224825 -0.04902303824896435
1000000000.0 0.048135166888591395 -0.06955726806966331
1020000000.0 0.11143806370601057 -0.008706216015903339
1040000000.0 -0.126343552513884 0.04187794367929455
1060000000.0 0.16670038686408944 0.014934313970924934
1080000000.0 -0.03685263626439528 -0.19145336684129644
1100000000.0 -0.20530596272924323 0.09691292062542245
1120000000.0 0.2463714833128673 0.07135717582695816
1140000000.0 0.22631340060695573 0.1674432893217847
1160000000.0 -0.30334213611226984 -0.03394001482624682
1180000000.0 -0.24971874764002217 0.195800270812772
1200000000.0 0.278954268940101 -0.1737333468812327
1220000000.0 -0.24440714652099707 -0.24835048158724832
1240000000.0 -0.15909593122595272 0.3349029230839735
1260000000.0 0.3751357725505976 -0.09368494933641566
1280000000.0 -0.21829443739041318 -0.3274651495659091
1300000000.0 -0.2721458113440436 -0.2839652777011217
1320000000.0 -0.15003444888880527 -0.36980552043836307
1340000000.0 -0.19423778550910129 -0.3601523266591668
1360000000.0 -0.35246467794181763 0.20905900008287642
1380000000.0 -0.03947227197814235 0.39529416515185367
1400000000.0 0.3761930821615265 0.08230993290726629
1420000000.0 0.08204844500622238 -0.35320980267859997
1440000000.0 -0.3423963327624446 -0.024868342282776654
1460000000.0 0.3133256753588515 0.0007452487429327741
1480000000.0 -0.25537262229771196 -0.12034731670134036
1500000000.0 0.06791127655493842 -0.23322363428932763
1520000000.0 -0.2001172058723422 -0.012395694223809253
1540000000.0 0.1566500308648853 -0.001091897290697668
1560000000.0 -0.06645916774275776 0.1017148093448539
1580000000.0 0.06526523639324695 0.08285227652529763
1600000000.0 0.07988742345901091 0.007032812359420411
1620000000.0 -0.039885649690237626 0.044016872532776856
1640000000.0 -0.04163848751482202 -0.008350719416232827
1660000000.0 0.01960896863480316 -0.0008721262389491568
1680000000.0 0.009256923895829623 -0.002370349313875829
1700000000.0 0.013471994842385277 0.017312507143676572
1720000000.0 0.02226012654666202 0.025794515703571625
1740000000.0 0.0037702946250396854 -0.04899098097652389
1760000000.0 0.05768391354389838 0.03588620655226325
1780000000.0 -0.036799733843527124 -0.0892359193027474
1800000000.0 -0.08699626688144503 0.1028893599818621
1820000000.0 -0.07465686399510865 0.14802247254418932
1840000000.0 -0.0582036735390806 -0.19228869793114112
1860000000.0 0.1766617462358604 -0.1643469309047241
1880000000.0 0.23885251302727856 0.14606093411145282
1900000000.0 -0.11210326130052986 0.2898857019868301
1920000000.0 0.1581843815783643 -0.29591516591833456
1940000000.0 -0.3626727851028005 -0.008055548848984255
1960000000.0 0.35961010944417465 0.14104724921087294
1980000000.0 -0.003983226074293817 -0.3998571891620751
2000000000.0 -0.3999186306197716 -0.10064146345254014
2020000000.0 -0.3310151949783296 0.2599510442673368
2040000000.0 0.09766633478372182 0.41680459058890024
2060000000.0 0.42913321229438334 -0.005917978552570448
2080000000.0 0.0006155506425294944 -0.42538165402115796
2100000000.0 -0.4125832714291588 0.00274201774454959
2120000000.0 -0.2972862904896133 0.2573240215298902
2140000000.0 -0.33312262707910506 0.17347192011650844
2160000000.0 0.023164300620845922 -0.35795301258154466
2180000000.0 0.16182104530850192 -0.30537455508893213
2200000000.0 0.2156513797721007 -0.25642630603117117
2220000000.0 0.32749018986340434 0.012155820347190498
2240000000.0 0.3040453403185932 0.1407601102716813
2260000000.0 0.3015903962336104 -0.16303723850853316
2280000000.0 -0.12271663302993667 -0.33138698099172353
2300000000.0 -0.36008022028920683 0.0833889328601814
2320000000.0 0.14601459445793372 0.36931972348646785
2340000000.0 0.07075464711167517 -0.429116976924062
2360000000.0 -0.036143327215071325 0.47729787038037363
2380000000.0 -0.33439282627203537 -0.40885584736242075
2400000000.0 0.5762303940016418 -0.04135560775273355
2420000000.0 -0.16712954845639752 0.6028327027321144
2440000000.0 -0.5113384374919452 -0.4293784796073098
2460000000.0 0.6828523900373789 -0.16282776871702195
2480000000.0 -0.5012700566253556 0.5292268839711848
2500000000.0 0.40835568754018364 -0.6245458647494214
2520000000.0 -0.4720817680079725 0.5896855250477321
2540000000.0 0.6702075870992714 -0.3504667632247908
2560000000.0 -0.7462285353315492 -0.0775874859943416
2580000000.0 0.41312833155363593 0.6102133993762451
2600000000.0 0.025235676754796436 -0.7147272696404469
2620000000.0 -0.45001649688495515 0.5200455665209367
2640000000.0 0.009946308255482938 0.6540902887680472
2660000000.0 0.35105655534939306 -0.5064654160891753
2680000000.0 -0.45058441483847234 0.357762352291554
2700000000.0 0.4670788632719039 -0.2567086667398743
2720000000.0 -0.4128546053932693 0.2653690068692961
2740000000.0 0.34135069282173275 -0.2934286994688651
2760000000.0 -0.2270229246191658 0.3446797210810287
2780000000.0 0.23408036189982204 -0.3030846415286144
2800000000.0 -0.2548369396642354 0.26034311570143515
2820000000.0 0.06687314347961486 -0.3487042700007329
2840000000.0 0.2762822210993327 0.21362738059621336
2860000000.0 -0.3458557952997963 -0.008355334916163162
2880000000.0 0.31044872347727165 -0.1499297132290707
2900000000.0 -0.309621874351238 -0.15296831685569617
2920000000.0 0.05222317651402394 0.35047332428113437
2940000000.0 0.16717648583165898 -0.3163762974482209
2960000000.0 -0.27893056624910056 -0.21929291500845272
2980000000.0 -0.2652153046437745 -0.23077948634513035
3000000000.0 -0.024743415316139925 -0.3487712023924847
3020000000.0 0.34126864758269265 -0.06001640604092348
3040000000.0 -0.22259977023330366 0.2583778876341203
3060000000.0 -0.14807597213534546 -0.30464542409743306
3080000000.0 0.33043061250406774 0.04192038049853639
3100000000.0 -0.15904284143236086 0.28142609304578464
3120000000.0 -0.1396274763094437 -0.27915830081500015
3140000000.0 0.25924770233230304 -0.15025759887003892
3160000000.0 -0.21304481537635797 0.18371992152076894
3180000000.0 -0.24853277333996843 0.0702825692978178
3200000000.0 -0.2286192194558789 0.009078589265303937
3220000000.0 -0.19257823772290622 -0.036828710635220786
3240000000.0 -0.06274190717226259 -0.1494000924835216
3260000000.0 0.11812528761865469 -0.05464011212346284
3280000000.0 0.09373567539973421 0.039187965851544104
3300000000.0 0.07638179861738104 -0.017189463623341703
3320000000.0 0.05102107198029674 -0.028676058608757046
3340000000.0 -0.031172239794321373 0.031094046958457494
3360000000.0 -0.013788415818824432 -0.03546142971191042
3380000000.0 -0.019343407076985442 -0.03452593743855764
3400000000.0 0.03838849440345613 0.024076144784963595
3420000000.0 -0.04200210257788529 0.03814910582223962
3440000000.0 0.011544228444173871 0.07119294106639973
3460000000.0 0.07746462275101748 -0.04062319519262594
3480000000.0 -0.035939435838531764 -0.09555067237835924
3500000000.0 -0.11508246989991397 -0.010541601615251453
3520000000.0 -0.00022102537564689452 -0.1287545979007371
3540000000.0 -0.012697329279482788 -0.14397037972996438
3560000000.0 -0.10725848697167881 -0.11589197100927112
3580000000.0 -0.16207298912486637 0.04573372786183886
3600000000.0 -0.0451984255705011 0.1701603849089669
3620000000.0 -0.014251032858619415 0.1784687579246716
3640000000.0 -0.15059875297436723 0.10223207854701317
3660000000.0 -0.17991808139941273 0.03615412343865972
3680000000.0 -0.17857567329161592 -0.031104891590885204
3700000000.0 -0.09803005152384388 -0.14503942681651538
3720000000.0 0.08971074366855333 -0.14163373666045032
3740000000.0 0.11875875811645682 0.10451739841845505
3760000000.0 0.021137711464481287 -0.14379280553929008
3780000000.0 -0.020365124571970872 -0.12976388572894088
3800000000.0 0.060063924868639054 0.10528680105789537
3820000000.0 -0.010970592888560535 -0.11941367733184236
3840000000.0 0.008831635933745858 -0.11662006995936529
3860000000.0 0.0683981588123934 0.0924767913101928
3880000000.0 -0.11386176552021701 0.034534933567424014
3900000000.0 -0.11753999413941871 0.0441008502786809
3920000000.0 0.02745141049613846 -0.1280366093418862
3940000000.0 0.12115157229426483 -0.05114560784871896
3960000000.0 0.12221821123554505 -0.04044095883925713
3980000000.0 0.0345944726720521 -0.11395761853076808
4000000000.0 -0.07183049339212288 -0.07369167191882608
