!Created with skrf (http://scikit-rf.org).
# Hz S RI R 50.0 
!freq ReS11 ImS11
400000000.0 -0.7901434444251177 -0.3129225433515639
420000000.0 -0.4037732962338687 0.7382492721820566
440000000.0 0.42119384039572416 0.6659295851229919
460000000.0 0.17196115202933882 0.7006213081274356
480000000.0 -0.5984567332239181 -0.2710229018658585
500000000.0 0.04013654913299729 -0.6167320967582064
520000000.0 0.09745796895156264 -0.5390468032974033
560000000.0 0.3366448260887744 -0.2986871834792328
540000000.0 -0.46557397274004975 -0.06435253697219204
580000000.0 -0.3616920591685386 -0.15209392510619413
600000000.0 0.09075506840438677 0.3399628401691315
620000000.0 -0.31881211063871795 0.1557725403513707
640000000.0 -0.01605118517663932 -0.39986444804689086
660000000.0 0.2119048774417457 0.38381848905023275
680000000.0 -0.14639986448858028 -0.43463740824517366
700000000.0 -0.09168769264813216 -0.44066383677327525
720000000.0 0.01020107091497064 0.4246260616336515
740000000.0 -0.3140554459805052 0.2170661252486305
760000000.0 0.292768199748005 -0.20288232796956668
780000000.0 0.1764801250011235 -0.28374865122542553
800000000.0 0.14177494494766946 -0.25158989236191825
820000000.0 -0.08714482565957785 -0.23050502666969047
840000000.0 0.188748485829935 -0.06401560673447212
860000000.0 -0.1113401749789913 -0.12097018377921576
880000000.0 -0.02729613402598525 0.1222791772169852
900000000.0 0.031211971425056766 0.08930606218700379
920000000.0 0.03673223535091628 0.052301799669041256
940000000.0 -0.050109351110391366 0.013154974116581966
960000000.0 -0.05503746593402495 -0.02955153903433149
980000000.0 -0.015950202757642053 -0.07204384315051696
1000000000.0 0.060595929355264304 0.05868706480979919
1020000000.0 0.07390308129659635 -0.06865703038407352
1040000000.0 0.021586251200395108 0.12017929226183073
1060000000.0 -0.05134846258372408 -0.13528063832786313
1080000000.0 0.1459283032672363 -0.09533055276490451
1100000000.0 -0.13079604528808678 -0.16349549119948092
1120000000.0 -0.21583711984182413 0.11228879664813196
1140000000.0 -0.24490083408279495 0.1146131137767943
1160000000.0 -0.01050624222964161 0.2938985270847892
1180000000.0 -0.1342949407771054 0.2918905903094891
1200000000.0 -0.03050949106008783 -0.3410432737342503
1220000000.0 -0.19073710048778827 0.3124769326233985
1240000000.0 0.38458234189977575 -0.044992860745794526
1260000000.0 -0.21012479625456745 -0.34129851853402055
1280000000.0 -0.38538626650587027 0.15030101242140664
1300000000.0 0.06721719564108378 0.41476462569119793
1320000000.0 0.37518597272837134 0.1898382459225659
1340000000.0 0.4106375485624757 -0.07261280443637974
1360000000.0 0.3670719598881539 -0.1740076742248928
1380000000.0 0.3885236844429342 -0.06105412428886656
1400000000.0 0.36153105086587856 -0.12589730940579033
1420000000.0 0.04956490652361446 -0.36504300127414663
1440000000.0 -0.3055207919357322 0.16742355800300954
1460000000.0 0.3179224642170589 -0.011260828335244848
1480000000.0 -0.2580283210194467 -0.11984820004127733
1500000000.0 0.09868551424233413 0.2241531918926878
1520000000.0 0.17907505777328 0.11621870975547617
1540000000.0 -0.16966892219986476 -0.050875279950695414
1560000000.0 0.08399031904176624 0.11725576011300884
1580000000.0 -0.0655037218020179 -0.09470905595822021
1600000000.0 0.01850904858516113 0.08222855881296555
1620000000.0 -0.02137100391215811 -0.0563469719731749
1640000000.0 -0.01836595413335391 -0.029950769925992174
1660000000.0 0.005699172382034854 -0.00762122744653485
1680000000.0 0.017150471941335375 -0.00898101682453421
1700000000.0 0.03808595178218404 0.0017432437494054008
1720000000.0 -0.03839296327096161 0.032950542301185666
1740000000.0 0.03827529329433161 0.06145200086046198
1760000000.0 0.09393429572011379 -0.026222469519042623
1780000000.0 -0.12369956359751363 -0.015902999007178432
1800000000.0 -0.1513970587289062 0.03309408252816606
1820000000.0 0.17191015973810606 0.05101970578502154
1840000000.0 0.09204364846551204 -0.19491879057140674
1860000000.0 0.18088450180643578 0.18547046395083897
1880000000.0 0.022417968332658425 0.29671645434819544
1900000000.0 -0.313702934255784 0.08556186294980274
1920000000.0 0.3394048390819074 -0.06850321788665356
1940000000.0 -0.24528154206625874 -0.27716535207123894
1960000000.0 0.013870564486594622 0.3912455736934269
1980000000.0 0.3532537706280825 -0.20154210781542362
2000000000.0 -0.24477427759439138 -0.34087132531365055
2020000000.0 -0.33314616936465147 0.26512709429143616
2040000000.0 0.20887619397729928 0.3729044003347339
2060000000.0 0.36959065340966996 -0.2080065817902897
2080000000.0 -0.0012750201909425363 -0.4144536969841066
2100000000.0 -0.34056519128109886 -0.2114312089922422
2120000000.0 -0.38358488650354877 0.030758903501478616
2140000000.0 -0.3643559107798527 0.03729159458003254
2160000000.0 0.1302234802225111 -0.3240277330986031
2180000000.0 0.20220852945940693 -0.2670299154698055
2200000000.0 0.2620221779749057 -0.19483371678621536
2220000000.0 0.2538430725036444 -0.19592381098466705
2240000000.0 -0.004429820735151074 -0.319640393242254
2260000000.0 -0.3188274438888912 -0.061535413837509496
2280000000.0 -0.06792561604167596 0.3269089837147609
2300000000.0 0.35387644834166454 0.017948117518412996
2320000000.0 -0.38106419958209253 -0.0703707003081963
2340000000.0 0.3664716005217027 -0.22645328300022896
2360000000.0 0.26129191065473434 0.3996107608440474
2380000000.0 -0.3463924035482428 0.4000721372055505
2400000000.0 -0.5389742324607896 -0.21547931009044533
2420000000.0 0.14944294225266677 -0.6090813580570461
2440000000.0 0.63522527310157 0.2054701611784669
2460000000.0 -0.5502360044378424 0.43205632275193445
2480000000.0 0.052646220447551614 -0.7223594519296996
2500000000.0 0.3625672412386061 0.6429947362018302
2520000000.0 -0.6106175934476321 -0.42843565302815384
2540000000.0 0.6715016244703506 0.31745427468167414
2560000000.0 -0.6467583290366149 -0.3329847849692304
2580000000.0 0.17676130333035617 0.6885143000827528
2600000000.0 0.35571400065917314 -0.5878971557427882
2620000000.0 0.04564313843572709 -0.6584343907649854
2640000000.0 -0.43660589763516133 0.4511749231070029
2660000000.0 0.5727246704087763 0.15331144814506278
2680000000.0 -0.4068037453775577 -0.3780999110664936
2700000000.0 0.24183604195570674 0.45486164066217233
2720000000.0 -0.1515618196383583 -0.45295554664129384
2740000000.0 0.15148925986745485 0.41711621954737155
2760000000.0 -0.1462505054029929 -0.39050965402800636
2780000000.0 0.07432706502223888 0.3892748243621463
2800000000.0 0.19390549535714482 -0.33280701558698716
2820000000.0 -0.3490769084131746 0.1513661008741839
2840000000.0 0.37867917828994185 0.024839089102355914
2860000000.0 -0.37174640851968227 -0.07640689446719894
2880000000.0 0.3114947156384405 0.2194104631075338
2900000000.0 0.09511098819014173 -0.3681903966706169
2920000000.0 -0.2936374234900041 -0.24452002150398586
2940000000.0 -0.3539451835609348 -0.14209857228554224
2960000000.0 -0.01773331545199132 -0.3789956089962193
2980000000.0 0.27122192254306576 -0.26601870608640465
3000000000.0 0.3538092343838752 0.14367870240367536
3020000000.0 -0.23750728094264686 0.2930961964987936
3040000000.0 0.15580838515027498 -0.33739797807366423
3060000000.0 0.0024378720835721798 0.3682007629427369
3080000000.0 -0.06624081436714652 -0.3539322459265346
3100000000.0 0.2011518054163014 0.28461560911162753
3120000000.0 -0.30610853273069255 -0.131235055702692
3140000000.0 0.3025339573868363 0.08378594004744223
3160000000.0 -0.1840977653419591 -0.22768536189653168
3180000000.0 -0.2711876122005258 -0.003599879599584302
3200000000.0 0.12619754787100956 0.21276951793839718
3220000000.0 0.14312968024508851 -0.16088299443624868
3240000000.0 0.18424263914408964 -0.011062797186414128
3260000000.0 -0.154391296283808 -0.02543236925740538
3280000000.0 0.03533241410578076 0.1274963034664998
3300000000.0 0.004098783837600723 -0.11029679253280773
3320000000.0 -0.06550149258573172 -0.07122036345172496
3340000000.0 0.004977922729556057 0.092948776114953
3360000000.0 -0.07439026421077168 -0.04920643197113505
3380000000.0 -0.048845697781009535 -0.07062152590763682
3400000000.0 0.0778679335941892 0.02634733875847658
3420000000.0 0.07467075764086387 0.014266619387313731
3440000000.0 0.02107545015587414 0.039864489911019665
3460000000.0 0.014422259403617082 0.02335001304419379
3480000000.0 -0.015537107853980374 -0.0058139126937514565
3500000000.0 0.008310450712024176 -0.006646463899191518
3520000000.0 0.017025394626811723 0.008396500485057204
3540000000.0 -0.014891297948848683 0.032654907289435015
3560000000.0 -0.05105928884580186 0.0438114829078565
3580000000.0 0.018523904398736735 -0.10464830202234021
3600000000.0 0.09211496555326157 -0.11608917766975431
3620000000.0 0.17486459375954538 0.044131714229970025
3640000000.0 -0.15124188696813431 0.10784232674618438
3660000000.0 -0.16004447546370257 -0.05507602709209682
3680000000.0 0.03358686429112701 0.16425542729367282
3700000000.0 0.20193808553721843 -0.01759623424878656
3720000000.0 -0.27203735605495327 -0.019453705489920002
3740000000.0 -0.1496355091004157 0.23580333443342635
3760000000.0 -0.11353097489568882 0.26084465799312917
3780000000.0 -0.07497827676943762 0.276044635665216
3800000000.0 -0.28655712415144324 -0.034326313168704624
3820000000.0 -0.23181715331557254 0.18817820139241592
3840000000.0 0.27935655898513273 -0.13034327556113778
3860000000.0 0.21726356863009838 0.2202118774684113
3880000000.0 0.29522733597477674 0.09456256140921629
3900000000.0 -0.29671486044459017 -0.007945334812576914
3920000000.0 0.1834554900842619 -0.19480837338365287
3940000000.0 0.017964037586558117 -0.2573915637143846
3960000000.0 -0.24693614374943001 -0.003949542741971568
3980000000.0 -0.17677219180162831 0.16338842057719083
4000000000.0 -0.23991974602418423 0.07708706246625288
