!Created with skrf (http://scikit-rf.org).
# Hz S RI R 50.0 
!freq ReS11 ImS11
400000000.0 -0.3328014836881099 -0.7894328802857763
420000000.0 -0.7394986321262061 0.40111070247333475
440000000.0 -0.1780784277719688 0.7521055306386761
460000000.0 -0.7005102837931414 -0.15293419308872394
480000000.0 0.35714608421091465 -0.5599166739327692
500000000.0 0.0189874868686091 -0.611789015983979
520000000.0 0.5317342758763839 -0.07559649705064221
540000000.0 -0.46111124620909394 -0.09245142824708415
560000000.0 0.4273236519902066 0.0675749953447043
580000000.0 0.24899994022786442 0.29761637691252696
600000000.0 -0.12735872511579238 -0.33719990346125217
620000000.0 0.012247055790006203 -0.37039772787067454
640000000.0 0.15099632552847764 -0.387597046857731
660000000.0 0.25572603619913675 0.3715194787649623
680000000.0 0.012496794944839996 -0.4691848780647681
700000000.0 0.2595608786784798 -0.3762049769122196
720000000.0 -0.40208333594188717 0.18331853007008905
740000000.0 0.162591802722154 0.36343940669775293
760000000.0 -0.3396947696235399 0.1004561230419455
780000000.0 0.26765577413793457 -0.176930908851052
800000000.0 0.1726518018242179 -0.2181897156207893
820000000.0 -0.21175766348444203 0.08586332342917022
840000000.0 0.1674128606959343 0.10740811837878461
860000000.0 0.12871423585593206 -0.10139580576003641
880000000.0 -0.12949237530988966 0.0013223957552174022
900000000.0 -0.01714515861089024 0.08814288987152538
920000000.0 -0.011215948722918761 0.0528455506245735
940000000.0 -0.024287902501291692 0.02189159569336359
960000000.0 0.012819171860770568 -0.040769185227598696
980000000.0 0.026102706952242507 -0.053527917905085175
1000000000.0 0.05123147279532786 -0.06425983814088933
1020000000.0 0.12317618520484785 0.02330997769394633
1040000000.0 -0.05377911694034094 0.14115948324148136
1060000000.0 0.028384460104835925 -0.17934052450754515
1080000000.0 -0.05003352953477499 0.20412222469080848
1100000000.0 0.19569250571580324 -0.13219813469704317
1120000000.0 -0.06284359949545532 -0.2562776771662818
1140000000.0 -0.12004377646076068 -0.2537615677848244
1160000000.0 -0.26655247361655454 -0.11898752048740259
1180000000.0 0.10122384377800844 -0.29923672639210247
1200000000.0 0.22102212630668308 0.25473740056440697
1220000000.0 0.013666663274621913 -0.35910717288788474
1240000000.0 0.07622524132326086 0.3679841376122402
1260000000.0 0.38282717589798637 -0.028470353253385695
1280000000.0 0.16015865428598328 -0.3562318395615253
1300000000.0 0.3836218290466552 -0.09542395818120238
1320000000.0 0.26632823476683104 -0.3161162406246009
1340000000.0 -0.36580014632157143 -0.19482339975934423
1360000000.0 -0.4017576485759883 0.0795327384603177
1380000000.0 -0.2668992883936945 0.2984475997335679
1400000000.0 0.2378146065877801 0.3106293774295595
1420000000.0 0.0004880090254030769 -0.37157766807862064
1440000000.0 -0.044319539606906974 0.3426965138640729
1460000000.0 0.15453467817241529 -0.2665909389526994
1480000000.0 -0.22213930760239442 0.15014246837367926
1500000000.0 -0.07912892763281903 0.21653618197889213
1520000000.0 0.1577020435681705 0.12691056547910481
1540000000.0 -0.05399251374850277 0.15305721280036694
1560000000.0 0.09068302444772035 0.08641605662857893
1580000000.0 0.09101567699937754 0.04094550364608885
1600000000.0 -0.02825882006480487 -0.07550440940097813
1620000000.0 -0.041763187246669435 -0.048517291431112324
1640000000.0 0.014071810895160377 -0.03240587492114464
1660000000.0 -0.0031694278619518704 0.00549111393400387
1680000000.0 -0.012351951442422257 0.004524627526697912
1700000000.0 0.01765784019080122 -0.0002270769029881695
1720000000.0 -0.014801316863972602 0.0020239213877245713
1740000000.0 -0.017297268108975722 -0.036317660748867116
1760000000.0 0.031858221272162625 -0.06136905706957468
1780000000.0 -0.028863766540376527 0.10075729021537046
1800000000.0 0.1310286715073429 -0.06602247571575595
1820000000.0 -0.14732773367898855 0.09238406781060889
1840000000.0 -0.19048333467844078 -0.07208284761690585
1860000000.0 0.1872335163253739 -0.14204339357843224
1880000000.0 -0.027641448400587687 0.27575051213460716
1900000000.0 -0.2853151041007829 0.1242906008759717
1920000000.0 0.21557604508520195 -0.2630594264528549
1940000000.0 -0.20226299922037627 0.3050839975795853
1960000000.0 0.22440820523915686 -0.30956470187817064
1980000000.0 -0.2535526258290097 -0.2994166088759343
2000000000.0 -0.4023811527755655 0.01656864410074187
2020000000.0 -0.41416056287170877 0.010741119159891118
2040000000.0 -0.033932517344716216 0.42791718904438136
2060000000.0 0.40357764989415434 -0.14354777577909314
2080000000.0 0.03963342957240287 -0.4211542219362347
2100000000.0 -0.389284920021087 -0.14912539810855457
2120000000.0 -0.17977957705808478 0.3569520386652272
2140000000.0 -0.37922300683900917 -0.03738397187841848
2160000000.0 -0.33168344255227705 -0.12837134820193088
2180000000.0 0.1733903851028467 -0.2978238616644619
2200000000.0 0.28610834184851075 -0.18302063279808525
2220000000.0 0.18659184714267602 -0.284551336475453
2240000000.0 -0.2504282321117375 -0.22912777917957047
2260000000.0 -0.30978236896418576 -0.13180687253103152
2280000000.0 -0.3038257070301847 -0.16395941853666013
2300000000.0 -0.3514212779406904 -0.09941581594107071
2320000000.0 -0.20984537181798063 0.344653646822584
2340000000.0 0.10953388619223155 -0.4324621330546237
2360000000.0 0.20706050771618903 0.44490412553244923
2380000000.0 -0.5317302627431751 -0.08970325054929104
2400000000.0 0.4029152392869963 -0.426915391919371
2420000000.0 0.19321996457436857 0.6053694231461534
2440000000.0 -0.6673371074928164 -0.12055979564697646
2460000000.0 0.570921750764842 -0.4278544141050375
2480000000.0 -0.2506157826459858 0.6965096680732004
2500000000.0 0.20889835858297456 -0.7288116778746938
2520000000.0 -0.2646560102553968 0.7182067142878085
2540000000.0 0.570773662825979 -0.5120790253690528
2560000000.0 -0.7605084009229355 0.024090854448734853
2580000000.0 0.5381741691844336 0.5174674875056868
2600000000.0 -0.05219202238110942 -0.7226913779489408
2620000000.0 -0.3754547164901915 0.5857612453643035
2640000000.0 0.07669922544576425 0.6571145356950892
2660000000.0 0.24100729932595183 -0.5730282831077423
2680000000.0 -0.4473609961403808 0.3672525042124588
2700000000.0 0.5009748718111492 -0.19129354618875055
2720000000.0 -0.49034834509465425 0.03634461115183827
2740000000.0 0.40478427240782594 0.20437265742978386
2760000000.0 -0.4051701786256767 -0.11518209955578004
2780000000.0 0.38651430150774924 -0.07652541905606526
2800000000.0 -0.22480411076167006 0.2963101238393019
2820000000.0 0.14131198306175538 -0.3275793627831759
2840000000.0 0.05038317715780856 0.350030269670241
2860000000.0 -0.3478497735346116 0.04371920280394598
2880000000.0 0.20591915999338634 -0.27839783838097576
2900000000.0 -0.2952062210248603 0.1781042581371546
2920000000.0 0.3290991163770789 0.09131207304319737
2940000000.0 0.2713469087252433 -0.20751136412940238
2960000000.0 0.2384364951720626 -0.2455386145764337
2980000000.0 0.3332009767756095 -0.08825217809784608
3000000000.0 0.32427836934990856 0.13505646396527607
3020000000.0 0.20810581635453465 0.28315635388166693
3040000000.0 -0.15311449781572892 0.3133883020519627
3060000000.0 -0.33668602908110346 -0.06336245792860053
3080000000.0 0.12633197273532432 -0.3076622667704348
3100000000.0 0.25640154775262525 0.19112431322377174
3120000000.0 -0.3047171938382079 0.02649254748061975
3140000000.0 0.0945162499147283 -0.27747643186149035
3160000000.0 -0.045712591000987006 0.2703996061579724
3180000000.0 -0.1948003873031612 0.15695247872801268
3200000000.0 -0.22001925937325953 0.02416706074002253
3220000000.0 -0.15207626260113202 -0.1124500636563687
3240000000.0 0.08030843894642738 -0.1352958610379352
3260000000.0 0.015755225857916805 0.12781583466294044
3280000000.0 0.04249337016167633 0.09544414137223756
3300000000.0 -0.06083144214358896 -0.05469436218657121
3320000000.0 0.057552697287353315 -0.02141268337508985
3340000000.0 0.017430567986325318 -0.0432724922633855
3360000000.0 -0.009511337431404168 0.04244950738851304
3380000000.0 0.046641364973000296 -0.0064083731298242045
3400000000.0 0.03880728569268705 -0.03252169307384698
3420000000.0 -0.03732121739617633 -0.043913994659097545
3440000000.0 -0.05903839795882138 0.03685912577402306
3460000000.0 -0.0040192464723350025 -0.08789042188057132
3480000000.0 -0.09241509077266127 -0.04997470766150618
3500000000.0 -0.09438153987898715 0.07589664976918313
3520000000.0 -0.13236394083179115 -0.027296811333260482
3540000000.0 -0.15244624728735925 -0.022442209250406735
3560000000.0 0.035852340477792406 0.16506474764386833
3580000000.0 0.05126040411462092 -0.16931195237099042
3600000000.0 -0.042985956476726504 -0.1727175570311757
3620000000.0 0.12321374820950319 -0.13108309166576035
3640000000.0 0.16315459435801438 0.08059850314298814
3660000000.0 -0.03645731733657394 0.17745968047514313
3680000000.0 -0.1773368138138881 0.03204416753555824
3700000000.0 -0.15057148974452264 -0.09227216865060262
3720000000.0 -0.048988972078553544 -0.16415043434937637
3740000000.0 0.11710770814692995 -0.11155124280046064
3760000000.0 -0.1511821665257727 0.010570998462547663
3780000000.0 0.07722246087764288 -0.11430180166160943
3800000000.0 0.06035481900310474 -0.1023716632387764
3820000000.0 -0.10191332461096364 0.038665762484011004
3840000000.0 -0.10198653742620765 -0.007468225368145232
3860000000.0 -0.09862029683889362 0.04348610414005426
3880000000.0 -0.0551693108436554 -0.1029985328728857
3900000000.0 -0.05970272897635311 0.11005698083296332
3920000000.0 -0.07155830864914285 0.10721036328715776
3940000000.0 -0.12025328696033594 -0.03812781820249875
3960000000.0 -0.12153644708709749 0.015886723087007924
3980000000.0 -0.04319783169221711 0.10762861473140929
4000000000.0 0.09904078255419847 -0.000650456151399797
