!Created with skrf (http://scikit-rf.org).
# Hz S RI R 50.0 
!freq ReS11 ImS11
400000000.0 -0.6188805242380757 -0.5700204144110582
420000000.0 -0.6636626269725607 0.5129800466513839
440000000.0 0.05004543336482631 0.7813484928590176
460000000.0 -0.35540641135580747 0.6314304559951023
480000000.0 -0.3255312332630871 -0.5710971917874063
500000000.0 0.4951295796332375 -0.3766227509733491
520000000.0 0.54354161730749 -0.12067866986671022
540000000.0 -0.40084822352158755 0.2845046223264122
560000000.0 -0.452240825102391 -0.022668048968967878
580000000.0 -0.38785633305263084 -0.03131564124380075
600000000.0 0.11135181230272222 0.33815042886714414
620000000.0 -0.16591036265256257 0.31446164462977166
640000000.0 -0.01143480561607635 -0.4011951859681161
660000000.0 0.3466295459860012 0.2694480887128623
680000000.0 0.006751631919881312 -0.45419557461803184
700000000.0 0.2601178520745214 -0.3630522859726412
720000000.0 -0.4261532380900818 0.031553019857297845
740000000.0 -0.284791879535171 0.266999832830086
760000000.0 0.050601944994419876 -0.3552185951542688
780000000.0 0.08580725383067866 -0.3207114385520312
800000000.0 -0.061895784889584575 -0.28670985503338886
820000000.0 -0.23037682104547266 0.08426273249107989
840000000.0 -0.05346801052321179 -0.18556632153102648
860000000.0 -0.04376851212847828 -0.1504576804580971
880000000.0 -0.06488026753131196 -0.10528733584464559
900000000.0 -0.03797228134436094 0.08426554342467939
920000000.0 -0.05204322287021559 -0.031134161540527207
940000000.0 -0.021116316308755895 0.03976493328385225
960000000.0 0.00039532790741732976 -0.0557503936698266
980000000.0 0.06926684531906878 0.02396084451781214
1000000000.0 -0.030921823718471384 0.07589531723914052
1020000000.0 0.06349206181075388 0.0752240550671079
1040000000.0 -0.08722340746758134 -0.07701217213797609
1060000000.0 -0.14722161818081536 0.01198700897940831
1080000000.0 0.114069230933585 0.13694539384666263
1100000000.0 0.08067750777060892 -0.19649479479410673
1120000000.0 -0.24655063216925252 -0.022215102111754422
1140000000.0 -0.2676188569447825 -0.06356033613451988
1160000000.0 0.15617950993786886 0.25638995436657763
1180000000.0 0.22790500782600576 0.22998853869085945
1200000000.0 -0.3317848787489189 -0.07433618022855502
1220000000.0 -0.0054372313806457725 0.3625074986252737
1240000000.0 0.3748276844443878 -0.08379920514470474
1260000000.0 -0.24751629047719634 -0.3171271136718398
1280000000.0 -0.23850332665817017 0.3355950593498353
1300000000.0 0.09402040397723876 0.40326520275078204
1320000000.0 0.2787398381325945 0.3083299914083419
1340000000.0 0.27797494128401795 0.31139679480832905
1360000000.0 0.4068287640396841 -0.06704213598825619
1380000000.0 0.37762049128149827 -0.11964075015353769
1400000000.0 0.3313014002250053 -0.19496772905233675
1420000000.0 -0.04989968377870382 -0.3646129312893011
1440000000.0 -0.32666989964259663 0.11956467483897193
1460000000.0 0.27915423460048683 0.14846704271255287
1480000000.0 0.1237515944061024 -0.26039709307839404
1500000000.0 0.13020565009600413 0.22345197949283777
1520000000.0 -0.17877753392602316 -0.1273676649071758
1540000000.0 0.14696675806701298 -0.08942346743172555
1560000000.0 0.0030275177609373764 0.13424418667978966
1580000000.0 0.11053747650575999 0.021646240978735284
1600000000.0 -0.0774955364099739 -0.037986597229073014
1620000000.0 -0.028595294770088625 -0.057239787817158556
1640000000.0 -0.0377404854009154 0.0042748615124285055
1660000000.0 0.0022437256323936733 0.006354749828123733
1680000000.0 -0.008565544455611581 -0.01482129170467684
1700000000.0 -0.008556881758973803 -0.03758520208614819
1720000000.0 -0.02347116825177686 0.04835567584047724
1740000000.0 0.035755058469584315 -0.05533777975312144
1760000000.0 -0.07905264641427502 0.027777665302325377
1780000000.0 0.018981227398741637 -0.11047549828117342
1800000000.0 0.13591355726340465 0.06511335666745834
1820000000.0 0.062244969783178845 0.17466717905943926
1840000000.0 -0.19842887270025258 -0.0924340884828597
1860000000.0 0.16136812220895022 -0.19660281156347137
1880000000.0 -0.041372819564065653 0.2862246540875579
1900000000.0 -0.1208336529014692 -0.2984709601037609
1920000000.0 0.1991522386597898 0.2913926486298322
1940000000.0 -0.22645356420234194 -0.30419318686349267
1960000000.0 0.26958757142256023 0.29096915179833416
1980000000.0 0.10794278383942581 -0.3887471828884571
2000000000.0 -0.17379140497998222 -0.37220914819170525
2020000000.0 -0.35946973260928683 -0.22123817352071298
2040000000.0 -0.23261608914555143 0.3621392039208439
2060000000.0 0.41155984165697534 -0.11300637132156681
2080000000.0 -0.103037832989032 -0.3975663437790183
2100000000.0 -0.32275638441541016 -0.22517229781906906
2120000000.0 -0.30251095263228306 -0.224392553601655
2140000000.0 -0.3155272143097469 -0.1814458574358655
2160000000.0 0.05525924926111674 -0.3430834690120946
2180000000.0 -0.00013613432232806666 -0.33029836937699925
2200000000.0 0.13595359892040187 -0.28775607617075266
2220000000.0 0.3029767968098108 -0.07757781218457074
2240000000.0 0.12412243285265043 -0.2934265927585218
2260000000.0 -0.32036983307517203 -0.04016568215294318
2280000000.0 0.05834583841251829 0.32621067974140405
2300000000.0 0.31798529695966987 -0.1371602908261843
2320000000.0 -0.18157135682349096 -0.32923145637154894
2340000000.0 0.31425201954094134 0.27813664448723074
2360000000.0 -0.41610370971938154 0.21203147968209152
2380000000.0 -0.13539503160911154 -0.4989421401201304
2400000000.0 0.5507250600725596 -0.13510804216088618
2420000000.0 0.20207777903020882 0.5793187099771341
2440000000.0 -0.590825421197425 0.2845897633583159
2460000000.0 -0.13862417408817818 -0.6747518851717835
2480000000.0 0.6778104921123543 0.2246306222177707
2500000000.0 -0.7181796940637645 0.1257098681945991
2520000000.0 0.6972477149049615 -0.24300033170502608
2540000000.0 -0.7309588163290405 0.11128578755320094
2560000000.0 0.5450426005356716 0.4924360417911646
2580000000.0 -0.11951368468792657 -0.7112066905113251
2600000000.0 -0.38961586619783856 0.583579157272564
2620000000.0 0.12568477909083828 0.6645694212573446
2640000000.0 0.004968992931633786 -0.6446621421748411
2660000000.0 -0.06783113675968355 0.6029097196397396
2680000000.0 0.035651838192276034 -0.5653509636384864
2700000000.0 -0.03572551033526094 0.525063154939034
2720000000.0 0.12352365983679946 -0.4712407981522972
2740000000.0 -0.29410921328967815 0.34632455640740123
2760000000.0 0.3593912465780584 -0.2318870011527292
2780000000.0 -0.39488857926745463 0.09310883520048363
2800000000.0 0.34687918477578605 0.18064100314421097
2820000000.0 -0.3734355792908065 -0.08675162026633865
2840000000.0 0.3803519395418854 0.03217439252699409
2860000000.0 -0.3669453756754406 -0.105202613469578
2880000000.0 0.24268672902514293 0.2953237720304477
2900000000.0 0.27891987536839113 -0.2594648006561018
2920000000.0 -0.16025209794420628 -0.3469751309552445
2940000000.0 -0.2980013629374581 -0.2350734130210331
2960000000.0 -0.13306382935968586 -0.35589013660074637
2980000000.0 0.2747775048391525 -0.26222997346348864
3000000000.0 0.23936560843180188 0.2978507634556574
3020000000.0 -0.35014986564363887 0.1513355121668156
3040000000.0 -0.0027614385490116497 -0.37652535331399634
3060000000.0 0.22727112649858128 0.2941951408724828
3080000000.0 -0.33868892135976547 -0.13009915810734685
3100000000.0 -0.2951262542227471 0.1752091371739734
3120000000.0 0.28730642455491745 0.1715319038321585
3140000000.0 0.2828708714118481 -0.1487811066841698
3160000000.0 -0.1803728614474881 -0.2358916711899135
3180000000.0 0.18457983789653878 0.19699791353005117
3200000000.0 -0.012889218855818547 -0.24088142215712682
3220000000.0 -0.17673666982360597 0.11516854472434886
3240000000.0 -0.17420608186410555 0.05704356382601494
3260000000.0 0.029319301725943953 -0.15439389266324238
3280000000.0 -0.08832354131168468 0.09782715415419191
3300000000.0 0.10879632935071124 0.03170243814624435
3320000000.0 -0.08281414739309403 -0.0308033763570672
3340000000.0 0.02208483640124969 -0.08422572413146351
3360000000.0 0.010717474836348792 0.07394015390991887
3380000000.0 0.06744225024036415 -0.02855611052809234
3400000000.0 0.051526422419927165 -0.06898602681962918
3420000000.0 -0.01790921323031153 0.06747832679619341
3440000000.0 -0.046822369444182214 -0.025931745948389023
3460000000.0 0.03838003542987151 -0.011687567608600147
3480000000.0 0.025066249815850313 0.008607072654852369
3500000000.0 -0.018549021859463027 0.02289356675118307
3520000000.0 -0.05660257126167198 0.020142959509525705
3540000000.0 -0.010710639235664496 -0.0782447739431832
3560000000.0 0.097774037616748 -0.04040234819742246
3580000000.0 -0.03534164901496112 0.12498182020008394
3600000000.0 -0.13376933899285942 -0.05273195983183993
3620000000.0 -0.12834158825534137 0.09307499776971831
3640000000.0 0.021205373055856673 0.17534775438917555
3660000000.0 0.10860210765576854 -0.1598871622436274
3680000000.0 -0.11336053726985187 0.14747642266064367
3700000000.0 -0.03483955768316019 0.1999763714167634
3720000000.0 0.032181393769228815 -0.22795180972759363
3740000000.0 0.24897298542082882 0.04822840183440465
3760000000.0 0.2617823325130173 -0.050551087620749245
3780000000.0 0.2304926142504944 0.15459763746915928
3800000000.0 0.02817021605979718 0.2836943362036696
3820000000.0 -0.2575843981693794 0.13890696800806906
3840000000.0 0.2283982035918169 -0.1915225573719684
3860000000.0 0.1550912547887269 0.2559361368533182
3880000000.0 -0.01458527969021106 0.2977587463134055
3900000000.0 0.05012931590931017 -0.28629713889297265
3920000000.0 -0.1856195372310863 0.2130772184627641
3940000000.0 -0.0683359324757803 0.2716881529377384
3960000000.0 0.26821364747222265 0.0605435013943917
3980000000.0 0.24000851174479101 0.124640775144106
4000000000.0 -0.058428210777478666 -0.25153195765459846
