!Created with skrf (http://scikit-rf.org).
# Hz S RI R 50.0 
!freq ReS11 ImS11
400000000.0 -0.40703706456694994 -0.733947388863637
420000000.0 -0.8355774758594887 0.087353827030357
440000000.0 -0.33715463651507077 0.7195297616301357
460000000.0 -0.2052907160571235 0.7070750661338768
480000000.0 -0.5101236639221789 -0.41663276714135256
500000000.0 -0.12353235681044294 -0.6186955858979488
520000000.0 -0.21205993340723858 -0.4997497682341899
540000000.0 -0.36378389970267544 0.2986092790020389
560000000.0 -0.4390451051204569 -0.011507864369908869
580000000.0 -0.3051857283066417 -0.2344209958327727
600000000.0 0.09579456919968732 0.33416199557943216
620000000.0 -0.1782423616961129 0.303853866222962
640000000.0 0.3529552530066251 -0.18002564616273
660000000.0 -0.3458366358425663 0.27401566272740396
680000000.0 0.4294024838529901 -0.1837593049816805
700000000.0 0.31599141178692236 -0.33490126984999735
720000000.0 -0.17653939247846853 0.4018551661139257
740000000.0 0.26711892880695215 0.28653683491637844
760000000.0 -0.31485743383402703 -0.15979987366597614
780000000.0 -0.21698674435516624 -0.22669369530812425
800000000.0 0.22641865273920816 0.1587050775948812
820000000.0 -0.10516530994565405 0.21359225056086786
840000000.0 -0.01565570595882282 -0.20050544756101318
860000000.0 -0.035769359420790195 -0.1702175140636308
880000000.0 0.06224297691093206 0.1321401138968845
900000000.0 -0.041347675197684015 0.10398147956328901
920000000.0 -0.07641081091561447 -0.023802722796543614
940000000.0 -0.013951373206202846 0.060418443511294495
960000000.0 -0.01764051638668361 -0.07016235242737605
980000000.0 0.009149499396395313 0.08639948687172638
1000000000.0 -0.05852812598855201 -0.07570645917808896
1020000000.0 0.07568200145487153 0.06771852316141039
1040000000.0 0.12137910837479515 0.003901386851583652
1060000000.0 -0.10096606640512137 0.07929045721658755
1080000000.0 0.05495862931886935 0.15632841163245206
1100000000.0 -0.04538423862011721 -0.19172863006919605
1120000000.0 0.13932931766732504 0.18829266532945366
1140000000.0 0.2380863229625888 0.13294146073434857
1160000000.0 0.1126556563274485 -0.2890821217077261
1180000000.0 -0.1081170761429522 0.3299184094193748
1200000000.0 0.05112515558614789 0.3528763531180633
1220000000.0 0.31519562033882315 -0.17949321829501794
1240000000.0 0.027423529849671686 -0.37699829061603796
1260000000.0 -0.3870210109611343 -0.05375569204412527
1280000000.0 -0.38828392424564695 0.09424970280624395
1300000000.0 -0.40982675278015185 -0.01396769419146874
1320000000.0 -0.23773148790782486 0.3473577746370986
1340000000.0 0.3406943954943103 0.24986225170598475
1360000000.0 0.40363473801452954 0.08070752902751378
1380000000.0 0.38411374691183087 -0.1093982979584866
1400000000.0 0.14832511862473616 -0.3546858352149806
1420000000.0 -0.2409954772277862 -0.2701616864881998
1440000000.0 -0.2257242554786677 -0.24865583299147181
1460000000.0 -0.3108295405539927 -0.06536132766201067
1480000000.0 0.29405841108002156 0.051477326229456846
1500000000.0 0.06474906280076585 0.2588299551344759
1520000000.0 -0.13221512780425715 -0.18711780429137087
1540000000.0 -0.17978167417729418 -0.05843263246640524
1560000000.0 -0.0903150872588389 0.10750498603281938
1580000000.0 0.047122152388127815 -0.08159459398281649
1600000000.0 -0.004314698415997802 0.05470914067055868
1620000000.0 -0.03485774160995557 0.02896216570811873
1640000000.0 -0.038069776571216685 -0.002886088686453516
1660000000.0 -0.010304691866904962 -0.02151855819749156
1680000000.0 0.006014357483209171 0.014104134025229111
1700000000.0 0.011813958496316997 0.020034394310423087
1720000000.0 -0.01964057430130036 0.0343788356515112
1740000000.0 0.015120991532398306 -0.06232891377478689
1760000000.0 0.05356897967078389 0.07059628511437634
1780000000.0 0.028628314829978446 -0.11067126800212644
1800000000.0 0.14268058994227265 -0.04623875232104869
1820000000.0 0.15748742171446783 0.0906001778023942
1840000000.0 -0.19636930647743991 -0.08316653044042695
1860000000.0 0.2064581883969477 -0.14660669788476285
1880000000.0 0.14180782856644614 0.2507410499922413
1900000000.0 -0.313375252261012 0.0466093398404351
1920000000.0 0.15273343473530424 0.3034651741467973
1940000000.0 0.3123569630522082 -0.2056710951721198
1960000000.0 -0.22604486234914345 0.33197319260371055
1980000000.0 0.32002780016306903 -0.264342428406814
2000000000.0 -0.3992746293178801 -0.14295815738348203
2020000000.0 -0.18299949582689823 0.38207001299488685
2040000000.0 0.11573412834709472 0.4082366492345708
2060000000.0 0.420465717572224 -0.022077250100561434
2080000000.0 0.22316518179590883 -0.3481887809451758
2100000000.0 -0.23568708234115182 -0.3248211697606761
2120000000.0 -0.3750077479538204 -0.07841667820771432
2140000000.0 -0.34700942579111543 -0.11227033587856741
2160000000.0 0.31219821549349025 -0.1546150765584393
2180000000.0 0.3368824665158358 -0.026471274910415867
2200000000.0 0.24055861637194634 -0.2252298024747765
2220000000.0 0.28503146610353675 -0.15181979935973713
2240000000.0 -0.01923987976566237 -0.32734482062583925
2260000000.0 -0.32551354030061236 0.05877669398106193
2280000000.0 -0.1927462617458706 0.27941849807032926
2300000000.0 0.3025557496733281 0.1990123333452865
2320000000.0 -0.19446127785053297 -0.34449279491493756
2340000000.0 0.4334362636997003 0.07291120070260458
2360000000.0 -0.18971896445063471 0.4459003102800975
2380000000.0 -0.5050878249164742 -0.17948301015544782
2400000000.0 0.09121620190802307 -0.5804438924759336
2420000000.0 0.623957720269887 -0.12131690776688117
2440000000.0 0.21995211995083055 0.6391691634789542
2460000000.0 -0.7011930727437803 0.09243834616376234
2480000000.0 0.3830470805310645 -0.6230873312684163
2500000000.0 -0.12451370551945723 0.7342082711281387
2520000000.0 0.0814378524596854 -0.7451628385758033
2540000000.0 -0.2717024410479119 0.6962025006826047
2560000000.0 0.5180962454950778 -0.5247752678572348
2580000000.0 -0.7198992885778001 -0.008326285628619607
2600000000.0 0.5476854992872511 0.4297749461666161
2620000000.0 0.6548763854855296 -0.12982558059275584
2640000000.0 -0.6267883421520462 -0.08496540709856448
2660000000.0 0.5079305271583722 0.30638614072542875
2680000000.0 -0.26816720349506495 -0.47981777293356026
2700000000.0 -0.1436659473918418 0.49018829597549807
2720000000.0 0.3003788612239515 -0.3676009207747291
2740000000.0 -0.41261666312343637 0.16468529628879075
2760000000.0 0.3312281654143522 -0.25846049265037996
2780000000.0 -0.20472339733294515 0.33983023706367005
2800000000.0 0.2157027062336583 -0.3128716381090754
2820000000.0 -0.2145725168763895 0.3000631966348938
2840000000.0 0.3598785945809495 -0.04073587483414698
2860000000.0 -0.16512268857148635 -0.32240837998347954
2880000000.0 -0.29946472440000094 0.21037957731346424
2900000000.0 0.20818895618587838 0.3101332316059793
2920000000.0 0.19150830767856486 -0.32714003559481586
2940000000.0 -0.23393171937754959 -0.29853982463017276
2960000000.0 -0.3330073886211223 -0.1727448890376993
2980000000.0 -0.056705831199082464 -0.3659346436203135
3000000000.0 0.3698624896215581 -0.00831981928161459
3020000000.0 -0.11161901800785524 0.34700422029856126
3040000000.0 -0.07858900555629633 -0.35118231813563344
3060000000.0 0.3189683729629398 0.15968310513779863
3080000000.0 -0.3216105460276144 -0.12429759710256535
3100000000.0 0.3065801243224674 0.1315580018146223
3120000000.0 -0.3184952987817294 -0.02852028428471617
3140000000.0 0.29734369252612003 -0.073410563669083
3160000000.0 -0.17299441646451158 -0.2283713587149012
3180000000.0 0.2595563709804041 -0.004393575345270547
3200000000.0 -0.2212962052943187 0.05366556284176451
3220000000.0 0.09975279805491705 0.16774448191313218
3240000000.0 0.15254384669816584 0.06077221041680966
3260000000.0 0.03161086180719371 0.1303076736510934
3280000000.0 0.07952800354377519 -0.06826560475566991
3300000000.0 -0.024519134674167355 0.08310038011544997
3320000000.0 0.06783173008109687 -0.02940080438220796
3340000000.0 -0.033735157546442754 0.05961894270491151
3360000000.0 0.06045521819432962 -0.003105868571399175
3380000000.0 0.03901315554361065 -0.035668396756530225
3400000000.0 0.04371995956377284 -0.0007564503742729433
3420000000.0 0.005647455712091742 -0.038859825291139696
3440000000.0 0.0362838966164086 -0.0007082262255736466
3460000000.0 0.015770419063982855 0.02246561777506148
3480000000.0 -0.012290946407823295 0.009956510545150425
3500000000.0 0.00606789550716903 0.006000714263747329
3520000000.0 0.016147770158589803 -0.004857200757381291
3540000000.0 0.019117086060646635 -0.015232082450038178
3560000000.0 -0.006179320075916553 -0.02817428594611909
3580000000.0 -0.03736168460279158 -0.009039059564577692
3600000000.0 -0.05145081269211751 -0.009628748265420553
3620000000.0 0.062113531884490245 -0.03135463075038229
3640000000.0 0.07614176213626409 0.04137008529527983
3660000000.0 -0.02081284605207261 0.101041758118381
3680000000.0 -0.08578512521040088 -0.08526779904116832
3700000000.0 0.12579814310139267 -0.05571933434195935
3720000000.0 0.08419081499860913 0.13365299569537537
3740000000.0 -0.02664587409538252 0.17532710195085566
3760000000.0 -0.07854151902118538 -0.1892448566541165
3780000000.0 0.09093745315931857 -0.2155739937169097
3800000000.0 -0.1440715795044863 -0.21322510953414728
3820000000.0 -0.21685496482865918 0.17451799696161222
3840000000.0 0.23925770220757456 0.16936722361148993
3860000000.0 0.16529343651596556 -0.2577408299650028
3880000000.0 -0.2626208172883079 -0.17552597992255103
3900000000.0 -0.14710450928199267 0.2869302734119732
3920000000.0 0.32479430281670424 -0.009509429299608626
3940000000.0 -0.23414430506875905 -0.2232528059643306
3960000000.0 -0.00213099264449682 0.3157847022365433
3980000000.0 0.16865996135102382 -0.25478455564784835
4000000000.0 -0.24918074422148764 -0.1524169053506958
