!Created with skrf (http://scikit-rf.org).
# Hz S RI R 50.0 
!freq ReS11 ImS11
400000000.0 -0.832680029335566 0.2282181181813387
420000000.0 0.2592473716165875 0.8004562940968779
440000000.0 0.6052933829441444 0.5051478919472886
460000000.0 0.4250989771061252 0.582100309237188
480000000.0 -0.40894310162127007 0.5048393460532398
500000000.0 -0.552370561556541 -0.22778374315947827
520000000.0 0.5248957974107371 -0.004988519998835841
540000000.0 0.2247886904877443 -0.41252836752172045
560000000.0 0.44558177846301006 0.012719188399827209
580000000.0 0.2346619859530859 -0.3225779969686437
600000000.0 -0.04211951186124531 0.357148907601067
620000000.0 -0.3582392148130236 0.009073087372777608
640000000.0 -0.05069581423943501 -0.4038659162894133
660000000.0 0.3192600089434904 0.3032850331788659
680000000.0 0.037033689424785646 -0.45248713419466
700000000.0 0.29871941316766987 -0.3442831442061663
720000000.0 0.297285318975096 0.30560520334832886
740000000.0 -0.2526992219469761 0.2769606452363976
760000000.0 0.27534722465711003 -0.21674670964838416
780000000.0 -0.09404167408672234 0.3141634727928786
800000000.0 0.2348059271104884 -0.19374089290398672
820000000.0 -0.20970646198107673 -0.136337860171089
840000000.0 0.0597072054908045 -0.19805239665388208
860000000.0 0.13927286871034572 0.09595011004185663
880000000.0 0.030580153794885337 -0.11800770393790916
900000000.0 0.08159892629667714 0.037196916855439736
920000000.0 0.014637851025739093 0.05994111386500049
940000000.0 0.01836889092998272 -0.0474619601195986
960000000.0 0.05052173629485607 -0.03045259541515211
980000000.0 -0.04552949943801783 0.03836503251145874
1000000000.0 0.03313490769294896 0.06196526390796184
1020000000.0 -0.08646943389729134 0.017061718288454254
1040000000.0 -0.11517003103709135 0.013527647786927697
1060000000.0 -0.0034709418557105683 -0.15373910607102803
1080000000.0 0.11394921193092329 0.14863499381996487
1100000000.0 -0.21507763862234847 0.014884949958748962
1120000000.0 -0.15994395680861978 0.18120890767261377
1140000000.0 -0.18157449869499842 -0.19944490178795768
1160000000.0 -0.08894130518181143 0.28513249438716115
1180000000.0 -0.07770997209343113 0.3135928014154203
1200000000.0 -0.18889521595681058 -0.2874709552744083
1220000000.0 -0.13481233720332167 0.3389552570873289
1240000000.0 0.18676315455377784 -0.3403776969391273
1260000000.0 -0.3877972469811488 -0.07347135536465059
1280000000.0 -0.40518647204780733 0.03397768184860288
1300000000.0 -0.20478785200292848 0.3646130826786272
1320000000.0 0.24871233331586134 0.34186135163855713
1340000000.0 0.4163273641713817 -0.06609490262986686
1360000000.0 0.2813873263643249 -0.2984655617680857
1380000000.0 0.2761772060911994 -0.2818402093990791
1400000000.0 0.2472879545369861 -0.28633953377337884
1420000000.0 0.030831497906019325 -0.3649567002844908
1440000000.0 -0.3462266813792403 0.009021037662758887
1460000000.0 0.12362446065995493 0.29509739908335675
1480000000.0 -0.06237052131930734 -0.2831788870947698
1500000000.0 0.03649390525773425 0.24734517923929125
1520000000.0 0.11723859390533131 0.18222027891984538
1540000000.0 -0.13199738291303845 -0.12396203270412649
1560000000.0 0.07482741971246662 0.12640443618418462
1580000000.0 -0.08673730020869719 0.07594590750369884
1600000000.0 0.08034582477611896 -0.004108913769264267
1620000000.0 -0.0538180145612284 0.014961588073919837
1640000000.0 -0.027970722870671677 0.0019159786359950173
1660000000.0 -0.004874813614844837 -0.005343204113942349
1680000000.0 -0.0057260345333507625 -0.021293760851125595
1700000000.0 0.011889705554598992 0.037736616665875876
1720000000.0 -0.04639767759797364 -0.020844965797443955
1740000000.0 -0.03646162386819455 0.05657749884820559
1760000000.0 -0.05435379834252927 0.06883959252864603
1780000000.0 -0.11051325835809735 0.021669472128432014
1800000000.0 0.13721076868249674 -0.05295207774443312
1820000000.0 -0.1286185053090807 0.12617642865631756
1840000000.0 0.07876905899711889 -0.20561607093597012
1860000000.0 0.22861203983168327 -0.12858341007261426
1880000000.0 0.2850681928695441 0.08268622943709251
1900000000.0 -0.2912170790511131 0.14100900525363996
1920000000.0 0.3463816719219383 -0.042247338758182706
1940000000.0 -0.18671714423820798 -0.3261895107499575
1960000000.0 0.026032232875193226 0.39742467018909833
1980000000.0 0.2655988125966411 -0.3143365961445867
2000000000.0 -0.33468495961144384 -0.25179085341138896
2020000000.0 -0.422758555820677 0.016544373465348164
2040000000.0 -0.271867753943728 0.3305423225073724
2060000000.0 0.36838301745845997 0.21700915974291177
2080000000.0 0.1918029294081111 -0.3762994785881885
2100000000.0 -0.27199417246079083 -0.2978271038650134
2120000000.0 -0.3643759492891662 -0.11306819090685404
2140000000.0 -0.300925523190803 -0.20376436341385182
2160000000.0 0.23920301122512438 -0.25200571552696666
2180000000.0 0.2724630116329609 -0.1893068459044913
2200000000.0 0.22967198028960664 -0.22478238847721121
2220000000.0 0.1833980852419879 -0.2533115518554769
2240000000.0 0.29027603727662166 -0.1350022812069757
2260000000.0 0.030508262783201213 -0.326923289509847
2280000000.0 -0.3423549829130616 0.012458467862285527
2300000000.0 0.30182660974885817 0.19983336949278818
2320000000.0 0.2173539341193697 -0.3247959913115191
2340000000.0 0.4231428915595322 -0.048169971180605814
2360000000.0 -0.10214904155069274 0.4608258438717446
2380000000.0 -0.4479548222407837 -0.27429024031140686
2400000000.0 0.14784949222363195 -0.5593647157779582
2420000000.0 0.531803839812927 -0.33537712289044497
2440000000.0 0.6353782022044909 0.21610321928495466
2460000000.0 -0.10700822105812868 0.6942466488410793
2480000000.0 -0.544174072719128 -0.47855270841642145
2500000000.0 0.7039729831684385 0.21784047597975992
2520000000.0 -0.7118325617622983 -0.20906688006163926
2540000000.0 0.5271659381602948 0.5161144966352055
2560000000.0 -0.023316476913069376 -0.7292708857289799
2580000000.0 -0.4633633197995937 0.5413049909027035
2600000000.0 0.6544069959855486 -0.21238334460934424
2620000000.0 0.17239151315810794 -0.6336644289977755
2640000000.0 -0.21769503041899518 0.5815878416279048
2660000000.0 0.4497599478833411 -0.3688893847872979
2680000000.0 -0.5304163442346653 0.12120824653436567
2700000000.0 0.48103684464099117 0.1591744231805037
2720000000.0 -0.3559268781761116 -0.3109894720673371
2740000000.0 0.230750526361005 0.37750376733839
2760000000.0 -0.15852271489496933 -0.3842953706838558
2780000000.0 0.08527712438295366 0.3838290143634396
2800000000.0 0.10119779555033526 -0.3631512358076662
2820000000.0 -0.14007605663044825 0.3356097127630616
2840000000.0 0.1542723887949869 -0.3326106094510877
2860000000.0 -0.30428651200037965 0.20712939677232817
2880000000.0 0.3662920733433359 -0.016335254418215917
2900000000.0 0.1795763631726082 -0.31957667989517785
2920000000.0 0.1760749544108387 -0.33442734832211174
2940000000.0 -0.04331248557684346 -0.37964705767345497
2960000000.0 -0.3119217784676195 -0.21184783891025447
2980000000.0 0.14691524927605837 -0.34957020010568934
3000000000.0 0.31756954074114174 0.20385576782255874
3020000000.0 -0.2792041276817702 0.2503151479332287
3040000000.0 -0.0019710938130487604 -0.36791247413319694
3060000000.0 0.18740537919334196 0.30957046102759134
3080000000.0 -0.21209846006636388 -0.2819869270932332
3100000000.0 0.20095741673001877 0.2787079833124463
3120000000.0 -0.2785289671505806 -0.1784887241165838
3140000000.0 0.2912836498726467 0.11887790582905304
3160000000.0 -0.28252000558232243 -0.08492260464732303
3180000000.0 -0.05118961705734332 0.2655741007328223
3200000000.0 0.07455478060263876 -0.22818534002029278
3220000000.0 -0.20721025615184946 -0.012361348771909258
3240000000.0 -0.17682899846346223 -0.02673776966627767
3260000000.0 0.09373695685606531 -0.11748832735973105
3280000000.0 -0.12734695489970135 -0.013004753396418583
3300000000.0 -0.08732387706905136 -0.026401214840987054
3320000000.0 -0.053333961822793055 -0.09240696663498242
3340000000.0 -0.06504166791694165 0.07454031337168511
3360000000.0 -0.05679086389563123 0.06859006726174417
3380000000.0 -0.017412491850987116 -0.07727705231480983
3400000000.0 -0.05349104213430123 -0.05000564741934453
3420000000.0 0.05635946529320103 0.03418628412585747
3440000000.0 0.02369134380677783 0.052577588576539824
3460000000.0 -0.00481837617198635 0.039123036840149096
3480000000.0 0.01940695106437895 0.0707327495520442
3500000000.0 0.059453688250912566 -0.039622462246202486
3520000000.0 -0.06080054652694173 -0.057218598348479977
3540000000.0 -0.09602738682524287 -0.031444014757721545
3560000000.0 0.00423395519369951 -0.08909143064317403
3580000000.0 -0.06708923971743928 0.0738968288023734
3600000000.0 -0.10797501655629588 -0.026188772167235825
3620000000.0 0.12270434247029945 -0.025417384742188725
3640000000.0 -0.11498446175375311 -0.084556374826518
3660000000.0 -0.1655767397032008 0.025009639161098236
3680000000.0 0.029156605449135585 0.19303715649547562
3700000000.0 0.1991272719131967 -0.06130635797140369
3720000000.0 -0.2103558052429219 0.07967824587899798
3740000000.0 -0.06502538618168731 0.2249273835130763
3760000000.0 0.09439505387483155 -0.21929051838663266
3780000000.0 0.058071920653947784 0.24244868372929532
3800000000.0 -0.1624631148688026 0.20343676758613954
3820000000.0 -0.2714304664176762 0.03677662298356509
3840000000.0 0.22834035858183405 0.1675988240835736
3860000000.0 0.22624288035832132 -0.17466834675863888
3880000000.0 0.17274288844016666 0.2038655319555344
3900000000.0 -0.058966449837467835 0.25071028225349673
3920000000.0 -0.28435433269422644 0.005774258841771867
3940000000.0 -0.28511734555970286 -0.01787587118868382
3960000000.0 -0.20757490355188538 0.18837982620722182
3980000000.0 -0.26131988798244404 -0.08242123933729503
4000000000.0 0.15936174155976063 0.20680370018510824
