!Created with skrf (http://scikit-rf.org).
# Hz S RI R 50.0 
!freq ReS11 ImS11
400000000.0 -0.7077547903392243 -0.45816201462405176
420000000.0 -0.5789329113214084 0.6112529591474092
440000000.0 0.15419612098995997 0.7696876623619507
460000000.0 -0.2874116369470256 0.6565898092944861
480000000.0 0.13695543811872438 -0.6437046242119697
500000000.0 0.20486668317661968 -0.5953132590619697
520000000.0 0.3236661701584328 -0.457237512586688
540000000.0 -0.10988344276324585 0.47102465296154217
560000000.0 -0.33412074511288764 -0.29085073544194257
580000000.0 -0.37145329614427725 -0.06504349311655724
600000000.0 -0.33767290024388924 0.06894125781189596
620000000.0 -0.0880554760716702 -0.3598098988209509
640000000.0 -0.10237536090693618 -0.4014856310946189
660000000.0 0.3517685157957753 0.27715796616342114
680000000.0 -0.4523251235343886 -0.09404597141787564
700000000.0 -0.36405090027106796 -0.2571335042534946
720000000.0 0.10131934528483959 0.40082216634180695
740000000.0 -0.35308762632729607 -0.11844456548382296
760000000.0 0.32573021671015 0.1445676606740006
780000000.0 0.3263141677495395 0.0666461465959021
800000000.0 0.29102445706937635 0.06471895990231505
820000000.0 -0.0700501007170732 -0.24774993672040935
840000000.0 -0.21159347335665712 -0.013185374559937757
860000000.0 -0.0611747750496708 -0.15360348643363925
880000000.0 -0.10474990917499256 0.03088526758703432
900000000.0 -0.019700313701098263 0.07837128737059987
920000000.0 -0.05969683115303583 -0.010489288134750903
940000000.0 0.010806069472815987 0.04355981189322103
960000000.0 0.012994124360937416 0.0671163216165461
980000000.0 0.022015245152401542 0.06841248589605908
1000000000.0 -0.052672253077884784 0.04432884172239632
1020000000.0 -0.09332472452408207 0.005966104124294785
1040000000.0 0.07257836911584196 0.0836276235855172
1060000000.0 0.06501234229180908 -0.14126660655284556
1080000000.0 0.18063015391921733 -0.03272609398112982
1100000000.0 -0.16381071210255319 -0.14190997580623477
1120000000.0 0.1543864554732338 0.190999118399951
1140000000.0 -0.19762119335233255 0.1656905493928937
1160000000.0 -0.2100854810080515 -0.19993404171955637
1180000000.0 -0.32423708213461244 -0.05926010525266361
1200000000.0 -0.11485894654273802 -0.33208599554458945
1220000000.0 0.37049227407224306 0.04544460610735291
1240000000.0 -0.1304357920196418 -0.3582517642489271
1260000000.0 -0.3747557951539039 -0.11677413688587793
1280000000.0 -0.36916076657241753 0.16301073549111328
1300000000.0 -0.35537589664053465 0.2077782876214546
1320000000.0 -0.006874318299777824 0.4281389365444161
1340000000.0 0.3307721674807299 -0.2625206846324173
1360000000.0 0.15054953565845725 -0.38181720913613737
1380000000.0 0.25776044243959767 -0.29162234616413063
1400000000.0 0.3544983321315617 -0.1386202667461234
1420000000.0 0.0274110778536729 -0.3658656635541417
1440000000.0 -0.33525415197112685 0.07461794564583324
1460000000.0 -0.048392065106359246 0.3132981725329037
1480000000.0 0.25383325247030447 -0.146948872972039
1500000000.0 0.15223455477338274 0.21137002626048368
1520000000.0 -0.17419597687842586 -0.13367399038153122
1540000000.0 0.12953955417217197 0.12056191794088188
1560000000.0 0.014835273478631825 -0.1390728272716526
1580000000.0 -0.03572558737922919 0.10020350210891105
1600000000.0 0.02819566082830233 0.06941982515439739
1620000000.0 0.03554331012802777 -0.036259410334855025
1640000000.0 -0.018714638137178684 -0.033535496421514474
1660000000.0 -0.008536097692268003 -0.014133925819298076
1680000000.0 -0.0008668963175721011 -0.011836377507251939
1700000000.0 0.017835398622644355 -0.035708214707162685
1720000000.0 -0.0327666080627415 -0.049713062334819855
1740000000.0 0.06617730373757146 0.03970193824828998
1760000000.0 0.08137188492413557 -0.0389821942197165
1780000000.0 0.08453020014391294 -0.07756060150758194
1800000000.0 -0.10370462653364461 -0.08903047161554023
1820000000.0 -0.09831030412281819 -0.1394970353382291
1840000000.0 0.08559159523238093 0.19685817017898413
1860000000.0 -0.0524983689160507 0.25912296011770164
1880000000.0 0.24186074772816643 0.18672669806523837
1900000000.0 -0.05133752028549423 0.32118286529294404
1920000000.0 0.28978643305039065 -0.1881690400611749
1940000000.0 -0.31203253370911094 -0.20465905967995768
1960000000.0 0.12133105058262149 0.37392127438269956
1980000000.0 0.3825369617947588 -0.1437347681196406
2000000000.0 -0.24334979173106586 -0.344275845127663
2020000000.0 -0.3576385097030478 0.23619701428911066
2040000000.0 0.25471546179657484 0.3446722034476737
2060000000.0 0.41914046195075955 -0.008845515742423418
2080000000.0 0.35621914370508445 -0.20755061345801396
2100000000.0 0.03143366993775023 -0.39969253279415706
2120000000.0 -0.09931115649209099 -0.37371134190505545
2140000000.0 -0.3514660018675814 -0.12376742242343279
2160000000.0 0.017814798892429685 -0.3490848808414286
2180000000.0 0.20365601975282982 -0.2630070678904752
2200000000.0 0.2675546912594734 -0.18027507749252317
2220000000.0 0.30691827622963863 0.08224336402818558
2240000000.0 0.2238874608915963 -0.23030700074882882
2260000000.0 -0.13676579496756006 -0.29707502056749086
2280000000.0 -0.21242135794703687 0.2679698569898646
2300000000.0 0.33260134957140947 -0.140915827514631
2320000000.0 -0.3904764474397739 -0.006836244243543312
2340000000.0 0.36952051964528554 -0.2201398302098923
2360000000.0 -0.027762240764490964 0.47755936101330476
2380000000.0 -0.531406567296169 0.049566593106233285
2400000000.0 -0.2934826381753971 -0.5048124788947018
2420000000.0 0.4547697745385409 -0.43489345881346864
2440000000.0 0.4092978631587571 0.5265759985803884
2460000000.0 -0.6769848426289066 0.16918308082822994
2480000000.0 0.2696455285290579 -0.6683909493593797
2500000000.0 0.06722534699103784 0.7309910103865507
2520000000.0 -0.24239256816749255 -0.6982882138646492
2540000000.0 0.430931900719592 0.6042661078889798
2560000000.0 -0.16155299057744354 -0.7140458020912686
2580000000.0 -0.40080799708126263 0.5902849317464129
2600000000.0 0.6481649162775005 -0.23406871640031598
2620000000.0 0.32759520319057234 -0.5699867101535608
2640000000.0 -0.585669140411007 0.20908761356478134
2660000000.0 0.40973979017958717 0.408925658485293
2680000000.0 -0.19608247192728884 -0.5008272854582255
2700000000.0 0.40756792259493546 0.3052050824702973
2720000000.0 -0.4690963361710241 -0.05447462467171757
2740000000.0 0.3659445145209873 0.2372136918845114
2760000000.0 -0.10018976965806253 -0.39869026210491365
2780000000.0 -0.0038998030770850058 0.3947062205239508
2800000000.0 -0.010802498094760039 -0.3832830983232963
2820000000.0 0.06436042860844081 0.3672873382675753
2840000000.0 -0.031222642563676812 -0.3551502740907889
2860000000.0 -0.32254578166800774 0.1743639295084898
2880000000.0 0.2765034652338785 0.24606941227865145
2900000000.0 0.28915301409567773 -0.23606827758574025
2920000000.0 -0.14718506460728106 -0.34691390953825657
2940000000.0 -0.27935058118328226 -0.2567074959800151
2960000000.0 -0.31961260174298683 -0.19819540830416058
2980000000.0 0.2444523469402895 -0.2836020461775375
3000000000.0 0.30927318761862516 0.21973359070066284
3020000000.0 -0.1187763830915623 0.35728878678338205
3040000000.0 -0.2369342560121522 -0.28071458778942826
3060000000.0 0.306980479940634 0.1836949145908581
3080000000.0 -0.306768967084433 0.16203417297820444
3100000000.0 0.3408769044792053 0.015544964284404352
3120000000.0 -0.08885387838728105 -0.3172858514207886
3140000000.0 0.30759590801859277 0.0616954250516894
3160000000.0 -0.2822408891273671 0.06589991691715205
3180000000.0 -0.11423839662608748 0.23935828458169991
3200000000.0 0.12178773044419205 -0.20045847108483922
3220000000.0 -0.17125346236377775 -0.10827561387852526
3240000000.0 0.06440090764983734 0.15557297722070998
3260000000.0 0.01784214804847703 -0.13751699265308234
3280000000.0 -0.11251967301590761 -0.008441591030138557
3300000000.0 -0.07319999014338335 -0.056164539657706486
3320000000.0 -0.006873467428527408 0.08288368305095221
3340000000.0 -0.00023185118845895904 0.07979301267020594
3360000000.0 0.05505467590439633 0.03622564288167664
3380000000.0 -0.04744239728818666 -0.016800884027568984
3400000000.0 0.03938440497427706 -0.02962352782323116
3420000000.0 0.048925657045249024 -0.014423763142925011
3440000000.0 0.04177000456659534 0.02469007696704403
3460000000.0 0.010053680825662499 -0.03666740806887165
3480000000.0 -0.009662688751096063 0.035069959679186524
3500000000.0 0.00015104482344436312 -0.03677489448016216
3520000000.0 0.027890862264448275 -0.025991277634375115
3540000000.0 0.05058526852017408 -0.02194281905889912
3560000000.0 0.04842070227517495 0.05491846414729936
3580000000.0 0.08790531034843327 -0.007519394224203761
3600000000.0 -0.05747414104973268 0.1047939338392529
3620000000.0 0.1297345713791952 0.03430766572163696
3640000000.0 0.0453705991720383 0.1361863018422782
3660000000.0 0.13842921971779606 0.05354538201961022
3680000000.0 -0.14449426596506507 -0.06976327006679744
3700000000.0 0.1415759480616235 -0.15156125031670553
3720000000.0 -0.23441263253648753 -0.09614982315447623
3740000000.0 -0.0887756906767146 -0.14997119245308133
3760000000.0 -0.185282769626788 -0.05894220306270981
3780000000.0 0.23183975473055798 0.12892975786680602
3800000000.0 -0.13605859239475607 0.24115931203301708
3820000000.0 -0.20749564574391388 0.18507600438582505
3840000000.0 -0.01641433283717268 0.2859441534075558
3860000000.0 0.08423981928911313 0.2649915080614997
3880000000.0 -0.08535568686355852 -0.2795939334069123
3900000000.0 0.16929696919072948 0.2282604833912651
3920000000.0 0.01297150936786158 -0.2789031464447078
3940000000.0 -0.10216977144851007 -0.24938106086851483
3960000000.0 0.2709639989809927 0.03587359863683005
3980000000.0 0.1260943653383925 -0.19278442679195407
4000000000.0 0.08393568312504261 0.21462318788120793
