!Created with skrf (http://scikit-rf.org).
# Hz S RI R 50.0 
!freq ReS11 ImS11
400000000.0 -0.8580175885496532 0.08094600319505824
420000000.0 0.36316006159625036 0.7637651574267432
440000000.0 0.7182583654235898 0.31061685621855933
460000000.0 0.2457217161664457 0.6739212905421759
480000000.0 -0.6510728144621881 0.015687817028146867
500000000.0 -0.5533958323763483 -0.24770368891773778
520000000.0 0.36817748891325247 -0.3785489824201873
540000000.0 -0.10294062751116008 -0.4526373172935339
560000000.0 0.44157627153991913 0.01590824104100808
580000000.0 0.17945740809149177 -0.35059211292500725
600000000.0 -0.22047779246924915 0.28120346658202583
620000000.0 -0.3472496731983325 -0.09627658308316098
640000000.0 0.022463491134931107 -0.4098850163186809
660000000.0 0.3616554317529448 0.2615846537796575
680000000.0 -0.3946328911148289 -0.23169370457558047
700000000.0 0.03027951264697382 -0.441297828319213
720000000.0 -0.3670783541970852 0.21105619910136472
740000000.0 -0.2466780476625849 0.2966966820699344
760000000.0 0.07171807900709892 -0.34092806307438556
780000000.0 0.010423351692610083 0.32563441904617435
800000000.0 0.2770341219698969 0.123008087109612
820000000.0 -0.24799244538814288 -0.06062145615013837
840000000.0 -0.13671848373132345 -0.1539803882050696
860000000.0 0.14372909855535712 -0.08019769453167311
880000000.0 0.07451184876956565 -0.09450284310132305
900000000.0 -0.05050090005896502 -0.06871214836161366
920000000.0 0.009948352112436347 0.05283056563127859
940000000.0 -0.04647418677165696 0.0017811586195047345
960000000.0 -0.057160779572929976 0.002393363573725229
980000000.0 0.06693479720576515 0.012484504795069937
1000000000.0 -0.00612466154635863 -0.07571355251711546
1020000000.0 0.06692000702769844 0.06377396012238971
1040000000.0 0.07219194948874201 -0.08908440486402557
1060000000.0 -0.11386124312555734 -0.08735842017690866
1080000000.0 -0.06720372571803145 0.16506218727211852
1100000000.0 0.1946922750265388 0.08337179073060877
1120000000.0 -0.1938851298518096 -0.1619209542555041
1140000000.0 -0.26365383533607994 0.08646565694446762
1160000000.0 0.25209471972009445 0.15924375259916043
1180000000.0 0.2016444404486707 0.24688619106867934
1200000000.0 -0.12238305968177275 -0.31407047519525655
1220000000.0 -0.21551861169292824 0.2943229060378378
1240000000.0 0.34729799118984006 -0.16452578578291202
1260000000.0 -0.2929840232983583 -0.27144136349695647
1280000000.0 -0.37710468674694786 0.16096183362517763
1300000000.0 -0.011066089677992552 0.4174799056219271
1320000000.0 0.3626581451323514 0.20906650780074457
1340000000.0 0.41508950883924783 0.017889266412016602
1360000000.0 0.3759005481947326 -0.15716465103120872
1380000000.0 0.395261825074698 -0.014500877815083843
1400000000.0 0.22729332073949635 -0.31102041705465405
1420000000.0 -0.2996011209768398 -0.20518517159631275
1440000000.0 -0.33783583760517877 -0.022148172598097683
1460000000.0 -0.03908948426984644 0.31532455618770194
1480000000.0 -0.046372528443819255 -0.2847664034482689
1500000000.0 -0.09360113579985395 0.23190773337394358
1520000000.0 0.21303504096087356 -0.04940659467216166
1540000000.0 -0.1305458213332911 0.12114113319052996
1560000000.0 0.1381461771487593 -0.04312524947272307
1580000000.0 -0.038135981130827105 0.1051451731110026
1600000000.0 0.0806904768703785 -0.0027928592692733683
1620000000.0 -0.03175939867307994 0.04581920570830629
1640000000.0 -0.004584584704446037 -0.02990415696418915
1660000000.0 -0.007324304314005227 -0.0029956638982238716
1680000000.0 0.01826993025647425 -0.008648326151290285
1700000000.0 -0.018875701869473193 0.033480867943457074
1720000000.0 0.043661858217674154 0.02894433899792733
1740000000.0 0.030281477454129534 0.06440931036160803
1760000000.0 0.08447806943592913 -0.03008605056970092
1780000000.0 0.10923288512906351 0.0062505544700276255
1800000000.0 0.13260019338343568 -0.04967984650628792
1820000000.0 -0.17429744440039283 -0.04028201037914792
1840000000.0 0.15212860318225482 -0.16300767503527763
1860000000.0 0.05994960613326993 -0.2569682210674209
1880000000.0 0.26771539042855735 -0.1206582796391445
1900000000.0 -0.2592182911780607 0.18282120334401253
1920000000.0 0.2649535747043511 0.22229079796806706
1940000000.0 -0.13690418494054046 -0.35269468982834634
1960000000.0 0.2271796561836766 0.32921293617227443
1980000000.0 0.04678587849147839 -0.4071608951302855
2000000000.0 -0.35451520475106035 -0.2152333711727724
2020000000.0 -0.42136133933430303 -0.03153195696046364
2040000000.0 -0.18025065317169536 0.3892149682295169
2060000000.0 0.3687406651216145 0.21882784322331006
2080000000.0 0.09534646381877955 -0.4093830039748441
2100000000.0 -0.3653192372585887 -0.16829021402948474
2120000000.0 -0.3800428589002345 -0.04150734558903604
2140000000.0 -0.31271712239238303 -0.18756856505770858
2160000000.0 0.2872222929422602 -0.2014845726786248
2180000000.0 0.22103018657572995 -0.25509040853001
2200000000.0 0.12331399617903316 -0.3002105625765477
2220000000.0 0.28180830047561917 -0.14338114112496617
2240000000.0 0.27054323899947913 -0.17044366521900717
2260000000.0 -0.04386338255709519 -0.3267275755421926
2280000000.0 -0.2815411552030666 0.19816268943528373
2300000000.0 0.3516449540763212 -0.09116047668721569
2320000000.0 -0.38090429218044136 -0.07724610174860659
2340000000.0 0.4213114713508567 0.07250487852614623
2360000000.0 -0.29691694902273785 0.3723031550704496
2380000000.0 -0.5039013031256254 -0.1583192770783724
2400000000.0 -0.04943390197968863 -0.5748988729454187
2420000000.0 0.5655676582451433 -0.25766600735200174
2440000000.0 0.3286246296555927 0.5731080547055968
2460000000.0 -0.6537790895460129 0.22268649145958633
2480000000.0 0.2595031615613208 -0.6628569662801584
2500000000.0 -0.02396338791136898 0.7232479351374471
2520000000.0 -0.023216268224814002 -0.727566018868267
2540000000.0 -0.1399806624919515 0.7115463215733593
2560000000.0 0.4817038433532006 -0.530233352221265
2580000000.0 -0.6842636640927692 0.13792112538104923
2600000000.0 0.5951105231831375 0.3137206106486917
2620000000.0 0.6341966398631946 -0.10293412683022116
2640000000.0 -0.5707591809950797 -0.21154994174493216
2660000000.0 0.332442707741493 0.4659762973195284
2680000000.0 -0.1885816540112654 -0.4994048105050202
2700000000.0 0.029413886670890232 0.4949419233490448
2720000000.0 0.11015519551133196 -0.44387232636662427
2740000000.0 -0.2810750942457785 0.3197093397955031
2760000000.0 0.26971110531274556 -0.2961199869841096
2780000000.0 -0.23490018552317704 0.29959469799735516
2800000000.0 0.17088966894835392 -0.32587475600880383
2820000000.0 -0.1591603774775691 0.32197133586003795
2840000000.0 0.24459961364284158 -0.25948281499422643
2860000000.0 -0.34637079455470204 0.09032288427635736
2880000000.0 0.3072164377185124 0.1900824552183538
2900000000.0 0.1400775507960593 -0.33775705596931804
2920000000.0 -0.2913599719894372 -0.22817269381650004
2940000000.0 -0.3695978636498526 0.05083745806844565
2960000000.0 -0.34712468114459955 0.13136345438975477
2980000000.0 -0.288719718978154 -0.23195499494355237
3000000000.0 0.2661524252790993 -0.26164176081305507
3020000000.0 0.30568511482404703 0.2108734260874826
3040000000.0 -0.30723535461345836 0.19738341397821502
3060000000.0 0.15665371438368286 -0.32204389157577523
3080000000.0 -0.15603235173399727 0.3124620276157958
3100000000.0 0.20308610704499597 -0.27187632811329276
3120000000.0 -0.08449606804333332 0.31931873995356275
3140000000.0 -0.2573176113767389 -0.18436883503764284
3160000000.0 0.036295546614457184 0.2920254209394585
3180000000.0 -0.17480986097763404 -0.20283928444319768
3200000000.0 0.1528677315648174 0.18395039689622938
3220000000.0 -0.11695492087038308 -0.1740984432047515
3240000000.0 -0.06170672678975821 0.1683533378087906
3260000000.0 0.013819745153461438 0.14799225378259148
3280000000.0 -0.12201288939017413 0.0076264328323326505
3300000000.0 0.0012847764240298187 -0.10244659199011244
3320000000.0 0.08008164879335948 -0.021901556259522368
3340000000.0 0.047693166172044395 0.04744156524762752
3360000000.0 0.03168471920510632 0.04137335792187942
3380000000.0 -0.030519398365664998 0.028147507818779016
3400000000.0 0.029838684238117585 0.01552228355046405
3420000000.0 -0.017067880555311638 -0.01899013216731108
3440000000.0 -0.002377601209434169 -0.0222862761288629
3460000000.0 -0.015135997704021045 0.025080455260716186
3480000000.0 -0.04150164885960036 0.008596486483275483
3500000000.0 0.055353981055881706 0.017161515113481084
3520000000.0 0.07427684511090016 -0.0033202710031361884
3540000000.0 0.06084872646749959 0.06180891204182996
3560000000.0 0.08187549489232131 -0.04878591601053551
3580000000.0 0.008703586746256339 0.10506585421204646
3600000000.0 -0.035322002514305825 0.1145803023789493
3620000000.0 0.01700389756201871 0.13236713633610603
3640000000.0 0.08060152216428366 0.11585460381333484
3660000000.0 -0.08536262157676855 0.1186456571026351
3680000000.0 0.06765169494347195 -0.13561968118546053
3700000000.0 0.13187200931629708 0.08653536738363554
3720000000.0 -0.030127119350333277 0.15953893143832878
3740000000.0 -0.15096935775398482 -0.05815962317914487
3760000000.0 -0.15900051177918018 -0.033407583038697175
3780000000.0 -0.0554766244764262 -0.15851123379359033
3800000000.0 -0.17380491684008662 -0.041842973664124004
3820000000.0 0.18703206010190626 -0.03238970159367803
3840000000.0 -0.08456192652012408 0.17704595439408286
3860000000.0 -0.04090011549288619 -0.1988060640848682
3880000000.0 0.20345229868668657 0.05769790598708828
3900000000.0 -0.00957693108160154 0.22093664775838598
3920000000.0 0.1957506187686534 0.11441013801303894
3940000000.0 0.15219323151348513 -0.16614699066878652
3960000000.0 0.0076036666490403955 -0.21717998478418765
3980000000.0 -0.05406099531491375 -0.20153950175196395
4000000000.0 -0.18279299479551653 0.0808013877560816
