!Created with skrf (http://scikit-rf.org).
# Hz S RI R 50.0 
!freq ReS11 ImS11
400000000.0 -0.4523982327313932 -0.7230028233137422
420000000.0 -0.7179140662479591 0.43778517539813205
440000000.0 -0.14053742005532033 0.7600243391381745
460000000.0 -0.7151613740993892 -0.044640280946264134
480000000.0 0.29571750310702527 -0.5928754324274704
500000000.0 0.01953977212990123 -0.610929526959018
520000000.0 0.5370153402269955 0.026902506686164732
540000000.0 -0.47347909947243866 -0.0127954108065883
560000000.0 0.39916367830937827 -0.16984347862589033
580000000.0 0.35700850098583625 0.14719755032108506
600000000.0 -0.16255855909486713 -0.3184392430668875
620000000.0 0.019159656841832958 -0.3694321166027748
640000000.0 0.2388558898352349 -0.33841790472703953
660000000.0 0.2538564032050126 0.3742094343944367
680000000.0 0.07059562494697266 -0.46223564648359816
700000000.0 0.2785479048966074 -0.3648033048503092
720000000.0 -0.352106339815577 0.26768058051436444
740000000.0 0.22093117405600038 0.33075135260465
760000000.0 -0.2769448747901414 0.21772104873940373
780000000.0 0.31051068395714676 -0.06962220622422981
800000000.0 0.22736602885904292 -0.1623964520673484
820000000.0 -0.1570299220630835 0.16626522514669007
840000000.0 0.1637108358094901 0.11038099513926344
860000000.0 0.12516985231103597 -0.10392890310943484
880000000.0 -0.11745282703376965 0.05098950016564698
900000000.0 -0.060465609451980075 0.06512334393758015
920000000.0 -0.05457529530697918 -0.0038801450407142026
940000000.0 -0.028774561149987325 0.019821207574453506
960000000.0 -0.04388688016972258 0.007703892517794032
980000000.0 -0.059955959633522835 0.0028167827456498083
1000000000.0 0.014357781612176043 -0.08009759367315
1020000000.0 0.1173708974653229 0.043347908482500246
1040000000.0 -0.08527019960439265 0.12354850710480368
1060000000.0 0.07020195285287528 -0.16791218866044272
1080000000.0 -0.08107139832123095 0.19471973807416948
1100000000.0 0.1896969504250562 -0.1416287939083534
1120000000.0 -0.09726355533502193 -0.2459272920212001
1140000000.0 -0.1725852971657158 -0.22068485703766594
1160000000.0 -0.2876994155556301 -0.04702850373338207
1180000000.0 0.10034644753045154 -0.29879844494000585
1200000000.0 0.23147765546704727 0.24530697982549474
1220000000.0 -0.024088978917116092 -0.3580652957212053
1240000000.0 0.08113824123409849 0.36623336917160315
1260000000.0 0.3820158021239738 -0.03842810135543291
1280000000.0 0.14098302510331803 -0.3643227826549219
1300000000.0 0.35853422773653415 -0.16585483070019716
1320000000.0 0.23019345370687894 -0.34105463040563383
1340000000.0 -0.34734684954054856 -0.22455595121711755
1360000000.0 -0.40447876004397176 0.06300877904740955
1380000000.0 -0.2702633732757165 0.29481972121880656
1400000000.0 0.26516580948064816 0.2875534395777079
1420000000.0 -0.03793026910860061 -0.36853560736719815
1440000000.0 -0.02302747207467528 0.34252146395902283
1460000000.0 0.20416030502036878 -0.22840631851669116
1480000000.0 -0.26516224692977625 0.03196851988066377
1500000000.0 -0.07874285790113761 0.21582082606315933
1520000000.0 0.16492160845638712 0.1158907212403937
1540000000.0 0.01747736958681712 0.1594419991354481
1560000000.0 0.09768346669438273 0.07442499758519545
1580000000.0 0.04996603969705521 0.08401521572104993
1600000000.0 0.05867577395371748 -0.054423062881596165
1620000000.0 -0.0641575318906064 0.0021277070326214463
1640000000.0 -0.032613385354477324 -0.014224068450394863
1660000000.0 0.006978440438837296 0.0006687497472536621
1680000000.0 -0.013689556022142836 -0.007415286331692364
1700000000.0 -0.013264548474686607 0.013304994991130097
1720000000.0 0.00927919897557841 -0.011472065008493062
1740000000.0 -0.040568991851070275 -0.008355325843881713
1760000000.0 -0.03633021312540033 -0.06045758292553685
1780000000.0 0.06432728509476573 0.0844743711767318
1800000000.0 0.08620661778542006 -0.11890946075733481
1820000000.0 -0.15719648365047137 0.07382298717533234
1840000000.0 -0.1672096747894782 -0.11841511613280692
1860000000.0 0.19025206619811139 -0.14089340178030105
1880000000.0 -0.0112326866972995 0.2785825007118554
1900000000.0 -0.24026851575963662 0.19965988144008395
1920000000.0 0.1703733843516159 -0.2936037000967562
1940000000.0 -0.21343907145016086 0.2961425796811648
1960000000.0 0.26262669063345817 -0.27836525686221264
1980000000.0 -0.28287372821334555 -0.2720096869558764
2000000000.0 -0.398454008162966 0.058165673664548286
2020000000.0 -0.41190259903587095 0.036849874921866005
2040000000.0 -0.03695172450408915 0.42756973000690524
2060000000.0 0.396305991545216 -0.1619729741117526
2080000000.0 -0.026286926486947748 -0.42179318676535477
2100000000.0 -0.3794356410006576 -0.17189089838343408
2120000000.0 -0.20616838368611543 0.3420588164785233
2140000000.0 -0.380396179486368 0.021728005755722764
2160000000.0 -0.332417659549074 -0.12794051165708703
2180000000.0 0.14355323389523203 -0.3132013111689616
2200000000.0 0.27298828111416584 -0.2027285170032542
2220000000.0 0.1800611291633753 -0.28894199675626764
2240000000.0 -0.21076858132836798 -0.2667566463920272
2260000000.0 -0.2932443914458699 -0.168770213339237
2280000000.0 -0.3249965428796096 -0.12099738273463859
2300000000.0 -0.36055948182633224 -0.06340254906398676
2320000000.0 -0.161308122422382 0.3708115833451542
2340000000.0 0.03100219222150353 -0.44597868252015455
2360000000.0 0.2734480429078698 0.4086022212273524
2380000000.0 -0.5383388683625043 0.04478434585122101
2400000000.0 0.2669118364317507 -0.5236390020894431
2420000000.0 0.3639046579713861 0.521155087477996
2440000000.0 -0.6627655771846886 0.14255633761392983
2460000000.0 0.4019468678855463 -0.5889098535455876
2480000000.0 0.00812734290602048 0.7392847918095359
2500000000.0 -0.07544026485420444 -0.7526005883991933
2520000000.0 -0.08642014348385132 0.7589007441782363
2540000000.0 0.4196119571560601 -0.639581112628396
2560000000.0 -0.7277131149777472 0.21525321042919543
2580000000.0 0.6536755755010939 0.35623333481873315
2600000000.0 -0.23114404343099013 -0.6842359120334475
2620000000.0 -0.2585016203221554 0.642630397622157
2640000000.0 0.24058333303966425 0.6131109454742599
2660000000.0 0.12577371683980032 -0.6057951338781037
2680000000.0 -0.36932281439499093 0.4421266460708033
2700000000.0 0.46459567514137606 -0.26309671509240107
2720000000.0 -0.4821809383134479 0.08433830441125907
2740000000.0 0.40837668291563434 0.1928722898437029
2760000000.0 -0.40818216723651257 -0.09841335007299583
2780000000.0 0.38209147900821233 -0.09098647547714478
2800000000.0 -0.19409435206841302 0.3158449081165866
2820000000.0 0.09247608481801266 -0.3431700062212656
2840000000.0 0.14014900883274425 0.32258565734592504
2860000000.0 -0.3440370533610114 0.061167026843401834
2880000000.0 0.19838564000319292 -0.28287916967131915
2900000000.0 -0.27954856960265406 0.20039455680524124
2920000000.0 0.3389190208519991 0.04174296259612005
2940000000.0 0.2209828293643608 -0.2599135530678097
2960000000.0 0.1982464241768899 -0.27816738533386515
2980000000.0 0.31062668405503086 -0.14936001427560752
3000000000.0 0.34397922470522074 0.0711306113478535
3020000000.0 0.267390376391383 0.22770391136195228
3040000000.0 -0.14445188255652397 0.3164523118970867
3060000000.0 -0.3344982262755663 -0.07189054679244802
3080000000.0 0.08887077224605852 -0.3209680423737635
3100000000.0 0.29519199449340483 0.12383926916402886
3120000000.0 -0.2986979194924797 0.05945623978013228
3140000000.0 0.10125232812908103 -0.2744013718374282
3160000000.0 -0.06049404815382449 0.2682062898217006
3180000000.0 -0.1506742128353596 0.2007775776536603
3200000000.0 -0.20830731800739094 0.07395318603640054
3220000000.0 -0.155257254416862 -0.10729575649711624
3240000000.0 0.06917253792905517 -0.14087028837153157
3260000000.0 0.01137403761555111 0.1277705310265105
3280000000.0 -0.012315141772924375 0.1035013418283046
3300000000.0 -0.054034545465468674 -0.06150253460916578
3320000000.0 0.05487625841698627 -0.0272573699497274
3340000000.0 -0.013889676695371504 -0.04354063299466061
3360000000.0 0.028915322064016133 0.03076619955349802
3380000000.0 0.04032593321007227 -0.02416335499771165
3400000000.0 0.007780241223505805 -0.05031397769557096
3420000000.0 -0.0580542766575185 0.0013007565018681951
3440000000.0 -0.03330542062125585 0.06150717226950318
3460000000.0 -0.07599410840549542 -0.04584086226233448
3480000000.0 -0.10249393976699726 0.025829989329371243
3500000000.0 -0.05298963891377919 0.10969624404705011
3520000000.0 -0.13284383064129368 0.028949499914210735
3540000000.0 -0.14773360946289993 0.044974846511374525
3560000000.0 0.06065818261573249 0.1581730294747724
3580000000.0 0.023510462202532972 -0.17609498002727472
3600000000.0 -0.12018420562666951 -0.13360220121136135
3620000000.0 0.08000102216624781 -0.16148324470980988
3640000000.0 0.17802414619012755 0.03724974196383547
3660000000.0 -0.026041501839642805 0.17966112697831485
3680000000.0 -0.17729179659426117 0.03159378211607406
3700000000.0 -0.1448491832835173 -0.10203623163126598
3720000000.0 -0.06460522709273503 -0.15917015031280302
3740000000.0 0.09394030196079066 -0.131479937277584
3760000000.0 -0.14416742955407275 -0.0447742736416805
3780000000.0 0.130638663714752 -0.045817023150478316
3800000000.0 0.09683532437792922 -0.07013833147590626
3820000000.0 -0.10558872424147775 0.028522633458451928
3840000000.0 -0.09877409131857678 -0.026049306887848633
3860000000.0 -0.10725011778548366 -0.015338913509339726
3880000000.0 -0.027458643804154807 -0.11412343976771142
3900000000.0 -0.0672201736772004 0.10561980727668797
3920000000.0 -0.08641983103701183 0.09450290929534216
3940000000.0 -0.10389092897457541 -0.0714570847077046
3960000000.0 -0.12188661367379237 -0.00043885110246352885
3980000000.0 -0.049624590542839804 0.10352002923160013
4000000000.0 0.09637175825591891 -0.016358419922339985
