!Created with skrf (http://scikit-rf.org).
# Hz S RI R 50.0 
!freq ReS11 ImS11
400000000.0 -0.6828915843212175 -0.4874023329076092
420000000.0 -0.5537119754120569 0.6334950172477305
440000000.0 0.019045434517150017 0.7780184812754183
460000000.0 -0.42089800141064887 0.5784529764406764
480000000.0 0.407562763490561 -0.515505731585831
500000000.0 0.168547002305772 -0.6171272676035021
520000000.0 0.45698540370009627 -0.3037545263134752
540000000.0 -0.1732726842369716 -0.45863441653101666
560000000.0 -0.41982934880568185 -0.1963359688181199
580000000.0 -0.41148083499318755 0.0381763061215663
600000000.0 -0.0991551150436627 -0.35262541895089133
620000000.0 0.3131623360191573 -0.1535853003289631
640000000.0 -0.10476136064188556 -0.38200737220843645
660000000.0 0.0032568537255661567 0.4388319276527501
680000000.0 -0.00953275512158349 -0.46748192466238625
700000000.0 -0.10677640346201774 -0.446800271084432
720000000.0 0.35082927508602596 0.24005422499816884
740000000.0 -0.07129659762699637 0.36679597951418047
760000000.0 0.29439348943514154 0.1978985094474021
780000000.0 0.23305191506472633 -0.23266299864363252
800000000.0 0.2763678393958431 0.07522563362982576
820000000.0 0.2467783956918181 0.029242856313096192
840000000.0 0.12997046228589235 -0.1502987265970943
860000000.0 -0.0749397663917541 -0.13793798430648746
880000000.0 -0.03073281197633073 -0.11058998273528492
900000000.0 0.07943616050317362 0.010837009072635795
920000000.0 0.05631627701853393 -0.034809488762575475
940000000.0 -0.04812908321744682 -0.029014784985019325
960000000.0 0.005918127284638674 -0.06841791461566818
980000000.0 0.04045190679758257 0.07921459862405254
1000000000.0 0.07384065424367098 -0.04800914038141645
1020000000.0 -0.09537496376876084 -0.024769388507502575
1040000000.0 -0.035907405643684734 -0.10824183177515159
1060000000.0 0.11090920102218514 0.10692635162768792
1080000000.0 0.17238118918886342 0.09428254750597215
1100000000.0 -0.11584302461487066 0.1751855282487887
1120000000.0 -0.013621452710006036 -0.24238455949661797
1140000000.0 -0.0020370108846498084 -0.2768144206564952
1160000000.0 0.013250180363716805 0.3079686891981451
1180000000.0 0.29881569113623535 0.13232951726254555
1200000000.0 -0.24464750240438654 0.23630556980353637
1220000000.0 0.20489281218541372 0.289400289094145
1240000000.0 0.27902141766784216 -0.24152908201477685
1260000000.0 0.37666257720179275 -0.08226631274499595
1280000000.0 -0.10769142181743482 -0.3975077689070053
1300000000.0 -0.36049527187048647 0.21161917978451772
1320000000.0 0.14295665563985427 0.39752939253829805
1340000000.0 0.38030207692349205 0.16705133806371983
1360000000.0 0.3885292618431654 0.13235214199246886
1380000000.0 0.3679034483218255 -0.14910147277654712
1400000000.0 0.2222863546150228 -0.3120735387041133
1420000000.0 -0.12558838843762324 -0.34055305439862543
1440000000.0 -0.22224433556641413 0.26602104050327496
1460000000.0 0.09966512079664949 -0.2927376657674011
1480000000.0 -0.01736599986894582 -0.2733195507960135
1500000000.0 -0.23997803566403808 0.04992897572925062
1520000000.0 0.11535287633951742 -0.1876739012575083
1540000000.0 -0.022092929269060643 -0.16802556879982525
1560000000.0 0.12492424971108765 -0.019471082004099277
1580000000.0 -0.07286976951661497 0.07573719195291634
1600000000.0 0.08588213381959406 0.0012831527584905237
1620000000.0 -0.047934103580118785 -0.04348477247627671
1640000000.0 -0.00634492935332694 0.041212622439916566
1660000000.0 0.00285556737833066 0.01681644177256099
1680000000.0 0.004078327575303802 0.011999454503038775
1700000000.0 -0.029765272771747446 -0.013839532271508968
1720000000.0 0.045571993061472346 -0.007751131178729034
1740000000.0 0.0583964718118244 -0.029429318999671567
1760000000.0 -0.05957603775666261 0.05941780813415575
1780000000.0 -0.10605155572890072 -0.026510064402745906
1800000000.0 0.031126874743982014 -0.14290253952482787
1820000000.0 0.17893089834229284 -0.026599135765660285
1840000000.0 -0.2014829124836254 0.07173559290829323
1860000000.0 -0.04968515743659868 -0.2497189696953399
1880000000.0 0.28943801262073043 0.032235999433435795
1900000000.0 -0.20193114883810367 0.25152250054773206
1920000000.0 0.25130560432511573 -0.24064102863927694
1940000000.0 -0.37611338346168705 -0.021125033584948136
1960000000.0 0.39140393043887955 0.04651922105109273
1980000000.0 0.14440716878999088 -0.37695003050474934
2000000000.0 -0.20153351645795864 -0.3635230022370954
2020000000.0 -0.3973781296950003 -0.15528768143122085
2040000000.0 -0.048957436507728984 0.43207042254942113
2060000000.0 0.4205183274246288 -0.08163198024147701
2080000000.0 0.1760602084727932 -0.37704802705012774
2100000000.0 -0.04266523063576775 -0.4013495854937443
2120000000.0 -0.23898613602871047 -0.30763291138619847
2140000000.0 -0.3553348731593256 -0.12112022187932411
2160000000.0 0.0965094086562731 -0.33878404132099654
2180000000.0 0.33375662185211485 -0.037496758547036886
2200000000.0 0.3022130157798901 0.1304120603343092
2220000000.0 0.24179188481070696 0.21692296183867968
2240000000.0 0.30792143088070784 0.11791714658770078
2260000000.0 0.26149181913627445 -0.21056169028045146
2280000000.0 -0.017683623320801294 -0.3499606594959984
2300000000.0 -0.23279256908205834 0.2907099041255502
2320000000.0 0.3025447378888477 -0.2669043719851554
2340000000.0 -0.08239532469802134 0.43531756665553256
2360000000.0 -0.41211026068467915 -0.2570224843684428
2380000000.0 0.22424705817137053 -0.48569639024184047
2400000000.0 0.5701396057734148 0.11747186374881731
2420000000.0 0.043888902048632196 0.6246351461210935
2440000000.0 -0.6368824522923284 0.184113484305376
2460000000.0 -0.0016003017268805253 -0.690198848913389
2480000000.0 0.5589416583901208 0.43670006110541865
2500000000.0 -0.6691135970957999 -0.26693090870975417
2520000000.0 0.6312069937029783 0.3522653943728581
2540000000.0 -0.513645064188714 -0.5012930457403888
2560000000.0 0.12203082597669689 0.6966796872389399
2580000000.0 0.4499016836678762 -0.520176296407767
2600000000.0 -0.6504788356804085 0.1207846625899199
2620000000.0 -0.4511919686939296 0.44172025567403966
2640000000.0 0.5673680707184127 -0.18516195131681906
2660000000.0 -0.5241104089330821 -0.1902708025142518
2680000000.0 0.3851977245570569 0.34515483494176874
2700000000.0 -0.22909544142089552 -0.421350607084449
2720000000.0 0.23561360924532687 0.37561236509437884
2740000000.0 -0.21914992497797756 -0.34549809577055
2760000000.0 0.30360190368365203 0.2305439288294691
2780000000.0 -0.29268142013022996 -0.2073941600479899
2800000000.0 0.271788513524932 0.21655939868352367
2820000000.0 -0.3400434232840287 0.017266736011053926
2840000000.0 0.327026547610972 -0.08395203870186119
2860000000.0 -0.3212423098966326 0.10463363230217967
2880000000.0 0.2791200087119811 0.19190184447084627
2900000000.0 0.2901010040064949 -0.18692808532632985
2920000000.0 -0.2968485140532544 -0.1916080098978191
2940000000.0 -0.29458779548309155 0.20255695007779925
2960000000.0 -0.12130082241471016 0.33602452304210345
2980000000.0 -0.3270218861156893 0.14363398067016533
3000000000.0 -0.31757711464925736 -0.17104614515088445
3020000000.0 -0.1026931386212593 -0.34166886994940626
3040000000.0 0.33878662805889437 0.07441628234195387
3060000000.0 -0.33489036047749027 -0.05319469982814682
3080000000.0 0.29293303685739497 0.1569690021348749
3100000000.0 -0.3138624991535134 -0.08676319255192588
3120000000.0 0.23743194677864632 -0.20957992268977516
3140000000.0 0.1945907782989275 0.23337516800505562
3160000000.0 -0.06380313349141438 -0.2762149621710537
3180000000.0 0.24423336197925055 -0.09299896003916905
3200000000.0 0.0876027159855124 0.21584125349605734
3220000000.0 -0.19707102295512102 -0.041462940542988255
3240000000.0 0.16913522043039092 0.027622833801680784
3260000000.0 -0.13723796250491377 -0.0371447330345021
3280000000.0 0.11035140231548417 0.016668774459498752
3300000000.0 -0.02904403901617727 -0.07892952292540152
3320000000.0 -0.011339277080816456 -0.05978321902080025
3340000000.0 0.0464215014025747 0.008395523593680827
3360000000.0 -0.02109031862954443 0.03109867885694009
3380000000.0 0.02302973528221703 0.014636597004335552
3400000000.0 -0.025693826308634957 0.005756195272027519
3420000000.0 -0.015900898831630924 -0.02871516153561409
3440000000.0 -0.0005643389341073417 0.04287651522361887
3460000000.0 -0.004860144037932309 0.053869608211242724
3480000000.0 -0.03928164034870084 0.0540788073036674
3500000000.0 0.07333513060639103 0.04168450393016174
3520000000.0 0.05746981855756518 -0.08326609716836507
3540000000.0 -0.015163296349445155 0.11471699317132036
3560000000.0 0.1229874340685652 0.02012942889099433
3580000000.0 0.12704924049355418 -0.04033056464996641
3600000000.0 0.1408875791075193 -0.00038039792414054635
3620000000.0 0.042648453156524775 0.1412218890711398
3640000000.0 -0.14491464800295709 0.06425638665458475
3660000000.0 0.02181096714368802 0.1632442702183516
3680000000.0 0.005384405164195218 0.16274484297671346
3700000000.0 -0.14791953902484586 -0.05424641832401044
3720000000.0 0.11666274914426542 -0.10032583590392981
3740000000.0 -0.11894551897098354 0.08874777318460783
3760000000.0 -0.1077366165727286 -0.0938430371538532
3780000000.0 0.06382093486742768 -0.1254793241219083
3800000000.0 0.10784168270754535 -0.0874555689693988
3820000000.0 0.1312593921239138 -0.05842661917341957
3840000000.0 0.10129272672186311 -0.10819974246182129
3860000000.0 0.03684213250241035 -0.1521234556133338
3880000000.0 -0.14015011835111002 0.09429266006675519
3900000000.0 -0.117816324003097 -0.13424846234579976
3920000000.0 -0.17870777441713157 -0.018102980462777817
3940000000.0 -0.11752825353672244 -0.13056718308929943
3960000000.0 0.12848686250212613 -0.11117537152875336
3980000000.0 0.15132093168942834 0.06732261155495775
4000000000.0 -0.020556142290075206 -0.1578981480872425
