!Created with skrf (http://scikit-rf.org).
# Hz S RI R 50.0 
!freq ReS11 ImS11
400000000.0 -0.49264028520026054 -0.6819351442744197
420000000.0 -0.7762825899157484 0.3211847420284781
440000000.0 -0.3496168743049842 0.7070190296310932
460000000.0 -0.5931053930523698 0.4249797491072094
480000000.0 -0.16899560124073532 -0.6408732002332052
500000000.0 -0.13471403481412905 -0.6167534665021871
520000000.0 0.5039900460757143 -0.19379205135967176
540000000.0 -0.40481444064048755 -0.2684589211376094
560000000.0 -0.40812509920083445 0.19345613174436507
580000000.0 -0.37769598740745897 -0.11539760401584756
600000000.0 0.002663774369274194 0.35776198059067693
620000000.0 -0.1290654982688143 0.3422345406052563
640000000.0 -0.16377272538610238 -0.3717719057959684
660000000.0 0.16732145730557413 0.410786762789299
680000000.0 -0.05735750831596889 -0.4596573725409636
700000000.0 0.35656491454759415 -0.2757957745535089
720000000.0 -0.4197384163665151 0.1252006163552754
740000000.0 0.17590803433380442 0.3530163659274667
760000000.0 -0.347243194809123 -0.08939705222218274
780000000.0 -0.3161768052635474 -0.013187503202347116
800000000.0 0.24998606239856905 -0.11813479489238016
820000000.0 0.2314456210670941 -0.014385220069036291
840000000.0 -0.09607221178251767 -0.16551962249397953
860000000.0 -0.02115746033058636 -0.1581812513200402
880000000.0 -0.13241465820148354 0.014960854321446868
900000000.0 -0.014918918884782485 0.09659328372561868
920000000.0 -0.028041638027355976 0.06776426877647516
940000000.0 0.04486854991324302 -0.039619669515271856
960000000.0 -0.029666542676498937 -0.062365020602380146
980000000.0 0.010715939302829504 0.09079646989960878
1000000000.0 0.09165999686464334 -0.007772558332599375
1020000000.0 -0.09617105075528 -0.05198486953154248
1040000000.0 -0.11082193866772397 0.061729933407021445
1060000000.0 0.09221860529715524 0.10504887000879569
1080000000.0 0.11909335270429061 0.1381333400313018
1100000000.0 -0.11939135236921739 -0.1627971508184907
1120000000.0 0.23581093308281967 0.04380501017253453
1140000000.0 0.267261154503025 -0.06336832165152874
1160000000.0 -0.30592036628758873 0.01104538200081739
1180000000.0 0.1418468396358949 0.29781967066104775
1200000000.0 -0.32355054866843413 0.09013945780741008
1220000000.0 -0.2740915789042957 0.22528569347767846
1240000000.0 0.3523808779298426 -0.14416483626567053
1260000000.0 -0.19516022618563875 -0.33782741906523045
1280000000.0 -0.3834002867854918 0.11679867132506863
1300000000.0 -0.36706796878224046 0.1717888691120965
1320000000.0 -0.30500088439590767 0.28231805086155254
1340000000.0 0.19681815413370535 0.37047057462081673
1360000000.0 0.3789721541939003 0.1646630017244118
1380000000.0 0.31758663270665055 -0.2423509807981338
1400000000.0 0.03425539819183881 -0.38169074372384376
1420000000.0 -0.12575923913672887 -0.3368995064822839
1440000000.0 -0.3423851156586087 0.022244875761746045
1460000000.0 0.2544280681155929 0.1897453303732106
1480000000.0 -0.2570315250434601 -0.12841257108482132
1500000000.0 0.17342282278915466 -0.17836863851456877
1520000000.0 -0.1558823526561615 -0.13972839596437245
1540000000.0 0.13367926955621356 0.09688525546530193
1560000000.0 0.01487075852216965 0.12886946980423228
1580000000.0 0.09178424595710678 0.05130629192654597
1600000000.0 0.07616180260767216 0.025349658489859275
1620000000.0 -0.03347343794134606 -0.05678858220493139
1640000000.0 -0.024601798006187843 0.03770526032545036
1660000000.0 -0.016469422120054533 -0.015584236132311238
1680000000.0 -0.005304841829763237 -0.0016517193998596218
1700000000.0 -0.008265155095098736 -0.023615077396320704
1720000000.0 -0.005009307677835276 0.04507493755071779
1740000000.0 0.011454673903927112 0.0662798725351251
1760000000.0 -0.0298354910729385 0.08642690133665866
1780000000.0 -0.04748761177086213 -0.11084508128721202
1800000000.0 -0.10375538010501385 0.11526109869761772
1820000000.0 -0.08168593986357246 0.16011081376521186
1840000000.0 0.2005957001109626 -0.041813537152845776
1860000000.0 -0.1563425007954965 -0.18074691170825652
1880000000.0 0.1502116229573313 0.23471244270830396
1900000000.0 -0.26750889292272645 -0.16755274971185707
1920000000.0 0.2658167358757115 0.22647232156288344
1940000000.0 -0.2924790546781131 -0.24715683464512
1960000000.0 0.4041211730514196 0.01807847120151883
1980000000.0 -0.3065022173863249 -0.27662549983313656
2000000000.0 -0.3329454080254892 0.2518045446777335
2020000000.0 -0.30074874768829 0.2884573662747877
2040000000.0 -0.34969983614749706 0.23900198074034096
2060000000.0 0.06497649395021138 0.42225987231166834
2080000000.0 0.42323711909219724 0.04203636712347723
2100000000.0 -0.06646761065180888 -0.4108493926955175
2120000000.0 -0.39556422776923406 -0.016394045781717805
2140000000.0 -0.37257467123152005 0.01922143835961438
2160000000.0 0.23537618913085445 -0.25882431088007224
2180000000.0 0.2686021965121876 0.20184065262562725
2200000000.0 0.27629863808135513 0.18190255623377855
2220000000.0 0.15480024736529877 0.28738106831019394
2240000000.0 0.3017184196300548 0.1345688146801974
2260000000.0 0.33299058448076796 -0.025601554439926063
2280000000.0 0.08036579948359365 -0.3413715777927746
2300000000.0 -0.24841563546669448 0.2773300484771826
2320000000.0 0.32620141165968336 -0.23605608762095728
2340000000.0 -0.11398055078413219 0.4263873349979038
2360000000.0 -0.31456651039763905 -0.3696525249218099
2380000000.0 0.4323335545939549 -0.31566655823566875
2400000000.0 0.4750916153732373 0.3389463109248402
2420000000.0 -0.3292948328532731 0.5331385174950976
2440000000.0 -0.6298869786452921 -0.20635850394579736
2460000000.0 0.45740901855446015 -0.5175669326710259
2480000000.0 -0.012005027586168763 0.709930616180103
2500000000.0 0.013326276222634732 -0.7213121283055117
2520000000.0 -0.07611685295633935 0.7188043306815013
2540000000.0 0.22034594453244788 -0.6838311126401061
2560000000.0 -0.5914710178109245 0.3901376774525382
2580000000.0 0.6715493253199957 0.15147586064279794
2600000000.0 -0.2981516569235555 -0.5893224781976484
2620000000.0 -0.5804772662651253 -0.2421591189231255
2640000000.0 0.3853165012541864 0.45221533598737834
2660000000.0 0.11248276014769329 -0.5443609975940711
2680000000.0 -0.33936192721827824 0.3898915356760716
2700000000.0 0.3309479402197933 -0.34581571106119807
2720000000.0 0.1545677779119864 0.4144382124897623
2740000000.0 -0.2414946071242431 -0.3288419854838955
2760000000.0 0.2309361215059287 0.29968350365850493
2780000000.0 -0.1616833307691613 -0.3163104214285173
2800000000.0 0.1412250697414497 0.3098114283321797
2820000000.0 -0.09366770957204922 -0.3207820067740553
2840000000.0 0.21604775714597152 0.25250758202083695
2860000000.0 -0.2678349135822105 -0.20340770224001517
2880000000.0 0.2628645364739962 0.22032881229849957
2900000000.0 0.048156505859242485 -0.3445468688198313
2920000000.0 -0.35154657546095647 -0.020454637998004687
2940000000.0 -0.22530421833235303 0.27262152384554267
2960000000.0 -0.1469374974931566 0.32534211611299757
2980000000.0 -0.28362955353687025 0.21457314654199058
3000000000.0 -0.2832143665267668 -0.2150983261596806
3020000000.0 0.18732018552912164 -0.29865262424492117
3040000000.0 0.25557888577034416 0.23856830287778813
3060000000.0 -0.3122517411681527 0.1431323311675704
3080000000.0 0.1532822440912092 -0.2947919978894432
3100000000.0 -0.13215253759938886 0.29287965332048244
3120000000.0 -0.07214708415758077 -0.30262478614377153
3140000000.0 0.2517954520382132 0.15711238396299196
3160000000.0 -0.06088606400687364 -0.27279758874543536
3180000000.0 0.2554380610767208 -0.04526520233674803
3200000000.0 0.11166791129068253 0.20292317770938278
3220000000.0 -0.20147228500269612 0.001704745114335982
3240000000.0 0.06681514270342437 -0.1594078573603891
3260000000.0 0.13832814350774417 0.01157110164165863
3280000000.0 -0.08067139447800903 0.07077645009886087
3300000000.0 0.04538533570352831 -0.06623360686362217
3320000000.0 -0.014434225025653459 0.056903050165881104
3340000000.0 0.0392250129693794 -0.005434309109856986
3360000000.0 -0.010334480841019192 0.024905991800658014
3380000000.0 0.021903043862527807 -8.477007851958346e-05
3400000000.0 0.023399462267918926 -0.01373056399359422
3420000000.0 0.04123848667886888 -0.0007619874117692134
3440000000.0 0.02021552781811346 0.05223106092587184
3460000000.0 0.0512605834740007 -0.046377861778564206
3480000000.0 0.05305651786897383 0.05525018643282534
3500000000.0 0.05821691536733265 0.06253784226977108
3520000000.0 -0.09888797165280298 -0.0020027831535468625
3540000000.0 -0.033194758950330694 0.11105832787940588
3560000000.0 0.10128128000058281 0.08164673416850288
3580000000.0 0.14191043987426386 -0.01461814828654714
3600000000.0 -0.05001320338560397 -0.14451857160528206
3620000000.0 -0.1548334673247062 0.04351998523218171
3640000000.0 -0.1378399384684586 0.08454235467228602
3660000000.0 -0.11026275717815574 -0.11860032132360722
3680000000.0 0.10563076502645738 0.11675953796444838
3700000000.0 -0.15460623277466568 -0.017592999776866753
3720000000.0 0.13814740685818694 -0.07123334651756608
3740000000.0 0.08715889076602351 -0.12396354944016846
3760000000.0 0.000786823831356472 -0.1448508337553609
3780000000.0 -0.13214265198803157 -0.017741758881143092
3800000000.0 0.11603273905028436 -0.052595604499889016
3820000000.0 -0.014898751790893217 0.12863129202533483
3840000000.0 -0.07322811915503992 -0.1129179508980072
3860000000.0 0.12431393435817545 -0.08010354908950792
3880000000.0 -0.16431700253018822 -0.017717932198768646
3900000000.0 -0.1199268069144978 -0.12803490399723874
3920000000.0 -0.1277258414018768 0.1203927778313292
3940000000.0 -0.0843698731860302 0.146141610197586
3960000000.0 -0.15910932324710655 0.02272700970917981
3980000000.0 -0.0419138405927868 -0.14232564369783776
4000000000.0 0.10041664067967838 -0.0952746253437725
