!Created with skrf (http://scikit-rf.org).
# Hz S RI R 50.0 
!freq ReS11 ImS11
400000000.0 -0.83616966952234 0.18895831363416313
420000000.0 0.23449964251892597 0.8089008346424079
440000000.0 0.7365725141365667 0.2669266433846132
460000000.0 0.45019104814590777 0.5529687382275017
480000000.0 -0.46314437164864153 -0.45862693877299215
500000000.0 -0.3585662922807994 -0.4927498637522562
520000000.0 0.49674381869316964 -0.19796483962166828
540000000.0 -0.43744577448057903 -0.17233716155780346
560000000.0 0.38346268186579524 -0.21722097761326284
580000000.0 0.204673092711423 -0.33219706555663536
600000000.0 -0.3361474110003562 0.12223693993786444
620000000.0 -0.34264160187632886 -0.11001415653752755
640000000.0 0.1258753305105255 -0.38860648495381434
660000000.0 0.20059155763025407 0.394483956863425
680000000.0 0.03932533530190528 -0.45761030323869134
700000000.0 0.2802046478028637 -0.35705812026945305
720000000.0 -0.07313347322419232 0.42648702362295077
740000000.0 0.2848850018686434 0.2644787068084482
760000000.0 -0.346477967642893 0.015714717271361773
780000000.0 0.2883050767706198 -0.13477870516983653
800000000.0 0.20558211478105773 -0.1997058593622644
820000000.0 0.22542041036954352 -0.09529574954103441
840000000.0 0.18291047258481405 0.08538446469753037
860000000.0 -0.13099059026885168 -0.11396756832027789
880000000.0 -0.11650570842395294 -0.06102325632922004
900000000.0 0.01462422900301876 0.09020568523623386
920000000.0 -0.01204375500620584 -0.05361217761325776
940000000.0 0.006366194449386982 0.04054189507610694
960000000.0 0.008682837950893176 0.05377248517653826
980000000.0 0.06719200680542271 0.008879760231168144
1000000000.0 0.01572331601740214 0.06507468738314996
1020000000.0 0.08516447793284422 0.020025594628447958
1040000000.0 0.11408820735922691 0.015213231711411423
1060000000.0 -0.022341013518030074 0.1553945882824946
1080000000.0 -0.08750033036164012 0.17790025615252647
1100000000.0 -0.18099471534557718 0.13021640346738939
1120000000.0 -0.1425008550531597 0.2098020143575439
1140000000.0 0.04612578127517259 0.27266797157835165
1160000000.0 0.2970206153901818 0.0242807277639812
1180000000.0 0.31019563553237317 -0.0849884571381682
1200000000.0 -0.3240008118632241 0.06238471111030229
1220000000.0 -0.3495943857941745 -0.050150124727783046
1240000000.0 0.2106213158879033 0.3262678489542602
1260000000.0 -0.1903646563365945 -0.3603390806763436
1280000000.0 -0.0871056111228781 0.4058742978929749
1300000000.0 0.37007389402964064 0.1899913719445561
1320000000.0 0.4083394911420855 -0.04171509266823503
1340000000.0 0.23541432414870417 0.3364624380126909
1360000000.0 0.34063603874738235 0.2250651599706892
1380000000.0 0.39524861953503865 0.05700766827111877
1400000000.0 0.35479165493467835 -0.1565687079304602
1420000000.0 0.08492265526008548 -0.3643751831846642
1440000000.0 -0.10530193389650383 0.3381310267105668
1460000000.0 0.2945688687239606 -0.12033788115770702
1480000000.0 -0.19324457567647801 -0.21582675982764477
1500000000.0 0.24708018544237426 -0.04594738040932429
1520000000.0 0.019055367853801533 -0.20845306481469672
1540000000.0 -0.04610381727521484 -0.1594236301246449
1560000000.0 0.13417923871485946 -0.04964991480961308
1580000000.0 0.075548584342071 -0.09136330483949677
1600000000.0 -0.051788692822267814 0.06202734085747524
1620000000.0 0.03311167627007926 0.04559912697896347
1640000000.0 0.030764454860381405 0.007189885719308704
1660000000.0 0.0013929540064081352 0.011945278172071378
1680000000.0 -0.002635606984996224 -0.020560754713671893
1700000000.0 0.03512014829459713 -0.022661989530980167
1720000000.0 0.027154701910772676 -0.04110556250373246
1740000000.0 -0.009662735642305652 0.059813922964619265
1760000000.0 0.03135108126369355 -0.07518358981017113
1780000000.0 -0.11078886626404731 -0.049817603518202705
1800000000.0 0.15529520741765787 -0.04126991471824141
1820000000.0 0.18748301437284687 0.01050126843535502
1840000000.0 -0.19025019784113575 -0.10337542530725762
1860000000.0 0.24395888037400884 -0.07810987732802396
1880000000.0 -0.006955652343567361 0.2928378618375893
1900000000.0 -0.31790688800020356 -0.07178666113996092
1920000000.0 0.3359873983202006 0.10226128194426937
1940000000.0 -0.302981992677865 -0.22675318795251015
1960000000.0 0.2998022164833254 0.25817068064930027
1980000000.0 0.20578099805916517 -0.3504994700788156
2000000000.0 -0.2871413217083644 -0.2985987328244701
2020000000.0 -0.41389352697992676 -0.06884044301023053
2040000000.0 -0.29206162573868705 0.31200069405659425
2060000000.0 0.4279059727865293 0.019061190516618805
2080000000.0 -0.00870182357515132 -0.4119200368172997
2100000000.0 -0.160602624422908 -0.36338558493528433
2120000000.0 -0.27630060077630386 -0.2653481072541766
2140000000.0 -0.36692812331411084 -0.013672716382095185
2160000000.0 0.15555862696735973 -0.3095113176788461
2180000000.0 0.3286941825554147 -0.07067012645144106
2200000000.0 -0.039755194040781726 -0.3281990231354771
2220000000.0 -0.30121579510799507 -0.09838673620750854
2240000000.0 -0.23657082203701074 -0.20755868806435715
2260000000.0 -0.32135645601037827 -0.03168528732984764
2280000000.0 0.12278219767666473 0.3144323234946245
2300000000.0 0.21194518289639597 -0.28700316017078714
2320000000.0 -0.38428394301509156 0.061722421260329105
2340000000.0 0.29605388528857157 -0.31470026947430446
2360000000.0 0.3438531163227749 0.3340067450608517
2380000000.0 -0.22562760044183344 0.4788524712149564
2400000000.0 -0.5777197173882654 -0.055487670509315995
2420000000.0 -0.19176222659855305 -0.5984689910844987
2440000000.0 0.5960171994962474 -0.3022187527335161
2460000000.0 0.13594574684684507 0.6859407535105062
2480000000.0 -0.6178734731537484 -0.3743895094483973
2500000000.0 0.7196311001628654 0.15239210393937092
2520000000.0 -0.6966279336949117 -0.2541714800291211
2540000000.0 0.5318323742773615 0.5165686520528818
2560000000.0 -0.32504153093699073 -0.6557347692833592
2580000000.0 -0.02301787399943369 0.7138063537263059
2600000000.0 0.42900722201462343 -0.5395344991564041
2620000000.0 0.05438512813611491 -0.6575957406413007
2640000000.0 -0.36672860145292735 0.5083357705876002
2660000000.0 0.5517454450210321 -0.21221743055839087
2680000000.0 -0.550500945179562 0.05816499554182459
2700000000.0 0.48551009074831203 0.17043969993612998
2720000000.0 -0.2501667846868514 -0.4069311836297213
2740000000.0 0.0058726303504422345 0.4455457642861372
2760000000.0 -0.034516314103999024 -0.41683724061072264
2780000000.0 -0.19214959621521804 0.350033527250751
2800000000.0 0.23120436927012944 -0.31587359007445487
2820000000.0 -0.03908039228350315 0.3799792081886729
2840000000.0 0.17177777192884325 -0.33474635196359687
2860000000.0 -0.3581144897195664 0.12193563425013634
2880000000.0 0.3218896853449455 0.19691896938056325
2900000000.0 0.22771673841123385 -0.29914114827392163
2920000000.0 0.19110559965128165 -0.32520414630090205
2940000000.0 0.1283993305509357 -0.35943831885404903
2960000000.0 0.06504959377014857 -0.3767819596648383
2980000000.0 0.31052553103088804 -0.2230263217772009
3000000000.0 0.19201792604542348 0.328518084456668
3020000000.0 -0.3793142754609542 0.0013455918434580392
3040000000.0 0.19811502119982308 -0.3194320249218039
3060000000.0 0.21182382128705024 0.2988877469333068
3080000000.0 -0.08798094981594819 -0.34638806055296506
3100000000.0 0.06363039353437513 0.3397940265999449
3120000000.0 -0.013184693951040966 -0.33405339006901646
3140000000.0 0.10625641523247249 0.2994638197863212
3160000000.0 -0.20572556749560272 -0.20845959761904753
3180000000.0 -0.26671645914054015 0.013820911218693492
3200000000.0 0.03306576702776229 0.23759986811515887
3220000000.0 0.19142454719246996 -0.09287856975030773
3240000000.0 0.1316091658332929 -0.12846079605975988
3260000000.0 -0.09803885496009503 0.12011367500554893
3280000000.0 -0.0035670559287969057 0.13743693192474382
3300000000.0 0.09345865989669602 0.08712164335950089
3320000000.0 -0.05083860801726754 -0.0981025997286178
3340000000.0 -0.07247744749004788 -0.06157109184367509
3360000000.0 -0.06935446784744827 0.05469949956309664
3380000000.0 0.008281068370013078 0.087771009389941
3400000000.0 0.08355285561929254 -0.007283310782520266
3420000000.0 -0.042255748370465925 -0.061788143225990876
3440000000.0 -0.0718217746060726 -0.03155062440059431
3460000000.0 -0.03364871106334904 0.061666011345363654
3480000000.0 0.01851426696862109 -0.05608712011322474
3500000000.0 0.05704379648639707 -0.018840261098071513
3520000000.0 -0.05544966682857286 0.002289400810525455
3540000000.0 -0.03500069074335637 0.035085305715523034
3560000000.0 -0.030557945072534336 0.06349479796397209
3580000000.0 -0.09294746412833585 0.004534467890041118
3600000000.0 -0.10123430285718531 -0.05663615873034306
3620000000.0 0.17507122084954055 -0.021356826276828327
3640000000.0 0.10905151168872065 -0.18628142904676603
3660000000.0 -0.21652093735560107 0.0724871574381978
3680000000.0 0.0969878659207655 0.19457550029255039
3700000000.0 0.14374214125042373 0.17489361055970196
3720000000.0 -0.19196789900383948 -0.16321552143426227
3740000000.0 -0.20208102849882345 0.17093501855615542
3760000000.0 0.18650571446364309 0.21882908463521522
3780000000.0 -0.15254926628963617 0.25127227057802104
3800000000.0 -0.1899058783985649 0.23065150464075976
3820000000.0 0.18261141416031737 0.24642652960974784
3840000000.0 -0.29555500927364076 -0.09232033287487645
3860000000.0 0.13434078997277793 0.29061820275848077
3880000000.0 0.012510765026924725 0.32456517493687526
3900000000.0 -0.07929223038045355 -0.30502280401470055
3920000000.0 -0.26292426694075044 0.16149864253115565
3940000000.0 -0.1980892049160657 0.180644854273858
3960000000.0 -0.13348685200216992 0.2144262966573182
3980000000.0 -0.08665756713949858 0.23876518313955336
4000000000.0 0.18063172326681834 -0.16232070515232702
