!Created with skrf (http://scikit-rf.org).
# Hz S RI R 50.0 
!freq ReS11 ImS11
400000000.0 -0.5762500794400918 -0.638487595496815
420000000.0 -0.611538738445283 0.5775046984542627
440000000.0 0.07393956704572902 0.7823271412989118
460000000.0 -0.4524048521682019 0.5588275096499851
480000000.0 -0.5484345835114127 -0.35696758601830825
500000000.0 -0.33635816247401323 -0.4941749156549555
520000000.0 0.5202672574512942 -0.0064540187136824965
540000000.0 0.12245913933243606 -0.44118537732458724
560000000.0 0.2984504622458608 0.31117254185836735
580000000.0 0.22038726494992095 0.31385100705905505
600000000.0 -0.0903907132130213 -0.34121824183589233
620000000.0 0.262468919989204 0.23603856662640815
640000000.0 -0.11758791375000402 0.40621851115524266
660000000.0 -0.180258794615753 0.4244343670308629
680000000.0 0.37270088906016213 -0.29563411148638796
700000000.0 0.44561448900920536 -0.1649256734228939
720000000.0 0.06691924451340821 0.455070743314936
740000000.0 -0.2932246449014049 -0.282956599650019
760000000.0 0.21940302920525367 -0.25482809348703933
780000000.0 -0.011270837536719328 -0.2946970655480749
800000000.0 -0.2528835741113691 -0.027200864990348364
820000000.0 -0.10964732371665417 0.20431226754103793
840000000.0 0.06787350299969941 -0.19577652471884563
860000000.0 -0.18004103064333582 -0.03165570107887404
880000000.0 0.06935748857633603 -0.1399917345044297
900000000.0 -0.06359284172288342 0.10906289179861235
920000000.0 -0.08349938560390918 0.016834573482643944
940000000.0 0.005899200544001574 -0.06589052857344739
960000000.0 0.06320924684803975 -0.003830970066601117
980000000.0 0.008661301814247332 -0.05430212382347926
1000000000.0 0.048711620138489585 0.037802597460489945
1020000000.0 -0.010969813994603513 0.07954228633527413
1040000000.0 -0.06082443393614758 -0.1028416272001674
1060000000.0 0.1104642846455856 0.12062261066177635
1080000000.0 -0.20011182417374096 0.04504066530346129
1100000000.0 0.23109787327233247 -0.09003430129345784
1120000000.0 -0.13553160394819336 0.24561568854857477
1140000000.0 0.2901548629113974 0.09742358856395313
1160000000.0 -0.1267010639298156 0.2974514547227114
1180000000.0 0.33237501343678855 -0.019056010016277165
1200000000.0 -0.07976626615003223 0.3165051020554042
1220000000.0 -0.3241920547038737 -0.0766051745309198
1240000000.0 -0.3355310002944175 0.12470038450827481
1260000000.0 -0.10979988701593077 0.3588663377815459
1280000000.0 0.068473668676953 0.38613257779502136
1300000000.0 0.157897892489158 0.37916492042189176
1320000000.0 0.02324114962245024 -0.42489823409107313
1340000000.0 -0.41809735895798295 0.050591759080271165
1360000000.0 -0.11806278232804555 0.39879883032321223
1380000000.0 0.38756340117269267 0.10304404585449309
1400000000.0 0.17763097850784632 -0.3360927294084137
1420000000.0 -0.1560887372922745 -0.3145210151632938
1440000000.0 -0.2461778388206171 -0.21845123172179173
1460000000.0 -0.30279487168142827 -0.015326025167588568
1480000000.0 0.24711579934861724 0.13861326889430126
1500000000.0 0.09253103747283882 0.23248598079047283
1520000000.0 -0.1332931248839984 -0.16252788785357758
1540000000.0 0.09602131273985699 -0.13626340716025573
1560000000.0 -0.037966931978603805 0.12106474830298716
1580000000.0 0.009444703312136395 -0.09122058887118245
1600000000.0 -0.047698706434799586 0.04032416650516202
1620000000.0 -0.038497917130792106 0.026306251525677747
1640000000.0 0.023307034669279927 0.018227737275636324
1660000000.0 0.011622433803623844 -0.003317457794893029
1680000000.0 -0.004577840273945791 0.004174328784724389
1700000000.0 -0.009601339964141711 0.008815194660821608
1720000000.0 0.012852676799906386 0.00807148061592554
1740000000.0 -0.032912548544931225 -0.0159674597755524
1760000000.0 0.047619670563829396 0.046558731074144794
1780000000.0 -0.06040686443678655 -0.07812483665774504
1800000000.0 -0.04345446278111001 -0.13792038907774934
1820000000.0 0.18135952999310462 -0.022389442333520457
1840000000.0 -0.005797984424262087 -0.21793091548825744
1860000000.0 -0.24239071505320675 -0.0727414683384794
1880000000.0 -0.2424704896770108 -0.1399283166361145
1900000000.0 0.29872427663735057 -0.018493006482802762
1920000000.0 0.06446502587585784 -0.314510574413765
1940000000.0 -0.1801881985058015 -0.299555728170019
1960000000.0 -0.1623996124108398 0.34406691398140776
1980000000.0 0.38615356882346724 -0.12054686353855015
2000000000.0 -0.4109556932408914 -0.09361042061635184
2020000000.0 0.1225173234580547 0.4096823075054499
2040000000.0 0.38432823923005616 -0.19022235123445946
2060000000.0 -0.10447208580844043 -0.4067162641501475
2080000000.0 -0.20333146366401458 -0.3577880251295205
2100000000.0 -0.2932302907183366 -0.2742871951765336
2120000000.0 -0.26162888863824113 -0.29315163197828054
2140000000.0 -0.32570116440947317 -0.20589267613107454
2160000000.0 -0.04303808668801751 -0.3700941110036087
2180000000.0 -0.27172117996735096 -0.23466223710149325
2200000000.0 -0.33539542744876977 0.06464502702017741
2220000000.0 -0.20728649454800707 -0.2544713274279621
2240000000.0 0.04620483253258105 -0.3263179912797539
2260000000.0 0.13740473492264163 -0.3077083113218183
2280000000.0 -0.2103735705900151 -0.280211923484667
2300000000.0 -0.36730921389897686 -0.036750570426512086
2320000000.0 -0.058032641267150645 0.397698810135238
2340000000.0 0.16134274191178474 -0.4148212946978286
2360000000.0 0.11135601443924738 0.4798969354578573
2380000000.0 -0.5418777791999214 -0.01438650676928562
2400000000.0 0.22938263026333772 -0.5422091845665632
2420000000.0 0.33104358185908644 0.5413233293212567
2440000000.0 -0.6771766131330719 0.014941567855791952
2460000000.0 0.4952758640541738 -0.512079855570591
2480000000.0 -0.14672482199197295 0.7244795544144876
2500000000.0 0.12324063794218665 -0.7467411827517756
2520000000.0 -0.25568435728860545 0.7207032422778854
2540000000.0 0.5436838529681155 -0.5388184185787016
2560000000.0 -0.7521321020730103 0.10623918343388819
2580000000.0 0.5569626610478804 0.4953554494830949
2600000000.0 0.01703338523773258 -0.7230116673293345
2620000000.0 -0.3711284432747684 0.5896661089309028
2640000000.0 0.14826450803218097 0.6476196098140948
2660000000.0 -0.023792638375843222 -0.622639143251403
2680000000.0 -0.024073837352928232 0.575536105776114
2700000000.0 0.32048842425207674 -0.41794311183463606
2720000000.0 -0.4802228820736219 -0.031559107044357236
2740000000.0 0.06007427009390817 0.4412378648419967
2760000000.0 0.11483883271062137 -0.4050816651306556
2780000000.0 0.20413447703693852 0.347011076576238
2800000000.0 -0.16810867709256588 0.34782119708788606
2820000000.0 -0.3411358626884684 0.13509750641475032
2840000000.0 -0.08430306823312188 -0.3368734241026695
2860000000.0 0.044773434007716696 0.33201224532152873
2880000000.0 0.3261435194618751 -0.057176921002020396
2900000000.0 0.0397021037912974 -0.3341360110318794
2920000000.0 -0.33282009407715935 0.10129326929882967
2940000000.0 0.3138999188492942 0.16982746562583106
2960000000.0 -0.05975604203725386 -0.3545863726202714
2980000000.0 -0.32723450489506273 -0.13170946591100355
3000000000.0 -0.11250881064468168 -0.3260782052487646
3020000000.0 0.3378161941552123 -0.01306799932089118
3040000000.0 -0.3329698874783774 0.043341594148529006
3060000000.0 0.21694158746858727 -0.25614244009662107
3080000000.0 0.07605562786172465 0.3251646406150288
3100000000.0 -0.27675740415081695 0.1838294940418669
3120000000.0 -0.2577781979459751 0.19266221108162573
3140000000.0 -0.2542966801224899 -0.1608033505534982
3160000000.0 -0.07231141465594242 -0.2561251343023158
3180000000.0 0.11706839064393662 0.20443538551632184
3200000000.0 -0.10201244795884148 -0.18143972707696313
3220000000.0 0.13876955302467278 0.11926652455344204
3240000000.0 -0.15122993671861634 0.05440356392151163
3260000000.0 -0.10934694176951627 0.08573291871903607
3280000000.0 -0.02308742509055045 -0.1096605273768971
3300000000.0 -0.02526985448091811 -0.08020271722559016
3320000000.0 0.038950434916800315 -0.04559723788550334
3340000000.0 0.011019091811341556 0.04087071317605527
3360000000.0 0.023999706704085095 -0.028931126477834093
3380000000.0 -0.017444140890369147 -0.03614450566541675
3400000000.0 -0.04672521932361985 0.011476401566924577
3420000000.0 -0.062008240213561744 -0.005171557545033374
3440000000.0 0.0557441289973439 0.0492454277023151
3460000000.0 0.08527019073722274 0.019348966166311436
3480000000.0 0.0229172974823375 0.09812686719675627
3500000000.0 -0.0819062170701527 0.08373919492202553
3520000000.0 -0.13334956682408852 -0.018953382305649646
3540000000.0 -0.045753894565464096 0.1452542669919723
3560000000.0 0.06860574315036072 0.1499776042224177
3580000000.0 0.1708803285249987 -0.04161732759741746
3600000000.0 -0.033124647814250716 -0.18030256865725228
3620000000.0 -0.09377066350753818 -0.15751335606210914
3640000000.0 0.06508698751166761 -0.17204925426759543
3660000000.0 0.17049537011920643 -0.06117501811909842
3680000000.0 -0.002487983635700697 0.1773311641289894
3700000000.0 -0.17008173953759453 0.03726620895503925
3720000000.0 -0.02383210638787662 -0.16848277245992824
3740000000.0 0.1335701155822735 -0.09198306236247628
3760000000.0 -0.1507181018021731 -0.00846989318788988
3780000000.0 0.10525625989663477 0.089819656643542
3800000000.0 0.10901692339916647 -0.0591977703147131
3820000000.0 0.0033560368467620305 0.1118567254801033
3840000000.0 0.04983992412749609 0.08903698104683098
3860000000.0 -0.06480225709720858 0.08186514558865189
3880000000.0 0.10484306176674571 -0.046584898256518216
3900000000.0 -0.021756534830909228 -0.12463315493110214
3920000000.0 0.024513960050559086 -0.1303374066284939
3940000000.0 -0.11157377187250256 -0.07389675861513419
3960000000.0 0.07539129473491343 0.101462426436345
3980000000.0 0.09510580952895922 -0.059222506080150776
4000000000.0 0.09203628575289602 0.006349027069500876
