!Created with skrf (http://scikit-rf.org).
# Hz S RI R 50.0 
!freq ReS11 ImS11
400000000.0 -0.854247477523168 0.12041070413889962
420000000.0 0.1924348436228144 0.8208590381528015
440000000.0 0.6627338951076324 0.4250935942073155
460000000.0 0.3928531332655661 0.6045133262973021
480000000.0 -0.5531860096647873 0.3463042834067438
500000000.0 -0.5920001258904354 -0.029010984118298246
520000000.0 0.4107656506419605 0.31643990445473646
540000000.0 0.20698827993834373 -0.420473647740504
560000000.0 0.15908335437202023 0.40959975880466376
580000000.0 0.39188024905535523 0.06977323515670839
600000000.0 -0.32277180630891 0.15985552925432212
620000000.0 0.028947099034936842 -0.3660834404801391
640000000.0 0.14483975076796785 -0.39419417853959127
660000000.0 0.4504993781990391 -0.013851933288853143
680000000.0 -0.4469921733393677 -0.06066990222248055
700000000.0 0.4353746312085058 -0.09212697787100123
720000000.0 -0.3305420587882637 0.277982454214557
740000000.0 0.008885782370170996 0.3892680481288158
760000000.0 -0.3489375904759602 -0.03946148350729501
780000000.0 0.2069219764096061 -0.2441108157797129
800000000.0 0.2823969153074594 -0.08264519301687377
820000000.0 -0.24991489420402158 0.0144940906638695
840000000.0 -0.18279351832138516 -0.06797218086361534
860000000.0 -0.09958748691469498 -0.1219239369182478
880000000.0 -0.11195940456347932 -0.0528755614930734
900000000.0 0.05365613928935281 -0.07883693391280783
920000000.0 -0.022457238454301427 -0.06141832762943629
940000000.0 0.04359988064359129 0.01269908973259163
960000000.0 -0.045764556752519614 -0.030635588366399864
980000000.0 0.06483787982977281 0.014216008703211479
1000000000.0 -0.06312428295472201 0.04531148922745416
1020000000.0 -0.06212410510220574 0.06132555755177231
1040000000.0 0.07338924021838239 -0.08561264232538522
1060000000.0 0.09251366395336409 0.13029326612512357
1080000000.0 0.004047537364502841 0.19537349781548075
1100000000.0 -0.2260365195329604 -0.01804011881339306
1120000000.0 0.19020965136242698 0.163698383763595
1140000000.0 -0.2098552185156775 0.17433531342429034
1160000000.0 0.2848692012411051 0.08455972204858295
1180000000.0 0.1601744714877676 0.273125439109053
1200000000.0 0.04212034249631196 -0.33517781030117944
1220000000.0 -0.33365352881930793 0.14850247878695091
1240000000.0 0.2981997372418449 -0.25225346509811736
1260000000.0 -0.3419399303376612 0.20777616486514486
1280000000.0 -0.11786804695501242 0.38164164973435355
1300000000.0 -0.19594974692443162 0.35943065174523336
1320000000.0 0.02178113573641272 0.4131476088560222
1340000000.0 0.16418488501159303 0.3900063041253335
1360000000.0 0.3664893558779865 -0.191100054347004
1380000000.0 0.3881203492556308 -0.10008257765697777
1400000000.0 0.16692504260338695 -0.34987293924673574
1420000000.0 -0.142193572968791 -0.34191010167874897
1440000000.0 -0.28556661538913897 0.20323682051863168
1460000000.0 0.24260442168903815 0.21012632317345026
1480000000.0 -0.14381013727542033 -0.25772197585272316
1500000000.0 0.2240041718889957 -0.12412705292019682
1520000000.0 -0.1438800018554164 -0.1575216579800197
1540000000.0 -0.16622826562126303 0.022983847963375298
1560000000.0 -0.12562569999268255 -0.05936454186453285
1580000000.0 0.09485129017510975 0.059332211946256576
1600000000.0 -0.01769519244326104 0.08056144080868846
1620000000.0 0.0023085378362693804 -0.06289503173848382
1640000000.0 -0.031839781967277894 -0.017304817519620205
1660000000.0 -0.005127050877899989 0.012041801489898972
1680000000.0 0.005618448762384137 0.016007491108891173
1700000000.0 0.01919192532621095 0.02520926225258711
1720000000.0 -0.0025009848119999225 -0.04511003212102283
1740000000.0 -0.034266714703424496 0.055391639702765075
1760000000.0 0.014595636298824394 0.08786336700254611
1780000000.0 0.10326494506148029 0.05478513424885069
1800000000.0 0.13429329709506838 -0.07720633517704645
1820000000.0 0.17168270988595247 0.06009823320234286
1840000000.0 -0.08093622268863335 -0.19613984284381897
1860000000.0 0.0642127093762352 0.24779756747122458
1880000000.0 -0.05460810790912353 0.2943204242839131
1900000000.0 -0.3281505941485945 0.032254494731044504
1920000000.0 0.2371195371264987 -0.2640311588249936
1940000000.0 -0.3536319599740969 0.12095830220769734
1960000000.0 0.27576352072921023 0.27491740665428854
1980000000.0 0.39621356643911954 -0.06865835391445371
2000000000.0 0.15306678602084678 -0.3912541997287609
2020000000.0 -0.43070091834690866 -0.011354394331274342
2040000000.0 0.21690962574179257 0.3716202785359401
2060000000.0 0.4172718748841561 -0.04776260053634988
2080000000.0 0.35595192958546534 -0.20257400423933405
2100000000.0 0.2278979039905783 -0.328042930007638
2120000000.0 -0.03150340428974462 -0.38571618710775024
2140000000.0 -0.3289578596960514 -0.17041087816662331
2160000000.0 0.09010240139714998 -0.3383802922490924
2180000000.0 0.11134554807281329 -0.3156514255977211
2200000000.0 0.004808203232427655 -0.321224378130646
2220000000.0 0.17409428442766658 -0.2576572938332025
2240000000.0 0.11100888080043302 -0.29606963158520394
2260000000.0 -0.31807492244498536 -0.059806646701809615
2280000000.0 0.017058962066609017 0.33196235881201147
2300000000.0 0.31903202574672784 -0.1522637968327432
2320000000.0 -0.37859051062604276 0.07248686976409806
2340000000.0 0.3860448201423857 -0.1858658115244134
2360000000.0 0.2004121756563065 0.43491813572837473
2380000000.0 -0.2786921892048106 0.4524651417425181
2400000000.0 -0.5488400197201825 -0.19249157381220075
2420000000.0 0.1307599588763038 -0.6138560364028146
2440000000.0 0.655099497126842 0.132573711094006
2460000000.0 -0.35823573709029294 0.6008047277989117
2480000000.0 -0.31410372028650785 -0.6501360081113006
2500000000.0 0.6020769212073706 0.4223776881767438
2520000000.0 -0.6054147647647118 -0.42702836892854806
2540000000.0 0.43797501427588265 0.5933585670473829
2560000000.0 -0.2123361571998568 -0.6957143600037525
2580000000.0 -0.45751903970377583 0.5447709387860274
2600000000.0 0.6856329731347768 -0.0621792718526487
2620000000.0 0.5242838119450267 -0.40217584395110934
2640000000.0 -0.6046554545770758 0.1687713286611181
2660000000.0 0.5858006013734157 0.05976138772787725
2680000000.0 -0.5059589159765733 -0.2123917041625433
2700000000.0 0.3268369401558688 0.39020986972691096
2720000000.0 -0.21393167151761003 -0.4236011734580393
2740000000.0 0.23389860098611168 0.378777806748537
2760000000.0 -0.2151788853258029 -0.36021295805034015
2780000000.0 0.12270194272440987 0.3796094618412447
2800000000.0 0.2394490822067353 -0.3018171694260138
2820000000.0 -0.3385466228622461 0.17729699512729025
2840000000.0 0.3493640861486482 -0.151870964533924
2860000000.0 -0.33139834539649377 0.19261574864766004
2880000000.0 0.36963608215632765 -0.09032468072363205
2900000000.0 0.027019784314776845 -0.37446459499437085
2920000000.0 -0.10857791536725579 -0.35952674698385434
2940000000.0 0.10395489341157672 -0.3638125326443024
2960000000.0 0.273224850980287 -0.26637100242000267
2980000000.0 0.38547037452512994 0.020920763911335998
3000000000.0 0.2764829482585473 0.2721671614687693
3020000000.0 -0.18326394418930514 0.33390714344368577
3040000000.0 -0.10941934446018099 -0.3572577603947474
3060000000.0 0.21315705296531862 0.2948573059698155
3080000000.0 -0.14876852926969822 -0.3221879250210187
3100000000.0 0.07678779241896312 0.33623027700232566
3120000000.0 -0.2238300341753995 -0.24875528927774376
3140000000.0 0.31643775929136964 -0.009300933385327802
3160000000.0 -0.288413657825891 0.05379929620422761
3180000000.0 -0.12761656544097025 0.23319102605374536
3200000000.0 0.21617244906260968 0.10382565851358508
3220000000.0 0.03592089653819274 -0.21153380928086138
3240000000.0 -0.14004735451561381 -0.12276604992593514
3260000000.0 -0.11073588078499431 -0.11564268891806274
3280000000.0 0.05198051970126743 0.11898258235319656
3300000000.0 -0.0708680800241481 0.08796726804584176
3320000000.0 0.003599609929077879 0.10320658682374778
3340000000.0 0.049809880823632566 -0.07891524148549942
3360000000.0 -0.02727478358790428 -0.08021667650034892
3380000000.0 0.02609605000660042 -0.0704447266990367
3400000000.0 0.04622441699371339 -0.052379017567605345
3420000000.0 0.06793190377462183 -0.017961503795146994
3440000000.0 -0.05573711080857899 0.03520978572424522
3460000000.0 0.04082150377899772 -0.04609505188500175
3480000000.0 0.04441043647521239 -0.0400418957352583
3500000000.0 0.04244492207609848 0.03508422837111659
3520000000.0 0.06009074987379005 -0.004107336691560962
3540000000.0 -0.06982630004410192 -0.015238546589134561
3560000000.0 0.028827733246735286 -0.08294962441664329
3580000000.0 0.08151119103826195 0.0737388453493899
3600000000.0 0.09885198552330643 0.10858584925494047
3620000000.0 -0.011829373279506249 0.1673002127902684
3640000000.0 0.0835339131325896 -0.16316800722408054
3660000000.0 -0.18562946636996064 -0.0737178974231149
3680000000.0 0.009619917888636432 0.19292305278726055
3700000000.0 0.13057832271628986 0.16551451673218565
3720000000.0 0.1407033968400549 0.17360614980904793
3740000000.0 0.07787805546409556 0.22978848603030677
3760000000.0 -0.07444340312750994 -0.24576232008773527
3780000000.0 0.17351172464174947 -0.19779066457628247
3800000000.0 0.26655207753610105 0.03778114923591236
3820000000.0 0.21003876333397578 0.17894041885422124
3840000000.0 0.2702299733059112 -0.09332819136126608
3860000000.0 0.08876566595659624 0.27876643159248315
3880000000.0 0.2469265695772116 -0.15700774164757683
3900000000.0 0.22717482934986108 -0.1833036428132089
3920000000.0 -0.11210827618979427 0.25003217530364263
3940000000.0 0.2592295928528542 0.054867296588233756
3960000000.0 0.002435806142101101 -0.2601158509786309
3980000000.0 -0.24593918839535117 0.021407345981696777
4000000000.0 0.22636540982588912 -0.045500009116076726
