!Created with skrf (http://scikit-rf.org).
# Hz S RI R 50.0 
!freq ReS11 ImS11
400000000.0 -0.8370483843203075 -0.18707055784918727
420000000.0 -0.12926608600640907 0.829494406426779
440000000.0 0.6041982784969993 0.5057803885714983
460000000.0 0.35928574251192263 0.619847373446747
480000000.0 -0.5172661709610445 0.39373551139090607
500000000.0 -0.5858932104754575 0.020504687036073624
520000000.0 0.5187027722790497 0.029162032692744533
540000000.0 0.013837608979893548 -0.4639691559920112
560000000.0 0.2532842926155393 0.35571859716382564
580000000.0 0.3832976430131308 0.0821500038429861
600000000.0 -0.25328465934906425 -0.25659326069729865
620000000.0 -0.19829570168126207 -0.3090883649289385
640000000.0 0.12723256217420326 -0.3865016596284095
660000000.0 0.0929471666354869 0.43279545830652016
680000000.0 -0.2744189540012394 -0.3638689033436331
700000000.0 0.27226146993021944 -0.34856475649668095
720000000.0 -0.4133937966983631 0.07722145898045069
740000000.0 -0.37369861190666576 0.11597473177577972
760000000.0 -0.15983212264065136 -0.3171955853771641
780000000.0 0.24865000124439307 0.2154930924391289
800000000.0 -0.14387272108445504 -0.25732892690460135
820000000.0 -0.18805072240460538 -0.14266330185359033
840000000.0 0.13014504851610129 0.14501306457628196
860000000.0 -0.14709436577322857 -0.0809646014544729
880000000.0 -0.12204251802462375 -0.02020603171171639
900000000.0 0.08448649260740698 -0.04153344366124231
920000000.0 -0.011204555759871568 0.05988773292333586
940000000.0 0.04859871950766307 -0.016165231731138006
960000000.0 -0.03621569961178729 -0.048482884456734016
980000000.0 0.05516575253809205 -0.031153432310674946
1000000000.0 -0.08420219114126808 0.013500884681891524
1020000000.0 -0.09792551822482963 0.012220648111373916
1040000000.0 0.12125694733144922 0.025806861976876302
1060000000.0 -0.14146560796253305 -0.04456212467054724
1080000000.0 0.045283365845290593 -0.17704425639118268
1100000000.0 0.20490753166942074 0.08572765959716616
1120000000.0 -0.24360203060654442 -0.03994522094824058
1140000000.0 -0.12659755709380927 -0.22876065508778906
1160000000.0 -0.25088139114382607 -0.13783955086266356
1180000000.0 -0.23055936511492298 -0.20621096258134863
1200000000.0 0.32497479553380415 0.03205450141431661
1220000000.0 0.018411381564691146 -0.35189088858527806
1240000000.0 -0.136628807405884 0.35193554041388647
1260000000.0 0.07329203224656984 -0.3858163179169963
1280000000.0 -0.3983429169173566 0.03498456057304208
1300000000.0 -0.3262564710621359 0.23098098018608246
1320000000.0 -0.31518682418702443 0.25367401732978545
1340000000.0 0.022096324251713977 0.4116426416664437
1360000000.0 0.39996015909837235 -0.05652981719268346
1380000000.0 0.3695902743324626 -0.11477820224006252
1400000000.0 0.2689999974440082 -0.259900092499033
1420000000.0 -0.1418623111078014 -0.32623441063012426
1440000000.0 -0.32695497122029565 0.08826535289058092
1460000000.0 0.2577911304318355 0.1749964056976913
1480000000.0 -0.07405415468868397 -0.27381223405055405
1500000000.0 0.2382610219966568 -0.059202617996021334
1520000000.0 -0.004361953449829025 -0.2037139441706834
1540000000.0 -0.12066882280045953 0.11696798486919348
1560000000.0 0.10614431230455448 0.09668691318424824
1580000000.0 0.10899014389723746 0.03743295595204089
1600000000.0 -0.05310569368292821 0.0636109355696147
1620000000.0 0.056482480019452004 -0.02251292848866142
1640000000.0 -0.031222420324026685 -0.009779686072584884
1660000000.0 0.009774037126922786 -0.003905957129357109
1680000000.0 -0.0027610449970673578 -0.002749453144426041
1700000000.0 -0.026045093841408313 -0.012316694033002716
1720000000.0 0.01753885853231979 0.03512642699323471
1740000000.0 0.057666170982984266 0.01694266767167548
1760000000.0 0.03136471000991031 -0.07406443982867085
1780000000.0 -0.019606315306258063 -0.10315851612017181
1800000000.0 -0.09812685982162019 -0.09434870991661795
1820000000.0 0.1627472967930727 0.01838019201898407
1840000000.0 -0.15829307852068314 -0.11932747747087868
1860000000.0 0.14819696587073763 -0.19375981697966657
1880000000.0 0.2537692504398042 0.12412792362305097
1900000000.0 -0.22490393060188096 0.22647994361937537
1920000000.0 0.2841787907243904 -0.20306693266718231
1940000000.0 -0.31112990730631745 0.2010835400765348
1960000000.0 0.38347792552394977 0.04879440203021607
1980000000.0 0.21306200404818146 -0.34010448183659636
2000000000.0 -0.17738578922039422 -0.3805661985190227
2020000000.0 -0.4212984316893427 0.07030490535545433
2040000000.0 0.03369765000637008 0.42960054372715045
2060000000.0 0.4205558276436988 0.07792509455553161
2080000000.0 0.08490311493461601 -0.41355669821175645
2100000000.0 -0.37611890359266925 -0.15905767972637194
2120000000.0 -0.3634078330649223 -0.1512440804850348
2140000000.0 -0.37529234052057336 -0.044508019938228865
2160000000.0 0.26424253483649274 -0.24386406254359416
2180000000.0 0.2740497664530948 -0.21119801013733117
2200000000.0 0.30781133955561846 0.10533135540433138
2220000000.0 0.16334731582237147 0.28105159897228876
2240000000.0 0.29786693290697774 0.15332016776993554
2260000000.0 0.32779529301424937 -0.09450037313242414
2280000000.0 -0.012204573122208193 -0.3489800103942078
2300000000.0 -0.3664261454217599 -0.03999965682817502
2320000000.0 0.03323087062989413 0.3958028215274723
2340000000.0 0.01377409627765154 -0.4336604232439953
2360000000.0 0.2753305960238577 0.3876605169606685
2380000000.0 -0.5225856404168556 0.04703445835647735
2400000000.0 0.23265746504578505 -0.5240535182415856
2420000000.0 0.5161770680141183 0.339495112966458
2440000000.0 -0.39632870282496513 0.5194585186771697
2460000000.0 -0.22534199072543928 -0.6457450211604999
2480000000.0 0.24340298268136004 0.6730370132240577
2500000000.0 -0.18702198784508936 -0.7098937764197619
2520000000.0 0.20939291807017546 0.7035833251894505
2540000000.0 -0.32413992311622025 -0.6496773990312031
2560000000.0 -0.3777781262601221 0.6192060006579999
2580000000.0 0.7061800188550126 -0.09656416785845892
2600000000.0 -0.674864406786255 -0.1227160624806487
2620000000.0 0.49240155278084535 0.43446879467399274
2640000000.0 0.5880261636356728 0.22570164780276705
2660000000.0 -0.09190661289712947 -0.5952434547669516
2680000000.0 0.5435111659182188 -0.07333704078520853
2700000000.0 0.18890007869749306 0.463758629171008
2720000000.0 0.4572759759828422 -0.12836874000569423
2740000000.0 0.10498113736304361 0.45241235984399786
2760000000.0 -0.27375079442182415 -0.28711110567776144
2780000000.0 -0.30582043991899743 -0.2190423406895097
2800000000.0 0.3561112946376941 -0.024428592780992357
2820000000.0 -0.03096022106775987 0.39353321758656223
2840000000.0 0.3452196536303477 -0.18141252201171382
2860000000.0 -0.37460651400678124 -0.11072579440871728
2880000000.0 0.06334661402569333 0.3877130274901417
2900000000.0 0.3769236664117524 -0.12696593257177946
2920000000.0 -0.2596566231144447 -0.30717059690863896
2940000000.0 -0.33245379305050254 -0.11887783542050026
2960000000.0 -0.31758119947017577 0.14974287096260838
2980000000.0 -0.26544072156562265 -0.22620075442580176
3000000000.0 0.23989588951349697 -0.25631110726348777
3020000000.0 0.3357606442736769 0.1154823512231647
3040000000.0 0.10448186772596663 0.3345864386911462
3060000000.0 -0.3445714677402943 0.05489912966340316
3080000000.0 0.20736128174356308 -0.2688050513551347
3100000000.0 -0.09871663767658974 0.31606298892115564
3120000000.0 -0.25602515443081264 -0.19021887481914418
3140000000.0 0.20583038006324825 -0.22341526676754744
3160000000.0 -0.005055490761112519 0.28287719058683003
3180000000.0 -0.1566152560185225 0.2015463781057744
3200000000.0 -0.20461250682390536 -0.09992243654345637
3220000000.0 0.19307598048739666 -0.057947507678928034
3240000000.0 -0.02794571385979742 -0.17864427688187925
3260000000.0 -0.12790693529257408 0.05625461671010569
3280000000.0 -0.10094322944656353 0.04126323438848448
3300000000.0 0.078787664246874 0.004024757350214025
3320000000.0 0.028318544501586364 -0.04907475919437203
3340000000.0 0.03295593755354221 -0.02537385750539199
3360000000.0 -0.036000414306346644 0.0009062322109724143
3380000000.0 0.02605070534567814 0.02970336877017367
3400000000.0 -0.04189543293572179 -0.004865734778449472
3420000000.0 -0.04216445001666659 0.02863662563581954
3440000000.0 -0.051850015834438906 -0.01890987180955198
3460000000.0 0.07532090736067727 -0.03718443513562944
3480000000.0 0.06620344844043342 0.06969632587545212
3500000000.0 0.04755669607198692 -0.10260856278929248
3520000000.0 0.1264778490443491 -0.012146426078663149
3540000000.0 0.011888290857375725 -0.14108666934578057
3560000000.0 -0.07894857912877548 -0.13314985254921208
3580000000.0 0.15139495420791188 -0.050344914024430455
3600000000.0 0.10088920953095072 -0.13787615469947695
3620000000.0 -0.027211197363526278 -0.17702219750670778
3640000000.0 0.04353911547350165 -0.17649689256967452
3660000000.0 0.1584312356918862 0.08839816430065385
3680000000.0 0.10112901321510069 -0.15092092346155714
3700000000.0 0.17557049246891931 -0.027452963955498372
3720000000.0 -0.16300870951425894 0.2361981523237647
3740000000.0 -0.07709023316232541 -0.2724233391567048
3760000000.0 0.26589704891887805 0.11887475293221231
3780000000.0 -0.07309371296238763 0.28044021629307014
3800000000.0 0.13718061358146516 -0.22486016844761939
3820000000.0 -0.14687828062186972 -0.10324332359410716
3840000000.0 0.07000203078710504 0.1655202208752358
3860000000.0 0.06646412848716099 -0.11828605740510226
3880000000.0 -0.2379391360436926 0.0365371344838013
3900000000.0 0.1931751148895462 0.1610666690632678
3920000000.0 -0.008168450726783141 0.25525110340014945
3940000000.0 -0.11767443570834785 -0.12008175603127011
3960000000.0 0.1492591193687782 0.009254882812698569
3980000000.0 0.12768225843661604 -0.030231613616092327
4000000000.0 0.03491103851784953 -0.11659208719354955
