!Created with skrf (http://scikit-rf.org).
# Hz S RI R 50.0 
!freq ReS11 ImS11
400000000.0 -0.6859378839906134 -0.48535475715566684
420000000.0 -0.6620823760779964 0.5196818449009607
440000000.0 0.08171923663534114 0.7792514870636342
460000000.0 -0.29960107372555855 0.6557990277228046
480000000.0 0.07206773416249052 -0.6465086994125646
500000000.0 0.5502148005295657 -0.3035849748541523
520000000.0 0.5002156097312567 0.23644784809329486
540000000.0 -0.3705759219810719 -0.33541554398231316
560000000.0 -0.4543168824821969 -0.07938271723945198
580000000.0 -0.22831409594023042 -0.33972597179837527
600000000.0 0.368216454812887 -0.08559309762682436
620000000.0 0.15102732920146555 -0.3359567464325557
640000000.0 -0.265950076243131 0.30487994312301625
660000000.0 0.206980767093258 -0.38449097615778954
680000000.0 -0.4432445711995012 -0.085115111383516
700000000.0 0.13712081321121802 -0.41383642356533196
720000000.0 -0.38135764496713065 -0.1715850519343906
740000000.0 -0.1689156960347746 -0.35070804831598207
760000000.0 0.20637721577973975 -0.3039963335650813
780000000.0 -0.06715251429836214 -0.32389594313051173
800000000.0 -0.060078933376325486 -0.2768201528419914
820000000.0 0.23419740739827158 0.055251519455908345
840000000.0 0.10710684450464868 0.16930599903579274
860000000.0 -0.11106234941216614 -0.12124344296253321
880000000.0 -0.006294822690445144 0.1236701482969162
900000000.0 0.07397025073930748 -0.04274722261269639
920000000.0 -0.05081065052829346 -0.018814019064471846
940000000.0 0.015099862109013313 -0.036454311955271566
960000000.0 -0.04652059642385608 -0.011265461792100593
980000000.0 0.046522087441855445 0.05075909651292905
1000000000.0 0.0741190705326259 0.0163042111728109
1020000000.0 -0.09144750550594816 0.059261412713278484
1040000000.0 -0.037725785591107695 -0.12786410347063892
1060000000.0 -0.15626247284567862 0.013266344406907576
1080000000.0 0.19033901769722716 -0.04893184560006868
1100000000.0 -0.16779664205345984 0.13806492468222079
1120000000.0 -0.2508949137178952 0.014092882000263079
1140000000.0 -0.17696107855388807 0.21731051119165404
1160000000.0 0.2961102708485509 0.03664792447296284
1180000000.0 0.17103149783759544 0.2747022761445829
1200000000.0 -0.335497068059596 -0.014986358132300077
1220000000.0 -0.3436855273496556 0.09226372675825567
1240000000.0 0.37865015544333436 0.05902630467242172
1260000000.0 0.020573751666391117 -0.39627397002860354
1280000000.0 -0.40659326981317734 -0.042725314723591035
1300000000.0 -0.19970272528899166 0.36563772723626636
1320000000.0 0.0738629299672572 0.41259712332302884
1340000000.0 0.3140667610554679 0.2763514893529164
1360000000.0 0.3782290222231312 0.16346226189073582
1380000000.0 0.33449455786233345 -0.21490487475214165
1400000000.0 0.19738580912729004 -0.3271288960090202
1420000000.0 0.0017367904360323756 -0.3618207027650384
1440000000.0 -0.3389090109813911 0.06917059171397107
1460000000.0 0.26396711886086976 0.17498163300576644
1480000000.0 -0.24560080371128307 -0.1469980758888509
1500000000.0 0.24100369951922268 0.05620220707218642
1520000000.0 -0.07081290271453822 -0.198531549435458
1540000000.0 0.13093931526510375 0.09944984793749555
1560000000.0 -0.008208582312978488 0.12880817678373477
1580000000.0 0.06409310577680674 0.08540955482196491
1600000000.0 0.007556481005117468 0.07852919967257366
1620000000.0 0.042932247669061445 0.049083145846255186
1640000000.0 -0.04466895510314356 -0.005923475872188038
1660000000.0 0.015647721181104867 -0.012442090913166011
1680000000.0 -0.002020083164574571 0.010865590074372954
1700000000.0 -0.030815798179972664 0.01841338918635257
1720000000.0 -0.04989457652832452 0.02718960560301903
1740000000.0 0.012897675299893257 -0.07683672491839812
1760000000.0 0.09541666965393422 -0.005599045550490217
1780000000.0 -0.012315473524716791 -0.11341550869157209
1800000000.0 -0.12699998666759874 0.05869201670729981
1820000000.0 0.02163393249130913 0.1692844348286513
1840000000.0 0.21171373473835498 -0.021435765325419825
1860000000.0 0.10246517033812189 0.2401376209327259
1880000000.0 0.14312803155427462 0.2664974930291913
1900000000.0 -0.12810971552212422 0.3054593747524287
1920000000.0 -0.04935035167673037 -0.3488961360349624
1940000000.0 -0.2871498119891199 0.23408903296279843
1960000000.0 0.36856649838671013 0.12469926409042095
1980000000.0 0.2686886933186606 -0.2942940019252349
2000000000.0 0.03734595872265259 -0.4113177400434065
2020000000.0 -0.27080489604842267 -0.3272059083376437
2040000000.0 -0.3217619271504262 0.2945059680968345
2060000000.0 0.4160082238121671 -0.11861511450087417
2080000000.0 -0.12169313015016589 -0.4004530875434017
2100000000.0 -0.39367869541643685 -0.0833447423753907
2120000000.0 -0.383134500281967 -0.0009934703505841836
2140000000.0 -0.33409254264437616 -0.1533357081128483
2160000000.0 0.20090935546311617 -0.2863787855333982
2180000000.0 0.3323059137813227 -0.04150084918521419
2200000000.0 0.3287271709307481 -0.02711361082709152
2220000000.0 0.29107507370412405 -0.13895438838455382
2240000000.0 0.24927798761846795 -0.21343736255853882
2260000000.0 -0.10440681935137845 -0.31941309228601994
2280000000.0 -0.3177132036190253 -0.1479146835085719
2300000000.0 0.3635847485541808 0.06505460468236299
2320000000.0 -0.2842084236876006 -0.27978694691612327
2340000000.0 0.2850556371718624 0.3368545254252107
2360000000.0 -0.34109349021600305 0.352179143597231
2380000000.0 -0.4814095622158994 0.26321626097131856
2400000000.0 -0.4863109050977042 -0.3468877870587621
2420000000.0 0.1824082858639715 -0.6149856144939155
2440000000.0 0.6594278288023353 0.15687969868847532
2460000000.0 -0.5567751868918647 0.42977791905774776
2480000000.0 0.6519869768466916 -0.2905454602109518
2500000000.0 -0.33088648170220014 0.6469942265735997
2520000000.0 0.45356997730217813 -0.5691178184436086
2540000000.0 -0.6313136350670051 0.34740885912950126
2560000000.0 -0.09180242262427116 -0.722450426058304
2580000000.0 -0.37061782823671774 0.6036379315652093
2600000000.0 0.6754465765860517 -0.09521650674964365
2620000000.0 0.5126783671277462 -0.4023340379180777
2640000000.0 0.21513177075066867 -0.5594714643531967
2660000000.0 -0.01732892316571509 0.5713818267633294
2680000000.0 0.3712102397381559 -0.37436775111482556
2700000000.0 -0.47754558553705323 -0.08411593178022761
2720000000.0 0.13151235055985488 -0.43686148266089736
2740000000.0 0.03542796210881137 0.42868134234086025
2760000000.0 0.013073993584749696 -0.4028085883202384
2780000000.0 -0.059057220641170874 0.37621349105534196
2800000000.0 0.2923323186502297 -0.22701319501854414
2820000000.0 -0.2333484150309131 0.26765525088724257
2840000000.0 0.22158138953154122 -0.27039268182271453
2860000000.0 -0.2950373691547453 0.18224349387567013
2880000000.0 0.34253999652540573 0.07724034794615463
2900000000.0 0.34313707799652904 -0.12216026779846235
2920000000.0 -0.05301153813375812 -0.36398873660989056
2940000000.0 -0.2429751300900321 -0.28120611248997557
2960000000.0 -0.3319905788572063 0.16070222762716815
2980000000.0 -0.24541254259712295 -0.2755609746886079
3000000000.0 -0.2528007118972035 -0.26250001989342286
3020000000.0 0.06301979998752284 -0.35484398358593777
3040000000.0 0.09261395514114301 0.3444728120424519
3060000000.0 0.1519534621089426 -0.3175668605608717
3080000000.0 0.14337212305059446 0.30746273864199336
3100000000.0 0.31176988832037117 -0.11078729939173894
3120000000.0 -0.3174644643099555 -0.04217572085262772
3140000000.0 0.23317247793963078 -0.19973856273612828
3160000000.0 -0.28193903528596537 -0.048964737968022934
3180000000.0 0.12713100945240724 -0.22933225890707107
3200000000.0 -0.1192365695183362 0.2051704959425578
3220000000.0 0.1108802364791154 0.1686191014067611
3240000000.0 -0.13674837249766775 -0.09863027903195871
3260000000.0 -0.041165466076930564 -0.13510399341597337
3280000000.0 -0.1117530105860204 0.007807836082121411
3300000000.0 0.01727097645748218 0.0925709948814692
3320000000.0 -0.06201049671462056 0.04741407371002829
3340000000.0 0.024657769567243373 -0.0489055296916601
3360000000.0 0.03472998429401054 -0.020287455481601033
3380000000.0 0.036302302458196656 -0.02848065645891278
3400000000.0 -0.021725719750033252 0.011283331346410871
3420000000.0 -0.00501350241360881 0.018289219878951397
3440000000.0 -0.020129918616568095 -0.03881159177622595
3460000000.0 -0.012505461432721677 0.013143942039667006
3480000000.0 -0.0017591676187045863 0.01792612653458796
3500000000.0 0.007006614883849844 0.011936334113421267
3520000000.0 -0.077034588551398 -0.048448325316885546
3540000000.0 -0.06918767332035941 -0.08408430329265858
3560000000.0 0.02696308403156492 -0.11089936755918102
3580000000.0 -0.057049955962973686 0.11664893415112605
3600000000.0 0.07025753246846748 0.0977257579040627
3620000000.0 0.05806325183375025 0.08614618279905217
3640000000.0 0.0397572707890056 0.11069042034668211
3660000000.0 0.12895753505118668 -0.02152678941522466
3680000000.0 0.027972270752502044 0.14133854788167405
3700000000.0 -0.1478659018331551 0.054798346020934266
3720000000.0 -0.11535526223017525 -0.10452289964972072
3740000000.0 -0.10966112068257222 0.10011344585822003
3760000000.0 0.03245568849237019 -0.16113834154752082
3780000000.0 0.19424754453739126 0.052772228945392706
3800000000.0 0.02066669378718202 0.21077870584017522
3820000000.0 -0.20795387278365826 -0.11792982034195823
3840000000.0 0.0681671962514886 -0.17229559791902008
3860000000.0 0.14357755692802068 0.09754371092910716
3880000000.0 -0.05223435439850416 -0.2413960249685657
3900000000.0 0.06453815087544496 -0.22138796390421256
3920000000.0 0.07171941015007058 -0.17629472975634666
3940000000.0 0.07379724854452092 -0.18086176466575685
3960000000.0 -0.1844512549096165 0.14133144476046633
3980000000.0 -0.17005534919693188 -0.09314503525454387
4000000000.0 -0.1789512148149329 -0.056556422129194255
