!Created with skrf (http://scikit-rf.org).
# Hz S RI R 50.0 
!freq ReS11 ImS11
400000000.0 -0.8363850163069454 -0.1591494238396467
420000000.0 -0.24424222354389033 0.807874022751279
440000000.0 0.6582148574426258 0.440542961627845
460000000.0 0.583963011111178 0.4231097486844088
480000000.0 -0.6307422427628286 0.13332488033585058
500000000.0 -0.06557959341219838 -0.5994947821474543
520000000.0 0.4022268775468446 -0.35184145465234234
540000000.0 -0.2888851798133948 -0.36069002297906566
560000000.0 0.4324776864044737 0.11543502303462672
580000000.0 0.09150680864653526 -0.3866894556559156
600000000.0 -0.17053520164902183 0.3135907176346363
620000000.0 -0.24778118709650387 0.2623098409491912
640000000.0 0.04810314149156015 -0.40112641437585994
660000000.0 0.3435464632362192 0.2794800334561668
680000000.0 -0.160081317998117 -0.4286580261185684
700000000.0 0.12612654398484735 -0.43381638753538365
720000000.0 0.21566509327680836 0.36718125695280396
740000000.0 -0.04645430502179613 0.3758603580425903
760000000.0 0.01840396331481892 -0.3479790419965185
780000000.0 0.3236992234783316 -0.05358699907607975
800000000.0 0.004680278330433292 -0.28799836482770946
820000000.0 0.04840403285405955 -0.23712722052138097
840000000.0 0.19427383419876074 -0.03846251362878209
860000000.0 -0.07304940502791701 -0.14239008484638213
880000000.0 0.09167811843799833 -0.08307147119106184
900000000.0 -0.013696851012919462 -0.0927730954614425
920000000.0 -0.02443879808549706 -0.05595478216231606
940000000.0 -0.04820314634138078 0.009767899690496473
960000000.0 -0.05479322307944248 -0.025413501933150274
980000000.0 -0.004331362685302964 0.06302157976562785
1000000000.0 -0.07985420520657673 0.0009668195872644502
1020000000.0 0.09795168093087987 0.010932914925235617
1040000000.0 -0.09698271344269391 0.07937511149079814
1060000000.0 -0.14714501761892598 0.06047633959987857
1080000000.0 0.15155834447935537 0.10974959559998036
1100000000.0 -0.2101844497503908 -0.055536554820136856
1120000000.0 -0.22505669516271218 0.0988105183230331
1140000000.0 -0.21204862687372983 -0.1747004294878474
1160000000.0 0.011486855716447614 0.30294810584665083
1180000000.0 0.24407888978844666 0.21548536308502886
1200000000.0 -0.3385054508724195 -0.04166731772883843
1220000000.0 -0.09010968097097576 0.349529964715754
1240000000.0 0.3868286915432314 -0.01868093589738451
1260000000.0 -0.3951883867248214 -0.08944459828441749
1280000000.0 0.10695823512881183 0.39733557581124024
1300000000.0 0.29518017512535083 0.28503833606656753
1320000000.0 0.37965910475446385 0.1628490682534855
1340000000.0 0.33668620885703504 0.23493347790844588
1360000000.0 0.39727606236419366 0.09121424754904485
1380000000.0 0.36598300105396475 0.1444932446633172
1400000000.0 0.38788157427797915 -0.004409581609044441
1420000000.0 0.11310916664008944 -0.3527183539285033
1440000000.0 -0.3529645398624156 0.032250186936040495
1460000000.0 0.32132150529640197 0.0072594764753592415
1480000000.0 -0.1903821740353758 -0.2179333524470039
1500000000.0 0.14478901557026944 0.21117619807832436
1520000000.0 0.09360375606436652 -0.1975519654030814
1540000000.0 0.0581215445142972 0.16762690288552323
1560000000.0 0.13434936029025937 0.031078910612609353
1580000000.0 0.09675844361663856 -0.053267024642347345
1600000000.0 0.08060688499697168 -0.009252028117876477
1620000000.0 -0.03148981913153545 0.05521716053207837
1640000000.0 -0.036052576026192884 0.001074913594001856
1660000000.0 0.0008587996731577033 0.009023591111811113
1680000000.0 0.00872260748510246 -0.015758392414492884
1700000000.0 0.023698702581874766 -0.02670117074106889
1720000000.0 0.04167420835521444 0.03112460008650797
1740000000.0 0.01694922506698191 -0.07410387894663348
1760000000.0 0.03931897743683624 0.08727090439727811
1780000000.0 0.028588459501059305 0.11287125445209802
1800000000.0 -0.051737720165103536 -0.14075117488250208
1820000000.0 0.1377838302288766 0.11586619504023742
1840000000.0 -0.009208167903478462 -0.2161418293147652
1860000000.0 0.2511712669219942 0.06315412465023665
1880000000.0 0.14452044794436786 0.2619560033480549
1900000000.0 -0.28597318863699145 0.15857181428646516
1920000000.0 0.2974052649733237 -0.18249572369887648
1940000000.0 -0.2804203465566115 -0.24562157068796087
1960000000.0 -0.0018493585695484997 0.3938440190704629
1980000000.0 0.3970754280933546 -0.10429944820579275
2000000000.0 -0.16436934788620394 -0.39012547004103443
2020000000.0 -0.3439188998971294 0.25707004832176494
2040000000.0 0.2720955037250238 0.32913217373950754
2060000000.0 0.41731103841207917 0.025457216407886195
2080000000.0 0.37294212110617064 -0.17621830904701746
2100000000.0 0.07193861218512537 -0.39755267077284673
2120000000.0 -0.3247414406891517 -0.21569383997502733
2140000000.0 -0.36690187938736174 0.049837172853082076
2160000000.0 0.053268812006803175 -0.3478802689971825
2180000000.0 0.052123517737226975 -0.3308106609300323
2200000000.0 0.17188160684855858 -0.2741236378931768
2220000000.0 0.17618939714868945 -0.2679324463853737
2240000000.0 -0.20245706711767014 -0.2527509513941096
2260000000.0 -0.22234526633622653 0.2391268490554381
2280000000.0 0.12460844684482525 0.3116515528828399
2300000000.0 0.2926173861352737 -0.20798735113526326
2320000000.0 -0.37491375032667923 0.11659192979371782
2340000000.0 0.190030547349457 -0.3924142281361322
2360000000.0 0.4401911250702599 0.1989079972930995
2380000000.0 -0.08232081825546743 0.5268525311237853
2400000000.0 -0.5734663831966762 0.10889532518584427
2420000000.0 -0.3149467006979891 -0.5460364799231926
2440000000.0 0.5234491191157669 -0.417869449801146
2460000000.0 0.3418887938445369 0.611049200588408
2480000000.0 -0.7022799817360745 -0.16872140107080938
2500000000.0 0.7206219668920048 -0.14257473084891611
2520000000.0 -0.7294686064008217 0.12425433184220092
2540000000.0 0.73375593274754 0.05663359585921928
2560000000.0 -0.6244967064253094 -0.37147648362339414
2580000000.0 0.26222598929443847 0.6582517312477026
2600000000.0 0.0827991109215785 -0.6785854441975
2620000000.0 -0.37403781409653714 -0.536594254731527
2640000000.0 0.08675010130016927 0.6134971304073066
2660000000.0 0.25497715859003733 -0.5233736342062645
2680000000.0 -0.40198107064214617 0.3689037655991435
2700000000.0 0.45534877330016293 -0.22139692052059506
2720000000.0 -0.46293128646500814 0.07627894635648233
2740000000.0 0.3794399259492634 0.2166266703419381
2760000000.0 -0.2477279607023579 -0.3310265881774562
2780000000.0 0.2139957530090816 0.3320670327396701
2800000000.0 -0.05402969965292687 -0.3784593229691318
2820000000.0 -0.026144627925234816 0.37648637148413105
2840000000.0 0.10261435100161108 -0.3630587503363743
2860000000.0 -0.14224445921789097 0.34950042354807204
2880000000.0 0.3649824864906437 -0.0913075278540674
2900000000.0 -0.013680560044589245 -0.3765313776217515
2920000000.0 -0.20596596305599832 -0.31557130881349293
2940000000.0 -0.235640549910834 -0.29829602889166323
2960000000.0 -0.08003042448879646 -0.37028823608745737
2980000000.0 0.37177813972430135 -0.08430483959722526
3000000000.0 0.20963510303079447 0.322763056184928
3020000000.0 -0.3408107049736174 0.1753580115410185
3040000000.0 -0.10725139585148867 -0.36164221064273705
3060000000.0 0.23708771672904214 0.2816638909577715
3080000000.0 -0.28751209516209564 -0.21420811895774333
3100000000.0 0.255768759935577 0.2328561921389743
3120000000.0 -0.2823704351069452 -0.17899806631592624
3140000000.0 0.2575214159822571 0.18473064344608014
3160000000.0 -0.22418908530722623 -0.19309918030020035
3180000000.0 -0.2638056668860633 0.06421588183492434
3200000000.0 0.17313441652132497 0.17517082132770617
3220000000.0 0.041488155281366776 -0.21288107925254665
3240000000.0 0.08464489777747398 -0.16678023770590378
3260000000.0 0.13984180909595317 0.08104813161075504
3280000000.0 -0.0781911984414353 -0.11592335064541641
3300000000.0 0.025485327486492206 0.12250148804099927
3320000000.0 0.11187462328006809 -0.0016715324049854877
3340000000.0 -0.06755152033925485 0.07741217365649572
3360000000.0 -0.03061023817005103 -0.08768165597164565
3380000000.0 0.06372630014126932 -0.060931481602296986
3400000000.0 -0.08237598239840671 -0.011678019855693054
3420000000.0 -0.07679137263745311 -0.010570073863745305
3440000000.0 0.028005239235535193 -0.06507182875919242
3460000000.0 -0.010448773792104935 -0.06778645008093769
3480000000.0 0.014443172735791474 0.06759558959304704
3500000000.0 0.019422272130257497 -0.07209846982299634
3520000000.0 -0.08631867672902153 0.00919534331546911
3540000000.0 0.01743975802959668 -0.0975828646721922
3560000000.0 0.04952259902024043 -0.10442211264732497
3580000000.0 0.13028672440218883 -0.03524855577253257
3600000000.0 0.05507180575845939 0.14593237862402653
3620000000.0 -0.17125250662853922 -0.04910525962992287
3640000000.0 0.14888065966637756 -0.13371375868155616
3660000000.0 -0.16848528055506803 0.13665219182273888
3680000000.0 0.16498157671127064 0.1617929137547437
3700000000.0 0.05414010744548554 -0.2377823548938833
3720000000.0 -0.2454000791547739 0.06972186001295745
3740000000.0 0.0651142777886049 0.25054645389558733
3760000000.0 -0.05036377481312773 0.26107468055605826
3780000000.0 -0.2234544866242176 0.15267035088380723
3800000000.0 -0.2725257772029604 0.034054771946690154
3820000000.0 -0.2247699186754291 -0.16388939825612056
3840000000.0 -0.1442525516919005 -0.2375966955066092
3860000000.0 -0.03539456985860637 -0.27236207128684703
3880000000.0 0.09740074939065907 -0.2526981409028128
3900000000.0 0.2406195316585733 -0.11602488800753256
3920000000.0 0.22579318971577506 -0.13760265349888665
3940000000.0 0.15813095355385193 -0.2096659142148839
3960000000.0 -0.23969057350673983 -0.08773864769511157
3980000000.0 -0.21087843770221767 0.11936906984676308
4000000000.0 0.18357162482786438 -0.12735396625764897
