!Created with skrf (http://scikit-rf.org).
# Hz S RI R 50.0 
!freq ReS11 ImS11
400000000.0 -0.7930306656423948 -0.296464142113787
420000000.0 -0.5263542759361539 0.6551275753902073
440000000.0 0.23173749481450462 0.7541681912581519
460000000.0 0.20316720924572484 0.6922700659825147
480000000.0 -0.4625948143783081 -0.4623913593189857
500000000.0 0.26574763302868576 -0.5594813715752694
520000000.0 0.4120694524926589 -0.3662320290190069
540000000.0 -0.47760967098816093 0.08007974591110766
560000000.0 -0.41585118355070216 -0.1904654049769331
580000000.0 -0.2510023252656182 0.3049143473529998
600000000.0 0.3277880032810749 -0.12711824764881374
620000000.0 -0.1653186803303217 0.31066841168079334
640000000.0 -0.3630521251329484 -0.16864146953956896
660000000.0 0.4299341867489597 -0.07202748510757132
680000000.0 -0.4240082826033356 -0.12949331830507205
700000000.0 0.3150473125235134 -0.2965808958591952
720000000.0 -0.2625510693124667 -0.3315311777930742
740000000.0 -0.3750539545233242 0.10938261281931239
760000000.0 0.09272092004007729 -0.34641602033023966
780000000.0 0.1992236696884375 -0.27138632097377896
800000000.0 -0.014141614106387878 -0.2903010778500904
820000000.0 -0.06473959159192885 -0.24101903187818238
840000000.0 0.17301459250750803 -0.11819099084391448
860000000.0 0.003232043588163491 -0.17103060239609075
880000000.0 -0.12300252728803032 -0.01356166570479186
900000000.0 -0.025302968787508807 -0.08557454726775608
920000000.0 -0.01496313643446659 0.06022793128391205
940000000.0 -0.03420671482387921 -0.029143640714642337
960000000.0 0.032847803344649346 -0.04943541851235217
980000000.0 -0.05227757185761051 0.03359147616399484
1000000000.0 -0.008388137219089837 -0.06920995880841659
1020000000.0 -0.06839320971163686 0.06814741929357816
1040000000.0 -0.07624236094809676 -0.08418591990351103
1060000000.0 -0.08710700373154828 -0.12026999052804595
1080000000.0 0.1843510748767169 0.00019165595574498212
1100000000.0 -0.18043970294922612 -0.11709382512749275
1120000000.0 -0.08000389331231389 0.23309247919112097
1140000000.0 -0.2615328581836112 0.06456678541371222
1160000000.0 -0.1156810156209125 0.2758230374633231
1180000000.0 0.30663701442168667 0.11006112693927458
1200000000.0 -0.26726362111004054 -0.20729568157310369
1220000000.0 0.1675099498755606 0.3179388279010633
1240000000.0 0.3608924262385936 0.10910855986889535
1260000000.0 0.23427652347523228 -0.32485984006102203
1280000000.0 -0.4107712543954568 0.07067127053043426
1300000000.0 0.0411683635817073 0.4194866110600023
1320000000.0 0.34477742438961756 0.24797050703691048
1340000000.0 0.3734316905284563 -0.20457673190660516
1360000000.0 -0.25948109696133614 -0.3179742671972706
1380000000.0 0.10611251336097678 -0.37215474753353167
1400000000.0 0.2580038576551573 -0.27494760165889576
1420000000.0 0.1523536263830513 -0.3258436263066668
1440000000.0 -0.2187976341946181 -0.2693754468913254
1460000000.0 0.10298401172170252 0.3061811262298577
1480000000.0 -0.23847818017289446 -0.16779136094615285
1500000000.0 0.22122325297171183 0.10467116346021607
1520000000.0 -0.07235640861924385 0.1978844102461749
1540000000.0 0.13979906061081201 -0.11432335661956183
1560000000.0 -0.14782864650719643 -0.024836382356676207
1580000000.0 -0.12390532718498494 0.018122333005443435
1600000000.0 0.0870220598069936 0.00848132143988083
1620000000.0 0.01895195891017421 0.04907463176443253
1640000000.0 0.018996966836239193 0.012801289799033843
1660000000.0 0.004892570591810114 -0.005489526691179633
1680000000.0 -0.02589352195091379 -0.004175745110949505
1700000000.0 0.041335771882238234 -0.0008251390353953283
1720000000.0 0.04328748120556204 -0.023133732138826253
1740000000.0 0.015445492961840505 0.06838865613652456
1760000000.0 0.09024557196681375 0.02625321538187381
1780000000.0 -0.06664834966383382 -0.10245663903687303
1800000000.0 -0.13810234335119603 -0.07152328232453099
1820000000.0 0.10954120220853848 -0.1429110207219948
1840000000.0 -0.19187881376268454 -0.08894250574530392
1860000000.0 0.24940101366644704 -0.005795090726524784
1880000000.0 -0.18223002538036814 0.22525373086751466
1900000000.0 -0.16250962925777515 -0.27871722025948364
1920000000.0 0.14228380987278366 0.3236482070411598
1940000000.0 -0.3278973796269728 -0.2013752012444297
1960000000.0 0.37013107803735085 -0.1357986540989613
1980000000.0 0.3000224222752517 -0.25675064033410505
2000000000.0 0.3499336224440453 -0.22411501083201557
2020000000.0 -0.3777671061614173 -0.20462506494326899
2040000000.0 -0.08991931103678764 0.4230762926399594
2060000000.0 0.4267781971624597 -0.0011423949751683436
2080000000.0 -0.025162628394989065 -0.4157726664305611
2100000000.0 -0.37010537029782986 -0.14554507979017753
2120000000.0 -0.32947637962804116 -0.18691896990022078
2140000000.0 -0.3179174434403262 -0.17766794145341985
2160000000.0 0.14938067412167647 -0.31380189396081587
2180000000.0 0.18677822635450905 -0.2717900561716075
2200000000.0 0.22012714005748757 -0.2329783101938985
2220000000.0 0.20523411586323412 -0.2378549723618685
2240000000.0 0.014519870101149445 -0.3164205922746817
2260000000.0 -0.30616584685905585 -0.09957967821385763
2280000000.0 -0.05085898272453822 0.33195942724926514
2300000000.0 0.2317620201482543 -0.2684716902710747
2320000000.0 -0.37299768005282513 0.08507282548202079
2340000000.0 0.3492004190749123 -0.24176602411193956
2360000000.0 0.14567156141889132 0.4482477947066826
2380000000.0 -0.4927338422608861 0.17528479311442732
2400000000.0 -0.3372571197984087 -0.46468436782721867
2420000000.0 0.3589621692913381 -0.509629110445908
2440000000.0 0.6073940511920262 0.2722244437803327
2460000000.0 -0.3834173082394268 0.5838310943772842
2480000000.0 -0.22706055833914077 -0.6858023749952051
2500000000.0 0.47091343537496333 0.5656954857956964
2520000000.0 -0.4998899760433457 -0.5488616365195612
2540000000.0 0.31707380192272644 0.6712097870602028
2560000000.0 0.3015370062760656 -0.6706732992143185
2580000000.0 -0.6574632714443128 0.2912279180634975
2600000000.0 0.6903929764217783 -0.0745807214627716
2620000000.0 0.2087200663325048 -0.6298577809411829
2640000000.0 -0.4409256494688343 0.44967297364864595
2660000000.0 0.5925691426213858 0.03123262687982805
2680000000.0 -0.5532975036127231 -0.05002615842091874
2700000000.0 0.48655939909627144 0.17398835355391304
2720000000.0 -0.2628457968792548 -0.4029762491330283
2740000000.0 0.02327448598522328 0.4510329898593409
2760000000.0 0.004131197742907248 -0.42574365503113204
2780000000.0 -0.11355866366855795 0.3865427572934751
2800000000.0 0.1418917832937732 -0.3624560683492221
2820000000.0 -0.15890531598525176 0.3493034078007269
2840000000.0 0.16530827212778626 -0.34260297476446944
2860000000.0 -0.35269779930837103 0.14347762089061303
2880000000.0 0.311550451814191 0.2221228800631413
2900000000.0 0.304795642514095 -0.22917473530473384
2920000000.0 0.15208758595020816 -0.35230369950130086
2940000000.0 0.17629223107913358 -0.3435470661189755
2960000000.0 0.053894939115491466 -0.3850698355538962
2980000000.0 0.31835921447743254 -0.2199400384330419
3000000000.0 0.2155843860017753 0.316146526467351
3020000000.0 -0.28369027079393005 0.25200410466378514
3040000000.0 0.061138462569082105 -0.3646158897803775
3060000000.0 -0.0452577681150304 0.35943086965026033
3080000000.0 0.06651848724654263 -0.3501501908537235
3100000000.0 -0.18507967217516835 0.29005445974617067
3120000000.0 0.17517689027286384 -0.283649878506842
3140000000.0 0.09799182711762762 0.3013874450488041
3160000000.0 -0.2477348457633816 -0.1504465344913376
3180000000.0 -0.17099785132921397 0.19739801772486543
3200000000.0 0.2058945261338854 -0.10865168267734536
3220000000.0 0.05487756170736001 -0.1898358489268894
3240000000.0 -0.03964868722429295 0.17572988043221408
3260000000.0 -0.14887814836152818 -0.06336676361024383
3280000000.0 0.1339486415153419 -0.018676462696802718
3300000000.0 0.11791627047150854 -0.008720371567573547
3320000000.0 0.05024420619685171 0.0842631188571499
3340000000.0 -0.09739178492220696 -0.00784316987644035
3360000000.0 0.08099026703131923 -0.042513913900807464
3380000000.0 -0.08397134694417595 -0.03536372696940416
3400000000.0 0.06137261459638302 -0.06651873061875296
3420000000.0 0.08101997969055097 0.029348578688602297
3440000000.0 -0.0835569419035022 -0.0022359112920106454
3460000000.0 -0.06957792835769477 -0.03334557593720554
3480000000.0 0.07029366188723324 -0.011886270986590649
3500000000.0 0.04404450528947287 0.0525812004113043
3520000000.0 -0.04774325778391161 -0.06104722877071249
3540000000.0 0.043510951172590746 0.06511334973836207
3560000000.0 -0.042816103412075236 -0.09153409325926923
3580000000.0 0.045579936482373996 0.12963694028257042
3600000000.0 0.039790137007921424 0.162354196438096
3620000000.0 -0.1436356112556156 0.12254048950062917
3640000000.0 -0.13945218840598672 -0.15685503865746875
3660000000.0 -0.018982703519330353 0.22613504011185717
3680000000.0 0.08181316409230671 -0.20852013266273076
3700000000.0 0.22497823401044667 -0.0519846655220835
3720000000.0 0.17986946084011896 -0.12967856130689326
3740000000.0 -0.0034451951566590233 -0.27142742385453583
3760000000.0 0.22425566756527876 0.16370824813265772
3780000000.0 -0.19826576963286624 -0.2152691788812939
3800000000.0 0.11690210523645983 0.2749493854471993
3820000000.0 0.03972787997830014 0.3008374924966152
3840000000.0 -0.15807693492145072 0.2624221629082125
3860000000.0 -0.15059855060034325 -0.2738689952048698
3880000000.0 -0.32194723062779806 -0.08341267284408949
3900000000.0 0.31379398654491614 0.09548162959747847
3920000000.0 0.26619912683270763 -0.131781904575058
3940000000.0 0.00332966926752828 -0.289944276029224
3960000000.0 -0.22654810198126824 -0.15209325763469692
3980000000.0 0.20225186631189884 0.1571439534405652
4000000000.0 -0.2316930765569062 -0.028315081180058668
