!Created with skrf (http://scikit-rf.org).
# Hz S RI R 50.0 
!freq ReS11 ImS11
400000000.0 -0.5291007595353532 -0.6776000788213868
420000000.0 -0.6810064112804843 0.49326794236158905
440000000.0 -0.14377769785839406 0.7712993561966126
460000000.0 -0.3499072008346628 0.6280766103666935
480000000.0 -0.47267142592299866 -0.44470697140485926
500000000.0 0.018274242013914047 -0.5996812772212113
520000000.0 0.5253588423940017 -0.008806922086680853
540000000.0 0.258749752186842 -0.386265400437516
560000000.0 0.10464146171023844 0.42479582719239284
580000000.0 0.30777337765093493 0.24690874525981152
600000000.0 -0.3583284266911192 -0.08552143313149718
620000000.0 -0.14824295295026127 -0.3304433538249819
640000000.0 0.3815596995739815 -0.16343298556979827
660000000.0 -0.08526382230902287 0.44448257086520765
680000000.0 0.046850314272409675 -0.46841985851717394
700000000.0 0.2588814774970252 -0.38339501059130926
720000000.0 -0.017878757353895373 0.4389970419373768
740000000.0 0.16218838431318466 0.35509220979331113
760000000.0 -0.2221935669997793 -0.26509846596556896
780000000.0 0.16715645203551177 0.27268120426661374
800000000.0 0.21828449222175542 0.18842567713905697
820000000.0 0.1987469960603404 0.1335282998593856
840000000.0 -0.0581504384267028 -0.18458005972914218
860000000.0 -0.14632792800395553 -0.0659120071107355
880000000.0 0.03652117640156557 0.11119092365885193
900000000.0 0.06819853828877023 0.04312634463025374
920000000.0 -0.0463158611532989 0.021318352932826683
940000000.0 0.028969742857943515 -0.028193846606918
960000000.0 0.04072860878322634 -0.04278250612293356
980000000.0 0.030749265670273817 0.0689638036827328
1000000000.0 0.08786123555895319 0.013190409829990596
1020000000.0 -0.01212100251595775 -0.11272571386286517
1040000000.0 -0.12669118135857552 0.050390083265070586
1060000000.0 0.17273114479807056 -0.017232539926714325
1080000000.0 -0.16707847178154644 -0.1169235611077214
1100000000.0 0.1127919443086849 0.20616974929601817
1120000000.0 0.15995185103526968 -0.20706216471124184
1140000000.0 0.2841312321898276 -0.0011653888021282424
1160000000.0 -0.30442812248826107 0.012144641682409465
1180000000.0 -0.24274911559121537 0.20128712623424314
1200000000.0 0.14017978016706759 -0.2925941473754819
1220000000.0 -0.34421837114013953 -0.041159631977515584
1240000000.0 -0.24122906522437357 0.2816435855593184
1260000000.0 0.3022030260309558 0.2381352240011996
1280000000.0 0.38911930391519134 -0.06912886279227583
1300000000.0 0.26852477293842447 -0.30402352555719075
1320000000.0 -0.29713245277523825 -0.2850704102841165
1340000000.0 -0.39930429638046494 -0.09612359376800433
1360000000.0 -0.39628675718899053 0.08638219469729748
1380000000.0 -0.33116949628128106 0.22317528291363734
1400000000.0 0.24041962483747337 0.3059599087666419
1420000000.0 0.11795692548029973 -0.3498791142776464
1440000000.0 -0.2517319812858219 0.23291474525810354
1460000000.0 0.3031181182483711 0.05517535479837001
1480000000.0 -0.115016291914764 -0.2521163956407712
1500000000.0 0.23851869449885138 -0.03761852243258833
1520000000.0 -0.19064479632639972 -0.05276981451114158
1540000000.0 -0.13098284397704493 0.07833340856114482
1560000000.0 -0.07883949498582457 -0.09750247720984284
1580000000.0 0.05560017471383696 0.09042198884715599
1600000000.0 0.0769028609682767 0.024049803777682136
1620000000.0 -0.056282843146958875 -0.01811263248437586
1640000000.0 -0.03450839652947035 -0.007787278668448639
1660000000.0 0.011477059197593174 0.0013763398354798928
1680000000.0 -0.003053806570502818 0.0004092580783499593
1700000000.0 0.008947474974325796 -0.009762767514966658
1720000000.0 0.027674214877132026 0.004311633218255208
1740000000.0 0.04085817236999681 -0.021984823371958555
1760000000.0 0.06538179110993093 -0.012857147509380221
1780000000.0 0.04752743372224135 0.08273728102171685
1800000000.0 -0.031753830256025906 -0.12844827733402753
1820000000.0 0.04959768452467771 -0.15854102759559643
1840000000.0 0.19999294769503811 -0.03539675166106742
1860000000.0 0.22274620683404742 0.09818844594455647
1880000000.0 0.16208954767106243 0.2316181799477262
1900000000.0 -0.22088638336018437 0.22076617300050674
1920000000.0 0.13455186304206734 -0.3099024480394941
1940000000.0 -0.3223389728302523 0.16865134409327426
1960000000.0 0.3634545500502815 -0.12402609022748239
1980000000.0 -0.2235763831233773 -0.325096233403557
2000000000.0 -0.4028842288188541 -0.028639902095578835
2020000000.0 -0.41408633877400025 0.030894912483391317
2040000000.0 -0.09984878534912515 0.4161019872632721
2060000000.0 0.41294369894112903 -0.11858664010007965
2080000000.0 -0.1371475250255596 -0.39867901370350844
2100000000.0 -0.38614647969240007 -0.12659322625336375
2120000000.0 -0.3604022286291072 -0.16088494489083022
2140000000.0 -0.35012818489011815 0.15896344206547028
2160000000.0 -0.3354777950626033 -0.14518785949846713
2180000000.0 -0.2771834076247095 -0.2090482745951575
2200000000.0 0.05174375386470243 -0.32995030647352847
2220000000.0 0.30739571135868243 -0.12992939444170545
2240000000.0 0.21510988521106908 -0.25856276894269586
2260000000.0 0.004053587455632535 -0.33943255033452246
2280000000.0 -0.1951275285778335 -0.28776701356433365
2300000000.0 -0.33872621059386016 -0.14975648414736709
2320000000.0 -0.07725809158027121 0.3965564194067033
2340000000.0 0.11069061642540812 -0.43069417031091545
2360000000.0 0.05969134339670927 0.48494621594939297
2380000000.0 -0.3826999733372266 -0.37619710664964984
2400000000.0 0.5857107560922141 -0.008513614345764732
2420000000.0 -0.30367915827723374 0.5530018617127193
2440000000.0 -0.4356598835642873 -0.5088910044746552
2460000000.0 0.699272258591138 -0.08208001224485022
2480000000.0 -0.5775349730654541 0.4535159079222529
2500000000.0 0.5506475081418517 -0.515886717631582
2520000000.0 -0.647014044453072 0.408663017872173
2540000000.0 0.7424990999071794 -0.1880845594047104
2560000000.0 -0.5669036981472707 -0.5081187324467196
2580000000.0 -0.08159173356336114 0.7436885020254987
2600000000.0 0.5748007461932628 -0.4462773647017035
2620000000.0 -0.6998744237530952 -0.007116815483651079
2640000000.0 -0.43790347632615945 0.5037690313387233
2660000000.0 0.5746622257337779 -0.25502894606313287
2680000000.0 -0.540672061559569 0.22122504523663428
2700000000.0 0.5244175447690502 -0.11475522035473663
2720000000.0 -0.4902604669428934 -0.04487544841068792
2740000000.0 0.3812224343735062 0.2488902709376745
2760000000.0 -0.38551613288630965 -0.17122730927999386
2780000000.0 0.3912435203143247 0.006410950339693925
2800000000.0 -0.3575854286342669 0.09837469004357834
2820000000.0 0.11456698383424913 -0.33985751801336866
2840000000.0 0.26385770778295536 0.2332576506215713
2860000000.0 -0.2553966536127798 0.23518980241192564
2880000000.0 0.16629273031456568 -0.29878911996937024
2900000000.0 -0.3014822053890121 0.15858147069764025
2920000000.0 0.23933882071791895 0.24212064991882076
2940000000.0 0.30087838322600735 -0.1683437366929931
2960000000.0 0.09088042506625121 -0.3337341941864244
2980000000.0 0.22856818211076943 -0.25922432703433756
3000000000.0 0.348007203071775 0.023893669542298344
3020000000.0 0.17478812494688514 0.3030632229736466
3040000000.0 -0.2717634992539768 0.21763186839737525
3060000000.0 -0.26866746769451194 -0.2125074590688176
3080000000.0 0.28140760538611426 -0.17687699778884122
3100000000.0 0.09543531610726674 0.30758579795745133
3120000000.0 -0.3083966858301058 -0.03993180035675804
3140000000.0 -0.0005518852299798715 -0.29786908686503066
3160000000.0 0.1293987530501609 0.24511980974382208
3180000000.0 -0.057112555104598985 0.24492345902288606
3200000000.0 -0.2179141178885483 -0.040894516777536145
3220000000.0 -0.0166460941344365 -0.19078458162644465
3240000000.0 0.15912208128178523 -0.030393442033333346
3260000000.0 0.07084478023339327 0.11114565955396659
3280000000.0 0.018658953076721236 0.10344321798314247
3300000000.0 0.021250486176793832 -0.07909957038235606
3320000000.0 -0.03748744674818065 -0.04931634626997777
3340000000.0 0.02502843755265712 0.03972184955592069
3360000000.0 -0.03753892530749052 -0.018726049625443136
3380000000.0 -0.0330572536069948 0.028286318788892394
3400000000.0 0.020387408726010976 0.04578735722845441
3420000000.0 0.06050131250636804 -0.002720524892962085
3440000000.0 0.03553299500627609 -0.060971729761534685
3460000000.0 0.07429300957447979 0.037672568041311735
3480000000.0 -0.08070096489112306 0.052159601034828376
3500000000.0 0.006851530775490979 -0.11354436858449403
3520000000.0 0.10078377968337963 -0.08903690038130549
3540000000.0 -0.1421263764902607 -0.05444155248033839
3560000000.0 0.006785923253932584 0.16375030285801528
3580000000.0 0.1482733170101222 0.08350784933074705
3600000000.0 0.17315179476986986 0.04455053806341488
3620000000.0 0.12924407987651143 -0.1299921267140697
3640000000.0 0.18203375769042296 0.003595599593956268
3660000000.0 0.013035500053931575 0.18057042571208579
3680000000.0 -0.17715581443401354 -0.03164142603195763
3700000000.0 -0.08468541516260979 -0.15623377332832003
3720000000.0 0.1315596968055378 -0.10822489073050803
3740000000.0 0.1569585327520866 0.04202868770038951
3760000000.0 -0.10444003596693331 -0.10896034938388513
3780000000.0 -0.023357898138562504 0.13703836228754235
3800000000.0 0.06763065218082015 0.10556710830540982
3820000000.0 -0.04146294187253075 -0.10663921707318517
3840000000.0 -0.10000207052107579 0.036074151876066
3860000000.0 -0.07406248824207404 0.07886084091292843
3880000000.0 -0.006477163336197404 -0.11516160150403265
3900000000.0 -0.07914523597205356 -0.09604126778536101
3920000000.0 0.07424542536165349 -0.10720518682157408
3940000000.0 0.029271940946544308 -0.12995406148933797
3960000000.0 -0.12506688405287916 0.030860019254380134
3980000000.0 0.07764115564310047 0.08761529807298808
4000000000.0 0.04877385662341431 0.08638988575234162
