!Created with skrf (http://scikit-rf.org).
# Hz S RI R 50.0 
!freq ReS11 ImS11
400000000.0 -0.8417548083992342 0.188018279850892
420000000.0 0.25510390057152277 0.8035934021019876
440000000.0 0.6872263106107644 0.38354359185702785
460000000.0 0.3595285698319997 0.6221779745780806
480000000.0 -0.5913883808372833 0.2738365421203623
500000000.0 -0.5924699166609655 -0.10388613517959554
520000000.0 0.46236427221544985 -0.24243251511683966
540000000.0 0.35451367786883076 -0.29946098548809613
560000000.0 0.35485337553609886 0.2666886894382299
580000000.0 0.4000101021521019 -0.01279074699869318
600000000.0 -0.2640208126872942 0.25810236300815564
620000000.0 0.008218614610797061 0.3647958986125059
640000000.0 -0.2833891413223351 -0.2870294495093804
660000000.0 0.42353971617945296 0.11761341357157498
680000000.0 -0.2526694471842704 -0.366848160063719
700000000.0 0.4456213293946961 0.0033000634947171112
720000000.0 -0.3787748163585276 0.2010306585000651
740000000.0 -0.3123287306482475 0.23298378336408335
760000000.0 -0.2971429482176431 -0.192610963596009
780000000.0 0.29044193762921405 0.14128108402518572
800000000.0 0.29481765337238325 -0.012020309486172687
820000000.0 -0.11815258830410287 -0.22191674258260335
840000000.0 0.1800853188906198 -0.09553394493986242
860000000.0 -0.15574091479509455 -0.06990052892686884
880000000.0 0.08121235497060253 -0.10554169367189653
900000000.0 -0.037220241929433434 0.08739047380943389
920000000.0 0.005446098904553673 -0.06293879626472164
940000000.0 0.03011398656425165 0.031271033572933635
960000000.0 -0.0038366820497319214 0.04925619830703342
980000000.0 0.029111644891917754 0.049683386384690637
1000000000.0 -0.018491434069399817 -0.06910714313106879
1020000000.0 -0.020636904459008433 -0.09142851549092654
1040000000.0 0.11992475163542672 0.004979440807486616
1060000000.0 -0.08967032364165818 0.11938271502487537
1080000000.0 0.09874641185867179 0.1523358703351534
1100000000.0 -0.10817902084593639 -0.18519341513745266
1120000000.0 -0.2476138711837734 0.015995149293572243
1140000000.0 -0.2723872136008242 0.011831571218038298
1160000000.0 -0.02791319567847958 0.2956556425948981
1180000000.0 -0.04505687828423107 0.3214011629473165
1200000000.0 -0.2565920279635841 -0.22352858341056178
1220000000.0 -0.2545633485924543 0.26166286097599517
1240000000.0 0.31102841969822503 -0.23171148643197945
1260000000.0 -0.3481593290720319 -0.19409222694133252
1280000000.0 -0.3072229110363974 0.2719985515595464
1300000000.0 -0.08145632854331064 0.4052356663226459
1320000000.0 0.1570279717187743 0.3910773970771306
1340000000.0 0.4213658969378618 -0.0012986201748598793
1360000000.0 0.3223050035186256 -0.25431918904462814
1380000000.0 0.27061549303986193 -0.2894249684470037
1400000000.0 0.17767981618320908 -0.338148025554042
1420000000.0 -0.015790370660487076 -0.36423097063630566
1440000000.0 -0.3448744246853358 -0.025612499951076517
1460000000.0 0.10951810890794764 0.30003315743477893
1480000000.0 -0.03110719418006857 -0.2885388325051413
1500000000.0 0.0007607387026849833 0.2507034400314629
1520000000.0 0.1597516152743805 0.147341576965234
1540000000.0 -0.15340419114430207 -0.09516757235824136
1560000000.0 0.1290094057866329 0.07074760080129258
1580000000.0 -0.07117827259192183 0.090429202456793
1600000000.0 0.07184260665636774 -0.03518278318976173
1620000000.0 -0.042943194364176 -0.03480017643165765
1640000000.0 -0.006628420564012857 0.02687168522002252
1660000000.0 -0.005318851294301831 -0.004198181909642258
1680000000.0 -0.0008124283311885779 0.024601156013221426
1700000000.0 -0.026287644345905203 0.02841864838134547
1720000000.0 -0.040394549030097114 -0.02529283578349586
1740000000.0 -0.05118307578153237 -0.040984963148933164
1760000000.0 -0.06297135033782217 -0.06355881281211581
1780000000.0 -0.1146953320378808 0.009390760210961899
1800000000.0 -0.015338904714382172 -0.147175097463077
1820000000.0 0.019686750945280974 0.17524231842451585
1840000000.0 0.18088162620685144 -0.11732797524476059
1860000000.0 0.22567106322964717 0.1317718694416764
1880000000.0 0.1342666384611623 0.26792473243233905
1900000000.0 -0.27494872487243177 0.1786577050079804
1920000000.0 0.26913158578925583 -0.2231962229967571
1940000000.0 -0.31904026082733106 -0.19086981361073782
1960000000.0 0.010458921881857375 0.3913541206149741
1980000000.0 0.40615417370746276 -0.024877468903757572
2000000000.0 -0.13322280334829623 -0.3997913409849069
2020000000.0 -0.42709791374815914 0.017402472116128425
2040000000.0 -0.054180550381835904 0.4255485924543487
2060000000.0 0.41594608450072923 0.0821231486162282
2080000000.0 0.2627304742458311 -0.319337515513997
2100000000.0 -0.0766113452125039 -0.39388747317850153
2120000000.0 -0.3032692857820448 -0.23388641126406434
2140000000.0 -0.2793263929769668 -0.23792560664176052
2160000000.0 0.09602034325557145 -0.334935320309028
2180000000.0 0.10236985609787891 -0.31634321750168226
2200000000.0 0.2003172736108992 -0.25060326444358066
2220000000.0 0.2924186031887262 -0.11632994474006093
2240000000.0 0.22198714549566603 -0.23465405648152862
2260000000.0 -0.2936212896563122 -0.1530968911788932
2280000000.0 -0.02766496662727501 0.3408917982049789
2300000000.0 0.3357961067203915 -0.13353751840725517
2320000000.0 -0.38938656106837155 0.04535821209850021
2340000000.0 0.36186840780103 -0.23889010110188427
2360000000.0 0.2929979875589275 0.38270099595004764
2380000000.0 -0.4067614177848116 0.34523387823301954
2400000000.0 -0.44276887212576244 -0.38010819471676743
2420000000.0 0.5256316141572965 -0.33993891548349
2440000000.0 0.24265751679428973 0.6213327696136725
2460000000.0 -0.6941922940350825 -0.07338153158073157
2480000000.0 0.5201373499651287 -0.4995275289292
2500000000.0 -0.3444856321425666 0.6485752680236271
2520000000.0 0.17503971178828004 -0.7197804420081574
2540000000.0 -0.13706784023834373 0.7242370955059074
2560000000.0 0.22749212392652096 -0.6913449993012851
2580000000.0 -0.44189756256780305 0.5577631392452184
2600000000.0 0.6829928708743338 -0.07424714706204893
2620000000.0 0.4494336695597114 -0.4811388861407122
2640000000.0 -0.6036258409716735 0.16198948121850815
2660000000.0 0.5456747769191584 0.22301677610024562
2680000000.0 -0.4350733991619968 -0.3404580707874832
2700000000.0 0.3430677515285425 0.38088807920947804
2720000000.0 -0.3170116419948701 -0.3504090479284784
2740000000.0 0.06546069934527063 0.4327012736959078
2760000000.0 0.06226075462542168 -0.40893270738763743
2780000000.0 -0.031748543690715676 0.3934254225167039
2800000000.0 0.12376522656509951 -0.361494538190457
2820000000.0 -0.24497704623688848 0.27954652277218034
2840000000.0 0.34942559050582217 -0.11926067270709072
2860000000.0 -0.32698619655912475 -0.17226877253188502
2880000000.0 0.12053451030343172 0.35169246297000994
2900000000.0 0.3348378531497031 -0.1626166652385102
2920000000.0 -0.06898213736410967 -0.3713895406547806
2940000000.0 -0.2916216803667288 -0.23941131684979727
2960000000.0 -0.040674413805857866 -0.37662106942233725
2980000000.0 0.34871754776293534 -0.15067655836565222
3000000000.0 0.23893697933368763 0.29581483094095884
3020000000.0 -0.17630237493165737 0.3327613805189512
3040000000.0 -0.19430689516339303 -0.3121836019480938
3060000000.0 0.27476183979697205 0.23408978329278643
3080000000.0 -0.08465223496861221 -0.34102736966497266
3100000000.0 0.3158171680385331 0.13099863722863614
3120000000.0 -0.11423631904396575 -0.3091941390228058
3140000000.0 0.2710413996988654 0.1607522591285647
3160000000.0 -0.23715568919135516 0.17621219975605323
3180000000.0 0.14372558979244282 0.22361654703072825
3200000000.0 -0.06395342898324578 -0.22475146731664639
3220000000.0 -0.16486902336878906 0.11101103270081933
3240000000.0 -0.08772239389063687 0.1423304221216626
3260000000.0 0.12325094788918177 -0.07218830949929832
3280000000.0 -0.07970809676641363 -0.08945217109282025
3300000000.0 -0.06334293856035157 -0.08683317452481874
3320000000.0 -0.07078393827738641 -0.07167910533549518
3340000000.0 -0.07734642620150851 0.0444832237664185
3360000000.0 -0.014395361835367155 0.08183283757060986
3380000000.0 -0.04956849638008851 0.05706958872483994
3400000000.0 -0.044042661812871454 0.05047917239419935
3420000000.0 -0.0007771308719725457 -0.060488786376173824
3440000000.0 0.02575529907453337 0.05443245506203309
3460000000.0 0.04484621507075977 -0.004267071762662788
3480000000.0 -0.04640543580341941 0.023891412688794383
3500000000.0 -0.033478681814370276 0.04165298478119536
3520000000.0 -0.015306714898944794 -0.05918177679150333
3540000000.0 -0.06164544902444906 -0.03159197345597984
3560000000.0 0.015127099418263379 -0.07927813949922231
3580000000.0 0.06182737814062848 -0.06503307033663185
3600000000.0 0.05677561510845103 0.08970363477624092
3620000000.0 -0.09236274167662804 -0.08796605323625382
3640000000.0 0.14141453623654834 -0.004432116471051144
3660000000.0 0.1497952239961297 -0.014806092275617497
3680000000.0 -0.03243846913695736 0.159837337189468
3700000000.0 -0.08644729176325593 0.16180546687278435
3720000000.0 0.18047440666294073 0.02781843748866515
3740000000.0 0.1325847920169454 0.11063185655823801
3760000000.0 0.18797556638229784 -0.0616694442131341
3780000000.0 0.12170172940854553 -0.20625562351524393
3800000000.0 -0.2543727349028763 -0.08507982745400704
3820000000.0 -0.07150750798231377 -0.28611428918660187
3840000000.0 0.1828004146615251 -0.2375718790128863
3860000000.0 -0.19390937037823866 -0.21731469865606762
3880000000.0 0.16803615926733495 -0.2389792588903839
3900000000.0 0.26169370870941316 -0.12759093961452192
3920000000.0 0.18776578457328708 -0.2206903037656369
3940000000.0 -0.1852685503764354 -0.21939084261390715
3960000000.0 0.08787270729544662 0.2609777163702016
3980000000.0 0.17652826789154197 -0.1912792817448709
4000000000.0 -0.2388180774512133 -0.019937483215978036
