!Created with skrf (http://scikit-rf.org).
# Hz S RI R 50.0 
!freq ReS11 ImS11
400000000.0 -0.6531818881456343 -0.532339164427817
420000000.0 -0.5161032205366585 0.6605933822158497
440000000.0 -0.26855895021786624 0.7315669074310466
460000000.0 -0.685527545437526 0.22792003549250944
480000000.0 -0.04009043707021065 -0.6687324617575386
500000000.0 0.1410978999871448 -0.6149984169063331
520000000.0 -0.040391296421314934 -0.5586705090705795
540000000.0 0.04456737844075152 0.4824901789313065
560000000.0 -0.4431943365282261 0.09015757696943302
580000000.0 -0.23857608943396116 0.3069569348780824
600000000.0 0.276527984027089 -0.2203440796507571
620000000.0 0.03212075077931133 0.34849987587236525
640000000.0 -0.23038023578231664 -0.31901090913703706
660000000.0 0.3788322318988585 0.2016042020743627
680000000.0 0.1497166090311949 -0.4154410228159107
700000000.0 0.3075840678989351 0.3127589189281735
720000000.0 -0.22603060384143614 -0.3615016771571296
740000000.0 -0.33488321471909055 -0.2115425788162255
760000000.0 0.06091550226525672 -0.360177127371093
780000000.0 0.20383753004620994 -0.26994163762237006
800000000.0 -0.17356194585693493 -0.25099001633952717
820000000.0 0.038097905409347425 0.2569434611788141
840000000.0 -0.19665618071004523 0.052402306667910646
860000000.0 -0.062796338935736 0.1334072000283075
880000000.0 0.06664275508574738 -0.07764966079048546
900000000.0 -0.044283879162663714 -0.03458235067356661
920000000.0 -0.011874137207593416 0.03492978830954935
940000000.0 -0.012875216014174656 0.020783428580734745
960000000.0 -0.01631214767308821 0.037501221775220236
980000000.0 0.05379822406512708 0.021888500852411646
1000000000.0 0.04804834724445622 0.060350062723539356
1020000000.0 0.0814634018138847 0.058419058812900646
1040000000.0 -0.0429786939770938 0.1187173569150809
1060000000.0 -0.13474695415533816 0.09734191730724198
1080000000.0 -0.1658700312099205 -0.11957257788532319
1100000000.0 -0.11221249073652452 -0.21108249500402454
1120000000.0 0.1745095667903827 0.1991001935874604
1140000000.0 0.21554997244097007 0.18919905884849914
1160000000.0 -0.16225366544813666 -0.2599674026682283
1180000000.0 -0.17513090121136068 -0.2685792104199409
1200000000.0 0.04702810184651154 0.3267687492846815
1220000000.0 0.16275720410798813 0.30463135705090594
1240000000.0 0.3527105439522325 0.11618280819736902
1260000000.0 0.3133565171288637 -0.23128392130219308
1280000000.0 -0.17577718692253158 -0.3729978903843213
1300000000.0 -0.32500154189534036 0.2702485677182822
1320000000.0 0.24426396010725124 0.35161210766409257
1340000000.0 0.38559167627669494 -0.17682790244214
1360000000.0 0.30693677324219004 -0.27451267457894374
1380000000.0 0.20868411502338408 -0.33796061951193285
1400000000.0 0.11059639957113387 -0.36647367490347776
1420000000.0 -0.01337433958770783 -0.36085496777324255
1440000000.0 -0.18665833352584382 -0.29234022745080807
1460000000.0 0.13376665966550577 0.2971467874730207
1480000000.0 -0.15427020995826105 -0.2535935177691061
1500000000.0 0.15547748068550077 -0.203312562431041
1520000000.0 -0.14437810451397068 -0.15731863793439727
1540000000.0 0.05784839412545487 0.16010912834416113
1560000000.0 -0.045836808765955625 0.12554947425220248
1580000000.0 -0.05272345699848864 0.09619171600901778
1600000000.0 0.030135750793398804 -0.0791813393490964
1620000000.0 -0.056352704948412574 0.018188353261664934
1640000000.0 -0.03577313849006811 -0.0057255908965493105
1660000000.0 -0.004030536343472516 -0.007933458541313566
1680000000.0 0.021125332464298305 0.006054010177266106
1700000000.0 -0.041131692431344145 0.002581721919643766
1720000000.0 0.0165390526511642 0.04732532953523336
1740000000.0 -0.026034409164019164 0.059835190254953714
1760000000.0 -0.055419158845437945 -0.06495564295121864
1780000000.0 0.03919356812688699 -0.10468666115667864
1800000000.0 -0.02263874199070523 0.14557900811707078
1820000000.0 -0.15597813270639882 -0.0963395636646828
1840000000.0 0.14295078337399825 -0.16940979612436452
1860000000.0 0.2598949813779079 0.02541585980705537
1880000000.0 -0.05186794900839436 0.291313806725783
1900000000.0 -0.20688621932234072 -0.25633347469367807
1920000000.0 0.3589646022107382 0.013073002658055489
1940000000.0 -0.38162779318345924 0.03908543301178672
1960000000.0 0.398814781830319 -0.013852332652428582
1980000000.0 -0.15416104929282534 -0.3763832854185862
2000000000.0 -0.41212333861238276 -0.017310044302974673
2020000000.0 -0.3720829655871467 0.18593304696745958
2040000000.0 -0.3016199101099977 0.2938836296925601
2060000000.0 0.18021981604550177 0.38161513661042945
2080000000.0 0.3960011040084027 -0.12508158268002692
2100000000.0 0.20802542062230484 -0.34936535964942356
2120000000.0 -0.2909964694657176 -0.2669587628388253
2140000000.0 -0.31639785187016917 0.20128729119309713
2160000000.0 -0.3205351369712465 -0.14473046138478687
2180000000.0 -0.21342844517580475 -0.25054267439496886
2200000000.0 0.12603462762112383 -0.28933959892386063
2220000000.0 0.2880655034566716 -0.12088897142540736
2240000000.0 0.1877508949379606 -0.2599371920996541
2260000000.0 -0.32425542134643986 -0.06730399872893517
2280000000.0 0.2163137262558155 0.26293702128150465
2300000000.0 0.016413853101152634 -0.35895174134099206
2320000000.0 -0.13858762691935506 0.36320693511726726
2340000000.0 0.0808314105142013 -0.42226175062491317
2360000000.0 0.38388613081240364 0.28611644587081836
2380000000.0 -0.16092859125638867 0.5072213460155329
2400000000.0 -0.581854215860415 0.05555453663944427
2420000000.0 -0.36898747442738433 -0.5134770471478218
2440000000.0 0.4657894854056787 -0.4849437696639251
2460000000.0 0.27419398446329885 0.6465674139500552
2480000000.0 -0.6953059523384864 -0.1999218159031176
2500000000.0 0.7319264366305441 -0.08748286484318996
2520000000.0 -0.7351808913129265 0.10235727061686692
2540000000.0 0.7360719266414624 0.07040136754603477
2560000000.0 -0.6785036838114413 -0.26765560626252183
2580000000.0 0.44851970273411246 0.5502307742903026
2600000000.0 -0.16095267425027754 -0.6651800454624833
2620000000.0 -0.5176144009049536 -0.40175014788790525
2640000000.0 0.22059957361736401 0.5817263056622752
2660000000.0 0.09369446474394191 -0.5764248874459816
2680000000.0 -0.3034257013113336 0.45282307758541446
2700000000.0 0.43472537742686596 -0.26216435638470365
2720000000.0 -0.46902681258092166 0.05645639383424665
2740000000.0 0.4340769208571044 0.06459512753666069
2760000000.0 -0.30167372829260114 -0.2811342790146976
2780000000.0 0.08436980341859174 0.3851789193709052
2800000000.0 0.1436142689892502 -0.3577670842881228
2820000000.0 -0.09581989516004553 0.37215368049921294
2840000000.0 -0.028485692254532298 -0.3802973522308066
2860000000.0 -0.06810992145986199 0.3729245494201459
2880000000.0 0.35505663491750833 -0.12339653581510288
2900000000.0 -0.005018188981275222 -0.37458774658779376
2920000000.0 -0.1454115189843196 -0.3459302536377751
2940000000.0 -0.0495142476493719 -0.3732104066314071
2960000000.0 0.251847354566142 -0.28256601509311263
2980000000.0 0.37330208408736315 0.08966313191942651
3000000000.0 0.12186625911497523 0.368384245222901
3020000000.0 -0.3236914166993866 0.20574020544864047
3040000000.0 -0.11800209263712996 -0.3583410501193659
3060000000.0 0.2575860251242201 0.2610613104564846
3080000000.0 -0.2228679004913486 -0.2775934739986593
3100000000.0 0.1307543537839351 0.3162681993189376
3120000000.0 0.01347497169906582 -0.32980495554327677
3140000000.0 0.04571723577184401 0.31385734780375807
3160000000.0 -0.06748748270551604 -0.28796592194131887
3180000000.0 -0.24082811384696662 -0.12441653208378055
3200000000.0 -0.04335728238779084 0.2376212819148032
3220000000.0 0.18011393007309012 0.1159373447853711
3240000000.0 0.1810521180241539 0.04355910506406402
3260000000.0 -0.0019104171981358382 0.15795454953987845
3280000000.0 0.1162952459422016 -0.06282381012791118
3300000000.0 0.08082248257108153 -0.085040141043105
3320000000.0 -0.03689098539547345 -0.10614378058125831
3340000000.0 -0.10482977881977568 -0.005277855762893639
3360000000.0 0.02567094061724292 0.09454102169336766
3380000000.0 -0.08569957001804791 -0.033296387014571376
3400000000.0 0.04833889766557624 0.07231341369834712
3420000000.0 0.07654393390799454 -0.027098747899589132
3440000000.0 0.06354174863083056 0.036388556696819715
3460000000.0 -0.06947679636375591 0.014842547243210612
3480000000.0 0.06656134756584385 0.029939953264544097
3500000000.0 0.07771839627638094 -0.0017156613938498723
3520000000.0 -0.018650255956143457 0.08610878370678893
3540000000.0 -0.018801934423578234 -0.10197303695846029
3560000000.0 -0.11720840091467259 -0.041164718506950686
3580000000.0 -0.11696165835835429 0.08839047115763003
3600000000.0 -0.020718762305947803 0.1712573064324555
3620000000.0 0.08572730276312092 0.17650894657105368
3640000000.0 -0.11033478438298565 0.18874285538458732
3660000000.0 -0.07649456498936075 -0.22446906892279095
3680000000.0 0.033343724309271516 0.24974349161848672
3700000000.0 0.22796076241802082 -0.1317509379570458
3720000000.0 -0.20783164936425158 -0.17698528748455358
3740000000.0 -0.2411976025780015 0.14141455119599916
3760000000.0 -0.15853729774864989 0.24172536876498182
3780000000.0 -0.06085100478559025 0.28862816996519675
3800000000.0 0.17137402255441114 0.24068461392777857
3820000000.0 0.2879933000544906 0.056502113575717064
3840000000.0 0.2853332152993958 0.03312396698821546
3860000000.0 0.10134598207566195 0.26213282418832645
3880000000.0 -0.2612115662057021 0.08467941133949865
3900000000.0 -0.13299664436445593 -0.23614948038676978
3920000000.0 -0.09889003164581726 -0.2530353617392395
3940000000.0 -0.2614408991726232 -0.06636333380680351
3960000000.0 -0.24812382613712727 0.08068947158922778
3980000000.0 0.20458136751577644 -0.1379787591114235
4000000000.0 0.14623581041970588 0.17174108122497642
