!Created with skrf (http://scikit-rf.org).
# Hz S RI R 50.0 
!freq ReS11 ImS11
400000000.0 -0.5311099878819567 -0.649244233409047
420000000.0 -0.6674007212818847 0.5174473116562297
440000000.0 0.05649542639523237 0.7789586136322906
460000000.0 -0.20823201699440025 0.6871573308953334
480000000.0 0.3070311305573722 -0.5727889118710545
500000000.0 0.6257281247414673 -0.06378135291045066
520000000.0 0.4691778394515778 0.3049455031665017
540000000.0 -0.4089102036853543 -0.2791331238207486
560000000.0 -0.44317227336393694 0.12292234928619415
580000000.0 -0.4088905652089051 0.01671592929035681
600000000.0 0.17997547514627574 -0.31964645974162287
620000000.0 0.3017602976024625 -0.19402997277839198
640000000.0 -0.3912495468948878 0.053381875620087095
660000000.0 0.39206422795743645 0.18577521859175178
680000000.0 -0.0746336352241644 -0.44138591117382975
700000000.0 0.3850654900502835 0.22226711565382393
720000000.0 -0.39882599368406385 -0.16869107870989178
740000000.0 -0.23824983076627035 0.30964634909508626
760000000.0 0.32011845458789284 -0.15916502592824658
780000000.0 0.2209808041836335 -0.24799627832271598
800000000.0 0.1912349858092664 -0.22210293945513387
820000000.0 -0.12428002437529137 0.21441715273358156
840000000.0 0.1413294398479853 -0.10742182633286021
860000000.0 0.152671035696472 -0.024443787548438328
880000000.0 0.1271988479153686 -0.02522631885382671
900000000.0 -0.07532545017249324 0.0810696431211975
920000000.0 -0.05620882105945469 -0.06817077870931029
940000000.0 -0.06388487656832921 0.013429317692102776
960000000.0 -0.04774986477026694 0.05439117754738594
980000000.0 -0.0807228589655274 0.007748805832888402
1000000000.0 0.07028227482574391 0.04157917547382338
1020000000.0 0.0790591106541557 -0.06805636810102629
1040000000.0 0.10687962199053821 -0.054549034277010355
1060000000.0 -0.1394917822387776 0.0566155984906221
1080000000.0 0.1854668762639498 0.010267021494079834
1100000000.0 0.052447164005982004 -0.20542385780765182
1120000000.0 0.08822793509638628 -0.23810048504811476
1140000000.0 -0.07634264888025384 -0.27479770430898587
1160000000.0 0.12076843082105396 0.29212617787319756
1180000000.0 -0.03938954285535305 -0.3337342237425527
1200000000.0 0.28626993011533836 0.1601993806981584
1220000000.0 0.03900132570453908 0.341438586180818
1240000000.0 0.015286644683812906 0.36640329539058286
1260000000.0 0.3062187224986151 0.24416915961699656
1280000000.0 0.04211165814687533 -0.4175936903551261
1300000000.0 -0.1394368705847712 0.39800411960613075
1320000000.0 0.3149120294488923 0.2804328572987609
1340000000.0 0.329389842342722 0.25213771049416733
1360000000.0 0.4099707548621303 0.03228272982964241
1380000000.0 0.3838861065952568 0.09455171970561196
1400000000.0 0.3886367728945354 -0.00350473488658887
1420000000.0 0.06644925877136706 -0.36999538894257583
1440000000.0 -0.08244644028718998 0.3480641916183842
1460000000.0 -0.17181030240645456 -0.2716512156759678
1480000000.0 0.08742798797369541 0.2652162349739001
1500000000.0 0.22959533443978783 0.04161380491831912
1520000000.0 -0.04432943677072032 0.2000469153534876
1540000000.0 0.07678710689168779 -0.15155274171437216
1560000000.0 0.13444984965676188 -0.04408928188049239
1580000000.0 0.08190863292153376 0.09056666499145698
1600000000.0 0.07721225796114345 -0.04609150199331048
1620000000.0 -0.0404712830303625 -0.0416919136282038
1640000000.0 -0.012661571834441759 -0.024139651510592785
1660000000.0 -0.008621879298696494 -0.0023846838194562002
1680000000.0 -0.010149124917105777 -0.013873033492047323
1700000000.0 0.034182193759962586 -0.0016036682948840219
1720000000.0 -0.020244547223345604 0.04119792724117681
1740000000.0 0.04930126047723207 0.03264097891113457
1760000000.0 -0.0498391185881734 0.06248698918564089
1780000000.0 -0.07689586448318564 0.07744457663867806
1800000000.0 -0.05627132489738265 0.1371821362486849
1820000000.0 -0.10037574031629767 0.14999974259389065
1840000000.0 0.04007370677566689 -0.21435118081205143
1860000000.0 0.040155473975641356 -0.25544406250685203
1880000000.0 0.28248656505194814 -0.07520481410133723
1900000000.0 -0.0413327582705357 0.3149642617860215
1920000000.0 0.33272606435353913 -0.07368631467376185
1940000000.0 -0.12703320536306176 -0.3493821745772041
1960000000.0 0.005639524467383368 0.39708391208375304
1980000000.0 0.28285917588537207 -0.30253452685502935
2000000000.0 -0.42320352505784786 -0.01006975919771543
2020000000.0 -0.24127324195805855 0.34861087896398146
2040000000.0 -0.07634098086242663 0.4178783459275579
2060000000.0 0.3386999326406792 0.2511049787869485
2080000000.0 0.40827430886252064 0.08381388627897132
2100000000.0 0.1548926881670947 -0.3808895591658235
2120000000.0 -0.3626293260784561 -0.15050327973261277
2140000000.0 -0.37144305229038843 0.0025892490290442606
2160000000.0 0.04774380527934541 -0.34641660862402407
2180000000.0 0.2503122366980762 -0.21797927307046094
2200000000.0 0.3074285180712542 0.08966239166935687
2220000000.0 0.09679386021548322 0.3049463981549558
2240000000.0 0.3233678517425227 0.06787368632022316
2260000000.0 -0.148977488805573 -0.2991364954557884
2280000000.0 -0.3343803375485587 0.08770042156205356
2300000000.0 0.2860800579169358 0.22812517754853173
2320000000.0 -0.14998745507511785 -0.3693188577059666
2340000000.0 0.4295830341151549 0.09522893016736199
2360000000.0 -0.3416861811092208 0.3468122683296377
2380000000.0 -0.46125836233275364 -0.2820934973793678
2400000000.0 -0.0006406337959678193 -0.5920255090827583
2420000000.0 0.6195993786556563 -0.1512707627239414
2440000000.0 0.2575796226066165 0.625894364327216
2460000000.0 -0.7073795865710762 0.01397793747641924
2480000000.0 0.43551494081771636 -0.5846411175607001
2500000000.0 -0.18825206518179152 0.7164158296026883
2520000000.0 0.219006217091031 -0.7113753473240053
2540000000.0 -0.4094807216757021 0.6159736898628323
2560000000.0 0.6782364219577854 -0.2702337722460387
2580000000.0 -0.6973185081396578 -0.1369638375718639
2600000000.0 0.4230051767431211 0.5366122826826343
2620000000.0 0.637090037564003 0.13323574562760687
2640000000.0 -0.38469098064700624 -0.4791902826619262
2660000000.0 -0.04170063022878528 0.5771568127565578
2680000000.0 0.20728067992895752 -0.5008358337048596
2700000000.0 -0.25862214396235905 0.4333859517239386
2720000000.0 0.18017388134041698 -0.42999507471270515
2740000000.0 -0.18536015474547332 0.3908189170020789
2760000000.0 0.12605206477345338 -0.3836252737654277
2780000000.0 -0.20566729440210263 0.32096339421971304
2800000000.0 0.27893645075307333 -0.24180057896112483
2820000000.0 -0.27064285353064327 0.24063889380125036
2840000000.0 0.3246931672213176 -0.15201532007192997
2860000000.0 -0.3253358900084145 -0.15693103193482666
2880000000.0 0.2067963333349657 0.3000124373126512
2900000000.0 0.2802332699505898 -0.23477702230349373
2920000000.0 -0.06010743402664894 -0.3624102773088452
2940000000.0 -0.15463196729730294 -0.33741280731060064
2960000000.0 -0.17362338338888275 -0.33008311770441634
2980000000.0 0.05618240672490421 -0.3688188513563097
3000000000.0 0.3227200167711082 -0.1876649032360738
3020000000.0 0.33921064237297205 0.1460107366595885
3040000000.0 -0.2272512334966701 0.2737004839771703
3060000000.0 0.33516850865510706 -0.06940446683651497
3080000000.0 -0.1629997469345968 -0.29679093487182406
3100000000.0 0.212796299593445 0.25843501192435814
3120000000.0 -0.30758591762000553 0.10820396242471955
3140000000.0 -0.11956998311910776 -0.287507137602314
3160000000.0 -0.027233011768068645 0.2837809677121752
3180000000.0 -0.10606933274138093 -0.23480381048365656
3200000000.0 0.06943940483205134 0.2146346579930051
3220000000.0 0.17266950678939405 -0.09240786059906733
3240000000.0 -0.052714009414737334 -0.16048625423180962
3260000000.0 -0.13404387528246361 0.0429119941214939
3280000000.0 -0.10917200633469418 -0.008173437179351683
3300000000.0 -0.08110834310276369 0.02604501441212492
3320000000.0 0.06892867167213247 0.003246636983716058
3340000000.0 0.05696774155475786 0.02899771805415557
3360000000.0 -0.05539530509922012 -0.0023045898726679536
3380000000.0 0.027344596130979535 0.03233679359598091
3400000000.0 -0.022518416836256383 -0.017111176386284156
3420000000.0 0.01609918893859739 0.0018262776119654018
3440000000.0 0.003005294850222735 0.009774918506419605
3460000000.0 0.01432630074279661 0.0031147882062427003
3480000000.0 0.013920812024005993 -0.02297862888603295
3500000000.0 0.03797241307215305 0.015101075529044586
3520000000.0 0.04516974434332226 -0.028294811982766885
3540000000.0 -0.061539790476015155 0.016285955106756095
3560000000.0 -0.07153370734921168 -0.010653416092859023
3580000000.0 0.07973824401546292 -0.020687407337551533
3600000000.0 0.07924379773185926 0.05327421462275422
3620000000.0 -0.010454380793575578 0.10757651526056973
3640000000.0 -0.08199605872158285 0.0856237806089589
3660000000.0 -0.09957259677699401 -0.07913348571620048
3680000000.0 0.13035390227152915 0.03658902075685384
3700000000.0 -0.05226672663969736 0.13267931190432788
3720000000.0 -0.14431484259507338 -0.03795617868857471
3740000000.0 0.1384408724516484 0.06569127796819772
3760000000.0 9.499542909492659e-05 0.16323228870063733
3780000000.0 0.1546794204355641 0.09021138167196362
3800000000.0 -0.13340934064253335 0.1379509304793118
3820000000.0 -0.19974028692954135 -0.03695684459160313
3840000000.0 0.106520637010315 -0.1832862336125512
3860000000.0 0.09605150514965831 0.20351332795343957
3880000000.0 0.02439267797867454 0.2362504110892321
3900000000.0 0.05657905435080525 0.23853068482590548
3920000000.0 0.2439398592155444 0.0492547228292296
3940000000.0 0.09484079109395024 -0.22809463581374706
3960000000.0 -0.15245335325752885 -0.18776659923136368
3980000000.0 -0.21096751270404204 0.10271451691701854
4000000000.0 -0.21314259931485038 0.06830310788067125
