!Created with skrf (http://scikit-rf.org).
# Hz S RI R 50.0 
!freq ReS11 ImS11
400000000.0 -0.8510196610079533 0.11849454561506406
420000000.0 0.08592847031990816 0.8376620426005685
440000000.0 0.6771176951719372 0.4054778599778884
460000000.0 0.36860017971636744 0.6118019415507904
480000000.0 -0.6153657634043781 -0.21680629576590985
500000000.0 -0.5852510746010299 -0.1764571708330522
520000000.0 0.34009326644665816 -0.4056168367764924
540000000.0 -0.29519580525355654 -0.36082055943012337
560000000.0 0.3155209721372721 -0.3017336318018892
580000000.0 0.380597474993692 -0.08769141105825781
600000000.0 -0.3576351364902655 0.010315119024968764
620000000.0 -0.36425671832523254 -0.03351098903452092
640000000.0 0.011091402745329845 -0.4084178610592908
660000000.0 0.38378859668697707 0.23012677527454758
680000000.0 -0.4368017103685966 -0.13494450013417073
700000000.0 -0.06539602414486378 -0.4386145550418624
720000000.0 -0.2683263657147671 0.32250031341527924
740000000.0 -0.38156449957706806 -0.05844422242870445
760000000.0 -0.20484610466207792 -0.2912397129125631
780000000.0 0.320433752084306 -0.014777265715598828
800000000.0 0.27341480437825616 0.10011188431869343
820000000.0 0.17825626229166366 0.17804902312077825
840000000.0 -0.12247468763779572 -0.18175010485891968
860000000.0 -0.12533469208364575 -0.11692910514641532
880000000.0 0.10802467830312519 -0.04023533066944878
900000000.0 0.07746072013158911 -0.028943096200347983
920000000.0 -0.044789914000373576 0.03111940508703309
940000000.0 0.020857793728507528 -0.031230979210666483
960000000.0 -0.004245124333004749 -0.04836673077507186
980000000.0 -0.041512011718236555 -0.04616480803912136
1000000000.0 0.08102741107724161 -0.015864341423670672
1020000000.0 -0.05250240183430979 0.08236770445128301
1040000000.0 0.08528133780678936 0.08071254988936484
1060000000.0 -0.12133129073882941 0.09721212456393025
1080000000.0 0.09072574566084382 -0.160325314292477
1100000000.0 -0.16763342471544954 0.11939403202383342
1120000000.0 -0.17657784494061604 -0.15143939129227788
1140000000.0 0.26747126102689167 0.04714061508407732
1160000000.0 -0.2745312762843149 0.13972454343508534
1180000000.0 0.28699040884549787 0.16253705903546983
1200000000.0 -0.22424028520036549 0.256359916244897
1220000000.0 0.14114466624209673 0.32484751505342124
1240000000.0 0.3764399607956424 0.01653898547460068
1260000000.0 -0.0468113414883132 -0.3961924513626511
1280000000.0 -0.3952904778663306 0.11637037596761433
1300000000.0 0.26192207466801626 0.32833906831586207
1320000000.0 0.412120757144686 0.03331710760078237
1340000000.0 0.41001315593931664 0.01644531693662842
1360000000.0 0.3115528122284501 0.25938793710242886
1380000000.0 0.4024943698443883 0.03265009847093223
1400000000.0 -0.17330248907553508 -0.3460192026469327
1420000000.0 -0.3014187648504278 -0.19506484247350775
1440000000.0 -0.33069948337625305 0.07596222857126347
1460000000.0 -0.05351382944547908 0.3090904976295253
1480000000.0 0.2250703692435045 -0.18296946676820525
1500000000.0 0.005476516411887316 0.2579835188555318
1520000000.0 -0.101483677298302 -0.19595792400556034
1540000000.0 0.10879852228568589 0.13670223231249454
1560000000.0 0.13794639338997425 -0.024832468029564066
1580000000.0 -0.09655870547758359 -0.049492535495593085
1600000000.0 -0.08207712997877455 0.007014787003311038
1620000000.0 -0.05991557068311333 -0.015014807788780756
1640000000.0 -0.02856836350138104 0.008485777361578269
1660000000.0 -0.004423376000002628 -0.0056635316846431905
1680000000.0 -0.02230618773497858 0.0026327412899344494
1700000000.0 0.01871146602456651 0.03313373348837031
1720000000.0 0.042542225038703134 0.02316769334959389
1740000000.0 0.05721308423352485 -0.02762941198690395
1760000000.0 -0.08020912045857784 0.01707034791860264
1780000000.0 -0.051692008661833 -0.1010721217685196
1800000000.0 0.012892475828409458 -0.14921408852088058
1820000000.0 0.16772363603572538 0.057855281241747346
1840000000.0 0.027201388665032213 -0.2130631911347001
1860000000.0 0.24386978941939363 -0.09088154402696566
1880000000.0 0.21032739929126829 0.21259107316202228
1900000000.0 -0.13761210344768954 0.29794482910340103
1920000000.0 0.17404407575657616 -0.30485841542407616
1940000000.0 -0.3364545414317232 0.15733955006342076
1960000000.0 0.012637051916774463 0.38867680703274926
1980000000.0 0.4072521601886691 -0.051868563940664573
2000000000.0 -0.24780115113964513 -0.34562568901642005
2020000000.0 -0.28996879922273405 0.31719143365340013
2040000000.0 0.1575464003489309 0.39685387160065433
2060000000.0 0.40904130705523545 0.0996183435350947
2080000000.0 0.4065818678928451 -0.08620881058534889
2100000000.0 -0.011539746135297808 -0.4081024151387612
2120000000.0 -0.3601090186363958 -0.148500409059109
2140000000.0 -0.36588797122422484 -0.042473534407321115
2160000000.0 0.11583580017335961 -0.32784100407579375
2180000000.0 0.3242226494037211 -0.06210976399948268
2200000000.0 0.26209165349458147 0.1896657198903229
2220000000.0 0.30958837569809156 0.08497693644770617
2240000000.0 0.20462647008206453 -0.24913138912248758
2260000000.0 -0.15030234452873986 -0.2873073714337267
2280000000.0 -0.3271522076560071 -0.07753667112176395
2300000000.0 0.13875096211336 0.3303705983196843
2320000000.0 -0.19821920773762727 -0.3379464412515962
2340000000.0 0.42800036538720854 0.04855106433158566
2360000000.0 -0.3018258125659715 0.36419367898808397
2380000000.0 -0.43326256879110214 -0.2941257008787587
2400000000.0 0.21832713118235675 -0.5282092638338584
2420000000.0 0.604948325554376 0.11649552271441135
2440000000.0 -0.07425471036122082 0.6509560749635983
2460000000.0 -0.6503480773535233 -0.210705960681941
2480000000.0 0.4269510848290468 -0.5590203951293412
2500000000.0 -0.09385693201204 0.7086956230489491
2520000000.0 -0.01257627133708378 -0.7202715544150625
2540000000.0 -0.32754605611251364 0.6364217458183697
2560000000.0 0.5374113690649497 -0.4560522309441109
2580000000.0 -0.6546692233344173 -0.20713778326732818
2600000000.0 0.341080465283274 0.5677601498215278
2620000000.0 0.5680952163469876 0.27778629166329116
2640000000.0 -0.45899105971920995 -0.3814326544929009
2660000000.0 0.2830394197679746 0.4811051431059698
2680000000.0 -0.19833281198800617 -0.48022250051174514
2700000000.0 0.011486028502508771 0.482181718513169
2720000000.0 -0.03506733321362805 -0.45219268024625636
2740000000.0 0.19649099665165135 0.3958876160308953
2760000000.0 -0.1266067470358723 -0.3975836058361504
2780000000.0 -0.005293128174626469 0.3993147534896122
2800000000.0 0.047600990876544215 -0.3770237420593588
2820000000.0 0.005622470094060794 0.36009945734856214
2840000000.0 -0.07512781573990042 -0.3480313880500565
2860000000.0 -0.28655261376588165 0.22034869858307293
2880000000.0 0.34793469761860646 0.1125080015858163
2900000000.0 0.13894024209762781 -0.34262203673525665
2920000000.0 -0.32696596086120394 -0.18026334403102015
2940000000.0 -0.37249975414364206 -0.023989439176628255
2960000000.0 -0.013569817754325555 -0.37769267082190894
2980000000.0 0.3124943434621611 -0.2140353462981918
3000000000.0 0.3707071700718347 -0.05806248405869443
3020000000.0 0.1482810299036357 0.33969070751281016
3040000000.0 -0.35858938729059475 0.065120235637743
3060000000.0 0.3623051468192658 0.011079177379880414
3080000000.0 -0.05049916675013672 -0.3489810746962023
3100000000.0 0.04891793117467349 0.3404885420818905
3120000000.0 -0.1017218497243998 -0.31521258609439096
3140000000.0 0.31676976147709873 -0.02255885271079412
3160000000.0 -0.2860362523792672 0.08468638745745373
3180000000.0 -0.08253007480021818 -0.26069211326790115
3200000000.0 0.1897577990165723 0.15696237430038087
3220000000.0 0.17176996197923128 -0.12908279146386845
3240000000.0 0.18283820158478592 -0.037101935230038685
3260000000.0 -0.06698504623808806 -0.14512544448836984
3280000000.0 -0.1105386128591592 -0.07352430255795311
3300000000.0 -0.08513097061308587 -0.06971194901827052
3320000000.0 0.06317760012481903 0.06036229047440222
3340000000.0 -0.06950686716855825 0.0014838987627335467
3360000000.0 -0.05589420298148349 0.010160164810059479
3380000000.0 -0.042170272148945705 -0.016622939713738988
3400000000.0 0.006967447908537387 0.04402594424728384
3420000000.0 -0.04783116149629499 0.052155978047334815
3440000000.0 -0.0442251180398587 0.043655756904339926
3460000000.0 0.05454404604129438 -0.009369951155980024
3480000000.0 -0.04003025376877928 -0.00704799009793172
3500000000.0 0.01763630255805764 0.024263459015885842
3520000000.0 0.019863031642304674 0.03101974366765093
3540000000.0 0.06293822861645405 -0.036041116542225284
3560000000.0 -0.03440884227452674 -0.08195595767926796
3580000000.0 -0.011599812552650659 -0.10137044998415803
3600000000.0 0.05969930149268549 -0.11191588798081868
3620000000.0 0.1468799844332204 0.0573929363792608
3640000000.0 -0.15843123875228177 0.08481751427529617
3660000000.0 0.11357425166858834 -0.16625215631452173
3680000000.0 -0.20865393426419462 0.04431940357010073
3700000000.0 0.23533979496452465 0.0036203214105492024
3720000000.0 -0.2575866917003075 0.010837337357631403
3740000000.0 0.09730951399910565 0.2433477847500453
3760000000.0 0.2757932048281795 0.010625388003883969
3780000000.0 0.23790080072445954 0.15682951643772286
3800000000.0 0.23185753337215215 0.17297971391578512
3820000000.0 0.2152685381903448 0.19940642434578681
3840000000.0 0.15903472150094974 -0.19735156660601566
3860000000.0 0.046413025975718225 0.22137315434057664
3880000000.0 0.18648478052351253 0.1406944668796736
3900000000.0 -0.025102901673692942 0.23385994767987836
3920000000.0 -0.03157275467034793 0.2931947004542105
3940000000.0 0.14552359259763167 0.25363910014055385
3960000000.0 0.08769783528667188 0.26815017667168384
3980000000.0 -0.16643248561809493 -0.12430206913545788
4000000000.0 -0.15247962862467043 -0.10791017185102446
