!Created with skrf (http://scikit-rf.org).
# Hz S RI R 50.0 
!freq ReS11 ImS11
400000000.0 -0.8386695820572193 0.18865592031982964
420000000.0 0.17190813163844296 0.823600666971627
440000000.0 0.5437550009720781 0.5718806298908138
460000000.0 0.434563015290456 0.5811984259017058
480000000.0 -0.5008478370719067 0.42154782393723866
500000000.0 -0.5585841989732436 0.2279168790364006
520000000.0 0.4507176548711188 -0.2614147988308609
540000000.0 0.018505151854825312 -0.46612050711844977
560000000.0 0.43607486814140656 0.04139496656102935
580000000.0 0.38525852018135376 -0.1022126624378442
600000000.0 -0.23797228898222983 0.2762456923836206
620000000.0 -0.3612065141607723 0.07729547847155283
640000000.0 -0.16663790279563256 -0.37572974009898935
660000000.0 0.4179380408383113 0.16381392118996593
680000000.0 -0.4532586489281701 0.06067465398999056
700000000.0 0.3273822216314626 -0.29410051636753787
720000000.0 -0.41187355242387613 0.1171922162151226
740000000.0 -0.10170957415867214 0.37656567975164335
760000000.0 -0.23953596330975802 -0.25529269127044846
780000000.0 0.008779235688247773 0.3165417745554049
800000000.0 -0.06592540597129075 0.30060985142477903
820000000.0 -0.09126883377315805 0.2515612598618193
840000000.0 0.13174444681102723 -0.15488958150393475
860000000.0 -0.003928157580842735 0.15045139147635253
880000000.0 0.09977317483467595 -0.03271331411899049
900000000.0 0.06648783034069862 0.039337374128102405
920000000.0 -0.023935638528856044 0.04152154000608943
940000000.0 0.04149431722719567 0.026024645958342748
960000000.0 -0.05539640454275315 -0.004826501370366273
980000000.0 0.050818385066093145 0.054363693934181646
1000000000.0 0.05424990517355244 0.06018314543527133
1020000000.0 0.04167086631601717 0.07818732906169776
1040000000.0 0.013365499399159335 -0.10482161162065555
1060000000.0 -0.11162343682434228 -0.08932129500874864
1080000000.0 0.056998608265320175 0.16196256737862064
1100000000.0 0.12244958276367218 0.1610052399369915
1120000000.0 0.11691637856653196 0.21709842733106458
1140000000.0 0.08703186113012698 -0.27740101261974925
1160000000.0 0.16627991063893016 -0.2628198557197902
1180000000.0 -0.0162760444276636 -0.3127832785640834
1200000000.0 -0.29116336357343436 -0.1449462235121308
1220000000.0 -0.3072414273484619 0.17199318765668256
1240000000.0 0.10429631534064654 0.3617306350715675
1260000000.0 0.22237582199411465 -0.33440115858455993
1280000000.0 -0.41402688174017127 -0.010620793581166518
1300000000.0 0.06470312003056451 0.41731039761670535
1320000000.0 0.4182269926649699 0.01987694397684083
1340000000.0 0.41204717156396803 0.0076661319210510875
1360000000.0 0.4079696206027817 -0.0032915056037170743
1380000000.0 0.39844174359657175 -0.04817617140857426
1400000000.0 -0.09909964884428979 -0.37520272677975014
1420000000.0 -0.34723943007097713 0.10525643468421925
1440000000.0 -0.04822037180714701 0.3318959847627009
1460000000.0 0.12140508748950239 0.2820916025605689
1480000000.0 0.23027588006359195 -0.16614813426451322
1500000000.0 -0.06816662512309954 0.24127833663754444
1520000000.0 0.21556142891301192 0.0030325081289071954
1540000000.0 -0.16369656731806123 0.06903933555574619
1560000000.0 0.13413008957137257 -0.041499235525554706
1580000000.0 -0.00011724436354733246 -0.10924014003390112
1600000000.0 0.0313615947319562 -0.07654813571651577
1620000000.0 0.0639470532009533 -0.014836596953780024
1640000000.0 0.03380033509001257 -0.0177891259687423
1660000000.0 0.006565832667231069 0.002056068522866826
1680000000.0 0.01202115235777014 -0.021827342690402526
1700000000.0 0.016971314634390822 -0.04210436663027929
1720000000.0 0.004167274924584468 0.05762895604686117
1740000000.0 0.06777655351179941 0.016710736451595442
1760000000.0 -0.050579346640337634 -0.060364863024718
1780000000.0 0.027031932987871054 -0.10171762159034226
1800000000.0 0.07410935645281579 0.12919033506236913
1820000000.0 0.028271825627199165 0.18477592204633322
1840000000.0 -0.13350581570642372 0.1759909928236578
1860000000.0 -0.17369537144172784 -0.18362865316760615
1880000000.0 0.2585422057016563 0.12474692194583299
1900000000.0 -0.20699095905192627 -0.24398602030776645
1920000000.0 0.27059849033614547 0.2328196548927838
1940000000.0 -0.3818846006549406 0.03373261762954785
1960000000.0 0.39550988846648566 -0.013645811346252533
1980000000.0 0.1444191608743225 -0.37672724564142684
2000000000.0 -0.0907281568798355 -0.4057869650843892
2020000000.0 -0.3816660085309581 -0.19735852843489082
2040000000.0 0.1480024431219896 0.411458863710279
2060000000.0 0.28956531845455896 -0.3118207256213312
2080000000.0 0.10750393465176007 -0.3964999520572999
2100000000.0 0.010367181888877797 -0.39809980068296763
2120000000.0 -0.22769785078601704 -0.3154304142119106
2140000000.0 -0.3693380558786994 -0.03921298931443275
2160000000.0 0.04020682312569263 -0.34866783644434535
2180000000.0 0.21826981597352524 -0.25054557163856683
2200000000.0 0.3238961503900268 -0.010467442966544291
2220000000.0 0.30156865367656044 0.11272747551659447
2240000000.0 0.24019194109040226 -0.22030746678808782
2260000000.0 -0.14517919557632708 -0.2959029865255225
2280000000.0 -0.34320335392254536 0.02885379505274264
2300000000.0 0.3275429192135765 0.16298354846614665
2320000000.0 -0.2902511498171178 -0.2664077328940779
2340000000.0 0.4305605885636167 0.042545300776517844
2360000000.0 -0.21987384392117576 0.4220780312233291
2380000000.0 -0.464223570159838 -0.24680758756221416
2400000000.0 0.15451235199678084 -0.5535511324312921
2420000000.0 0.6135525728466197 -0.09280278442748395
2440000000.0 0.2839034215577472 0.5935628899685289
2460000000.0 -0.6662386929054297 0.16346728918383793
2480000000.0 0.3093932691072793 -0.6348894887228544
2500000000.0 -0.05662945693365908 0.7146748626842157
2520000000.0 0.11157986737600932 -0.7125434431139761
2540000000.0 -0.3950172309832507 0.599771244435891
2560000000.0 0.6094404306994853 -0.35752096587236076
2580000000.0 -0.6498038706880189 -0.22841744274407222
2600000000.0 0.3940751092439868 0.5341813464702594
2620000000.0 0.6074199704850318 0.1818227231282534
2640000000.0 -0.3745940212470799 -0.4683764591003694
2660000000.0 -0.009041963675328992 0.5623312814809889
2680000000.0 0.127472749225914 -0.508264294329175
2700000000.0 -0.25089406983102613 0.41602916339530915
2720000000.0 0.3219450505083826 -0.3120887852950156
2740000000.0 -0.40201400756441846 0.10374631736992813
2760000000.0 0.37945642673592184 -0.09179954603349831
2780000000.0 -0.3341935337031411 0.16122297104227057
2800000000.0 0.2871328126755648 -0.21734760528153943
2820000000.0 -0.09850577562023356 0.3378198162808688
2840000000.0 0.0631758762708807 -0.34119227534415314
2860000000.0 -0.2782960931975689 0.20600883224260763
2880000000.0 0.25718712975571817 0.238896058240243
2900000000.0 0.25764224203432284 -0.24956264278468074
2920000000.0 -0.28596370951694466 -0.23304756136184668
2940000000.0 -0.14784540758978584 0.34157676533281667
2960000000.0 0.044026679705012894 0.36313143549384513
2980000000.0 -0.3591716714660016 0.04458289643531645
3000000000.0 0.2443058785897112 -0.2715355629530097
3020000000.0 0.27646594946275016 0.2443782610534565
3040000000.0 -0.2787228108130281 0.23534947019937416
3060000000.0 -0.1414981394020684 -0.33088045127822735
3080000000.0 0.34341417999755014 0.04733115057047982
3100000000.0 -0.2942956419029854 -0.15368287378055173
3120000000.0 0.22106363706039023 0.23026591930061077
3140000000.0 -0.2444781893625502 -0.1903404485249099
3160000000.0 0.10250999009482924 0.27759871885095966
3180000000.0 -0.09251317784715828 0.2580637159816656
3200000000.0 -0.22490534450482988 0.08470567126147947
3220000000.0 0.1485928670315137 -0.13483495079645008
3240000000.0 0.13808565531479636 -0.09992658456462487
3260000000.0 0.11561880894864365 -0.08686467691705138
3280000000.0 0.12158248492468425 -0.018946203653438628
3300000000.0 -0.1033393951679551 -0.015310604575145164
3320000000.0 0.04310933349595138 -0.06905691495282314
3340000000.0 -0.02336768019592095 0.05201316772949043
3360000000.0 0.004480281264163034 0.037040295543130576
3380000000.0 0.011847368418147661 0.028213130810215585
3400000000.0 0.020269375251324932 -0.020190245289753172
3420000000.0 0.026765979244199267 0.012393750789565389
3440000000.0 0.03295625387697016 0.015760562691766226
3460000000.0 0.023198805169949915 -0.03939164472118059
3480000000.0 -0.021017877483278873 0.050398754629921626
3500000000.0 -0.06109355629321182 0.02118282124954845
3520000000.0 -0.05256790571617193 -0.061197921381947296
3540000000.0 -0.09789901095129855 -0.011788884751025583
3560000000.0 0.1125078746267573 -0.029607120774789584
3580000000.0 -0.057755702228414106 0.1116565645716122
3600000000.0 0.07026955126353127 0.10948620856923115
3620000000.0 -0.11314989686388088 -0.07248773960222119
3640000000.0 0.14037862894786649 -0.025071152021983765
3660000000.0 -0.035593852895962355 0.14694393950567755
3680000000.0 -0.13825383034833874 0.07960793709889738
3700000000.0 -0.12297794356272122 0.10370555237466163
3720000000.0 -0.14134332712646847 -0.06497804553304018
3740000000.0 0.142564552895709 0.03389787440105518
3760000000.0 -0.14366044439828657 -0.015723171969830915
3780000000.0 0.10331786001815052 -0.11120062879565853
3800000000.0 0.04123113854454114 -0.15469889799978573
3820000000.0 -0.03940847907863857 0.16245162982474887
3840000000.0 0.14372667414269244 -0.0886817118068844
3860000000.0 -0.09987338293889429 -0.14323620923993702
3880000000.0 -0.06295003102568307 0.1759735273895218
3900000000.0 -0.1830386247476862 -0.08075770761262542
3920000000.0 -0.15252510879403583 0.14093511582626467
3940000000.0 0.18060290233767443 0.10017446155346982
3960000000.0 0.1182954652655556 -0.15593528512362492
3980000000.0 0.1447153765792748 -0.11031621639207083
4000000000.0 0.14013063334958606 -0.0950309478654763
