!Created with skrf (http://scikit-rf.org).
# Hz S RI R 50.0 
!freq ReS11 ImS11
400000000.0 -0.6609813476398547 -0.552357404091427
420000000.0 -0.6149971114374384 0.5737710381230751
440000000.0 0.02474321815358195 0.780552122853886
460000000.0 -0.25864876855103475 0.6657974855327227
480000000.0 -0.24606356626561982 -0.6002043681797288
500000000.0 0.2010873147163215 -0.5610263524511523
520000000.0 0.38844631810915575 0.3693332376188959
540000000.0 -0.330049270072206 -0.32828116422455117
560000000.0 0.08981582807547349 0.42460575436150155
580000000.0 0.3924857733622635 0.02005849190150057
600000000.0 -0.15014208129187884 -0.32918628529667804
620000000.0 0.028751722257350378 -0.36312621094666164
640000000.0 0.3171849384572279 -0.26063424921348166
660000000.0 -0.035336580850769767 0.4486445777987913
680000000.0 0.10436700588045497 -0.4545911463374993
700000000.0 0.46198349903541924 0.010457139893399421
720000000.0 -0.3017074859313233 0.33291922985967676
740000000.0 0.3920926878629194 -0.09831776110455252
760000000.0 -0.20019205119709088 0.27867735925933507
780000000.0 0.32304567971690457 0.007668220699298414
800000000.0 0.23887038172174918 -0.14017326816028416
820000000.0 -0.10688073322974345 0.20704070040599806
840000000.0 0.18417565624773152 -0.03879491187070897
860000000.0 -0.08588036703521566 0.13893555064778434
880000000.0 0.12291332929528691 -0.03134184662346441
900000000.0 0.005690884084854474 -0.09744454560442366
920000000.0 0.05743622347716509 -0.038390762262345196
940000000.0 -0.04641049444335152 0.028997653317955542
960000000.0 -0.061150781504112246 0.014934792509241384
980000000.0 0.06966248103314901 -0.023760999041819757
1000000000.0 -0.08039888444886328 -0.005616690663968803
1020000000.0 0.02518335174845199 -0.10269794126013321
1040000000.0 -0.07802572692242546 -0.10601243459576137
1060000000.0 -0.02431092521078484 0.1720306372750083
1080000000.0 -0.056666945036901485 -0.20215975679538442
1100000000.0 0.04413532988259501 0.23077677565264645
1120000000.0 0.2458442093943411 0.10538532394583731
1140000000.0 0.1745992390782613 -0.2346969820238415
1160000000.0 -0.1471330750505129 0.2659783370646489
1180000000.0 -0.1572145729886385 0.27563627976074706
1200000000.0 0.30425569403030744 -0.10290197416912349
1220000000.0 0.1781859492457991 -0.30030240438920974
1240000000.0 -0.36884326397945993 0.008744229526716857
1260000000.0 0.17227456373619668 0.3487619652050404
1280000000.0 0.2753080741865851 -0.2816438912374499
1300000000.0 0.3790347982196007 -0.12533367658498576
1320000000.0 0.2782725879079696 -0.3028225674003902
1340000000.0 -0.23211425106079175 -0.34891037112263046
1360000000.0 -0.16844502430428443 0.37825191805096053
1380000000.0 0.12311467401442867 0.3772387059722234
1400000000.0 0.36172266085554444 0.1169038132654648
1420000000.0 0.34292957435036303 -0.12402976797534007
1440000000.0 -0.3339118082671125 0.08911343857431796
1460000000.0 0.3130968077939796 0.0024558731241647582
1480000000.0 -0.23362669870997949 0.15155840533884576
1500000000.0 0.14430381670549786 -0.18251943912149934
1520000000.0 0.1706972950090706 -0.08621015224393147
1540000000.0 0.031567819193691414 -0.15272376455937647
1560000000.0 -0.11258398554037612 -0.05578172431805191
1580000000.0 -0.09621713760585102 0.027065370771167416
1600000000.0 -0.07725112446160323 -0.01596800510050069
1620000000.0 0.06231596291279846 -0.014069897117504213
1640000000.0 0.023080631472018664 0.033584780001253714
1660000000.0 0.01327387933470248 0.014984175024236367
1680000000.0 0.008374857723153923 0.006325197020081061
1700000000.0 -0.017577555619762913 -0.013001336095267775
1720000000.0 -0.012766778401024097 0.03132090590299871
1740000000.0 -0.03908939028518764 -0.034417307906396945
1760000000.0 -0.07111205337970529 -0.0179374426433372
1780000000.0 -0.08731302215562967 0.05658938568489855
1800000000.0 -0.13269847228429163 -0.039148940907946704
1820000000.0 -0.14779602073769663 -0.07293479766751072
1840000000.0 0.19470391338165352 -0.05219319363313591
1860000000.0 0.2348531950004031 0.06869222659223231
1880000000.0 0.27937523192050573 0.04684174494790674
1900000000.0 0.08439651419062495 0.29992696984685485
1920000000.0 -0.1362818618644192 -0.3083182764215508
1940000000.0 0.08589644163962495 0.34915423267534823
1960000000.0 0.3110681829803515 -0.20897125375926168
1980000000.0 -0.04427878466893524 -0.38871682142921005
2000000000.0 -0.3948839956715893 -0.09616009068278455
2020000000.0 -0.39639001759338155 0.12681772119502382
2040000000.0 -0.0820938266745947 0.4216475129847989
2060000000.0 0.43177389464422783 -0.03712279667838876
2080000000.0 -0.3243589232930585 -0.2825570146865698
2100000000.0 -0.23068551844455837 0.3413003462414328
2120000000.0 -0.2147802654693408 0.32944047382734354
2140000000.0 -0.2641174496513608 -0.27092561292848544
2160000000.0 -0.16673876588106054 -0.31925719766218597
2180000000.0 -0.042077383430184655 -0.34494323757662415
2200000000.0 0.04821801655205187 -0.3329781590761896
2220000000.0 0.12992423696436814 -0.3052753978227002
2240000000.0 -0.029533720688740835 -0.330149785230271
2260000000.0 0.025615226169428195 -0.33499654615552044
2280000000.0 -0.11673298685194117 -0.32536441269768446
2300000000.0 -0.3123235105717425 -0.1948296904976965
2320000000.0 0.08403611794586102 0.3947194760408476
2340000000.0 0.013403368447442185 -0.4407975179417813
2360000000.0 0.15059108985786948 0.46332466249020354
2380000000.0 -0.5127355101481442 -0.16159881773315093
2400000000.0 0.4154329041699825 -0.4170047188563241
2420000000.0 0.30458404746002105 0.5584967348843863
2440000000.0 -0.6781984117193293 0.002081009766174358
2460000000.0 0.5069030227735323 -0.5009903066351147
2480000000.0 -0.2103932880603983 0.7085432821322356
2500000000.0 0.2711482498120397 -0.7062866649492265
2520000000.0 -0.3743600684572962 0.6669753147024399
2540000000.0 0.6191033618083951 -0.4503400126402822
2560000000.0 -0.7594895713528228 0.007532304217545378
2580000000.0 0.4950600705770302 0.5577555222117124
2600000000.0 -0.018590281172528752 -0.7231553171097973
2620000000.0 -0.46450688035640314 0.5197961416229164
2640000000.0 0.1403679374126276 0.6473338633733458
2660000000.0 0.19202477987024003 -0.5910359705739486
2680000000.0 -0.3930119796363133 0.42292939496795817
2700000000.0 0.5087201218864947 -0.16043927882965012
2720000000.0 -0.4922852294127519 0.015168364659122973
2740000000.0 0.45170181931445613 -0.04392441824100907
2760000000.0 -0.4171444098514043 0.03640667156767934
2780000000.0 0.37496228059077225 -0.10942254151817277
2800000000.0 -0.3069208069354374 0.20819538843643134
2820000000.0 -0.01735760802768124 -0.3587539953372692
2840000000.0 0.3402347877584822 0.0805259232639616
2860000000.0 -0.27426781333082584 0.2078366048260777
2880000000.0 0.2107359762373308 -0.26714338581434793
2900000000.0 -0.3355789973356273 0.047158040705221324
2920000000.0 0.07760657995159767 0.3333951873797303
2940000000.0 0.34059152320411684 -0.06154252641119625
2960000000.0 0.20151109565020373 -0.2825841653761741
2980000000.0 0.3209520289632184 -0.13204300787648576
3000000000.0 0.3505567657542041 0.02919662337353246
3020000000.0 0.2117697873743159 0.2788976430799901
3040000000.0 -0.09515465054148403 0.3336642155158318
3060000000.0 -0.29894139968347533 -0.15931785358495332
3080000000.0 0.2966505830023704 -0.14420003622187927
3100000000.0 -0.05055650939237879 0.3151812996994349
3120000000.0 -0.15727569781380799 -0.2637277906194602
3140000000.0 0.12348197896136343 -0.2670022798503848
3160000000.0 -0.1145429048185961 0.24648900514109373
3180000000.0 -0.24680617202422012 0.015166088548722681
3200000000.0 -0.026065087849674193 -0.21813287993182556
3220000000.0 0.16058358319425758 -0.1059974932088458
3240000000.0 0.15163622288413933 -0.06360256735322767
3260000000.0 0.07674040828591246 -0.1108834140064412
3280000000.0 -0.05939083002001347 0.08597142140727919
3300000000.0 -0.058368499107777486 -0.049318595110780274
3320000000.0 -0.020989315949362236 0.04975160507314774
3340000000.0 0.03839405017904271 -0.0028075029490355003
3360000000.0 0.0075400218003500155 -0.03598781385106282
3380000000.0 -0.016303622451049313 0.0372416172029192
3400000000.0 0.02165751653506035 -0.04488693329667595
3420000000.0 0.002768182471329958 -0.06288998992861504
3440000000.0 -0.06793645882212389 0.03834652856206833
3460000000.0 0.08971689588702936 0.018024720612505582
3480000000.0 0.05274257648405035 0.08818762402966902
3500000000.0 -0.04877691190589884 0.10675353965284738
3520000000.0 -0.1284735427293492 0.044609752018751114
3540000000.0 0.09392095842228869 0.12164526346247659
3560000000.0 0.09304359664317029 -0.13522930423605584
3580000000.0 -0.1297964467765285 -0.10928911907806045
3600000000.0 -0.09989390759332056 -0.14187629728274284
3620000000.0 0.05750020110897046 -0.16541768453779485
3640000000.0 0.17810169104036877 -0.0026949308132146617
3660000000.0 0.15112570278890033 0.09816041593337183
3680000000.0 0.0564034429964809 0.16858329436224911
3700000000.0 -0.12070515040331734 0.12560649485190756
3720000000.0 -0.14306802652520492 0.09299656327865068
3740000000.0 -0.12078986726269407 0.1048303847100917
3760000000.0 0.12102800196589801 -0.07663152709769516
3780000000.0 -0.0069072124447193935 -0.1271375281199267
3800000000.0 0.1082976398718977 0.03630852567765955
3820000000.0 -0.04885707021278303 -0.09700077783297828
3840000000.0 -0.06822664730434407 0.08211368129916215
3860000000.0 0.07178919220307778 -0.0838260295307983
3880000000.0 0.10890268380153438 0.039882245988239654
3900000000.0 0.07382399469404168 0.09714256027357891
3920000000.0 -0.12764519873134528 0.007442246788236227
3940000000.0 -0.12691583736952822 -0.026628661546752575
3960000000.0 0.026632909619181615 0.12164212874076674
3980000000.0 0.10937897121906681 0.028370514056344623
4000000000.0 0.08557776257569107 -0.03588976089485494
