!Created with skrf (http://scikit-rf.org).
# Hz S RI R 50.0 
!freq ReS11 ImS11
400000000.0 -0.42268532100209705 -0.813964737691593
420000000.0 0.10247949694322771 0.9090469976304001
440000000.0 0.7705789757328171 -0.4609029888995155
460000000.0 -0.6956807768282058 -0.4987367842979069
480000000.0 -0.8019037931235471 0.025848148438892455
500000000.0 0.12835990003956804 0.7659614110638384
520000000.0 -0.6349543273899909 0.3626974255674123
540000000.0 -0.5837623881534214 -0.3771173824162544
560000000.0 0.6572278482065443 0.022045878309477893
580000000.0 0.4394356738187428 0.3626357362648708
600000000.0 0.260919956300909 -0.4563445861648708
620000000.0 -0.45127665639836456 -0.3258163714933776
640000000.0 0.03587453712180962 -0.5737842745611714
660000000.0 0.3586614062333576 0.4381327117465121
680000000.0 -0.48937158790805674 0.22827610382481603
700000000.0 -0.13282433657783574 0.5311664454780909
720000000.0 0.5318108480532513 -0.1524205200306929
740000000.0 -0.19897043331286723 -0.5161266908971479
760000000.0 -0.13231612145633634 0.512661152694415
780000000.0 0.43539620185374706 0.24489139666797524
800000000.0 -0.46391386213122293 0.05235330644387183
820000000.0 -0.1002053124984165 -0.4016194295863931
840000000.0 -0.00895134253334221 -0.3478421566777324
860000000.0 0.15507857176908496 0.22739657242457081
880000000.0 0.20577844491948627 -0.1025802691855998
900000000.0 0.1755596363523021 -0.05019274883313567
920000000.0 0.10474260369211122 0.09243263136658778
940000000.0 0.12613927288694854 -0.006412871787386652
960000000.0 0.0349398194895989 -0.13222196979507228
980000000.0 -0.025878912306885063 -0.13045405726138412
1000000000.0 -0.02600608283434918 -0.14428672666480244
1020000000.0 -0.09242938210788845 0.11354693752536521
1040000000.0 -0.15474239677804458 -0.013192753726005303
1060000000.0 0.08256232271608342 -0.13679986283978954
1080000000.0 -0.12175555423202088 -0.11185014578780228
1100000000.0 -0.1673931846409407 0.09075375715305899
1120000000.0 -0.2130323987516545 -0.06286616002790942
1140000000.0 0.1404615732638967 0.1967391785822614
1160000000.0 0.2693327352986751 0.090463177461515
1180000000.0 -0.11446368385687222 -0.29835089871785386
1200000000.0 0.07465572799939116 -0.33899930033635317
1220000000.0 0.25382508160464756 0.2728233402430483
1240000000.0 -0.3805123242347172 -0.11191176815926132
1260000000.0 0.4069807238456638 0.05422885505490071
1280000000.0 -0.1482611577304694 -0.3928999631019071
1300000000.0 -0.40775049821782283 0.08614080233248447
1320000000.0 -0.1632344511188222 -0.38337953777701794
1340000000.0 0.18498915570601931 -0.38719011311481416
1360000000.0 0.2643374237901062 -0.35495142938581387
1380000000.0 -0.3283607661357642 -0.30346065380291143
1400000000.0 -0.2052674657106091 0.3870647921257126
1420000000.0 0.20043992627921364 0.3674194902180272
1440000000.0 0.3469870150714138 0.203055497890615
1460000000.0 0.372581001911035 -0.08549847126804186
1480000000.0 0.3148708710904319 -0.17600811370788436
1500000000.0 -0.14723600643142817 -0.3186777412443808
1520000000.0 0.3062945799707118 -0.13969132221482425
1540000000.0 0.2386845851259551 0.1939375129907498
1560000000.0 0.23994492213740326 -0.11111533068061179
1580000000.0 0.16514233983998547 -0.13221328432271032
1600000000.0 -0.06491274390555747 0.15222706639266134
1620000000.0 -0.04918945005809041 -0.11569971788092162
1640000000.0 0.07768823718075606 0.053276816901219735
1660000000.0 0.0020887497546884575 -0.06120515971062015
1680000000.0 0.015994694889890027 0.033442209069343205
1700000000.0 0.007838207240709643 0.01793403276549168
1720000000.0 -0.005347590302561151 0.028341866769333975
1740000000.0 -0.05137259329091235 -0.020051300512715274
1760000000.0 0.04896810686968309 -0.06717541082571596
1780000000.0 0.07982385447850299 -0.0830832639251898
1800000000.0 0.15269632315878404 0.008032064289142337
1820000000.0 0.02776054076468634 0.18498534914448972
1840000000.0 -0.21277270174269353 0.036694592922425245
1860000000.0 0.2463368877098018 0.01439834349470803
1880000000.0 -0.2633354887174958 -0.09979962940780582
1900000000.0 0.27463971538651216 0.1516884851009357
1920000000.0 -0.32063756017441747 -0.11154362909405363
1940000000.0 -0.24921850370624637 0.25646232465457347
1960000000.0 0.05051911519178133 0.3808854037422068
1980000000.0 0.3614731801820659 -0.1875155284115183
2000000000.0 -0.30225882047659025 -0.29603701281474304
2020000000.0 -0.2715219620524262 0.3360193405136267
2040000000.0 0.40467245610756875 0.15836666928652474
2060000000.0 0.14232112371477706 -0.4030947116885973
2080000000.0 -0.35468618314886285 -0.21269961410609295
2100000000.0 -0.3789003707148145 -0.09965289802739254
2120000000.0 -0.07903286507344494 -0.3661189579414975
2140000000.0 0.17436555894846806 -0.31718454486257824
2160000000.0 0.16013318233403864 0.30522766001763213
2180000000.0 -0.13200245246838732 0.3004205479867344
2200000000.0 -0.2903685596144908 0.13931306718429348
2220000000.0 -0.1607999821785914 0.2709877666920157
2240000000.0 -0.10989593320664631 0.2956231308570499
2260000000.0 0.14628495223959223 0.29038600848310236
2280000000.0 0.17360691289884908 -0.29284793672945003
2300000000.0 -0.039180574472655744 0.35556140064935615
2320000000.0 0.030353479435026715 -0.3779476563053458
2340000000.0 -0.13887541596723296 0.39019126841909074
2360000000.0 -0.12583403087744843 -0.4374993769472089
2380000000.0 0.46389647539034873 0.18818280630653653
2400000000.0 -0.49477494156936086 0.23734684905511189
2420000000.0 0.20283034230185212 -0.5595331124410072
2440000000.0 0.2943261906103004 0.5673441244409413
2460000000.0 -0.5724232980529845 -0.3592452500584174
2480000000.0 0.658313592632512 0.26062740644431426
2500000000.0 -0.6066175168749461 -0.40764682870134045
2520000000.0 -0.24235762756982895 0.7061034949980056
2540000000.0 0.7413278495039404 -0.15399680309797842
2560000000.0 -0.6863819823394236 -0.33045409010407484
2580000000.0 -0.749532159026452 0.0013372603141903517
2600000000.0 0.7062915801670973 -0.2869061747266771
2620000000.0 -0.7411258192336716 -0.09531672114061616
2640000000.0 -0.30631244970276017 0.6522062242301406
2660000000.0 0.3023649643258634 -0.615559830226315
2680000000.0 -0.19374501787771792 0.618632908156024
2700000000.0 0.09543833556572946 -0.6017059294013174
2720000000.0 0.1073238160212301 0.5547343949605338
2740000000.0 -0.3945783425501862 -0.3437030034760969
2760000000.0 0.48100553767167487 -0.05790558341339774
2780000000.0 -0.21313672214269203 0.3928257214831118
2800000000.0 -0.058034253933685775 -0.4079510059841557
2820000000.0 0.06419853335238308 0.3745232972402294
2840000000.0 0.3465385344661153 0.07053830072233916
2860000000.0 0.3466468385671246 -0.04785175320943622
2880000000.0 -0.2600467529391309 -0.22187710391219242
2900000000.0 0.10626746747473889 0.32185680938673816
2920000000.0 0.31750447318571456 -0.11486958727038357
2940000000.0 0.1301547610710687 -0.31091612969207366
2960000000.0 0.03886488116752657 -0.3607607615070601
2980000000.0 0.16049916294125116 0.3222443886565294
3000000000.0 -0.2694062012473623 -0.2532028455890992
3020000000.0 0.3395234948855487 -0.1691502404813106
3040000000.0 0.19776488151049046 0.3299628060956024
3060000000.0 -0.3678934606751371 0.11686761177521353
3080000000.0 -0.09822406447648936 -0.3700306223379009
3100000000.0 0.36321775984073595 -0.07084362650482613
3120000000.0 -0.2905559004651097 0.20186266512799722
3140000000.0 0.28646503895211556 -0.18144578122166957
3160000000.0 -0.29777727939710735 0.1328121841689386
3180000000.0 0.3109644868129794 0.029978355981572488
3200000000.0 0.020849706550475564 0.28430704065686313
3220000000.0 -0.24867353516116392 -0.050101610280222836
3240000000.0 0.19865523317046346 -0.09559515095833675
3260000000.0 -0.005164353904410488 0.18387520878309718
3280000000.0 0.13734661004246623 0.04542111185351835
3300000000.0 0.061441903417514536 0.09406528358739771
3320000000.0 -0.004764053316310396 -0.08890917720707946
3340000000.0 -0.04081106809344587 -0.0535580641733851
3360000000.0 0.018451198105684064 -0.04155411928496171
3380000000.0 0.003856999104534987 0.023257796054882363
3400000000.0 -0.005038349147034357 0.005633052222991649
3420000000.0 -0.007721494049971179 0.0036306492995886275
3440000000.0 -0.014481233253135625 0.015443773051659447
3460000000.0 0.028529293194121876 0.012556591829301033
3480000000.0 -0.03953401298210234 -0.00022566191703038478
3500000000.0 -0.048445743517376204 -0.0045312352653299115
3520000000.0 -0.046857727204557095 -0.029724072255372568
3540000000.0 0.010191194988838886 -0.06306958027722764
3560000000.0 0.04155851132560436 -0.06531393897024693
3580000000.0 0.06830323429989729 0.0625203226195551
3600000000.0 0.10035304062786825 0.041889468396000544
3620000000.0 0.08373668986968504 -0.0852608680118391
3640000000.0 -0.0716083559993836 -0.10229871426835604
3660000000.0 -0.11328223264247832 -0.04488893971901665
3680000000.0 0.09742767286252207 0.06813426525176046
3700000000.0 -0.09163963491710655 -0.06091452119502534
3720000000.0 -0.09842196258400193 0.02214426845086138
3740000000.0 -0.08928326182792841 -0.022590445603027896
3760000000.0 -0.03931012218932958 0.07630257416820735
3780000000.0 0.06554344057655409 0.04724190435804512
3800000000.0 -0.0006814218045881924 -0.09178379150718698
3820000000.0 -0.1017403438101019 -0.054703544577472195
3840000000.0 -0.119846301485772 -0.010113689553401495
3860000000.0 0.03452321787958191 0.05191753475741874
3880000000.0 -0.0512089877917796 0.032496807236658536
3900000000.0 -0.05861665545870292 0.04145490325944363
3920000000.0 0.08185740190982414 -0.0010907325945535683
3940000000.0 0.08929752073383541 -0.010766419338372428
3960000000.0 0.015189732792810239 0.09591502531839631
3980000000.0 -0.039292904834525626 0.09239091158352332
4000000000.0 0.03069115286052323 0.08919646661853069
