!Created with skrf (http://scikit-rf.org).
# Hz S RI R 50.0 
!freq ReS11 ImS11
400000000.0 -0.8449247005459534 0.16456164040811402
420000000.0 0.3856711490579971 0.7477901771566955
440000000.0 0.539674800923906 0.5699811485048395
460000000.0 0.17333552960396142 0.7009904788345709
480000000.0 -0.5667723943534873 0.3396737245170819
500000000.0 -0.5336393826323497 0.28392192207860895
520000000.0 0.28460527144569236 -0.43338924098115594
540000000.0 -0.22921448630137764 -0.4001925098682417
560000000.0 0.3355252663906179 0.2757315308711245
580000000.0 0.3879859968148492 -0.054239666461057504
600000000.0 -0.3184615654715108 0.15467545024799342
620000000.0 -0.2247437547736383 -0.28044306158631394
640000000.0 0.159714347830699 -0.3722813682854089
660000000.0 0.3029477783886283 0.32453268908409777
680000000.0 -0.29576315998238134 -0.3454769124537603
700000000.0 0.2760667687079882 -0.3496511897825401
720000000.0 -0.23118165213847439 0.35838711038410165
740000000.0 -0.23688820257554644 0.30297341269118794
760000000.0 0.14213978216544856 -0.3223653638095251
780000000.0 0.27948052968322096 0.18675240519085753
800000000.0 -0.16981784981571446 -0.2543825070842964
820000000.0 0.07328678684343792 0.24299048720201283
840000000.0 0.19856071699605787 -0.009492550747815352
860000000.0 -0.12017493295257907 -0.0875051146802331
880000000.0 0.09443877025826343 0.044531232742045214
900000000.0 0.06081597524739672 -0.04268827607646301
920000000.0 -0.048376557332559224 -0.0029264075437380925
940000000.0 0.0022517459319025277 0.03722103773559757
960000000.0 0.03161882605841873 0.03363209569681369
980000000.0 -0.0624028949720611 -0.017549506397626032
1000000000.0 -0.0059593786076070476 0.08483862523821649
1020000000.0 -0.07446868570508558 0.07920273534519802
1040000000.0 0.13113759443816653 0.02880104307303064
1060000000.0 -0.023243590993729763 0.15442441603163687
1080000000.0 0.16545158760752204 0.09653682569118043
1100000000.0 -0.15414194357851813 0.16516166426437953
1120000000.0 0.2505756996745638 -0.0035715812034768225
1140000000.0 0.18844133700193744 0.19355048819882334
1160000000.0 0.288510280867719 0.019852203494006043
1180000000.0 -0.005740782115157424 0.31480410341959003
1200000000.0 0.05798471506124916 -0.32795320420494983
1220000000.0 -0.30293980100829226 -0.20235259174905879
1240000000.0 0.39115328628384993 0.05039765542110092
1260000000.0 -0.39852348211258004 -0.08940579409399546
1280000000.0 0.2587943383967075 0.3226613825755163
1300000000.0 0.3885131672439699 -0.12345526752920853
1320000000.0 0.3328569010962095 0.2220392302804297
1340000000.0 -0.15334709852752335 0.377097040646984
1360000000.0 -0.03499131808430851 0.4079094456555524
1380000000.0 0.15621172411553122 0.37480400391434715
1400000000.0 0.33219637395564655 -0.21879293579116743
1420000000.0 -0.33719740264884057 -0.17648339377926708
1440000000.0 0.29730926673276237 0.19253183936682522
1460000000.0 -0.2361510916685549 -0.20591713403521114
1480000000.0 -0.2695290229128743 0.04893763421889533
1500000000.0 -0.1647073578187492 0.1720787089583254
1520000000.0 -0.16901776030637722 0.1254778634273954
1540000000.0 0.13907633383044993 -0.10882736760461255
1560000000.0 -0.13479222641179506 -0.054304391807981287
1580000000.0 0.11228038455011354 0.02878792298958551
1600000000.0 -0.06463791401364563 0.05660799343682141
1620000000.0 0.0071826816679621056 0.05769818622065329
1640000000.0 -0.01854372567923656 -0.021166195907921487
1660000000.0 -0.013498290726785461 0.0008381529147197815
1680000000.0 0.012943011122719845 0.013487552752989273
1700000000.0 -0.02574316254738616 -0.007655925648991465
1720000000.0 -0.026443838699843018 0.03557227540792729
1740000000.0 -0.07253539596486679 0.017003042972574288
1760000000.0 -0.08966428165521158 0.05608754005256538
1780000000.0 0.026331523016854506 0.13021798152322078
1800000000.0 0.1099158668656716 -0.11091961738038077
1820000000.0 -0.16251199983191514 -0.06491437964590555
1840000000.0 -0.16598518520700117 -0.12266843356227482
1860000000.0 0.22176801905211882 0.11087303506939966
1880000000.0 -0.25229138409841617 0.14146303206245672
1900000000.0 0.052904796830413235 -0.31837083559540896
1920000000.0 0.06782193738319468 0.34838357866134284
1940000000.0 -0.06658905598982315 -0.3765442839532084
1960000000.0 0.04252795042759761 0.40246714815213547
1980000000.0 0.0443033405178216 -0.4159805253537896
2000000000.0 -0.3528859835845932 0.23385606149348767
2020000000.0 0.19910899520525466 0.37013607312184604
2040000000.0 0.35105733936485944 0.2207431190931525
2060000000.0 0.38274328050842005 0.14990976486141078
2080000000.0 0.40138006389271946 0.0010907135124769995
2100000000.0 0.38992907720931647 0.05519679741325404
2120000000.0 0.3599717649072795 -0.1511819213416523
2140000000.0 -0.1736749913860997 -0.3397995279762133
2160000000.0 -0.2494537786941369 -0.2649743735630902
2180000000.0 -0.3322490396328237 0.06247409522593578
2200000000.0 -0.304618765941551 0.0919187859733403
2220000000.0 -0.1957375330002849 -0.2342071351451585
2240000000.0 0.07488699926235082 -0.29949239461144983
2260000000.0 -0.14603575430482996 -0.28325735547308506
2280000000.0 -0.2928194542232051 0.16474045084041947
2300000000.0 0.35553218076094256 0.06462453626247798
2320000000.0 -0.38377006582336365 0.08776027688417566
2340000000.0 0.24791588770158293 -0.3544727962922055
2360000000.0 0.29840203822626227 0.37379055775661446
2380000000.0 -0.38368998509959656 0.3661157338438695
2400000000.0 -0.5218142863612529 -0.2560125937982341
2420000000.0 0.10861822586152467 -0.6170582582564372
2440000000.0 0.66548594422179 0.03321626843688584
2460000000.0 -0.1431570370716663 0.6825549220722578
2480000000.0 -0.3866803823150253 -0.6078479754471897
2500000000.0 0.5899176256695198 0.435806209833534
2520000000.0 -0.6070405689591967 -0.42208817738780025
2540000000.0 0.4782098885558011 0.5616023185644109
2560000000.0 -0.13219746213765265 -0.7162536674824846
2580000000.0 -0.39865235632976154 0.5886667131863866
2600000000.0 0.6348678100281635 -0.25847845532036307
2620000000.0 0.37587547108357083 -0.5390646166889123
2640000000.0 -0.5772673036036401 0.23744701357770254
2660000000.0 0.5659772352086055 0.16309378390886742
2680000000.0 -0.5006296480350253 -0.23308976066585926
2700000000.0 0.4348917813230566 0.27283325103326933
2720000000.0 -0.41610403583127065 -0.23025285255422206
2740000000.0 0.3003091615055361 0.3212165861963865
2760000000.0 -0.05977266192955802 -0.4056614435589638
2780000000.0 -0.24673660323023286 0.30121913966342934
2800000000.0 0.35665072079787236 0.12510885395954743
2820000000.0 -0.22349350727599857 -0.3067989428809949
2840000000.0 0.36320529524740874 0.12334974707456754
2860000000.0 -0.3381795210838729 0.18369376221430234
2880000000.0 0.3519010374889583 -0.14567645724595793
2900000000.0 -0.09823851493975862 -0.36305757879730133
2920000000.0 -0.3037867198954313 -0.21976103107220962
2940000000.0 -0.35025900074429317 -0.1299517739770501
2960000000.0 -0.0667779145477825 -0.3632032267032821
2980000000.0 0.3543108403707759 0.10994395295373495
3000000000.0 -0.21032416572839138 0.3161316474574655
3020000000.0 -0.34914076329950794 -0.16391249738045277
3040000000.0 -0.08716522930297853 -0.36971832249675246
3060000000.0 0.3677718517521823 -0.030751636612211634
3080000000.0 -0.27277906787894385 0.2275955282873133
3100000000.0 0.3159155755374043 -0.12540537262742088
3120000000.0 -0.30507559510997717 -0.10730878366511819
3140000000.0 0.26620043816127426 0.15462967512053272
3160000000.0 -0.26474855683052956 -0.11836178371907362
3180000000.0 -0.08844764083985264 0.2492407553147739
3200000000.0 0.23600960967587606 0.02576376766999238
3220000000.0 -0.10644768800499017 -0.18104196523664856
3240000000.0 -0.17141165282269585 0.05552702960673542
3260000000.0 -0.11368670691296931 -0.09854685486360389
3280000000.0 0.03673920997622292 0.11788513475190268
3300000000.0 -0.044781911032990424 0.09637671440699416
3320000000.0 0.0026241768702522693 0.09344275444390267
3340000000.0 0.08127921714427627 0.002862112592731539
3360000000.0 0.07044822172561643 0.014294399636916536
3380000000.0 0.050786148049798106 0.04668241881882412
3400000000.0 0.06746043289911682 -0.00938759826493212
3420000000.0 0.054300600187214706 -0.03009006502049301
3440000000.0 0.03796274096320894 -0.03488895836686099
3460000000.0 0.015187941765467903 0.037276283162590046
3480000000.0 0.024534436040508183 -0.021077139238749938
3500000000.0 0.02606379528761374 -0.017782907604167897
3520000000.0 -0.03699094930411612 0.009298392529321263
3540000000.0 -0.030167534369818456 0.040416736489161526
3560000000.0 0.06223358857528948 -0.026942241969843583
3580000000.0 -0.05975397427942638 0.06342200370820106
3600000000.0 -0.04557758621090529 -0.10013141754790077
3620000000.0 0.12843080634873727 0.032210490799311764
3640000000.0 -0.1492414892424741 -0.02391524616341163
3660000000.0 0.01216564115627005 0.16660742970529285
3680000000.0 0.12486517761816261 0.13166121456998345
3700000000.0 0.1029975903781128 0.1664565657032686
3720000000.0 0.11959863747110586 0.175888956486066
3740000000.0 0.004533628052914454 0.22362121278470443
3760000000.0 -0.23853631091023544 0.047700478619749256
3780000000.0 -0.26193196312594164 -0.018236210166102076
3800000000.0 -0.22480673028276008 0.16511372698710527
3820000000.0 0.0856933006041823 0.2760379265508701
3840000000.0 0.28588253151100884 -0.04657305921480056
3860000000.0 0.21475011988534462 -0.18919054972821525
3880000000.0 0.2787267133572727 -0.051944006406998464
3900000000.0 0.14367174876457026 0.24786952513217755
3920000000.0 0.14707293661234042 0.2534343252961045
3940000000.0 0.19857438114768108 -0.21769288018001295
3960000000.0 -0.14822625129619263 0.24459251177007027
3980000000.0 0.24248702849949305 0.12073055711337004
4000000000.0 -0.21939653067764342 0.11817222132549259
