!Created with skrf (http://scikit-rf.org).
# Hz S RI R 50.0 
!freq ReS11 ImS11
400000000.0 -0.5449825904219415 -0.6318982708911111
420000000.0 -0.7600474084862424 0.35799237981472637
440000000.0 0.01607677703506856 0.7798354893048437
460000000.0 -0.475049395565758 0.5439898190566146
480000000.0 0.054826387283824954 -0.6535345717437271
500000000.0 0.63380727034459 -0.0016091594520934076
520000000.0 0.2875416707246789 -0.493432278037401
540000000.0 -0.40737202507873055 0.26956032390475076
560000000.0 -0.46277902907755697 0.027789366579931803
580000000.0 -0.15392610855807234 0.36631652505210577
600000000.0 0.3294255920353957 -0.14840230873975335
620000000.0 0.3461643866052223 -0.0372190242227697
640000000.0 0.32432695038522996 -0.22908924752056412
660000000.0 0.44593230178962945 -0.005093736352745277
680000000.0 -0.4121834480355665 -0.17353785911205424
700000000.0 0.32552243241962786 -0.30626698742526637
720000000.0 -0.23101413652956856 0.35605061618224554
740000000.0 -0.2965620804826872 0.23895735650963848
760000000.0 0.32755715762825277 -0.14533793864291084
780000000.0 0.32150872054480434 -0.0681077709400312
800000000.0 0.25165927902783114 0.15960519529262918
820000000.0 -0.12002890417743939 -0.2299771867476396
840000000.0 -0.028210348073225058 0.20554958790190192
860000000.0 0.14029227670008096 0.07296773733015884
880000000.0 0.1124785789598402 0.026955063627108453
900000000.0 0.02088075048144432 0.08702130810847782
920000000.0 0.0010149237289730465 0.0550709983600681
940000000.0 0.041201009339874764 -0.010966680327828876
960000000.0 0.04732151207424418 -0.03436779244184404
980000000.0 0.0009881998757224825 -0.06926671238499851
1000000000.0 0.049924048331931856 0.04859077122590637
1020000000.0 -0.06210548212604164 -0.07024864707425765
1040000000.0 0.07502309114572694 -0.09060695355426805
1060000000.0 -0.03915750898293599 0.14221305746717217
1080000000.0 0.15741586015369988 0.0765770489308518
1100000000.0 0.20303091003720194 -0.04065561230524005
1120000000.0 0.06047055110974273 -0.24398516863142383
1140000000.0 -0.2685084203853742 0.08202952322882406
1160000000.0 0.2644421282444715 0.13634004999704372
1180000000.0 0.008906073042692832 0.3219493865877328
1200000000.0 -0.23647964194785892 -0.2534726586188327
1220000000.0 0.17055992372290368 0.32236062671092997
1240000000.0 0.3350793915812686 -0.1901469656529721
1260000000.0 -0.32731416088797055 -0.2358239960995548
1280000000.0 0.07471954110726407 0.4043659607439957
1300000000.0 0.09234817079095958 0.39884802139344927
1320000000.0 0.21628609762157353 0.35505962068995206
1340000000.0 0.3540439969435526 0.2210810403970864
1360000000.0 0.4025763176191487 -0.08351112978443595
1380000000.0 0.3611407898167373 -0.16112736851847012
1400000000.0 0.29787595631661984 -0.24176715972240817
1420000000.0 -0.06529420705307601 -0.35860678019310605
1440000000.0 -0.3353790629790819 -0.07170864851709632
1460000000.0 -0.04043447081739014 0.3153596240144847
1480000000.0 0.010416317349101478 -0.29382114346655996
1500000000.0 0.2201283457092109 0.12621324448141152
1520000000.0 0.1852342239318897 -0.12030085291630539
1540000000.0 0.1650212171467652 -0.07297415288950715
1560000000.0 -0.13405855264768612 -0.027193693175676496
1580000000.0 -0.029379753464194584 0.1025333037879308
1600000000.0 0.07370876185876107 0.017022817532135113
1620000000.0 0.009549924312405492 0.05126475034300531
1640000000.0 0.005016225808512669 0.030107698167609873
1660000000.0 -0.006170001959426111 -0.010895862225287399
1680000000.0 -0.017552751200202294 -0.006477551300302792
1700000000.0 -0.01663071660153632 -0.03352898083795409
1720000000.0 0.04707998983212119 -0.0018347729062087761
1740000000.0 -0.04298397086163473 -0.0533230404133059
1760000000.0 -0.0736118567370379 0.050537360869174534
1780000000.0 -0.08195819782890867 -0.08150888854457819
1800000000.0 -0.03250140462098054 -0.14742431154528873
1820000000.0 0.17838291016328378 0.010729300839462006
1840000000.0 -0.09011552386947692 -0.19174674491982308
1860000000.0 0.0869402653460244 0.23716090977446555
1880000000.0 -0.2764113047453894 0.10591775248324857
1900000000.0 -0.22636561037164377 -0.2384696759798933
1920000000.0 0.3377396565925986 0.11134265598620621
1940000000.0 -0.3488150809062862 -0.14990180001556386
1960000000.0 0.35817197060138783 0.1680451080282098
1980000000.0 0.18236627287115065 -0.35902106934835487
2000000000.0 -0.20520612350819226 -0.36183884698114777
2020000000.0 -0.4210289077177095 0.05026338121627393
2040000000.0 0.024872452259167364 0.4258543885975927
2060000000.0 0.41777147535285636 0.0504263720633013
2080000000.0 0.256575966266876 -0.32469783813396624
2100000000.0 -0.24439031642726444 -0.3160226667517285
2120000000.0 -0.13686939780086138 -0.3562317548144612
2140000000.0 -0.32702887666555447 -0.17828511713608988
2160000000.0 -0.08951126302349799 -0.3382982737345557
2180000000.0 0.19600571150759516 -0.2689666920389778
2200000000.0 0.10877111928250588 -0.30665863752339867
2220000000.0 0.1023073849517696 -0.29948137171380174
2240000000.0 0.0903722176152726 -0.3103469133191878
2260000000.0 -0.30432299509546623 -0.13083329980449537
2280000000.0 -0.13030464922322788 0.3187717186805853
2300000000.0 0.34338609030640066 -0.1355239001631032
2320000000.0 -0.31166257726909896 0.25518208715453256
2340000000.0 -0.0036971310852071454 -0.4405144706708748
2360000000.0 0.4266317590561088 0.22901058343714834
2380000000.0 -0.2840464128190327 0.455016922152078
2400000000.0 -0.5615951361604649 -0.17554538508077816
2420000000.0 0.0007499882876811921 -0.6350925210291067
2440000000.0 0.6636565476538451 -0.12152226230765194
2460000000.0 -0.007341076942793968 0.7021507592755284
2480000000.0 -0.5128266809568622 -0.5091516871191115
2500000000.0 0.6507133272402842 0.3366012628164137
2520000000.0 -0.6744921973890262 -0.31019594634540704
2540000000.0 0.47191639175634714 0.5634005432177247
2560000000.0 -0.19507940451930256 -0.6960813372231033
2580000000.0 -0.20541845395466127 0.6821543635889797
2600000000.0 0.5767676334654719 -0.3750434415983731
2620000000.0 0.1803116273209654 -0.6334078272446355
2640000000.0 -0.4513654821073156 0.42789519057052816
2660000000.0 0.5764618547934531 -0.091513373156237
2680000000.0 -0.49542282700531115 -0.22647793807724234
2700000000.0 0.25976442403878347 0.43667209445344773
2720000000.0 -0.2041356566237456 -0.4273333297357701
2740000000.0 0.20007307065378624 0.3919852212100783
2760000000.0 -0.23996840989494914 -0.3346309627560325
2780000000.0 0.026784902392493808 0.3886667895645446
2800000000.0 0.13781200265200808 -0.3516629358113255
2820000000.0 -0.10859679341604792 0.3520870811991422
2840000000.0 0.2603381500652246 -0.2555712116332621
2860000000.0 -0.3161887052840165 0.1861716434199419
2880000000.0 0.3471331410565483 0.1170589545898642
2900000000.0 0.24700244633530277 -0.27383745852352853
2920000000.0 0.03797736576796444 -0.37209718839553096
2940000000.0 -0.23704368153976557 -0.2934065557579938
2960000000.0 -0.3451847388833979 -0.14626705732282502
2980000000.0 0.024051786766725522 -0.3741643991756183
3000000000.0 0.3680752472763024 -0.0702792500027503
3020000000.0 0.022993167573524608 0.369952580143793
3040000000.0 -0.18202289849830747 -0.3158534419218176
3060000000.0 0.3451156049400665 -0.10730682408902663
3080000000.0 -0.31589675488913527 -0.15587023187175364
3100000000.0 0.281516522416689 0.19890382935960588
3120000000.0 -0.291105027243947 -0.153848992370135
3140000000.0 0.20844751742985826 0.235328310736996
3160000000.0 -0.28212365490015473 -0.09325154668979514
3180000000.0 0.17617916868341452 0.2099323015787043
3200000000.0 0.19005544489723739 -0.1517510610067207
3220000000.0 -0.09109173305764455 0.19253832416686759
3240000000.0 -0.021683274208638123 0.1798200685273411
3260000000.0 0.05572668140012484 -0.14611841914169962
3280000000.0 0.130412041086097 -0.01243650107631848
3300000000.0 -0.04415500831270397 -0.09967871311635051
3320000000.0 -0.09284534762291528 -0.0333325118048445
3340000000.0 -0.0024078643272793824 -0.08928401434724167
3360000000.0 -0.018437528013360138 0.08238199665139488
3380000000.0 0.06194424300496725 0.04166874884750764
3400000000.0 -0.06852832070243736 -0.008345493375847755
3420000000.0 -0.02513742124323128 0.053146019939732454
3440000000.0 -0.05161511216222342 -0.007338606721417169
3460000000.0 0.018017102757749353 0.03571556788143808
3480000000.0 0.00268786798034207 0.025282198910706547
3500000000.0 -0.006903672266833906 0.01483077052387193
3520000000.0 0.030520811610145405 0.0023606637793617395
3540000000.0 0.02074066333148609 -0.04165809018818912
3560000000.0 0.047076152347096466 0.0224165935402686
3580000000.0 -0.06012374886475945 -0.02284054892234281
3600000000.0 0.0799005308028212 -0.03960208774836074
3620000000.0 -0.020898056620455744 0.11865705122253978
3640000000.0 -0.09563668478979788 -0.12085406298627582
3660000000.0 0.1753340072300326 0.05038748658009448
3680000000.0 -0.002690441029017998 0.1875980774404614
3700000000.0 0.035058356590942544 0.20552715208846611
3720000000.0 -0.20115165397359402 -0.10946581650506285
3740000000.0 0.073499900940683 -0.2066869870290526
3760000000.0 0.1557641835199863 0.17903704584397573
3780000000.0 0.013541806982256564 0.2698904766559128
3800000000.0 0.045553710428381945 -0.2822741819567365
3820000000.0 0.005803719818115394 -0.28921228004281124
3840000000.0 -0.003273324506181497 0.28950933574154086
3860000000.0 -0.04097919172785947 0.28888940186914835
3880000000.0 -0.12260634011718875 0.2645438592770178
3900000000.0 -0.10196065263786054 0.27260594101932273
3920000000.0 -0.08216620807904144 0.27954719253001814
3940000000.0 -0.16685179644524492 0.23709641309682233
3960000000.0 0.1467671979257508 0.24715966640848933
3980000000.0 0.12931705733144971 0.24495456158429868
4000000000.0 0.13003440865455695 -0.2318686799384717
