!Created with skrf (http://scikit-rf.org).
# Hz S RI R 50.0 
!freq ReS11 ImS11
400000000.0 -0.8055723944866671 0.30615164296982755
420000000.0 0.27458606626274035 0.7959735384649772
440000000.0 0.6518528006505316 0.4417142524716423
460000000.0 0.3574381445640033 0.6301004667973095
480000000.0 -0.23005172547205774 0.6139133509625025
500000000.0 -0.5390677514535626 0.25213971939733837
520000000.0 0.513043038022394 -0.0162647542478031
540000000.0 0.4488326875225281 -0.1424160792590228
560000000.0 0.3850239356997788 0.21888578269812772
580000000.0 0.34677842519591656 -0.19900380765662742
600000000.0 -0.140786373937553 0.3352638447687583
620000000.0 -0.2625213526297394 0.2528041816694803
640000000.0 -0.3105158856062129 -0.26558752345792724
660000000.0 0.43873700183798586 0.0032172347927216264
680000000.0 -0.32013353867526356 -0.31595616304809065
700000000.0 0.32280590221726907 -0.30093482425401585
720000000.0 -0.4219496695826201 0.027584742928013325
740000000.0 -0.3895373056822015 -0.010901027062340274
760000000.0 -0.14208405543975414 -0.32692986514841427
780000000.0 0.27502548231851703 0.17422466157458166
800000000.0 0.2846498594120163 -0.0976060912818623
820000000.0 -0.17669790873810223 -0.1777783021002234
840000000.0 -0.008783044501928471 -0.20496726475740384
860000000.0 0.08852950782683329 0.14103226708241987
880000000.0 0.08582687321738591 -0.08998487270175828
900000000.0 0.05236343258193603 -0.07889186336750013
920000000.0 0.06237820129223657 0.005095241237273374
940000000.0 -0.010105887540754897 -0.04422358398172371
960000000.0 -0.013451821728649331 0.055631585492241696
980000000.0 -0.03362270083933817 -0.050655108569379534
1000000000.0 0.07467439210534864 0.005786638540501025
1020000000.0 0.08605770062619258 0.021413160878926193
1040000000.0 0.056373181154484024 0.096294072655588
1060000000.0 -0.03403273661264472 -0.14363770004754708
1080000000.0 -0.11895896204308845 0.13760145854303127
1100000000.0 -0.005302883136793494 -0.2176675655474165
1120000000.0 -0.21448077788175288 0.12871201624563627
1140000000.0 -0.22571002338528556 0.15790720578612424
1160000000.0 0.29544266510601247 0.02925417436526899
1180000000.0 0.25549924772551685 0.18699399618734736
1200000000.0 -0.13666266031725607 -0.306111761538712
1220000000.0 -0.3601638749038303 0.03298301873624886
1240000000.0 0.33499773424951923 0.2009810998530731
1260000000.0 -0.2033986030865333 -0.3534488864963261
1280000000.0 -0.14606689104660525 0.39019421424566963
1300000000.0 0.34343824120757943 0.23703004224530835
1320000000.0 0.36964312653032916 0.18871526790159632
1340000000.0 0.3697377473407198 0.19395436315911713
1360000000.0 0.4063442822703994 -0.0704061347376694
1380000000.0 0.2531537431209486 -0.3097615905170674
1400000000.0 -0.11740300240664345 -0.36469103840666534
1420000000.0 -0.25807238254923776 -0.25051994112962245
1440000000.0 -0.3330645672162224 0.05132973120131
1460000000.0 -0.20367485711820005 0.23670581270765773
1480000000.0 0.2763605635636021 -0.08828824741391664
1500000000.0 -0.1387982057901515 0.21553489828531427
1520000000.0 0.21974457905163036 -0.019927367100995744
1540000000.0 -0.1803230926088977 0.0014035936277177433
1560000000.0 0.14507687597113486 -0.02773933831732712
1580000000.0 0.07596692238975582 0.08436930708770929
1600000000.0 0.0040245928304586355 -0.0790124174823963
1620000000.0 -0.01825442942637348 0.050812221680592976
1640000000.0 -0.0255451842727828 -0.012827665395867839
1660000000.0 -0.0036365893567473417 0.00599281457073389
1680000000.0 -0.0036388200206774603 -0.021434581825452954
1700000000.0 0.0281049358473025 0.030779058191946172
1720000000.0 0.03632536638367911 -0.03689580146733478
1740000000.0 -0.06737572064493332 0.009615853300310975
1760000000.0 -0.017285674806240246 -0.08768234396260186
1780000000.0 -0.055281052604741907 -0.10563590534564539
1800000000.0 -0.12578243947260076 -0.08937223124673929
1820000000.0 0.15322732986470872 -0.09672239658800036
1840000000.0 -0.14282206630274263 -0.15896542495999882
1860000000.0 0.22107417167159302 0.129192373535977
1880000000.0 -0.06647343229568654 0.28888678108427074
1900000000.0 -0.32543438328682217 -0.03904876522174582
1920000000.0 0.2728288879873536 -0.22425194461842257
1940000000.0 -0.37049463647193887 -0.04215639288286857
1960000000.0 0.08653327320721796 0.38101273626993704
1980000000.0 0.4034908834365735 -0.054094100648326635
2000000000.0 -0.055850008608015436 -0.41682240543047705
2020000000.0 -0.4280428822461312 -0.020329915198015417
2040000000.0 0.01844412036901786 0.4311034004290776
2060000000.0 0.3834278668463579 -0.17937588701293286
2080000000.0 0.004407584139934946 -0.4112084658662001
2100000000.0 -0.17318244066314517 -0.355119596559346
2120000000.0 -0.20151704324444317 -0.3242008237686242
2140000000.0 -0.3463660619681654 -0.12476812424446455
2160000000.0 -0.01334576536127278 -0.35029488385132196
2180000000.0 -0.09398176828759644 -0.31639637165777634
2200000000.0 0.2134592742248875 -0.2335529586481221
2220000000.0 0.2847900848434639 -0.12523446490251505
2240000000.0 0.26384561788324556 -0.1751886189151683
2260000000.0 -0.16991651269035007 -0.2811037050633597
2280000000.0 -0.0900610142724236 0.32930195039861154
2300000000.0 0.192215965858306 -0.30584830848404687
2320000000.0 -0.24815274414842703 0.30112661935271257
2340000000.0 0.23918276862259058 -0.357421513912181
2360000000.0 0.1373083491948446 0.45774255762328714
2380000000.0 -0.5216901892208545 -0.06502774668240484
2400000000.0 0.3912806111950422 -0.4144918088697826
2420000000.0 0.3139964151621 0.5270517241127763
2440000000.0 -0.22905603441852868 0.6231914804542699
2460000000.0 -0.6384920073635543 -0.280103561604797
2480000000.0 0.47187356575455386 -0.5467539396938846
2500000000.0 -0.046346279604998805 0.7268339927164361
2520000000.0 -0.5964685932003513 -0.440499091150951
2540000000.0 0.57943765221653 0.45849332173032553
2560000000.0 0.024535288015042834 -0.7302380973917947
2580000000.0 -0.6334435430604555 0.3320117257917954
2600000000.0 0.521540291543944 0.4551300058957383
2620000000.0 0.6519397291875844 0.1448746886933329
2640000000.0 -0.45614668390154217 -0.4424298379153727
2660000000.0 0.32408417393355227 0.5016033783167458
2680000000.0 -0.4561343911950745 -0.31269740647678335
2700000000.0 0.2636796788394421 0.4215111842122768
2720000000.0 -0.3220770380346331 -0.3364102758333797
2740000000.0 0.32386664444456664 0.3012425009025004
2760000000.0 -0.21581581029571725 -0.3560594996008616
2780000000.0 0.0686670537797916 0.3912460660903921
2800000000.0 0.3736783852592907 -0.08679539295058133
2820000000.0 -0.37316882403792767 -0.03278529268936273
2840000000.0 0.3478184788567452 0.12078486189467914
2860000000.0 -0.31106993128507804 -0.2010172610884509
2880000000.0 0.24416527150862935 0.28257933338708
2900000000.0 0.21879635961026464 -0.2999864530201156
2920000000.0 0.04023800900706367 -0.37671073744173517
2940000000.0 -0.3066108103899149 -0.22723415338607592
2960000000.0 -0.18681837687159186 -0.33533861375579455
2980000000.0 0.017410719088283087 -0.3793496126335747
3000000000.0 0.36881001741236885 -0.09385521214380299
3020000000.0 -0.14952665761955572 0.34770371074901874
3040000000.0 0.045530467389056375 -0.3697283355270984
3060000000.0 0.36430787735556813 0.03471815986852753
3080000000.0 -0.2520598769847857 -0.24816270032284546
3100000000.0 0.18123948297004017 0.2909409925596964
3120000000.0 -0.20480587064913505 -0.26067810168684696
3140000000.0 0.275462568070301 0.16027607850769404
3160000000.0 -0.3003838984269251 -0.024551722583204948
3180000000.0 0.20014111970558957 -0.1908791625186395
3200000000.0 -0.03536774064253904 -0.23699262436683097
3220000000.0 0.08517417948190105 0.18147684450960364
3240000000.0 -0.06261734142112219 0.15091125508615447
3260000000.0 -0.11520261913960235 -0.06572060045449571
3280000000.0 -0.03347012740556483 0.10304668166392514
3300000000.0 -0.08841846599537677 -0.03475550102261841
3320000000.0 0.03817964293237849 0.08061028857314688
3340000000.0 0.08069435445246123 0.034655606020886506
3360000000.0 0.036664138613790774 0.07298079063993879
3380000000.0 -0.02803470378845503 -0.04571691412219881
3400000000.0 0.04439818358267309 0.011554376465787568
3420000000.0 0.020858683657332892 -0.03137105475499883
3440000000.0 -0.01654626008809485 -0.025060778092978294
3460000000.0 -0.01847641229043169 0.028531126703598298
3480000000.0 -0.04989029269408936 -0.013854632981285248
3500000000.0 0.05740686702934639 -0.04172155427127978
3520000000.0 0.061532004946492205 -0.06447082679514334
3540000000.0 0.09067681536750125 -0.04667456706874766
3560000000.0 0.11740998931825755 -0.014995149013738216
3580000000.0 0.09983301006177119 0.07773788992639459
3600000000.0 -0.10229553534785733 -0.0666374739284912
3620000000.0 0.12330041461111058 0.0017683729662191644
3640000000.0 -0.10685511570525559 -0.057861584777984275
3660000000.0 0.05235607100728224 -0.13405204654506886
3680000000.0 -0.19308583668677426 -0.06495578275044928
3700000000.0 0.15038467350311965 0.20316895076526453
3720000000.0 -0.04971596250419048 -0.2586789488007035
3740000000.0 -0.22498723932652906 -0.1175025058105247
3760000000.0 0.11678747504366047 -0.19707819488231737
3780000000.0 -0.20287062395304647 0.0805521478683263
3800000000.0 0.0731632873110799 0.21884637034993681
3820000000.0 0.16541933757437016 0.19240696948058592
3840000000.0 0.2989288015997361 -0.017783982972951803
3860000000.0 0.07992303945010938 0.21214802285059017
3880000000.0 -0.03969982479568099 0.30400522795404317
3900000000.0 -0.05541710769976051 -0.25527645952411454
3920000000.0 0.2563255096347978 0.03080099332719705
3940000000.0 0.13341615075535726 0.1887468168519688
3960000000.0 -0.23216681667908465 0.01060617793664467
3980000000.0 -0.22428872617974577 0.11474097815512714
4000000000.0 -0.21501212291756522 0.07724930033745533
