!Created with skrf (http://scikit-rf.org).
# Hz S RI R 50.0 
!freq ReS11 ImS11
400000000.0 -0.8611407639069251 0.05541774604841775
420000000.0 0.10098719241445311 0.8374575139650113
440000000.0 0.6375895105446573 0.46460889580690856
460000000.0 0.5073674317658675 0.5128249883197822
480000000.0 -0.46178070192919146 0.4507454343779902
500000000.0 -0.3938766791078497 -0.44199348136036876
520000000.0 0.41354980682412096 0.3251741293781413
540000000.0 0.30657517405925694 -0.3642579717133516
560000000.0 0.4450840382544918 -0.06172375351401951
580000000.0 0.13778090184145544 -0.37133829808709407
600000000.0 -0.07729283024118432 0.3586020098595448
620000000.0 -0.022224064166652378 0.3582499532106049
640000000.0 0.17143537527860803 -0.36888537063714005
660000000.0 0.40570370037657844 0.18007458985234026
680000000.0 -0.22628153782385335 -0.39023496145162034
700000000.0 0.44283080711148853 0.05375856629461202
720000000.0 -0.26909519297592643 0.3402801244196301
740000000.0 -0.13226048265427054 0.36515775411509316
760000000.0 -0.34575025249099334 -0.06512920966254336
780000000.0 0.047063318947973005 0.31077615039912054
800000000.0 0.2442341615103912 0.1730820652376516
820000000.0 0.15656092528978852 -0.19487073315856404
840000000.0 0.11372339634697631 0.18361545219327066
860000000.0 -0.013897734195223995 -0.179714237506813
880000000.0 0.11720344444772515 -0.04451681925129127
900000000.0 0.0677919546096928 -0.04408168530447865
920000000.0 -0.04659325893964583 -0.015886189466984665
940000000.0 0.006287041539019127 -0.038134375452306336
960000000.0 0.0036517165254662553 -0.05320434361578345
980000000.0 0.042932893216958604 0.054189987046050145
1000000000.0 0.07670591581856687 -0.009077901239874035
1020000000.0 -0.08750098622626684 0.022190845232246768
1040000000.0 0.05595287314439387 0.09975296600586282
1060000000.0 -0.13270472690987303 -0.06806569355580278
1080000000.0 0.14573604543575477 0.1053388676387964
1100000000.0 -0.006564420847017671 -0.20914119413888693
1120000000.0 -0.20594379012420033 -0.13314985302798202
1140000000.0 -0.2552528431072391 -0.09406542527464576
1160000000.0 -0.05384570693417678 0.2923986927206087
1180000000.0 -0.08916942126046352 0.31027276429074213
1200000000.0 -0.3246577010383306 -0.10422871743625915
1220000000.0 -0.1282961890964988 0.3361040009455013
1240000000.0 0.3091479645977837 -0.2255470659139776
1260000000.0 -0.31735496220951204 -0.23770501136251215
1280000000.0 -0.24033017807659238 0.32804061320421446
1300000000.0 0.05161246067980457 0.4081566269554269
1320000000.0 0.16195176202657272 0.38198656303980194
1340000000.0 0.41003849462397113 0.09001034486721755
1360000000.0 0.21284393797975995 -0.3500040818333856
1380000000.0 0.26472135249542894 -0.29094240358598433
1400000000.0 0.11261076039995963 -0.36507928654062527
1420000000.0 -0.1096806241094714 -0.3459773807685462
1440000000.0 -0.33208728112719865 0.0929005772613885
1460000000.0 0.16068675453864883 0.2765523762079911
1480000000.0 -0.10261634086757535 -0.2730558873151806
1500000000.0 0.19517333090446168 0.16519540089938575
1520000000.0 -0.034263425369457014 -0.21657771556100922
1540000000.0 -0.01757469277021963 0.17454021881743984
1560000000.0 0.08525453424930712 0.1140664238946108
1580000000.0 -0.1134132179038899 -0.018154283624882844
1600000000.0 0.06609565825303564 -0.05288316374440538
1620000000.0 0.013347353872810745 0.05639017364260724
1640000000.0 0.031398759501307785 0.001726163843920293
1660000000.0 -0.005775157028723157 0.00029471814390907435
1680000000.0 -0.008657903880047517 -0.019934318030881262
1700000000.0 0.00641560833624643 0.037155316385408484
1720000000.0 0.02435652277161913 -0.039897360296740285
1740000000.0 -0.021820083254700334 -0.055778835994317745
1760000000.0 -0.04680884989921288 0.05961909170267327
1780000000.0 0.09476092331269285 -0.04159607810462091
1800000000.0 0.051942470054442705 0.1364962300672798
1820000000.0 0.026790197577157802 0.17926518018654686
1840000000.0 -0.21658028411816835 -0.025492467480281653
1860000000.0 -0.1293035238038306 -0.21804760525832037
1880000000.0 0.19895409863570046 0.21010662380059947
1900000000.0 -0.3241622635698274 -0.0038851548130774526
1920000000.0 0.3282541239949147 -0.1347620477297716
1940000000.0 -0.3530454148884541 0.13020194375645341
1960000000.0 0.34357150912882745 0.1913101590527507
1980000000.0 0.24187497649292344 -0.3263832270480518
2000000000.0 -0.23925198705889286 -0.3425621555058884
2020000000.0 -0.41454403352420294 -0.09763071995581006
2040000000.0 -0.17544913016205782 0.3946137158788553
2060000000.0 0.37260431713157804 0.20951475653927426
2080000000.0 0.3256941992648745 -0.2630201649861795
2100000000.0 -0.0542822046887078 -0.4020523397407336
2120000000.0 -0.27652394224871085 -0.27028437324453747
2140000000.0 -0.30644740524335956 -0.2046654909146276
2160000000.0 0.25606198439967215 -0.23715842862429787
2180000000.0 0.3323753516666128 -0.012859623779380427
2200000000.0 0.30704854291567923 0.11021196953973335
2220000000.0 0.30766342422726584 0.09099562050501869
2240000000.0 0.310715108506196 -0.08485921005192684
2260000000.0 0.05300733564673763 -0.32206117802426165
2280000000.0 -0.2714893498196575 -0.2027852401331969
2300000000.0 0.05667124066437151 0.3566261700008837
2320000000.0 -0.09458576337903224 -0.3807960813987216
2340000000.0 0.40586373437985523 0.14773454136990616
2360000000.0 -0.354557283711001 0.31409358320563824
2380000000.0 -0.3355426631366669 -0.40258071822424574
2400000000.0 0.2737739698247535 -0.5039727923510784
2420000000.0 0.5743827627590515 0.2230321932244784
2440000000.0 -0.1366545268553558 0.6393070392435339
2460000000.0 -0.5671730426953345 -0.37989626050737346
2480000000.0 0.6717179730440009 -0.2015608599579653
2500000000.0 -0.45171538801348143 0.551400852446011
2520000000.0 0.33917051994915465 -0.6322150029214368
2540000000.0 -0.5494620014116544 0.4538588355366688
2560000000.0 0.7032317383693358 0.01706040463820877
2580000000.0 -0.4743326595688822 -0.49328144334132756
2600000000.0 -0.20036664879308846 0.6286889641411082
2620000000.0 0.19747628395226607 0.6001977188475517
2640000000.0 0.12985639427181772 -0.5835306352750816
2660000000.0 -0.26490348393938484 0.4913836457528584
2680000000.0 0.17866584919139333 -0.48586370073695945
2700000000.0 -0.3013487822894202 0.37155706209411654
2720000000.0 0.3414790091571261 -0.2825504201245932
2740000000.0 -0.35405288869234536 0.20993610260071943
2760000000.0 0.30861705048587434 -0.23104599990892616
2780000000.0 -0.26340868692151564 0.2569220268847291
2800000000.0 0.21478827807797132 -0.2860379079757938
2820000000.0 -0.017534705056800413 0.34867855158524347
2840000000.0 -0.06654117590268552 -0.33836582080704103
2860000000.0 -0.10904706398262239 0.33018081055887166
2880000000.0 0.2962115487963453 -0.18901240034612524
2900000000.0 -0.19395320281580763 -0.2956694388530557
2920000000.0 -0.3587973928198559 0.030225195258385358
2940000000.0 -0.18487785311505991 0.3152445768650892
2960000000.0 -0.17790976137106265 0.31917736220531884
2980000000.0 -0.3224769022326307 0.17385906999704576
3000000000.0 -0.20708379209974218 -0.3023604747134377
3020000000.0 0.2335495151142053 -0.27929138306968776
3040000000.0 -0.010840855220625825 0.35846615164178297
3060000000.0 -0.2246565328460575 -0.27623170617658777
3080000000.0 0.3344415292863173 0.09078424559959453
3100000000.0 -0.3292814150966631 0.06256931248249206
3120000000.0 0.30742309460030637 -0.09949608147168498
3140000000.0 -0.1178837323721398 0.2856960200142698
3160000000.0 0.2935866453171639 0.01849369763651424
3180000000.0 0.10228777861741531 0.2517598419695244
3200000000.0 -0.2000907704435299 0.13713819793763612
3220000000.0 0.1020633561300841 -0.1838548646201296
3240000000.0 -0.1283219743202161 0.12315319281654466
3260000000.0 -0.032179124979558 0.14387494090040093
3280000000.0 0.044796329924575454 0.11477487801034376
3300000000.0 -0.011911991283561288 -0.1005199788409743
3320000000.0 -0.0801588452141508 -0.006181499741975842
3340000000.0 -0.024531214109623816 0.05244940863198043
3360000000.0 0.00766080214231259 -0.044486372445324586
3380000000.0 0.010145588446098152 -0.03221803206703045
3400000000.0 -0.027818951387397046 -0.011113109158349493
3420000000.0 -0.006227911000532183 -0.030382212197548285
3440000000.0 -0.006929501312605532 -0.03266644888864717
3460000000.0 -0.04170851428660674 0.0233294596522007
3480000000.0 -0.053259447796807476 -0.022669634238264014
3500000000.0 -0.0046613613214833 0.07372409792867295
3520000000.0 -0.03934002550478665 -0.08447991552847424
3540000000.0 0.09775197227409264 0.05028665462312615
3560000000.0 -0.11837141050450815 0.009309310949368708
3580000000.0 -0.11815426667760656 -0.03288967007187781
3600000000.0 0.11924517515645008 -0.06383481154241726
3620000000.0 0.03966158833955842 -0.1399769386807096
3640000000.0 0.09278524727895159 -0.12122678986584051
3660000000.0 -0.0056658572835665885 -0.1587356230096352
3680000000.0 0.1531922439772834 -0.048395169941040005
3700000000.0 0.09021910720090703 0.13499280996029592
3720000000.0 -0.16117737267108193 0.01450082531879455
3740000000.0 0.03365204399128652 -0.1543127932493984
3760000000.0 -0.029754421087967855 -0.1499980957716651
3780000000.0 0.11788808245683359 0.09515421081326905
3800000000.0 0.010295676051660922 0.15307466418385823
3820000000.0 0.14175743558789164 0.07911081148621171
3840000000.0 -0.13766278308506788 -0.09594340530557177
3860000000.0 0.10711710775237579 0.13528621539492294
3880000000.0 -0.10666132755488848 -0.14831275328860832
3900000000.0 0.15753389101478815 -0.11328711357838733
3920000000.0 0.156934895449986 -0.12032659495164269
3940000000.0 0.13808551485503695 -0.14057351763116724
3960000000.0 0.1496687845919973 -0.12036832640975159
3980000000.0 0.08719954795001222 -0.16296713902481247
4000000000.0 -0.1420077957008301 0.09830479581262942
