!Created with skrf (http://scikit-rf.org).
# Hz S RI R 50.0 
!freq ReS11 ImS11
400000000.0 -0.6410079211413602 -0.563629898643944
420000000.0 -0.5466362233306489 0.6353763353228085
440000000.0 0.19158769292428093 0.7562587493990094
460000000.0 -0.24571918413259036 0.6702988236134936
480000000.0 -0.48718111897957406 -0.429939751919648
500000000.0 0.08358178067135069 -0.5914147377508124
520000000.0 0.5117779279698101 0.16096896894753657
540000000.0 -0.3993091680175422 -0.24646593815373768
560000000.0 0.31964113091134083 0.29569286539034045
580000000.0 0.348892746758253 0.18053880965764024
600000000.0 -0.26080930893514864 -0.2577263167322985
620000000.0 -0.1557325444682882 -0.33086499633649147
640000000.0 0.4009391179608607 -0.09768856233367414
660000000.0 -0.1709562364828307 0.4204993051975391
680000000.0 -0.04916849606737328 -0.47089200231939676
700000000.0 -0.17240710214040453 -0.4244478722551049
720000000.0 0.11167811127772244 0.4173138315779926
740000000.0 0.14997050367369208 0.35544694058065085
760000000.0 -0.2950759334484735 -0.17470666253975764
780000000.0 0.27777026026175666 0.15327705102146144
800000000.0 0.006889554980514732 -0.28297292360106063
820000000.0 0.017030625699210378 -0.2338801235859194
840000000.0 -0.003062846184707078 0.18798999727141194
860000000.0 -0.1451361832161171 -0.056105536167651564
880000000.0 0.07739938588887824 0.09328589132998628
900000000.0 -0.09030371160496373 -0.005902061700539002
920000000.0 -0.04635408071283692 -0.035981303107803925
940000000.0 0.04540958162668572 -0.01695107109322981
960000000.0 -0.06583259593857901 -0.004444808449926266
980000000.0 0.04745746368681843 0.06032979613872972
1000000000.0 0.027021597712803633 -0.08642500695690239
1020000000.0 0.11460816481629348 0.022504745127263474
1040000000.0 -0.1362018859617886 -0.013920953388736754
1060000000.0 0.0755080955851181 -0.1561200254983275
1080000000.0 -0.19243474350208606 -0.04966731336307524
1100000000.0 0.18428807366148603 0.1329647080462971
1120000000.0 0.18466121849376405 -0.1782028851679362
1140000000.0 0.22354969914646547 -0.17000366496361435
1160000000.0 -0.08732956286602377 0.28832922772104674
1180000000.0 -0.07827433328729597 0.29965737641180035
1200000000.0 0.2727865248356596 -0.1718485081023701
1220000000.0 -0.07779151058557394 -0.3365349106624249
1240000000.0 -0.21552011998727916 0.3006238031760639
1260000000.0 0.3738971982572968 0.08286870741914976
1280000000.0 0.029321257983719075 -0.390244021227366
1300000000.0 0.08145242519524178 -0.3899173013592562
1320000000.0 -0.19532460879054656 -0.35948072643045315
1340000000.0 -0.4112899341788975 0.009990916365584749
1360000000.0 -0.21883337441023545 0.34679456922778107
1380000000.0 0.23716621529955328 0.31689700704124857
1400000000.0 0.3503978783871229 0.15308642813832615
1420000000.0 0.17923872799275414 -0.318346602034589
1440000000.0 -0.24154391658166657 0.2466816919598341
1460000000.0 0.1348790512887518 -0.28176472489098076
1480000000.0 -0.12383090003508299 0.2465188309218039
1500000000.0 0.1725121513701288 -0.1603325462000453
1520000000.0 0.002162572197912952 -0.19568407145420952
1540000000.0 -0.16042359510706855 0.006434988116486448
1560000000.0 0.019417626772924843 0.12745876595704142
1580000000.0 0.07364079829239333 -0.07599343376173993
1600000000.0 0.08053497571332553 0.007414164980860705
1620000000.0 0.03849404743563428 0.04754068637175381
1640000000.0 0.03282405995870356 -0.02621804781380621
1660000000.0 0.00919910462627846 -0.017797230856767977
1680000000.0 -0.006171522687696006 -0.0013457883799603495
1700000000.0 0.017892598493625345 -0.0014589678615671525
1720000000.0 -0.019486605128139153 -0.021217138225289926
1740000000.0 0.03323421133942647 0.026216789100790408
1760000000.0 0.0476345830432415 -0.04361912804933235
1780000000.0 0.08650126121506121 0.043470607233115396
1800000000.0 -0.13641395926419192 0.01600911886440467
1820000000.0 -0.15327120399108238 0.07171244788181175
1840000000.0 0.01450586028491307 -0.20430587613744963
1860000000.0 0.03402990244469245 -0.24452221671607077
1880000000.0 0.2913258291673653 -0.014307788400719198
1900000000.0 -0.06813268441243141 0.3119177020556396
1920000000.0 -0.0305027802176912 -0.3427351265638112
1940000000.0 -0.19157395468190655 0.3136425312199703
1960000000.0 0.35755296542187387 -0.14018138057358281
1980000000.0 -0.09403994979581581 -0.3848315202804297
2000000000.0 -0.37943257142836057 -0.15174743691941683
2020000000.0 -0.41365394349359735 0.06847982491135408
2040000000.0 -0.15289775737412814 0.4012816233091089
2060000000.0 0.4196670263574664 0.08270527769164579
2080000000.0 0.2545628170858692 -0.33390010180787927
2100000000.0 -0.06677822763084625 -0.4032389191674115
2120000000.0 -0.3681119516393161 -0.14762505760427902
2140000000.0 -0.319367664650008 0.20579786048795373
2160000000.0 -0.06702929928624667 -0.3544718644259672
2180000000.0 0.19099612966433582 -0.2916072368872904
2200000000.0 0.090152061294169 -0.3258499981352755
2220000000.0 0.2888811400571466 -0.1563973220420103
2240000000.0 0.3134241775885217 -0.101945053904201
2260000000.0 0.23358133906366624 -0.23741146741503238
2280000000.0 0.07038071922785541 -0.33660733339490156
2300000000.0 -0.24343710334024876 -0.26886757803560685
2320000000.0 -0.31978854063442025 0.22984137972877255
2340000000.0 0.3952697974671523 -0.1818082436760309
2360000000.0 -0.24393802575852333 0.4136249093627142
2380000000.0 -0.2028480011331121 -0.48819783271061457
2400000000.0 0.5755572846914977 0.040099860802277586
2420000000.0 -0.2796052080826442 0.559526486800126
2440000000.0 -0.47500872900533236 -0.46871294624504134
2460000000.0 0.7011879910809743 -0.012349361281621054
2480000000.0 -0.5636684775732471 0.46185473094655055
2500000000.0 0.4934051029370352 -0.5608281085043345
2520000000.0 -0.6209521352986935 0.43094272579761866
2540000000.0 0.7454819815919409 -0.1337496680589061
2560000000.0 -0.7053814027970401 -0.26202461569978475
2580000000.0 0.3544239785384205 0.6477340350145617
2600000000.0 0.14045398294260086 -0.7019058834138239
2620000000.0 -0.4597213675788345 0.5108802783849262
2640000000.0 0.08701682565262171 0.6482812395391041
2660000000.0 0.2418909637392752 -0.5646651915312909
2680000000.0 -0.33463808777350845 0.4624400047168096
2700000000.0 0.4270702061754435 -0.3079614282142444
2720000000.0 -0.4573705199779753 0.15990739175919869
2740000000.0 0.44192894378732883 0.060504119136033645
2760000000.0 -0.41221175689543255 -0.040812808260916364
2780000000.0 0.3801469838802619 -0.08426344354188287
2800000000.0 -0.27008842800345845 0.25645275237880416
2820000000.0 -0.09541955873921602 -0.3477343510807297
2840000000.0 0.3487584006641174 0.05789063322747648
2860000000.0 -0.16178956587849652 0.30971668324086493
2880000000.0 -0.00157739281358691 -0.3422707574436869
2900000000.0 -0.2668234681472364 0.21144619111984467
2920000000.0 0.25801910075957335 0.22475815366142057
2940000000.0 0.31354587471984474 -0.15059431789232094
2960000000.0 0.22699523488699325 -0.26586628170926857
2980000000.0 0.33094177152855087 -0.11195668211733846
3000000000.0 0.3171502572017001 0.16077781477371286
3020000000.0 0.2518432992869746 0.2539697176906219
3040000000.0 -0.05144140995124939 0.3505611093031077
3060000000.0 -0.3459227806075322 0.02681404370531954
3080000000.0 0.22371946281225868 -0.24936641705569706
3100000000.0 0.0908946883304851 0.3112009989973456
3120000000.0 -0.29757859766815786 -0.09110245608409474
3140000000.0 0.030548802627307324 -0.29430053805533823
3160000000.0 -0.10847511571043912 0.2523210515231449
3180000000.0 -0.22155487544815397 -0.12754327662549197
3200000000.0 0.21707295076362684 -0.08475166624331705
3220000000.0 -0.12351923337879377 0.17015991930833138
3240000000.0 0.14611586749844574 -0.10995406988864358
3260000000.0 -0.13825989294371846 0.024764964302698735
3280000000.0 -0.09916831071239132 0.051957497418220595
3300000000.0 -0.04972593541819992 -0.06919256805723335
3320000000.0 0.03566152397980848 0.04908166839905369
3340000000.0 0.027051239139994087 -0.03369462147258383
3360000000.0 -0.031642369746996094 -0.020425854198801136
3380000000.0 0.002808890812355974 -0.041407148372666305
3400000000.0 -0.03438843885666145 -0.03206669350849581
3420000000.0 -0.01057203826643835 -0.05585227018275621
3440000000.0 -0.04077278039929851 -0.05344553410409787
3460000000.0 0.07679785951125434 -0.03309712093873129
3480000000.0 0.09496849482633278 0.0342214403722719
3500000000.0 0.09548173782445912 -0.07198742484291652
3520000000.0 0.09039544898664031 -0.10264571559098369
3540000000.0 -0.008119223354508891 -0.15330550606303367
3560000000.0 -0.15933535070022298 0.048426870344009845
3580000000.0 0.1595465862198448 0.06825407244837926
3600000000.0 0.17269266604530703 -0.03218182711404415
3620000000.0 0.09249838759051962 0.15139473909009174
3640000000.0 -0.1794300967081457 0.026557476012262743
3660000000.0 -0.17316956029946873 -0.0628142632822514
3680000000.0 -0.06424214136231135 -0.16919974199981622
3700000000.0 0.16579887996106626 -0.061606986037899866
3720000000.0 0.02226305080673574 0.17193341733008677
3740000000.0 -0.08939003269689917 0.1406620939149811
3760000000.0 -0.03433357697544758 -0.14709280131049177
3780000000.0 -0.13366356081277184 -0.003156318794395421
3800000000.0 0.10019760108557015 -0.0686357678522863
3820000000.0 -0.09195044895349104 -0.07115750038899468
3840000000.0 0.07425219890051739 0.0820121841294459
3860000000.0 0.061411274903908686 -0.09314708723787905
3880000000.0 0.0398151358232807 0.11378798412709429
3900000000.0 0.06001779549121605 -0.11682097534243506
3920000000.0 0.030965396635922085 -0.13174941280985053
3940000000.0 0.006606726066064689 -0.1343404124927419
3960000000.0 0.00043001818400243514 -0.1290606227270554
3980000000.0 -0.10253373003704926 -0.05761436399258962
4000000000.0 -0.07953714699529639 -0.06378190686813724
