!Created with skrf (http://scikit-rf.org).
# Hz S RI R 50.0 
!freq ReS11 ImS11
400000000.0 -0.8209513319422278 0.2604495661660743
420000000.0 0.3035782535588363 0.7823279752988436
440000000.0 0.5182359706052283 0.5943934339823911
460000000.0 0.4288601503091692 0.5861302642960631
480000000.0 -0.40665673935170876 0.509068723553739
500000000.0 -0.5941114638065483 0.08027531136980215
520000000.0 0.5090264245959504 0.0860869660284022
540000000.0 0.33530560980173185 -0.3361724674457544
560000000.0 0.3527990993091362 -0.2712919192582673
580000000.0 0.22096702563458684 -0.32605205919233765
600000000.0 -0.02048304562446559 0.3548763143736395
620000000.0 -0.3218638339558942 -0.16025907856940355
640000000.0 0.32379650967125356 -0.24580105251434883
660000000.0 0.01667948696764233 0.45008864033373663
680000000.0 -0.20845707714615108 -0.4175494086125939
700000000.0 -0.27915918678971074 -0.3568627769335268
720000000.0 0.1501427794645346 0.3971231189306528
740000000.0 -0.033149054180864605 0.37547109269293616
760000000.0 0.2070895781637716 -0.2798748753332021
780000000.0 -0.018975969427464143 0.32237684689099166
800000000.0 0.2697959703719495 0.14318698809691932
820000000.0 -0.23955282497921387 0.08996079323475906
840000000.0 -0.1487977435870645 -0.12956114683281847
860000000.0 0.010617955474226984 -0.16570900657639764
880000000.0 0.1327469763131308 0.01523984460826239
900000000.0 0.0936584389024016 -0.012178872064656595
920000000.0 0.037529723731926645 0.04660103580625205
940000000.0 0.033527748082236505 -0.024184637419138927
960000000.0 -0.028425812903919066 -0.03405022957493783
980000000.0 -0.026943533442542276 0.0513835308299848
1000000000.0 0.03826976982794256 0.061789728957473214
1020000000.0 0.09482537807225157 0.023938240373897104
1040000000.0 0.08408213519156424 0.09031757249614297
1060000000.0 -0.0638805399125808 0.1410233741504363
1080000000.0 0.04119948582772739 -0.18128662125717482
1100000000.0 0.10859881670395966 0.1842290941112263
1120000000.0 -0.11538520734992744 0.2060367195061573
1140000000.0 -0.11550365530379178 -0.2426011750853253
1160000000.0 -0.025865540607524936 0.3003682311251503
1180000000.0 0.12607052626626045 0.2975625522397286
1200000000.0 -0.2694514285516017 -0.20589318337797666
1220000000.0 -0.3291304137343816 0.15417810017137568
1240000000.0 0.3894142827206923 -0.05920412117619148
1260000000.0 -0.3866223523096721 0.12160215588004734
1280000000.0 0.007987846655540075 0.40637703077991993
1300000000.0 0.11013154640270857 0.3950228689247921
1320000000.0 -0.013643241944029301 0.4149551338952774
1340000000.0 0.3255132039633774 0.26902624580153583
1360000000.0 0.33359808835828825 -0.24630874511004733
1380000000.0 0.11949466016032834 -0.3796801633303002
1400000000.0 -0.11575313979074854 -0.3633771659982015
1420000000.0 -0.18071175698250241 -0.3096437759991174
1440000000.0 -0.27825904925812855 -0.19271376260085485
1460000000.0 -0.23238815976852367 0.2188050387913716
1480000000.0 0.12809399804645372 -0.26619100295361336
1500000000.0 0.250449862174355 0.054593403901041726
1520000000.0 0.022493634560531172 -0.2149310813291979
1540000000.0 -0.13788069795706992 0.10456642775444827
1560000000.0 -0.024383835694670578 0.14144288061694493
1580000000.0 0.015053738553654437 0.11386666576631335
1600000000.0 0.02331425236079115 -0.07352593156209003
1620000000.0 -0.053633173199553 -0.00207212982139556
1640000000.0 0.0043410533458200585 0.02722305795104503
1660000000.0 0.005671907108511341 -0.006709928538374717
1680000000.0 0.020092934442777974 0.004084220995028208
1700000000.0 -0.018840657758561287 0.033983617409506936
1720000000.0 0.02608418737350497 -0.0437255655232035
1740000000.0 -0.019754896741235248 -0.06352178094909448
1760000000.0 0.04661219686395644 -0.07697175294696518
1780000000.0 -0.1188765435379583 -0.003075521541840435
1800000000.0 -0.14907146759901124 -0.0006083792282698113
1820000000.0 0.11469540959966465 0.1310134417967105
1840000000.0 0.1486653963860261 -0.15299721425019505
1860000000.0 0.21713749089356635 0.13690628327491808
1880000000.0 -0.05208005506824085 0.2889250855660585
1900000000.0 -0.20384441170064543 -0.25732234405301857
1920000000.0 0.31319592762948234 -0.17275246740028682
1940000000.0 -0.34700997355669355 0.1470110154190954
1960000000.0 0.3350373467622125 0.20205582431899657
1980000000.0 0.3070462429803159 -0.26164074896126904
2000000000.0 -0.09283489379688796 -0.4058198622872018
2020000000.0 -0.4254301519583898 -0.02170124587629788
2040000000.0 -0.007259701727257027 0.4305134333574557
2060000000.0 0.4044552413313928 -0.12235049554310574
2080000000.0 0.21794896001933606 -0.34898728362262726
2100000000.0 -0.20821345527906857 -0.3394894694432816
2120000000.0 -0.2699357655558606 -0.26719674581442227
2140000000.0 -0.29235420694335673 -0.2185273004775583
2160000000.0 0.19816142331406156 -0.28728293353011536
2180000000.0 0.1928262167532215 -0.2724487967381472
2200000000.0 0.059133387084597366 -0.31672847500659335
2220000000.0 0.17575838562075008 -0.2582256495239712
2240000000.0 0.05473514555863418 -0.3114563687744976
2260000000.0 -0.2427772643057201 -0.21252557383264092
2280000000.0 -0.21170962785621647 0.26064242238635976
2300000000.0 0.35514361071467676 0.034817395827899084
2320000000.0 -0.36956501389042057 -0.12498121503454762
2340000000.0 0.3716026240230466 -0.2206520635170569
2360000000.0 0.14715561246791978 0.45288935962766397
2380000000.0 -0.4772567953380138 0.2300754259553869
2400000000.0 -0.42244969824663686 -0.400841781911043
2420000000.0 0.18940491991807867 -0.6014790323501702
2440000000.0 0.6689244544936392 -0.0619566073341758
2460000000.0 0.04660741152355278 0.7010700657456745
2480000000.0 -0.6396755786525185 -0.34144998281226296
2500000000.0 0.7358356893777074 0.059509972366863506
2520000000.0 -0.7423503046005775 -0.024861033444584818
2540000000.0 0.7293777412430232 0.1206205285000112
2560000000.0 0.45741578951589956 -0.5414761424138316
2580000000.0 -0.6876650965969359 0.056260139335156285
2600000000.0 0.5301511007429253 0.3990093025510519
2620000000.0 0.6264110041422277 -0.09299730450462816
2640000000.0 -0.5327779068303219 -0.27535543029462406
2660000000.0 0.31303438533220346 0.4679118459058251
2680000000.0 -0.2621316457289721 -0.4546156818813144
2700000000.0 0.13775682267113146 0.4656431349720544
2720000000.0 -0.15498725206637887 -0.42178493991736765
2740000000.0 -0.20780718551020838 0.36028838266145813
2760000000.0 0.27402141261222623 -0.28001632970516166
2780000000.0 -0.23794650854633356 0.2888778175805813
2800000000.0 0.1843443550236929 -0.31091453026503446
2820000000.0 -0.17596974439001178 0.3076731427372676
2840000000.0 0.1113505857644714 -0.3350315350594555
2860000000.0 -0.31997914464391325 0.18820219623480988
2880000000.0 0.22964972078565526 0.29092998852604274
2900000000.0 0.34108611820275275 -0.1546374670132553
2920000000.0 0.0004046094076936894 -0.37811611982255905
2940000000.0 -0.19644949901368297 -0.3257177452286975
2960000000.0 -0.18835997004670862 -0.32990459992625487
2980000000.0 0.26218918049191203 -0.2728109372362042
3000000000.0 0.3691579722980689 0.08898536083629964
3020000000.0 -0.13649847690339392 0.35086160949224443
3040000000.0 -0.2890518208017346 -0.23004708177615588
3060000000.0 0.31078375668826735 0.18296244125302008
3080000000.0 -0.23515047768754144 -0.25561232451334254
3100000000.0 0.15421819429229236 0.30357546484781045
3120000000.0 -0.17520911318316085 -0.28078752049864586
3140000000.0 0.21521637966634924 -0.23336220750433476
3160000000.0 -0.2873789927308856 -0.05555726575594282
3180000000.0 0.2610361937570367 0.06070605477675741
3200000000.0 -0.10482874738102214 -0.21523819409435738
3220000000.0 -0.15081595387882615 0.1418620011650015
3240000000.0 -0.15978635304036823 0.06787253580902651
3260000000.0 0.125630400148453 0.0681550891296263
3280000000.0 0.1205836201147348 -0.0052506078505181915
3300000000.0 0.09561596701316531 0.0382583435208725
3320000000.0 0.09131328318164736 -0.0013534779154336458
3340000000.0 0.08479912941437834 -0.0033167161915066785
3360000000.0 -0.07104500617640719 -0.029495555146706574
3380000000.0 -0.015606492871833423 -0.054584105175866274
3400000000.0 -0.0018561746680143651 -0.06780157051195052
3420000000.0 0.0253521640068501 -0.050655145287750614
3440000000.0 -0.0017325123306958662 0.05159257736439532
3460000000.0 -0.005735813354704548 -0.041967690640827116
3480000000.0 -0.027346664494526447 -0.032956767295322355
3500000000.0 -0.01127203736491517 -0.04610448331441894
3520000000.0 0.029965246774041464 0.03574906988354252
3540000000.0 -0.022267093849929705 0.05095316990689028
3560000000.0 0.032815758880053864 -0.06417764491371566
3580000000.0 0.07067355287026955 0.0413833220916974
3600000000.0 -0.08138830176225045 0.045462661749006955
3620000000.0 0.04867116439661714 -0.10824644899587241
3640000000.0 -0.1455920768344951 -0.01874005164224736
3660000000.0 0.13993421148838284 0.09662521436616
3680000000.0 -0.16170931157881535 0.10970794016540135
3700000000.0 -0.1949008439384353 0.08525924535803134
3720000000.0 0.21276695854741726 0.08843459913311087
3740000000.0 0.09728989029742234 0.21726924782317228
3760000000.0 -0.2258164841403876 -0.13378769862555476
3780000000.0 0.11104289332694665 0.2564667151430525
3800000000.0 0.01819372251965187 0.28763614749436733
3820000000.0 -0.28565336571837935 -0.07821305667422489
3840000000.0 0.17530710475564534 -0.23732129466604365
3860000000.0 -0.1816683942141877 -0.2286011220806902
3880000000.0 -0.014424470450992263 -0.29276152729872007
3900000000.0 -0.07387732657103292 -0.2805833039423865
3920000000.0 0.01430784084035615 -0.28193680060458604
3940000000.0 0.13890819721159037 -0.244721260763435
3960000000.0 0.2250967060356597 0.17262890597967875
3980000000.0 0.20367057046344866 0.20193946059980095
4000000000.0 -0.2414380730489868 0.10955820018069388
