!Created with skrf (http://scikit-rf.org).
# Hz S RI R 50.0 
!freq ReS11 ImS11
400000000.0 -0.6882862190576825 -0.501833572656835
420000000.0 -0.45611466155373787 0.7009219329255859
440000000.0 -0.0036330966528909854 0.7839348843478327
460000000.0 -0.013567167147822985 0.7231643799136691
480000000.0 -0.5920373458799327 -0.26110519008273836
500000000.0 0.13669979252703418 -0.5893445968653741
520000000.0 0.5195540742283872 0.12646711019282753
540000000.0 -0.4352011666968019 -0.17938159370808202
560000000.0 0.3224087324321274 -0.30082330268426344
580000000.0 0.18274249203852155 -0.3543846984487555
600000000.0 0.2438827389857162 0.27117043627998366
620000000.0 0.053890360289274936 0.36005941595981666
640000000.0 -0.011493854623016022 -0.39851669775729187
660000000.0 -0.3753712518870596 0.23582910161794762
680000000.0 0.4102329912360965 -0.23032198350539154
700000000.0 0.058711249041991494 -0.45719613151177674
720000000.0 -0.2554926484294158 0.33922485714549766
740000000.0 -0.38414610336822025 0.026639546410066408
760000000.0 0.33182434325742244 0.102259807028532
780000000.0 -0.2449123571926619 0.22492460091810243
800000000.0 0.17237027016010525 0.2396667112216471
820000000.0 0.19786917360712072 0.14514271886387026
840000000.0 -0.016110108504053 0.20109478637063252
860000000.0 0.15840379784055245 0.030173578582623255
880000000.0 0.03119656881977854 0.11856085321272372
900000000.0 -0.004487393453584279 -0.07919764004975961
920000000.0 0.05319693097000125 -0.02130019393166547
940000000.0 -0.04517959924034746 0.007277193327013579
960000000.0 -0.052510764634337556 0.013089162714254827
980000000.0 0.04115124606385375 0.05421562281818146
1000000000.0 -0.07725263602939651 0.0019432440519497355
1020000000.0 0.08697975980323705 -0.027339788408678234
1040000000.0 0.052427432578122324 0.09926914933768563
1060000000.0 -0.1096847287390459 -0.10139031734158258
1080000000.0 -0.0470615412208796 0.1852810107320225
1100000000.0 0.04655492229714233 -0.21525722497930927
1120000000.0 -0.19696119989079472 -0.17471098959529632
1140000000.0 0.08571008408657942 0.28266493688823513
1160000000.0 -0.2919202672830192 0.11583064044503494
1180000000.0 0.09854882591786082 0.30947840854119535
1200000000.0 0.015052873181303382 -0.32366660723987567
1220000000.0 0.08625457375331204 -0.336670199981745
1240000000.0 -0.3505602618055776 0.13130314691475545
1260000000.0 0.14311344248751173 0.3670938968879038
1280000000.0 0.004649788981678366 -0.4108076270058544
1300000000.0 -0.39023898125519163 -0.12717053701088613
1320000000.0 -0.16264081767009775 0.38383290199495645
1340000000.0 0.36517320465859593 0.17368919344247677
1360000000.0 0.18464346470540322 0.34394592297227544
1380000000.0 -0.09269883182432515 0.3671837475398908
1400000000.0 -0.0394231534476978 0.36350801675700695
1420000000.0 -0.05739748772274555 0.3471991160261785
1440000000.0 0.33118490112490695 0.0842795377602444
1460000000.0 -0.31912628700684503 0.0503807432687545
1480000000.0 -0.22887036830480487 -0.18545669171807808
1500000000.0 -0.2449223847996864 -0.052737449904332594
1520000000.0 0.05925594501518834 -0.1933269554544233
1540000000.0 0.026670311970548387 0.14477840509048026
1560000000.0 -0.10535854354486167 -0.02352468795749473
1580000000.0 -0.07549295213665923 0.03860602896179067
1600000000.0 -0.05429895669970504 -0.04874197631712588
1620000000.0 0.022941356745911044 -0.057022086461170025
1640000000.0 -0.03677318104757398 0.015082044077615034
1660000000.0 -0.01983136887219251 -0.009230415974035941
1680000000.0 -0.006203680419726248 0.013565246584910855
1700000000.0 -0.024637770100068505 -0.012215163414586344
1720000000.0 -0.00033409717100576835 0.046377746698367736
1740000000.0 0.021012997023728136 -0.06434381941574245
1760000000.0 0.013653487357779593 0.08333506776796515
1780000000.0 0.050393216393121804 0.0938274917942924
1800000000.0 0.01725583952794243 0.13043804982247
1820000000.0 0.03514241386509974 -0.15061958807490525
1840000000.0 0.010658962637685036 -0.18586424314001887
1860000000.0 -0.07660793870349986 0.2192513967258759
1880000000.0 -0.26272348284768343 -0.0928971402136174
1900000000.0 -0.01594124102890231 -0.3198333467034351
1920000000.0 0.35626485202666136 -0.001218441936824477
1940000000.0 -0.008057191043432043 0.3824370548240251
1960000000.0 -0.3238246324507362 -0.22503988326626412
1980000000.0 -0.19932651401548931 0.3396682651924594
2000000000.0 -0.24473614045615774 0.31450178598608347
2020000000.0 -0.40070548852333376 -0.06961117966561597
2040000000.0 -0.42715074623523613 -0.017544644826456762
2060000000.0 0.23566714825502053 0.37252652466325153
2080000000.0 -0.19442882339782908 -0.39262819628749096
2100000000.0 -0.05342847896071146 0.41560630008421073
2120000000.0 0.24470267761340755 0.3061436519726192
2140000000.0 -0.27202845552663146 -0.24807764967214863
2160000000.0 0.28750564859562266 -0.2041576453641977
2180000000.0 0.1283911768467449 0.3232195388184855
2200000000.0 0.0851158080036858 0.3373127946196655
2220000000.0 0.27965374793604153 0.21210081953531826
2240000000.0 0.1559445577063369 -0.3161801495388773
2260000000.0 -0.18649019166568961 -0.2971038778497992
2280000000.0 -0.22610764775701178 -0.2796488394202656
2300000000.0 -0.37952114332552034 -0.014238831406610801
2320000000.0 -0.061253029078965356 0.41064477875618277
2340000000.0 -0.08306016877037967 -0.45266254726450494
2360000000.0 0.4621019929851571 0.20668000073643467
2380000000.0 -0.2917444424730559 0.47314777237898753
2400000000.0 -0.47593348077675096 -0.36985105215504893
2420000000.0 0.4860683622289991 -0.4269948180265176
2440000000.0 0.322084689571247 0.6052485370491753
2460000000.0 -0.7152510749477419 -0.02488223411758208
2480000000.0 0.6245829788158118 -0.3932188533795904
2500000000.0 -0.5441654342203361 0.5163000816382309
2520000000.0 0.6408855650588058 -0.39884817883462453
2540000000.0 -0.7478247430500466 0.08445669813138272
2560000000.0 0.6503257873710999 0.3594400333418593
2580000000.0 -0.13617309832744112 -0.7108413948564839
2600000000.0 -0.3964663640794208 0.5741446460055443
2620000000.0 0.6537879907199314 -0.13119445910580396
2640000000.0 0.48350424387272606 -0.4060204056705299
2660000000.0 -0.5935231192515493 4.989617382033877e-05
2680000000.0 0.5411386275776366 0.10493753302825189
2700000000.0 -0.4620495185897598 -0.20918574544547086
2720000000.0 0.40432335380911455 0.21906662354074669
2740000000.0 0.008963728607942147 -0.41781911066410465
2760000000.0 -0.3109777967965535 0.2318413834215362
2780000000.0 0.36022253199980747 -0.07882792166572995
2800000000.0 -0.12353883924294731 0.3359242462629812
2820000000.0 -0.34723777827210767 0.01489397051379898
2840000000.0 -0.08310459766648742 -0.3278195693051606
2860000000.0 0.3150911317018874 -0.10160017128870855
2880000000.0 -0.2983623173071477 0.12210979443942056
2900000000.0 0.07318978040694826 0.31009624825202975
2920000000.0 0.28764428907511336 0.15194328468186158
2940000000.0 0.3104014428893964 -0.12563229500942505
2960000000.0 0.01843601157967997 -0.34267012977653744
2980000000.0 -0.2126546517876065 -0.2737004344446508
3000000000.0 -0.2664336651155482 -0.22729205320651943
3020000000.0 -0.2100652400653119 -0.27510867896361846
3040000000.0 0.14334705763793185 -0.30344201506174556
3060000000.0 0.07879619091821541 0.3150220032902714
3080000000.0 -0.022051389810046187 -0.3129606501969128
3100000000.0 -0.17381973613561683 0.2506040809140832
3120000000.0 0.1269219398757912 -0.27190182902810145
3140000000.0 0.28849064252333784 0.059404703720560684
3160000000.0 -0.22795158932829793 0.1623333615516156
3180000000.0 -0.11209653707677912 0.23087310979411138
3200000000.0 -0.046605225948408394 0.22097265477439745
3220000000.0 0.04729373343407488 0.1832937125201225
3240000000.0 -0.1386915045033821 0.06089661867693558
3260000000.0 0.0970407428335599 -0.06369109286975216
3280000000.0 -0.0481723637716207 -0.07150673273565082
3300000000.0 0.00983630534415908 -0.06750842076731238
3320000000.0 0.041526627850505114 0.03472301333780501
3340000000.0 -0.03358028081551224 0.022935159714350572
3360000000.0 0.03292333541013625 -0.015034360219241804
3380000000.0 -0.03399535230180999 -0.020171345088610623
3400000000.0 -0.018428090300385523 -0.0430332315361042
3420000000.0 0.05024315985741051 -0.02230319137905582
3440000000.0 0.06643609959767775 0.01041376721573584
3460000000.0 0.05709354404624734 0.058730250110139985
3480000000.0 0.010627696355709051 0.09727101170005899
3500000000.0 -0.03338117992565941 0.10760643585020944
3520000000.0 -0.030850946404394158 0.12602408630979423
3540000000.0 0.12847360838118374 0.06756432396063747
3560000000.0 0.09339889253276167 -0.12205617650265717
3580000000.0 0.10938331588889375 -0.114142838468561
3600000000.0 0.16462534580304733 0.03155805218827049
3620000000.0 0.16822875117989813 0.04548854047123357
3640000000.0 0.15299590954558748 0.08975916596608408
3660000000.0 0.10725203995882697 0.13936181893164545
3680000000.0 -0.08320715312678711 0.15341438683216072
3700000000.0 -0.08681325026135087 0.14597277634533914
3720000000.0 -0.1478951367675161 0.06735714710811289
3740000000.0 -0.14626171633210372 -0.025207430701958144
3760000000.0 -0.11982550359417082 -0.054240786935396905
3780000000.0 0.10352560161747887 0.057145979399347985
3800000000.0 0.08896525535648327 -0.06981641580471813
3820000000.0 0.05550338607462726 0.10097509659676383
3840000000.0 -0.06706600930606815 0.09046857244418252
3860000000.0 0.005483734718840954 -0.11469153150604532
3880000000.0 0.09104102706399214 0.08306843918121394
3900000000.0 0.1079979289163924 -0.07843535599707625
3920000000.0 0.06750426512945981 0.12254603118375425
3940000000.0 0.1128385607272967 0.0911211052313814
3960000000.0 -0.11207508508480915 -0.08259497512400854
3980000000.0 -0.1182352808325508 0.04237483899628384
4000000000.0 -0.10674628104389242 -0.002349055565944715
