!Created with skrf (http://scikit-rf.org).
# Hz S RI R 50.0 
!freq ReS11 ImS11
400000000.0 -0.7273621483295422 -0.4173738119997036
420000000.0 -0.6573623038234886 0.5227955195785735
440000000.0 0.17118897742195235 0.7640768008924644
460000000.0 -0.004893252440836918 0.715122970589686
480000000.0 0.45119461055015136 -0.463369365969236
500000000.0 0.6339566868336972 0.037106803525049026
520000000.0 0.565127411623391 -0.06017752901848901
540000000.0 -0.345856729449298 0.3610700874818403
560000000.0 -0.4502146797326001 -0.11711380242668296
580000000.0 0.34872975146379465 0.1876953398658966
600000000.0 -0.17196849147910792 -0.3102545537248572
620000000.0 0.340073851458399 0.04013440224031647
640000000.0 -0.20996318028422348 -0.3318870727083776
660000000.0 0.06747439576697578 0.42328546566870356
680000000.0 0.32105596440261686 -0.3193528308009785
700000000.0 0.4052704942288785 0.19452535461472542
720000000.0 -0.4302114597650714 0.08502017590293814
740000000.0 -0.36223984697790473 0.15141396682442185
760000000.0 -0.18239986281463796 -0.31647849375531406
780000000.0 -0.25170710587991135 -0.2011233811496612
800000000.0 0.22862014497497277 -0.156700607890681
820000000.0 0.23174640058658272 -0.018392779013877817
840000000.0 0.19079531362075575 -0.012816787627980884
860000000.0 -0.12268479253352166 -0.12815743742216357
880000000.0 -0.13614170603696765 -0.04837217479237655
900000000.0 0.09704041400268955 -0.05961923026745638
920000000.0 -0.07607986116854284 0.008458773882047932
940000000.0 -0.017278194600416744 0.04299923178372871
960000000.0 0.05431224382427867 0.002182413914619049
980000000.0 0.0259361796238665 0.06504379867879508
1000000000.0 -0.030806363805926034 -0.05811859151213591
1020000000.0 -0.08920237032842877 0.019322790552451483
1040000000.0 0.009208549368489341 0.11397810849919449
1060000000.0 0.11326178112097361 0.09621613780666097
1080000000.0 -0.15975243670490635 0.08911252213584481
1100000000.0 -0.0831315110708399 0.192111768954552
1120000000.0 0.2514909219294107 0.04752149938060026
1140000000.0 -0.23404722619136165 -0.16276466059052355
1160000000.0 0.27830005940141983 -0.12786797771297223
1180000000.0 -0.022103841112454246 -0.31322666531341475
1200000000.0 -0.11040662853379285 -0.2989934310405295
1220000000.0 0.0959300042867748 -0.34466068341186934
1240000000.0 -0.05468742862661379 0.38865352707704987
1260000000.0 -0.09022686633356529 -0.3996281985911009
1280000000.0 0.058677853438758296 0.40980895537251183
1300000000.0 0.3939062915512318 0.10177502479537316
1320000000.0 0.24128211733834817 0.3197020971719569
1340000000.0 -0.07186746347544563 0.3970662952446519
1360000000.0 0.1489588474843556 0.3760083611561302
1380000000.0 0.3808973012552461 0.10092084023577831
1400000000.0 0.23056677826556907 -0.30390938147515967
1420000000.0 -0.15570222456330932 -0.3260737286649873
1440000000.0 -0.33507658686528907 0.037727785203353764
1460000000.0 0.07494345543725868 0.3025588031662964
1480000000.0 -0.008073546823261144 -0.2829813395978791
1500000000.0 0.24532316177722482 0.03799256960289583
1520000000.0 -0.12131079702969601 -0.17334881557861187
1540000000.0 0.15984272423579804 -0.0603145898942105
1560000000.0 0.016191467266283763 -0.13307212265459045
1580000000.0 -0.014310280814879285 -0.10839076042633185
1600000000.0 -0.06920602667665994 -0.03158578187517378
1620000000.0 0.033727533415851656 -0.04638551665850502
1640000000.0 0.019612048109279596 -0.027710310938107035
1660000000.0 -0.011376229066927533 -0.007146539648366717
1680000000.0 -0.012657002226078816 -0.00698219913101822
1700000000.0 0.028491257647312043 -0.01378293292067091
1720000000.0 0.014590409984337157 0.03535226662130694
1740000000.0 -0.030647950160606275 -0.0442160568250236
1760000000.0 -0.07212223658056596 -0.030132644974617893
1780000000.0 0.10269194604255798 0.03208468001996679
1800000000.0 0.10951893005888297 0.08416251037466242
1820000000.0 0.0758643459357291 -0.14824978166132183
1840000000.0 -0.1535347570884364 -0.13813400183135802
1860000000.0 0.20934722542114717 -0.14180663228664234
1880000000.0 0.28124053578418023 0.07098639566661562
1900000000.0 -0.19533257983786204 0.25455509419175404
1920000000.0 0.2637086805422971 -0.22337309743004904
1940000000.0 -0.3655834478597731 -0.08498347972569312
1960000000.0 0.3913165383047762 0.08549548079636686
1980000000.0 -0.33861908356901727 -0.22799884675026516
2000000000.0 -0.4060134975355821 0.07391372862161436
2020000000.0 -0.4160931395454451 0.07578595949337545
2040000000.0 -0.07579398993813596 0.42895038848404987
2060000000.0 0.36610359694678 -0.23069651474905525
2080000000.0 -0.09887977901805532 -0.40579199425686524
2100000000.0 -0.26180024403606567 -0.3026201377893796
2120000000.0 -0.19652888391633888 -0.32647384607225205
2140000000.0 -0.10564187906179844 -0.35904868283465474
2160000000.0 0.36011793796652747 -0.01839462994987366
2180000000.0 0.31722268137645376 -0.15387382893631943
2200000000.0 0.15118562273578007 -0.3012145313946029
2220000000.0 0.23979740776011604 0.21931288473495159
2240000000.0 0.06631677438137448 0.3334332597770539
2260000000.0 0.33533346856207324 0.10441694613244161
2280000000.0 -0.10973515254388777 -0.34933822411331644
2300000000.0 -0.19617594491343424 0.32577377339961155
2320000000.0 0.33128556137867804 -0.23350990974076097
2340000000.0 -0.19195470256185318 0.4032100995803163
2360000000.0 -0.10345454414867908 -0.47832065442149885
2380000000.0 0.5346700577517657 -0.0598369804087455
2400000000.0 -0.01348448158914728 0.5864259565755564
2420000000.0 -0.6204621389470916 0.08821904460485926
2440000000.0 -0.4194818256510403 -0.5089570351552237
2460000000.0 0.6879377262389011 0.01943803332531814
2480000000.0 -0.42267672141488744 0.5668990922173477
2500000000.0 -0.11758015135783481 -0.7060985732606794
2520000000.0 0.17736841810168777 0.6966713656189865
2540000000.0 0.5024783418513948 -0.5129196972000548
2560000000.0 -0.6085468345934228 -0.3740613136187492
2580000000.0 0.26883146849167733 0.6385120714035589
2600000000.0 0.38345709393723093 -0.5443967593451775
2620000000.0 -0.5775866559178816 0.2556447962617441
2640000000.0 0.36316547417997547 0.4669602121963409
2660000000.0 0.2530964236270931 -0.49524631608002473
2680000000.0 -0.4540766462820045 0.24488676875885762
2700000000.0 0.47588313520701825 0.0022554407158344083
2720000000.0 -0.43016148115629604 -0.07084171803632562
2740000000.0 0.3142233147543195 0.24602186451418015
2760000000.0 -0.2747420006953039 0.2487593400332878
2780000000.0 -0.1295294035275415 -0.32774584460383827
2800000000.0 -0.19368347935434824 0.28145547730035325
2820000000.0 0.08796193532691533 -0.3221325180639109
2840000000.0 -0.05962355202270785 0.320140353084991
2860000000.0 0.080197324618282 -0.31530598317518344
2880000000.0 -0.14471123198693459 0.2951528866822256
2900000000.0 0.3301137097390475 0.044354769108775796
2920000000.0 -0.15110011871380333 -0.3018745766690615
2940000000.0 -0.3428654973286751 0.010770798451110121
2960000000.0 -0.050589800941498904 0.3401725932116344
2980000000.0 -0.2550259831551353 0.23245416973494964
3000000000.0 -0.23116122594608016 -0.28187652158319415
3020000000.0 0.19484461543018902 -0.30323248802804864
3040000000.0 -0.09895888118609361 0.34358503354380054
3060000000.0 -0.17182771865256574 -0.30466987083742597
3080000000.0 0.24348086620966472 0.23838319352015325
3100000000.0 0.013571729287812558 0.320022837936651
3120000000.0 -0.039670770527243146 -0.3091689332953827
3140000000.0 0.22342263975725665 -0.1945928791427273
3160000000.0 0.18476980326740627 -0.21898648695547526
3180000000.0 -0.23788085994503344 0.10803083776454314
3200000000.0 -0.16333347999305012 -0.16460050916913024
3220000000.0 -0.1685807565718153 0.1096198630602892
3240000000.0 -0.1562868497968414 0.054049546301801914
3260000000.0 0.11997566932390458 0.06958784725333153
3280000000.0 0.0667836668912039 0.08934401453188065
3300000000.0 0.05871999636493268 0.055088432642523256
3320000000.0 0.05111340151129785 -0.014042323223991862
3340000000.0 0.03440078549286809 0.013126410238526606
3360000000.0 0.013794447670481772 0.024627883031960486
3380000000.0 -0.01939082611813536 0.022602331303293092
3400000000.0 -0.0020571614038349994 0.02896605555028718
3420000000.0 -0.0012976394650289784 0.018427867165052327
3440000000.0 0.015854939505466667 0.03206648158197255
3460000000.0 0.04838815875608773 -0.031194371243041134
3480000000.0 -0.06841533846363955 -0.04118966172601361
3500000000.0 -0.061031984925634414 -0.07792994876090188
3520000000.0 0.07921039140411992 0.0920505278614249
3540000000.0 0.010342929419073494 -0.13586912906619306
3560000000.0 -0.13073655390815236 -0.05530353894679464
3580000000.0 -0.13501019487428612 0.06558038691977824
3600000000.0 -0.1576416277517757 -0.006814392765507907
3620000000.0 -0.03704740548168425 -0.15816128876478347
3640000000.0 0.1454209138677307 0.0753761805865271
3660000000.0 -0.0383583250856714 0.16351144354085223
3680000000.0 -0.07675512849681951 0.15236567566774492
3700000000.0 -0.15052937560988272 0.06810583754713195
3720000000.0 -0.14554343339732714 -0.055285445184012585
3740000000.0 0.08716910920754659 -0.11842652598425
3760000000.0 0.10218220136120817 -0.09123350574917564
3780000000.0 0.026048588924796747 0.12382507060065748
3800000000.0 -0.07792407489452938 -0.09620772626326239
3820000000.0 0.1244202754055861 -0.0313355127904622
3840000000.0 -0.12828181139541675 -0.06141739312228441
3860000000.0 -0.1429435347712689 0.02633852150199301
3880000000.0 -0.05005693679931518 0.14660248496822884
3900000000.0 -0.06892984529136284 -0.15047088681465848
3920000000.0 -0.14879148583268517 0.04829779808004619
3940000000.0 -0.11951847784211796 -0.1009863452580276
3960000000.0 -0.05629603653106302 -0.14107544240781988
3980000000.0 -0.11766402915067645 -0.08012435356345889
4000000000.0 -0.124168555006439 0.040259097266264296
