!Created with skrf (http://scikit-rf.org).
# Hz S RI R 50.0 
!freq ReS11 ImS11
400000000.0 -0.34559670117108787 -0.7448252544700223
420000000.0 -0.732837162010604 -0.39108517579294455
440000000.0 -0.7334004014566748 0.263097903415307
460000000.0 -0.7137061368352497 0.11228204061075595
480000000.0 0.6378469827291657 -0.14844714230611017
500000000.0 0.6271421865046165 0.14040526396582748
520000000.0 0.43638249478181207 0.3516899214126679
540000000.0 -0.5173591419875253 -0.01337106719071016
560000000.0 -0.3874376087301257 0.25286574734809153
580000000.0 0.05617752839049594 0.39948124230569565
600000000.0 0.31791453538714165 -0.17483391311441926
620000000.0 0.36124809761553645 -0.09361948915312723
640000000.0 -0.10033424165225854 0.3919673744594716
660000000.0 0.24336717318877024 -0.359476529548955
680000000.0 -0.24216627283985018 -0.3775037446225009
700000000.0 0.4331106786348733 0.052110222885392125
720000000.0 0.018707446799865895 -0.42146768059449885
740000000.0 0.37509877488015025 -0.110675918892449
760000000.0 0.2600656895142614 0.27420072390198497
780000000.0 -0.0032126317970974975 -0.3402366386478202
800000000.0 -0.02501654576799922 -0.2837987557065177
820000000.0 0.21768620073739742 0.09213504769627433
840000000.0 0.09020354712255729 0.1630817643317834
860000000.0 -0.09615982878588068 -0.11330195965099397
880000000.0 -0.10963255921049875 0.01377541239747432
900000000.0 0.01076116500106199 -0.07517793452338284
920000000.0 0.0616036866961529 0.008344564241529535
940000000.0 -0.04812984629136147 -0.001830475038824416
960000000.0 0.052948978478603144 -0.038787512643337185
980000000.0 0.08574467641046543 -0.019441249015600723
1000000000.0 0.09905481745782185 -0.005703356356071443
1020000000.0 -0.11066097135508553 0.00032460647570627186
1040000000.0 -0.07398071403065337 0.10991961172962386
1060000000.0 -0.1220141383384624 -0.10639282800000129
1080000000.0 0.16215739185262182 0.11171672765077945
1100000000.0 -0.128548179069338 -0.16929740998459747
1120000000.0 0.23592754992327708 0.033094690408159114
1140000000.0 -0.053435232151906424 0.26284185760533646
1160000000.0 0.14671741109484462 0.25847342723531425
1180000000.0 0.28300699265044 0.1828544316987958
1200000000.0 0.2567252409416863 -0.2534056938966322
1220000000.0 0.1470329081767481 0.336766467627411
1240000000.0 0.048663913893036516 -0.3680752277108269
1260000000.0 0.08949293995637582 -0.35662557724340643
1280000000.0 0.3623091766608668 0.12736425082426153
1300000000.0 0.31548913311275106 0.24490277372506505
1320000000.0 0.3542914707016859 -0.22878126705537313
1340000000.0 -0.42682349896338545 -0.01128864970321442
1360000000.0 0.21052182834190988 0.3624814791235905
1380000000.0 0.30553784558657604 -0.25303361467882723
1400000000.0 0.037374574774657304 -0.3701123895870868
1420000000.0 -0.17223657340962953 -0.2955394646062892
1440000000.0 0.11248117670140878 -0.298634779455531
1460000000.0 -0.18934248834828138 -0.23621929720490262
1480000000.0 0.1329572200167032 0.2501031449459434
1500000000.0 0.19003377944166577 0.16329323088974798
1520000000.0 -0.2071744531112529 -0.02932556969305115
1540000000.0 -0.10503139897160811 0.12821306028446483
1560000000.0 -0.028209270134542306 -0.1126697063612931
1580000000.0 -0.07439787649132082 0.03751376499311902
1600000000.0 0.04273267322767035 0.04834567894907363
1620000000.0 0.05314441492926475 -0.010702414088055308
1640000000.0 0.024620218560792523 -0.03425532186911392
1660000000.0 0.023194754554770904 -0.0019462686990545349
1680000000.0 -0.014295600980896179 0.008471742821797449
1700000000.0 -0.026215680594323058 0.013459990821598738
1720000000.0 0.021226682690261022 -0.04116566607505615
1740000000.0 -0.03840095039597631 -0.052371805667043435
1760000000.0 0.07332746827948691 -0.044469289365711165
1780000000.0 0.08479807629202077 -0.06921883289193831
1800000000.0 0.020418185584258064 -0.1393308193048039
1820000000.0 -0.09257590331408207 -0.14479764901936584
1840000000.0 0.17827712538725335 0.08541261572198666
1860000000.0 -0.20216948585357716 -0.11056079768152723
1880000000.0 0.10758090275856359 0.24676309755581355
1900000000.0 -0.20980889120038068 -0.22545528694282946
1920000000.0 0.32172933169813717 0.12515651425242172
1940000000.0 -0.3480531484842262 -0.1394262587094138
1960000000.0 0.40150267365662407 0.018709448370515167
1980000000.0 -0.4101509349666747 0.03937495841446982
2000000000.0 0.04418401214836037 0.41330307928739124
2020000000.0 0.2407628813850522 0.34079215177478156
2040000000.0 0.19452695886338328 0.3698150765677253
2060000000.0 0.17209649581814715 0.38779251578581614
2080000000.0 0.4195893136149116 -0.08790724210747333
2100000000.0 -0.23321617747021683 -0.35308715363907767
2120000000.0 -0.28195258612829915 0.2930290471668408
2140000000.0 -0.37345082811871444 -0.09109571415451084
2160000000.0 -0.32876996158563526 -0.1499667975484118
2180000000.0 0.11701233280637967 -0.32171508610247246
2200000000.0 0.28791539842723224 0.17706722959561955
2220000000.0 -0.0002084464391169086 0.33748584032248763
2240000000.0 -0.0007740681548073955 0.3541863682032572
2260000000.0 0.30017156513105187 -0.21215857101617394
2280000000.0 -0.32663120686544583 -0.1947416298507841
2300000000.0 0.11398867830075951 0.3802247488394278
2320000000.0 0.38079377195441766 -0.17922268274574807
2340000000.0 -0.41156065289372323 -0.21361986930396046
2360000000.0 0.51449551188509 -0.019144128078517585
2380000000.0 -0.0037142289952533753 0.5696207567487396
2400000000.0 -0.586208209000735 0.20098052856884996
2420000000.0 -0.3426304042440455 -0.5657576413903423
2440000000.0 0.632581884763055 -0.2918164111703108
2460000000.0 -0.0814790160610142 0.7187469401057296
2480000000.0 -0.3732571712106266 -0.6425143408558553
2500000000.0 0.4520842065783853 0.6034385490772151
2520000000.0 -0.3353225525743822 -0.6776766740763659
2540000000.0 0.00766419481337967 0.7503634729743335
2560000000.0 0.4382914242929256 -0.5950584225226689
2580000000.0 -0.7184242994551246 -0.007096172150113412
2600000000.0 0.45337831211136637 0.5206232391990381
2620000000.0 0.16859046681373435 -0.6371099959795945
2640000000.0 -0.24872619544639885 -0.570627161904151
2660000000.0 -0.1957390408216731 0.5482058173475295
2680000000.0 0.29082539112220723 -0.45357625322192496
2700000000.0 -0.44871022929595 0.20275711687172532
2720000000.0 0.449354699247767 0.03160472760535921
2740000000.0 -0.3371018601929564 -0.23331923905613353
2760000000.0 0.11622602290148408 0.36236015658341775
2780000000.0 -0.1539759417981337 -0.3256020634150954
2800000000.0 0.32855248436927487 0.11011754818229895
2820000000.0 -0.052721332279086625 0.33225627088235415
2840000000.0 -0.3255369913506879 -0.0024095801955495723
2860000000.0 0.30914891995339266 -0.07599686939319189
2880000000.0 -0.24408690574390385 -0.19643629473035545
2900000000.0 -0.3159248294805097 0.03403449647303801
2920000000.0 0.038296990249896856 0.33008465206843834
2940000000.0 0.19535789663632336 -0.2812673824958826
2960000000.0 -0.329564983949503 -0.11043434761658906
2980000000.0 -0.14332511794810945 0.3154665320238914
3000000000.0 -0.071357540768497 0.33203408332778933
3020000000.0 -0.3262116887996659 0.018338720624344884
3040000000.0 0.31832461712152177 -0.006918278878226934
3060000000.0 -0.3073123501759259 -0.0641849767331461
3080000000.0 0.2342849154627886 0.20476241467087375
3100000000.0 -0.31151599050657547 0.002553032220189261
3120000000.0 -0.23359497765298737 -0.19891819674031094
3140000000.0 -0.17116049526889593 -0.2360206527206065
3160000000.0 0.2648771146818022 -0.03003870164526367
3180000000.0 0.14972178451036405 0.18123668731555373
3200000000.0 -0.19217669918497338 -0.06712440237023665
3220000000.0 0.12208169269241348 0.1287866187080544
3240000000.0 -0.14342092628708195 0.06605574052125904
3260000000.0 0.07005686400890457 0.11521043521717013
3280000000.0 0.07731614566330747 0.07066743811043541
3300000000.0 0.0596860890644053 -0.03990266050342141
3320000000.0 -0.03974726653319241 -0.010690341272513669
3340000000.0 0.0007275865958834857 -0.01977266599824602
3360000000.0 -0.0007397995767748973 0.011091403309887614
3380000000.0 -0.007748068096324494 0.014838471579694387
3400000000.0 0.01816475812718899 -0.0333381621054452
3420000000.0 0.06334770270383497 0.0017954146884938023
3440000000.0 0.04539116577715917 -0.07088267993829633
3460000000.0 -0.07146385178688205 0.0642413887969326
3480000000.0 0.09108130232981536 -0.03400305288129442
3500000000.0 -0.03545030543080864 -0.09287874715685376
3520000000.0 0.10681467342295718 -0.042144632417463905
3540000000.0 0.10192672970601105 0.0990379367582094
3560000000.0 -0.15855788038448543 -0.038507672783952535
3580000000.0 0.12033739424167487 -0.12889666501348643
3600000000.0 0.10576378680654655 0.1405939664938867
3620000000.0 0.12433586385519368 0.11049197328847894
3640000000.0 0.05520424547888314 -0.1528373331009006
3660000000.0 -0.1671107534038784 -0.02515005003730231
3680000000.0 0.053916663992374506 -0.16887061842169196
3700000000.0 -0.13407438602858252 -0.12206518484414047
3720000000.0 -0.021027298905466354 0.1766885372127523
3740000000.0 0.14649018552967114 -0.0657217171923855
3760000000.0 0.026633039664402898 -0.12905850055291376
3780000000.0 0.019909942937608043 -0.11002749270940064
3800000000.0 0.010265547940933682 0.11114946684539449
3820000000.0 -0.11184474199273053 0.0581450208641258
3840000000.0 -0.07312673395630334 -0.11080455378225759
3860000000.0 0.1218498382600595 -0.036355694736515634
3880000000.0 0.04838629902311705 0.10616802310084253
3900000000.0 0.0600821136589747 0.10170491643360409
3920000000.0 0.06867837094498784 0.11382919985498592
3940000000.0 0.1287331403346501 0.0673445955593317
3960000000.0 -0.13212090159342887 0.06551359352900928
3980000000.0 -0.09489904454232603 -0.09453820463937773
4000000000.0 0.06145929553816022 -0.08499150987048881
