!Created with skrf (http://scikit-rf.org).
# Hz S RI R 50.0 
!freq ReS11 ImS11
400000000.0 -0.8113585068329086 -0.2695209530716223
420000000.0 -0.28078286237033967 0.7970260636923787
440000000.0 0.5775559792746182 0.5450820520223999
460000000.0 0.5818200083953459 0.44078860168083167
480000000.0 -0.24832999327293237 0.5960854293003904
500000000.0 -0.5330985548898705 -0.27330547889036577
520000000.0 0.4642412123680968 0.23742302082077482
540000000.0 0.06114789914354491 -0.4688488571760354
560000000.0 0.43549257215298764 -0.07562185064562828
580000000.0 0.3222644100405233 -0.2352038773999201
600000000.0 -0.21501669410993046 0.2864407997946967
620000000.0 -0.35895068075278275 0.055228018370241314
640000000.0 0.40415424944600753 -0.02064755941819351
660000000.0 -0.3077654836932585 0.33646653229833534
680000000.0 -0.236266303741974 -0.41387951420032104
700000000.0 -0.43699290083670195 -0.14701471540718872
720000000.0 0.4254459553737641 -0.0749986716753258
740000000.0 0.1415420424660408 -0.34192659349213456
760000000.0 0.2791036069664336 -0.1756037456307798
780000000.0 -0.30228330413253274 0.10002069851018519
800000000.0 -0.0826772140695618 0.28384064514603213
820000000.0 0.18017797576889985 -0.17699760950009374
840000000.0 0.13252245446127475 0.15312170096411915
860000000.0 0.16877326048129218 -0.035496680682584325
880000000.0 0.12132043040898179 0.06038826021696246
900000000.0 -0.02571029428674275 0.09388371216616151
920000000.0 0.07165420057241145 -0.0371084142521554
940000000.0 -0.0031633238009515768 -0.06539720690368124
960000000.0 0.03504869998936285 -0.06004851887456227
980000000.0 -0.0698254697032962 -0.011501556335568838
1000000000.0 0.047977186237304875 0.044143416156458115
1020000000.0 -0.02426609494105493 -0.08090246635251949
1040000000.0 0.09119327873597219 -0.04241552746863573
1060000000.0 -0.10429417591088466 0.0875171694280128
1080000000.0 0.09566563296024498 -0.15123211337103432
1100000000.0 0.07624489882031492 0.19844465372067877
1120000000.0 0.21971615374073566 -0.11962304319890872
1140000000.0 0.12169095826898516 -0.25481888072716996
1160000000.0 0.1089769642762901 0.28968459853912165
1180000000.0 0.324568208342727 0.04732206226918614
1200000000.0 -0.23333996582532782 0.2402830233563496
1220000000.0 -0.015327907977832657 0.3533016766333359
1240000000.0 0.3759855443029224 -0.06146171743494602
1260000000.0 -0.27984457853939876 -0.2784224519531455
1280000000.0 -0.2854795475174004 0.2887043221786405
1300000000.0 -0.2403042721031921 0.3337357528804998
1320000000.0 0.340381241425563 0.24040748052426017
1340000000.0 0.41160267363296854 0.01899774624437503
1360000000.0 0.3821418903874778 0.1323516865422594
1380000000.0 0.3474027421693482 0.19086504042134392
1400000000.0 0.26756433012160397 -0.2872493972324269
1420000000.0 -0.34403733727664687 0.12854721739362274
1440000000.0 0.07142752370330001 0.32916328032146935
1460000000.0 0.22637201131852164 0.20674048438145895
1480000000.0 0.142458751888473 -0.2431850986577587
1500000000.0 -0.19705041280431299 0.15020061627469777
1520000000.0 0.1735476537799446 0.13329778564749453
1540000000.0 -0.1249698604765886 0.13137695343315334
1560000000.0 0.11844798843626048 -0.08771777697256769
1580000000.0 0.06529577269711066 -0.09714735804704186
1600000000.0 0.038555039605477244 -0.07094705865887282
1620000000.0 -0.005219441282688001 -0.049670298840020645
1640000000.0 0.014389921476174653 0.012924641265896432
1660000000.0 0.01057317227481637 -0.0044159022441533444
1680000000.0 0.016618479624663434 0.024178867322363764
1700000000.0 0.006897706934649853 0.03638431006175297
1720000000.0 -0.00435322686340936 0.041147606776915514
1740000000.0 0.050094224170827435 0.02819789634278978
1760000000.0 -0.03784003415520788 -0.07018556427177572
1780000000.0 -0.10844261882416112 0.003576974980528439
1800000000.0 0.11567149660907766 -0.0814053242191432
1820000000.0 -0.15765317529439252 0.07601812044778343
1840000000.0 0.17091333968791078 -0.1374032201946142
1860000000.0 0.24536280746196268 -0.09058451622875277
1880000000.0 0.29982960459743924 -0.004096417714809233
1900000000.0 0.11501234409197528 0.3021628480410103
1920000000.0 0.28284433133849785 -0.19671202746502914
1940000000.0 -0.324632004687407 -0.1856086361750151
1960000000.0 0.3524527470853133 0.17513586311711157
1980000000.0 0.2489347203557507 -0.3195945252213842
2000000000.0 -0.19228746077101858 -0.3724156078003788
2020000000.0 -0.4033820414974206 0.1446914347187929
2040000000.0 0.18426290789524052 0.3889343888571455
2060000000.0 0.40424444897243295 -0.1209736734938538
2080000000.0 0.2756544430610792 -0.30659780753163746
2100000000.0 0.03933852907212097 -0.39861688128128936
2120000000.0 -0.1079563322704724 -0.3719559909711165
2140000000.0 -0.27339124455130376 -0.25321958633095965
2160000000.0 0.26620476488735284 -0.23095808338490167
2180000000.0 0.3345100426582904 0.05100506574110729
2200000000.0 0.32585979349043487 0.043325874925234924
2220000000.0 0.3120865425483281 0.08378428735092258
2240000000.0 0.3063670906458052 -0.11041060063924596
2260000000.0 0.05454409849561818 -0.32568573325382777
2280000000.0 -0.33388384893242695 -0.08074903806965697
2300000000.0 0.08211377869820215 0.35217140734226293
2320000000.0 0.22507175188974193 -0.32305570787573357
2340000000.0 0.11482481069144934 0.42204954092838065
2360000000.0 -0.4521300799688603 0.170668228964257
2380000000.0 -0.2250595332021771 -0.47971429243185515
2400000000.0 0.4785988000924337 -0.31920105298791435
2420000000.0 0.5548240791924647 0.27474191831772754
2440000000.0 -0.16307463700707267 0.6361531681943644
2460000000.0 -0.5722802189532578 -0.3772909578411061
2480000000.0 0.6916008644142551 -0.13967106263040335
2500000000.0 -0.6768249019598411 0.23204923758205687
2520000000.0 0.6974365512897084 -0.17100580502905424
2540000000.0 -0.6984361873062663 -0.14755537233658275
2560000000.0 0.22226894381731546 0.6683254593472469
2580000000.0 0.20046768029114104 -0.6553178553745612
2600000000.0 -0.49812969386552464 0.4361196151198519
2620000000.0 -0.047338309389425716 0.6323723289558927
2640000000.0 0.38599832851670335 -0.46156950168654687
2660000000.0 -0.5288770829074994 0.19675804927244178
2680000000.0 0.5198881002656723 -0.059302342483336934
2700000000.0 -0.4718164722175662 -0.10753227545980015
2720000000.0 0.43758734960066764 0.0921036026590722
2740000000.0 -0.37275232038332606 -0.17720546387707442
2760000000.0 0.3566802472383285 0.1444316726648307
2780000000.0 -0.317731679449016 -0.18143263294268314
2800000000.0 0.2794021354798453 0.22199164675291677
2820000000.0 -0.34903945335078707 0.042484324370585184
2840000000.0 0.26504585356348803 -0.22652785759596036
2860000000.0 -0.22156644424404762 0.26751451359006767
2880000000.0 0.29977530377420974 -0.17293125167058496
2900000000.0 -0.04926528084177529 -0.34467147164149686
2920000000.0 -0.3533463537298006 -0.010307161908602008
2940000000.0 -0.2690582931949787 0.2328455700657962
2960000000.0 -0.2760881193012639 0.23473660052864018
2980000000.0 -0.35116841456216075 0.0920465842530032
3000000000.0 -0.2106048176194221 -0.2986081120292019
3020000000.0 0.09829228664725209 -0.34989753218466013
3040000000.0 0.17939269143503497 0.30674368854458023
3060000000.0 -0.33528717038143807 -0.0979839968466327
3080000000.0 0.3339397113937148 0.06990253057897808
3100000000.0 -0.3281257761657402 -0.057947356541027895
3120000000.0 0.2933009094180431 -0.13307692654269518
3140000000.0 0.016623313841171522 0.3085477845313333
3160000000.0 0.16948284130448776 -0.23427652356292789
3180000000.0 0.07937234558744378 0.25365951660775826
3200000000.0 -0.22432101762393036 -0.08044242570480166
3220000000.0 0.16372234241596867 -0.12911526230190615
3240000000.0 -0.10950282018786066 0.1384133283375246
3260000000.0 0.14242123990438615 0.032041862908694686
3280000000.0 0.08757862171911655 -0.07725580788229176
3300000000.0 -0.02728225000893757 -0.08749934103280746
3320000000.0 0.06724553896494677 0.021845355847800625
3340000000.0 0.04062478684280171 0.034292608377881846
3360000000.0 0.019272083970855607 -0.03420813596435293
3380000000.0 -0.030745410417176707 0.0012407986046836842
3400000000.0 0.023543371715134886 -0.004811897760825537
3420000000.0 0.02723633450489336 -0.004282993989203512
3440000000.0 -0.034517427302547296 -0.023475333440859607
3460000000.0 0.04963812507496038 0.006199065294514158
3480000000.0 0.04588801941110491 0.04059814096174138
3500000000.0 0.06941976768061042 0.0038113989188631016
3520000000.0 -0.08020102229444219 -0.031201282105740514
3540000000.0 0.025446416741835585 0.10243812549571026
3560000000.0 0.09812697563311708 0.06501539403294627
3580000000.0 0.1258665970780337 -0.02406439876907213
3600000000.0 0.015065814507792298 -0.13807817844156306
3620000000.0 -0.09242608553352266 -0.11033214955115911
3640000000.0 -0.027759768824278663 -0.1412368618074933
3660000000.0 -0.021569576642545944 0.14237136354304622
3680000000.0 0.08118247534691181 -0.12345853902199093
3700000000.0 0.0858873565295926 0.12843035368599307
3720000000.0 -0.10119927711509326 0.12122720860193051
3740000000.0 0.12297439453767864 0.08807773148499137
3760000000.0 -0.10970819018593622 0.09098407720616057
3780000000.0 0.12081481715836206 -0.0631309811965262
3800000000.0 -0.11832512950358436 -0.07563371460617127
3820000000.0 -0.07272621776545765 -0.13355814592017168
3840000000.0 -0.03357600844824496 0.15930652739111673
3860000000.0 -0.03696879200912286 -0.1717826771144951
3880000000.0 0.18425052080021398 0.027986802451989864
3900000000.0 0.06607964247123252 0.1803843093655483
3920000000.0 0.1066248394583627 0.16089547982017452
3940000000.0 -0.0017832918168487325 0.18959842404818322
3960000000.0 -0.10339840303553909 0.15500652815051422
3980000000.0 -0.08143853743036181 0.16051461024739494
4000000000.0 0.15975345199177995 -0.05320539724095165
