!Created with skrf (http://scikit-rf.org).
# Hz S RI R 50.0 
!freq ReS11 ImS11
400000000.0 -0.8479887804492372 0.1259534940699392
420000000.0 0.15755862074023494 0.8202737864872731
440000000.0 0.5516530555159119 0.5382744665804134
460000000.0 -0.4403152842890163 0.5490619505335356
480000000.0 0.2219080090320006 -0.6099524433390683
500000000.0 0.5292924886475218 -0.29892775711251723
520000000.0 -0.02324346806423217 0.5492593311308743
540000000.0 -0.299651935331805 -0.391381520191359
560000000.0 0.4554706385656256 -0.038179391149553946
580000000.0 0.10631529759555379 -0.3945612348974204
600000000.0 -0.15354154310177623 0.34040431802123405
620000000.0 -0.351081168821913 0.07951647053947983
640000000.0 0.2965111020289366 -0.29115959813430814
660000000.0 0.44757132068456656 -0.040873208784797596
680000000.0 -0.45186468275441416 -0.09393584990263366
700000000.0 -0.3506465079314844 -0.27918538182744396
720000000.0 -0.026742271516885463 0.42638265122399677
740000000.0 0.3115952505591405 0.239566917003559
760000000.0 0.057688844963364884 0.3400159840646442
780000000.0 0.3033082824920335 -0.09805425106181061
800000000.0 -0.1325746476571245 -0.2567650171760701
820000000.0 -0.23845203905707968 -0.027897899736300937
840000000.0 0.022606152975731427 -0.18861478972838788
860000000.0 0.15226864381214056 -0.03756080032410747
880000000.0 -0.06120101221603809 0.10056761921480953
900000000.0 -0.039372921155198796 0.0651125600506962
920000000.0 -0.016856777664640565 -0.05096966541814334
940000000.0 0.03655081367249478 0.018527775920919014
960000000.0 -0.038355598144504614 -0.0027953245070680235
980000000.0 0.055979192087435334 -0.029761739700886795
1000000000.0 0.05457262571231995 0.0698354470857005
1020000000.0 -0.11128731466125924 0.01130847383135225
1040000000.0 0.039506995322473884 0.1311789192258354
1060000000.0 0.1127128897802821 0.12414452565618501
1080000000.0 0.0007984257833813833 -0.20102953361993323
1100000000.0 0.23725832813412492 0.04531415801710526
1120000000.0 -0.27015302287229775 0.04838275862081273
1140000000.0 0.017969346214448657 0.3043585031343216
1160000000.0 0.027141784984012398 0.32292738634577817
1180000000.0 0.17257347440291448 0.2684952431254148
1200000000.0 0.32077429538284985 -0.027963173559532012
1220000000.0 0.33718794969940175 0.03138493973395828
1240000000.0 0.27732251266233315 -0.23316573597949825
1260000000.0 0.1440463391846048 -0.3474102505845506
1280000000.0 0.04144780781238684 -0.3913249540940109
1300000000.0 -0.08000995179249956 -0.3991588895707014
1320000000.0 -0.30045232340361483 -0.2973827449296716
1340000000.0 -0.07730408400292375 0.42328836707687334
1360000000.0 0.3741182340218609 0.19647672902579086
1380000000.0 0.3505543023274457 -0.22517211227067327
1400000000.0 -0.35704017791207304 -0.17961731237055317
1420000000.0 -0.08299331275513726 0.3667249743938386
1440000000.0 0.3035984179259739 -0.17267780258534518
1460000000.0 -0.3142560415787423 0.004059804751916821
1480000000.0 0.1264548840685201 0.23790321645594006
1500000000.0 0.08537406291223494 0.210245271223084
1520000000.0 -0.11721459359039296 0.16336495468586626
1540000000.0 0.07873221664082408 0.15244095344677738
1560000000.0 0.10137099557051767 -0.11003379419446424
1580000000.0 0.05260659654568632 -0.11396632334005657
1600000000.0 -0.0011991350991231728 0.09079866961458351
1620000000.0 -0.012942418256083018 -0.061759182622320476
1640000000.0 0.030308816804693633 -0.02505434306321422
1660000000.0 -0.0021218315493564963 0.009950521113482451
1680000000.0 -0.007844583964619643 0.020273802969772447
1700000000.0 -0.025934914727278758 -0.019493899669177597
1720000000.0 0.034452307651388715 0.018603646216491646
1740000000.0 0.0062575688443604225 -0.053148204342030346
1760000000.0 -0.010933637876443704 -0.07519394390036686
1780000000.0 0.06747359025795953 -0.08678794434314935
1800000000.0 -0.05634163928968548 -0.14028954498474647
1820000000.0 0.08788983713999073 -0.16676154938228252
1840000000.0 0.21884606118601208 0.06668503809600743
1860000000.0 0.22965788608278564 0.14943935403636538
1880000000.0 0.30872780607225514 0.024978525879235935
1900000000.0 0.2126220963361862 0.25661901600182635
1920000000.0 -0.3174179266090282 -0.15108288657267743
1940000000.0 0.1558817560385204 0.33105633516960536
1960000000.0 0.28735291326377405 -0.24356851110148775
1980000000.0 0.27053497937621496 -0.2727591561613497
2000000000.0 0.3625824808993262 -0.1663519207430542
2020000000.0 0.3533895682322269 -0.21727795431758645
2040000000.0 -0.15225067500410652 -0.4048292021184786
2060000000.0 -0.05311741364912211 0.4339328200352
2080000000.0 0.19892573672473046 -0.3803816473425971
2100000000.0 -0.40257943844750604 0.08270809427466268
2120000000.0 0.09596090043801377 0.37423218520233925
2140000000.0 -0.3576593065197749 -0.00810423764996787
2160000000.0 -0.23913115599400356 -0.2346454913106261
2180000000.0 0.1119902562920689 -0.2962244190263157
2200000000.0 0.2837617163444595 -0.11969152381046168
2220000000.0 0.27854093113321643 -0.12883234802942975
2240000000.0 0.07428196444227227 -0.30161156331822214
2260000000.0 -0.23418023910235397 -0.2120877904175738
2280000000.0 -0.22429196670866527 0.241051266906474
2300000000.0 0.34733470772230723 0.01636884865372347
2320000000.0 -0.32183222726739114 -0.18440137683499924
2340000000.0 0.3753661616266699 0.1520728698929977
2360000000.0 -0.43933665750482637 0.07539056341008567
2380000000.0 0.2727528880578286 -0.4101476432289088
2400000000.0 0.006883831683790815 0.5405780572135314
2420000000.0 -0.5725412949244124 -0.12977911696887198
2440000000.0 -0.02316718778774755 -0.6289437233757466
2460000000.0 0.5380816915880496 -0.3945177058414921
2480000000.0 -0.6226322089269333 0.2917346515888285
2500000000.0 0.26299119111696745 0.6541533487769028
2520000000.0 0.5216577104817963 0.498826089158787
2540000000.0 -0.4695701370692945 -0.556782573369069
2560000000.0 -0.05244216147549558 0.716445477638139
2580000000.0 0.2980549334267638 -0.6424001351938194
2600000000.0 -0.5676458082495607 0.39013345015797696
2620000000.0 -0.6018191673711063 0.25561486673531986
2640000000.0 0.5434970774079904 0.2971868802693783
2660000000.0 -0.5887514337174589 -0.010003638514990592
2680000000.0 0.5448526516404084 0.06612149134290593
2700000000.0 -0.399491850064257 0.3339927606627702
2720000000.0 0.3465861406231685 -0.339066315981044
2740000000.0 -0.369225449501176 0.23356935472222107
2760000000.0 0.08784841693197586 -0.4015402292432251
2780000000.0 0.14367580889800935 0.36509281920710496
2800000000.0 -0.3220885769886546 -0.2206570809089482
2820000000.0 0.2282544392599538 0.3169609778155787
2840000000.0 -0.19112562992174514 -0.3252320468744043
2860000000.0 -0.11830933519120317 0.35961508379046
2880000000.0 0.36461789161983915 0.10240614359988566
2900000000.0 0.14010306505839126 -0.35370917467876867
2920000000.0 -0.3725285968309261 -0.06213659429188829
2940000000.0 -0.3141136527308636 0.22411580482910207
2960000000.0 -0.34081345398399576 -0.18300351799560494
2980000000.0 -0.23034596529832033 -0.30669916446758955
3000000000.0 0.0575100100247878 -0.3629699221789176
3020000000.0 0.349865174459561 -0.11096084566808738
3040000000.0 -0.23139714208888004 0.3000838016010365
3060000000.0 0.2335770762740823 -0.2928336228322091
3080000000.0 -0.35250991212882427 -0.10232486174385903
3100000000.0 -0.05562819686328423 -0.35139004036091503
3120000000.0 0.2723646046329249 -0.20545231742856218
3140000000.0 0.12499830788278381 -0.315846797137313
3160000000.0 -0.3160898435015961 0.02320151950434128
3180000000.0 -0.03193355314105938 0.282965568405236
3200000000.0 0.1370582805327017 -0.1960530885362576
3220000000.0 0.09378730769801857 -0.1881246935459194
3240000000.0 0.19483813196527308 0.0318373042747841
3260000000.0 0.1703994341263387 0.07427885163628911
3280000000.0 -0.12648765882981994 0.10406623473817359
3300000000.0 -0.095492678255884 0.11226384086070673
3320000000.0 0.05205007091863655 0.11538179980339053
3340000000.0 0.06169940650046844 0.09543858084553417
3360000000.0 0.10252249432727034 0.01550302780558184
3380000000.0 -0.08722764957857998 -0.05284670872902802
3400000000.0 0.08082862925174057 0.031837703811513594
3420000000.0 -0.05448578669077061 0.06768371562324775
3440000000.0 0.033330608124650246 0.07844100565690693
3460000000.0 -0.05695367233119685 -0.04945089819482543
3480000000.0 -0.07319443645738512 0.018000812191168926
3500000000.0 0.07093054656721136 0.06649718702170437
3520000000.0 0.04221989506523914 0.11276429752737181
3540000000.0 -0.14150569400576957 -0.001404101832528151
3560000000.0 -0.061870249055053436 -0.1403469191149853
3580000000.0 0.14660048739523168 0.06987341202539679
3600000000.0 0.12488692186141138 -0.1181843173703663
3620000000.0 0.10770384808158627 -0.13906032628606835
3640000000.0 -0.17213002431172808 0.03219828920091218
3660000000.0 0.12215393656028972 -0.12120440397357733
3680000000.0 -0.1664753693710871 -0.06189603226922874
3700000000.0 -0.16680943397451697 -0.14353215667940497
3720000000.0 -0.002122030613350841 0.1745482653460167
3740000000.0 0.016594645925209393 0.17428748646810452
3760000000.0 -0.0010919948200649103 0.19619294417910035
3780000000.0 -0.2098390419927307 -0.09950853592855168
3800000000.0 0.24005202976598947 -0.0258386724137816
3820000000.0 -0.16986554003934093 0.15583010015135718
3840000000.0 0.1923121237427864 -0.08342073981256355
3860000000.0 0.12997612103388032 0.1327288250369722
3880000000.0 0.1618993539858655 0.07351639268814632
3900000000.0 -0.04719259015192341 -0.1722152067738074
3920000000.0 -0.24323616606756307 0.04047795074784056
3940000000.0 -0.2132975295825358 0.11723324341204025
3960000000.0 -0.22668213554134334 0.037173331295722443
3980000000.0 0.17290843415429638 0.12261830344608948
4000000000.0 0.02917112798073008 -0.1846275227720746
