!Created with skrf (http://scikit-rf.org).
# Hz S RI R 50.0 
!freq ReS11 ImS11
400000000.0 -0.8528771414370389 0.019218058453812217
420000000.0 -0.14705387738690395 0.8235855011531126
440000000.0 0.6791525279262227 0.39683622791657425
460000000.0 0.5870883401053888 0.41156040582304587
480000000.0 -0.1636959978930515 0.6266684438789526
500000000.0 -0.45006845343035135 0.3691420024812298
520000000.0 -0.194187760195647 -0.47665508554003855
540000000.0 -0.36966129133291825 0.2583217389456245
560000000.0 0.39910259299633005 0.155784584001427
580000000.0 0.078752136911754 -0.3891689559875175
600000000.0 0.10614568621620626 0.35177886055957486
620000000.0 -0.2949897290216924 0.22677804106322227
640000000.0 -0.13716728066491685 -0.39623356166884155
660000000.0 0.4288122723817542 -0.1729115264861653
680000000.0 -0.4172744079853208 0.22228429053269064
700000000.0 -0.20354696771191216 -0.41515986591810217
720000000.0 0.38693385541422726 0.20851911527197226
740000000.0 0.18656617061845532 0.34679238400735507
760000000.0 -0.3505935854553715 0.05400266181298706
780000000.0 0.2966560934160842 0.13140937862784632
800000000.0 0.11846594635833876 -0.27459530892388395
820000000.0 -0.1315955994025316 0.1923022486366349
840000000.0 0.0024660359225341824 -0.1738751282020172
860000000.0 -0.05486937531430334 -0.13991691208097304
880000000.0 -0.09078893545340598 0.09541567894465477
900000000.0 -0.0831496761224353 -0.06866018647104066
920000000.0 -0.008874902254715385 -0.06393866239124446
940000000.0 -0.024473275669497384 0.0343488132759351
960000000.0 -0.04301280564923174 0.011896723451204549
980000000.0 -0.045533054578247564 -0.02077390368984015
1000000000.0 -0.021029037008063897 -0.07050655312138403
1020000000.0 0.04006988921719234 -0.09629144101476159
1040000000.0 -0.09431932044800356 -0.09339352069259531
1060000000.0 0.13427672506894422 0.08555146197857644
1080000000.0 0.1418286298357335 -0.133730679751018
1100000000.0 0.06459397358634777 0.22005859521499563
1120000000.0 -0.09261161650481577 -0.24068657248460765
1140000000.0 -0.2538045643265292 -0.10340727120658938
1160000000.0 -0.08403853100468017 0.27047951663720227
1180000000.0 -0.1976437681867685 -0.22471389083532078
1200000000.0 0.11009257433945453 0.30379347602570633
1220000000.0 0.10321623807998355 -0.3299565865019688
1240000000.0 -0.30520327906354455 0.21461848523965926
1260000000.0 0.012621804155554132 -0.38252307560177895
1280000000.0 -0.22445857853564516 -0.3024419721437606
1300000000.0 0.142661408229633 -0.35681065181078037
1320000000.0 0.05327801503921559 -0.3906689890642089
1340000000.0 -0.3607754121001852 -0.17415028135745175
1360000000.0 -0.2559606935913572 0.2945628793780942
1380000000.0 -0.33611241323006275 0.17941872715196724
1400000000.0 0.3141957911895224 0.1947932700068229
1420000000.0 0.18525210317831453 -0.2880190143400898
1440000000.0 -0.20243844584401297 -0.24529384595024958
1460000000.0 -0.254162072978087 0.13149620848916527
1480000000.0 0.25100786367033906 -0.0483939920504276
1500000000.0 -0.17741832866470195 -0.11876460633004633
1520000000.0 -0.07265556678746507 -0.1555630104742105
1540000000.0 -0.007428413257049278 0.13358101894177982
1560000000.0 0.09347220002163585 0.06046119845808347
1580000000.0 -0.09024701517233637 0.03391661834725842
1600000000.0 -0.009581303547623852 -0.07601058043345445
1620000000.0 -0.051949671323707376 -0.03265181162937873
1640000000.0 -0.014282543510079496 0.03486077759460523
1660000000.0 0.016458120685905003 -0.01570423897170143
1680000000.0 0.014723015628299016 0.02608294275704357
1700000000.0 0.029009768011285728 0.027271891968667573
1720000000.0 -0.04690876363785154 -0.010274768478382337
1740000000.0 0.008115574849320812 -0.06485446542942704
1760000000.0 -0.05494494463326597 0.06748123190785282
1780000000.0 -0.05644113760011369 0.11091207731280338
1800000000.0 -0.09666164043319833 -0.14170140867987277
1820000000.0 0.056771347931702396 0.1959517693234729
1840000000.0 -0.02093664217788619 0.23005890282687852
1860000000.0 -0.25558607555088037 -0.0506488697257466
1880000000.0 0.2915717923639186 -0.019763538503954105
1900000000.0 -0.2272382823372271 0.22951390295116297
1920000000.0 0.23999533570728546 -0.2544919790060941
1940000000.0 -0.2637579374971183 0.26235764118714733
1960000000.0 0.35797967597030966 -0.13451472689098756
1980000000.0 0.10826788150256457 -0.37248600616263483
2000000000.0 0.14727565940966514 -0.36859974775096926
2020000000.0 0.1332376461415384 -0.3879570615615576
2040000000.0 -0.3645032556639711 -0.21478771616129297
2060000000.0 0.11879867892218855 0.4050412520227114
2080000000.0 0.28138563596359945 -0.29624434352376794
2100000000.0 -0.0944713228173054 -0.3729830505819168
2120000000.0 0.27639335034089946 -0.23582956855664908
2140000000.0 -0.14009262970033473 0.3187889608349924
2160000000.0 -0.3248562113908103 0.07191805416982278
2180000000.0 -0.2936461747183964 -0.12584724599276054
2200000000.0 -0.03378664347214877 -0.30505885570650737
2220000000.0 0.29345714061426686 -0.06735359454701154
2240000000.0 0.21467502682964926 0.21223682451111428
2260000000.0 -0.10827559431437493 0.2916688681674996
2280000000.0 -0.2776458258197533 0.1807551792159371
2300000000.0 0.2964633293199496 0.20694551431508945
2320000000.0 -0.18245788889670989 -0.3535503875664051
2340000000.0 0.3322005873748963 0.28831191695910274
2360000000.0 -0.4868351022468544 0.014186324191694735
2380000000.0 0.07862035208452797 -0.5354344882841832
2400000000.0 0.5913818783895858 0.0481143756451156
2420000000.0 -0.049741364097653215 0.6400844159496736
2440000000.0 -0.6662220471041972 -0.15312582245933756
2460000000.0 0.5058324054085185 -0.5077837621807323
2480000000.0 -0.11370457809921138 0.7320117148135483
2500000000.0 0.10694206663257497 -0.7487379851784629
2520000000.0 -0.19886375193801156 0.7380684295323866
2540000000.0 0.409258336977302 -0.6465986540700513
2560000000.0 -0.7265595717374971 0.22033754557408963
2580000000.0 0.6828371556578385 0.29673114998933803
2600000000.0 -0.32775631423467916 -0.6429728921603847
2620000000.0 -0.14842726539006337 0.6768569938167754
2640000000.0 0.3938281763718441 0.5273587286193736
2660000000.0 -0.17954980887019797 -0.5901042361741922
2680000000.0 -0.025337068055042603 0.5712935680562318
2700000000.0 0.21314542712064344 -0.4798063913122689
2720000000.0 -0.2795730498997753 0.3862771337546513
2740000000.0 0.43117949002701383 -0.03346732882976446
2760000000.0 -0.2511916002293429 -0.31026574033574567
2780000000.0 0.29392576203062437 0.2367903020470525
2800000000.0 -0.33451496043755236 0.12780538521668072
2820000000.0 -0.11342613461259847 -0.32226880789195106
2840000000.0 0.2996922580036277 0.1228280265229871
2860000000.0 -0.18332803963981117 -0.2571092522213646
2880000000.0 -0.17903206469646973 0.26156266326873784
2900000000.0 0.3239301754629809 -0.009192098667979843
2920000000.0 -0.3068569467498752 -0.12567249674453984
2940000000.0 0.16642259297650303 0.2850213101132254
2960000000.0 0.18300515264783154 0.26699793586567583
2980000000.0 -0.2887044771251945 -0.14772076078510915
3000000000.0 0.337915726277592 0.009093684244227832
3020000000.0 0.3260360632220642 0.13581135074455014
3040000000.0 0.35380310674201737 0.008085254522221023
3060000000.0 0.2545755982171631 0.23064521451411554
3080000000.0 -0.3242660745227312 -0.057021870873563245
3100000000.0 0.25645993497651165 0.19366974607026466
3120000000.0 -0.23961331758386445 -0.20758388240180015
3140000000.0 0.17741900329844218 -0.259403131657709
3160000000.0 0.2734553926803138 0.1287983344861055
3180000000.0 0.23538243014284804 -0.14372167049123874
3200000000.0 0.23490176531064164 0.05506163831786927
3220000000.0 -0.187038551394392 0.09766166659742158
3240000000.0 0.08491610234725352 -0.16701223502207063
3260000000.0 0.09629249482379768 -0.14092805769311464
3280000000.0 0.12562426182488756 0.08065307940410293
3300000000.0 -0.0334499351271488 -0.1185797353767351
3320000000.0 0.0932176688648221 0.014479271167801032
3340000000.0 -0.06437401357389923 0.035446398956504005
3360000000.0 0.05677388579306784 0.03316437443959028
3380000000.0 -0.03603108489878165 0.06174941833153567
3400000000.0 0.04976186680502436 0.07491035526664898
3420000000.0 -0.026870133987399097 -0.10816784538395567
3440000000.0 0.01388956168583064 -0.12706246833918192
3460000000.0 -0.13474049356307682 -0.013984551457963174
3480000000.0 0.09824010733278506 0.09863809002472115
3500000000.0 0.038783421527092465 0.14553924142740196
3520000000.0 0.08361008409582396 0.14741752140232536
3540000000.0 -0.16734247550094827 0.0874212542738535
3560000000.0 -0.1763712836356081 -0.07360201973212893
3580000000.0 0.1801913929605386 0.03498292506569367
3600000000.0 0.16982345916353536 0.019791970242570175
3620000000.0 -0.15535630403784814 0.04163668407766727
3640000000.0 0.1268406457604066 0.08898889802559477
3660000000.0 -0.14765706490317249 -0.03312250548746755
3680000000.0 -0.012925762925093153 -0.14441121062705142
3700000000.0 0.11601705526248035 0.059173869571804386
3720000000.0 0.04208543464622968 0.10400421788364811
3740000000.0 0.06329318597299037 0.08431790901165383
3760000000.0 0.014473443590377498 0.10741971379385021
3780000000.0 -0.03310728330998125 -0.10972526587403804
3800000000.0 0.004012465002452787 -0.11935915933872047
3820000000.0 0.0863597302608708 0.08920697231002998
3840000000.0 -0.13120700594974885 0.044504003448248494
3860000000.0 0.16147711469215295 -0.016977145334708416
3880000000.0 -0.17808500682671735 -0.044401478309926364
3900000000.0 -0.05712239320647799 -0.18005814913580218
3920000000.0 0.16104641341904552 -0.07231145675339688
3940000000.0 -0.08865804802426516 -0.1296668368998387
3960000000.0 0.06513193496020392 -0.1281235178941037
3980000000.0 0.01783804403825914 0.12869322048630177
4000000000.0 -0.022127400807008778 -0.11019354690649938
