!Created with skrf (http://scikit-rf.org).
# Hz S RI R 50.0 
!freq ReS11 ImS11
400000000.0 -0.8114865289439561 -0.178035797851454
420000000.0 -0.5465276959353965 0.6347149962157883
440000000.0 0.2650512142939247 0.7347541033965989
460000000.0 0.07653953941807232 0.7129931637097543
480000000.0 -0.03079266968956191 -0.6484715464870509
500000000.0 0.5463238201754107 -0.3245150648547431
520000000.0 0.5432211537940129 -0.13041060554424624
540000000.0 -0.502963306235078 -0.07228256984697229
560000000.0 -0.4311888233898999 -0.1922349806840196
580000000.0 0.320690476099446 0.2638446305880254
600000000.0 -0.37088564483661035 -0.01565374867518658
620000000.0 -0.20052979967378237 -0.2938690088191896
640000000.0 -0.39230932736708324 0.040566563541080354
660000000.0 0.310002762298986 0.3004189846957608
680000000.0 0.27808242805844974 -0.36622187710252907
700000000.0 0.1694909729458474 -0.4230907685036665
720000000.0 -0.1474498366249613 0.3999675801847701
740000000.0 -0.36269670448332575 -0.10141154332018845
760000000.0 0.2575148036939919 0.25494629360234905
780000000.0 0.33706353821722346 -0.001177203007666294
800000000.0 0.035012238008140774 -0.2928706685529646
820000000.0 -0.23732597618609727 0.03473178584640066
840000000.0 0.09685363029939738 0.1509073285534532
860000000.0 0.08478459996116866 -0.12766084670241948
880000000.0 -0.11875474905751407 0.002372285922267355
900000000.0 0.048227330627404134 -0.08183117485769086
920000000.0 0.04837327113308879 -0.036876816283287546
940000000.0 0.04348800444841154 -0.00518628168889901
960000000.0 -0.011472847817540974 0.05634301514731536
980000000.0 0.026955350302162704 -0.06960366795337605
1000000000.0 -0.07271147441431945 -0.033716510861497954
1020000000.0 -0.018587492855405903 -0.10894938631495965
1040000000.0 0.11339632050594332 -0.061378124157379726
1060000000.0 0.15031001996371546 -0.026568014294232247
1080000000.0 -0.18502263895285057 0.011938920960218691
1100000000.0 -0.07091401259713667 0.19168745790652114
1120000000.0 -0.16245304137973998 -0.17740141549528082
1140000000.0 -0.1755354925554763 -0.21945370776985812
1160000000.0 0.18026425936642418 0.2570846187332693
1180000000.0 0.134159862188173 -0.3096109461622582
1200000000.0 0.3378866975679137 0.06031532715621528
1220000000.0 0.3046366570708545 -0.1848856434936939
1240000000.0 0.059150850411756904 -0.37051004333158477
1260000000.0 -0.35818026822794563 -0.17115249143833725
1280000000.0 -0.06124724447572189 0.4003644195009795
1300000000.0 0.05671676245603846 0.40715718209925517
1320000000.0 0.287629478550052 0.29806772027425954
1340000000.0 0.4178717002749974 0.0133144971447987
1360000000.0 0.2701099029589059 -0.3085202296490966
1380000000.0 0.07271642497594948 -0.3896062212221732
1400000000.0 -0.3106038803160007 -0.22134920964809457
1420000000.0 -0.3200915785706278 0.1565050245393941
1440000000.0 0.11850774834798186 0.3143016438759082
1460000000.0 0.1261113709633036 -0.27677561434551234
1480000000.0 -0.19456278506157773 0.19352892801307622
1500000000.0 0.013575177202013832 -0.2335539827540675
1520000000.0 -0.1846162860968146 0.06685528368195613
1540000000.0 0.15063737677067993 0.01616827424197636
1560000000.0 -0.111480511951878 0.04827695571698031
1580000000.0 0.0988607892088228 -0.008425543948811594
1600000000.0 -0.01971628417191418 -0.07403944376297238
1620000000.0 -0.046324363128351184 0.01110194967367832
1640000000.0 -0.0017986440049121682 0.02044928495924276
1660000000.0 -0.00012270615482805013 -6.42600025413391e-05
1680000000.0 -0.0071773031672398065 0.014635903844294904
1700000000.0 0.03591348024393932 0.007540908995025464
1720000000.0 0.01635053444910602 0.05162870119020732
1740000000.0 -0.059459218657069914 0.049168208695787495
1760000000.0 -0.007523887959281506 0.09914365987646008
1780000000.0 0.02080048931056374 -0.11950466968956931
1800000000.0 0.07861878101883633 0.1316099711326003
1820000000.0 -0.16196089955180967 0.09596744742093516
1840000000.0 -0.14596476351604348 -0.17277793010879883
1860000000.0 0.0004920538812592597 -0.2662981203627392
1880000000.0 0.2275884383868748 -0.18365988249185403
1900000000.0 -0.26546347522465585 0.1851546168323243
1920000000.0 0.3311691988044441 0.12024943715282577
1940000000.0 -0.2435322440275626 -0.2940023684265376
1960000000.0 0.18186662151234198 0.3590479382265642
1980000000.0 0.22244807902291697 -0.34901885872374283
2000000000.0 -0.17610729590637952 -0.38581937264158844
2020000000.0 -0.41938140438921817 -0.10558748019571197
2040000000.0 -0.15608045572069645 0.4135784759938685
2060000000.0 0.4257728360258116 -0.09231659732038859
2080000000.0 0.16341984456137587 -0.3846219048030571
2100000000.0 0.07368264974158607 -0.3983666006187403
2120000000.0 -0.07268033660005065 -0.3906349947423881
2140000000.0 -0.373275011513556 0.07849705253630478
2160000000.0 -0.22215308604166745 -0.2785857396034484
2180000000.0 0.30941806397094324 -0.13509698080346683
2200000000.0 0.33004241445881866 -0.037164824591639126
2220000000.0 0.32592309583560375 -0.03466541533775034
2240000000.0 0.3217128845154497 -0.10846008597169672
2260000000.0 -0.2054678874761632 -0.280324593277079
2280000000.0 -0.1985454122570714 0.29822608790682187
2300000000.0 0.36942069856031756 -0.0820177255336935
2320000000.0 -0.40757776628745107 -0.017675939091515543
2340000000.0 0.44682452832825326 -0.028904598939145557
2360000000.0 0.17645241915737322 0.4630985692235673
2380000000.0 -0.5025776348806705 0.2119763269378051
2400000000.0 -0.28206131913686994 -0.5207049182888455
2420000000.0 0.1500380795380135 -0.624340122325958
2440000000.0 0.6756792391086569 0.07494270148237371
2460000000.0 -0.3504899793273365 0.6157765313803683
2480000000.0 0.45000499303086533 -0.5574477877404685
2500000000.0 0.33359295318708176 0.6603595299426357
2520000000.0 -0.005938067328721853 -0.7385986147322469
2540000000.0 -0.5208478834052849 0.5077358622206944
2560000000.0 0.46572621435165074 -0.5533017146153167
2580000000.0 -0.5893703344228057 0.38840973512840365
2600000000.0 0.5064018980924773 0.4399289110543906
2620000000.0 0.4597745217222737 0.43800512869018937
2640000000.0 -0.2238788748097993 -0.5606797134237073
2660000000.0 -0.008541857491114514 0.5704833938658534
2680000000.0 0.4931792713672572 0.17642931673990744
2700000000.0 0.45615660617462567 -0.16058735738178814
2720000000.0 -0.4090111566392759 -0.18176403749626202
2740000000.0 0.3824824960078752 0.15539516594026367
2760000000.0 0.07538482394291146 0.3772706499498152
2780000000.0 -0.2625049382216876 0.2832722947264327
2800000000.0 0.08510878900120032 0.34155014777494236
2820000000.0 -0.009624085397827489 -0.34498844059909284
2840000000.0 0.3251811837894976 0.11425831643829405
2860000000.0 -0.00738842534081306 -0.3433343623044287
2880000000.0 -0.20769216265874996 0.27210455660907606
2900000000.0 0.31095818501721234 -0.1599192943046005
2920000000.0 -0.33997182451593744 0.11255239740267879
2940000000.0 0.10924286649435261 0.34890048764673415
2960000000.0 -0.02408232029723599 0.3526288828696611
2980000000.0 -0.01167260384567132 0.3616529091338914
3000000000.0 -0.24028018659933154 -0.2843750831361771
3020000000.0 0.1827377173446762 -0.32107913806443794
3040000000.0 0.3446901085574058 0.10493956590268892
3060000000.0 -0.3034349640958195 -0.18496717813580468
3080000000.0 0.3212312286658574 0.11531252496621994
3100000000.0 -0.15146116848166474 0.29091559482685775
3120000000.0 0.21053377431874087 0.24076629195936816
3140000000.0 -0.16445606977074637 0.2595309477635964
3160000000.0 0.28529520925619084 0.025638558362978958
3180000000.0 0.2152561799772292 -0.14464909203008716
3200000000.0 -0.10256785048115888 -0.19637011593687484
3220000000.0 -0.17265904727251835 -0.06873634563338354
3240000000.0 -0.04393284183522948 -0.15684638339367912
3260000000.0 0.00863960258425461 0.1338275266252606
3280000000.0 0.10485146288950559 -0.012784933560992992
3300000000.0 -0.07623945826289623 0.032019825333420106
3320000000.0 -0.061645207470901735 0.023033846407459764
3340000000.0 -0.045231269677617675 0.008685838942726285
3360000000.0 -0.05741475476232771 0.005328385927765115
3380000000.0 -0.02256880712378659 0.043081926247004666
3400000000.0 0.005334586976030138 -0.03660493613027301
3420000000.0 -0.006442459895365538 0.022053069519131923
3440000000.0 -0.01068878690977096 -0.015856090736722957
3460000000.0 -0.025009666157906178 0.008774739311469625
3480000000.0 -0.04139465627878005 -0.038753394139845666
3500000000.0 -0.00996804841377668 -0.06908610940188228
3520000000.0 -0.03413344804227959 -0.06678099376952652
3540000000.0 0.09528225032719678 0.008268661945904922
3560000000.0 -0.06325805273335662 -0.023181698376029115
3580000000.0 -0.10647534795761501 0.020166961884540615
3600000000.0 -0.1145156981912694 0.08442730016146506
3620000000.0 -0.0013189306771299258 0.14340922102332102
3640000000.0 -0.0004870173299838576 0.13007176516273908
3660000000.0 -0.13235332294956056 -0.007088485806159066
3680000000.0 -0.10425767936037282 -0.10625344608058604
3700000000.0 -0.03245183438482072 -0.1521237276666893
3720000000.0 -0.16304592213274266 -0.021860626273009828
3740000000.0 0.07002642009616897 0.13100861374183354
3760000000.0 0.05502038236931378 0.12859865410052246
3780000000.0 0.1323631973671034 0.06883411708025133
3800000000.0 0.1313593651449494 0.12767909309770092
3820000000.0 -0.03423945952803242 0.16302389208293303
3840000000.0 0.018318338782832393 0.1541273918653312
3860000000.0 -0.08514774429257929 0.1413257199749277
3880000000.0 -0.12039443768004475 0.1922031566290135
3900000000.0 -0.166472505737548 0.166291739433984
3920000000.0 -0.013323763761789838 -0.15874702160868678
3940000000.0 -0.028309312715523755 -0.15238081662529768
3960000000.0 -0.11650322481291515 -0.09013476414783127
3980000000.0 0.16288161429581796 -0.06178912735017568
4000000000.0 0.10044841488789426 0.09221284027695281
