!Created with skrf (http://scikit-rf.org).
# Hz S RI R 50.0 
!freq ReS11 ImS11
400000000.0 -0.6043959049207487 -0.5563327027268944
420000000.0 -0.8350143256572206 -0.01080342970847741
440000000.0 -0.1408629226404487 0.7662713320134716
460000000.0 -0.6163882069321126 0.3741834925868992
480000000.0 0.2890512407756844 -0.5994828249023475
500000000.0 0.45792368721623883 -0.45679744496102564
520000000.0 0.2523087502365669 -0.511947839460163
540000000.0 0.43425388539261367 0.26489460662672787
560000000.0 -0.26816239979941486 0.3822946872251434
580000000.0 0.371277203575024 -0.14914853406216502
600000000.0 -0.35369692658658936 -0.07870098186077432
620000000.0 0.06041203449925341 -0.3514556104671364
640000000.0 -0.031975804166325554 0.39234686915044714
660000000.0 0.22628014573528987 -0.35954984532161405
680000000.0 -0.3016868905555805 -0.312060284230149
700000000.0 0.3995269813830557 0.15185869815109967
720000000.0 0.3397654461518135 -0.24254198596981294
740000000.0 0.33898671774369504 -0.2063227405618452
760000000.0 0.3750405216252494 0.051357681538480894
780000000.0 0.12205285424942147 -0.3290915421457763
800000000.0 -0.29184337206253114 0.08033845140387139
820000000.0 -0.23612890564240846 -0.08565770626142367
840000000.0 -0.18223239817720285 0.09133229438376184
860000000.0 -0.03188965605570628 -0.1601244894980614
880000000.0 0.11220822042734512 0.07482829478701385
900000000.0 -0.09112359518989059 -0.029562340595431957
920000000.0 0.02315297953663075 0.057104023579677594
940000000.0 -0.00505610842433158 0.048571508273232894
960000000.0 -0.05147450365023109 0.017838999426216025
980000000.0 0.061627901024809355 -0.0014005069832170153
1000000000.0 -0.052766225688926006 0.03446500643741155
1020000000.0 -0.07755017250994187 0.02284209783190713
1040000000.0 0.01233439111283813 0.11079560106355983
1060000000.0 0.09296764915729738 0.10847762691056759
1080000000.0 0.1698664505534502 0.005217892977923711
1100000000.0 -0.12272411359590789 -0.1676317275682727
1120000000.0 -0.22312737343570802 0.08823619818932113
1140000000.0 -0.27175078607858427 -0.008829052502747911
1160000000.0 0.30205724670571404 -0.023760844395116734
1180000000.0 0.15571130671522665 -0.2837508546876846
1200000000.0 0.26251977734691434 0.20885688800420424
1220000000.0 0.3217463859694648 -0.1206869032153536
1240000000.0 0.345014742172431 -0.12322355806922697
1260000000.0 0.059464425991559086 -0.38689966146802335
1280000000.0 -0.40321746825653015 0.002491186101784905
1300000000.0 -0.32797939442615276 0.25542157170810253
1320000000.0 0.16639267360427956 0.39286050211585377
1340000000.0 0.02768473225334634 -0.423315876972359
1360000000.0 -0.2529456846307035 -0.3175821812643822
1380000000.0 -0.26086596951319285 -0.28542498016180956
1400000000.0 -0.3702544122694552 -0.02689430530406073
1420000000.0 -0.33323806798734884 0.06958596017766729
1440000000.0 -0.2581701511693967 -0.18042790840319264
1460000000.0 -0.19095229660783986 -0.2282621250514929
1480000000.0 -0.17965808618743123 0.20725949175123456
1500000000.0 0.1537748800991738 -0.19808822746194013
1520000000.0 -0.03929479550024049 0.21415770440151655
1540000000.0 -0.16755708168911557 -0.0436690533780875
1560000000.0 -0.1221074337343857 0.05567375759563147
1580000000.0 0.0005820751369786681 0.10140784099625938
1600000000.0 -0.06948535198149727 0.02652186407764655
1620000000.0 -0.036629029196034314 0.03567365378603427
1640000000.0 -0.0006681058654235035 0.02311425132557061
1660000000.0 0.0022425647222539665 -0.013065117335852257
1680000000.0 -0.018980096427047122 -0.034685735591051495
1700000000.0 0.035632898967172394 -0.04835320257539014
1720000000.0 0.07667270773792817 -0.02188643350422928
1740000000.0 -0.09866191977729302 0.009791594342261224
1760000000.0 0.011053381633346501 0.11278839424581111
1780000000.0 -0.08731745937377287 0.10088103549031206
1800000000.0 0.16178372814637407 -0.00380309405401134
1820000000.0 -0.15113005557011894 -0.12444228219633109
1840000000.0 0.18418396188781336 0.13433762866885204
1860000000.0 -0.26530555450881294 0.00972900785208357
1880000000.0 0.19193952731584074 -0.23443859122173175
1900000000.0 0.08657144003403561 0.3222633472256701
1920000000.0 -0.042152501515265894 -0.3595897341222383
1940000000.0 -0.0980359317417882 0.3743045372463783
1960000000.0 0.20252389039593663 -0.3530799010014598
1980000000.0 -0.34720595894911105 0.22987251423523092
2000000000.0 0.1838759088018299 0.37610428363748427
2020000000.0 0.3354166893024969 0.251499581662888
2040000000.0 0.4198429955011698 0.05963690232202118
2060000000.0 0.07632302803902281 -0.4175307946376488
2080000000.0 -0.35817383153684773 0.20896866856765067
2100000000.0 0.1990071776278035 0.34014169064980065
2120000000.0 0.2798836235335914 0.2419003837343494
2140000000.0 -0.3394787587036922 0.08065050552252102
2160000000.0 -0.32956689709867937 -0.030167341615155066
2180000000.0 -0.28416683988395014 -0.1268992212169961
2200000000.0 -0.14597943115852546 -0.25851179060293306
2220000000.0 0.13504176538914525 -0.25691660532181826
2240000000.0 0.18869724552856224 -0.22682266794806896
2260000000.0 0.003340384510029181 -0.3030221591160491
2280000000.0 -0.3155866064134721 -0.04974919278513662
2300000000.0 0.2505707253050134 0.23652664962481065
2320000000.0 -0.22648050149280652 -0.299707963682273
2340000000.0 0.3835858339855146 0.16120956507857606
2360000000.0 -0.4122418483438191 0.20725956658513076
2380000000.0 -0.11725412841172107 -0.5015470041242063
2400000000.0 0.5429650363281708 -0.17715062259734976
2420000000.0 0.4570767244464025 0.42206869077583575
2440000000.0 -0.21330104341163858 0.6305628682682406
2460000000.0 -0.6996625750973021 -0.02713309239141649
2480000000.0 0.35161463260600984 -0.6349325469146578
2500000000.0 -0.07437493138030216 0.7361144041263628
2520000000.0 0.06926667377878522 -0.7439601715349836
2540000000.0 -0.3271459107827833 0.6714832096648583
2560000000.0 0.6509900743374806 -0.34821620311885065
2580000000.0 -0.6930916907455315 -0.20270233066274618
2600000000.0 0.532910588341233 0.45191845353564647
2620000000.0 0.63381304706955 -0.21692891736279107
2640000000.0 -0.6316127326776624 0.07967230701629115
2660000000.0 0.5947831415419708 -0.06280092128658143
2680000000.0 -0.556136651066077 -0.059516835591897285
2700000000.0 0.4941174089127794 0.16734538705204585
2720000000.0 -0.4447342332720263 -0.1938225712015003
2740000000.0 0.32577309932793325 0.31156597616843285
2760000000.0 -0.09393528118827471 -0.41276725644818907
2780000000.0 -0.08449186409391499 0.39378629508433327
2800000000.0 0.12307888226642286 -0.3703460984092906
2820000000.0 -0.16352721369582326 0.34686635203018484
2840000000.0 0.06521166748511197 -0.37266383919823953
2860000000.0 -0.20143925721255418 0.3148481287374699
2880000000.0 0.36871107401262065 0.009094149247092446
2900000000.0 0.34636077134613413 -0.11689366686181472
2920000000.0 0.335948042608478 -0.15351739385660632
2940000000.0 0.3059213762999271 -0.21076384598956174
2960000000.0 0.37183528057508314 -0.02757547414921771
2980000000.0 0.25389906851927757 0.2776342132602933
3000000000.0 0.010852064209346542 0.3755601661930795
3020000000.0 -0.346262313553753 0.12492059922015611
3040000000.0 0.2359349772198891 -0.2695004719115781
3060000000.0 -0.3252661161042199 0.12791076284338634
3080000000.0 0.2512503183070895 0.2339057925490955
3100000000.0 0.02114079464989765 -0.336394785782225
3120000000.0 -0.21012704523119402 0.25344570651991344
3140000000.0 0.11221088168303471 -0.2987866764077087
3160000000.0 0.1914424049704896 0.23397829285579128
3180000000.0 0.08513430850198846 -0.26277374715109114
3200000000.0 -0.23916377238510333 0.06276062104436192
3220000000.0 -0.07928414794127694 0.20358578940848585
3240000000.0 -0.19022591216030751 0.014418347532037083
3260000000.0 0.14582729445030285 -0.0968776211916901
3280000000.0 0.06622402927783962 0.1454363454274486
3300000000.0 0.13301312192982623 0.04296132009007745
3320000000.0 0.034647120733068595 0.1085409828018708
3340000000.0 0.03648600779701522 -0.08992243746649889
3360000000.0 0.03750284307900034 0.0753504218819103
3380000000.0 0.06312015673060582 0.05345568689434256
3400000000.0 -0.07039595408412748 -0.03399153281877784
3420000000.0 -0.046107512519115205 -0.05418332206830567
3440000000.0 -0.014935871502423502 0.06047501142699807
3460000000.0 -0.030071252361034348 0.04696837613622724
3480000000.0 -0.054447861716364565 -0.005134654115704212
3500000000.0 -0.04676861722331523 -0.0257383138765467
3520000000.0 -0.053650123779688516 0.03012721843853048
3540000000.0 -0.0007516325525857865 -0.0708898494740046
3560000000.0 0.07037894148881157 0.037818130126330944
3580000000.0 0.09104344768252676 0.025974291481217573
3600000000.0 0.06409093977943212 -0.10514223275002911
3620000000.0 -0.062266295257202064 0.1408961258552592
3640000000.0 0.145236669847618 -0.10622687396776116
3660000000.0 -0.04704935683516443 -0.18729494254244364
3680000000.0 -0.1037817744938724 0.10267578447108039
3700000000.0 0.04143285938808422 0.12744586516481574
3720000000.0 0.04838377942739055 -0.13885721426386577
3740000000.0 0.1580712868919731 -0.09600565556194622
3760000000.0 -0.038359451179562666 -0.22914654788652877
3780000000.0 -0.2254762661396137 -0.13725995249882242
3800000000.0 0.06553144763259477 0.28714423731820565
3820000000.0 -0.11953181437102714 0.29368459292629956
3840000000.0 0.33126616853644875 -0.008551645692319336
3860000000.0 -0.3412404124648289 6.475919551751016e-05
3880000000.0 -0.05433606360732433 0.3415900324919246
3900000000.0 0.3349280888255646 0.10090537882679869
3920000000.0 0.12585159488896622 -0.3239614888033848
3940000000.0 -0.13702645696224894 0.28863703740591456
3960000000.0 -0.28258923959498194 0.05645674414160522
3980000000.0 -0.021599206217925986 0.2728649875597227
4000000000.0 -0.07692856247147593 -0.24480912095840354
