!Created with skrf (http://scikit-rf.org).
# Hz S RI R 50.0 
!freq ReS11 ImS11
400000000.0 -0.8491689145650778 0.14121104604497445
420000000.0 0.17102542315054023 0.8266069986960249
440000000.0 0.7503664195258312 0.23657082104732602
460000000.0 0.38111601239016524 0.6066313402972348
480000000.0 -0.5812145491416881 0.28810638342333483
500000000.0 -0.5638122439668468 -0.20234154067113255
520000000.0 0.5283741879904899 -0.028983373709333467
540000000.0 -0.07078508794256502 -0.4632257404594518
560000000.0 0.40027920463707745 0.19497713006649825
580000000.0 0.2028774826994996 -0.3426131151752381
600000000.0 -0.0877284478656982 0.3500812340266809
620000000.0 -0.158785323269032 0.32756127844206684
640000000.0 -0.11014062094032528 -0.3896433772883505
660000000.0 0.32451246245488796 0.29876543008432344
680000000.0 -0.2863538474968992 -0.35054923781839475
700000000.0 0.34729232122974113 -0.2778274909860624
720000000.0 -0.2841699065324935 0.3163387300680493
740000000.0 -0.3273100289761902 0.1984023904769729
760000000.0 0.2058179463591911 -0.28494471207797695
780000000.0 0.11774333813945546 0.31252176095099704
800000000.0 -0.28712417896238374 -0.07980514194649097
820000000.0 -0.23104556902739276 -0.06255000044891387
840000000.0 -0.06109474947204144 0.19080298835570877
860000000.0 -0.10781506623233489 -0.14234134988459807
880000000.0 -0.13490306813803563 -0.010138176838225621
900000000.0 0.07740468647804073 -0.055518892658494495
920000000.0 0.021259350967162742 -0.05408291135436293
940000000.0 -0.028066420020573076 -0.025349571826203423
960000000.0 0.0008891997683078749 0.05334998424635619
980000000.0 -0.014087632735423482 0.05990731483722773
1000000000.0 -0.07427245247494675 0.01592788774775746
1020000000.0 -0.040510809655199084 0.08624533232201473
1040000000.0 -0.10976880660011697 -0.03314780864837821
1060000000.0 -0.13316986143293624 -0.0498571463659214
1080000000.0 -0.159613054397481 -0.0824928530377169
1100000000.0 0.028633879615815556 -0.2135032706626518
1120000000.0 -0.24077714361355415 0.06241294718544527
1140000000.0 -0.2629428435695211 -0.05471168403172957
1160000000.0 -0.09113621885274772 0.28549060295034906
1180000000.0 0.24373433097278438 0.21133106262346826
1200000000.0 -0.30115692861460674 -0.1384855505586523
1220000000.0 -0.30132474657867014 -0.19504302181502675
1240000000.0 0.3888829096121723 0.03454961185030091
1260000000.0 -0.40350269711847236 -0.001298418406183328
1280000000.0 0.042046222719609505 0.40231134769535065
1300000000.0 -0.06422257874031045 0.4022507601782394
1320000000.0 0.111737169484039 0.40006886733915636
1340000000.0 0.371289042200579 0.19174432384352486
1360000000.0 0.40560623994135336 -0.07443221174505102
1380000000.0 0.14756314239994375 -0.36936899084908104
1400000000.0 -0.1585826816858214 -0.34454868157443597
1420000000.0 -0.18257306024316133 -0.30855092241864923
1440000000.0 -0.3367552146649242 -0.03219423894377695
1460000000.0 -0.19840300346694206 0.2473058796001139
1480000000.0 -0.005804852687177189 -0.291710312635549
1500000000.0 0.06555433507718687 0.24399410212959116
1520000000.0 0.21904319360502644 0.00724408824648182
1540000000.0 -0.042320457936446565 0.17418431884109567
1560000000.0 0.141462015169753 -0.008528278341340026
1580000000.0 -0.10017425522567125 -0.04640992096957963
1600000000.0 -0.04150504760422826 -0.07119608878391363
1620000000.0 0.018152721302174348 0.06129043948367032
1640000000.0 -0.004839483673558336 0.02981912552279381
1660000000.0 -0.0034971540554307083 -0.004350069710998163
1680000000.0 -0.020971199237598305 0.0005529448194411626
1700000000.0 -0.020829692544822566 0.035349854068526435
1720000000.0 -0.019464119054090456 0.05073279093411701
1740000000.0 -0.06657680041022268 0.012367333554335884
1760000000.0 0.07895087460742324 -0.025738927903753442
1780000000.0 -0.10896359623562259 0.007825033835860576
1800000000.0 0.12096657196848225 -0.08406982692246767
1820000000.0 0.09173595418146553 0.1530990762387376
1840000000.0 0.0030255860151120195 -0.21678302262521382
1860000000.0 0.21064827472363878 -0.15548560177799278
1880000000.0 0.2909561550046748 -0.058141892688161126
1900000000.0 -0.10476362096303306 0.3047289061964162
1920000000.0 0.28847308971727326 -0.193025479683465
1940000000.0 -0.30265352077175417 -0.21964512000359154
1960000000.0 0.11957865057473009 0.37865648274038655
1980000000.0 0.20501892990420542 -0.3564236457988257
2000000000.0 -0.367482472402736 -0.19984999775976556
2020000000.0 -0.4225380308482383 -0.04849198663386597
2040000000.0 -0.1356711320997483 0.4081902882305621
2060000000.0 0.4059384744239131 0.13610856594339182
2080000000.0 0.1396125324627084 -0.3939632820983698
2100000000.0 -0.25761756889060483 -0.3072621307063496
2120000000.0 -0.20577428153446248 -0.32156049105970186
2140000000.0 -0.02478739332363953 -0.366491275473248
2160000000.0 0.3188851133983363 -0.1583769668017879
2180000000.0 0.1327910052307821 -0.30873060297950616
2200000000.0 0.25985856494520654 -0.18243916239022964
2220000000.0 0.142449276703317 0.2768761800767908
2240000000.0 0.2298862989340184 0.225644017970887
2260000000.0 0.14696460185879867 -0.29902672479213466
2280000000.0 -0.3219287919237209 0.11945545733450011
2300000000.0 0.3375373597309174 0.12052260742899133
2320000000.0 -0.09142202271650508 -0.3728069042770363
2340000000.0 0.2252710113805354 0.36258556843385653
2360000000.0 -0.40610603611922486 0.24478880374489623
2380000000.0 -0.32883823259496286 -0.40637895706152166
2400000000.0 0.27288591182923133 -0.5029483453584419
2420000000.0 0.6142105802103213 -0.07538580845423931
2440000000.0 0.25144316537933387 0.6073525628288112
2460000000.0 -0.6856501208501605 -0.014313115685840596
2480000000.0 0.5039821823084477 -0.49437134620190315
2500000000.0 -0.39922383344670276 0.5959575253196666
2520000000.0 0.44297058106606635 -0.5694731518413936
2540000000.0 -0.5860939246675502 0.4139900670573671
2560000000.0 0.706824871159166 -0.03184495350409398
2580000000.0 -0.6282646563314778 -0.28313643450597925
2600000000.0 0.40110795510437613 0.5285856854377473
2620000000.0 0.6234241293867223 0.11604787177711193
2640000000.0 -0.4775213829644694 -0.36105906477986416
2660000000.0 0.05809219487732877 0.558317926245955
2680000000.0 0.2060980792638765 -0.48222124254140164
2700000000.0 -0.3725156592981029 0.3180290275774024
2720000000.0 0.2796886558068212 -0.35748997840838787
2740000000.0 -0.2565878151929852 0.33197822350508405
2760000000.0 0.19497459325911207 -0.34028834730810426
2780000000.0 -0.20533113543706014 0.3086243232470976
2800000000.0 0.2896688889042798 -0.21685924010235855
2820000000.0 -0.20495094467025157 0.2931387796726358
2840000000.0 0.16639296069832937 -0.3154786488627723
2860000000.0 -0.25362859744724703 0.25094576047705297
2880000000.0 0.35830501945757626 0.004737139981303907
2900000000.0 -0.002831312243253949 -0.36201236499776046
2920000000.0 -0.33551263186198105 -0.1476528582854272
2940000000.0 -0.36860286131463044 0.04711230627207642
2960000000.0 -0.3628149311487816 0.0898580914955321
2980000000.0 -0.36106368201215144 -0.09839734644559872
3000000000.0 0.027777030263590217 -0.371063281545584
3020000000.0 0.3674524969434652 0.05116411140097827
3040000000.0 -0.1770094983781494 0.32005978134364305
3060000000.0 -0.03204956330081116 -0.3584344579387524
3080000000.0 0.014558382504832422 0.3493373055791341
3100000000.0 -0.0628904262003008 -0.33430201839552925
3120000000.0 0.23598902801961763 0.23398344511383184
3140000000.0 -0.31618927964937366 0.04107327770696225
3160000000.0 0.29614495651636097 0.024574073856663183
3180000000.0 -0.19505494418493952 0.18681231997894238
3200000000.0 0.09648818616179873 -0.22033149873509078
3220000000.0 -0.15046414001414277 0.14941878094044383
3240000000.0 0.14359884485781121 -0.11763335499873226
3260000000.0 -0.1475864995156768 -0.044795998964664595
3280000000.0 -0.09182486969830568 0.0845587834060717
3300000000.0 -0.09464611539066116 -0.034547268489473294
3320000000.0 0.07206559312518225 0.038469177821905
3340000000.0 0.04101901233094501 0.05717822405065279
3360000000.0 0.03355080170906677 -0.04481935993646726
3380000000.0 0.0006377591670871225 0.03976356149831589
3400000000.0 0.025190096006784995 -0.00940870594251628
3420000000.0 -0.014707030232784373 -0.017265545211542686
3440000000.0 -0.025140120212820298 -0.019201518506664187
3460000000.0 -0.028523805305578947 -0.03415234806726611
3480000000.0 -0.04243599785134053 0.04316140372815032
3500000000.0 0.0599108241978995 -0.041346688854899345
3520000000.0 0.08363649756833576 -0.011465521439496447
3540000000.0 -0.09174555032960248 -0.02449432015000927
3560000000.0 -0.05179581762402348 -0.09532772831128636
3580000000.0 -0.1130372702123538 -0.0415641257001491
3600000000.0 -0.07427743424260848 0.10727620449347541
3620000000.0 -0.05145095354582048 0.1346576114465463
3640000000.0 -0.14174661833720126 0.05212253008693022
3660000000.0 -0.11950114682326098 -0.10219347853326378
3680000000.0 0.1149321458158702 -0.11588729330118
3700000000.0 0.12402783064013384 -0.10607759832228522
3720000000.0 0.12205360432739265 0.10419674677982739
3740000000.0 -0.10783146313349445 -0.11277102459091395
3760000000.0 -0.1397736210237437 0.07610849100246656
3780000000.0 -0.16369173568902812 0.005282275953444844
3800000000.0 -0.14945740691137496 0.07353316005624765
3820000000.0 0.05099729976700174 0.16744834739642286
3840000000.0 -0.031466477800348815 -0.17891474485133238
3860000000.0 -0.011402798373425803 0.18712586962431194
3880000000.0 0.026228634461251815 -0.1956307453697202
3900000000.0 0.20254188606183296 -0.01161617496632705
3920000000.0 0.07810910374167464 0.1947188481629525
3940000000.0 0.053370708572458826 -0.20128776393539588
3960000000.0 -0.20123435992044097 -0.02856130110172319
3980000000.0 -0.18443314780814082 0.0606137731416105
4000000000.0 -0.1506446630302037 0.09644015329926482
