!Created with skrf (http://scikit-rf.org).
# Hz S RI R 50.0 
!freq ReS11 ImS11
400000000.0 -0.595641130890635 -0.6220199400136414
420000000.0 -0.5357980631665257 0.647651023539055
440000000.0 0.13248002247094678 0.7738100591188759
460000000.0 -0.4105597102129114 0.5898727252992105
480000000.0 -0.5732233951776667 -0.3151089589048455
500000000.0 -0.3945800336250557 -0.4479360759246431
520000000.0 0.5152273375628141 -0.06325186891170952
540000000.0 0.05973639714700025 -0.453046128315742
560000000.0 0.3361814408827941 0.26842668760509064
580000000.0 0.29447827897453366 0.2451150964342791
600000000.0 -0.11715905592310481 -0.3319997653384135
620000000.0 0.3033708452410266 0.18033771442915084
640000000.0 -0.03427470968367966 0.42234927505314157
660000000.0 -0.10019569521398897 0.4505302366557247
680000000.0 0.3636802205394472 -0.3074622094070049
700000000.0 0.4463858054553125 -0.1627132283276171
720000000.0 0.18122904341752655 0.4226026223553238
740000000.0 -0.3269243918256083 -0.24205335927151492
760000000.0 0.20585083564573406 -0.26574119609270724
780000000.0 0.03624345670032937 -0.29259304702344635
800000000.0 -0.24646494241466504 -0.06332099411027081
820000000.0 -0.09215423968874614 0.21349463084897646
840000000.0 -0.03280519670711957 -0.20534188493638827
860000000.0 -0.1561417058862896 0.09675685955999491
880000000.0 -0.05195499973226236 -0.14790889212706318
900000000.0 0.07590753023452776 0.10058017919408083
920000000.0 0.002210318812586808 0.08431483153095654
940000000.0 -0.06217171619059462 -0.020187696330299498
960000000.0 0.03892941221256874 -0.04835104279774297
980000000.0 0.04975830271948483 -0.019120691242433128
1000000000.0 -0.023745656758155768 0.056133253672214826
1020000000.0 -0.07315324185529713 0.0351289755701237
1040000000.0 -0.01743602929740246 -0.12012568849441
1060000000.0 0.1201213091701655 0.11385031904353189
1080000000.0 -0.19238138088562584 0.0752724329834679
1100000000.0 0.18468950606338919 -0.1672386877014912
1120000000.0 -0.08222810443506257 0.26903889447958956
1140000000.0 0.3023889544790214 0.05250650098069884
1160000000.0 -0.12538582343022645 0.29787915992885716
1180000000.0 0.33245047171044756 -0.003383803803961503
1200000000.0 -0.14738662094118615 0.2896670160977139
1220000000.0 -0.2865130779891732 -0.1692707670372482
1240000000.0 -0.35831365624375106 0.002392230454434435
1260000000.0 -0.1987110297418799 0.31915816667237185
1280000000.0 -0.011609510309457 0.39318571366096455
1300000000.0 0.12733102629264348 0.39135307075620185
1320000000.0 -0.0083341634553838 -0.4256434659994007
1340000000.0 -0.41409316367989174 0.07507349110680375
1360000000.0 -0.08656208334744586 0.40634422241376994
1380000000.0 0.39034909026754 0.09016272046755101
1400000000.0 0.18013641095003158 -0.33458525284791063
1420000000.0 -0.14861157599234318 -0.31862244513787796
1440000000.0 -0.2435530894948787 -0.22361924928331406
1460000000.0 -0.30488464917868435 0.02113590375547054
1480000000.0 0.27879889905501054 0.06124739139339993
1500000000.0 0.14393757880189836 0.206446505088409
1520000000.0 -0.17762760239588854 -0.11394282483867621
1540000000.0 0.06801720750340563 -0.15155853393141724
1560000000.0 -0.021795823528901272 0.12451486136710044
1580000000.0 0.0692347964009948 -0.06063337348888834
1600000000.0 -0.06056313649087162 -0.019364175583303507
1620000000.0 -0.046904479472306915 0.01278598724484752
1640000000.0 0.028691305013883107 0.011858863405794218
1660000000.0 0.012475063306776156 0.0006993024000437718
1680000000.0 -0.00475595444172147 0.0009087846115292592
1700000000.0 0.008014992134157016 0.008474971285564702
1720000000.0 0.0007726560805859134 0.016011491509189228
1740000000.0 0.03824475404206056 0.0021933591562737723
1760000000.0 -0.05099483154935391 0.04492565416407853
1780000000.0 0.008699937905112339 -0.09916750985700162
1800000000.0 -0.01825906674736276 -0.14350284109657926
1820000000.0 0.18138376027142222 -0.013416794198537127
1840000000.0 -0.038225287488135314 -0.21386206273607017
1860000000.0 -0.24399295848282204 -0.06164333848690819
1880000000.0 -0.2239181638313153 -0.16551681658672232
1900000000.0 0.2910470611735329 0.06493598156033598
1920000000.0 0.1401449453114447 -0.28864014454688103
1940000000.0 -0.13948967033712587 -0.32182812927643784
1960000000.0 -0.17039586945494356 0.3419364352999209
1980000000.0 0.38139795677585586 -0.13925408454292967
2000000000.0 -0.41740477171135554 -0.06379173666355213
2020000000.0 0.14254954858201696 0.40337400619551256
2040000000.0 0.38639439375867846 -0.18585630644586282
2060000000.0 -0.04041692657283929 -0.41804153110842984
2080000000.0 -0.12466028510015136 -0.39315667393582815
2100000000.0 -0.21768541458694415 -0.3392101012339615
2120000000.0 -0.20178778444453271 -0.339738525304906
2140000000.0 -0.3285213825930785 -0.20482668571127766
2160000000.0 -0.03492253875078095 -0.3720537122172673
2180000000.0 -0.25796399215123694 -0.2508165987664706
2200000000.0 -0.3347315151727613 0.07278307707285682
2220000000.0 -0.14668024009962427 -0.2947859317565481
2240000000.0 0.0641923908264034 -0.32518426310117676
2260000000.0 0.09552654725528226 -0.32514561184745394
2280000000.0 -0.2635514683092464 -0.23336451632879723
2300000000.0 -0.3651973009502708 0.0656363532422364
2320000000.0 0.09995418337456519 0.3917984214462325
2340000000.0 0.013922279877869927 -0.4468663918983025
2360000000.0 0.27865455970783515 0.40915394714873304
2380000000.0 -0.5080765711837647 0.19510338929046883
2400000000.0 0.014554380685242695 -0.5907139690100518
2420000000.0 0.5194848844638658 0.36830171139201345
2440000000.0 -0.6090504003457771 0.30227971883921356
2460000000.0 0.160550352871396 -0.6961678479286427
2480000000.0 0.23101482660942385 0.7031543171513435
2500000000.0 -0.2737541754185026 -0.7057954819110285
2520000000.0 0.10997729981488731 0.7565467306748019
2540000000.0 0.23584930661467612 -0.7279056795740134
2560000000.0 -0.6239655914473099 0.43191562492222635
2580000000.0 0.7015826057461543 0.2486725526044169
2600000000.0 -0.3358616794360165 -0.6392983155331726
2620000000.0 -0.19759589488654955 0.6667876524534831
2640000000.0 0.45547612852695624 0.48032807119755616
2660000000.0 -0.31574657546713886 -0.5341058709899452
2680000000.0 0.14379035450834113 0.554637834731434
2700000000.0 0.2312575052171376 -0.4701153226708994
2720000000.0 -0.47897870451741487 0.007162940837277151
2740000000.0 0.1162000415042522 0.42870260187473563
2760000000.0 -0.028800144058605565 -0.4191385547775369
2780000000.0 0.3443267036529169 0.20612038185072823
2800000000.0 0.039898264340152596 0.38146027010712075
2820000000.0 -0.25868084254522805 0.25524205920439763
2840000000.0 -0.10944451460504927 -0.32615876337285027
2860000000.0 0.04200172934721145 0.32997791247010794
2880000000.0 0.3113942483156348 -0.1075031213642583
2900000000.0 -0.06563070273471186 -0.32952617026068404
2920000000.0 -0.2464384188949341 0.2448483013497829
2940000000.0 0.35540561251512826 0.010251722243197632
2960000000.0 -0.23421427634134648 -0.2688504783358547
2980000000.0 -0.3488129243648755 0.009059717479080163
3000000000.0 -0.1752509408759946 -0.293848101132179
3020000000.0 0.3333436563081452 0.037414703899020324
3040000000.0 -0.3324140422759357 -0.02737844018209156
3060000000.0 0.2190547099692782 -0.25183892348144465
3080000000.0 0.07564833263989566 0.32394631536547497
3100000000.0 -0.2333271419506495 0.23402356502303778
3120000000.0 -0.21227911942859426 0.23858756062139064
3140000000.0 -0.25967321062635074 -0.14461988482715873
3160000000.0 0.07830934607079722 -0.2506203530533476
3180000000.0 -0.09635434341830348 0.21223698659084497
3200000000.0 0.05949942429048395 -0.19879541682157342
3220000000.0 0.04717584085620445 0.17721748144354388
3240000000.0 -0.16014611134145645 -0.02308216462573955
3260000000.0 -0.12074934628735981 0.0685683635754843
3280000000.0 -0.012295448966594145 -0.11008426068611284
3300000000.0 0.07456471754795133 -0.03305330375293748
3320000000.0 0.03796771879473591 0.043902869718582496
3340000000.0 -0.040691820693979676 -0.005319635729813999
3360000000.0 0.004060515065846979 0.036563312171045664
3380000000.0 0.03259477827369693 0.022639775832112217
3400000000.0 -0.009054111173239638 -0.04746303384266421
3420000000.0 -0.05826593916353191 -0.023922251192640933
3440000000.0 0.06493799278529128 0.038743833450008855
3460000000.0 0.07338060881613218 -0.049527386229356145
3480000000.0 0.07879382450551352 0.06291616489688066
3500000000.0 -0.018640822489570146 0.11540507493357269
3520000000.0 -0.10445251308400298 0.08581106942166905
3540000000.0 0.05201015212257986 0.1431945081815621
3560000000.0 0.1644237102535394 0.008430360694663184
3580000000.0 -0.015467845984688458 -0.1745793504270806
3600000000.0 -0.18110453559302242 -0.015971875371130727
3620000000.0 -0.17704352068429627 0.03589719447207544
3640000000.0 -0.14918662989274944 -0.10270985352794773
3660000000.0 0.03551369498357502 -0.17383257661529875
3680000000.0 0.12932962865163333 0.11539718052255678
3700000000.0 -0.08442174449799361 0.14677865279840713
3720000000.0 -0.12695118338319067 -0.10402348306328733
3740000000.0 0.054596909399104984 -0.14648648331122446
3760000000.0 -0.1379247134911918 0.04782472172364455
3780000000.0 0.09019004982133233 0.0990207216958799
3800000000.0 0.10812745124413646 0.05294153343569324
3820000000.0 -0.10362835652586044 0.03157477947631679
3840000000.0 -0.10046359426066631 -0.017751298862833276
3860000000.0 -0.060040469358939995 -0.08763941271408393
3880000000.0 0.11746483873165586 0.0041845981674668645
3900000000.0 -0.11042457071474535 -0.06779701275512878
3920000000.0 -0.12549702887548203 -0.05184423767279071
3940000000.0 -0.04527891950610542 0.12798278303758623
3960000000.0 0.08838990622332656 -0.09109616834449843
3980000000.0 -0.10903275837138426 -0.02542429762013116
4000000000.0 -0.08878912805517225 0.024180846828173418
