!Created with skrf (http://scikit-rf.org).
# Hz S RI R 50.0 
!freq ReS11 ImS11
400000000.0 -0.8504870106129194 0.12310006739101584
420000000.0 0.17595431421006308 0.8238611651284167
440000000.0 0.6495148425954506 0.44315070204791973
460000000.0 0.31624255118036837 0.6499405863640739
480000000.0 -0.4510808367032895 0.475519480111612
500000000.0 -0.5557937071843201 0.2253129600227229
520000000.0 0.4865144307471002 -0.1784636297837849
540000000.0 0.23208144806632133 -0.4025222444794607
560000000.0 0.36198422710844846 0.2501571086383994
580000000.0 0.36536368095015126 -0.16908941453630552
600000000.0 0.03247648139799881 0.3603246949266985
620000000.0 -0.3636678740969886 0.04039811774645165
640000000.0 -0.1746733867399169 -0.3687112093987891
660000000.0 0.4139282527685552 0.16572993935441016
680000000.0 -0.439369535411365 -0.11571726728254507
700000000.0 0.3556588374049077 -0.2599961637903115
720000000.0 -0.39885402808313974 0.15164926490763148
740000000.0 -0.1713293495576289 0.3471439308257452
760000000.0 -0.12473740977374284 -0.3251599904096301
780000000.0 -0.0968029501448632 0.2989068645914352
800000000.0 -0.3038734846786082 0.03753580932179751
820000000.0 -0.25158935345632755 -0.09323764430281149
840000000.0 0.08104174687735656 0.19267267374886873
860000000.0 -0.14639707124148782 0.0643727996321194
880000000.0 -0.0743356411332702 -0.08019707109487802
900000000.0 0.042396023480973336 0.06542469971073953
920000000.0 -0.025226852383403848 -0.043194410919820174
940000000.0 0.004635884991974996 -0.05061570128551558
960000000.0 0.03509804206399776 0.04796680650422238
980000000.0 -0.07258137299729808 -0.02732353737738958
1000000000.0 -0.08152005093718064 -0.03375826590174083
1020000000.0 0.09187657371122607 -0.021018013720100825
1040000000.0 -0.0760658564893387 -0.07667000366805851
1060000000.0 -0.14070885244665648 -0.035838687288211234
1080000000.0 0.1527677646316204 0.08009181979214498
1100000000.0 0.1509672093162415 0.13220281980476578
1120000000.0 0.09189320102336156 0.22797284853427868
1140000000.0 0.11465443391317712 -0.26375385176841615
1160000000.0 0.2888334627361878 -0.11135851982467393
1180000000.0 0.26330448970295967 -0.17485145284541326
1200000000.0 -0.26236440244017945 -0.20360293052548845
1220000000.0 -0.18236116565486282 0.3073022067849977
1240000000.0 0.3324911970000737 0.18288910917161527
1260000000.0 -0.07274687866753853 -0.3946274183882978
1280000000.0 -0.38122451850153516 0.15427710515372647
1300000000.0 0.05469767341145048 0.4173324683648483
1320000000.0 0.40782020008492526 -0.0952100311022346
1340000000.0 0.37142661112338327 -0.1725487979734239
1360000000.0 0.4008601282164701 -0.028995410395627016
1380000000.0 0.35884848755406223 0.16659716142544148
1400000000.0 0.23626758781918644 -0.3048285095204564
1420000000.0 -0.2951904934453567 -0.2125301886130689
1440000000.0 -0.23172600590964643 0.24825690196206343
1460000000.0 0.10058414080362253 0.2931965992396609
1480000000.0 0.23965160784890646 -0.15602138216454647
1500000000.0 -0.058224228724175583 0.24568746221369483
1520000000.0 0.21072744925858372 -0.05706605940119884
1540000000.0 -0.054300514533036325 0.17183387689673202
1560000000.0 -0.04532367873937702 -0.13442910723983142
1580000000.0 -0.06049763179907432 0.0889122163998429
1600000000.0 -0.05935446300762418 -0.05165543529005951
1620000000.0 0.06364868759451776 0.006876015909764939
1640000000.0 0.037320463055499804 0.004595317687255027
1660000000.0 -0.004949740029250521 -0.00375106765850767
1680000000.0 -0.023422521644331597 0.009257122535524229
1700000000.0 -0.03302772153213278 -0.03132384635094557
1720000000.0 0.05788952213604356 -0.0018244046420918057
1740000000.0 0.047432506135442594 -0.04931338217392355
1760000000.0 -0.05687981393583344 -0.05435585748478663
1780000000.0 -0.005926626207864746 -0.10413034195955452
1800000000.0 0.045415455681452915 0.14104596437414457
1820000000.0 -0.023851098656661806 0.18546195214524774
1840000000.0 -0.17575561005376175 0.13590067246423448
1860000000.0 -0.18738782463945786 -0.17378128231626952
1880000000.0 0.2885449809153925 0.002836710381666157
1900000000.0 -0.2831150835716682 -0.14843337639487109
1920000000.0 0.32088705915272336 0.15311760271147948
1940000000.0 -0.3788825104304943 0.03817102683297898
1960000000.0 0.3890315684489986 0.06472216415022304
1980000000.0 0.2213144425998733 -0.3371935367261807
2000000000.0 -0.036058881199115565 -0.4145845728395033
2020000000.0 -0.3923885552242096 -0.17618985048247288
2040000000.0 0.10157446068200787 0.4252825696139942
2060000000.0 0.2705290724118115 -0.3284722232732045
2080000000.0 0.0400017799591917 -0.40876386333831605
2100000000.0 -0.010898586460129771 -0.3985623336778557
2120000000.0 -0.21885261843463072 -0.3223252042389995
2140000000.0 -0.37181335128218934 -0.01474645814869993
2160000000.0 0.008198327736379234 -0.35155870565632497
2180000000.0 0.17683959008457628 -0.28193865202476165
2200000000.0 0.3226536083495849 -0.010448249646872727
2220000000.0 0.2556135917679053 0.19483241028736506
2240000000.0 0.2692693869235685 -0.18592432333540948
2260000000.0 -0.15341788944249465 -0.293073095791062
2280000000.0 -0.34135494797304367 0.05151331353118316
2300000000.0 0.3257326881218191 0.16610447031546058
2320000000.0 -0.26309315637208824 -0.2930536369977346
2340000000.0 0.41602755652920154 0.12000838765610003
2360000000.0 -0.2908031051513987 0.3776575803788877
2380000000.0 -0.42822592655588554 -0.3058404391193172
2400000000.0 0.24466068618613876 -0.5199752298069676
2420000000.0 0.6199661597942293 0.006647557656730275
2440000000.0 0.13490014666490824 0.643076457556796
2460000000.0 -0.6848916085892465 -0.011585032935499427
2480000000.0 0.47640260827724545 -0.5200701315913927
2500000000.0 -0.2530496096349363 0.6696066739867312
2520000000.0 0.2856195440432251 -0.6609558588269802
2540000000.0 -0.46590248812874646 0.5446269052575515
2560000000.0 0.6935740463802783 -0.13252583349184646
2580000000.0 -0.5826312320291474 -0.3654592977953382
2600000000.0 0.21407744700743847 0.6277347636929602
2620000000.0 0.5573858075496125 0.30165493047540615
2640000000.0 -0.2255177674601583 -0.5555253535935972
2660000000.0 -0.13187067965656343 0.5463908567464578
2680000000.0 0.23653278655578178 -0.466620236212996
2700000000.0 -0.37554058264923995 0.3060340873079776
2720000000.0 0.39677565401220566 -0.2064681891284323
2740000000.0 -0.41264610527712203 0.03737556793463091
2760000000.0 0.3887669745283545 -0.01840634466005065
2780000000.0 -0.36375660369017726 0.06736327567562146
2800000000.0 0.3218622702863189 -0.16021870067018454
2820000000.0 -0.10900855719067963 0.33332105184449096
2840000000.0 0.05762547218656512 -0.34024524547947743
2860000000.0 -0.24415845899033323 0.24146356062234825
2880000000.0 0.23392387020643923 0.25923971983991373
2900000000.0 0.21258342712058717 -0.2871447609145373
2920000000.0 -0.3459494987482826 -0.12168070430553558
2940000000.0 -0.04933857550964525 0.36561427560071075
2960000000.0 0.1329028511182828 0.3380582576825272
2980000000.0 -0.34342111661870617 0.10711745657984385
3000000000.0 0.17721167070622668 -0.3179544638517148
3020000000.0 0.33907804302443945 0.14109585297011312
3040000000.0 -0.16874101475661005 0.32256427324944115
3060000000.0 -0.2926378614812387 -0.20820453809096504
3080000000.0 0.34421243846248856 -0.026259118721452434
3100000000.0 -0.2908346780668651 -0.15805642583643548
3120000000.0 0.226730156204191 0.2251256019978023
3140000000.0 -0.2903709426357421 -0.11063217412133552
3160000000.0 0.18493580413244237 0.2318302305129796
3180000000.0 0.02575359046177101 0.27327229016611904
3200000000.0 -0.1738412801029801 0.16633010552349584
3220000000.0 0.07878322780772883 -0.18483154294140947
3240000000.0 0.07025095057738447 -0.15609037593857472
3260000000.0 0.012000387915370812 -0.14454732460955974
3280000000.0 0.005826245006795004 -0.12293263386520867
3300000000.0 -0.0007035037028311334 0.10334735719758967
3320000000.0 -0.06914575990510695 -0.03953169862087779
3340000000.0 0.05259831668525799 -0.01761580041040693
3360000000.0 0.015028153734550478 -0.03236234915238055
3380000000.0 -0.02212737600260143 -0.018915447960295276
3400000000.0 0.02495520081188429 0.010192505676129034
3420000000.0 0.010300415808004787 0.02631493072879574
3440000000.0 -0.0330942704293144 0.01612919666272389
3460000000.0 -0.0340280085091246 0.03206842838252551
3480000000.0 0.048857380889155054 0.028482595377786357
3500000000.0 0.05686970756055174 0.03621407246560452
3520000000.0 -0.012957019990528994 0.0820108717271753
3540000000.0 0.03906606720986314 0.09307761672723432
3560000000.0 -0.08182953892674856 -0.08519342800679242
3580000000.0 0.09583441314833094 0.08383950568807887
3600000000.0 0.12851429484325466 -0.02693457711277988
3620000000.0 -0.09474833745560515 0.09727427163465019
3640000000.0 0.004260926407177417 -0.14425883712719312
3660000000.0 0.15177170291268804 0.01625026238873601
3680000000.0 0.10164743140436722 0.1236637107363528
3700000000.0 0.12095989107931313 0.10620803188209427
3720000000.0 -0.05290500503685913 0.14560812507906978
3740000000.0 0.021970606567817203 -0.14377665126941605
3760000000.0 -0.032591147313543296 0.13931778631151306
3780000000.0 -0.09477984551366944 -0.11606747076285169
3800000000.0 -0.12783971492582002 -0.09141392670468548
3820000000.0 0.1107424712588139 0.12116884810291889
3840000000.0 0.030578453156005943 -0.16320675273909938
3860000000.0 -0.16717088075343922 -0.03680803033876178
3880000000.0 0.06345930066130567 0.172418400052957
3900000000.0 -0.1878912634377321 0.05598994706844209
3920000000.0 -0.05924806640839315 0.19423163796590792
3940000000.0 0.19577846333467913 0.047368749545604286
3960000000.0 0.11614242316689836 -0.15239526143724988
3980000000.0 0.15188769256704432 -0.09466262337561705
4000000000.0 0.1405326471380439 -0.08957375513178623
