!Created with skrf (http://scikit-rf.org).
# Hz S RI R 50.0 
!freq ReS11 ImS11
400000000.0 -0.3386137658127397 -0.8538560571940944
420000000.0 0.055496448843925336 0.9132202357431515
440000000.0 0.7890017402326759 -0.42816054096916595
460000000.0 -0.5321065932203259 -0.6714111011628299
480000000.0 -0.7852756956605899 -0.19670030211273906
500000000.0 0.24817941904704452 0.7486166319402924
520000000.0 -0.40961097988125733 0.6220173996183288
540000000.0 -0.7042763040912288 0.17672409219878418
560000000.0 -0.3536163899802965 0.5787076522901297
580000000.0 -0.5581121707562199 -0.01088652488266775
600000000.0 -0.4999935090943122 0.07704200843028429
620000000.0 -0.47578461441703324 0.2567731933338921
640000000.0 -0.20991142177689986 -0.5174708525760395
660000000.0 0.1813937608071834 0.5248834733103487
680000000.0 -0.5215655254127388 0.12568449213775848
700000000.0 -0.21264766573141775 0.5007868224147517
720000000.0 0.5507990645268054 -0.04123730319920505
740000000.0 -0.10452571917996308 -0.5445034639639214
760000000.0 -0.02319797834290356 0.531317606020892
780000000.0 0.49179703116608753 0.09154729300139354
800000000.0 -0.4109057497839733 0.21218958812790742
820000000.0 -0.01923806574827517 -0.40992459841387296
840000000.0 0.15854316610996783 -0.3054227061221182
860000000.0 -0.12983485193601405 0.24217276115513253
880000000.0 0.23065678116620275 -0.007831757329057651
900000000.0 0.1650381428922441 -0.08037997219090945
920000000.0 0.13543622763257276 0.03801218667714198
940000000.0 0.01696087627702692 -0.1274057665029257
960000000.0 -0.10912064189255502 0.08364150513653396
980000000.0 -0.029564017894575446 0.12982875884476586
1000000000.0 -0.013218973725267648 0.1451946317376764
1020000000.0 0.13886611838296586 -0.034796004298024936
1040000000.0 -0.10262450594943141 0.10705575865561553
1060000000.0 0.13173554728801998 0.07958155154323131
1080000000.0 0.12661489946934718 0.1051953627264881
1100000000.0 -0.1351322001165183 -0.1367420141521707
1120000000.0 0.1632278911010839 -0.14939657420568123
1140000000.0 -0.20424388255509515 0.14046659298292147
1160000000.0 0.17433379048092965 0.2311441682264806
1180000000.0 -0.022876493840840968 -0.3233390328688185
1200000000.0 0.006111958636703043 -0.3501520854974077
1220000000.0 0.35976487055793077 0.10404691989256802
1240000000.0 -0.37402556066761034 0.1264242241394228
1260000000.0 0.39577609631825084 -0.09191388191290312
1280000000.0 -0.257334460421922 -0.3253811925219889
1300000000.0 -0.3810383160617616 0.153786152807002
1320000000.0 -0.08502474327184821 -0.4047324805077915
1340000000.0 0.13616612886784663 -0.40566399963633853
1360000000.0 0.10355500330158185 -0.4260303420447724
1380000000.0 -0.3777647223610821 -0.22813269579216602
1400000000.0 -0.2990533325511107 0.31120450292700325
1420000000.0 -0.03816990959085704 0.41444678527933315
1440000000.0 0.2180412710838561 0.3367351970197941
1460000000.0 0.3829966281053973 0.003083379820052235
1480000000.0 0.3380417131210496 -0.12809582722709809
1500000000.0 -0.2518209495912751 -0.2412506267981008
1520000000.0 0.3190610463587257 -0.09998406183407638
1540000000.0 0.02118598289454938 0.30242907395917845
1560000000.0 0.14345645738630902 0.2181564918309431
1580000000.0 -0.05935638977207557 0.20202788676582048
1600000000.0 -0.09728004147328612 -0.1398777747028443
1620000000.0 0.11358658132859684 -0.062425694365867715
1640000000.0 0.06661274897228943 0.06905862828346028
1660000000.0 -0.05369458056372382 0.029526864133969204
1680000000.0 0.03708213128046352 0.001993175894317231
1700000000.0 0.017310176999497325 0.014050425415612808
1720000000.0 0.03765770654648244 0.00759951280214816
1740000000.0 -0.032151989119807746 -0.058025472638970156
1760000000.0 -0.013682272029416678 -0.09172715785769563
1780000000.0 0.11925407958825744 -0.015636092557062508
1800000000.0 -0.1527622009315326 0.028734413154688776
1820000000.0 0.12876752946168626 -0.14049444870012007
1840000000.0 -0.020950813043449323 0.22012219949006673
1860000000.0 0.07905037675646151 -0.23998409024803063
1880000000.0 -0.11897163664844054 0.2630831977619727
1900000000.0 0.11666061130555652 -0.2977747574835812
1920000000.0 -0.19039469219890834 0.2835455078500825
1940000000.0 0.013641983447017673 0.3614715288000915
1960000000.0 0.35264813317840205 0.16491719579618797
1980000000.0 0.0226417188412323 -0.4113419284544157
2000000000.0 -0.41672706308196256 0.08467405227517885
2020000000.0 -0.01755298877802409 0.4328193483711149
2040000000.0 0.4320718533576338 0.06388151707764667
2060000000.0 0.040504665145718835 -0.4301001348128646
2080000000.0 -0.3992710396393764 -0.12813659791943327
2100000000.0 -0.39130979356460155 -0.06572502177105835
2120000000.0 -0.07994573482419841 -0.3735414892437269
2140000000.0 0.06382639397959737 -0.36418935722350093
2160000000.0 0.2946088980711422 0.1916962357838394
2180000000.0 -0.028412326028422835 0.33445419841205426
2200000000.0 -0.20168511300619482 0.2602774079682001
2220000000.0 -0.24051155459157894 0.21583248146185877
2240000000.0 -0.17046226444735563 0.27682216991326253
2260000000.0 0.0633093423999027 0.33169945856929584
2280000000.0 0.22243911215833292 -0.2759856976413933
2300000000.0 0.005838414198573308 0.3742982630895568
2320000000.0 -0.1772194239781991 -0.3588418199764715
2340000000.0 0.3212380148699938 0.29450707924635877
2360000000.0 -0.4510808231196003 0.16053052605382043
2380000000.0 -0.11849749835964088 -0.5126550291912519
2400000000.0 0.5732174115910627 0.008167605692370905
2420000000.0 -0.10452569305126552 0.6110067058844099
2440000000.0 -0.543706309832135 -0.3765884769210833
2460000000.0 0.6661225475693491 -0.2021605684030329
2480000000.0 -0.4598184189180005 0.5580123209957467
2500000000.0 0.49825804953233127 -0.5481267085562644
2520000000.0 -0.6122913734689713 0.43552666125684997
2540000000.0 0.746280687360067 -0.10899384800282526
2560000000.0 -0.6603451677516469 -0.35979823428375735
2580000000.0 0.25264199779607893 0.6973698362652409
2600000000.0 0.22007737044065862 -0.6898272086271667
2620000000.0 -0.5216443885622429 0.4675955021148661
2640000000.0 0.15042588705499438 0.6534542385420742
2660000000.0 0.04055251681387089 -0.634353384274785
2680000000.0 -0.02423700123485843 0.598800357448563
2700000000.0 -0.16452735313284675 -0.5371868924620363
2720000000.0 0.41170872259649605 0.32000142241167934
2740000000.0 -0.47810887256081813 -0.07098975930759431
2760000000.0 0.34106950840763633 -0.29050550049587237
2780000000.0 -0.15032945731810832 0.38871531724872255
2800000000.0 0.22199005790148543 -0.32334387706182544
2820000000.0 -0.3558107122972938 0.1230438326868849
2840000000.0 0.30395117841778063 0.20998689176512497
2860000000.0 -0.015579510627632439 -0.3659534726865664
2880000000.0 -0.3532473971136375 0.0855977797714284
2900000000.0 -0.14987254673997108 0.3304509418044788
2920000000.0 -0.03138410881573047 0.3628194911716845
2940000000.0 -0.1728983786911384 0.32117872017502697
2960000000.0 -0.3567258583369219 -0.07190595671756318
2980000000.0 0.36672555951510766 -0.014992768515624933
3000000000.0 -0.3040901244392577 0.22654690065955158
3020000000.0 -0.09944972793158546 -0.37490465652928145
3040000000.0 0.3723186122767906 -0.12081337729667542
3060000000.0 -0.06543401278423792 0.3844250277898711
3080000000.0 -0.27159465522731574 -0.27532555287390187
3100000000.0 0.3427290863464343 -0.15757226491403944
3120000000.0 -0.2299839978218269 0.2819352933017512
3140000000.0 0.05119230797812745 -0.34804019111194245
3160000000.0 0.11095424963658558 0.3182900785151766
3180000000.0 -0.10523355327856838 -0.30463352985891595
3200000000.0 0.17414358031576993 -0.23733460852086613
3220000000.0 0.19595782458612612 0.17357573321370134
3240000000.0 -0.2224427912444051 0.05677261769894282
3260000000.0 0.02146288671418361 -0.19220649305696666
3280000000.0 -0.12980811059405276 0.08654770910278098
3300000000.0 -0.08020283329521169 0.09431601123132846
3320000000.0 -0.10133125062875353 -0.0028238833093989627
3340000000.0 0.02473661092700724 0.07574183480637424
3360000000.0 0.050711510209689274 -0.030717643334823148
3380000000.0 -0.0017403311847368954 -0.04067301878108178
3400000000.0 0.010377896196004516 0.024256345111844914
3420000000.0 0.004332831590137024 0.014435610502714392
3440000000.0 -0.008624835353518363 -0.0023352885648730694
3460000000.0 -0.004776954637922652 -0.010389984056554254
3480000000.0 -0.006380474829037162 0.016380242000845608
3500000000.0 -0.0182958037093348 -0.019756711227635684
3520000000.0 0.0060266876747542275 -0.03679121427618842
3540000000.0 0.0532642539884508 0.011962602671187504
3560000000.0 -0.037106859918058274 -0.0632403652525858
3580000000.0 0.01583197103095814 0.0863103757054572
3600000000.0 0.0996724415014238 0.01602431889288691
3620000000.0 0.10504938734860594 -0.03863392678584656
3640000000.0 0.06442667228923593 -0.10037224841398061
3660000000.0 0.046251370797117705 0.11200860034491573
3680000000.0 0.12328022516225531 -0.024157131816856376
3700000000.0 -0.11655174989956206 -0.056401680418483334
3720000000.0 0.11128066689777809 0.07676604018433829
3740000000.0 -0.07876298631871297 -0.11286141144777524
3760000000.0 -0.07136836013514136 -0.12519620164825498
3780000000.0 0.012749933480572745 -0.1534649383440494
3800000000.0 -0.16609631515904302 0.0047337847771615075
3820000000.0 0.12923504606439074 0.12800170047946519
3840000000.0 -0.15570587372318984 -0.12170524680759427
3860000000.0 0.18341592851413296 -0.10726676718052007
3880000000.0 0.1421958638892327 0.18057956112968754
3900000000.0 -0.002107224757869717 0.24572561984490074
3920000000.0 0.22023965618461455 0.1318166802645521
3940000000.0 0.23946965556214553 -0.10943284905760817
3960000000.0 0.005447815197193745 -0.2664761836710894
3980000000.0 -0.2631800677079486 0.018102038680167028
4000000000.0 0.15914493665011084 0.20356418954235023
