!Created with skrf (http://scikit-rf.org).
# Hz S RI R 50.0 
!freq ReS11 ImS11
400000000.0 -0.5622485554624845 -0.7234163492059226
420000000.0 0.2269758450041113 0.8840893502509313
440000000.0 0.7245299483549257 -0.5279354683648531
460000000.0 -0.5740927126494986 -0.6342504394351619
480000000.0 -0.7781962289988342 -0.22072433491232699
500000000.0 0.21478528379216666 0.7584055913979
520000000.0 -0.4730183466839834 0.5742818452373923
540000000.0 -0.7124538352288019 0.10914656882253439
560000000.0 -0.6236533040963742 0.24689149982478723
580000000.0 -0.37806951840858405 -0.4106621695631369
600000000.0 -0.49042938116403234 -0.12253508314013933
620000000.0 -0.5365677046646541 0.035070168722852534
640000000.0 0.01633492374472129 -0.5560720019349173
660000000.0 -0.02308031139108792 0.5534516388219739
680000000.0 -0.5355997863516135 0.015019671679961637
700000000.0 -0.29922011300464785 0.45188955900275407
720000000.0 0.5487156744341519 0.0004477603349931751
740000000.0 -0.002293791197194744 -0.5508745302221313
760000000.0 -0.08428557934088067 0.5204601653329503
780000000.0 0.48364261065415065 0.10916508602428217
800000000.0 -0.42063525651599426 0.18344156730719074
820000000.0 -0.11595728165289597 -0.3903742565756649
840000000.0 0.03322147579200669 -0.3400253290613238
860000000.0 0.025238423815894886 0.2721321640099155
880000000.0 0.2059478658575401 -0.10454529816183933
900000000.0 0.16909437299208632 -0.07362735142594444
920000000.0 0.10603390545814326 0.09644158292986207
940000000.0 0.1281422733383886 0.03426760830788076
960000000.0 0.024737016740846822 -0.13979620177403787
980000000.0 0.007990345614592345 -0.13918973883548222
1000000000.0 -0.14288207828843463 -0.03890491672615301
1020000000.0 0.026453873402604938 0.13947157747593686
1040000000.0 -0.12943379599294816 -0.06256621438055596
1060000000.0 0.06169095680479508 0.13506364429725515
1080000000.0 0.1182336627120729 0.10483946360003353
1100000000.0 -0.14968399620500777 -0.11012473216248128
1120000000.0 0.07318823563405825 -0.20142527073749256
1140000000.0 -0.0470681191639403 0.23780703424923091
1160000000.0 0.2749919206984532 -0.07273803931754752
1180000000.0 -0.26355514150171505 -0.17979989786881856
1200000000.0 -0.24539532664158412 -0.2443054153061437
1220000000.0 0.34287806760031664 -0.14186536595014845
1240000000.0 -0.2487914431717439 0.30295734996723206
1260000000.0 0.30722395277265385 -0.26262511346010325
1280000000.0 -0.3680581883271278 -0.18804781290268388
1300000000.0 -0.33639980480880516 0.23535259746243206
1320000000.0 -0.1717294487102578 -0.37681270445782
1340000000.0 0.012154980084357593 -0.4284375936221989
1360000000.0 -0.028049730037560842 -0.43784951815647366
1380000000.0 -0.4249213506929099 -0.11941329618265074
1400000000.0 -0.2277599068130792 0.36642219983086205
1420000000.0 0.004074906712627865 0.4157981089474817
1440000000.0 0.22765015738825103 0.3311947663542842
1460000000.0 0.38276178294041807 -0.027532081395062226
1480000000.0 0.3218872370008813 -0.16807523213784323
1500000000.0 -0.3090555919190974 -0.16437162762907379
1520000000.0 0.2651486671501871 -0.20564533710784774
1540000000.0 0.19635430181649288 0.23133647551238856
1560000000.0 0.21087953180755747 0.1569123542659247
1580000000.0 0.09985186962181725 0.18755789077039278
1600000000.0 -0.17108879448646097 0.02148423081496832
1620000000.0 -0.048248776318098964 -0.12294940773542674
1640000000.0 0.05475067006987792 -0.0822049164767046
1660000000.0 0.06440914006667474 0.00035882419895857866
1680000000.0 0.023032363038357557 -0.031978751529091375
1700000000.0 -0.019716059246747082 -0.0061661175968095155
1720000000.0 -0.01886980924722253 -0.02976633175835483
1740000000.0 -0.058998666709471896 0.02311163327931261
1760000000.0 -0.067414593793708 -0.05886890083568626
1780000000.0 0.10937713009268774 -0.04273471986228718
1800000000.0 -0.1452616717758603 0.048451468591321566
1820000000.0 0.15884077839048183 -0.10014238003089472
1840000000.0 -0.1072990816389147 0.18990715400758085
1860000000.0 0.20596791364280082 -0.14237191587211076
1880000000.0 -0.2536143572903615 0.13425106146089325
1900000000.0 0.29497104755611264 -0.11674351951832394
1920000000.0 -0.33838211613784763 0.025031695460712315
1940000000.0 -0.2888691468548224 0.21414766043455488
1960000000.0 0.07443432823278313 0.3799885839046156
1980000000.0 0.33381529344389504 -0.23677546482636055
2000000000.0 -0.3407796771631836 -0.24884405250848465
2020000000.0 -0.35512395211384246 0.24173616133262707
2040000000.0 0.22633980394757283 0.3687227983280992
2060000000.0 0.3778421659842164 -0.19970985824822055
2080000000.0 -0.18343217656322472 -0.3701930918647862
2100000000.0 -0.2387119068548954 -0.3097966883891709
2120000000.0 0.14990356227566862 -0.34350192973911
2140000000.0 0.2405608915505474 -0.27160677353147794
2160000000.0 0.16999850615308118 0.2995542678678046
2180000000.0 -0.09933350905798208 0.3119774007447978
2200000000.0 -0.24840693021177282 0.19989157275872
2220000000.0 -0.2515877547473602 0.1819274984926357
2240000000.0 -0.2456605663444186 0.1912265886046494
2260000000.0 -0.11035091348927223 0.3030713057029318
2280000000.0 0.3183389331376644 -0.1142151963709483
2300000000.0 -0.16105873180214036 0.31703895065077214
2320000000.0 0.05145183691850315 -0.37563113070365695
2340000000.0 0.045004413084456775 0.4097150648315582
2360000000.0 -0.3947837893141497 -0.22294383090107595
2380000000.0 0.3418370856406634 -0.36306367505301596
2400000000.0 0.21649781777876853 0.5000594261681419
2420000000.0 -0.5874276575622892 0.06694849820278079
2440000000.0 0.25433725263437224 -0.5795329576041174
2460000000.0 0.2299459315815584 0.6281617564958016
2480000000.0 -0.5135820966565344 -0.4727979890349187
2500000000.0 0.5494098753861599 0.46153998654871004
2520000000.0 -0.42494570267976806 -0.5939000151882087
2540000000.0 0.0988233798351355 0.7292035951397347
2560000000.0 0.3698940074394473 -0.6361657167299715
2580000000.0 -0.7134898620689725 0.14248207595916806
2600000000.0 0.655250023440707 0.27801556260028193
2620000000.0 -0.4286755654909762 -0.541948709739657
2640000000.0 -0.6539619516185378 0.11331886663757912
2660000000.0 0.6257146501731592 0.07977822539333779
2680000000.0 -0.5963036048103916 -0.01147710860570387
2700000000.0 0.5212963098630368 -0.20477666848429182
2720000000.0 -0.20825927926094578 0.4776083131821251
2740000000.0 -0.11084293439161262 -0.4715050278430009
2760000000.0 0.4074273078324704 0.1904362753517348
2780000000.0 -0.41628747835424235 0.04751774835495409
2800000000.0 0.3915915610175432 -0.04646002830166551
2820000000.0 -0.35702219145425507 -0.12520935690587362
2840000000.0 0.14121390179256663 0.3426103891979412
2860000000.0 0.1297724574391525 -0.3431846439820425
2880000000.0 -0.36421086219341137 -0.008076226947677725
2900000000.0 -0.22114877253762494 0.28877123255925674
2920000000.0 -0.09574600873460504 0.3520952695921648
2940000000.0 -0.19159825087780477 0.31127881612964486
2960000000.0 -0.36463802776015464 -0.013189544746060274
2980000000.0 0.34881466890358126 -0.1139782954051197
3000000000.0 -0.24969060758590667 0.28263987030809457
3020000000.0 -0.18386870435706154 -0.33964952115742303
3040000000.0 0.35899361195482316 -0.15288846354963703
3060000000.0 0.05145896954178515 0.3857628831502186
3080000000.0 -0.341740108715869 -0.1816342843482981
3100000000.0 0.2828565611121857 -0.2515095835596285
3120000000.0 -0.1538984373756538 0.33082525397406204
3140000000.0 -0.005177034934073782 -0.35286703143771975
3160000000.0 0.1600975755788622 0.2996241000042251
3180000000.0 -0.13869210823358158 -0.29366113488025025
3200000000.0 0.11232964913298071 -0.27465400996634903
3220000000.0 0.22941264387607777 0.13233158051061833
3240000000.0 -0.19072195462343028 0.13454406786397455
3260000000.0 -0.08709980608398166 -0.17756161065114828
3280000000.0 0.06565506085795109 0.14645389229584627
3300000000.0 0.1272054457007034 0.015885588053615753
3320000000.0 0.10500493015007209 -0.010263579624210699
3340000000.0 -0.03303338088817073 0.07703386861276806
3360000000.0 -0.06261228109147858 0.006934344710610794
3380000000.0 -0.0436593703243803 0.008907217338373455
3400000000.0 0.029773179542539788 0.006064183368497874
3420000000.0 0.004556089467346834 -0.020893253472607197
3440000000.0 0.013918320086819536 -0.015089700436141976
3460000000.0 -0.017966809174436382 -0.020433896701929688
3480000000.0 -0.018758724479118576 -0.029378753755050876
3500000000.0 0.02846884741125209 -0.035382655724596694
3520000000.0 -0.04981700409837205 -0.02443091992468794
3540000000.0 0.05505499685521809 -0.04791906339474123
3560000000.0 -0.0045999774746147085 -0.09197180548215493
3580000000.0 -0.09326504149810746 0.052286288058162204
3600000000.0 0.039196168127741904 0.11432274137269419
3620000000.0 0.10833116216228734 0.07636642007509857
3640000000.0 0.09596580499826142 -0.10293024004473633
3660000000.0 0.1337595188784259 -0.04519104487359839
3680000000.0 -0.10634652469117631 0.0936817230698409
3700000000.0 -0.014771729334356457 -0.14256676489082945
3720000000.0 0.10140751685001895 0.10215201245304444
3740000000.0 -0.1316790927306899 -0.05496673715094342
3760000000.0 -0.1362033083508801 0.037737475855597155
3780000000.0 -0.08259105433271871 -0.11460141496677946
3800000000.0 -0.04649696477621003 -0.1384015796653237
3820000000.0 -0.06390749384056262 -0.14145501506511785
3840000000.0 -0.1650542364197041 -0.010590281487953745
3860000000.0 0.07896106137503922 0.15944744272967348
3880000000.0 -0.032752788460588496 -0.19034779829187778
3900000000.0 0.1922197670215363 0.08048800427992106
3920000000.0 0.1894783004830755 0.11217648070703891
3940000000.0 0.21829767811688977 0.059493176938997604
3960000000.0 0.216481003745548 -0.07626432148601961
3980000000.0 -0.0010243187142953492 -0.22964222819296437
4000000000.0 -0.2187624790554118 0.05268756060800635
