!Created with skrf (http://scikit-rf.org).
# Hz S RI R 50.0 
!freq ReS11 ImS11
400000000.0 -0.7031765814961207 -0.5319767287235265
420000000.0 0.35457915523270045 -0.7476894707033263
440000000.0 0.6797723324574099 -0.38079002638926707
460000000.0 -0.3484820177436067 0.6468913830448023
480000000.0 0.6619736902595753 -0.18981611758446418
500000000.0 0.16919652278855576 0.5795331809546206
520000000.0 0.33532429177141454 -0.3527676928236276
540000000.0 0.06275975624592998 -0.4054135203345094
560000000.0 -0.2455340373124064 -0.18469782628932402
580000000.0 -0.2880686499392328 0.09158533988678215
600000000.0 0.2068131068561672 -0.2372122106394142
620000000.0 0.31272799429112713 0.05864886555377501
640000000.0 0.33330534575914345 -0.17828303898923176
660000000.0 -0.37662642930217205 0.10488441534000911
680000000.0 -0.32723322078789596 0.15241367150091806
700000000.0 -0.1547377693706964 0.30443975979070287
720000000.0 -0.13133952794717843 -0.3048693674270068
740000000.0 0.27225192844020735 -0.1638114218431014
760000000.0 -0.018899388515295507 0.26442040561628904
780000000.0 -0.08105771977275317 -0.2730707911712084
800000000.0 0.18525914987460607 -0.20475750058836945
820000000.0 -0.16917816587291587 -0.17357296871040578
840000000.0 -0.21050343222110976 -0.055947180768365655
860000000.0 0.1935834499528546 -0.05466429978895532
880000000.0 0.04471462641573015 -0.17593328442432543
900000000.0 0.10858679377106986 -0.08592381114264208
920000000.0 0.09879218890039455 0.045050327358130006
940000000.0 0.07747147315549596 -0.08212253001916207
960000000.0 0.07597825355304068 -0.027005979535155083
980000000.0 -0.04101562356571618 0.0067170966803338315
1000000000.0 0.004020988799122704 0.027767679208781006
1020000000.0 -0.02516508575637138 0.04660336126519687
1040000000.0 -0.08044956604273978 0.011519322006504504
1060000000.0 -0.03461678856822512 0.11518468998197813
1080000000.0 0.11313488222796085 -0.10686032796346495
1100000000.0 -0.1463398481742338 0.10483931737746241
1120000000.0 0.014245145781545353 0.18727580776065444
1140000000.0 -0.022310317471493337 -0.2225385831045903
1160000000.0 -0.15838847447747154 0.18962771492009417
1180000000.0 0.23888002139036535 -0.1504957675927906
1200000000.0 0.1282591245466442 0.28615578241415723
1220000000.0 0.12309709579855316 0.3156910407634091
1240000000.0 0.2372724105928384 0.25799432113180065
1260000000.0 0.36405697264266434 -0.01165522723948419
1280000000.0 0.2947551635755747 -0.21756575204178027
1300000000.0 -0.368421196152306 0.06401243126472386
1320000000.0 -0.24176353971858452 -0.27529863430758644
1340000000.0 0.3594504671650772 0.0893546307192027
1360000000.0 0.008260375227584753 0.36926322685605395
1380000000.0 0.3533093093814924 -0.0733354335990161
1400000000.0 -0.017505020134422896 -0.3631714795925328
1420000000.0 -0.33201326102501144 -0.15632852728113814
1440000000.0 -0.32033490700438355 0.16862511609306408
1460000000.0 -0.14359693104827062 0.33049620739718255
1480000000.0 0.3327899959980401 0.12447504823688
1500000000.0 -0.20570559096028562 -0.26921075657142635
1520000000.0 0.029605871553927875 0.3267625025974171
1540000000.0 0.0933872644045104 -0.2917046879705516
1560000000.0 -0.07880270779081916 -0.26625449062525025
1580000000.0 -0.23174649415524265 0.06108280481750776
1600000000.0 -0.008487221288125119 0.1953686331285564
1620000000.0 0.12654460995095687 -0.08030790106766565
1640000000.0 -0.04740607675952093 0.09867533755666372
1660000000.0 -0.04816727814255906 -0.059985284817550374
1680000000.0 -0.045446110990529996 -0.029512064380218816
1700000000.0 0.022092259396593206 -0.0415433848280188
1720000000.0 -0.02995845389186224 -0.03623699932654144
1740000000.0 0.060354349808525984 -0.03414405630214091
1760000000.0 0.008615167853301898 0.09005691019134783
1780000000.0 -0.06714447295693007 -0.0902047112086015
1800000000.0 -0.13029800829057167 -0.046702132097055926
1820000000.0 0.059239721585595456 -0.1421495852323125
1840000000.0 -0.12840311732895485 -0.11132058810475615
1860000000.0 -0.1366149744613534 0.14798509139166882
1880000000.0 -0.23059490691800988 -0.010932014606716039
1900000000.0 -0.20176065349908714 0.16740486398833473
1920000000.0 0.2811142819665251 -0.08679624696467571
1940000000.0 0.30064347151799936 0.09173356729698366
1960000000.0 -0.17386312954490174 0.2681194976150226
1980000000.0 -0.2845444532048898 0.14988768444077322
2000000000.0 -0.317712354377958 0.03305941995179489
2020000000.0 -0.19404915767433054 -0.24207602953575447
2040000000.0 0.2796522848576342 -0.11834942779878121
2060000000.0 0.2449203775602905 0.17859957410292684
2080000000.0 -0.10726344656001553 0.2792455901763869
2100000000.0 0.13540745027375659 0.2675156390507229
2120000000.0 -0.30290740439308117 -0.009498630251005901
2140000000.0 0.2982424058182327 -0.046937006083165984
2160000000.0 -0.15638969216906123 -0.2497973228516603
2180000000.0 -0.28999984513003496 0.04633876662202001
2200000000.0 -0.24145847229359899 0.16126518205018037
2220000000.0 -0.034673754797269224 0.2835723236625166
2240000000.0 -0.14632930381680342 0.23673328535748997
2260000000.0 -0.2149321544547678 0.15595503957117907
2280000000.0 -0.19472899004200103 -0.1540173077330774
2300000000.0 -0.004887918841049447 0.2320955447659842
2320000000.0 0.22970655629401157 -0.03299837605120951
2340000000.0 -0.21281751224119802 0.10191094251519556
2360000000.0 -0.15986989561419143 -0.17528432413403716
2380000000.0 0.21829844040679944 -0.1054697301332749
2400000000.0 0.2551125663151409 0.0021810746171939495
2420000000.0 0.24413354611984833 -0.12187415846934678
2440000000.0 -0.129190791570396 -0.2665199944403494
2460000000.0 -0.07761459653046728 0.31609978161315466
2480000000.0 0.3203241646963011 0.1578955955864505
2500000000.0 -0.3888775436175428 -0.07302475353906952
2520000000.0 0.309433070104694 -0.310468415328614
2540000000.0 0.17755258991571343 0.4460456992932389
2560000000.0 -0.5062875521359007 0.10802231043236979
2580000000.0 0.29104933241995024 -0.467706183418258
2600000000.0 0.20141274227512784 0.543000992925011
2620000000.0 -0.49879702835712897 -0.34393245315840903
2640000000.0 0.6176740847961718 -0.08862011478937906
2660000000.0 -0.28623825888695104 0.5721544559837451
2680000000.0 -0.5447050947344663 -0.35476898682523883
2700000000.0 0.1403343859698715 -0.6441318357837086
2720000000.0 0.5048135860173466 -0.43351764457516295
2740000000.0 0.6087765953228211 -0.2812428947686741
2760000000.0 0.6044634413258758 -0.2950247807295903
2780000000.0 0.14940870245076762 0.652593122120429
2800000000.0 -0.013356073504637295 0.6623813490505465
2820000000.0 -0.4204190036744687 0.4987588076069485
2840000000.0 -0.5283697284762477 -0.35962133478423697
2860000000.0 0.6074799483575726 -0.1476295666815408
2880000000.0 -0.5766213257838454 0.19336296450416238
2900000000.0 0.4444169975441966 0.3877180532274387
2920000000.0 0.3091504952357282 -0.47901088773534384
2940000000.0 -0.33698021584402776 -0.432235820889389
2960000000.0 -0.5141754175165334 0.12465305478946716
2980000000.0 -0.11443570808622125 0.4939572125695541
3000000000.0 0.48295930837293266 0.00490607538843843
3020000000.0 -0.18089229816542057 -0.42419281919148016
3040000000.0 0.05154762103072992 0.4343591884821772
3060000000.0 0.039955690881148545 -0.4091161889517359
3080000000.0 0.27425045792886926 0.2713596753808892
3100000000.0 -0.28807576747743757 -0.21544999337082302
3120000000.0 -0.3352689002480916 0.06586511158647647
3140000000.0 0.2915712535986916 0.14939690471792555
3160000000.0 0.1978515129646919 -0.25697717630433925
3180000000.0 -0.31260369286034806 0.08665148762887112
3200000000.0 0.21859593839172586 0.23367866556607736
3220000000.0 0.16635194469300443 -0.2687688865993105
3240000000.0 0.03102383540685759 -0.3045926711660985
3260000000.0 -0.24343408809561662 -0.1662378823177694
3280000000.0 -0.13745307780407923 -0.24010819235135478
3300000000.0 0.19219614556671938 -0.17449041387821487
3320000000.0 0.1537363965510905 -0.17570106422680698
3340000000.0 0.032177469355075816 0.1997784903309047
3360000000.0 0.007094404559425836 0.1770278856001393
3380000000.0 0.03265013804511859 -0.15285461288972857
3400000000.0 0.07242917000922536 -0.11489943147280149
3420000000.0 0.10632182684985758 -0.07244148389437188
3440000000.0 0.05040485795745691 -0.11218075212827489
3460000000.0 -0.06663753223065016 -0.08242961219026737
3480000000.0 -0.09530317937857773 0.02592811571292086
3500000000.0 -0.008866085307072866 0.08269414089056049
3520000000.0 0.06734562444111998 0.021930540452019642
3540000000.0 0.02337056110802972 0.06979589901743674
3560000000.0 0.0769580448318271 0.025004663339820637
3580000000.0 -0.020941949337131026 0.08288945981853285
3600000000.0 -0.051097380091538344 0.07794811063311824
3620000000.0 0.10048586538084793 0.01801082800651695
3640000000.0 0.06893013181193156 0.08073752606748039
3660000000.0 -0.059285511981201626 -0.0891202548044133
3680000000.0 -0.055229536383185174 -0.10039038921113762
3700000000.0 -0.057619459445788015 -0.09597027305379152
3720000000.0 0.07302760407146282 -0.06407756597117736
3740000000.0 0.039502568276777145 0.07573072511981699
3760000000.0 -0.06426292805616418 -0.016301952844989514
3780000000.0 -0.01847948864013509 0.04789152760171437
3800000000.0 0.0525133196899328 -0.01147368953772634
3820000000.0 0.00045554361364967815 0.057243902949546746
3840000000.0 -0.051198557723026096 0.03178128726638583
3860000000.0 0.0599294730055987 -0.018861979913525943
3880000000.0 -0.06123797837540663 -0.0391712815466433
3900000000.0 0.0906700394602347 0.024394041613056375
3920000000.0 -0.09214331274786478 0.05803115094918173
3940000000.0 -0.10216194868458746 0.052905163406915375
3960000000.0 -0.04909787458090977 0.10157807673335992
3980000000.0 0.045663746235349745 0.08986803262324533
4000000000.0 0.08134360555565115 -0.0039012747066627445
