!Created with skrf (http://scikit-rf.org).
# Hz S RI R 50.0 
!freq ReS11 ImS11
400000000.0 -0.6880425985228709 -0.5228865838781928
420000000.0 -0.505365962574342 0.6745421961157514
440000000.0 0.15916585598773195 0.7703307657431125
460000000.0 0.012466422335105943 0.7200136729717884
480000000.0 -0.641584617647151 -0.07933681342330717
500000000.0 -0.12388545197356497 -0.5730483914720328
520000000.0 0.15261893682206723 0.5025244554535329
540000000.0 0.08469622325618135 -0.4586730811269763
560000000.0 0.07192429116236693 0.42793428799597305
580000000.0 0.20826137528725522 0.3344369147662443
600000000.0 -0.16769362385680156 -0.32666960446683696
620000000.0 -0.13109956659579194 -0.34376912361143225
640000000.0 0.36620476504856764 -0.18833649372880013
660000000.0 -0.03843900574191267 0.451941125501036
680000000.0 0.25582444778743096 -0.38975989143280065
700000000.0 0.42779409306211136 -0.1772773175079169
720000000.0 -0.2712416063948485 0.3500857854327417
740000000.0 0.2889244803671191 0.2723796009154709
760000000.0 -0.3436059210006012 -0.03436444809603708
780000000.0 0.21288671700199488 0.2415815994642655
800000000.0 0.2755705817975455 -0.06473395094826373
820000000.0 0.14410932664735965 0.1839872004773732
840000000.0 0.0425075963068519 -0.18774489567366592
860000000.0 0.05311818094425094 -0.1518193710345669
880000000.0 -0.10771867482211113 -0.05698222496466698
900000000.0 -0.08692155002464236 -0.007159634079014668
920000000.0 0.00669394219173546 -0.04875137456932098
940000000.0 0.03373418068157379 -0.011451203308649373
960000000.0 0.04647586009278402 -0.01929133175802166
980000000.0 0.008606094552020136 0.06550811965823645
1000000000.0 0.025571751293105835 -0.08103121674917636
1020000000.0 0.11015183082384115 -0.04713424792073718
1040000000.0 -0.007052488164074754 0.13860636106516738
1060000000.0 0.08098600597376093 -0.15817320114244332
1080000000.0 -0.204283760205929 0.016087976985816054
1100000000.0 0.11738017649175028 0.2032121878401747
1120000000.0 0.16491900901503206 -0.20545537083596266
1140000000.0 0.277638628553613 -0.055036779580813065
1160000000.0 -0.24999528922350225 -0.17169474351666633
1180000000.0 -0.31942276974601314 -0.01391416341824093
1200000000.0 0.3012900882705857 0.13625056501591917
1220000000.0 -0.027304543865183283 -0.35254488841466775
1240000000.0 -0.3152422966653598 0.2007771783580509
1260000000.0 0.3803429171083049 0.08260334163567988
1280000000.0 0.14651615769734008 -0.3645739657335225
1300000000.0 0.28212760144461674 -0.28294314182122476
1320000000.0 -0.020873574781800658 -0.4076639852496652
1340000000.0 -0.1991718783224144 -0.3622308832480501
1360000000.0 -0.3628341638748722 0.19382919410363397
1380000000.0 -0.12558041122601868 0.38035811817331827
1400000000.0 0.3790412035947056 0.07623341430647333
1420000000.0 0.026461554964011997 -0.3626826887691287
1440000000.0 -0.3375419734916894 0.04983741280369279
1460000000.0 0.2974966861515623 0.09181025759650421
1480000000.0 -0.23952498568466593 -0.1399809390853542
1500000000.0 0.2367180012063063 0.0275276498099142
1520000000.0 -0.047220482645975635 -0.19413623435624594
1540000000.0 0.04155723529203825 0.15136469361267488
1560000000.0 -0.07857073620043056 0.0955320244865029
1580000000.0 0.027833003471396316 0.09910761379623079
1600000000.0 -0.08118413330607382 -0.005924003512074058
1620000000.0 -0.002342539155907331 -0.06111619212705458
1640000000.0 -0.03172524463483858 -0.019045970918454908
1660000000.0 -0.013883427850324323 -0.001504848596147519
1680000000.0 0.00794069610097581 -0.0040320984231470925
1700000000.0 -0.020356530865185907 0.002303394198241583
1720000000.0 -0.017733627896681314 -0.026026654553159508
1740000000.0 0.0007027254053874187 0.04857133664395318
1760000000.0 -0.05219205746970381 -0.03908811220379113
1780000000.0 0.03475481063042941 0.08494488278260083
1800000000.0 0.1273546812282835 -0.0038076313568213183
1820000000.0 0.12689839773795125 0.10549869589041028
1840000000.0 0.08206589578639602 0.18846920724768323
1860000000.0 0.24593971943653217 0.03216279002615475
1880000000.0 0.2800553173304359 0.03019895680610648
1900000000.0 -0.0721935882324721 0.2998549811445684
1920000000.0 0.12500882382411455 -0.3106145673900907
1940000000.0 -0.2924526925210291 0.21114092387287045
1960000000.0 0.3804086681034932 0.0013695985525475972
1980000000.0 -0.0758339905572788 -0.38801999836777845
2000000000.0 -0.40659770198581396 -0.022733170790732345
2020000000.0 -0.25472964041211793 0.32849348900076714
2040000000.0 0.14361737852958578 0.3966873850054384
2060000000.0 0.4234959587739284 0.007763770094582182
2080000000.0 0.16798059890492997 -0.3846937408014343
2100000000.0 -0.304980939729242 -0.273230545804616
2120000000.0 -0.3938887161808218 0.0245564428799623
2140000000.0 -0.27365740239303243 0.2619075819205375
2160000000.0 -0.1426962055755939 -0.3279324586511185
2180000000.0 0.10703635115152087 -0.3270582295442324
2200000000.0 0.17213686001576153 -0.28540533197418233
2220000000.0 0.3010264595043025 -0.12827620635594653
2240000000.0 0.24414766906168472 -0.21955767899149317
2260000000.0 0.22672458587501598 -0.2369874296283938
2280000000.0 0.10107680943661206 -0.3236528820085235
2300000000.0 -0.11952104515267765 -0.3353542492319133
2320000000.0 -0.38740516489617116 -0.00825210128885458
2340000000.0 0.34518056304361755 0.2508575431428143
2360000000.0 -0.43297596801921767 -0.1893053771363518
2380000000.0 0.4652425064553444 -0.23737497496623183
2400000000.0 -0.0651168735522327 0.568550918168045
2420000000.0 -0.5083089639160241 -0.3565574157921241
2440000000.0 0.6046837722014475 -0.2767421723081339
2460000000.0 -0.19005870686906304 0.6751853071706024
2480000000.0 -0.2133108811374715 -0.6988440350358321
2500000000.0 0.3115802517230009 0.6839209069281198
2520000000.0 -0.17652293938685348 -0.7429991745410583
2540000000.0 -0.1550189978750985 0.7519080970566332
2560000000.0 0.5552660275873378 -0.5245548562426648
2580000000.0 -0.7493411881698474 -0.07381694245231972
2600000000.0 0.5282445601325052 0.5088550686139016
2620000000.0 -0.17542970827587762 -0.6853235566403255
2640000000.0 -0.60252013365418 -0.3047194734687318
2660000000.0 0.3673540872233066 0.5201973908745207
2680000000.0 -0.16432567911499008 -0.5713219910065813
2700000000.0 -0.04441151408029415 0.5507499751764052
2720000000.0 -0.06763632947773555 -0.504782081983415
2740000000.0 0.05912715623244362 0.46378946128105986
2760000000.0 -0.0995440376754021 -0.4180426832141622
2780000000.0 0.0028456290329539054 0.4011099714458446
2800000000.0 -0.07769649793632209 -0.3763440277534656
2820000000.0 0.35748966396349946 0.11122584786062412
2840000000.0 -0.07302971657239961 0.3602901573017032
2860000000.0 -0.35941197818867415 -0.04152957005029197
2880000000.0 0.2766359030614358 -0.2195613525456946
2900000000.0 -0.3257933428256418 -0.12279130886184958
2920000000.0 -0.19383293875165808 0.2906881729623779
2940000000.0 0.2525418037979984 0.24906035180609948
2960000000.0 0.30728055857723097 -0.1767420821928806
2980000000.0 0.3320239705535288 -0.11936355078236945
3000000000.0 0.2961230234107679 0.1968088203548128
3020000000.0 -0.043003509784731005 0.351132353258655
3040000000.0 -0.350226502920628 0.012466314760584478
3060000000.0 -0.040960797512257306 -0.34499253091969684
3080000000.0 0.33404371650213444 0.05922582540663592
3100000000.0 -0.13520654561023154 0.3005528925623053
3120000000.0 -0.3009670949357147 -0.09304056340440686
3140000000.0 -0.050033986566875674 -0.2949882808370668
3160000000.0 0.008814658614439207 0.27433415862022587
3180000000.0 -0.2481555114666834 -0.032671311667032465
3200000000.0 0.017107146044398516 -0.22313664626276164
3220000000.0 0.12871193230672973 -0.1482162556622384
3240000000.0 0.11325711091669138 -0.12052746138883749
3260000000.0 0.13204553088341195 0.01092897103693117
3280000000.0 0.06174814250460945 0.0830415912253026
3300000000.0 -0.007051292744594414 0.08099139399762435
3320000000.0 0.06612336749580328 -0.0029111046501137014
3340000000.0 -0.008961740844125713 0.05339423418144657
3360000000.0 -0.04514985058963716 -0.020827514411982894
3380000000.0 -0.022975989899343147 0.044571656812649234
3400000000.0 0.05035084241295244 -0.016223845705817263
3420000000.0 0.04695052510936669 0.03580931665877919
3440000000.0 -0.037821274428229794 -0.058602405812599796
3460000000.0 0.08323448691797314 0.027396618209069537
3480000000.0 0.10132953548667192 -0.025477728361880808
3500000000.0 -0.03564508447085231 -0.11429010405086061
3520000000.0 0.05448960551891375 -0.1230959367491258
3540000000.0 0.030476059425007262 -0.14817657775758541
3560000000.0 -0.1362599374560962 -0.09499508044933734
3580000000.0 -0.03593137038521205 0.17508365485330826
3600000000.0 0.18022164980927127 -0.037912830413695725
3620000000.0 0.13131552487369236 -0.1302122633867857
3640000000.0 0.18240865093980788 -0.010336194454808255
3660000000.0 -0.009384592670727615 0.17941303442014003
3680000000.0 -0.10894615891568803 -0.13999738964589228
3700000000.0 0.11492267880755985 -0.1346309730198451
3720000000.0 0.14554114381714242 -0.09637188212615437
3740000000.0 0.11479581827276035 -0.11801025936194219
3760000000.0 -0.14768734360405006 0.011119819359670931
3780000000.0 -0.10584080083387924 0.0816963763570139
3800000000.0 -0.1236953752709102 -0.020485613216068056
3820000000.0 -0.11908688814116196 -0.006363338916945424
3840000000.0 0.09734315198005065 -0.04358169994258262
3860000000.0 0.10189133740540375 0.010297956904860931
3880000000.0 0.10702411176649156 0.027916105153815964
3900000000.0 0.12609469060943454 0.004516144389845693
3920000000.0 0.09814685523413866 -0.09308694187228547
3940000000.0 -0.12767623776477965 -0.038769877121740036
3960000000.0 0.0020851544250163104 0.12542821373683075
3980000000.0 0.09544100728299232 0.05802746001865906
4000000000.0 -0.06456556580385434 0.0692912419654578
