!Created with skrf (http://scikit-rf.org).
# Hz S RI R 50.0 
!freq ReS11 ImS11
400000000.0 -0.8487702502176648 0.12898906977783198
420000000.0 0.21841587198872628 0.8120356053822501
440000000.0 0.666581754993859 0.40960573194036975
460000000.0 0.4056299895222396 0.5932296003877804
480000000.0 -0.6500030486250442 0.052232566914857226
500000000.0 -0.590616883202281 -0.12477784336030581
520000000.0 0.1897304753737366 -0.4929476073915207
540000000.0 -0.2868736401499765 -0.3551679223488824
560000000.0 0.3678560600718588 0.23094966788001375
580000000.0 0.3333663652324808 -0.20344055671668693
600000000.0 -0.3371687767709328 0.08028134106956795
620000000.0 0.19404939022270382 -0.2955868552173027
640000000.0 0.363167112203291 0.17263273535577217
660000000.0 -0.37042292642149016 0.2521981312782533
680000000.0 0.1789955319971501 -0.4383283665346952
700000000.0 -0.27893385879272314 -0.37025010822343735
720000000.0 0.4284275306229706 0.04250585309399493
740000000.0 0.3677757748082743 0.06541633873744782
760000000.0 0.3356004405609645 0.04167063752209332
780000000.0 -0.005293540324362975 0.33302818202649853
800000000.0 0.2786264900204133 0.10945483015448937
820000000.0 -0.2470054510429648 -0.09554948998292791
840000000.0 0.18172457191114996 0.08696606640395599
860000000.0 0.15433061864666356 0.02184488079898933
880000000.0 0.11437864768579732 -0.024023124963827032
900000000.0 -0.08063946222657589 -0.021309414419921735
920000000.0 0.05194814933023853 0.020533749304201935
940000000.0 -0.024680299386061918 -0.03369488373147323
960000000.0 0.008131543368288575 -0.05837777031970327
980000000.0 -0.014902236430620651 0.06618085968537718
1000000000.0 0.05812471604489232 -0.04962118080664314
1020000000.0 -0.09221961773606853 0.026866503945943452
1040000000.0 0.016120920033535366 0.11727956034106919
1060000000.0 -0.13258934303416126 -0.08573286803030813
1080000000.0 0.18641617406496824 -0.024650035109071135
1100000000.0 -0.21510890053243636 -0.030849722692468756
1120000000.0 -0.03942524863619113 0.24247954900068788
1140000000.0 -0.2583016590546457 -0.06460071368259493
1160000000.0 -0.2618467348162147 0.1421153883533096
1180000000.0 0.22217810444621325 0.23738152826104222
1200000000.0 -0.20937099470498927 -0.260631731788253
1220000000.0 -0.32888162024476747 0.14398884697135877
1240000000.0 0.19221008574294343 0.336724380144926
1260000000.0 -0.2718564332311755 -0.3061576590693027
1280000000.0 0.003332704635928345 0.41239128453632345
1300000000.0 0.22090522970466828 0.34503351202584964
1320000000.0 0.14943944766408918 0.38562904874265636
1340000000.0 0.19386366990343645 0.36703524684165756
1360000000.0 0.4118484986831669 0.043730783482246516
1380000000.0 0.34464360797411414 -0.20432830789989284
1400000000.0 0.057028804111980365 -0.380686818171039
1420000000.0 -0.2638866720867232 -0.24980318593826129
1440000000.0 -0.3355296300909243 0.06483418668938294
1460000000.0 0.1517854637888712 0.27681701774976447
1480000000.0 0.17830134408811868 -0.22588264553586931
1500000000.0 0.10803527757876048 0.2301937971568022
1520000000.0 0.20561748647686368 0.060733365009838204
1540000000.0 -0.17499408800508348 -0.04869442723361372
1560000000.0 0.004614774865857098 -0.14610847460380946
1580000000.0 0.019384719845901097 0.10828086780743579
1600000000.0 0.007300109547222048 0.07662400604356401
1620000000.0 0.005677513947440432 0.056118424701045264
1640000000.0 0.027963814365645445 -0.018714048254840677
1660000000.0 0.000346654912674195 -0.012810136994009295
1680000000.0 -0.011498251216450978 0.008974678668853474
1700000000.0 -0.008327600343490636 -0.029889020324055725
1720000000.0 -0.016761934880687154 -0.04369386924240874
1740000000.0 -0.060147510579106646 0.02528816448370284
1760000000.0 0.039062729539146454 -0.08548681576668986
1780000000.0 -0.03852404342638312 -0.12446923823190684
1800000000.0 0.12767065295390082 0.09094520003636336
1820000000.0 -0.153933901438965 -0.073207916947792
1840000000.0 0.18491113173017668 -0.0800326616047143
1860000000.0 -0.18276516142403842 0.17397098230863145
1880000000.0 -0.28599700323522964 0.08698466407361347
1900000000.0 -0.3284556485505438 0.014624251091223684
1920000000.0 0.29221795329141415 -0.19130254815619863
1940000000.0 -0.3041201294163937 -0.2086751960558962
1960000000.0 0.013112210065354622 0.3898601962767535
1980000000.0 0.3677046873272653 -0.16884710245702977
2000000000.0 -0.19949075514061215 -0.3628330563201764
2020000000.0 -0.40594585696613145 -0.10758169665105569
2040000000.0 -0.3017079255881897 0.30118888969348
2060000000.0 0.39886206159428456 0.1501522872089708
2080000000.0 0.00943836894106709 -0.41502889468113535
2100000000.0 -0.3910070241887684 -0.07300583933299663
2120000000.0 -0.3709528988758926 -0.04901303243664869
2140000000.0 -0.3131907058043691 -0.1760607930562603
2160000000.0 0.2664801318365275 -0.21457245071206002
2180000000.0 0.3099684474470536 -0.11213702838418063
2200000000.0 0.1316118596281546 -0.2915112632606001
2220000000.0 0.1803207617693452 -0.2503965938703546
2240000000.0 0.17333375664560793 -0.25843880734376207
2260000000.0 -0.15713462300384323 -0.27595233290232846
2280000000.0 -0.27682885334281837 0.17481076017435063
2300000000.0 0.30659954964338276 0.1583657988416363
2320000000.0 -0.07166322144438937 -0.36535609788845597
2340000000.0 0.0908883943691119 0.4025174712926233
2360000000.0 -0.3987572539973378 -0.22816752776096466
2380000000.0 0.3145215489991847 -0.40310839642816765
2400000000.0 0.463672917865834 0.31886826367919013
2420000000.0 -0.27443527856969885 0.5458865326391978
2440000000.0 -0.5854260444366185 -0.2905148536988918
2460000000.0 0.5198021747780779 -0.4509601668762368
2480000000.0 0.07211900257891987 0.7120293404099112
2500000000.0 -0.4051800518803248 -0.6122870602837591
2520000000.0 0.4511557336928678 0.5904031524735549
2540000000.0 -0.35516220630673034 -0.6543787089575783
2560000000.0 0.0888954991889026 0.7337826484602967
2580000000.0 0.3918779138948357 -0.6109718564894667
2600000000.0 -0.6091275857876481 0.3567090507793118
2620000000.0 -0.17754874638937276 0.6564210787937467
2640000000.0 0.3893721903129748 -0.5200381551980986
2660000000.0 -0.5295730572399442 0.310895944912536
2680000000.0 0.5574110207792131 -0.141722805816221
2700000000.0 -0.5360213322810493 0.03445099605737551
2720000000.0 0.4993124511825765 0.002817519054071819
2740000000.0 -0.4624061748441362 -0.05916087430023935
2760000000.0 0.436637929777815 0.0039522943667230515
2780000000.0 -0.4051722331472564 -0.082545949154894
2800000000.0 0.34954230543950865 0.1901582557424615
2820000000.0 -0.23997324553945318 -0.3067869488844129
2840000000.0 0.07879913359635336 0.3779277957328289
2860000000.0 0.08635515942233987 -0.37902934264463267
2880000000.0 -0.21789954135864756 0.3233949626681491
2900000000.0 0.3809377848206154 0.08354817676646198
2920000000.0 0.07202973195123687 -0.3842670400164297
2940000000.0 -0.19094854749095097 -0.3365203224463287
2960000000.0 0.020716481676147397 -0.3810774500416431
2980000000.0 0.370588382970957 0.09325640408428176
3000000000.0 -0.0010342298921835135 0.38732242611214707
3020000000.0 -0.33239060506243273 0.19594589923070313
3040000000.0 -0.04705465629326575 -0.3749696071003534
3060000000.0 0.2602136282506954 0.2605369065491315
3080000000.0 -0.25414340485044723 -0.2532680782270919
3100000000.0 0.1769453763857547 0.29834318144753247
3120000000.0 -0.20748238152999757 -0.2645748714467815
3140000000.0 0.3218390680659094 0.032188797959354316
3160000000.0 -0.2255487239010199 -0.19968681291462106
3180000000.0 0.27200188831306876 0.0017973907159204027
3200000000.0 -0.22020967399158534 -0.09025828161355491
3220000000.0 -0.18178745176287237 0.09150620876805188
3240000000.0 -0.11226497673274985 -0.1356337112671758
3260000000.0 0.10277506914152863 -0.11275605111296638
3280000000.0 -0.021224372860969325 0.12761078940322476
3300000000.0 0.0773314697076823 -0.07977498163358869
3320000000.0 0.021798444346160305 -0.09057535838296325
3340000000.0 0.08094604607187186 0.012978206484080696
3360000000.0 0.03379465918354959 0.06929698878671506
3380000000.0 -0.014570570514545175 0.07471576843837106
3400000000.0 0.005366751327976706 -0.0685166921927327
3420000000.0 -0.032893584916828575 0.04660517308935087
3440000000.0 0.036856724874792655 -0.026664098778990616
3460000000.0 0.03404944523750903 0.020344498790434356
3480000000.0 0.03525157008571016 -0.012663218483870826
3500000000.0 -0.03616054868178162 -0.018362119670310973
3520000000.0 0.017407284095527716 -0.047792070893515795
3540000000.0 0.05572943049692223 0.02349994906307571
3560000000.0 0.015774956440180572 -0.07062620398960438
3580000000.0 0.00929497867246887 0.08688585484669772
3600000000.0 -0.0454751287876819 -0.09729142973587548
3620000000.0 0.08887853414326988 0.09291446183094688
3640000000.0 -6.782334408774634e-05 -0.15089994402632886
3660000000.0 -0.14770710494184414 0.08826448497944503
3680000000.0 -0.02482007902739425 0.1926316620758628
3700000000.0 0.2145687480502314 -0.012932031867359502
3720000000.0 -0.08293985436633498 -0.21831953018062708
3740000000.0 -0.2054901986817772 -0.13615579003824624
3760000000.0 -0.22434784012755724 -0.14529680906030487
3780000000.0 -0.2837182751649186 0.02196396260615325
3800000000.0 -0.1288997866842975 0.26888350876857064
3820000000.0 0.22405366544690977 0.2158302647884357
3840000000.0 0.2302114482483378 -0.21353651470046534
3860000000.0 0.017210633652940007 -0.3121245129897318
3880000000.0 -0.1849111273308423 -0.24770978564338356
3900000000.0 -0.20127572951594022 -0.22841028317221973
3920000000.0 -0.2999558364637606 -0.028964970758799745
3940000000.0 -0.14140792591116094 0.2613853047162834
3960000000.0 0.2854480433940447 -0.05415174225769631
3980000000.0 0.08331823140895557 -0.2637265513732444
4000000000.0 -0.008473092331115309 0.25803863554954964
