!Created with skrf (http://scikit-rf.org).
# Hz S RI R 50.0 
!freq ReS11 ImS11
400000000.0 0.20488600479083954 -0.827789448381553
420000000.0 0.5081204266606629 0.5995756258139875
440000000.0 0.7759701057231149 0.02428797584379321
460000000.0 0.3006677815447713 0.5750888740348018
480000000.0 -0.48169619447336276 0.42529389300833614
500000000.0 -0.521554391037274 0.3041998179740655
520000000.0 0.6206647202523052 -0.07038101235941124
540000000.0 0.1378213597500847 -0.5693087512172221
560000000.0 0.3233719882242506 0.47802809383215167
580000000.0 0.5836968298322736 0.05952432917859209
600000000.0 0.6159152320391533 -0.018519450272411406
620000000.0 0.6060567833211132 -0.10380685706814533
640000000.0 0.5522115362063446 -0.16587903400787402
660000000.0 -0.35475362329876425 -0.41124630800503287
680000000.0 0.197494183458506 -0.47561075963727056
700000000.0 0.2647867715530505 0.4382621515600484
720000000.0 0.49025598815571875 -0.1892964022783475
740000000.0 -0.08684088369528412 -0.4703705810030514
760000000.0 0.06454379455740299 0.45474772788621376
780000000.0 -0.2222766403223053 0.38938240493184345
800000000.0 0.22869007679754344 0.33506184764519464
820000000.0 0.24114588318436234 0.269889531569002
840000000.0 0.19697922476682225 0.2667265804261084
860000000.0 -0.32051786327446674 0.001205224643448479
880000000.0 -0.22099423556253653 -0.1802184242863788
900000000.0 0.08638986354685478 -0.2635003152165335
920000000.0 0.211402783169252 0.1568466444728978
940000000.0 -0.041946019763038064 0.21444105738863728
960000000.0 0.16039412724264002 0.07985043220034281
980000000.0 -0.14758985623793822 0.008137092017329277
1000000000.0 0.06082021460469449 0.11349489669573935
1020000000.0 -0.1122400357747974 -0.012870695143229447
1040000000.0 -0.027888387766829954 -0.13396919045000852
1060000000.0 0.13971590977822537 0.08094236343940595
1080000000.0 -0.1016252834931564 -0.17887066317302114
1100000000.0 -0.23532691494499705 0.058544605490410066
1120000000.0 -0.2417200081861771 0.15677826187283278
1140000000.0 0.29131462647611983 0.04859263374886926
1160000000.0 0.0201281123140158 0.3229656071888624
1180000000.0 0.30089777214031 0.16526632596964244
1200000000.0 0.08596598540977093 0.32837304197155204
1220000000.0 0.16634655128730863 -0.31522090804415387
1240000000.0 0.03684746051276671 -0.37286915721824015
1260000000.0 -0.3801410867232271 -0.02832678085409267
1280000000.0 -0.17079580626162288 0.3260569160218777
1300000000.0 -0.1259738645476276 -0.3404357879652202
1320000000.0 -0.2649623082829524 -0.2536349245712986
1340000000.0 -0.333213687230199 0.12401259732821149
1360000000.0 -0.32342913768051496 0.17788118553784124
1380000000.0 -0.36917608028374027 -0.1156343779337409
1400000000.0 -0.1579471908710318 0.34183672150254885
1420000000.0 -0.1565942603937621 0.35128316018878947
1440000000.0 0.3148183052837841 0.22738982288289009
1460000000.0 0.3848953812107047 0.07832497110362653
1480000000.0 0.37194122842873245 -0.1591811664691157
1500000000.0 -0.4023503612763029 0.0460026893282855
1520000000.0 0.17385521831017858 -0.35177929047977013
1540000000.0 -0.01325951539634344 0.37037159963179145
1560000000.0 -0.32409795053893153 -0.08611577851907529
1580000000.0 0.2783225048018663 0.10602262361650866
1600000000.0 0.03783755406827618 0.2685307167007776
1620000000.0 0.02561878637637274 0.227499723776707
1640000000.0 0.04255611617463882 0.19161804453236164
1660000000.0 0.1778742514345931 0.0065219072856503996
1680000000.0 -0.018741011974656174 -0.1434034394249847
1700000000.0 0.07926517648693186 -0.09234795266041354
1720000000.0 -0.03611438415072424 0.08426231296963252
1740000000.0 -0.03111336927625862 -0.07272212692722516
1760000000.0 -0.03024213864816532 0.07421409449781999
1780000000.0 0.019249295217827384 0.09702015945652905
1800000000.0 0.021871438530875198 0.12076734606541888
1820000000.0 0.08175708227155018 0.12924418941438687
1840000000.0 0.002733310189172234 -0.18663370831120513
1860000000.0 0.21587677508735525 0.06274713612462418
1880000000.0 0.2270802985502742 -0.11563402003373642
1900000000.0 -0.11573602098397281 -0.2565399238052208
1920000000.0 0.2980973518527859 0.07284373669329172
1940000000.0 -0.31387973972702143 -0.017999961787142717
1960000000.0 0.2996167424177755 0.09778779939451598
1980000000.0 -0.29220696159638837 0.14343712048373694
2000000000.0 -0.2557745717767714 -0.20309507428617127
2020000000.0 0.2605447598499444 -0.19543705519964277
2040000000.0 0.24891837691544416 -0.21971945944489896
2060000000.0 0.27134305612980475 -0.1809695816391035
2080000000.0 0.24790760757135463 0.20778244697035392
2100000000.0 -0.18897617158199073 -0.2513953424221159
2120000000.0 0.15546507993257055 0.26470774267222125
2140000000.0 0.03193762232893866 -0.3073201382527582
2160000000.0 -0.16875476735489378 0.2510980544270792
2180000000.0 0.22628268546316294 0.18714441298512688
2200000000.0 0.27741783538619175 0.0800086812226896
2220000000.0 0.19787426453464538 -0.20307417186155763
2240000000.0 0.2615398353961463 0.06881124188800596
2260000000.0 -0.21359008172527003 0.14143733725612698
2280000000.0 -0.21432643879211666 -0.1367195193604387
2300000000.0 0.07684436454526374 -0.22557035664718997
2320000000.0 -0.1973060484722836 -0.11884795982973322
2340000000.0 0.1683742419811277 0.15264864278534332
2360000000.0 -0.03378931635875018 -0.23431000640160354
2380000000.0 0.24651213173891856 -0.031717926551033046
2400000000.0 0.26670065838908924 -0.04631984245197317
2420000000.0 -0.27343141755066447 -0.11903199716322087
2440000000.0 0.13641683814355246 0.2844609182236118
2460000000.0 -0.26664617815271013 -0.2194431686655578
2480000000.0 -0.09050990472360326 0.36291276971966807
2500000000.0 -0.2758712188129707 -0.3002631905668327
2520000000.0 0.3470790299281649 -0.2736837528600739
2540000000.0 -0.10613715279054307 0.46049721980635355
2560000000.0 -0.21123937700000023 -0.45667707460474094
2580000000.0 0.3436997364208882 0.4016754745008277
2600000000.0 -0.2892198948457865 -0.4720465372911803
2620000000.0 0.21813687359624356 0.5321440016103979
2640000000.0 -0.15346762718506288 -0.5752607237309698
2660000000.0 0.3008608979225178 0.5365719410216373
2680000000.0 -0.6297488173589886 0.0010530766382497094
2700000000.0 0.025117819653898855 -0.6434470838735458
2720000000.0 0.5078377098838132 -0.41377537792406627
2740000000.0 0.6548933600727639 -0.10076906149413273
2760000000.0 0.6665050382145465 -0.02342230438439896
2780000000.0 -0.060872849853811736 0.6628573894324197
2800000000.0 -0.19289728452654806 0.6301997813352682
2820000000.0 -0.5776099994279517 0.2973985413695525
2840000000.0 -0.44383841729932183 -0.4586373245078052
2860000000.0 0.6146028705359398 -0.1040036313292675
2880000000.0 -0.6037436300727875 0.017888016932377175
2900000000.0 0.4064372631722808 0.4187090898246839
2920000000.0 0.24322084160261112 -0.5010397530778036
2940000000.0 -0.12795201488125085 -0.5119768367017601
2960000000.0 -0.36029701327209473 -0.34790454102493135
2980000000.0 -0.4083384101426293 -0.23772488763011404
3000000000.0 -0.3339211440689537 -0.303734161780581
3020000000.0 -0.3792381790340722 -0.1975555361321039
3040000000.0 -0.36748372528580814 0.18345350296364707
3060000000.0 0.20569153522251912 0.3399504164768999
3080000000.0 0.3461515397509693 -0.16505181486401427
3100000000.0 -0.13971183261965092 0.3467299228891666
3120000000.0 0.17998487567799581 0.31656785218115296
3140000000.0 -0.312210921401441 -0.18090035220367987
3160000000.0 0.3340888261539054 0.11133399175395216
3180000000.0 -0.08920067553814587 -0.34351565693427916
3200000000.0 0.008717786874545967 0.3517944083968721
3220000000.0 0.3428237331918511 -0.056834478933689724
3240000000.0 0.09493365305916128 -0.3286799619399871
3260000000.0 -0.21937495931867051 -0.2561692442588307
3280000000.0 -0.22976145076130586 0.23017063952965214
3300000000.0 -0.08000571491968549 0.294144796253362
3320000000.0 0.010114619015996295 0.28176619013946863
3340000000.0 0.16999127379476783 0.1840134162767482
3360000000.0 -0.097041135658479 0.1966257049720253
3380000000.0 0.013219617926467964 -0.19341895343080598
3400000000.0 0.05480404474385421 -0.15490663269728158
3420000000.0 0.13151147655661566 -0.03692039634390724
3440000000.0 -0.08344419727579304 -0.07538990044717714
3460000000.0 -0.07509740837761164 0.05795783217707741
3480000000.0 -0.007787957728067147 -0.08426781531679096
3500000000.0 -0.0753648102698656 0.02888179092533134
3520000000.0 0.028605980586980873 0.07651311037009345
3540000000.0 -0.0887314916265518 0.023585770555259827
3560000000.0 0.08505328810816405 -0.050189978446823234
3580000000.0 0.029662935643555644 -0.10287958941926209
3600000000.0 0.08909937510362234 0.08418232962268195
3620000000.0 0.12199383028258858 -0.03884765284092533
3640000000.0 0.13067977237535758 -0.06408893621543296
3660000000.0 -0.14729195618841517 -0.03602406891637285
3680000000.0 -0.14426983565493623 -0.05937326998373442
3700000000.0 0.002263265701066733 0.14732495125737505
3720000000.0 0.0923598978962916 0.0862203018340484
3740000000.0 0.02671594357134367 0.09722977806765601
3760000000.0 0.05944158349777815 0.050179949415501426
3780000000.0 0.037420226105988656 0.03872712754926437
3800000000.0 -0.018479439296434072 -0.014268807433726318
3820000000.0 -0.011524203523753714 -0.00965363747831512
3840000000.0 0.017689175698122013 -0.05042533689373824
3860000000.0 -0.08410888430562558 -0.0002697240596731326
3880000000.0 0.1054380474493993 -0.01369157434319486
3900000000.0 -0.0904260772162784 0.09168409413830045
3920000000.0 0.03367397127560709 0.13580121332660863
3940000000.0 0.1546970496112189 0.011349672378355598
3960000000.0 -0.04505131837892659 0.14678426983561335
3980000000.0 0.024194907311105362 -0.13932926923429503
4000000000.0 -0.11196597783831061 -0.0255062784807506
