!Created with skrf (http://scikit-rf.org).
# Hz S RI R 50.0 
!freq ReS11 ImS11
400000000.0 0.24349389249944542 -0.8175124718386304
420000000.0 0.5002825852066893 0.6057708211392936
440000000.0 0.7757621865362534 -0.012785540809404309
460000000.0 0.2824555096693327 0.584011083389932
480000000.0 -0.48130067513351205 0.4258346818502186
500000000.0 -0.5095281792144067 0.3242202390032838
520000000.0 0.6243566098062797 -0.023150097526669872
540000000.0 0.07393985770245845 -0.580343477125711
560000000.0 0.35355033950497683 0.4553208760585374
580000000.0 0.5848524491652952 0.03740171446731103
600000000.0 0.6109145073678451 -0.08187156949929088
620000000.0 0.6106302791548142 -0.07168306574481237
640000000.0 0.5496076326584634 -0.17392879133859712
660000000.0 -0.3749661798115388 -0.3932902007357282
680000000.0 0.2165491604460598 -0.46730656574839025
700000000.0 0.27642360362608515 0.4306242464913062
720000000.0 0.49534294273012885 -0.1749540151374187
740000000.0 -0.05606915781846797 -0.4751600772832734
760000000.0 0.10179305397696893 0.4476548872625833
780000000.0 -0.13936381469947412 0.42473301381490425
800000000.0 0.22089844865258404 0.33942034546145805
820000000.0 0.26526275959882073 0.24527858834111754
840000000.0 0.184679016028499 0.27520416213468024
860000000.0 -0.31881302005798184 -0.021070091417209894
880000000.0 -0.2072798998929523 -0.19655462780954855
900000000.0 0.07206927790995347 -0.26853417402836766
920000000.0 0.209720437260637 0.1585458401655156
940000000.0 -0.052290840877105345 0.21471424511331783
960000000.0 0.16481249295977732 0.07121501440758765
980000000.0 -0.14598998382648143 0.031020514984751613
1000000000.0 0.10265004138060708 0.07815211768831964
1020000000.0 -0.10569019825522269 -0.03949469779650537
1040000000.0 -0.028177512016083723 -0.13384265365980158
1060000000.0 0.13266648980253098 0.09463690609597435
1080000000.0 -0.15023281838184874 -0.14161150041000467
1100000000.0 -0.23977130168624353 0.024842148371605328
1120000000.0 -0.23848370595366997 0.1607068795394796
1140000000.0 0.29272897260097197 0.049756234954827054
1160000000.0 0.08994906292920618 0.31086095125908286
1180000000.0 0.2976531651506288 0.16968648645339962
1200000000.0 0.06406890742280004 0.33271007047504925
1220000000.0 0.10633873186875337 -0.341534059718027
1240000000.0 0.05885544573131144 -0.36957976559487127
1260000000.0 -0.37838157596188493 -0.041558004215887026
1280000000.0 -0.17581509809137263 0.32284097977859855
1300000000.0 -0.17903167575586246 -0.3161503735246998
1320000000.0 -0.26832389064336226 -0.2489795213255332
1340000000.0 -0.33081865549505224 0.13196589077196297
1360000000.0 -0.30680350118539884 0.20497942670633523
1380000000.0 -0.37209624221573134 -0.10770137459994014
1400000000.0 -0.13988122868128347 0.3498544826069304
1420000000.0 -0.0774581931208213 0.3766682064251936
1440000000.0 0.3326348972654493 0.19975954100665363
1460000000.0 0.35977876899218164 0.15841166545752092
1480000000.0 0.3512686406282524 -0.20014047479521577
1500000000.0 -0.3957626728942265 0.08603615124393976
1520000000.0 0.17329114509820479 -0.35196947222005626
1540000000.0 -0.030905007287336708 0.36942003856429684
1560000000.0 -0.33475809607108103 -0.006294893925158198
1580000000.0 0.2909333590112871 0.06545421132980886
1600000000.0 0.056633238948220664 0.26468412344662096
1620000000.0 -0.021609910577516593 0.22899042161034533
1640000000.0 0.0430656139815944 0.1916196665864717
1660000000.0 0.1773134328839659 0.013724359720561912
1680000000.0 0.013069846882434425 -0.14386331557631132
1700000000.0 0.09221188602953695 -0.07914873421472485
1720000000.0 -0.020345508825342595 0.08966390651074
1740000000.0 -0.036377716274909634 -0.07008122456474265
1760000000.0 -0.029148521370547492 0.07329742629416308
1780000000.0 -0.0038754066073732807 0.09956862792357075
1800000000.0 0.05524520954105945 0.10895810839828803
1820000000.0 0.06856378021938263 0.13599799964984016
1840000000.0 0.02014576906475141 -0.1853860150140363
1860000000.0 0.22342998423576732 0.025226686208864514
1880000000.0 0.23669465128797634 -0.09444209473403727
1900000000.0 -0.13977884568530274 -0.24465342935498555
1920000000.0 0.29807023790228915 0.07200017413463332
1940000000.0 -0.3149984377533418 0.0015548856599531629
1960000000.0 0.29811403575497486 0.10180166619076866
1980000000.0 -0.3043203355013767 0.11694530612674314
2000000000.0 -0.2467612215754116 -0.21406007502251384
2020000000.0 0.2545611012570499 -0.2022822990205372
2040000000.0 0.2642862242063395 -0.20009378489352347
2060000000.0 0.26623249707565627 -0.18836213462240944
2080000000.0 0.24604144821526142 0.21033686753536673
2100000000.0 -0.22161676550534298 -0.22241025182712626
2120000000.0 0.1354811504355602 0.27524959030079654
2140000000.0 -0.034294579138904935 -0.3076645437234198
2160000000.0 -0.147207372666532 0.2635170163627531
2180000000.0 0.23587758611843365 0.17498320268414236
2200000000.0 0.28333337563135524 0.05504868968391456
2220000000.0 0.18497929214457678 -0.21468579744654992
2240000000.0 0.2641996292292356 0.0588981819979529
2260000000.0 -0.21967792282311097 0.13320373833526794
2280000000.0 -0.20879023562362786 -0.1441602565828864
2300000000.0 0.13887104134643802 -0.19406210292666806
2320000000.0 -0.1967424625615296 -0.11883508947592457
2340000000.0 0.18423860569564274 0.13434500911270889
2360000000.0 -0.03917502520302552 -0.2326202408274716
2380000000.0 0.24737136690501993 0.015304464713457316
2400000000.0 0.24361188382220028 -0.12142039440620148
2420000000.0 -0.28880609474044516 -0.06865866156868644
2440000000.0 0.06479637918233626 0.3079010656687902
2460000000.0 -0.27124841194959615 -0.21658754874022723
2480000000.0 -0.032527336985567604 0.37291451314818325
2500000000.0 -0.283046703908902 -0.2915484748114039
2520000000.0 0.37583424788117803 -0.2346719355951082
2540000000.0 -0.06148959814976423 0.46954255585818544
2560000000.0 -0.23001882422654685 -0.44707506531098284
2580000000.0 0.2693155721562879 0.4543957612699426
2600000000.0 -0.2640524051351695 -0.48667635498199896
2620000000.0 0.2520520972886656 0.5166104864343419
2640000000.0 -0.14153183032074626 -0.5780250771359196
2660000000.0 0.2920664593662662 0.5410292598753584
2680000000.0 -0.6295092788948057 -0.016135945800069836
2700000000.0 -0.002646798602639734 -0.6439626538228315
2720000000.0 0.5149087359607275 -0.4052296356368747
2740000000.0 0.6411822773844204 -0.16689075183673718
2760000000.0 0.6625162545384474 -0.0791132521023243
2780000000.0 -0.08996516595217684 0.6595798095828934
2800000000.0 -0.20120967745203197 0.6277301011899329
2820000000.0 -0.5895562765957589 0.2729381511674578
2840000000.0 -0.45077817753707766 -0.4519485260690144
2860000000.0 0.6230138259361724 0.0018969144896328373
2880000000.0 -0.6035431900915514 -0.013963335098220068
2900000000.0 0.39553784016797255 0.4286770057668992
2920000000.0 0.2879889193975059 -0.47758720925952214
2940000000.0 -0.1283234478048167 -0.5118433665172966
2960000000.0 -0.34036058119875023 -0.36713397377538615
2980000000.0 -0.39239193695742525 -0.26404531825570376
3000000000.0 -0.30753453729737434 -0.3301101260314867
3020000000.0 -0.4088354405957012 -0.1229556620614787
3040000000.0 -0.3925727017914876 0.12030765888917794
3060000000.0 0.17890261682796174 0.3552477865582351
3080000000.0 0.34407815745585035 -0.16919012619728
3100000000.0 -0.13490707091043483 0.3478478881949224
3120000000.0 0.17179219428621886 0.32084282979772544
3140000000.0 -0.31032529467076114 -0.18389470946605949
3160000000.0 0.34041709223103966 0.09439543145613565
3180000000.0 -0.09533248412212529 -0.3405304487947844
3200000000.0 -0.016863726995306538 0.3514535523422616
3220000000.0 0.34125602228987184 -0.06772690939074834
3240000000.0 0.07865067119548422 -0.33277844246045757
3260000000.0 -0.20986922505017233 -0.2636681812159517
3280000000.0 -0.25501136012678827 0.20344505001842264
3300000000.0 -0.05709141517176162 0.29900244311126106
3320000000.0 0.029003676457614085 0.27937680729837283
3340000000.0 0.13969150585289727 0.2088106321709136
3360000000.0 -0.1470321774695461 0.16253647667075005
3380000000.0 -0.007665082748867844 -0.19326978288614619
3400000000.0 0.09018848107797033 -0.1375111176764001
3420000000.0 0.12992771819642257 -0.04203651275353877
3440000000.0 -0.10145396796021271 -0.04879896521837355
3460000000.0 -0.08042705150084345 0.05002053749198377
3480000000.0 -0.0031913710552280983 -0.08423604100177157
3500000000.0 -0.06162905107687624 0.05260210176803915
3520000000.0 0.03667228718445936 0.07230767781432441
3540000000.0 -0.09160654962949204 -0.006908457755706848
3560000000.0 0.08275584577812817 -0.05576920634403403
3580000000.0 0.013283656930499706 -0.10659663281233026
3600000000.0 0.04912618277803327 0.11227181727808766
3620000000.0 0.12796453002319794 -0.010425625426531106
3640000000.0 0.12165492480000471 -0.08026018665096944
3660000000.0 -0.1371388228693802 -0.06397259552092943
3680000000.0 -0.14459736196920145 -0.057067401207866145
3700000000.0 -0.027681993083862478 0.144731031261141
3720000000.0 0.10196178137310628 0.07468184692022321
3740000000.0 0.03677355418195563 0.09452260475291017
3760000000.0 0.07335293749754024 0.025567334835569732
3780000000.0 -0.009041216778956957 0.05275094930476533
3800000000.0 -0.02182601075638126 -0.010000161591504204
3820000000.0 0.0039641597692041675 -0.014236279661804095
3840000000.0 0.017722630004406194 -0.050639417382677694
3860000000.0 -0.06469562204768026 0.05297986631931239
3880000000.0 0.10529440614035848 0.0084232731157166
3900000000.0 -0.12002771348669782 0.04797003966040071
3920000000.0 0.08220991502453537 0.1133976029608664
3940000000.0 0.15387349678242787 -0.004304276754572699
3960000000.0 -0.06069226027127581 0.14196567219961115
3980000000.0 -0.04021971693997678 -0.13722287979346842
4000000000.0 -0.11160711753531566 0.026367840293140214
