!Created with skrf (http://scikit-rf.org).
# Hz S RI R 50.0 
!freq ReS11 ImS11
400000000.0 -0.7135377296492966 0.0916688860149858
406500000.0 -0.3145648935710567 -0.6266750609165596
413000000.0 0.6769935400115961 0.03628657232905798
419500000.0 -0.6661459432985574 -0.030683127133824598
426000000.0 0.23627489073271682 0.613656772690785
432500000.0 -0.4472892243504986 -0.46837976303553774
439000000.0 0.6218535612285727 0.13079804440304954
445500000.0 -0.626253552862674 0.01425994486498178
452000000.0 0.5387379341077794 -0.3050610608924115
458500000.0 -0.19270350479569423 0.5917353682243048
465000000.0 -0.49067237316536494 -0.3826961534435094
471500000.0 -0.21704034443688927 -0.580559860872023
478000000.0 -0.10679873300591922 -0.6016531778063846
484500000.0 0.26200741254448107 -0.5443283503049526
491000000.0 0.07101519400582122 -0.5857892906448908
497500000.0 -0.29618819736157465 -0.4870791158121302
504000000.0 -0.4155082897190009 0.3429504381152975
510500000.0 0.04786660137385383 0.49779812080978864
517000000.0 0.42717709076228866 0.1653354001587526
523500000.0 0.14050995655360862 0.40502762892980215
530000000.0 -0.11294026518213396 0.37659179085672145
536500000.0 0.25014607493956503 0.2597627775489981
543000000.0 0.28791962489338296 0.1953969003204835
549500000.0 0.31751919101778725 0.09818889882482493
556000000.0 -0.009611146267500167 -0.30685318534638856
562500000.0 0.1792668666335893 -0.2280947688301223
569000000.0 -0.14748872153296264 -0.229907406932776
575500000.0 0.2584104317479782 0.04488997649915637
582000000.0 0.09473175797150658 -0.23967100407905753
588500000.0 0.20288162705440113 0.1718759735330979
595000000.0 -0.011436118600465653 -0.2846507910363944
601500000.0 0.07256144176537693 -0.28271495149153275
608000000.0 0.2109279904536896 -0.20461216450324266
614500000.0 0.022938565210483663 -0.298854392501477
621000000.0 -0.050858068797079735 -0.29414225467223715
627500000.0 0.2956643054971744 0.01699064068493885
634000000.0 -0.05453885326503198 0.2967520402099815
640500000.0 -0.28868234239009777 0.03891030346043944
647000000.0 0.2977044600269804 0.02487529696178815
653500000.0 0.2041076700177186 0.22001972220941268
660000000.0 -0.29605163033329335 -0.04830745126047296
666500000.0 0.13148301972954868 -0.27045849450336285
673000000.0 0.11078314962823438 0.2749667134477493
679500000.0 0.2943725000193387 -0.07866472257338153
686000000.0 0.2725895089120925 -0.11912550966384203
692500000.0 -0.284164581929687 -0.08020610394263931
699000000.0 0.2489726749812029 -0.14722822696290355
705500000.0 -0.2916976250306112 -0.004879017856213293
712000000.0 0.2905576121691402 0.034863596865173145
718500000.0 0.1517522167468307 -0.2564504227306665
725000000.0 -0.04334504891484813 0.3080124723265806
731500000.0 0.09240816884569927 -0.30403766439062857
738000000.0 0.15520928406893147 0.29190646101860235
744500000.0 -0.3275162967984486 -0.02070066997366135
751000000.0 0.20320254459044707 0.2590469439926351
757500000.0 -0.17798683617888358 -0.2876562453921778
764000000.0 -0.21115977551526996 0.27658457345985343
770500000.0 -0.21258570288854015 -0.2849661904487543
777000000.0 -0.08342889543575316 0.35336666873590467
783500000.0 -0.11647993716040227 -0.34213959862429255
790000000.0 -0.09168223425362435 0.3556705917075129
796500000.0 -0.002976967167796793 -0.37037987999483696
803000000.0 -0.3343100490472114 0.14285417140358772
809500000.0 0.2865840873442614 0.2223427525390352
816000000.0 0.20619018977518327 -0.2964466491257428
822500000.0 -0.05401259946758653 -0.3667711036331796
829000000.0 -0.3328802864977269 0.18744661432134374
835500000.0 -0.3939197097555436 0.013574979460668667
842000000.0 0.40181851574753114 0.08833732040217851
848500000.0 -0.24738559428947066 -0.3305832307946795
855000000.0 0.17318904216732853 0.3869062717628199
861500000.0 0.17565295374392306 -0.38878240430447114
868000000.0 -0.29390532200452124 0.3194520734249315
874500000.0 0.36797739447793526 -0.2321735131118814
881000000.0 -0.3057354748778573 0.3214655213973423
887500000.0 0.1523675464624105 -0.4209863716631863
894000000.0 0.09478369374187928 0.43461839680459996
900500000.0 -0.40203231401593487 0.17487895932448058
907000000.0 -0.24362344314993856 -0.3532721532200472
913500000.0 0.40632073860825413 0.06243659856783013
920000000.0 -0.13832867723400227 0.3756168286693478
926500000.0 -0.3846875764431646 -0.013251812968826037
933000000.0 -0.10868584200992382 -0.35652315388850453
939500000.0 -0.06213595235703461 -0.35611669565573484
946000000.0 -0.12871947725917302 -0.3168308677314269
952500000.0 -0.06656620172244818 -0.31377355207658886
959000000.0 -0.09365670662504624 -0.28638513894628603
965500000.0 -0.076126933614374 -0.2730403744365238
972000000.0 0.13085267950223287 0.23378739526049097
978500000.0 -0.16623275900778772 0.19534785758563314
985000000.0 -0.2258831130535796 0.08312221634060366
991500000.0 -0.19421219773643106 -0.11902347599217716
998000000.0 0.10772233735635084 -0.1856099303043182
1004500000.0 0.18397939914194678 0.08517705291677208
1011000000.0 -0.17905378289657709 0.06931900217565214
1017500000.0 -0.01901592850741052 -0.1802432418159972
1024000000.0 0.15275571950097677 -0.06281324246175858
1030500000.0 0.10764646904339902 0.1063594608291832
1037000000.0 -0.03175514912339798 -0.13538568825482955
1043500000.0 -0.059886299129323285 -0.11444976985017029
1050000000.0 0.11801509573123328 -0.03534274696793681
1056500000.0 -0.11102844207439647 -0.035717733587162986
1063000000.0 0.10827976997035521 0.02168883242310924
1069500000.0 0.09749188226003547 -0.03575934027620289
1076000000.0 -0.012169730090072248 -0.10187995664727122
1082500000.0 0.05279468874655651 -0.08450781864578445
1089000000.0 -0.06908487072822796 -0.07309657725773148
1095500000.0 0.05949013691712918 0.08062425134314273
1102000000.0 -0.10312247288795386 -0.026520843211011943
1108500000.0 0.09910767575385823 -0.05095504058938275
1115000000.0 -0.07408127698290189 -0.09445388571834698
1121500000.0 -0.06315041776792485 0.11999440671525582
1128000000.0 0.041348705032929846 -0.14503448069771838
1134500000.0 -0.005589688797030254 0.16542779127893825
1141000000.0 -0.062061106481197954 -0.17324658635126433
1147500000.0 0.11869693765759079 -0.1631026354616059
1154000000.0 0.1840116711470226 0.10470608015006205
1160500000.0 0.016217885855591575 0.21949910965547254
1167000000.0 -0.22077803196305035 -0.04955869824202514
1173500000.0 0.2255595338797144 0.01764386423864487
1180000000.0 -0.2238114019975091 -0.044824495491389525
1186500000.0 0.11539889478702646 0.1966819683607169
1193000000.0 0.19156167388478368 -0.13680954943205909
1199500000.0 -0.23977854497494405 -0.03452289250032689
1206000000.0 -0.2153441891535114 0.13036734025858998
1212500000.0 0.26308115709830154 -0.043305355607329135
1219000000.0 -0.2738287616082663 0.06829049556818755
1225500000.0 0.2890422910418671 -0.01877588879365405
1232000000.0 -0.19386742406991583 -0.22939099531143742
1238500000.0 -0.24392481130842097 0.19054124355984667
1245000000.0 0.1921519499190041 0.2512974237472413
1251500000.0 0.26697702842444726 -0.1858122493005254
1258000000.0 -0.21701707729149483 -0.24892340993369652
1264500000.0 -0.3094159541827005 -0.12922251291208178
1271000000.0 -0.19333215184791408 0.2835074341208988
1277500000.0 0.14064873823388446 0.3175425692388225
1284000000.0 0.35242943743701083 0.007908774866448117
1290500000.0 0.1999580751613149 -0.29181546308663375
1297000000.0 -0.16526878211226093 -0.31818694125349933
1303500000.0 -0.35632447918172766 0.029480250168735032
1310000000.0 -0.10361261190420623 0.34226720609642564
1316500000.0 0.35915588737566245 0.0008497221422118673
1323000000.0 -0.04306747949638826 -0.35488667049077
1329500000.0 -0.06890108407661308 0.34777326686799803
1336000000.0 0.33297679766937455 -0.09611859989290059
1342500000.0 -0.332797293253123 -0.07746938207111875
1349000000.0 0.18466531155783805 0.27771613840013254
1355500000.0 0.31517925609691866 -0.09696190740551042
1362000000.0 -0.21732008934864738 -0.24157429953648804
1368500000.0 -0.32484485151420556 -0.0020465460794020216
1375000000.0 0.06971930416941635 0.3253203206627206
1381500000.0 0.2557489222413771 -0.21872564104247053
1388000000.0 -0.3294319826454931 -0.10473959993218825
1394500000.0 0.10241207638568128 0.33782724934734903
1401000000.0 0.13783467645554506 0.3327038858918403
1407500000.0 0.32404030401992207 -0.17004287887798014
1414000000.0 -0.11210763915587721 -0.3560997600710592
1420500000.0 -0.30661537811666195 0.22208869812299276
1427000000.0 -0.1696281386736319 0.3387173500620864
1433500000.0 0.018318738108254982 0.38252098953519104
1440000000.0 0.11376337903843008 0.36262183767590106
1446500000.0 0.06523596695134064 0.3790978445169956
1453000000.0 0.21646536902230398 0.3171928722422445
1459500000.0 0.2451129495316531 0.2945694553025375
1466000000.0 0.36855091270632545 -0.09873308059895582
1472500000.0 0.3352558079578311 -0.16882785710427553
1479000000.0 0.03793370197796248 -0.3655599517033787
1485500000.0 -0.25965175274516317 -0.2478108242143199
1492000000.0 -0.3202313511059225 0.13485098337528995
1498500000.0 0.09030297249869894 0.321364699828415
1505000000.0 0.2730169956926582 0.16984091415927638
1511500000.0 0.09157556452317933 -0.29640862079894126
1518000000.0 -0.22120574987914327 -0.20102139826904064
1524500000.0 0.22682866583134356 0.18047086157486106
1531000000.0 0.1577167979234012 -0.22839760894007471
1537500000.0 -0.23851515438473012 0.13460861513643643
1544000000.0 0.26235557744278676 -0.035910607040656205
1550500000.0 -0.17176848517348445 0.2030868963808009
1557000000.0 0.08159438303815535 -0.2446687076853223
1563500000.0 -0.250574587509976 0.0476680338417217
1570000000.0 -0.2539517591114291 0.005976110025754957
1576500000.0 -0.012198757307590138 0.25608585650953697
1583000000.0 0.2418054399929267 0.09865159281788445
1589500000.0 0.19031039627500304 -0.18309927798535616
1596000000.0 -0.17458809477506584 -0.19563573624111943
1602500000.0 -0.2544740954475949 0.058410664449848604
1609000000.0 -0.24729855624729716 0.06838205409368767
1615500000.0 -0.19354910247802415 0.15525796611643003
1622000000.0 -0.036340297124795674 -0.23923216888094515
1628500000.0 0.14111306340838295 -0.19056464439309562
1635000000.0 0.21833158069565684 0.07480668628146664
1641500000.0 0.020429127914278505 0.22317660243695042
1648000000.0 -0.21869433935813304 -0.012874662851287475
1654500000.0 -0.005058959704556925 -0.21314982456119827
1661000000.0 -0.10154197070356855 -0.18320661080745226
1667500000.0 -0.19760373640893697 0.03951844148666115
1674000000.0 0.11597166605978704 0.1501111844831382
1680500000.0 0.16049352130199246 -0.06105934424870027
1687000000.0 -0.07299069560615636 -0.1410449502397464
1693500000.0 -0.05462013674975965 0.13104742638184708
1700000000.0 0.06729194174357633 -0.11535541707170777
1706500000.0 -0.06305694220446607 0.1034041412904514
1713000000.0 -0.0037389099389307243 -0.11398310801069812
1719500000.0 -0.0666849388835363 0.08815128147545646
1726000000.0 -0.07720820850264089 -0.0764893952969438
1732500000.0 -0.004896093376020449 -0.10618897408327432
1739000000.0 0.08087277413487282 0.07293123220923102
1745500000.0 -0.09545266610357006 0.04754240808111146
1752000000.0 0.03284847758875919 -0.10350780979850609
1758500000.0 -0.08011625077399374 0.07127612200158388
1765000000.0 0.07583514774202117 0.07468660063586523
1771500000.0 0.09056019531230429 0.050992864815534576
1778000000.0 0.04351081028657803 0.09181607128509349
1784500000.0 -0.03904831315209169 0.09377590804269073
1791000000.0 -0.01981407417780538 -0.09806850712107833
1797500000.0 -0.09915676304771336 0.002941137147840836
1804000000.0 -0.018849002279786857 -0.09725205838197917
1810500000.0 0.09201380800205347 0.037144404651240276
1817000000.0 0.07366482702537373 0.06193161494186091
1823500000.0 0.05817438408072652 -0.06939805514971065
1830000000.0 0.008336004578545872 -0.08053975724666795
1836500000.0 0.01281549496075306 -0.07063361448798341
1843000000.0 0.03210502011339878 0.0463710854143992
1849500000.0 -0.04069962522551573 0.01592738580734456
1856000000.0 0.02292760633505722 -0.021954250481283633
1862500000.0 -0.004888234770361795 0.02153306291796529
1869000000.0 -0.01077011032719063 -0.016383630552900562
1875500000.0 -0.01828450258114926 0.003587739695942394
1882000000.0 0.014318069746742244 -0.0010048154927412654
1888500000.0 -0.011402582027575449 -0.009987481846364703
1895000000.0 0.017580273259068614 0.00579631404072707
1901500000.0 0.012990620712618467 0.017698180318698343
1908000000.0 -0.018784205803309226 0.011835412947087193
1914500000.0 -0.010935351045776262 -0.022001326891856042
1921000000.0 -0.0071280160338454395 -0.024386516170536783
1927500000.0 -0.02267750004999195 -0.0029422911917674943
1934000000.0 0.021625572289131763 -0.004141199020118218
1940500000.0 0.009295023673039473 -0.015724836604194405
1947000000.0 -0.01560497936829777 -0.012721031855507135
1953500000.0 -0.01896738423445723 0.014698674192033441
1960000000.0 -0.02350466268387864 0.000702437314411524
1966500000.0 0.0013896136857202293 0.03384417593306862
1973000000.0 -0.041127931683585535 -0.004695273196800276
1979500000.0 -0.009173532592305668 -0.05197173487398131
1986000000.0 -0.027207900341651894 -0.060687377320443964
1992500000.0 -0.07753494609469636 0.0034580905894004005
1999000000.0 -0.05914943517085059 -0.06675865323823163
2005500000.0 -0.09215453859247348 -0.03844553795217095
2012000000.0 -0.04791048054419428 -0.09948828430477474
2018500000.0 0.06524116419389153 -0.0986050537363708
2025000000.0 0.12821929111177463 -0.007825991090997965
2031500000.0 0.08910098922350544 0.09583930588711938
2038000000.0 0.014398981939349055 0.13487133657961003
2044500000.0 -0.13797411191721684 0.004414939370858749
2051000000.0 -0.11931923390248275 -0.0769398916656453
2057500000.0 -0.13287676490074843 -0.04310135322366405
2064000000.0 -0.13559715264731864 -0.03393435030016206
2070500000.0 -0.13447101376856663 0.010338139323319125
2077000000.0 0.09311614921511484 0.0891514133140629
2083500000.0 0.08153777103228445 -0.08983926275130558
2090000000.0 -0.10328146060671313 0.05267561456853081
2096500000.0 0.08404223437607998 0.06943544546845926
2103000000.0 -0.0825385119997593 0.06751254214788677
2109500000.0 -0.05668310315449199 -0.08804371812279635
2116000000.0 -0.0987317806945755 0.0449938597614063
2122500000.0 0.003755829158699766 0.11248990321432895
2129000000.0 0.11583756839152293 0.04286581826254826
2135500000.0 0.07709655662179554 -0.10533168916312784
2142000000.0 -0.05296143112836117 0.13242164135681947
2148500000.0 -0.10275670983723485 -0.1141747790684102
2155000000.0 0.051888130506203556 0.15944227849369386
2161500000.0 -0.039797293747292135 -0.17520791303859415
2168000000.0 -0.19317141468035515 0.02675708056385621
2174500000.0 -0.15173091476713735 0.14010877658927662
2181000000.0 -0.12735805178479978 0.1770954524712948
2187500000.0 -0.026509698359063822 0.2290904722013871
2194000000.0 0.016706962628278192 0.2415878325143351
2200500000.0 0.014213887136979457 0.2521204172180106
2207000000.0 0.24603512077064543 0.07603503700722537
2213500000.0 0.23372923711023816 0.1122327620886063
2220000000.0 0.2587322524852262 -0.008124870527223138
2226500000.0 0.21397671632888035 0.13293366345135776
2233000000.0 0.21619291422178755 0.11988435095702409
2239500000.0 -0.10862142834191754 0.2155038447820523
2246000000.0 -0.14377961088779326 0.1847564788142422
2252500000.0 -0.21268007402430125 0.07348940314600054
2259000000.0 -0.2190734770485739 0.023159426107350677
2265500000.0 -0.18691281474124488 0.10496591636139116
2272000000.0 -0.0646213325578164 0.19746778561572562
2278500000.0 0.1180528172421487 -0.1643333441685531
2285000000.0 -0.11377565397827222 0.15658676084197456
2291500000.0 0.0397548417821717 -0.17930531071969455
2298000000.0 -0.010743487132346682 0.17280276813134546
2304500000.0 -0.06618107555492021 -0.15511509801952617
2311000000.0 -0.14984811364866865 -0.04127761404862637
2317500000.0 -0.09036248769784877 0.12541329065706247
2324000000.0 0.041630612124740715 -0.1452430766180481
2330500000.0 -0.151078834802764 -0.008830082321228873
2337000000.0 0.09365171192033461 0.11840346321006819
2343500000.0 0.07646912864855997 -0.1335610607504081
2350000000.0 -0.15316667614697943 -0.023640122344295883
2356500000.0 -0.14384229681314215 0.06585272175010526
2363000000.0 -0.016905431302619126 0.15967274239276383
2369500000.0 0.1541502384820562 0.04895549644750876
2376000000.0 0.15665279906374807 -0.04099311289357605
2382500000.0 0.12758789368869122 -0.09615833549158913
2389000000.0 0.15250601108646622 0.04635253325238407
2395500000.0 0.04927285834630847 0.1511394613162651
2402000000.0 -0.13432476670626067 0.08449233787280039
2408500000.0 -0.1461151097998401 0.06602156097494372
2415000000.0 -0.12564111549194273 0.09958632458780553
2421500000.0 -0.1428911945776098 0.0688075226205753
2428000000.0 -0.06459651024299634 0.14244497898642128
2434500000.0 0.03702914028853348 0.14819537460932872
2441000000.0 0.017414448795676513 0.15128576817529182
2447500000.0 0.12557099757521173 0.08192728350592388
2454000000.0 0.14675851455203073 -0.023931635123980825
2460500000.0 0.14842761325279435 -0.0002954528921373647
2467000000.0 0.14721199093275622 0.016192975465173634
2473500000.0 0.14346005597611103 -0.03997630543288994
2480000000.0 0.13878298410083045 0.05731233406338361
2486500000.0 0.15389914531255977 0.02018432408244051
2493000000.0 -0.004591116554829634 0.15433446893613542
2499500000.0 0.035356220136772504 0.15254771465690206
2506000000.0 0.01796143473881135 0.15762375581809424
2512500000.0 -0.0863595910073466 -0.133479118003482
2519000000.0 0.16061657432634519 -0.011178370461578994
2525500000.0 -0.13729213425771686 0.08959316005635573
2532000000.0 0.07275021659769874 -0.15094774772005004
2538500000.0 -0.05720872310376441 0.15775118949051978
2545000000.0 -0.11964948143762276 -0.12048555750154591
2551500000.0 0.10639344711954939 0.13097568507886811
2558000000.0 0.038655482077706166 -0.16436307722300478
2564500000.0 -0.009475747292716078 0.16591803090056484
2571000000.0 0.12431923907256716 -0.10840716371272437
2577500000.0 -0.15645726298442614 -0.025183956733995084
2584000000.0 -0.15492535114441938 0.022587468310162895
2590500000.0 0.026025466700666723 0.1504471488647975
2597000000.0 0.14945447225471808 -0.031164971237838793
2603500000.0 -0.03153332567881985 -0.14624675457821595
2610000000.0 0.029577897302924906 0.14628085794324175
2616500000.0 -0.032946640826512746 -0.14050133508998103
2623000000.0 0.09843341508472646 0.09939032480091682
2629500000.0 -0.11591629594372078 -0.0607669254023754
2636000000.0 0.1148035524801724 -0.04570809556124759
2642500000.0 -0.1057931777929772 0.04157544690531112
2649000000.0 -0.09178511514746578 -0.05520508449707541
2655500000.0 0.0897998635278389 0.036910737786702286
2662000000.0 0.08276024442548549 -0.039368117655013475
2668500000.0 0.05032045066324051 -0.0709529271618484
2675000000.0 -0.04976645622771073 0.06827653092858155
2681500000.0 -0.06778644583012573 0.04742943125533108
2688000000.0 -0.02902212941704864 0.07819191513634251
2694500000.0 0.050156271016481915 0.06944916438056832
2701000000.0 -0.06905230283818835 0.053974265318691796
2707500000.0 -0.09066496113409656 -0.03359430677086712
2714000000.0 0.10101583857177017 -0.026964240773939874
2720500000.0 0.018545352478161765 -0.11474734777658638
2727000000.0 -0.12696995910881295 0.00492310800629085
2733500000.0 -0.06488666144730332 -0.12496955704350565
2740000000.0 -0.12145594958398126 -0.09665299073342672
2746500000.0 0.04146439824921938 -0.16172960718460638
2753000000.0 0.1773339051451138 -0.043008782193545335
2759500000.0 0.1615499543143659 0.10475796340872019
2766000000.0 -0.15215601607847315 0.133457708230472
2772500000.0 -0.09549636206461426 -0.1886020931935205
2779000000.0 0.11872132937002532 0.18400576298159652
2785500000.0 -0.20612752108508142 -0.09079179301124929
2792000000.0 0.22073690304184543 0.07465333506812527
2798500000.0 -0.20027870809548556 0.1329227391502794
2805000000.0 0.18889849498815664 -0.15790921508412095
