!Created with skrf (http://scikit-rf.org).
# Hz S RI R 50.0 
!freq ReS11 ImS11
400000000.0 -0.7164749771959024 0.06616688225749714
406500000.0 -0.3075108055559974 -0.63009394817293
413000000.0 0.6769141524203404 0.030440406203126904
419500000.0 -0.6664484359423694 0.009299746477724606
426000000.0 0.2786533560473742 0.595240529323099
432500000.0 -0.4808634215250576 -0.43438627443448613
439000000.0 0.6331080283716486 0.05647710062063976
445500000.0 -0.6235090648809116 0.0667291775936048
452000000.0 0.5257470616518627 -0.32822440985676204
458500000.0 -0.14458616075519207 0.6057999718021769
465000000.0 -0.5103554804909012 -0.3570944808689591
471500000.0 -0.2811654319472537 -0.5533868205558753
478000000.0 -0.13004333240733593 -0.5983116155496293
484500000.0 0.2565207508821464 -0.5482371408299039
491000000.0 0.03451956682164535 -0.5899483370221386
497500000.0 -0.2994795550579502 -0.48517520907262485
504000000.0 -0.46075976457146084 0.28061002358141324
510500000.0 0.029958764783916708 0.4997628655341577
517000000.0 0.40046001581445523 0.22299996450106557
523500000.0 0.0955918533268162 0.41804057100615644
530000000.0 -0.1607500036864751 0.3583016957500133
536500000.0 0.21530039306437893 0.28879240190959765
543000000.0 0.3038690386123719 0.16882708875687497
549500000.0 0.32377979322134653 0.073105048009659
556000000.0 -0.003526627336422192 -0.30685279952762146
562500000.0 0.14962760262220526 -0.24855126855959478
569000000.0 -0.16736917325504094 -0.2153283029051191
575500000.0 0.2621837873519744 -0.005539265449079613
582000000.0 0.03122636066973923 -0.256877548266247
588500000.0 0.2297423509709101 0.13645995192262556
595000000.0 -0.05445239765513226 -0.28110628048759545
601500000.0 0.10354670900355338 -0.27393761139341105
608000000.0 0.23131538138560595 -0.18287692228278643
614500000.0 0.03809746113253424 -0.29805355663432526
621000000.0 -0.048290717664188264 -0.29520509562426467
627500000.0 0.29165657651539184 0.053490851051781904
634000000.0 -0.09123057926393535 0.2878120387078287
640500000.0 -0.2912519278984804 0.006613981870529848
647000000.0 0.292883109697457 0.05762539150257094
653500000.0 0.18897364494625254 0.23224465132492922
660000000.0 -0.2900278138024666 -0.0733759435162331
666500000.0 0.12344401637139517 -0.2731221389712112
673000000.0 0.12732311883515476 0.2670377646497122
679500000.0 0.2821719647875283 -0.11371939461649955
686000000.0 0.25829650568898177 -0.14635411622372996
692500000.0 -0.29449463425213396 -0.016744169293482568
699000000.0 0.20180101285872465 -0.20799612162797138
705500000.0 -0.2896321865575309 0.04050719406611751
712000000.0 0.2936581923042684 0.0011660906781481065
718500000.0 0.11973621019520299 -0.2739640606192895
725000000.0 -0.002754744092351711 0.31229815540358885
731500000.0 0.09033942428333043 -0.30623098429031775
738000000.0 0.14449745266697103 0.29847375638334633
744500000.0 -0.32322572083765877 -0.05984473512152591
751000000.0 0.2435878143483462 0.22356134641859648
757500000.0 -0.11374020488505927 -0.3192456274847661
764000000.0 -0.23648866714277467 0.25645494282149744
770500000.0 -0.15547380806164054 -0.3200257710376875
777000000.0 -0.13899986707322368 0.3350013810748641
783500000.0 -0.0719289085900511 -0.353124342299275
790000000.0 -0.11341255034429203 0.3484390451936979
796500000.0 -0.004978641423612866 -0.36931216921806037
803000000.0 -0.3300575784106576 0.1504934281980764
809500000.0 0.2979856822218588 0.2059418319019124
816000000.0 0.20254490795545407 -0.29822203779474515
822500000.0 -0.052867440282795275 -0.3663842550471567
829000000.0 -0.3165376881736666 0.21307164638484566
835500000.0 -0.3915151426168747 0.042690910702669706
842000000.0 0.40912498705327793 0.04965056154650384
848500000.0 -0.2777260321868777 -0.3072129494073726
855000000.0 0.2176666715999805 0.3653371215913374
861500000.0 0.14581994379444224 -0.40196076677999415
868000000.0 -0.2712494476006167 0.33993486403440243
874500000.0 0.3621725921496769 -0.24250316643233222
881000000.0 -0.31713968802845466 0.3117913473902519
887500000.0 0.1376458466083502 -0.4265579640839245
894000000.0 0.07201824115668125 0.44003792556802396
900500000.0 -0.43489500933167263 0.06017809934446649
907000000.0 -0.15300798321549194 -0.4007745217997249
913500000.0 0.39480253296269174 0.11454413656838067
920000000.0 -0.18762104358368023 0.35316613719665096
926500000.0 -0.38376750941330967 -0.02607445420183012
933000000.0 -0.10270219316393459 -0.3577249441446781
939500000.0 -0.058738626318409586 -0.35661792540894377
946000000.0 -0.11759680066492846 -0.3207979692893635
952500000.0 -0.06380043705909892 -0.31418985953820916
959000000.0 -0.11275971932458093 -0.2792099639695049
965500000.0 -0.12563374311707257 -0.25389201355662294
972000000.0 0.17655770217799324 0.20193196478692896
978500000.0 -0.12256724386875864 0.22606640314211748
985000000.0 -0.19121135798030547 0.1466690746425592
991500000.0 -0.21204726251984649 -0.08569896714088027
998000000.0 0.08620751214520601 -0.19755913792526647
1004500000.0 0.18337481841566086 0.08935362153104123
1011000000.0 -0.18682622852738212 0.0476741830026698
1017500000.0 0.0007619547239800865 -0.18145388307120103
1024000000.0 0.15997450267091434 -0.04360111082334899
1030500000.0 0.07844430977457888 0.1297068955080719
1037000000.0 -0.015615658964668077 -0.1379786669635232
1043500000.0 -0.039226925665502545 -0.12296882715496049
1050000000.0 0.12214682522148862 -0.013199137299828486
1056500000.0 -0.10312157702304335 -0.05413160804468896
1063000000.0 0.10492128739049658 0.03392149751580721
1069500000.0 0.0911364717837955 -0.04894960571954414
1076000000.0 -0.019539841832893114 -0.10039320355624215
1082500000.0 0.00632222487646427 -0.0991116610734898
1089000000.0 -0.09861588247068458 -0.020234983171014232
1095500000.0 0.07662662563970432 0.06573500073486409
1102000000.0 -0.10607955242415631 -0.0135311839403209
1108500000.0 0.09459777014443535 -0.059923248506969916
1115000000.0 -0.07444141369741268 -0.09477912736492299
1121500000.0 -0.035854370351851725 0.13135662433715928
1128000000.0 0.015819672853087954 -0.1505964909240227
1134500000.0 -0.03487683183324086 0.16214158020120806
1141000000.0 -0.06268477459370057 -0.17340872677329228
1147500000.0 0.14547053599235057 -0.14014414688118648
1154000000.0 0.16977640899361923 0.1261772280474827
1160500000.0 -0.02163627114256701 0.21847279634008776
1167000000.0 -0.21203555567895715 -0.07660350947934404
1173500000.0 0.22496921699000902 0.012137168026671434
1180000000.0 -0.22554382373141837 -0.03361513364353415
1186500000.0 0.10523150894593714 0.2018256686206221
1193000000.0 0.19922973331990257 -0.12453894144644732
1199500000.0 -0.2415157451299608 -0.012685570498766799
1206000000.0 -0.20598080777578545 0.14434814356016948
1212500000.0 0.2589239824413351 -0.06264709781545319
1219000000.0 -0.2721751851700206 0.07465447387413329
1225500000.0 0.2865929122233922 -0.0429483466730333
1232000000.0 -0.21879956660628505 -0.20660018768445396
1238500000.0 -0.2365659514270757 0.20098607409773653
1245000000.0 0.2167532784909123 0.23137768549445617
1251500000.0 0.21420626654920108 -0.24588611733412133
1258000000.0 -0.20037346706406398 -0.26352348822418287
1264500000.0 -0.3191774850246831 -0.10356809639460546
1271000000.0 -0.18617394327544326 0.2888725703231055
1277500000.0 0.09700581883055467 0.33389279140640815
1284000000.0 0.35104307713232374 0.034555883257374714
1290500000.0 0.28034135044756114 -0.2165598008977299
1297000000.0 -0.08105626483189576 -0.3496827179404015
1303500000.0 -0.35667166673851197 -0.029867547252560828
1310000000.0 -0.1552381447837458 0.3215792321748331
1316500000.0 0.35380913923034885 0.05950586073609787
1323000000.0 0.012153739561444575 -0.35688287416718917
1329500000.0 -0.045234404835817595 0.351109621946142
1336000000.0 0.3349884599664275 -0.08636928616424751
1342500000.0 -0.3332188492202477 -0.07372127508225028
1349000000.0 0.20271131440108608 0.26442153604778923
1355500000.0 0.3116485930888287 -0.1060000808373876
1362000000.0 -0.2582950113660685 -0.19674932266050027
1368500000.0 -0.32375703376143805 0.027824283451179887
1375000000.0 0.09052724684979578 0.3202265068151558
1381500000.0 0.23867557056846497 -0.237724039946487
1388000000.0 -0.3417667747810735 -0.05482027955655028
1394500000.0 0.14502784698338203 0.3226089647827226
1401000000.0 0.11991397015653375 0.34039214142625296
1407500000.0 0.303344103931283 -0.20648393695667966
1414000000.0 -0.14827352277879985 -0.34368673654052984
1420500000.0 -0.32360142932739167 0.19851806916129408
1427000000.0 -0.19509211800802811 0.32592075717051877
1433500000.0 -0.02193865162165221 0.3833676342982053
1440000000.0 0.05504407221919011 0.3766150891159614
1446500000.0 0.0134820496837546 0.3850977244967199
1453000000.0 0.1254734878671619 0.3637473556022832
1459500000.0 0.17652346066005642 0.34025259885080605
1466000000.0 0.38112301363198936 0.013916190962740181
1472500000.0 0.34890834133392196 -0.13924669482755228
1479000000.0 0.07571289698047677 -0.3593173884574825
1485500000.0 -0.22705746341134278 -0.2777140223489517
1492000000.0 -0.33464287635651957 0.09225389641102213
1498500000.0 0.007589486031050781 0.3328228961842004
1505000000.0 0.24230248936884308 0.2075393027015981
1511500000.0 0.07588139224980742 -0.2999793713340033
1518000000.0 -0.2479405395085431 -0.16544200173768225
1524500000.0 0.24784602686716142 0.14962083891046876
1531000000.0 0.1272869634432148 -0.24631160149375053
1537500000.0 -0.19775253022227132 0.1899164247971413
1544000000.0 0.24650926301419931 -0.09833573084629996
1550500000.0 -0.13662214870936143 0.22900631103648553
1557000000.0 0.05070329259260366 -0.2540134733276064
1563500000.0 -0.2501570554288869 0.05653442081229726
1570000000.0 -0.25359290732303463 -0.031051592880331665
1576500000.0 -0.01900161969471966 0.2569408981769848
1583000000.0 0.21465770396494915 0.15050785494553862
1589500000.0 0.2136541278662405 -0.15552391686592612
1596000000.0 -0.13777593816938966 -0.22375187730097815
1602500000.0 -0.2576406524557894 -0.044867993640638225
1609000000.0 -0.25338349692477685 -0.041136681731949426
1615500000.0 -0.21959342944907354 0.11548431513235885
1622000000.0 0.06722678037169773 -0.23225844974137644
1628500000.0 0.17096035085105132 -0.16352365095729468
1635000000.0 0.1944552943198508 0.12285895838856646
1641500000.0 -0.011860635108924746 0.2230887548070033
1648000000.0 -0.2135798522167239 -0.046182241150183365
1654500000.0 0.003256333789416535 -0.21215170785109114
1661000000.0 -0.0973044334641316 -0.18471037235461885
1667500000.0 -0.1992501722032733 0.026466521124292656
1674000000.0 0.12485204263350858 0.1419851450283571
1680500000.0 0.14325506325294804 -0.09397515729521762
1687000000.0 -0.10974260377619671 -0.11434917489014622
1693500000.0 -0.019806907189908945 0.140274569783158
1700000000.0 0.04430710808978281 -0.1261323308122915
1706500000.0 -0.02384972909581626 0.11878065898463414
1713000000.0 -0.05902786696951532 -0.09797622350179194
1719500000.0 -0.03515677879782788 0.10534326938319145
1726000000.0 -0.09780295794923116 -0.04993020953199294
1732500000.0 -0.0038359397435781986 -0.10801079463228276
1739000000.0 0.07759438008474914 0.0780744209130428
1745500000.0 -0.10738952791417114 0.008132133477484668
1752000000.0 0.08159110705609302 -0.07265389955714842
1758500000.0 -0.1078046635001987 -0.00033780336746985995
1765000000.0 0.030976893274614236 0.1025608722436852
1771500000.0 0.056337780000485574 0.08722437573646603
1778000000.0 -0.01895307771635201 0.09975644827402773
1784500000.0 -0.07688248841361608 0.06580623420010596
1791000000.0 0.030538327925948426 -0.09466919384490013
1797500000.0 -0.09696161372664396 -0.017536827600175553
1804000000.0 -0.0016503822190580128 -0.0984313630109649
1810500000.0 0.08739980065998244 0.045717500077898085
1817000000.0 0.05432462012731169 0.07857124047331644
1823500000.0 0.07374946579436847 -0.051243751693514306
1830000000.0 0.02281387354942752 -0.07676222132024865
1836500000.0 -0.005732204118632489 -0.07082500002385134
1843000000.0 0.05532100407352928 0.003992166023584082
1849500000.0 -0.018794680506711216 0.03892590197913812
1856000000.0 -0.010593556314458883 -0.029757332965565084
1862500000.0 0.02183874175092652 -0.0007835143740662462
1869000000.0 0.009103793499555372 0.017500772930176062
1875500000.0 0.018036790881914136 0.005311321457034543
1882000000.0 -1.6804217042896155e-05 -0.014994959903014147
1888500000.0 -0.015430486252990384 0.002891383976431291
1895000000.0 -0.013637080700400142 0.013426087840886598
1901500000.0 -0.01630104362142645 0.014803224527218686
1908000000.0 -0.010669126278825238 -0.01966963181847405
1914500000.0 0.014701807050239869 -0.019610163858602408
1921000000.0 0.009761062666186792 -0.022508735845563482
1927500000.0 -0.011777593445696819 0.018910737286186866
1934000000.0 0.0008829837248430994 -0.021656159400543894
1940500000.0 -0.017811512649412727 0.0020147256520269396
1947000000.0 -0.018618319104919463 0.0088863385785756
1953500000.0 -0.015611322560282121 0.018598777087548223
1960000000.0 -0.018436928881407418 -0.015363864554436156
1966500000.0 -0.005744942048515418 0.03370634143047812
1973000000.0 -0.0288859337415288 -0.030158730224764965
1979500000.0 0.029118435581904134 -0.04423385777227503
1986000000.0 0.026710493863282555 -0.061443227537576105
1992500000.0 -0.06894688216340673 -0.03610322911809318
1999000000.0 0.0008668219979676316 -0.08900992327096466
2005500000.0 -0.07940550426894347 -0.06062182597068025
2012000000.0 -0.02446397998506751 -0.10774572723514358
2018500000.0 0.0905699511547048 -0.07567893990154298
2025000000.0 0.12768600024700005 0.013101209495124607
2031500000.0 0.0763774709157047 0.10634665465857716
2038000000.0 -0.00015533937831246545 0.13519724469275535
2044500000.0 -0.13715679935783226 -0.008112571367283319
2051000000.0 -0.1012480838519106 -0.09813310961925802
2057500000.0 -0.13126062871203342 -0.04475371503474315
2064000000.0 -0.13941780410894863 -0.00737423137911872
2070500000.0 -0.12303969806950289 0.05508018839814473
2077000000.0 0.11288036402840682 0.061749408837374176
2083500000.0 0.049586120198199954 -0.11053652358550285
2090000000.0 -0.09018052824447348 0.07337484111923952
2096500000.0 0.10282879440140578 0.03633137003202797
2103000000.0 -0.04394205786634251 0.09743189758577761
2109500000.0 -0.08331179406314819 -0.06476141550780687
2116000000.0 -0.0953372114121142 0.053510800376030905
2122500000.0 0.0262877843331903 0.10987194292359963
2129000000.0 0.12374653099266324 0.01166512258215956
2135500000.0 0.08001176142472156 -0.10407170527972345
2142000000.0 -0.0584089304147906 0.13086373561554507
2148500000.0 -0.09187382053133464 -0.12417061795561889
2155000000.0 0.0555378941774425 0.15863199056990887
2161500000.0 -0.0015256231807497887 -0.1798121968829017
2168000000.0 -0.19465631602955163 0.0072663111790733
2174500000.0 -0.14596427875551685 0.14522001272761617
2181000000.0 -0.1307328772166066 0.17409669604346079
2187500000.0 -0.030860589536588434 0.22827190451479057
2194000000.0 -0.012109313016752986 0.24185133977325418
2200500000.0 -0.003148273326171633 0.2521269473156622
2207000000.0 0.2468613277536595 0.07107987038785663
2213500000.0 0.23418133811832625 0.10985361663329307
2220000000.0 0.2580516539792519 -0.008601164099415621
2226500000.0 0.2290167990483747 0.10431063263474598
2233000000.0 0.2223115198700477 0.10789354621264406
2239500000.0 -0.08760562640011405 0.22489842500245233
2246000000.0 -0.1460902000176138 0.18337364301616763
2252500000.0 -0.2118036037055414 0.07598169300024696
2259000000.0 -0.21963775166188285 0.019883623399734242
2265500000.0 -0.17199518405958145 0.12838394421646226
2272000000.0 -0.03642152678807609 0.2051429935047556
2278500000.0 0.1030860157723324 -0.17452780808465676
2285000000.0 -0.11536039202279431 0.15635965331753174
2291500000.0 0.048392363639688976 -0.17794457598146804
2298000000.0 -0.028439682809704242 0.17107321824403768
2304500000.0 -0.0702009444711933 -0.153591772664641
2311000000.0 -0.1447850407934876 -0.05754091402367299
2317500000.0 -0.10243758332061449 0.1166481257513558
2324000000.0 0.06320944756013666 -0.13742519328417424
2330500000.0 -0.14883917071708325 -0.029155254598309557
2337000000.0 0.05764998972939353 0.14009301412202035
2343500000.0 0.10943877880566125 -0.10853528643005647
2350000000.0 -0.14218129773833624 -0.06078031685982611
2356500000.0 -0.15564402798269497 0.02634482239709973
2363000000.0 -0.028643132465975652 0.15741686927532086
2369500000.0 0.1580390075515913 0.03179830744620074
2376000000.0 0.15381310586969918 -0.04862849486591106
2382500000.0 0.13226980461748755 -0.08813905656917474
2389000000.0 0.15838184997494037 0.013097126745038276
2395500000.0 0.06572457720988134 0.1439994964777204
2402000000.0 -0.12006609310381906 0.10318944138763653
2408500000.0 -0.1149801312346183 0.11141198866526769
2415000000.0 -0.0734924401522157 0.14234546795140768
2421500000.0 -0.10985982854733513 0.1145116327724663
2428000000.0 -0.013344190465001286 0.1563723691977349
2434500000.0 0.06654210155600329 0.13829268102051157
2441000000.0 0.04125120464599579 0.14741059120202332
2447500000.0 0.14227773914606312 0.0505834990971072
2454000000.0 0.14643851481443884 -0.03256786473356398
2460500000.0 0.14744911393472737 -0.02330609933886151
2467000000.0 0.14728356242012947 0.021835991993821354
2473500000.0 0.14918611997166012 -0.0018829917570578503
2480000000.0 0.1195887428457131 0.09132336285203017
2486500000.0 0.1462990598780056 0.054194780874184216
2493000000.0 -0.07757274375689757 0.13502342050336028
2499500000.0 -0.025822388934137804 0.15521428401388845
2506000000.0 -0.03710368339627077 0.15443257092617746
2512500000.0 -0.0044166546876318715 -0.15835782509534574
2519000000.0 0.1516965214666404 0.0531389094483098
2525500000.0 -0.15275101833044158 0.058621796890593506
2532000000.0 0.10558790266199627 -0.12930538614404857
2538500000.0 -0.07713528442203736 0.14830241083758086
2545000000.0 -0.0839416886640928 -0.1467486710644335
2551500000.0 0.10236888812139791 0.13275619520740783
2558000000.0 0.06567218711758585 -0.15444932499918412
2564500000.0 -0.018600366318844118 0.16421852335682757
2571000000.0 0.12588221001934552 -0.10489105256520499
2577500000.0 -0.1575847764932301 -0.006066648983981891
2584000000.0 -0.1501452155015119 0.04176747238147351
2590500000.0 0.048834568264856104 0.1442878335552198
2597000000.0 0.1364406845725973 -0.06707862796390598
2603500000.0 -0.05255318863714171 -0.13955241089158613
2610000000.0 0.054815196295686076 0.13828942887653137
2616500000.0 -0.06501116443493801 -0.12833941833453333
2623000000.0 0.11147252793689787 0.08403021770056127
2629500000.0 -0.12506593893990653 -0.03938535499353463
2636000000.0 0.09799449260737134 -0.07458037164070064
2642500000.0 -0.08163777928331735 0.07874113274686102
2649000000.0 -0.10157989579275728 -0.03367667968091169
2655500000.0 0.09715992487684538 0.0007803927226035569
2662000000.0 0.07276934142473443 -0.05682522502624454
2668500000.0 0.04721757199284177 -0.0738756905631587
2675000000.0 -0.051916688827197084 0.0680310493124528
2681500000.0 -0.07880971905433412 0.02717018471585459
2688000000.0 -0.061373359360940974 0.05721708168561442
2694500000.0 0.0162172140789027 0.08475818439560674
2701000000.0 -0.0871819385481955 0.016373358146707637
2707500000.0 -0.0613937228609573 -0.07512038238059457
2714000000.0 0.09454344143413014 0.04458362673175622
2720500000.0 0.04636808185005253 -0.10628358947335215
2727000000.0 -0.12363996622464163 -0.029336171168532998
2733500000.0 -0.021843589182566236 -0.13818186158949405
2740000000.0 -0.11173378124490464 -0.10716518832964377
2746500000.0 0.07049147585249209 -0.15070895705836967
2753000000.0 0.17899780717504168 -0.03040974171509971
2759500000.0 0.16424628958895535 0.09958313664514314
2766000000.0 -0.1381903663791764 0.14721972481231596
2772500000.0 -0.1358820550649673 -0.1612812931057003
2779000000.0 0.14144194962876055 0.1666953716826844
2785500000.0 -0.21979939526659462 -0.05011702353392931
2792000000.0 0.2266803361607552 0.05476142815951656
2798500000.0 -0.18955378740679088 0.14880943842405578
2805000000.0 0.16388726390481503 -0.1842638422610011
