!Created with skrf (http://scikit-rf.org).
# Hz S RI R 50.0 
!freq ReS11 ImS11
400000000.0 -0.7099398969235493 0.11805044092898384
406500000.0 -0.3105529078980231 -0.6286229217992969
413000000.0 0.6775016743687761 0.018406099471320554
419500000.0 -0.6667481917229557 -0.003218963590825035
426000000.0 0.2507846911284608 0.6076005797951997
432500000.0 -0.4557631150627961 -0.4605571776665282
439000000.0 0.6313744467483228 0.07074825423564432
445500000.0 -0.6245846903518651 0.04992943106664381
452000000.0 0.5394906344984786 -0.30391504435724775
458500000.0 -0.13573715043381823 0.6072517291366846
465000000.0 -0.5100454813851559 -0.3563725325330956
471500000.0 -0.3064584719011246 -0.538805100885566
478000000.0 -0.08974862429207088 -0.6051009617846644
484500000.0 0.20465253608934106 -0.5686247555488344
491000000.0 0.054785632024181186 -0.5880538089291107
497500000.0 -0.30013385982798246 -0.4849441441754504
504000000.0 -0.39562926675844134 0.3667079204963613
510500000.0 0.04508946795041664 0.4986154408935035
517000000.0 0.4196588651911664 0.18401347572671278
523500000.0 0.14136328050774827 0.4048367632467544
530000000.0 -0.11532310785302159 0.3757347227571651
536500000.0 0.2283537209461427 0.2790908441106134
543000000.0 0.2831672151565617 0.2019611561748217
549500000.0 0.31843312851742495 0.09322999828254597
556000000.0 0.003788253801670535 -0.3066814697601431
562500000.0 0.167064265701371 -0.23699792346606688
569000000.0 -0.15151342814389535 -0.22666328312212977
575500000.0 0.2611651045722663 0.02257993278446322
582000000.0 0.05941108243310524 -0.25123500853297104
588500000.0 0.240348113479344 0.11509154468635012
595000000.0 -0.05692562964651268 -0.28043394113772846
601500000.0 0.09283925694020953 -0.2770897366231878
608000000.0 0.21128947806038492 -0.2048948824032624
614500000.0 0.02014070472915733 -0.29958823321977185
621000000.0 -0.06306791863452252 -0.2922720477546861
627500000.0 0.293807205378516 0.03868271788306811
634000000.0 -0.07393929489914904 0.29294692224462715
640500000.0 -0.290986732295649 0.018304501489528946
647000000.0 0.29538910358968146 0.04501966839601659
653500000.0 0.18696836399797345 0.23426521306696427
660000000.0 -0.2920435283157049 -0.06629367099255291
666500000.0 0.13148431509935307 -0.2697834163758456
673000000.0 0.10886720189791309 0.2753023197810931
679500000.0 0.28604387495313505 -0.10357276475097628
686000000.0 0.2670479471384644 -0.13033004463542003
692500000.0 -0.2942468890479542 -0.01453660177898848
699000000.0 0.22505525020792697 -0.1814854961927801
705500000.0 -0.28647231521060446 0.0550064477584287
712000000.0 0.29149581417903847 -0.030003166933951723
718500000.0 0.12285535264724892 -0.2725335692862025
725000000.0 -0.020921058389532912 0.31129479601957594
731500000.0 0.10457293383406267 -0.30114657257294325
738000000.0 0.1798117121634753 0.2783974577646401
744500000.0 -0.3289351200678938 -0.005261187733733238
751000000.0 0.24182999622158635 0.22589907095847514
757500000.0 -0.13736516208335567 -0.30981294553280486
764000000.0 -0.23420903363194842 0.25837795930582785
770500000.0 -0.1648485284463421 -0.31536130295167486
777000000.0 -0.1308093312752814 0.3390217924246065
783500000.0 -0.10501985162539723 -0.3452328608895446
790000000.0 -0.11308610173063334 0.34894994835376464
796500000.0 0.008444684648765736 -0.3698607845020496
803000000.0 -0.3370646276835757 0.1349081562919948
809500000.0 0.27891679230603006 0.23149110613038565
816000000.0 0.2346600551273712 -0.27364857219446526
822500000.0 -0.033564109605955336 -0.36857736035083055
829000000.0 -0.3233229408397792 0.20191922595878423
835500000.0 -0.39277991617412916 0.02470403829673396
842000000.0 0.41092752240432745 0.02439242501287777
848500000.0 -0.2715982450757506 -0.3124711026767435
855000000.0 0.19063503811929552 0.37993728724477316
861500000.0 0.14581220753480065 -0.40150195926500093
868000000.0 -0.2652565064494856 0.34385975032029176
874500000.0 0.3309492223994739 -0.28331039872480823
881000000.0 -0.29730204900868235 0.32992012805001125
887500000.0 0.11152227163733995 -0.4337632535391416
894000000.0 0.10432399261700485 0.4332066398027667
900500000.0 -0.42163458822396965 0.1218696170097058
907000000.0 -0.2319330066848887 -0.3607917246307118
913500000.0 0.4036948768656833 0.07847696931272051
920000000.0 -0.16232723800247417 0.36582529441586303
926500000.0 -0.3842823159598944 -0.025400982811981335
933000000.0 -0.09827648369152316 -0.35937725930366843
939500000.0 -0.05241946017927903 -0.3577271008358805
946000000.0 -0.11490483716108978 -0.32173288785090554
952500000.0 -0.04290039082961557 -0.31772576040305983
959000000.0 -0.09605073129394726 -0.2851873602851208
965500000.0 -0.10500473343903069 -0.262900427724268
972000000.0 0.16083405935231865 0.21404466425639465
978500000.0 -0.13123686174020222 0.22038165584526828
985000000.0 -0.19322953346822885 0.14305399672214117
991500000.0 -0.21256628892683702 -0.08231136181280675
998000000.0 0.07876673254683145 -0.19983750157837615
1004500000.0 0.1887186609011116 0.0758201092701641
1011000000.0 -0.1756519139866863 0.07835775626085215
1017500000.0 -0.04683422280650722 -0.1751997140326403
1024000000.0 0.14990872381635686 -0.07070176597439844
1030500000.0 0.10841077180468373 0.10600515868485119
1037000000.0 -0.045416176452100665 -0.13139685997939418
1043500000.0 -0.058232669797598106 -0.11570232109767169
1050000000.0 0.12152138247074293 -0.021367108692164224
1056500000.0 -0.10165713468620242 -0.05746964453304726
1063000000.0 0.10299444400860626 0.04040571302695492
1069500000.0 0.10324053310844875 -0.011687995264469342
1076000000.0 -0.0059634734011209745 -0.10191225013832855
1082500000.0 0.03300055747699148 -0.09352953130010973
1089000000.0 -0.08679399120487215 -0.05067958195335093
1095500000.0 0.07782185873674313 0.0633943295223845
1102000000.0 -0.10428169323845506 -0.02075921132033284
1108500000.0 0.08988505662279438 -0.06575112899438676
1115000000.0 -0.08766206208092008 -0.0819838849256232
1121500000.0 -0.018408161744216014 0.134458143312533
1128000000.0 -0.002404416753496706 -0.1510476346085351
1134500000.0 0.0229939542833866 0.16389345868154573
1141000000.0 -0.07474453043815042 -0.16818303016699954
1147500000.0 0.13439513823127772 -0.1507939283569417
1154000000.0 0.18258639430012122 0.1073063610709213
1160500000.0 0.007929073340224668 0.21985609774201467
1167000000.0 -0.2175612439281487 -0.061454957234166704
1173500000.0 0.22587530474992867 0.005308731767948947
1180000000.0 -0.22278478631952908 -0.05091771692306231
1186500000.0 0.08853593326260605 0.21014047058443427
1193000000.0 0.21157707143645393 -0.10280392311258035
1199500000.0 -0.23709773992150052 -0.04906131960274217
1206000000.0 -0.2237219663223375 0.11520359955065547
1212500000.0 0.2626327539235062 -0.043615399053046885
1219000000.0 -0.2744768954590152 0.06448316277321106
1225500000.0 0.2882769002260507 -0.02395609000330381
1232000000.0 -0.2070708016348954 -0.21739427929412694
1238500000.0 -0.23735990684118016 0.19868023695036297
1245000000.0 0.2018866567307434 0.24349289262690077
1251500000.0 0.19655982606917882 -0.2589300002721703
1258000000.0 -0.20664749862505047 -0.2578445293673448
1264500000.0 -0.3270140242361673 -0.07036745350256932
1271000000.0 -0.1741825087308262 0.2956842433531266
1277500000.0 0.14348820434808232 0.3160069250993917
1284000000.0 0.3523380009742174 0.00976239515970475
1290500000.0 0.23691113947156964 -0.26311998257836927
1297000000.0 -0.11417499658696384 -0.340735049203315
1303500000.0 -0.35810882056918986 -0.006576145176259854
1310000000.0 -0.12140424711443579 0.3362884387806227
1316500000.0 0.35893183627994274 0.016817326354100156
1323000000.0 -0.021233072853947807 -0.3570638768053868
1329500000.0 -0.05427468065657523 0.3505258306354167
1336000000.0 0.33123401752235143 -0.10155734195981285
1342500000.0 -0.3298365064270492 -0.08903519589108247
1349000000.0 0.16838533439782127 0.28788241434391004
1355500000.0 0.31743909545389803 -0.08774951657023258
1362000000.0 -0.22675482017462592 -0.23245676671032683
1368500000.0 -0.32457979721536206 -0.009608513028858841
1375000000.0 0.067989531834971 0.3253037728094982
1381500000.0 0.2527729523476799 -0.22184017865686095
1388000000.0 -0.335419246698457 -0.08291542077177555
1394500000.0 0.1363857937971342 0.32550416279349853
1401000000.0 0.14687323644734046 0.328666613448143
1407500000.0 0.3173627816966537 -0.1828159831225497
1414000000.0 -0.15063760295093537 -0.341731960278587
1420500000.0 -0.3097469783908951 0.21813635503551487
1427000000.0 -0.15545562516967334 0.345947087175558
1433500000.0 -0.002623053252637598 0.3835640485615824
1440000000.0 0.07655222108494728 0.37252193609733114
1446500000.0 0.05162647122080608 0.38169877296231813
1453000000.0 0.2058094106941877 0.3252789041524922
1459500000.0 0.22644169920725662 0.3094911123893481
1466000000.0 0.380801202335439 -0.0250493571625691
1472500000.0 0.33338439073305554 -0.1740296406422144
1479000000.0 0.0596263926813361 -0.3628495030988736
1485500000.0 -0.22816391922139231 -0.2774465081253178
1492000000.0 -0.3246926849692037 0.12402883999459091
1498500000.0 -0.015169737754880298 0.3328823436800782
1505000000.0 0.28027768558515903 0.15601822736365684
1511500000.0 0.1038313513047182 -0.2918352331779474
1518000000.0 -0.21550074774536 -0.206170052630204
1524500000.0 0.23378751118548027 0.17041294215344086
1531000000.0 0.13055470306917594 -0.24393855483917037
1537500000.0 -0.22170532132023138 0.16056588924985724
1544000000.0 0.2553809233335991 -0.06982443897474466
1550500000.0 -0.15404810133160857 0.21651691203649662
1557000000.0 0.0697073222379112 -0.24869385154307017
1563500000.0 -0.24746116386773334 0.0640003895725106
1570000000.0 -0.2539114243663568 -0.02008532055606456
1576500000.0 0.008805796019566929 0.25670058674275925
1583000000.0 0.23328352808130193 0.11783535727233982
1589500000.0 0.19431889227978402 -0.17861884295612618
1596000000.0 -0.15944353593935923 -0.2084633566059385
1602500000.0 -0.2611160049505668 0.0001501619043869987
1609000000.0 -0.2562970763537383 0.009410053738031787
1615500000.0 -0.22495066359331642 0.10437432934992111
1622000000.0 0.04096612830315544 -0.23835472097610147
1628500000.0 0.14510120429823897 -0.18718089728669218
1635000000.0 0.2122100034367329 0.0897266246263048
1641500000.0 0.0007922091986220959 0.22383112373163114
1648000000.0 -0.21800623974581992 -0.019521966873410096
1654500000.0 0.0004397097022001636 -0.21288102286842311
1661000000.0 -0.1035198723011157 -0.18185308038468004
1667500000.0 -0.20009319963422068 0.023483991397432413
1674000000.0 0.11303012984011869 0.15222520935536282
1680500000.0 0.15624586727487796 -0.07049640694767795
1687000000.0 -0.08927870600329023 -0.1311324217529499
1693500000.0 -0.044605890343324864 0.13441065450814593
1700000000.0 0.07450183270887062 -0.11051005405352557
1706500000.0 -0.06597478139357738 0.10142440701961124
1713000000.0 -0.018268643414290908 -0.11257860357386032
1719500000.0 -0.06656323359585681 0.08800006505519482
1726000000.0 -0.08336872433244931 -0.07036811633702647
1732500000.0 0.012669553099355914 -0.10646416363394413
1739000000.0 0.0859447773074148 0.0673674657428277
1745500000.0 -0.09908086205918219 0.03988793894119294
1752000000.0 0.03932152007884971 -0.10122280666837193
1758500000.0 -0.0910159943280961 0.05680381177280299
1765000000.0 0.07925808139304945 0.07159922946138672
1771500000.0 0.08493085544184999 0.059677806363783156
1778000000.0 0.026781238976440632 0.0980648014759885
1784500000.0 -0.03364983193144312 0.09576138334554388
1791000000.0 -0.016915769832658075 -0.0986588696598516
1797500000.0 -0.09696611883457963 0.019935056978980934
1804000000.0 -0.042042013023544905 -0.08982400775860795
1810500000.0 0.09597446145949692 0.025054779751712972
1817000000.0 0.06432609177627177 0.07153109200224499
1823500000.0 0.06982473678813927 -0.05766305553719372
1830000000.0 0.03143414038761177 -0.07442448968392723
1836500000.0 0.025495637114614726 -0.06698344035677946
1843000000.0 0.04503852356404415 0.03332342616505923
1849500000.0 -0.042384339025295495 0.009711200351667683
1856000000.0 0.029669218141533484 -0.011122240883504358
1862500000.0 -0.013020088393829284 0.017595567726727164
1869000000.0 -0.017569617417794493 -0.00921299878949925
1875500000.0 -0.018558273568052536 0.002891129115875372
1882000000.0 0.005441861450690679 0.013515631678935705
1888500000.0 -0.007618347206459007 -0.012790341905658958
1895000000.0 -0.005556666423235626 0.01718745525392373
1901500000.0 0.020912891205485572 0.005577282162490607
1908000000.0 -0.008068275875852767 0.020838428846345763
1914500000.0 -0.023384951690354705 -0.008199448095146155
1921000000.0 -0.022375308326006666 -0.011641974255120669
1927500000.0 -0.0034452114637352157 0.02279793144710487
1934000000.0 0.010171591942146304 -0.020214716956032646
1940500000.0 0.011024270146897296 -0.014833344655711055
1947000000.0 0.010650494684560228 -0.017125608079996687
1953500000.0 -0.021706533157207577 -0.009249254168577602
1960000000.0 -0.00475217860257529 -0.02254051308644704
1966500000.0 -0.013268663776953413 0.0304504474368237
1973000000.0 -0.029294668516512457 -0.028416777973561215
1979500000.0 0.003052143284843177 -0.051807534846690616
1986000000.0 -0.004634890933740705 -0.06585116086089142
1992500000.0 -0.07698788057153735 -0.0034891766428233194
1999000000.0 -0.04679315606642615 -0.07514175306228242
2005500000.0 -0.09915531857153498 -0.00821959465056622
2012000000.0 -0.07184853418867232 -0.08353903161543105
2018500000.0 0.04592627377243514 -0.10848864209812926
2025000000.0 0.11577798294488845 -0.0557085208474996
2031500000.0 0.12015379658508299 0.05301894582000571
2038000000.0 0.045550486874129006 0.12790176391739405
2044500000.0 -0.13183934807706296 0.04158986134863146
2051000000.0 -0.12393614255327658 -0.06909757270302971
2057500000.0 -0.13710902777992523 -0.02585215594265106
2064000000.0 -0.1397349066828714 -0.014007730487132292
2070500000.0 -0.12990187072921328 0.03882457009047227
2077000000.0 0.09830228075557836 0.08443167737095865
2083500000.0 0.0837595804373302 -0.08857395230471143
2090000000.0 -0.1114818145466036 0.03530324201784591
2096500000.0 0.06909880997183333 0.08490412104907656
2103000000.0 -0.09314589863176782 0.0522627798996958
2109500000.0 -0.044652402272193484 -0.09492243000341549
2116000000.0 -0.10857988745725003 0.002272798780840767
2122500000.0 -0.003913456960626195 0.11181583781341203
2129000000.0 0.11760406373486446 0.03670050032065313
2135500000.0 0.07184000203194274 -0.10843471510700595
2142000000.0 -0.07142384419429254 0.12328403444888246
2148500000.0 -0.1211963961226105 -0.09396676550206269
2155000000.0 0.11461706918646469 0.12221406187025323
2161500000.0 -0.05556956680918661 -0.1703630381629592
2168000000.0 -0.16905736643654776 0.09672163012686662
2174500000.0 -0.10879525403989253 0.17479795682392513
2181000000.0 -0.08579784606795267 0.20026786802124646
2187500000.0 0.03566615383024586 0.2281118684408404
2194000000.0 0.024983686298798366 0.2413600847351971
2200500000.0 0.04340494643112743 0.2491790460891267
2207000000.0 0.2520015085823835 0.054081584604167975
2213500000.0 0.24443559463128384 0.08778977150164928
2220000000.0 0.2591073859739047 0.008016699863101457
2226500000.0 0.2167719005666845 0.1295604197668041
2233000000.0 0.1991376185084751 0.1474294583831658
2239500000.0 -0.1250684120242601 0.2068158079159222
2246000000.0 -0.1710781714349221 0.16017069688541383
2252500000.0 -0.22243621700422617 0.03341110209389515
2259000000.0 -0.2194465819896603 -0.01856994819313246
2265500000.0 -0.19323517737762616 0.09210782919069166
2272000000.0 -0.06648472724489908 0.19672531129821974
2278500000.0 0.11548202372623675 -0.16543950557246312
2285000000.0 -0.11297764038564888 0.15670744329677466
2291500000.0 0.0374079436129915 -0.17959349930774432
2298000000.0 -0.02678917164322471 0.17048367889612553
2304500000.0 -0.08510977445615424 -0.14476123766865653
2311000000.0 -0.14810903443226278 -0.04571526128805235
2317500000.0 -0.045015743097678654 0.14806809346065322
2324000000.0 -0.010758580785213308 -0.15069290168223734
2330500000.0 -0.15013830909873568 0.02093302010832481
2337000000.0 0.10728597500847828 0.10744749703479349
2343500000.0 0.0934761312423893 -0.12288914040994273
2350000000.0 -0.15270579741784654 -0.026818708938322847
2356500000.0 -0.14604412655703908 0.061896568887215994
2363000000.0 -0.024025878619344035 0.1591936383347905
2369500000.0 0.1552873995145725 0.04645250982065691
2376000000.0 0.15769552814369778 -0.038011797216725006
2382500000.0 0.14582621161170806 -0.06553156647253212
2389000000.0 0.14975340422268163 0.05527388303720435
2395500000.0 0.02594553115356787 0.15663320821822496
2402000000.0 -0.14757680713128724 0.05777238710860668
2408500000.0 -0.14929534478949882 0.057734037466891874
2415000000.0 -0.12061944152355608 0.1050227908299255
2421500000.0 -0.14236050774722087 0.06872875641373609
2428000000.0 -0.06651880097515121 0.1411175687863862
2434500000.0 0.009736696783282857 0.15237816431867743
2441000000.0 -0.012471603942418395 0.15169035374749854
2447500000.0 0.1262984196249014 0.08066779268501074
2454000000.0 0.14660664192299172 -0.025304302275658566
2460500000.0 0.1468060692104065 -0.019502035879607443
2467000000.0 0.1463209396802059 -0.019848542081907734
2473500000.0 0.14025073590990586 -0.04787238264673448
2480000000.0 0.1361568678060033 0.06171294578295626
2486500000.0 0.15522112588068107 -0.00533513215004893
2493000000.0 -0.015593379436027496 0.15449627488521156
2499500000.0 0.03548901032530864 0.15312135744431504
2506000000.0 0.07152271562755062 0.14238911608199184
2512500000.0 -0.056750980091972186 -0.14818167590651435
2519000000.0 0.16126859810983166 -0.0017985654000792649
2525500000.0 -0.1377453821984252 0.0894325872863812
2532000000.0 0.07661963673388629 -0.14925542600454197
2538500000.0 -0.051570539876276404 0.15991445863426249
2545000000.0 -0.10051335365562544 -0.13721401645731998
2551500000.0 0.10672749199126068 0.13065953288054763
2558000000.0 0.06880922405307718 -0.15407665556627054
2564500000.0 -0.03658399547426304 0.1621596878832657
2571000000.0 0.14519875313365982 -0.07799160002034079
2577500000.0 -0.1557178291487181 -0.029362729079048924
2584000000.0 -0.15648645156734176 -0.005023788401189123
2590500000.0 -0.00018222752791238053 0.1528299368426306
2597000000.0 0.1523209536023507 -0.009065460299864108
2603500000.0 0.007390005559813383 -0.14921652306922084
2610000000.0 -0.009414494034415206 0.14863027579240795
2616500000.0 -0.002471213098168344 -0.14381656624499586
2623000000.0 0.05965607249114584 0.12609069313158688
2629500000.0 -0.09224643932757294 -0.09250407332985902
2636000000.0 0.12030106877974668 -0.022705113916198727
2642500000.0 -0.10958133142854229 0.02673792032000738
2649000000.0 -0.08267648715303143 -0.0662337525362965
2655500000.0 0.09389732418528263 0.019646505905066697
2662000000.0 0.0749458855561879 -0.05180267471134102
2668500000.0 0.04335314351749903 -0.07498048096685135
2675000000.0 -0.032340099882203086 0.07806135270228051
2681500000.0 -0.055636064770174236 0.06106662705605226
2688000000.0 -0.0019049951537090338 0.0833003388566033
2694500000.0 0.0760405029039072 0.04055374498710173
2701000000.0 -0.04128857486705348 0.07886021084547355
2707500000.0 -0.0859370575265342 -0.045553599445507756
2714000000.0 0.10474698763754696 -0.012314720445949244
2720500000.0 0.003606682679734788 -0.11668947816851326
2727000000.0 -0.1277186921294618 -0.008219800806762989
2733500000.0 -0.02741519092241041 -0.1379811886974171
2740000000.0 -0.10607577484250363 -0.11400221502948976
2746500000.0 0.09252014880414287 -0.13932371248669825
2753000000.0 0.18234732878742765 -4.886700384912651e-05
2759500000.0 0.13790711800404476 0.13440302117856545
2766000000.0 -0.17247625450364382 0.10528799447639378
2772500000.0 -0.10089854942208784 -0.185289944961347
2779000000.0 0.10765169679077922 0.19006078700223422
2785500000.0 -0.20266234586114454 -0.0980456076215587
2792000000.0 0.21117341307533893 0.09770373865329722
2798500000.0 -0.20945146848803886 0.11782493885145028
2805000000.0 0.1953913663635658 -0.14937295456741959
