!Created with skrf (http://scikit-rf.org).
# Hz S RI R 50.0 
!freq ReS11 ImS11
400000000.0 -0.5216480091745427 0.6177861861288367
420000000.0 0.5885124624343453 -0.47600880100390924
440000000.0 -0.1561572408500205 -0.7155850221729093
460000000.0 -0.37694442488232044 -0.5192507820320922
480000000.0 -0.464246898871035 -0.2387339951043828
500000000.0 -0.40711108058398204 0.08163171324154261
520000000.0 0.3585962129212511 0.2752384382320818
540000000.0 -0.31103843359782607 -0.3705509185369847
560000000.0 -0.21887399142502614 -0.38971618250313594
580000000.0 -0.39451147197609954 0.16262173164129862
600000000.0 -0.3765111966271675 -0.1068808273084913
620000000.0 -0.3377084777519908 -0.14016214707312036
640000000.0 -0.03471842223125398 0.3552476266287416
660000000.0 -0.26109617402809054 0.24178477949485067
680000000.0 -0.1326971533258013 0.313671763344429
700000000.0 -0.28639244348514103 0.15946817042276434
720000000.0 -0.24916699040784457 -0.23808109786281986
740000000.0 -0.0642435089132077 0.3251776668954007
760000000.0 0.01810954448460872 0.3092661179046698
780000000.0 -0.28740144589763833 -0.020907639324868908
800000000.0 0.08647612401554512 -0.23998266856736375
820000000.0 0.027065524361835284 0.21099265933328418
840000000.0 0.2140634296386904 0.03667402191604524
860000000.0 0.03198804092486715 -0.19579999324308098
880000000.0 0.015567940114149937 0.18804041220630646
900000000.0 0.0599833584612477 -0.14910539697426783
920000000.0 -0.10171445800103453 -0.1070829444804483
940000000.0 0.12339440915691935 0.059182621570270065
960000000.0 0.08874199322407032 0.0643438547338776
980000000.0 0.04521595407685286 -0.05092050154850783
1000000000.0 -0.04698661670655365 -0.023009830591151397
1020000000.0 -0.021601740777282517 0.046009859708059195
1040000000.0 0.04846991515257092 -0.06316585767948008
1060000000.0 -0.08648059547497228 0.06344380597970911
1080000000.0 0.14092883245571625 0.005100136146597698
1100000000.0 0.033769299287294816 0.17726031201556278
1120000000.0 -0.20626478846604437 0.03249924004915201
1140000000.0 -0.05044452329226402 -0.2357993034345133
1160000000.0 0.19660802004010214 -0.19570867258449345
1180000000.0 0.27732518817722546 0.1062743887431214
1200000000.0 0.22770896587863612 0.22131946974115307
1220000000.0 0.30732939173155827 0.06771176347686358
1240000000.0 -0.3250518187555377 -0.054947117812582415
1260000000.0 -0.28678732065231943 0.17364071689147906
1280000000.0 -0.3375208733579623 0.006490227495569042
1300000000.0 -0.2348530418597332 -0.2535460003001761
1320000000.0 0.321730542081612 -0.15195601877468126
1340000000.0 -0.22118525515025542 0.29754676473137814
1360000000.0 -0.3579923190333752 -0.1253112817073268
1380000000.0 0.3626647790929362 -0.12194213378235175
1400000000.0 -0.29404518073452446 0.24166423508782572
1420000000.0 0.15746468453079807 0.3390862880938948
1440000000.0 0.3484241375782114 0.11273016681200947
1460000000.0 0.35948689946959017 -0.0397108472669834
1480000000.0 -0.1731240796962559 -0.30816053509301655
1500000000.0 0.07712921485654524 0.3303218749653808
1520000000.0 0.1500632734979331 -0.26886415461288976
1540000000.0 -0.27668646287535853 -0.005603498258527204
1560000000.0 -0.10500498102516302 0.22383116218596472
1580000000.0 -0.06436562525018563 -0.2068665490734141
1600000000.0 0.018813560339592007 0.18000817633922625
1620000000.0 0.029574248406610344 -0.15764623888150495
1640000000.0 -0.03981077887669774 0.12869839000222658
1660000000.0 -0.0038881345002178954 0.11042759203757428
1680000000.0 0.008149603178170671 0.08734436787362317
1700000000.0 0.01855582416459171 -0.07416281554211857
1720000000.0 -0.050092307161778885 -0.012022679308358377
1740000000.0 0.04680287518440389 0.025332133052619107
1760000000.0 0.06760239812334262 0.006150878233078922
1780000000.0 -0.0783927023920826 0.05507555805215586
1800000000.0 0.052771274639572416 0.11436106622554351
1820000000.0 0.01864136898378183 0.16167790592381293
1840000000.0 -0.031218899535954255 0.19127860837058294
1860000000.0 -0.05948111139301166 0.2147697684933771
1880000000.0 0.17057490479782472 0.17524927554390166
1900000000.0 0.2677988202903663 -0.019851568487417554
1920000000.0 -0.10788470968059169 -0.2659481139665005
1940000000.0 -0.09783710795845557 0.2871162946728948
1960000000.0 -0.27753868799611825 -0.14823910544724378
1980000000.0 0.17305256358336962 -0.26149381802468774
2000000000.0 0.2858461126877812 0.12603073128432335
2020000000.0 0.050672313544369414 0.3096115935039045
2040000000.0 -0.07393078046966862 0.3005284128471649
2060000000.0 -0.303569080747657 0.006458597991989523
2080000000.0 -0.23210473651209643 -0.19846990769231138
2100000000.0 0.2029190899076739 0.22316853354830857
2120000000.0 -0.29942014651582527 0.022490780934143726
2140000000.0 0.18077030842311426 -0.23315979712559748
2160000000.0 -0.2557126880499275 0.13256764502029883
2180000000.0 -0.0938765897306114 0.2657361471615671
2200000000.0 0.24059586748261863 0.1428725014303445
2220000000.0 0.25620156628330726 -0.07713938857441797
2240000000.0 0.06322011240570384 0.25092651648776193
2260000000.0 -0.2271122362508971 0.10089699755452133
2280000000.0 -0.11932540634039565 -0.20919565178653848
2300000000.0 0.228751755062942 -0.014352307170413393
2320000000.0 -0.22073269767535925 -0.0063101464756633
2340000000.0 0.20998192254029358 -0.0428096469358411
2360000000.0 -0.20764604380267024 0.05429187660435756
2380000000.0 0.22026059813847254 0.0211189010135581
2400000000.0 -0.19059539584458873 0.1437573077459715
2420000000.0 0.16278471641063239 0.21047280894263373
2440000000.0 0.08546839183015294 -0.2783882678529458
2460000000.0 -0.09557036890017907 0.3124772832390781
2480000000.0 0.21942045088414236 -0.2854338259448132
2500000000.0 0.3222306747470831 0.23450179146637148
2520000000.0 -0.3816820210963692 0.21005851389405847
2540000000.0 -0.2100271271115915 -0.4237689327940442
2560000000.0 0.5037866614043707 0.05518394375263443
2580000000.0 -0.5170414499490645 0.15210427829232898
2600000000.0 0.24551638811179355 -0.5145130646411751
2620000000.0 0.04183899287139345 0.5943528798961385
2640000000.0 -0.40613023675423543 -0.4620805398765289
2660000000.0 0.6316878485240588 -0.02742456089540591
2680000000.0 -0.11579554121379425 0.6337850647035089
2700000000.0 -0.6487897162003774 0.0871775197664401
2720000000.0 -0.5697708445031658 -0.3369493691185885
2740000000.0 -0.5584558790488866 -0.3630544625097886
2760000000.0 -0.49691027827950635 -0.44494179407969203
2780000000.0 0.5487524206671439 -0.3711214401589427
2800000000.0 0.642855400204135 -0.12105052864678259
2820000000.0 0.5319373052552447 0.36071845726683627
2840000000.0 -0.3552775199066754 0.5197967174615391
2860000000.0 -0.02314465754277984 -0.6170143427189942
2880000000.0 -0.17536434072187188 0.5751043333035706
2900000000.0 0.5251619414481246 -0.2547670591679416
2920000000.0 -0.3772761245696942 -0.4178969802754695
2940000000.0 -0.5125093696596076 0.1612610899347685
2960000000.0 -0.2345040137351933 0.45730780329436865
2980000000.0 0.3174835558110338 0.3742827456529531
3000000000.0 0.4101215119819221 -0.22347538409348827
3020000000.0 -0.3318556464231327 -0.292982322811425
3040000000.0 0.19311312667280445 0.3680978104458359
3060000000.0 0.04141695617801649 -0.38532978241424676
3080000000.0 -0.19398697871984244 0.30642932920098176
3100000000.0 0.2595899015106064 -0.22317001059364766
3120000000.0 -0.031144142453626546 -0.33059396562088467
3140000000.0 -0.002613039438321445 0.32370025375717404
3160000000.0 -0.000515972445059834 -0.31997622047892776
3180000000.0 -0.21206103977714 0.2341718293702214
3200000000.0 0.23464319951975757 -0.20671639421481117
3220000000.0 -0.25807901436113284 -0.15310514731529073
3240000000.0 -0.2844949951685961 -0.04162613820126972
3260000000.0 -0.2452707994558838 -0.10780818605996222
3280000000.0 0.08575566140212795 -0.23899946808579603
3300000000.0 0.21149579786449085 0.10408036582612229
3320000000.0 -0.1418488650537267 0.1663684605428411
3340000000.0 -0.02850282488122788 -0.1957256201976066
3360000000.0 0.12389979563471039 -0.11885981976848395
3380000000.0 -0.09895070712141928 -0.10345401550711673
3400000000.0 -0.11880297440387223 0.008897638538009746
3420000000.0 -0.002825353379288056 -0.10753466289044994
3440000000.0 -0.009956280012128149 0.09944318594875617
3460000000.0 0.08496072521171259 0.03292307518099119
3480000000.0 -0.07932234839897313 0.02280936634510112
3500000000.0 -0.014123162606777808 -0.07087290635439451
3520000000.0 0.009815221156219172 -0.06097225091490652
3540000000.0 0.06250918305826535 0.0001474070052744386
3560000000.0 0.017394695183162015 0.06081888884170961
3580000000.0 -0.05633188091160129 0.04870183296063402
3600000000.0 -0.07303230107165552 0.03885771657670846
3620000000.0 0.09770354118099026 -0.01047056926308108
3640000000.0 0.010756587513488236 -0.10316641612119672
3660000000.0 -0.01666088240760602 -0.10738026893043787
3680000000.0 -0.009123574408740058 0.10388975802208252
3700000000.0 -0.09198786679032117 0.023915039464463172
3720000000.0 -0.00644647698647254 -0.08824496261316049
3740000000.0 -8.963974718178065e-05 0.0763074657367176
3760000000.0 0.05804619630376666 0.036577901347209923
3780000000.0 -0.0038784362930248425 0.05807074845942004
3800000000.0 0.0387930079996576 0.003329139341577786
3820000000.0 -0.020609698018300374 -0.024249753754352146
3840000000.0 -0.04511322835885361 0.012324251828545421
3860000000.0 0.03746594769326731 -0.05894658333091138
3880000000.0 0.07124431550410666 0.04967596548225475
3900000000.0 -0.09934567645723177 -0.009343414700006252
3920000000.0 -0.05135763891409926 -0.0893658878805053
3940000000.0 -0.08104748759527552 0.06080742919508848
3960000000.0 0.06490929849864964 0.07844435632847291
3980000000.0 -0.058498026306474125 -0.07825784938799361
4000000000.0 0.08606334720457319 -0.008635945405911784
