!Created with skrf (http://scikit-rf.org).
# Hz S RI R 50.0 
!freq ReS11 ImS11
400000000.0 -0.6050163770589077 0.5369632079420663
420000000.0 0.6011130974445711 -0.4617783753633189
440000000.0 -0.21852990715243997 -0.6990480661791368
460000000.0 -0.4783987309900305 -0.4274501563317871
480000000.0 -0.40598758051150513 -0.33131196991101186
500000000.0 -0.38557171041150545 0.15803905889626813
520000000.0 0.40408111096343285 0.19198969964772286
540000000.0 -0.11026443282731008 -0.4656456338013994
560000000.0 0.027542327225009353 -0.45334512152018275
580000000.0 -0.2604843462890019 0.34450177123437425
600000000.0 -0.3886818652516514 -0.026535572360048144
620000000.0 -0.35746574887680205 0.046297488231981376
640000000.0 -0.22982326303602338 0.26908721949310804
660000000.0 -0.3403998457232497 0.09858120012043159
680000000.0 -0.30162166368528226 0.16923792880363683
700000000.0 0.02454345320024115 0.33340204706444104
720000000.0 -0.3166070574488653 -0.13256501676721477
740000000.0 0.1590850275257295 0.2882824574602224
760000000.0 -0.1752515797507058 0.24539051449006172
780000000.0 -0.06575919787458637 -0.28674177984442084
800000000.0 -0.05812322492921126 -0.2529119315983771
820000000.0 0.19916954419677196 -0.07318346885950487
840000000.0 0.21112788384800363 -0.017094009900883323
860000000.0 0.17132303197159746 0.0966276434567875
880000000.0 -0.16642941614143533 0.09875796697378926
900000000.0 -0.022591631455490598 -0.15837658518447748
920000000.0 -0.0863283428987623 -0.11620528985655978
940000000.0 0.08356329714720806 0.10649191615523938
960000000.0 0.07770424986226689 0.08054256738162933
980000000.0 -0.06911462332239957 0.009230291934879674
1000000000.0 0.03529175853235113 0.035807065408485876
1020000000.0 0.05005873484784302 0.006893796331650939
1040000000.0 0.07511161470044991 0.012661935992455317
1060000000.0 -0.015797823188118305 -0.10732499400052717
1080000000.0 0.14117268876229333 0.027277984695171044
1100000000.0 0.08695812649063059 0.1575741266776448
1120000000.0 -0.20161403882175355 0.04708656915833213
1140000000.0 0.03128649227193316 -0.2421870808028529
1160000000.0 0.16467501393768078 -0.21943916212664047
1180000000.0 0.20371687032517602 0.2145205519399722
1200000000.0 0.15652558794662966 0.2771128248594316
1220000000.0 0.3101280292986831 0.06776386717939212
1240000000.0 -0.31562128298032155 0.09178226616306445
1260000000.0 -0.25385322506827596 0.21252233730951398
1280000000.0 -0.31289701092597255 -0.12852657692816533
1300000000.0 -0.24159820863668943 -0.2499972425787041
1320000000.0 0.32996800013140365 -0.13385284840762424
1340000000.0 -0.16686151594413928 0.3312990129244775
1360000000.0 -0.3654789458626973 -0.09436066552177436
1380000000.0 0.3821408290246131 -0.04386372916380474
1400000000.0 -0.31293570229582307 0.21563316740453617
1420000000.0 0.048601762010721083 0.3702360669797587
1440000000.0 0.34104942440249175 0.13453844507330348
1460000000.0 0.3467133970719667 -0.10481674861359824
1480000000.0 -0.17484404580637378 -0.30379698478484723
1500000000.0 -0.021193357861650317 0.33681083065807715
1520000000.0 0.21555910882895188 -0.2229950607461082
1540000000.0 -0.21807323001618723 0.17281388781252052
1560000000.0 0.02025761023179057 0.24374402754092994
1580000000.0 0.1038282888458998 -0.18852548679434453
1600000000.0 -0.05783862479300787 0.17472342913502617
1620000000.0 -0.011624833702234334 -0.1611988191961611
1640000000.0 0.044142307114922646 0.1257797621038574
1660000000.0 -0.08196619712945374 0.07240179882593169
1680000000.0 0.04473576073666717 0.07543455730835126
1700000000.0 0.04477680082655038 -0.06361752309562016
1720000000.0 0.044421432395387685 0.02911317031167413
1740000000.0 -0.03753736394081251 0.03817792377249369
1760000000.0 0.04785249823794182 0.049035681246031186
1780000000.0 -0.07486115266662291 0.06011585500247667
1800000000.0 0.040643314296500414 0.11900426891655674
1820000000.0 -0.010597219847018403 0.16252552455620484
1840000000.0 -0.002341746832593659 0.19495989437228403
1860000000.0 -0.05714726323465657 0.21434318358665908
1880000000.0 0.13364901015788638 0.20575130047709292
1900000000.0 0.2686152240505529 -0.02049774557941594
1920000000.0 -0.16011684842477136 -0.23883524129940362
1940000000.0 -0.1159962247738282 0.27951454406549037
1960000000.0 -0.23529785476071918 -0.20837899707105054
1980000000.0 0.16051659340192095 -0.27005944624468137
2000000000.0 0.2990513479114681 0.08840843165234741
2020000000.0 0.05205574080157605 0.3082261881857108
2040000000.0 -0.1248493833060397 0.28282198297609706
2060000000.0 -0.3017688495820924 0.04805579634340306
2080000000.0 -0.27313680344895463 -0.13831507440782034
2100000000.0 0.2016208667633664 0.22338761763546242
2120000000.0 -0.2993951561251339 -0.0005777570486543801
2140000000.0 0.2910392137089206 -0.04986115128796552
2160000000.0 -0.2686825268433629 0.11182795610705608
2180000000.0 0.015695416386228914 0.2819619906186773
2200000000.0 0.21264253949676137 0.17824636379940353
2220000000.0 0.25199272085210106 0.08539852990396045
2240000000.0 -0.021446746778314443 0.2597495893478364
2260000000.0 -0.143388596377371 0.204091646149253
2280000000.0 -0.15501978364441096 -0.18246848627128942
2300000000.0 0.2265947755370245 0.02294640952019166
2320000000.0 -0.21827690870527763 -0.03839818520887906
2340000000.0 0.20296979088968753 -0.06697763349038453
2360000000.0 -0.21426778116511427 0.02821316523620753
2380000000.0 0.20536970277982758 -0.08176640955441272
2400000000.0 -0.14847275203290192 0.18560922694203608
2420000000.0 0.06632005942019982 0.2570377605682046
2440000000.0 0.11814235000215917 -0.26740970854377594
2460000000.0 -0.10733101056933218 0.3093844791351032
2480000000.0 0.21741874754317264 -0.2888781383100725
2500000000.0 0.3493355179369395 0.19147879370622536
2520000000.0 -0.3622488218958979 0.24054679378395533
2540000000.0 -0.1569420643217521 -0.4454957527060666
2560000000.0 0.5049601718624023 0.053077213246086705
2580000000.0 -0.5022891113597151 0.19576299954727702
2600000000.0 0.24787006480510662 -0.5131144837005274
2620000000.0 0.07508280352401497 0.5904213209908963
2640000000.0 -0.4193811207230808 -0.4502254538233215
2660000000.0 0.6289034623330106 -0.0704278714661625
2680000000.0 -0.03262988343072451 0.6430224930652332
2700000000.0 -0.6451607263720297 0.11444090247969219
2720000000.0 -0.5808641237547729 -0.3173556855944335
2740000000.0 -0.554688086110967 -0.36816019169698966
2760000000.0 -0.48962129019367323 -0.45252882689033325
2780000000.0 0.5517902621510918 -0.3658897530779468
2800000000.0 0.6398165440296084 -0.13586016009733665
2820000000.0 0.5245408776147821 0.37080082343045845
2840000000.0 -0.3995162819878717 0.4867800425519986
2860000000.0 0.05775440035508734 -0.6145256719038341
2880000000.0 -0.15465530356783525 0.5808053584169788
2900000000.0 0.5315312059630771 -0.2413123371033443
2920000000.0 -0.37498360073693143 -0.42028464506061397
2940000000.0 -0.527514959238656 0.09735386527963881
2960000000.0 -0.24101576370671085 0.4536030045666966
2980000000.0 0.33569152121062046 0.361980248653549
3000000000.0 0.3753474180202744 -0.2794989755215337
3020000000.0 -0.32483970467490425 -0.29942694904981565
3040000000.0 0.10239964704616158 0.4026492927620708
3060000000.0 0.1431247046420739 -0.36029037544287307
3080000000.0 -0.19592557750275236 0.30697167468815456
3100000000.0 0.3013761073293476 -0.16049495189162735
3120000000.0 -0.027359344663676573 -0.32899442597836753
3140000000.0 -0.062475767530275964 0.3172140564443072
3160000000.0 0.0005915756985001138 -0.3200610923320765
3180000000.0 -0.1667889519751437 0.26815985476354864
3200000000.0 0.20983965825319842 -0.2301627690922033
3220000000.0 -0.26724911651829497 -0.13456571861768934
3240000000.0 -0.2876648673712843 -0.0010764935655806886
3260000000.0 -0.24381707543992068 -0.11206206400681204
3280000000.0 0.057540694234517256 -0.24791851547592728
3300000000.0 0.20288380764924782 0.12055582861153144
3320000000.0 -0.17610209244388048 0.13165722727583493
3340000000.0 -0.03591044845818938 -0.1949358005334576
3360000000.0 0.15339780085351074 -0.07743558118249479
3380000000.0 -0.07700748142665477 -0.1210674236631883
3400000000.0 -0.11682257181235 -0.020669292324707402
3420000000.0 0.01462742405976707 -0.10702924320259882
3440000000.0 0.02621768195067991 0.0976037070535518
3460000000.0 0.07206372570118826 0.055666415915606074
3480000000.0 -0.08153729467888919 -0.003342620480475254
3500000000.0 0.05537201384808812 -0.045073824410483035
3520000000.0 0.03080562136338328 -0.05397761981163716
3540000000.0 0.04886492231951147 -0.040014920149361845
3560000000.0 0.032546077009796975 0.05323644888861464
3580000000.0 -0.06438649539318914 0.036350664504040425
3600000000.0 -0.014134211488900438 0.08267200023174488
3620000000.0 0.04284047036115409 -0.090051023932607
3640000000.0 -0.019083478839464593 -0.1021466667037257
3660000000.0 -0.029299433260533834 -0.10442931915717553
3680000000.0 0.0752166899247811 0.07309132344604462
3700000000.0 -0.002525121863357908 0.09538156987740858
3720000000.0 -0.03815778133525059 -0.08011462921258701
3740000000.0 -0.010556162275099834 0.07682223569141103
3760000000.0 0.06296916249475565 0.03115866397103907
3780000000.0 0.013813045779729327 0.05764704430654021
3800000000.0 0.029082106877720223 0.026418008673773107
3820000000.0 -2.0199318950017663e-05 -0.033446662442886806
3840000000.0 -0.0455418295613024 0.011096770739467096
3860000000.0 0.05993719662535453 -0.03849724514563014
3880000000.0 0.051717112758584594 0.07127883163726147
3900000000.0 -0.09152734125250599 -0.04324631939911119
3920000000.0 0.04326088885628639 -0.09385504453994703
3940000000.0 -0.09119086920645844 -0.04732300725689161
3960000000.0 -0.008594877515217638 0.10261261913432779
3980000000.0 0.07545133031690555 -0.06094069118916295
4000000000.0 -0.058530165801926874 0.06369729898515922
