!Created with skrf (http://scikit-rf.org).
# Hz S RI R 50.0 
!freq ReS11 ImS11
400000000.0 -0.6703599812208162 -0.47155705395775566
420000000.0 0.42191991809441187 -0.6515703886244083
440000000.0 -0.6599258329667147 -0.3278349946563067
460000000.0 -0.6287622534577436 0.0915554265535691
480000000.0 -0.44817348419029795 -0.27665841228092775
500000000.0 -0.1693513913779445 0.3726783029433876
520000000.0 0.4240510538344148 0.13760862381763783
540000000.0 0.3216996808985608 -0.3361129135482667
560000000.0 0.4192008847987689 -0.17447052956626877
580000000.0 -0.33586857066722164 -0.256092563262958
600000000.0 -0.10994736163522414 -0.39215469027019917
620000000.0 -0.014280142883053258 -0.3668847304995164
640000000.0 -0.26213540296541643 0.24457353000048865
660000000.0 0.013357521378840236 0.3669274255725566
680000000.0 0.0005334994093179816 0.35440325686218943
700000000.0 0.19746379187847984 -0.2771807356299744
720000000.0 0.18410569258362175 0.2843625748304591
740000000.0 0.2722580659748732 -0.14642969545158815
760000000.0 -0.2451088607638292 -0.1528769875754971
780000000.0 0.10648428927297442 0.2568437531563074
800000000.0 -0.05248939594748251 0.25420137968461204
820000000.0 0.22301025389410825 -0.059307708980705996
840000000.0 0.1487570540901764 -0.16031398996314716
860000000.0 -0.11965017014806945 -0.16687315925462637
880000000.0 -0.015125001623800632 -0.19421100402367766
900000000.0 -0.05424951694789502 0.13700672499755978
920000000.0 0.08246844129339259 -0.11826319859538834
940000000.0 -0.058170104561071516 0.11826932147802487
960000000.0 0.07640644410915737 0.06400773538572853
980000000.0 0.051903813115678925 -0.03283013146713255
1000000000.0 -0.032478843585157166 0.04140758842338435
1020000000.0 0.005265804580319297 0.05021032427238867
1040000000.0 -0.022246949546308487 0.0727616024767304
1060000000.0 0.1066500012856956 0.04108236525494695
1080000000.0 -0.06561175889128835 0.13224565820867126
1100000000.0 -0.16197341471478083 0.09403013321032826
1120000000.0 -0.029593718575044604 0.21742126138783358
1140000000.0 -0.18916789898110775 0.16014945892987412
1160000000.0 -0.1858337900838118 0.19436495032894197
1180000000.0 0.2653664825996368 0.10334874601167585
1200000000.0 -0.1816059904959572 0.2523351370730489
1220000000.0 -0.0568362862295933 0.3107755466975868
1240000000.0 -0.18405254711803057 -0.2786996845891653
1260000000.0 -0.3314930689669949 0.0705008630395467
1280000000.0 -0.3202684622383684 0.12824452359854488
1300000000.0 -0.3483161567954582 0.044873633834242366
1320000000.0 0.050711944334911 -0.3527343968713071
1340000000.0 0.3177623795909524 0.1762782044557021
1360000000.0 -0.28121294421965626 -0.24283603023944508
1380000000.0 0.27821217847135643 0.2577205741958082
1400000000.0 -0.2613845361974157 -0.2762530018692638
1420000000.0 0.01829663478992989 0.38206669526359505
1440000000.0 0.37253009144747856 0.016901143113976714
1460000000.0 0.006232293170077683 -0.3680385899740595
1480000000.0 -0.34870858984492387 0.0023518968003191964
1500000000.0 -0.03833779054135727 0.327180785438995
1520000000.0 0.2347476335884056 0.19518034815691757
1540000000.0 -0.19852076793747458 -0.1973634295473142
1560000000.0 0.013217247717694714 0.2525734473551165
1580000000.0 -0.11311986697467936 -0.18650131535743622
1600000000.0 0.07389067038763951 0.16855439293165872
1620000000.0 -0.15786047339780782 -0.03649463101977959
1640000000.0 0.09342027126868531 -0.09398395360597236
1660000000.0 -0.003945885821991241 0.10231684157995444
1680000000.0 0.018784621245690834 -0.0864870678386677
1700000000.0 0.05086074785245669 0.06021085078199889
1720000000.0 -0.049707375548441596 -0.028571467779460055
1740000000.0 0.051014506611740285 -0.011986571643623854
1760000000.0 -0.06323344970988858 -0.030162576881534144
1780000000.0 0.09160935718039377 -0.02571709286471385
1800000000.0 0.04969355991049876 0.11123942297274743
1820000000.0 -0.15769842829348715 -0.014606784032057602
1840000000.0 -0.18756199363300657 -0.04254111363512757
1860000000.0 -0.20634121783846762 -0.08632406810411895
1880000000.0 -0.10601815244813907 0.22534035983091702
1900000000.0 0.26484610961100424 -0.07634550280646088
1920000000.0 -0.2819929910712178 -0.07308041565684396
1940000000.0 0.2330934702747758 0.1946846440916606
1960000000.0 -0.26159792307225416 0.16494643711987977
1980000000.0 0.22071781844100283 -0.21442315567340708
2000000000.0 0.1630404149693098 0.26153620735666044
2020000000.0 -0.17051760395902063 0.2635212754289048
2040000000.0 -0.19294959989170882 0.2439018374212415
2060000000.0 -0.3001959933824821 -0.05357024233963704
2080000000.0 -0.24377863274408879 -0.1873262961608115
2100000000.0 0.21458711208031853 0.2147409758902772
2120000000.0 -0.30020862515149915 -0.008060540834386249
2140000000.0 0.24001557315988725 -0.17092696069186097
2160000000.0 -0.2682556280247682 0.10652156535684663
2180000000.0 -0.1628374750211392 0.23141644997292538
2200000000.0 0.27157445124561325 0.06827440995739398
2220000000.0 0.2509983716894122 -0.08842450764242059
2240000000.0 0.11562586313778166 0.23307908509526784
2260000000.0 -0.056190436487833305 0.24014982039593954
2280000000.0 -0.05275935301447786 -0.23005337016957123
2300000000.0 0.08656073175928237 0.210278452536832
2320000000.0 -0.22369212144493833 -0.015494782326157235
2340000000.0 0.2123384073630134 -0.03012381236860972
2360000000.0 -0.216594405584193 -0.0198385202477543
2380000000.0 0.1844298195689571 -0.12741516423465185
2400000000.0 -0.029769279731683237 0.2369976198328487
2420000000.0 0.19237172616839732 0.17961048243664052
2440000000.0 0.15999583566423076 -0.24318087560474835
2460000000.0 -0.07219413909878855 0.31798779468596944
2480000000.0 0.276418050579239 -0.2273652450759906
2500000000.0 0.1434367109561276 0.37178434373267627
2520000000.0 -0.4118160707958702 0.14879807079848084
2540000000.0 -0.16504953273024336 -0.4443695850977784
2560000000.0 0.5079339310180798 0.02215043237341514
2580000000.0 -0.47470779987973954 0.25792457366170213
2600000000.0 0.16572100809824425 -0.5442769245161295
2620000000.0 0.07260056171983907 0.5889780932483513
2640000000.0 -0.40347911241695356 -0.4631567679913326
2660000000.0 0.6321417923735753 -0.016863897014301153
2680000000.0 -0.02037295241360627 0.6441930119457991
2700000000.0 -0.6324586732349127 0.1707938120061283
2720000000.0 -0.6120434450125946 -0.2530579914383152
2740000000.0 -0.5149831016009532 -0.4230872669429111
2760000000.0 -0.47263402566367185 -0.47081854682419194
2780000000.0 0.5469218618541402 -0.37411756686990594
2800000000.0 0.6397781454091483 -0.14161582454643035
2820000000.0 0.5446994565640553 0.34256136861850245
2840000000.0 -0.3142489552404944 0.5458376035148502
2860000000.0 -0.023511128086340694 -0.6164922367403614
2880000000.0 -0.15014693150894604 0.581052922623017
2900000000.0 0.5439082210761197 -0.20986923658277698
2920000000.0 -0.32021134455675715 -0.46213049691850305
2940000000.0 -0.5317471775439678 0.09027595933589039
2960000000.0 -0.1367402062813369 0.4990773359231874
2980000000.0 0.4426845906564416 0.2150905320462922
3000000000.0 0.3424510310437942 -0.3167170083142701
3020000000.0 -0.3491161762610973 -0.26758936230781855
3040000000.0 0.026847818122898576 0.40948283129482516
3060000000.0 0.3012213188143134 -0.247996647322369
3080000000.0 -0.2992925967711641 0.21134584999568917
3100000000.0 0.26658080863003997 -0.21973996846397664
3120000000.0 -0.13104574362205001 -0.3071517654959502
3140000000.0 0.16882911775117443 0.2773775983750422
3160000000.0 -0.12836180910855438 -0.29025784139458416
3180000000.0 -0.12299375705707044 0.287104281783122
3200000000.0 0.28872600474480214 -0.10584940136194235
3220000000.0 -0.02150314603373111 -0.2971558721273731
3240000000.0 -0.2552297269480214 -0.13678193408037534
3260000000.0 -0.2608738596227109 -0.0808427418573698
3280000000.0 -0.20023354286280165 -0.16237776499193027
3300000000.0 0.060607388274166105 -0.22788003074953905
3320000000.0 -0.07559021414639511 0.2019353612237674
3340000000.0 -0.10943518147751523 -0.1588758425891388
3360000000.0 -0.028926334673038002 0.16701751448457666
3380000000.0 0.1462280919901572 0.026155889498053222
3400000000.0 -0.1265143126024387 0.009343437207331898
3420000000.0 -0.11220963643809086 -0.01653511941741024
3440000000.0 -0.03912182287192071 -0.09283636941580058
3460000000.0 0.04231106769018331 -0.0741433898860428
3480000000.0 -0.012050093647594826 -0.07437496179527514
3500000000.0 -0.06504417970680568 -0.020906939683211924
3520000000.0 0.04793803416016373 -0.038335138210921584
3540000000.0 -0.02666244818388373 0.06019835568068985
3560000000.0 0.04709126109635539 0.047348423623580625
3580000000.0 0.06748406380034815 -0.035351637336671085
3600000000.0 -0.04433047609950755 -0.07122834024873959
3620000000.0 -0.09355917429982508 -0.015585031411064671
3640000000.0 -0.09237570632363504 -0.037656852348796864
3660000000.0 0.03142298999424361 0.10182663677325292
3680000000.0 -0.10210163949304912 -0.023882146585413683
3700000000.0 0.0013374483834127635 -0.10150342106843294
3720000000.0 -0.03737806117310765 0.08478268937039286
3740000000.0 0.006309654693578817 -0.07790732306574157
3760000000.0 -0.06622346359125596 0.0010295979550802162
3780000000.0 0.022513673072940242 -0.047177087469795514
3800000000.0 -0.017715893913207225 0.0363801509780074
3820000000.0 -0.03117185838331159 -0.02252809123267873
3840000000.0 -0.02400193324257863 0.042014417294827834
3860000000.0 -0.06570717287893536 -0.00040146588744464814
3880000000.0 -0.046830339910246786 0.06898680621867635
3900000000.0 0.08629502229035266 0.04651135948925775
3920000000.0 0.08288204355858139 0.06945172665409272
3940000000.0 -0.095257793479215 0.050416196954332325
3960000000.0 0.00012449944921088347 -0.10435173998511472
3980000000.0 -0.0459366916375859 0.0835778162901923
4000000000.0 0.05282898215274072 0.06094765667920556
