!Created with skrf (http://scikit-rf.org).
# Hz S RI R 50.0 
!freq ReS11 ImS11
400000000.0 -0.5829478907045789 0.5608965999830084
420000000.0 0.5605023011487539 -0.5080853106175791
440000000.0 -0.1672406770977366 -0.7123704301326624
460000000.0 -0.47973628476287067 -0.43406045271466354
480000000.0 -0.5093879472122882 -0.11134211867639854
500000000.0 -0.4109611384681289 -0.0014914893982110721
520000000.0 0.17743137231243394 0.41170955987227675
540000000.0 -0.17275448438368227 -0.4549060813122718
560000000.0 0.02795225537512625 -0.4541945821596548
580000000.0 -0.2828998300309571 0.32713768540298616
600000000.0 -0.3783025766000138 0.049000938147768396
620000000.0 -0.08052884924585743 -0.3489236438216371
640000000.0 0.00849190565398212 0.3571286112148683
660000000.0 -0.3486213874033288 0.06052928922720836
680000000.0 -0.24833354624617743 0.2421089338675418
700000000.0 -0.00018175861186718562 0.33468979327026555
720000000.0 -0.3364308334998213 -0.05418688238048985
740000000.0 -0.07558436681886677 0.319870250291364
760000000.0 -0.23669061367130004 0.2000345341139723
780000000.0 -0.2903127444155792 0.02558649741326331
800000000.0 0.16727553577615364 -0.1901759316210482
820000000.0 -0.1742175096318383 0.12403990406589853
840000000.0 0.082568394904636 -0.20310414124619564
860000000.0 -0.08340111016115878 -0.1805142907816907
880000000.0 -0.16674423314987205 0.08690148991746903
900000000.0 0.11965478776569681 -0.10209153524444693
920000000.0 0.009333716983518087 -0.1500104130983876
940000000.0 0.042201363587856186 0.1303885287567358
960000000.0 0.10036066430608453 0.04338492416020106
980000000.0 0.022660187689152476 0.06849543688551098
1000000000.0 0.04341225163227244 0.01644455129152656
1020000000.0 -0.0007067290195881652 -0.04367080904641671
1040000000.0 -0.07781638814571495 0.009343792550592079
1060000000.0 -0.10337990159285518 0.046407821003297905
1080000000.0 0.08921013387231688 0.11104646800491538
1100000000.0 0.13635412616211268 -0.10585636574879446
1120000000.0 -0.0254175597548797 -0.20706678185307667
1140000000.0 -0.17157636045071167 -0.17920894452345132
1160000000.0 0.0018409307171564297 -0.2718528647221801
1180000000.0 0.19647966645186735 0.22288866313221484
1200000000.0 0.1640601561428273 0.2747375387588386
1220000000.0 0.2592522922409743 0.18480136897629318
1240000000.0 -0.30863014146948675 0.11035919509309382
1260000000.0 -0.30297661891500427 0.13939672604438977
1280000000.0 -0.33846810760653834 -0.0008309817536150843
1300000000.0 -0.026854063131239267 -0.34562521890349085
1320000000.0 0.2899136343630698 -0.2122856307374827
1340000000.0 -0.06802545705387146 0.36141458873188204
1360000000.0 -0.2953614739638416 -0.23817638555689083
1380000000.0 0.36265334336623734 -0.12807702690508277
1400000000.0 -0.32082916442434967 0.2041736474026729
1420000000.0 0.1723487013738982 0.33144509510191217
1440000000.0 0.36123848409233456 0.06045253602493037
1460000000.0 0.36268358546884455 -0.031293262048412034
1480000000.0 -0.13943616902479963 -0.3230941153940293
1500000000.0 0.08883744588909223 0.32720505655051113
1520000000.0 0.2452120219129341 -0.18742579287941363
1540000000.0 -0.27284932991324196 0.053361629889787814
1560000000.0 0.055825313781308825 0.23812854605656408
1580000000.0 0.08492414919649682 -0.20014446732138594
1600000000.0 0.00722101418434372 0.18173206073054254
1620000000.0 -0.012821987368490773 -0.16276569257773657
1640000000.0 0.13356771165366363 -0.00516857592028148
1660000000.0 0.04243668113641194 -0.09892133874920567
1680000000.0 0.09024460799528687 0.021775460327736747
1700000000.0 -0.0614255180211527 -0.04319646150013717
1720000000.0 -0.0023296910531269968 -0.05340372982082356
1740000000.0 -0.0540835596693472 -0.005288197182445998
1760000000.0 0.06808997844688608 -0.0023306561617614575
1780000000.0 -0.06184682224608106 0.07408669595063544
1800000000.0 0.09866300890214866 0.07832937127362634
1820000000.0 -0.1322062225425181 0.08947049939338873
1840000000.0 -0.10014082754138813 0.17211629570578332
1860000000.0 0.12361177743303631 0.18287585951102495
1880000000.0 0.07004480163696795 0.2322760618796916
1900000000.0 0.2645628574308222 0.05458645364126845
1920000000.0 -0.12485156003051465 -0.26025494620140843
1940000000.0 0.027183872644552888 0.30111788037428305
1960000000.0 -0.23804312559527332 -0.20393214651746527
1980000000.0 0.13915408482572028 -0.28297658603374864
2000000000.0 0.30548131229986125 0.06419775276039745
2020000000.0 0.007324553871765319 0.31321729326829645
2040000000.0 -0.042127892862077895 0.30739342136400766
2060000000.0 -0.2974736004473757 0.05893005739493495
2080000000.0 -0.15531300019732958 -0.2629355209708884
2100000000.0 0.2512196399585727 0.1696232100288284
2120000000.0 -0.2982467475896924 -0.017558622808371317
2140000000.0 0.2886212766471395 -0.05677395503716406
2160000000.0 -0.27634905281159106 0.09146938116911123
2180000000.0 0.10053106530632178 0.26374957585665976
2200000000.0 0.1990274621884651 0.19271763487442417
2220000000.0 0.2657095502692161 -0.01937261703718852
2240000000.0 -0.0016750442382161839 0.2596537289045571
2260000000.0 -0.2154209406803339 0.12627097891177183
2280000000.0 -0.21765523566777817 -0.10217992246526078
2300000000.0 0.22397218986884723 0.039076198306902614
2320000000.0 -0.2215478554698921 0.007698918160508982
2340000000.0 0.21413529030241393 0.006416196228560729
2360000000.0 -0.19416820656667572 0.09480073636165463
2380000000.0 0.20373752598945835 -0.08382029407366737
2400000000.0 -0.22375182132747826 0.08091403951346754
2420000000.0 0.07374171631160459 0.25692157798246373
2440000000.0 0.04358033074157833 -0.288572986351207
2460000000.0 -0.06730282058124581 0.3188692452613445
2480000000.0 0.2663626807870515 -0.24302736601662916
2500000000.0 0.30845550856069637 0.2533739784550948
2520000000.0 -0.3571046714827863 0.2467405417243747
2540000000.0 -0.15113336735845667 -0.446570478645991
2560000000.0 0.49335047453236314 0.11821880215980281
2580000000.0 -0.5003767094069436 0.20258032883477656
2600000000.0 0.22913966989346507 -0.5223231186362982
2620000000.0 0.051951415714822494 0.5932942362223464
2640000000.0 -0.3863138364777939 -0.4785854784994769
2660000000.0 0.6296373734245855 -0.06335561807438753
2680000000.0 -0.030003132891644028 0.643299188311436
2700000000.0 -0.635174523962879 0.1595002041936936
2720000000.0 -0.6090455368080846 -0.2590039407239468
2740000000.0 -0.5207833427876343 -0.41507302290464804
2760000000.0 -0.4558139260841371 -0.486982299970246
2780000000.0 0.5439204836163742 -0.3785538552606595
2800000000.0 0.62754360566108 -0.18546424542294135
2820000000.0 0.5017991816834273 0.4012697320186979
2840000000.0 -0.40211087317918376 0.48577201013312915
2860000000.0 -0.04706856560509457 -0.6161966934159648
2880000000.0 -0.1619701706158187 0.5782187307472126
2900000000.0 0.5400628929434188 -0.22130686583340906
2920000000.0 -0.4044603296774372 -0.39248283386594424
2940000000.0 -0.5037971001943609 0.18375421707734668
2960000000.0 -0.24199465644060655 0.45433380943117824
2980000000.0 0.30948505889764916 0.3817659260845403
3000000000.0 0.3506453540309516 -0.3087619265941028
3020000000.0 -0.30352672458116486 -0.3208283469844514
3040000000.0 0.077787952931663 0.4098504310057106
3060000000.0 0.06967506553653524 -0.3819057714540201
3080000000.0 -0.23181968112327075 0.27907559678941163
3100000000.0 0.24292889585754449 -0.2426010970623445
3120000000.0 -0.045575556069552894 -0.3277402806653134
3140000000.0 -0.11751028909557756 0.3026002989065506
3160000000.0 0.013973864946205937 -0.32104590611223666
3180000000.0 -0.08538718725574523 0.3040952168459738
3200000000.0 0.2644260952328495 -0.16232303667967532
3220000000.0 -0.17256518193648843 -0.24645670733895905
3240000000.0 -0.28865614161019865 0.004006188946396338
3260000000.0 -0.2575992866316761 -0.0719047576999355
3280000000.0 0.0619507430945977 -0.2456536906154462
3300000000.0 0.19944556695412097 0.12497086550383654
3320000000.0 -0.1636311270222643 0.14636800901737626
3340000000.0 -0.11262942552350194 -0.1637431242935045
3360000000.0 0.13612794571464806 -0.1065688619523687
3380000000.0 -0.11142058052645457 -0.09141348794802644
3400000000.0 -0.11698282417743916 -0.023457107731322088
3420000000.0 0.07296500447881756 -0.08068123273269263
3440000000.0 0.026802943343906434 0.09725115358056252
3460000000.0 0.07214855838609299 0.0549915383859877
3480000000.0 -0.05524783964187176 -0.059179780360209995
3500000000.0 0.06434040043099903 -0.028943563862730153
3520000000.0 0.06127964107687245 -0.012733837537385268
3540000000.0 -0.02515613469687106 -0.05645087930976936
3560000000.0 0.05201507871125575 0.03331513015798407
3580000000.0 -0.03302240862043789 0.06554792548077408
3600000000.0 -0.054999906060735626 0.06343649346689112
3620000000.0 0.09886006168644765 -0.009683265349608831
3640000000.0 -0.07909957449316973 -0.0690503897678103
3660000000.0 -0.015596866448671738 -0.10706152857687368
3680000000.0 -0.05790107162328944 0.08749103849025455
3700000000.0 -0.09430914181465003 -0.017927033880614583
3720000000.0 -0.08744830689511168 -0.016058242200192998
3740000000.0 -0.036487139969503306 0.06734569657228238
3760000000.0 0.06886264625658206 0.0075248310894845604
3780000000.0 -0.03516848429389927 0.04657899591739321
3800000000.0 -0.005545993719392638 0.04040691196762316
3820000000.0 -0.026208639211664365 0.015125080655235996
3840000000.0 -0.02107628287709126 -0.042893504736113794
3860000000.0 0.05756388639120856 -0.04187233710766863
3880000000.0 0.0818695310373373 0.03155777496903401
3900000000.0 -0.09812622820451732 -0.01115060736511379
3920000000.0 0.00859476143696089 -0.10364193923223036
3940000000.0 -0.09575150405962259 0.037318672202994535
3960000000.0 0.08174022166536446 0.06233862467381496
3980000000.0 -0.06898627197565578 -0.06950456133777579
4000000000.0 0.048814055076011234 0.07387593660393749
