!Created with skrf (http://scikit-rf.org).
# Hz S RI R 50.0 
!freq ReS11 ImS11
400000000.0 -0.5398838722548831 0.6016005500763517
420000000.0 0.5881249660516231 -0.4779173101973965
440000000.0 -0.1477612316755911 -0.7179954749963334
460000000.0 -0.4460016963395982 -0.46224428097351355
480000000.0 -0.35483062763157824 -0.37612638583171326
500000000.0 -0.38258024077639935 0.16630257543181357
520000000.0 0.43159653965181355 0.13615670053378734
540000000.0 -0.28972898962614924 -0.38207412457339074
560000000.0 0.07410062992637828 -0.440343484573244
580000000.0 -0.4297774735648186 -0.06504565215196016
600000000.0 -0.3799555627775261 0.09295920076528358
620000000.0 -0.3489446447197424 -0.090456226943738
640000000.0 0.07911118503722638 0.34165881172290014
660000000.0 -0.33096778958752976 -0.13317594739642155
680000000.0 -0.3305066641579365 0.10156501179368184
700000000.0 0.07789164274994953 0.3267145413607792
720000000.0 -0.3406733387528661 -0.013262047157413673
740000000.0 -0.13753301923916705 0.29577160047927487
760000000.0 -0.1429151590283597 0.26847874642538727
780000000.0 -0.17450336587304463 -0.2334754155133088
800000000.0 -0.027009978327630513 -0.2591620482233278
820000000.0 0.21088538433631404 -0.017925338182338046
840000000.0 0.2108148694489733 0.01504903710180004
860000000.0 0.19677743220195187 0.015169152139184228
880000000.0 -0.13298266776807305 0.13781254033710305
900000000.0 -0.03797938971103662 -0.15728389893240785
920000000.0 -0.14626217281194293 0.02169659934509489
940000000.0 -0.025167503406325946 0.1310576991144278
960000000.0 0.02860018651429304 0.10768014677053679
980000000.0 -0.05403191415275003 -0.045316376826065416
1000000000.0 0.03421086306687024 0.038562094679859646
1020000000.0 -0.02294047345244804 0.043095396035464195
1040000000.0 0.02357708585532478 -0.07321588775945133
1060000000.0 -0.06666508507880481 0.08499188234734659
1080000000.0 0.10430501888748413 0.09472897586989851
1100000000.0 0.040343235619026724 0.17644860370750162
1120000000.0 -0.11254914622731327 0.17474419789516205
1140000000.0 0.029198283999768322 -0.23942817822439058
1160000000.0 0.127714770962363 -0.24458892611313296
1180000000.0 0.26660928108220944 0.13086090929345184
1200000000.0 0.17271760941510095 0.26843165388146967
1220000000.0 0.31282664157577117 0.055626496461662935
1240000000.0 -0.3134588111993606 0.09979801173870718
1260000000.0 -0.24851635285985174 0.22103170105422845
1280000000.0 -0.29195807120303774 -0.1683544127263522
1300000000.0 -0.24022968803236555 -0.25082512492666875
1320000000.0 0.32086853324114356 -0.15746252086245321
1340000000.0 -0.03121474320151681 0.36870040786159675
1360000000.0 -0.36517655447851916 -0.09886405161244922
1380000000.0 0.3818010357001542 0.0007044250064428613
1400000000.0 -0.35800897275911314 0.13001465819568606
1420000000.0 0.2382071378222822 0.28940935778116633
1440000000.0 0.3646957838453413 0.029756918704621604
1460000000.0 0.36022935493926794 -0.03176530120069494
1480000000.0 -0.2326954804892372 -0.26482384645090595
1500000000.0 0.06996442128366784 0.33142055456124314
1520000000.0 0.23479717809102343 -0.20030769500995524
1540000000.0 -0.25178086142844297 0.11735815359679135
1560000000.0 0.010813884881073169 0.24727223628370845
1580000000.0 -0.0020354311044227216 -0.21387981219196472
1600000000.0 -0.03615559000214588 0.17791292089659233
1620000000.0 0.07951386460968812 -0.14278984047894747
1640000000.0 0.1187606785940039 0.06535099021289628
1660000000.0 -0.05865879473636662 0.09063682186611219
1680000000.0 -0.011981508310189636 0.08816476734711301
1700000000.0 0.050517190252099727 -0.058555452547122855
1720000000.0 -0.05107795102906828 0.015190173004117003
1740000000.0 0.0182216984282624 0.050037888189755166
1760000000.0 0.05398473879010831 0.0400559452537974
1780000000.0 -0.09686909635279191 0.007082134011209807
1800000000.0 0.06654116493564698 0.10766138368211597
1820000000.0 0.06367961188749877 0.1488581385692614
1840000000.0 0.013215079741797588 0.19398204670450558
1860000000.0 -0.1088174229296802 0.1926248914704878
1880000000.0 0.1090768313079861 0.2201393322464133
1900000000.0 0.2595831923693223 -0.0659834964205323
1920000000.0 -0.18345007093721402 -0.22116143369808142
1940000000.0 -0.07331075580980277 0.2935089236479706
1960000000.0 -0.21157629288277216 -0.23232562766644546
1980000000.0 0.13510439397346313 -0.28413554083388975
2000000000.0 0.30251765024894545 0.07707690429852244
2020000000.0 0.019851140547523502 0.3124528240309375
2040000000.0 -0.08171823469958604 0.2987509104824117
2060000000.0 -0.29526784581452803 0.07617922468549469
2080000000.0 -0.2572040443198855 -0.16144844033400602
2100000000.0 0.2116983246410451 0.21550930669506227
2120000000.0 -0.3001954586163205 -0.014354603854841537
2140000000.0 0.2229401424557631 -0.19352716199504066
2160000000.0 -0.24019256273079287 0.16058022121081875
2180000000.0 -0.08186766660565171 0.26861665912275845
2200000000.0 0.2443985236355081 0.13422654348336122
2220000000.0 0.2666546346709233 0.009939747373334256
2240000000.0 0.058857516489630106 0.2529381106937364
2260000000.0 -0.19841982494822635 0.1516259701834739
2280000000.0 -0.12249400491328204 -0.20706247258970958
2300000000.0 0.22779823807125887 0.014646012060237816
2320000000.0 -0.2192928954315791 -0.029358724829731352
2340000000.0 0.21384197344332628 0.010098056167648476
2360000000.0 -0.2100413289366425 0.04814415461480814
2380000000.0 0.21775738617692725 -0.04090431458103362
2400000000.0 -0.17466070032906666 0.16085368707989028
2420000000.0 0.0641816689299593 0.25732026536315256
2440000000.0 0.12870036791310896 -0.261902189835622
2460000000.0 -0.0857642675097245 0.3169515479664459
2480000000.0 0.16845671686391447 -0.3177688505758905
2500000000.0 0.2832730199889661 0.27891179473431205
2520000000.0 -0.36810297040896167 0.23238497925635931
2540000000.0 -0.17452936073805306 -0.43958034023292525
2560000000.0 0.5021770508396506 0.07002815399449881
2580000000.0 -0.5174262035172409 0.15225696584588724
2600000000.0 0.2630168285990433 -0.5056345201112585
2620000000.0 0.1116598068251761 0.5844528089029696
2640000000.0 -0.41832234326221535 -0.45086726226154755
2660000000.0 0.6321592439519449 -0.01903624969668842
2680000000.0 -0.05572511047609049 0.64191228136318
2700000000.0 -0.6391612065454092 0.14067546320431276
2720000000.0 -0.5848830713500403 -0.31017671626075366
2740000000.0 -0.5791179988180417 -0.3295129447944924
2760000000.0 -0.4924352248476331 -0.4498239941181715
2780000000.0 0.5314810587884645 -0.39488424657121507
2800000000.0 0.6348617409321815 -0.15811990840484402
2820000000.0 0.5109977195955132 0.38948389281079776
2840000000.0 -0.3751444530426757 0.5060169131449224
2860000000.0 0.04871585552144279 -0.6152839052107746
2880000000.0 -0.1597212127864334 0.579459614734035
2900000000.0 0.5090816188297377 -0.2852359103762308
2920000000.0 -0.3690294574199146 -0.4244679948391755
2940000000.0 -0.5249759346288417 0.11658140445728254
2960000000.0 -0.21545988921533993 0.46781205033209117
2980000000.0 0.3050696121869042 0.38462939835586124
3000000000.0 0.4143220193823325 -0.21825971177311385
3020000000.0 -0.3083021303211119 -0.31798376753230345
3040000000.0 0.16562834479560162 0.3814228435817319
3060000000.0 0.13039624558093688 -0.3656768291111246
3080000000.0 -0.1823226038401864 0.31405963986178603
3100000000.0 0.213694539282432 -0.2674853314583803
3120000000.0 -0.016530896594201816 -0.3314855095275205
3140000000.0 -0.04907046532833113 0.3197385579775841
3160000000.0 0.026528114002838218 -0.31835601796880053
3180000000.0 -0.17905650906044476 0.2611115454337044
3200000000.0 0.2115032807349242 -0.23040550000247617
3220000000.0 -0.2501592372413102 -0.16332575429974303
3240000000.0 -0.28620281747156795 -0.023913593227121516
3260000000.0 -0.23878714119948508 -0.12171674129262232
3280000000.0 0.015047232019519331 -0.2529249253461903
3300000000.0 0.20876360520423434 0.10916115595622136
3320000000.0 -0.17072355071637496 0.13837889701804298
3340000000.0 -0.06947226538486391 -0.1853273214002463
3360000000.0 0.057937733389999004 -0.16097176266034408
3380000000.0 -0.08304871260227191 -0.11800046754424805
3400000000.0 -0.11197514213843299 0.03917249315744236
3420000000.0 0.025671248061505798 -0.10517258912915617
3440000000.0 -0.022368897426557923 0.09747628681962842
3460000000.0 0.09047867324364417 -0.013171406817483449
3480000000.0 -0.08136411150798624 -0.01090022104639147
3500000000.0 0.006837712251262471 -0.07185526027801196
3520000000.0 0.043514435804611444 -0.04435368100606555
3540000000.0 0.05639527595256813 -0.023682988904219264
3560000000.0 0.005730031118388255 0.06297382412318027
3580000000.0 -0.053581336697788556 0.05221997001424738
3600000000.0 -0.07069364183071289 0.04363213172368518
3620000000.0 0.09412795515115743 -0.02811471052231081
3640000000.0 -0.006578854011774086 -0.10386329289663529
3660000000.0 -0.02174215249638026 -0.10604565922267845
3680000000.0 -0.047334368469751864 0.09379553312953734
3700000000.0 -0.09161075141844414 0.028013541729625027
3720000000.0 -0.0638179991224206 -0.060794354642200114
3740000000.0 -0.019920782543508715 0.07375287044405654
3760000000.0 0.032614990654676025 0.06099221706289292
3780000000.0 0.025344967138051823 0.05359648974562483
3800000000.0 0.03300573669054548 0.01990689469133138
3820000000.0 -0.001892445952299411 -0.03164544074696214
3840000000.0 -0.03606264138959183 -0.030261901434738964
3860000000.0 0.034863514545280604 -0.06041900713901368
3880000000.0 0.07478986159807541 0.04318470659720235
3900000000.0 -0.09570410684094226 -0.028450671933372362
3920000000.0 -0.049623855729022025 -0.09157936562886936
3940000000.0 -0.05211179728502165 0.087625250427072
3960000000.0 0.044487352358675764 0.09168015210326745
3980000000.0 -0.09043521987275495 -0.038651586963732124
4000000000.0 0.08774764616438824 0.0013191858446380935
