!Created with skrf (http://scikit-rf.org).
# Hz S RI R 50.0 
!freq ReS11 ImS11
400000000.0 -0.5414566277292189 0.5987382707671719
420000000.0 0.6137020746060756 -0.44123500960431816
440000000.0 -0.07861682693981442 -0.7279290038165905
460000000.0 -0.32592931786286267 -0.5579131899968359
480000000.0 -0.5029573118729201 -0.14585577855107737
500000000.0 -0.315809750071515 0.2663228467684835
520000000.0 0.2754160235852541 0.349374929191071
540000000.0 0.1512052193706898 -0.4619879317294926
560000000.0 0.0009575103339749593 -0.4531332135740003
580000000.0 -0.2678764275202615 0.33572355027478984
600000000.0 -0.38487591371891183 0.06050650384817997
620000000.0 -0.3596129031017936 -0.026294967006263166
640000000.0 0.0204450312941912 0.3542826783074426
660000000.0 -0.2616209658028841 0.23591123786876259
680000000.0 -0.33956133552375756 -0.025226965902962147
700000000.0 -0.23545697137013372 0.23989331775071993
720000000.0 -0.3451843720560999 0.010912963372091935
740000000.0 0.11756286700149417 0.3112226708361865
760000000.0 0.14982944784119598 0.2636014486828433
780000000.0 -0.15799519327667796 -0.24015529417545836
800000000.0 0.2543591686468581 0.016985777260004848
820000000.0 0.08976923787416405 0.20114636156098245
840000000.0 0.08533279695172247 -0.1973457696085713
860000000.0 0.022701748836361627 -0.19356413527671879
880000000.0 -0.06525440411150422 0.17578754617138004
900000000.0 0.059511399279081126 -0.14554658583576593
920000000.0 0.09516452907055774 -0.11464282794026924
940000000.0 0.13864002804988554 0.015011468276083446
960000000.0 0.10966442720054764 0.004398747574615395
980000000.0 -0.04779164168290332 -0.05084253366275938
1000000000.0 -0.030648771234421 0.03848933654386698
1020000000.0 0.04870867641033996 0.010133849689868956
1040000000.0 -0.05807701870187332 -0.05118512178885042
1060000000.0 -0.09979792043310586 -0.037238386469936754
1080000000.0 0.04949031677695497 0.13221082249484153
1100000000.0 -0.09291239175999447 0.15847452851523747
1120000000.0 -0.14276160680633654 0.15271381989012736
1140000000.0 -0.07036967256000101 -0.23012787418513048
1160000000.0 0.20206039154257435 -0.1867443107785108
1180000000.0 0.18186173252590732 0.23369393261794355
1200000000.0 0.23862113411406305 0.21037157104683613
1220000000.0 0.27857069446778154 0.14919370356359768
1240000000.0 -0.32988148804738254 0.012678792279447857
1260000000.0 -0.2005069377878298 0.265720671796063
1280000000.0 -0.3304586766021181 -0.0545626723188912
1300000000.0 -0.1944210528927562 -0.28700266262984436
1320000000.0 0.3316203596965637 -0.1319124589108663
1340000000.0 -0.11262670870220498 0.3546400424644868
1360000000.0 -0.3781796563018697 -0.03687194732949516
1380000000.0 0.37180480484187584 -0.08900951868974873
1400000000.0 -0.37004159459609387 0.08738835371976894
1420000000.0 0.06458692816146994 0.37038550979937074
1440000000.0 0.3659313025126121 0.022888358418392363
1460000000.0 0.357472717507588 -0.046965650455872573
1480000000.0 -0.18929630295895458 -0.29719728696037706
1500000000.0 0.047042870802944343 0.33444985760422524
1520000000.0 0.23682417457156588 -0.19869954193388478
1540000000.0 -0.2653500298186869 0.08247336369127924
1560000000.0 0.045378018113262836 0.2418132671464863
1580000000.0 0.00698576286552555 -0.21398369351266958
1600000000.0 -0.05814366744765864 0.17343624792499332
1620000000.0 0.022786705764041536 -0.1599811166529354
1640000000.0 0.07943271437859074 0.10862960636245236
1660000000.0 -0.006101207487408105 0.10997056863299949
1680000000.0 0.02112128149620535 0.08427100864142788
1700000000.0 0.07810022536745519 -0.0032843071327614626
1720000000.0 0.0021066890301612534 0.0533002091056039
1740000000.0 0.04298692256247456 0.029501398208083496
1760000000.0 -0.019149753199469606 0.06574781531644296
1780000000.0 -0.018326955240461778 0.09609580322409242
1800000000.0 0.06652180873387704 0.1064901583277235
1820000000.0 -0.04817143874169337 0.15429703229066494
1840000000.0 -0.07078852239757745 0.18190968083593492
1860000000.0 -0.06818118877169922 0.21178821604623926
1880000000.0 0.17359181551189934 0.1733775434198998
1900000000.0 0.2685775733267269 -0.005201112078141607
1920000000.0 -0.11006344353169333 -0.26540478708217946
1940000000.0 -0.1513785819828969 0.26171635183140485
1960000000.0 -0.25598334789662286 -0.18341477206464515
1980000000.0 0.1378195115512977 -0.282586616539391
2000000000.0 0.3079994159320006 0.044217407694105586
2020000000.0 0.05666022116091133 0.30689543001102937
2040000000.0 -0.15815740730800576 0.26637686059044163
2060000000.0 -0.3042118483462425 0.030767976961425858
2080000000.0 -0.28476614296939334 -0.11253041325535232
2100000000.0 0.23370450417493394 0.19084827877050414
2120000000.0 -0.298658655280846 -0.006284076435491079
2140000000.0 0.2767928312755621 -0.10272796304004646
2160000000.0 -0.2828768246626756 0.06421243307232627
2180000000.0 -0.04112629457516539 0.2798766547319464
2200000000.0 0.2503912668564327 0.12128874078900567
2220000000.0 0.2661770589610692 0.006137814876479735
2240000000.0 -0.02210499939274551 0.2576952571004958
2260000000.0 -0.2190731792978037 0.11820301586336641
2280000000.0 -0.14497752767484184 -0.19296009546538864
2300000000.0 0.20529747645833776 -0.1003334444677449
2320000000.0 -0.21974764949043574 -0.012442665638866436
2340000000.0 0.2116012954216151 -0.030243980212796975
2360000000.0 -0.21503776680338896 0.007973855516781229
2380000000.0 0.22208688434366441 -0.023426840363678012
2400000000.0 -0.10697521758605212 0.21248487616535514
2420000000.0 0.13231992057017986 0.22846876118275605
2440000000.0 0.16648763162931074 -0.23910463043736044
2460000000.0 -0.19156339450093235 0.2664601868086666
2480000000.0 0.18071626414122155 -0.3139498630327965
2500000000.0 0.35414425079918077 0.18226981005170748
2520000000.0 -0.3617695091233594 0.24076466031157995
2540000000.0 -0.1756482126854598 -0.43808057352357627
2560000000.0 0.49633878981450397 0.10657809728460939
2580000000.0 -0.5155172625960789 0.15965984112440884
2600000000.0 0.2464945217677872 -0.514207644014558
2620000000.0 0.10508233638827062 0.5851199989143832
2640000000.0 -0.4160370901825991 -0.4526361404548198
2660000000.0 0.6227500100928418 -0.10902280168365196
2680000000.0 -0.0051001617359109075 0.6442737741022401
2700000000.0 -0.6294633654648104 0.18153102565710597
2720000000.0 -0.6118369039387261 -0.2523556943036796
2740000000.0 -0.5680169376981181 -0.3485013298822336
2760000000.0 -0.5052598150057589 -0.4362015098978586
2780000000.0 0.5272509343751175 -0.40054736435991384
2800000000.0 0.6402353371339523 -0.13441856075095038
2820000000.0 0.507889764466094 0.39412326469746417
2840000000.0 -0.42899271747875917 0.4615694599725224
2860000000.0 0.042033163106206264 -0.6156686448392954
2880000000.0 -0.14267562656990768 0.583984804950075
2900000000.0 0.49847389134668374 -0.3022004772095035
2920000000.0 -0.35652105355428154 -0.43403753608704465
2940000000.0 -0.5280475160800953 0.09818173820785239
2960000000.0 -0.20757378382988614 0.47182389590890933
2980000000.0 0.3992342026003108 0.2858453874663793
3000000000.0 0.4133299069632056 -0.2204475132673666
3020000000.0 -0.2779471494827254 -0.34452617661714635
3040000000.0 0.050678568443008845 0.413048918263569
3060000000.0 0.18724013615394372 -0.34096129983282214
3080000000.0 -0.14517005282250292 0.3329796494913647
3100000000.0 0.28575915214550274 -0.18670412252162386
3120000000.0 0.10565608013779933 -0.3132490957009688
3140000000.0 -0.11253519262575175 0.30256776037800165
3160000000.0 -0.005606262810595795 -0.3190961582947681
3180000000.0 -0.12196499780241495 0.2912882091190167
3200000000.0 0.20359679716735457 -0.23545699379201437
3220000000.0 -0.28160503016779953 -0.09838446933228248
3240000000.0 -0.2873749540281169 -0.025048616097584846
3260000000.0 -0.2499223071968599 -0.10235082076754025
3280000000.0 -0.026880091743162356 -0.25273797374788504
3300000000.0 0.18878646392021098 0.14339299144581819
3320000000.0 -0.18795749997746106 0.11468256108263611
3340000000.0 -0.05788360582416042 -0.19077612646430137
3360000000.0 0.1483285086089092 -0.08686672541475451
3380000000.0 -0.07138486490581893 -0.12484940478319559
3400000000.0 -0.11628752913886897 -0.025903349952255933
3420000000.0 0.04692304766691742 -0.09714464582357751
3440000000.0 -0.0030486018192675294 0.10073837620515448
3460000000.0 0.01348498974643438 0.08930457902929981
3480000000.0 -0.07424057941868661 -0.033676789784660904
3500000000.0 0.020460661735797567 -0.06818059581743335
3520000000.0 0.024134189265794814 -0.056457035594634816
3540000000.0 0.03619811389256618 -0.05120850045197427
3560000000.0 0.05052708388883605 0.0382159264753597
3580000000.0 -0.011057352408438751 0.07383597962172407
3600000000.0 -0.04082252280509593 0.07177647512188658
3620000000.0 0.0943497087503253 -0.03472843559388827
3640000000.0 -0.06756257043004026 -0.08003541375400036
3660000000.0 -0.05986367571943316 -0.09086384906109814
3680000000.0 0.06482926407757988 0.0814394087070191
3700000000.0 -0.07927562167722392 0.05367270934948445
3720000000.0 -0.08868250418937249 -0.01333100308312737
3740000000.0 -0.0038887748407500115 0.07771695401441367
3760000000.0 0.0652906553726628 0.025207642416301215
3780000000.0 -0.016755903374777625 0.05657128050721668
3800000000.0 0.02911404568968974 0.027330833310673913
3820000000.0 -0.032891429338108506 -0.0035465280370198015
3840000000.0 -0.04365546345637355 0.018627231374394707
3860000000.0 0.033099355072445 -0.06293409240768218
3880000000.0 0.04106892634543264 0.07812745372061522
3900000000.0 -0.0986010856359992 -0.02450253111735386
3920000000.0 -0.0281787372456615 -0.09952665565496246
3940000000.0 -0.08714368310326112 -0.05295787076857726
3960000000.0 -0.08018862444711443 0.0655807309508668
3980000000.0 0.013328440898963952 -0.09750848989666289
4000000000.0 -0.04343959959581069 0.07476280577456987
