!Created with skrf (http://scikit-rf.org).
# Hz S RI R 50.0 
!freq ReS11 ImS11
400000000.0 -0.5617327274639091 0.5822085340158338
420000000.0 0.6208905386125882 -0.43394366387795513
440000000.0 -0.1652757399604951 -0.7131846419299658
460000000.0 -0.5617657642890083 -0.31184473262008017
480000000.0 -0.37993997263325135 -0.3581864063540295
500000000.0 -0.33495975024012536 0.25071226563529364
520000000.0 0.4183396428846838 0.15622843383098783
540000000.0 -0.03935294917438908 -0.4760188291813591
560000000.0 0.16348608693148983 -0.42603819364366907
580000000.0 -0.23070170152626318 0.36570124667358905
600000000.0 -0.38421153513154005 0.038868013315034325
620000000.0 -0.3522846200828325 -0.0845260175494025
640000000.0 -0.1420263728855003 0.3205426977562501
660000000.0 -0.3558049636112531 -0.02540053767495126
680000000.0 -0.18625460272489433 0.2957913779595338
700000000.0 0.15116052171134198 0.2946142460135902
720000000.0 -0.28832931588189253 -0.18753622366528855
740000000.0 0.025001324074724628 0.33032210277402413
760000000.0 -0.10499793622497215 0.2832384640245699
780000000.0 -0.0755639780036453 -0.2844265532040785
800000000.0 -0.06177182640798476 -0.250723757528717
820000000.0 0.2119097739431367 0.018657305260272056
840000000.0 0.20979276268994712 0.021375480705655734
860000000.0 0.14686202765426867 0.13378755711260953
880000000.0 -0.07779107104182961 0.17701571477699293
900000000.0 -0.024617616849722274 -0.1583229314076177
920000000.0 -0.045048423765287386 -0.13789395754353528
940000000.0 0.05405076759418397 0.12528054981050205
960000000.0 0.05886255686376909 0.0938793038926787
980000000.0 -0.056173174280801645 -0.03980040760177736
1000000000.0 0.023709939160923607 0.0449599394041591
1020000000.0 0.0479095064706688 0.009253838781250552
1040000000.0 0.07343628771337762 0.017968699735773863
1060000000.0 -0.09232321896328333 -0.06259369931383235
1080000000.0 0.13919800794176013 0.03310613237855615
1100000000.0 0.09367778517353693 0.15300269430063848
1120000000.0 -0.20490819223711002 0.024717294935617574
1140000000.0 0.10427578310270148 -0.22042390150378247
1160000000.0 0.18188719427197622 -0.20768004949216667
1180000000.0 0.2529795820222745 0.15357774120521303
1200000000.0 0.2220027030456191 0.227334951301024
1220000000.0 0.27073815090552883 0.16442788944454045
1240000000.0 -0.3024398193810945 0.1313084811625906
1260000000.0 -0.2674191441458493 0.19411102477654837
1280000000.0 -0.3232477925867272 -0.10529029816063186
1300000000.0 -0.2873165175529639 -0.193688820031596
1320000000.0 0.34563866671055826 -0.08293873414375298
1340000000.0 -0.1763673520518508 0.32774793247117806
1360000000.0 -0.362435389586712 -0.108619976337675
1380000000.0 0.3733026961052224 -0.09101284677650723
1400000000.0 -0.31704413536043774 0.20955720547056128
1420000000.0 0.07740181426092951 0.365055657928562
1440000000.0 0.3376343668908732 0.1451574451548821
1460000000.0 0.33891021339724814 -0.1298863322677247
1480000000.0 -0.19923718132553328 -0.28825783953794437
1500000000.0 0.018344279111718195 0.33654258250278735
1520000000.0 0.2255097666380039 -0.21404063003337767
1540000000.0 -0.20472922362901452 0.18853418832155835
1560000000.0 -0.011922377331908643 0.244522652930715
1580000000.0 0.06750924181391853 -0.20498720793500766
1600000000.0 -0.02577656814597088 0.18134600012433014
1620000000.0 0.01622470986738331 -0.1611031564585516
1640000000.0 0.04394063272330008 0.12787841796004212
1660000000.0 -0.029229060017594725 0.10523665749173133
1680000000.0 -0.03027651702989131 0.08190607952990034
1700000000.0 0.00217527297624248 -0.07812284570789711
1720000000.0 -0.04310243733157451 0.02897441995581806
1740000000.0 -0.045272325345900845 0.029334827314727627
1760000000.0 0.03493449650011263 -0.05658100233283125
1780000000.0 -0.0835271411347345 -0.0477035208355608
1800000000.0 0.10095918824434502 0.07565183376214106
1820000000.0 0.07871314899645926 0.14309446042721574
1840000000.0 -0.043124374428613874 0.18866624225654313
1860000000.0 -0.05429517463986586 0.21600850454298073
1880000000.0 0.12023053130031766 0.21388654922369643
1900000000.0 0.26874431069858223 -0.02394120469406561
1920000000.0 -0.18945703929785282 -0.21525338447932907
1940000000.0 -0.13006067191231682 0.2737478486413044
1960000000.0 -0.22586769791532432 -0.2177971203163223
1980000000.0 0.17966832582233727 -0.25770173107104927
2000000000.0 0.3046388017183971 0.06920636295717969
2020000000.0 0.05596225428621557 0.30749307629306766
2040000000.0 -0.08146796211459827 0.2979260958032618
2060000000.0 -0.3045792799376038 0.01781080707051542
2080000000.0 -0.2993277410013711 -0.06391190898734736
2100000000.0 0.2206211111576329 0.20464920853406124
2120000000.0 -0.29989434410792315 -0.01027361810270163
2140000000.0 0.2590194147792709 -0.1416832756416463
2160000000.0 -0.2718773077237819 0.10281378879255551
2180000000.0 -0.015343464386833733 0.2817651559072597
2200000000.0 0.20740087994755171 0.18499260092906925
2220000000.0 0.2631780693434391 0.04653286377619988
2240000000.0 0.036796242910071136 0.2573325645649301
2260000000.0 -0.19468356595749567 0.15471159696282266
2280000000.0 -0.15818502734146 -0.1796907277605342
2300000000.0 0.2264332287038962 0.023790208075542673
2320000000.0 -0.21709593010121936 -0.04056625939470975
2340000000.0 0.2091490634370233 -0.048517260829811566
2360000000.0 -0.20408357167502508 0.07115402625248739
2380000000.0 0.21083552825436683 -0.06446098750287885
2400000000.0 -0.20463098994127246 0.12247833594432093
2420000000.0 0.060636824752444037 0.2589313508629754
2440000000.0 0.09915681137705941 -0.2753007528250526
2460000000.0 -0.07273659131031383 0.31916593198054105
2480000000.0 0.21324154143242502 -0.29060039856571906
2500000000.0 0.2816474003338107 0.28207207820594327
2520000000.0 -0.3744217845737353 0.22135980883195064
2540000000.0 -0.1712390724124729 -0.44042464544192683
2560000000.0 0.5027157377528929 0.0697723120582936
2580000000.0 -0.4914370076302574 0.22254298032521025
2600000000.0 0.2534657924950977 -0.5101113429866319
2620000000.0 0.0676730685501514 0.5914489614467946
2640000000.0 -0.430586683396167 -0.439530328469981
2660000000.0 0.630331581533636 -0.05717858829945468
2680000000.0 -0.008276675458298499 0.6443737692781845
2700000000.0 -0.6307273645837448 0.17595906115745202
2720000000.0 -0.5913674530522804 -0.29783897591717395
2740000000.0 -0.5581585989053687 -0.3629645330855714
2760000000.0 -0.5039651602960219 -0.43699646999462505
2780000000.0 0.5279885536773608 -0.39922070168610563
2800000000.0 0.6313087096083485 -0.17060517633545091
2820000000.0 0.5360400359309535 0.3541543075145399
2840000000.0 -0.38311629196168323 0.499849711226956
2860000000.0 0.021543057672386453 -0.6162921951017679
2880000000.0 -0.16783700868066936 0.5764504114391752
2900000000.0 0.5321688602244283 -0.23973352739383383
2920000000.0 -0.39914122492565274 -0.3969783077897779
2940000000.0 -0.5165782563134137 0.14590081214557696
2960000000.0 -0.2443127592340657 0.4520465154583002
2980000000.0 0.29574226524070374 0.39304080558928145
3000000000.0 0.3671319970951825 -0.29007797280712594
3020000000.0 -0.26926275115442294 -0.35095828685605285
3040000000.0 0.13675095641992657 0.3920601429901146
3060000000.0 0.10993199283232276 -0.3710906016724195
3080000000.0 -0.23569024573310993 0.2764732667963449
3100000000.0 0.2357226990925836 -0.2483861293000088
3120000000.0 -0.025533292461862762 -0.32995834229672033
3140000000.0 -0.057354067891306426 0.317919071405314
3160000000.0 -0.010877731675237607 -0.31985556242007684
3180000000.0 -0.16306541498446467 0.27010970223736896
3200000000.0 0.23139948702387386 -0.20903287313484611
3220000000.0 -0.24618641696807575 -0.16867452444789502
3240000000.0 -0.2886980620389202 -6.89393291832275e-05
3260000000.0 -0.23580251363855906 -0.12629759845131944
3280000000.0 0.08298860340539375 -0.2399552634356656
3300000000.0 0.20188083142652447 0.12284763393341953
3320000000.0 -0.1790775099335506 0.1264343378390786
3340000000.0 -0.059250456544080246 -0.18902299041700385
3360000000.0 0.10598021982166392 -0.13459142375648514
3380000000.0 -0.09241989581027471 -0.10944182181146721
3400000000.0 -0.11287380910834614 0.03632587148613786
3420000000.0 -0.012364370961482555 -0.10765220165292232
3440000000.0 0.014377645302098296 0.09950511622527125
3460000000.0 0.07902270062296085 0.04720637049632405
3480000000.0 -0.07881082333181919 0.021037620190952032
3500000000.0 0.06207756288391087 -0.03488351506665024
3520000000.0 0.05898906906474932 -0.02232281260733234
3540000000.0 0.01236276499767678 -0.06154008610697994
3560000000.0 -0.0005123255531372894 0.061994392611005866
3580000000.0 -0.048911716700237064 0.055860478971914304
3600000000.0 -0.040437931403292084 0.07260855140937464
3620000000.0 0.08296641155072217 -0.054788455645677026
3640000000.0 -0.06381934361056969 -0.08240980880594286
3660000000.0 -0.007416060569988314 -0.10811734435399158
3680000000.0 0.07261703641175178 0.07595379433178051
3700000000.0 -0.0607090973248229 0.07313793093347774
3720000000.0 -0.06660440440543532 -0.058464242585728236
3740000000.0 -0.02750242837934634 0.0725325529833912
3760000000.0 0.06672911705511841 0.020187485834291904
3780000000.0 -0.02105427975954175 0.05519387790420624
3800000000.0 0.03906968978833324 0.003024310859942895
3820000000.0 0.031407225434336744 -0.008764577837060347
3840000000.0 -0.03886043762996165 0.0257877937421505
3860000000.0 0.06785809330543562 -0.019932005844328866
3880000000.0 0.06599924147699618 0.05731804210047877
3900000000.0 -0.07653815913592972 -0.0648358848597926
3920000000.0 0.033203350347573546 -0.09851979760991522
3940000000.0 -0.09889732082659768 -0.024743898248496262
3960000000.0 -0.030489506836369456 0.09814754016038103
3980000000.0 0.05173509234077866 -0.08263866844265831
4000000000.0 -0.03738104149366633 0.07753876709710493
