!Created with skrf (http://scikit-rf.org).
# Hz S RI R 50.0 
!freq ReS11 ImS11
400000000.0 -0.6081151086582658 0.5337700259176487
420000000.0 0.588380366600375 -0.4759969598815221
440000000.0 -0.17496400684205535 -0.7113740214289602
460000000.0 -0.48922183810152203 -0.4207576323357215
480000000.0 -0.4861959379077027 -0.1883432279784366
500000000.0 -0.39639120503548736 0.10851844526127302
520000000.0 0.15486213709491542 0.419865029215062
540000000.0 -0.1580708375165396 -0.45959706454157406
560000000.0 0.04059239063291191 -0.45329064911505407
580000000.0 -0.2845305822471034 0.322310999828885
600000000.0 -0.3643640703884454 0.11538466626463016
620000000.0 -0.0676248925632194 -0.351860859272348
640000000.0 -0.08436408524506278 0.34884271390092425
660000000.0 -0.3335923967329146 0.11455735399996245
680000000.0 -0.2270222180848767 0.26201597832188084
700000000.0 -0.016935567793309934 0.3353937440136281
720000000.0 -0.32450231482856823 -0.10486875909415547
740000000.0 -0.0657564897429558 0.32246696242564166
760000000.0 -0.2122920877519004 0.2235746455993326
780000000.0 -0.2896656669554787 -0.034352698295933196
800000000.0 0.14199693614580985 -0.21005745127504039
820000000.0 -0.18623195557183925 0.10852935490321641
840000000.0 0.10438605769162139 -0.19023294022671547
860000000.0 -0.02636149309873269 -0.197292448795019
880000000.0 -0.13976209850624322 0.12694355411170277
900000000.0 0.10012629042762662 -0.12031904772472536
920000000.0 0.10423228761502464 -0.10880443377893242
940000000.0 0.1266138150225358 0.05287101526899327
960000000.0 0.10964184070895941 -0.0012081688042339795
980000000.0 -0.002985239250612977 0.06962208503621253
1000000000.0 -0.04327027496164459 0.017930358242308115
1020000000.0 -0.021186869949113438 -0.04039205189843982
1040000000.0 -0.05333676078849322 0.056041694937334664
1060000000.0 -0.11057995910198795 0.0229459674276699
1080000000.0 0.06073562494203391 0.1296253649372549
1100000000.0 0.09423485720313696 -0.14500693873282858
1120000000.0 -0.012868760504205778 -0.20854632113861502
1140000000.0 -0.1797884323926416 -0.16871132067174224
1160000000.0 -0.006546544539194034 -0.2728384029893786
1180000000.0 0.23522159476354199 0.18159816539791643
1200000000.0 0.157957652051355 0.27872623488996245
1220000000.0 0.23355093766973742 0.2141516529463236
1240000000.0 -0.3243611700549172 0.04945446940066067
1260000000.0 -0.2835403243712239 0.17790690164283862
1280000000.0 -0.33746232496797146 -0.010161047520515117
1300000000.0 -0.035501987729551196 -0.34390852796663923
1320000000.0 0.2982530380731997 -0.20293113462056456
1340000000.0 -0.05733881128048571 0.3616523339211138
1360000000.0 -0.2701582972190503 -0.2660482123525173
1380000000.0 0.35918414482023014 -0.13970397581260052
1400000000.0 -0.29607849646635603 0.23771900928987363
1420000000.0 0.12988426801307051 0.3501360814433669
1440000000.0 0.34654775175905417 0.1197741486767099
1460000000.0 0.3574016753055952 -0.0746606041000887
1480000000.0 -0.14046223360109816 -0.3210543156260122
1500000000.0 -0.00015426452193572127 0.3387114592999839
1520000000.0 0.21728024783104183 -0.21974266455807145
1540000000.0 -0.27270282979017885 0.05173328456086581
1560000000.0 0.020989748218731268 0.24404393355204737
1580000000.0 0.061782505444979284 -0.20824643396136927
1600000000.0 0.01454464123505699 0.18115026352411764
1620000000.0 0.009244929978319594 -0.1622993870015789
1640000000.0 0.12890703086179156 -0.032017735227696895
1660000000.0 0.018047028462756434 -0.10596957867679352
1680000000.0 0.07870443360462004 0.04943447374368343
1700000000.0 -0.06039735658321504 -0.04379998441795805
1720000000.0 -0.01426888733188777 -0.05197653490230103
1740000000.0 -0.05330031900826356 -0.00724616058620731
1760000000.0 0.04763015024847686 -0.04875691635246472
1780000000.0 -0.06000204516005211 0.07644017331764726
1800000000.0 0.10234513624519433 0.07243385125305823
1820000000.0 -0.14491369336705173 0.06848578264124686
1840000000.0 -0.07627800370264944 0.18432966447633128
1860000000.0 0.11750027086255253 0.186673892974104
1880000000.0 0.04199451219824095 0.23960044087524218
1900000000.0 0.2561267099821231 0.08377961123147827
1920000000.0 -0.11138432708237926 -0.2668573490460935
1940000000.0 0.015421457559180018 0.3018353559338599
1960000000.0 -0.2548913740227999 -0.18267795899726952
1980000000.0 0.14976971119315022 -0.2772981893764674
2000000000.0 0.3030905556988322 0.0719698100881833
2020000000.0 -0.02354679570250303 0.3128250861390966
2040000000.0 -0.0018881540373766753 0.3107945838591546
2060000000.0 -0.2862276346858908 0.10011928756987806
2080000000.0 -0.20103359672287033 -0.22899909926888726
2100000000.0 0.22845504609712536 0.20008470257428837
2120000000.0 -0.29957780796427885 -0.0007762362271614261
2140000000.0 0.2936041319755265 -0.01386695814025708
2160000000.0 -0.282481771000416 0.07128492903735746
2180000000.0 0.086913838971505 0.26818711875958956
2200000000.0 0.2029601214692667 0.18808008354196748
2220000000.0 0.2664087908864235 0.005363387027364887
2240000000.0 0.07984675424001228 0.24779213041129278
2260000000.0 -0.20077919271805938 0.14821638034762186
2280000000.0 -0.19482920183652647 -0.1391661965031777
2300000000.0 0.22308261275092817 0.05025864880713412
2320000000.0 -0.20685629968235314 0.07870579228623505
2340000000.0 0.20525745711743484 0.059809438470674894
2360000000.0 -0.20198492190507789 0.07839277001744323
2380000000.0 0.21260845536413023 -0.05813641199137907
2400000000.0 -0.20764764830627866 0.11686524664672837
2420000000.0 0.054554705625870274 0.261323816207908
2440000000.0 0.03133878901465963 -0.2903281772824701
2460000000.0 -0.10424338743687071 0.30904549026932293
2480000000.0 0.26776985814371623 -0.2418924691310939
2500000000.0 0.31081050202691773 0.2501917750211966
2520000000.0 -0.36851261157702475 0.2285949436404157
2540000000.0 -0.1505836388127835 -0.44653082855528337
2560000000.0 0.49088813173498247 0.12809348317976535
2580000000.0 -0.48734557246355054 0.23199151657015538
2600000000.0 0.22906444839787052 -0.5219426705060168
2620000000.0 0.09217692304441616 0.58819481330485
2640000000.0 -0.4024922384337092 -0.4651728846823089
2660000000.0 0.6259818225131195 -0.09153877771483664
2680000000.0 -0.09647837240874092 0.6370276734140612
2700000000.0 -0.633792108434234 0.1652730657437432
2720000000.0 -0.6053216543730358 -0.2679408884730084
2740000000.0 -0.5242393563829034 -0.4104903382262752
2760000000.0 -0.45369603204486497 -0.48887987848226755
2780000000.0 0.5372119841395875 -0.38766487607503397
2800000000.0 0.6276616788287909 -0.18493755095002165
2820000000.0 0.5268420266641655 0.36791329832187014
2840000000.0 -0.401184208658155 0.48654314676014493
2860000000.0 -0.020495544413939103 -0.617861415131217
2880000000.0 -0.12911838627738575 0.5861248111290798
2900000000.0 0.526903726533303 -0.25076449314371335
2920000000.0 -0.38884702622209966 -0.40785673140699824
2940000000.0 -0.5043392293118277 0.18407678962224386
2960000000.0 -0.22695712910932533 0.46198913688718624
2980000000.0 0.29896547546800617 0.38998253954852946
3000000000.0 0.35629123773152344 -0.30192788702079076
3020000000.0 -0.2982524392240585 -0.3258704180905142
3040000000.0 0.06561027945328139 0.4128178126756187
3060000000.0 -0.06924302912414498 -0.3814127091340544
3080000000.0 -0.254537329600741 0.25791252524809716
3100000000.0 0.19471650622068745 -0.28315356214527976
3120000000.0 0.024008569020402704 -0.32989348090055004
3140000000.0 -0.06945027286604502 0.31732745734777174
3160000000.0 -0.0036609095822379856 -0.3205078385628978
3180000000.0 -0.13082981826594875 0.2869046126053516
3200000000.0 0.2682289565467852 -0.15822893235594676
3220000000.0 -0.22760940386097003 -0.197121113267129
3240000000.0 -0.2875223505967889 0.01158244463138615
3260000000.0 -0.2590435925286455 -0.0667115535102286
3280000000.0 0.0520958765991591 -0.24788950399368975
3300000000.0 0.18563197176953003 0.14545286816385272
3320000000.0 -0.16673282714526255 0.14321753985533428
3340000000.0 -0.1692092085824207 -0.10360522370822078
3360000000.0 0.13327164516699871 -0.10844249442811618
3380000000.0 -0.07614618293998429 -0.12307108202511348
3400000000.0 -0.11584593139048209 0.031046847414430367
3420000000.0 0.07804619863403273 -0.07491045264315836
3440000000.0 0.02773383901229837 0.09695109031182639
3460000000.0 0.06030565625038014 0.06796076336712821
3480000000.0 -0.05708614826582439 -0.05774855597427032
3500000000.0 0.06061997421236266 -0.03725834518408343
3520000000.0 0.047857309355787137 -0.03977822706802807
3540000000.0 -0.013866161283788987 -0.059204278046748576
3560000000.0 0.03571097295036739 0.05100599626516709
3580000000.0 -0.020830037978288505 0.07053333553297876
3600000000.0 -0.03444802861234453 0.07641075628780192
3620000000.0 0.08105325699005925 -0.057234401737025764
3640000000.0 -0.040488320712877474 -0.09633595756293296
3660000000.0 0.02269878723786674 -0.10633739823624534
3680000000.0 -0.021094208881850644 0.10345860542459338
3700000000.0 -0.08357154129063453 0.045412831345024114
3720000000.0 0.00028755987012455244 -0.08922430799554024
3740000000.0 -0.011483317843540501 0.07648874482844274
3760000000.0 0.06809294000443011 -0.012667263009912808
3780000000.0 -0.05569461409426368 0.01737315436080819
3800000000.0 -0.028026349814580763 0.029733028667475896
3820000000.0 0.014008797208409819 -0.0276800869663285
3840000000.0 -0.044437477608707324 -0.016353641119495433
3860000000.0 0.04152181959829751 -0.058562731825565116
3880000000.0 0.069874594684423 0.0538181595321443
3900000000.0 -0.08633009888500473 -0.04936565144163013
3920000000.0 0.032504209786846976 -0.09934113961378178
3940000000.0 -0.09473995751117058 -0.038230007692841614
3960000000.0 0.0515220220598082 0.0887253463463272
3980000000.0 -0.06850186331770673 -0.06919165710724227
4000000000.0 -0.022195285100739762 0.0844591427998182
