!Created with skrf (http://scikit-rf.org).
# Hz S RI R 50.0 
!freq ReS11 ImS11
400000000.0 -0.6812225810088153 0.4305112242914258
420000000.0 0.6775540642774084 -0.34731018890057935
440000000.0 -0.33971095244755095 -0.6534134359973478
460000000.0 -0.6263775268621995 -0.10050388179507783
480000000.0 -0.24180634945205856 -0.4598690944028129
500000000.0 -0.41252473378019044 -0.035547150584572716
520000000.0 0.44986715709595426 -0.08175147127123066
540000000.0 -0.2805950814687377 -0.38628738119625056
560000000.0 0.29228396719131416 -0.3432785752725102
580000000.0 -0.31920378227048524 0.2863923731089869
600000000.0 -0.3892635520903796 -0.01677331710416794
620000000.0 -0.3605939399206216 0.0029515508576671862
640000000.0 -0.0750129211501854 0.3452637198826153
660000000.0 -0.3511859626053941 0.03213986943862762
680000000.0 -0.3290203334574033 0.09165931351106209
700000000.0 -0.19186325301913693 0.27315941501442786
720000000.0 -0.3464509557610567 0.04129393940826178
740000000.0 0.2249561636213737 0.23967409461509967
760000000.0 -0.29652002834357527 0.04846401390311285
780000000.0 -0.14443520439493238 -0.25912375875133065
800000000.0 -0.12892897238412657 -0.22198690490946849
820000000.0 0.17567052823724405 0.11326294436148265
840000000.0 0.20552318749319756 0.06979822441588476
860000000.0 0.17371673384860895 -0.08728863369331881
880000000.0 -0.006160586969928034 0.19122101149618673
900000000.0 0.15694256848741106 -0.027996654285006903
920000000.0 -0.0311402395908613 -0.1460777948820325
940000000.0 0.032874527460045044 0.1280535797224235
960000000.0 -0.026470742553682074 0.10870673000611616
980000000.0 -0.015341093458431532 -0.06902973813219748
1000000000.0 -0.05390262567321924 0.0008527771012052434
1020000000.0 0.05049398440931872 0.0029523989485338684
1040000000.0 -0.04924860017625577 -0.059137578662954854
1060000000.0 -0.024173605575367078 -0.10284687480685561
1080000000.0 0.07171891701764407 0.12425055615382849
1100000000.0 0.13086124872165875 0.12489233454254173
1120000000.0 -0.21017323116710807 -0.0026452531333175998
1140000000.0 0.050112757184986874 -0.2364706090649108
1160000000.0 0.0900176658417502 -0.260439988753613
1180000000.0 0.12470384866199226 0.26672687698709946
1200000000.0 0.2012382442245547 0.24962387025442248
1220000000.0 0.29586964668496296 0.11449976840571018
1240000000.0 -0.3152819659757615 0.08144870241382483
1260000000.0 -0.2895085618351162 0.16400871651328686
1280000000.0 -0.3380228679666103 0.028404782062531764
1300000000.0 -0.18798314791313753 -0.29093196426572965
1320000000.0 0.29304902150832035 -0.2072203395802595
1340000000.0 -0.10034366393298522 0.353978672093823
1360000000.0 -0.25409511747233005 -0.2825842557779564
1380000000.0 0.3278718643488438 -0.20468797958078144
1400000000.0 -0.18920049610772613 0.3258970505535851
1420000000.0 -0.15130760064409257 0.3421518483150199
1440000000.0 0.34374765265022905 0.13782111262017677
1460000000.0 0.3175275622561134 -0.17582242609295617
1480000000.0 -0.2440899540673586 -0.2516400923756063
1500000000.0 -0.06401561829238117 0.32920378326569744
1520000000.0 0.2531679998823771 -0.1848975549050256
1540000000.0 -0.2222739422812236 0.167296189549429
1560000000.0 0.13863272120803863 0.20224251635461907
1580000000.0 0.1178456153421268 -0.17894971502631163
1600000000.0 -0.15736644541707007 0.09339141355395365
1620000000.0 -0.09621442870335033 -0.1328432115447452
1640000000.0 0.13245773372511618 -0.0183014599620655
1660000000.0 -0.10271748797638106 0.02658879603169604
1680000000.0 -0.08704472748982138 -0.023969527141863536
1700000000.0 -0.07164820473967282 -0.03349965821951897
1720000000.0 0.04840473711404531 0.016441371089523444
1740000000.0 0.00730091665969848 -0.05322164209094048
1760000000.0 0.04699078599692984 -0.050433331309464945
1780000000.0 -0.020944730584787817 0.09338377805932917
1800000000.0 0.09405913288581196 0.08033596962000232
1820000000.0 -0.1511982806225523 0.06059446674681027
1840000000.0 0.052018460827664 0.19135049752416405
1860000000.0 0.07194045316941655 0.2093349639410552
1880000000.0 0.1095164851132373 0.21833473695877212
1900000000.0 0.2634641213718634 0.05433922241755357
1920000000.0 -0.08523898255268501 -0.27617000839841327
1940000000.0 -0.03340788742351284 0.30216681810382434
1960000000.0 -0.30078899422851596 -0.08640680767684539
1980000000.0 0.17757604827644202 -0.2572497890859206
2000000000.0 0.2735062557744328 0.15030541895922114
2020000000.0 0.015609152225935216 0.3122112566663382
2040000000.0 -0.054195556434815544 0.3038229507929881
2060000000.0 -0.29067842198445715 0.09525635044803682
2080000000.0 -0.26452659110895926 -0.14881737039820303
2100000000.0 0.14825372072778983 0.26282888085597866
2120000000.0 -0.30046694048191047 -0.0018149079930887117
2140000000.0 0.2713826118091519 -0.11682371839791826
2160000000.0 -0.2730250294394718 0.09922732553344886
2180000000.0 -0.033908273994303864 0.27880444835050894
2200000000.0 0.1973694124490931 0.19533728661983588
2220000000.0 0.24567683009622057 0.10262259482420359
2240000000.0 0.04338959721633839 0.256712657137065
2260000000.0 -0.11705351679214834 0.2179439049055048
2280000000.0 -0.11318536092235425 -0.21095954709137818
2300000000.0 0.2222509365938224 0.055211174373507636
2320000000.0 -0.21343728641825055 0.05938519369931033
2340000000.0 0.1948620647610233 -0.08645656821430503
2360000000.0 -0.19312549677960414 -0.09665213546241173
2380000000.0 0.190611670275323 -0.11340627525847112
2400000000.0 -0.15733293331278148 0.17703953974030853
2420000000.0 0.10039239329987318 0.24573008389369477
2440000000.0 0.13126130948319306 -0.2616863302609434
2460000000.0 -0.10369660853844255 0.3110307203366074
2480000000.0 0.26072514403991226 -0.2492516881819095
2500000000.0 0.3043054644208997 0.2574419411663672
2520000000.0 -0.3767779695048446 0.2160825103957401
2540000000.0 -0.14559172474957335 -0.44949382394141546
2560000000.0 0.504218009503398 0.058149816659493474
2580000000.0 -0.49747975142849965 0.20741657164531346
2600000000.0 0.2704084706082065 -0.5016759973718141
2620000000.0 0.05078509602466931 0.592869665325531
2640000000.0 -0.44467785786751257 -0.425667503399272
2660000000.0 0.6240448388592221 -0.10380110860093206
2680000000.0 -0.018249755810693297 0.643499216254391
2700000000.0 -0.6384917690155646 0.1462532846759226
2720000000.0 -0.6083998204262084 -0.261618517752101
2740000000.0 -0.4755263266897702 -0.46591711005642494
2760000000.0 -0.4263322932540535 -0.5123248899884126
2780000000.0 0.5308911078801088 -0.39611060765045647
2800000000.0 0.6333317189261506 -0.16354326308824813
2820000000.0 0.5075835026530361 0.39356009573119805
2840000000.0 -0.41580939123905414 0.47401124550848645
2860000000.0 0.04987094939046054 -0.6151829800598038
2880000000.0 -0.1544753925274431 0.5802714505672227
2900000000.0 0.5320537949204582 -0.2379549598485992
2920000000.0 -0.34723598027387587 -0.4438069267713869
2940000000.0 -0.4965796074994986 0.204388925036383
2960000000.0 -0.2082610347075433 0.4687641264855103
2980000000.0 0.3168739381794817 0.37690980055149975
3000000000.0 0.3658289522690961 -0.29144261015941686
3020000000.0 -0.23426562344593932 -0.3755777689482853
3040000000.0 0.0832698255693914 0.4094446215168652
3060000000.0 0.05997792139253869 -0.38241135142194355
3080000000.0 -0.2456208328314753 0.2666898156581942
3100000000.0 0.3312948381873525 -0.08791472299273398
3120000000.0 0.013247683701865713 -0.3310815241671275
3140000000.0 -0.07246725899831664 0.31442335494232904
3160000000.0 0.023527888071989737 -0.31905447705754786
3180000000.0 -0.15123484321725394 0.2768693202554964
3200000000.0 0.21994697178121372 -0.22044257784114923
3220000000.0 -0.2654692670618722 -0.13817530151924734
3240000000.0 -0.28752576270739244 0.026421840838326868
3260000000.0 -0.2437018865426007 -0.11204053764151761
3280000000.0 0.05160835515422286 -0.24820703551938414
3300000000.0 0.1687504553932066 0.16554831915230556
3320000000.0 -0.17357480581774928 0.13554893829563772
3340000000.0 -0.09057973631188572 -0.1760269235638546
3360000000.0 0.11783069304297755 -0.12392169335298463
3380000000.0 -0.054806415121026866 -0.13294712175168283
3400000000.0 -0.1166817775682126 0.02352201194508189
3420000000.0 0.02099136930184699 -0.10568974443635168
3440000000.0 -0.034828540940635776 0.09409997986839996
3460000000.0 0.06946303076270602 0.06000947183279903
3480000000.0 -0.08113727190646886 0.007735414981226763
3500000000.0 0.0704555225376 -0.01227223164359605
3520000000.0 0.03241726966115835 -0.05375969298657496
3540000000.0 0.015706266775394537 -0.06028759800954383
3560000000.0 0.00840102191225802 0.061263775394088546
3580000000.0 -0.047513000519179824 0.058321994761345156
3600000000.0 -0.030340437820547756 0.0767824875701721
3620000000.0 0.06829368711984761 -0.07200314965889561
3640000000.0 -0.06351993782560518 -0.08334166241974947
3660000000.0 -0.09524796422573305 -0.05101685127260006
3680000000.0 0.041036055873241085 0.09531968294549356
3700000000.0 -0.08531768925418906 0.04570684989543552
3720000000.0 -0.08912769285303375 0.014611572488022266
3740000000.0 -0.03686723109304564 0.06652834879482204
3760000000.0 0.02998494688954987 0.06402803186024958
3780000000.0 0.0019735385159287086 0.06022219003294658
3800000000.0 0.022109473129078253 -0.03235380910478264
3820000000.0 -0.005433152527317391 -0.033409006730158924
3840000000.0 -0.0392411651227775 -0.026523835834375748
3860000000.0 0.04289215704149686 -0.05652869883453313
3880000000.0 0.0541518770265171 0.06912645669306954
3900000000.0 -0.09360617732800282 -0.03759518588119217
3920000000.0 0.05408035556265351 -0.08906104566783982
3940000000.0 -0.10145820682029912 -0.011074966284434967
3960000000.0 -0.045422404003915576 0.09237759028103784
3980000000.0 0.08463290056680355 -0.04773561927188532
4000000000.0 -0.07502889566242943 0.042161811971262515
