!Created with skrf (http://scikit-rf.org).
# Hz S RI R 50.0 
!freq ReS11 ImS11
400000000.0 -0.544245565422217 0.5984918294945156
420000000.0 0.6036625572873682 -0.4563062539828034
440000000.0 -0.15314811856967864 -0.7155500723061021
460000000.0 -0.3683628185901089 -0.5283966030601953
480000000.0 -0.4599415096030028 -0.24554959366220153
500000000.0 -0.3746468247956357 0.1831720461316775
520000000.0 0.35909539227117093 0.2696765956889988
540000000.0 -0.2429311689019653 -0.4179713663513411
560000000.0 -0.1640637580452976 -0.41600073191801223
580000000.0 -0.3907125132601392 0.1771907187470177
600000000.0 -0.39166929620693086 -0.00846270766907015
620000000.0 -0.35688742657424666 -0.06759504161786067
640000000.0 -0.11832987317718964 0.335890696012383
660000000.0 -0.221772553982634 0.2780636764022664
680000000.0 -0.23268780550370918 0.24761761213308423
700000000.0 -0.31065681264196854 0.10999824530636461
720000000.0 -0.28605155418939743 -0.19058321985262475
740000000.0 -0.08606406540005508 0.320038963519483
760000000.0 0.10338377674146469 0.29195341796815916
780000000.0 -0.28401757306613096 -0.038668511804987066
800000000.0 0.1451156341622578 -0.2074011704182272
820000000.0 -0.06122629734724073 0.20673951812636698
840000000.0 0.20985326776900515 -0.05918699580603363
860000000.0 0.018199607133538204 -0.19812259536474933
880000000.0 0.015054788913028083 0.18679480217221028
900000000.0 0.13262624649891525 -0.0893311166855153
920000000.0 -0.08218587099812179 -0.12355174160943345
940000000.0 0.13439752526493423 -0.026111103266860194
960000000.0 0.06544023755061396 0.08646361130485816
980000000.0 0.06648504505242321 0.01488253389922131
1000000000.0 -0.0543546044318411 -0.003707252180785357
1020000000.0 0.048919927839125237 -0.018835096151702122
1040000000.0 -0.025457020159542525 -0.07482701726648269
1060000000.0 -0.10374766347799484 0.02308825256943395
1080000000.0 0.1330362624524256 0.04589664484160262
1100000000.0 -0.025039488367790866 0.17921276425266644
1120000000.0 -0.1912854775838369 0.08338529761819961
1140000000.0 -0.050819057958733545 -0.23543548053459265
1160000000.0 0.18548342984500932 -0.2083687232291416
1180000000.0 0.28847334668693597 0.06823387980388844
1200000000.0 0.22131416233294246 0.2273563846276031
1220000000.0 0.2834544840142923 0.13750210043818317
1240000000.0 -0.3288431331385905 -0.03168921928278152
1260000000.0 -0.24929038931256614 0.2241033074949426
1280000000.0 -0.33637811546178303 0.015093766150846007
1300000000.0 -0.23683873359962287 -0.2519837166959383
1320000000.0 0.3347628601848342 -0.11852666238566978
1340000000.0 -0.211108143538783 0.3057304717974939
1360000000.0 -0.3457631323521221 -0.15693240713500523
1380000000.0 0.36124432248982347 -0.12823451416208242
1400000000.0 -0.24313797358737976 0.29165962256788
1420000000.0 0.05025692424759261 0.37066276898902734
1440000000.0 0.353782915170557 0.09746001083041714
1460000000.0 0.355463858905997 -0.06492827661554326
1480000000.0 -0.1568628417336344 -0.31708038866121296
1500000000.0 0.10346013698218917 0.32231428993836914
1520000000.0 0.1649644489154786 -0.25904442387867727
1540000000.0 -0.2765762287695117 -0.008636784585152895
1560000000.0 -0.10574344809603191 0.22437119926856533
1580000000.0 -0.08469820951236881 -0.199860222671829
1600000000.0 0.06081043520835153 0.16973828752215842
1620000000.0 0.042026136681320964 -0.1541393738058464
1640000000.0 -0.06825460922349792 0.11685255237338033
1660000000.0 0.003624783334232487 0.11009904687015784
1680000000.0 0.04396357287752641 0.07681078332247797
1700000000.0 -0.017489613743701584 -0.0733007881774463
1720000000.0 -0.03360663693418881 -0.03945215228173298
1740000000.0 -0.011189192193319505 0.05320744129766376
1760000000.0 0.05973961369761144 -0.03211846881389275
1780000000.0 -0.07022622119463474 0.0643652009237474
1800000000.0 0.017050626263204798 0.12440532763579544
1820000000.0 -0.022144760092525244 0.16174850867457072
1840000000.0 -0.033398806516191065 0.19210356315859628
1860000000.0 0.0036546622881314405 0.22175698323661316
1880000000.0 0.15967375428248323 0.18364929690070916
1900000000.0 0.2636644313270158 0.05210362315031931
1920000000.0 -0.09915360846256155 -0.26980022023370975
1940000000.0 -0.05831788368456362 0.2973917168154758
1960000000.0 -0.2774042015587795 -0.14808008664810965
1980000000.0 0.1693190373108875 -0.26366443255060146
2000000000.0 0.292849684522379 0.10753487083973808
2020000000.0 0.04714908999998787 0.3102487050339214
2040000000.0 -0.14964126493562882 0.27135920202767627
2060000000.0 -0.2975990847482903 0.06482194530501596
2080000000.0 -0.2608787642958623 -0.15819519619968617
2100000000.0 0.2112381098075257 0.21461941894782816
2120000000.0 -0.2946700805136357 -0.054828462265941874
2140000000.0 0.2052196643083298 -0.21131180470700503
2160000000.0 -0.2715585654403626 0.09717947471813708
2180000000.0 -0.05732908830884468 0.27652045779843215
2200000000.0 0.2656667361905238 0.08610214552177291
2220000000.0 0.2508638557794327 -0.09002118782839838
2240000000.0 0.02564468283978116 0.257177592888445
2260000000.0 -0.22889813782500834 0.09851443063187731
2280000000.0 -0.11655131048015147 -0.21194855620832342
2300000000.0 0.20897255723015154 -0.0941411429630267
2320000000.0 -0.22014627907005577 -0.0008207627716732945
2340000000.0 0.21221053080605692 0.022946350124934543
2360000000.0 -0.2157816907149022 -0.0009730303125871701
2380000000.0 0.22213422484110615 -0.005505321336907167
2400000000.0 -0.08783987267321632 0.22156017415642615
2420000000.0 0.1310970717177215 0.22937395701097585
2440000000.0 0.10460495932042188 -0.27197556186436056
2460000000.0 -0.14617718398705215 0.2924495939854577
2480000000.0 0.20155101996600186 -0.2999241166032511
2500000000.0 0.32263939938838815 0.233349896574543
2520000000.0 -0.3652083658499445 0.23622376113246643
2540000000.0 -0.17216549485902946 -0.4396003900906733
2560000000.0 0.4908040250806807 0.12663346462680322
2580000000.0 -0.5024788531097041 0.19710088459409808
2600000000.0 0.2442549711653866 -0.5157211446767361
2620000000.0 0.07364861272475143 0.5904610844458942
2640000000.0 -0.42883697561215994 -0.44078096102582465
2660000000.0 0.6319395713190388 -0.024743945666708303
2680000000.0 -0.014514851158356556 0.6437379272446904
2700000000.0 -0.633754961932779 0.1628052550175751
2720000000.0 -0.5975162254138441 -0.284947742297251
2740000000.0 -0.5798752243373361 -0.3281560483672608
2760000000.0 -0.4735773756560531 -0.46978035533924
2780000000.0 0.514870311317196 -0.4169440875569866
2800000000.0 0.6334378369747896 -0.16391374699080388
2820000000.0 0.5354921469286646 0.35526492722977815
2840000000.0 -0.3824134088300444 0.5002052793961109
2860000000.0 0.0651779215217792 -0.6141144966665009
2880000000.0 -0.16232343397168458 0.5792444917758788
2900000000.0 0.5021763794225539 -0.2977321717162755
2920000000.0 -0.35961139358293637 -0.43230220438010303
2940000000.0 -0.5270683724513755 0.10241981375708878
2960000000.0 -0.25162811953791414 0.4488993832685073
2980000000.0 0.33136230631718006 0.3618179316589518
3000000000.0 0.40477402800412216 -0.23515365068014193
3020000000.0 -0.33746862269087435 -0.2857680921952234
3040000000.0 0.1918214545242718 0.3682638576678153
3060000000.0 0.1779285168973221 -0.34365423358910147
3080000000.0 -0.20160732106935766 0.3036859707214065
3100000000.0 0.22413341995490899 -0.25879142473253663
3120000000.0 -0.04483045367020769 -0.3287224909335866
3140000000.0 -0.061735344915648076 0.31703754382394306
3160000000.0 0.054251913412106625 -0.31555465598558174
3180000000.0 -0.19462745260205536 0.2501000535280874
3200000000.0 0.2257372554593961 -0.21508828030742222
3220000000.0 -0.24843163849218258 -0.167914366982701
3240000000.0 -0.28570248012973354 -0.023404015782321135
3260000000.0 -0.2484451669846286 -0.10002651742769772
3280000000.0 0.047922625633502684 -0.2496613589361862
3300000000.0 0.22334596114349756 0.07484397691532267
3320000000.0 -0.16049516443425046 0.14899371337620418
3340000000.0 -0.05093016638692803 -0.19193945893213574
3360000000.0 0.12590359086542469 -0.11750299128626293
3380000000.0 -0.12517049680217784 -0.069197910202633
3400000000.0 -0.11820849224270796 -0.01512040431752975
3420000000.0 0.03388321100986927 -0.10257789154442197
3440000000.0 0.03128639407466124 0.09549094662298364
3460000000.0 0.05492197040117091 0.07206218778570792
3480000000.0 -0.08119154516876678 0.01388296122891361
3500000000.0 0.014174568652488324 -0.06991263995683687
3520000000.0 0.028666164836715594 -0.05492755480591763
3540000000.0 0.05602972490181085 -0.02653056861670661
3560000000.0 0.0045568442367251724 0.06299324971162848
3580000000.0 -0.027196236507138725 0.06984220741447009
3600000000.0 -0.035771390424742124 0.07413547421789249
3620000000.0 0.09881069063758549 0.006997939739282887
3640000000.0 0.036628650620475094 -0.09838647983204404
3660000000.0 0.012689918778544773 -0.10785194623874984
3680000000.0 -0.042694505077862245 0.09529395176131526
3700000000.0 -0.09468084567332204 0.003724851375613428
3720000000.0 -0.023887597976360912 -0.08598417670306309
3740000000.0 -0.037096552735316125 0.06610490435951624
3760000000.0 0.007446336911909973 0.06796993756326195
3780000000.0 -0.005676019617040392 0.0578967415628636
3800000000.0 0.03827623775590836 0.008188248370441818
3820000000.0 -0.00566344553346958 -0.031000510192018806
3840000000.0 -0.0363002912173096 -0.029644705546200252
3860000000.0 0.03968064042817006 -0.058427334268316714
3880000000.0 0.0675856017394772 0.05490227659473154
3900000000.0 -0.0807174711437961 -0.058024974884775926
3920000000.0 -0.03888192949970078 -0.09495339467147877
3940000000.0 -0.0613654466167411 0.0806062838352882
3960000000.0 0.05469197704771145 0.08630020675815027
3980000000.0 -0.08317361054042838 -0.05192162756198626
4000000000.0 0.0834389321555247 -0.026445693954243527
