!Created with skrf (http://scikit-rf.org).
# Hz S RI R 50.0 
!freq ReS11 ImS11
400000000.0 -0.45007776364408025 0.6729486245192738
420000000.0 0.6642097882685364 -0.3599531480896334
440000000.0 -0.11363478184915411 -0.7260321513905047
460000000.0 -0.5979323500997604 -0.2347081232709888
480000000.0 -0.41854929008099356 -0.30708219113459545
500000000.0 -0.30917066172435853 0.27031102372890015
520000000.0 0.2204380029437967 0.39472443794826423
540000000.0 -0.16669158125162967 -0.45238144324441
560000000.0 0.4320463032222975 -0.14255355233234815
580000000.0 -0.049972625127034036 0.4320050331879627
600000000.0 -0.17739787394496148 0.3390174375869975
620000000.0 -0.16253912997516767 -0.31870359139724547
640000000.0 -0.22173708843982878 0.27198665949737294
660000000.0 -0.2288040871774554 -0.27633021001965796
680000000.0 -0.12534359204031617 0.32423131650630566
700000000.0 -0.11881679164228875 0.3072190969564431
720000000.0 -0.33925138389240106 0.06359647851648528
740000000.0 0.14069033086921004 0.2950690464754842
760000000.0 -0.2915971180438479 -0.09665832036495527
780000000.0 -0.18010607270975917 0.23486710004566907
800000000.0 -0.2509413045897029 -0.003530298883988677
820000000.0 -0.15290940404703496 0.13458726321665654
840000000.0 0.09169848381605371 0.1962785686544539
860000000.0 0.2011516185341197 0.012326848435045208
880000000.0 0.18806873367518695 0.04453559111676175
900000000.0 0.12597477236342589 -0.09482692525350536
920000000.0 -0.11294897083481335 -0.09101774147892261
940000000.0 0.05557214606969123 0.11851287662051975
960000000.0 -0.047498292825027655 0.10218028888952115
980000000.0 -0.022244713446337612 -0.06724239866413849
1000000000.0 -0.01612621571001973 0.050207485520011294
1020000000.0 0.0337462023500045 -0.030680332897666137
1040000000.0 -0.06979232519926415 -0.025342760731058987
1060000000.0 -0.05173685582599697 -0.09675818946809461
1080000000.0 0.11847202855400396 0.07919907937835921
1100000000.0 0.08986872578190418 0.15578458531320688
1120000000.0 -0.1860689735858673 -0.10256827933163577
1140000000.0 -0.16876777340421736 -0.17551801545669588
1160000000.0 0.007812856516792645 -0.2735653756485995
1180000000.0 0.21459833011319304 0.19850324890843948
1200000000.0 0.09868974803981286 0.3045674515554787
1220000000.0 0.29550242418336115 0.12078016282462804
1240000000.0 -0.3249663599101521 0.05064853113598852
1260000000.0 -0.24258890725588725 0.22730220103120807
1280000000.0 -0.3316603613661222 -0.06234265338477234
1300000000.0 -0.03613786059710121 -0.3458193785513036
1320000000.0 0.2658781216793071 -0.24315572409202577
1340000000.0 0.12971916869880057 0.3444557384029993
1360000000.0 -0.2555565769939089 -0.280040533068521
1380000000.0 0.38001800249692846 -0.05827678954033385
1400000000.0 -0.28388699656087363 0.254139419237652
1420000000.0 0.11145961731273227 0.35695768593710087
1440000000.0 0.3477544021516103 0.12303075153358102
1460000000.0 0.3488441610638687 -0.10052403145571322
1480000000.0 -0.15001121282139995 -0.3186290358312017
1500000000.0 -0.007317338651106416 0.3362138862823025
1520000000.0 0.24271464950707763 -0.19033575661470145
1540000000.0 -0.276111287159318 0.036533821389289234
1560000000.0 0.08680838769804078 0.23283683703276573
1580000000.0 -0.020874256962065376 -0.21229958830076356
1600000000.0 -0.11349991430065588 0.1410668602548804
1620000000.0 0.05086715984042452 -0.15513437785260495
1640000000.0 0.11609821748532093 -0.07066160718453661
1660000000.0 -0.1071541773031663 0.007944673405575794
1680000000.0 -0.07583712625900685 0.046978705681224996
1700000000.0 -0.07604989322351438 0.009235096608486829
1720000000.0 0.05268190367840535 -0.00246733953539052
1740000000.0 0.05168175079042147 0.02003164484381995
1760000000.0 0.011526699420679447 -0.06504644113927457
1780000000.0 -0.07934062135213 -0.05573653890505356
1800000000.0 0.041612651401212924 0.11882313580900959
1820000000.0 -0.07350305598182721 0.14631311206898587
1840000000.0 0.011693953978826872 0.19675279569621068
1860000000.0 0.05594515453371129 0.21361679764736405
1880000000.0 0.050408816119237004 0.23774720333255903
1900000000.0 0.2517607542186752 0.09512117728471912
1920000000.0 -0.18487168275113441 -0.22154124077941692
1940000000.0 -0.02420089900813198 0.3013003468254754
1960000000.0 -0.2837143045423594 -0.13222259703602532
1980000000.0 0.18588206521473846 -0.2535433936787064
2000000000.0 0.30350171199259945 0.07191591651752666
2020000000.0 -0.03982148270615722 0.3106020755620496
2040000000.0 -0.08920484431636387 0.29704780376154755
2060000000.0 -0.25221852508367654 0.17186148925607764
2080000000.0 -0.24454535441969918 -0.17899316207597205
2100000000.0 0.09717818071761532 0.2861427984911189
2120000000.0 -0.30012065050778114 -0.018066193977189757
2140000000.0 0.24126614967011273 -0.17041146165361748
2160000000.0 -0.25078615469373633 0.1450738945023063
2180000000.0 -0.0031234510573791693 0.2803237893383254
2200000000.0 0.19312596427526804 0.199129293576798
2220000000.0 0.2459590344882756 0.10269221899536389
2240000000.0 0.09543531524197943 0.24305052304432737
2260000000.0 -0.13853035847271586 0.20872690792797266
2280000000.0 -0.17077016036721973 -0.16630113267658478
2300000000.0 0.22504218239693094 0.03666429721234828
2320000000.0 -0.2011888296281082 -0.09408338199941237
2340000000.0 0.20681446591181576 -0.057622271145882045
2360000000.0 -0.21202567949365803 0.04105600917104873
2380000000.0 0.16838107510407335 -0.14322605276262876
2400000000.0 -0.1992561351715624 0.12848133959986832
2420000000.0 0.027614774375650023 0.2641923991311087
2440000000.0 0.11170121633980257 -0.270780519158451
2460000000.0 -0.03984945160008112 0.3250577916012637
2480000000.0 0.2317463953807126 -0.2757943256281294
2500000000.0 0.3454548615158198 0.20001080772620428
2520000000.0 -0.3818742571125563 0.20747259954997374
2540000000.0 -0.12914244900361058 -0.45410945246657686
2560000000.0 0.499993822312922 0.08641878749222001
2580000000.0 -0.5161867167250068 0.15577847594799377
2600000000.0 0.20957613535926206 -0.5301164573525214
2620000000.0 0.05062896565259306 0.5932996600920317
2640000000.0 -0.43964585254901484 -0.4296974885986976
2660000000.0 0.6311692052257045 -0.042789921524654724
2680000000.0 -0.09751541518084726 0.6363194457353926
2700000000.0 -0.6412372243977111 0.1341817118142397
2720000000.0 -0.6059677001870137 -0.26764841427084124
2740000000.0 -0.5624401579000652 -0.3566384222461078
2760000000.0 -0.46922060826258705 -0.47455992216464893
2780000000.0 0.5333683199479397 -0.39391939537021614
2800000000.0 0.6339538772761315 -0.16255985989054092
2820000000.0 0.5218804317356672 0.3744851841672565
2840000000.0 -0.4205901747546021 0.46918750786079133
2860000000.0 -0.04694463539415656 -0.6161682825854957
2880000000.0 -0.16959888202295229 0.5764435217210053
2900000000.0 0.5214604315625178 -0.2635802966459979
2920000000.0 -0.372830949998481 -0.4223023054849462
2940000000.0 -0.5089459351078787 0.16987835405365867
2960000000.0 -0.231641062820635 0.45899881533702436
2980000000.0 0.30639915069451007 0.38572129066251004
3000000000.0 0.37244064826360435 -0.281946844305881
3020000000.0 -0.2290821792404285 -0.37905237534752656
3040000000.0 0.1057009673875825 0.4046094986974067
3060000000.0 0.11534900194027518 -0.3693083905008595
3080000000.0 -0.2585393757894954 0.25454337777830577
3100000000.0 0.26496801704264017 -0.2194166172431642
3120000000.0 -0.03847974009414113 -0.3283198958980419
3140000000.0 -0.05634519635635762 0.31787327739617766
3160000000.0 0.05473806181484456 -0.3166270443127011
3180000000.0 -0.11659472166541941 0.29440645825240275
3200000000.0 0.23704914017125178 -0.20174367218779468
3220000000.0 -0.2344333974235987 -0.18613684376611625
3240000000.0 -0.2875297988201679 0.01473964493447271
3260000000.0 -0.22408025689031294 -0.1465471298594232
3280000000.0 0.005586742749423736 -0.2534322097942365
3300000000.0 0.22207294175903375 0.07641201687368687
3320000000.0 -0.1711000520834605 0.1378601746070365
3340000000.0 -0.0847779953520624 -0.18028779731336642
3360000000.0 0.12157076667711282 -0.121314902469853
3380000000.0 -0.09223329913526147 -0.110739335388734
3400000000.0 -0.11865168067014051 0.016703065404143198
3420000000.0 0.037189351193187614 -0.10230485139252796
3440000000.0 -0.045832362900421225 0.0888595789534031
3460000000.0 0.04782136380381249 0.0773287124413776
3480000000.0 -0.07935014409201573 -0.02223792680050501
3500000000.0 0.032159515775723096 -0.0644725185657595
3520000000.0 0.01869415481496531 -0.057723172947115736
3540000000.0 0.03555975677807936 -0.05008366659950913
3560000000.0 0.040647980687887005 0.047288000904657984
3580000000.0 -0.05168916345942282 0.052113410477021664
3600000000.0 -0.021468211863124146 0.08054485958474257
3620000000.0 0.07579174904320408 -0.06424125447604827
3640000000.0 -0.06841008934776222 -0.07893074118309619
3660000000.0 -0.05217782707404428 -0.0949928325591515
3680000000.0 -0.03394106546076056 0.09841300830778409
3700000000.0 -0.058674530946542305 -0.07738522554070053
3720000000.0 -0.0798223215886792 0.040112813104085876
3740000000.0 -0.05822643225054866 0.04815335331372354
3760000000.0 0.03762330495959312 0.05921114820002331
3780000000.0 -0.04734713793219331 0.03360101971145975
3800000000.0 0.009956755557999535 0.03900474997045021
3820000000.0 -0.03102859242238876 -0.006675631639659633
3840000000.0 -0.0409790106744265 -0.023308164401445328
3860000000.0 0.053394807927153204 -0.04670551598086137
3880000000.0 0.05862897582972847 0.06598393412177771
3900000000.0 -0.09972783984172703 0.003981479910574421
3920000000.0 0.008269057563283081 -0.10379214796009473
3940000000.0 -0.10195957871270522 -0.008023732096580874
3960000000.0 0.04923544442386619 0.08990623242557011
3980000000.0 -0.032408184574310106 -0.09298718464578401
4000000000.0 0.0848925988981113 0.01833748931729146
