!Created with skrf (http://scikit-rf.org).
# Hz S RI R 50.0 
!freq ReS11 ImS11
400000000.0 0.33855385089900797 0.7747594515950114
420000000.0 0.4893486493690935 -0.6789150459677541
440000000.0 0.038365184572572875 -0.7762341584972217
460000000.0 0.5875292791181137 -0.43193467416941245
480000000.0 0.6369851994128607 0.19551862696157254
500000000.0 0.5493019489854813 0.28659675776180055
520000000.0 -0.3425969972901796 0.44464925244277836
540000000.0 0.09999080488994881 -0.48620361404567247
560000000.0 0.3320626759889797 -0.33522640874601756
580000000.0 -0.246393692025319 0.3296994979908848
600000000.0 -0.08042216522112984 -0.34711268124294636
620000000.0 -0.22652844080564363 0.26990262047301433
640000000.0 -0.21846577028785544 -0.32782041263852113
660000000.0 0.1920575173723494 0.3856445966783953
680000000.0 0.44888302473189917 0.029268459141847985
700000000.0 0.45123022719663863 -0.0058486791606104675
720000000.0 0.0731919831950278 -0.4197060170493849
740000000.0 0.3523968676370877 -0.17308028451666918
760000000.0 -0.2552667394853328 0.2628392339852327
780000000.0 -0.023976178882946824 -0.3470669914261188
800000000.0 -0.32251062918059986 -0.030539186145873195
820000000.0 0.17008368740769428 0.20341857569961208
840000000.0 0.18544008932470477 -0.11399263310889368
860000000.0 0.011861589699614584 0.17841708013393315
880000000.0 0.13442750821617414 0.06644708203697218
900000000.0 -0.08755794967771324 -0.08457798255617874
920000000.0 -0.08505570903668688 0.03510412849445257
940000000.0 -0.05176648356904875 0.04515709074984372
960000000.0 0.006469951702731024 0.06475338230939805
980000000.0 0.011975501502372077 -0.06970840980234787
1000000000.0 -0.07599051863778865 0.016878868123529997
1020000000.0 -0.08564900834203044 0.03445414934772351
1040000000.0 -0.029977551603360107 0.10325863092547263
1060000000.0 0.11470604511796707 -0.08574613976459952
1080000000.0 -0.021630381080809526 -0.1704338162953064
1100000000.0 -0.12339371611602294 -0.1627734596634325
1120000000.0 -0.21557920106333883 -0.09919499394502958
1140000000.0 0.23647511805994925 -0.1206360362154696
1160000000.0 -0.25543630422983643 -0.1510011917418281
1180000000.0 -0.31847309870989304 -0.028439880865951093
1200000000.0 0.29361832455411224 -0.16306961983964763
1220000000.0 -0.046324851711326866 -0.35768653902303726
1240000000.0 -0.3297976861957711 0.20172353993575576
1260000000.0 0.1421040394635439 0.3815861306358019
1280000000.0 0.34396463168171654 -0.2473814451163812
1300000000.0 0.0872560912929022 -0.4213005813775969
1320000000.0 -0.15315303376896558 -0.41331538480006136
1340000000.0 -0.38202244060242535 -0.2355697338546719
1360000000.0 -0.26502854661530156 0.3617469616140119
1380000000.0 0.05699682297425979 0.4299286138503519
1400000000.0 0.33401859888348523 0.256279393842103
1420000000.0 0.3954295865603658 -0.04590253821353337
1440000000.0 0.3767802092253046 -0.06560818586008296
1460000000.0 -0.28294203062001894 -0.22682294797993768
1480000000.0 -0.004006489377236298 0.3348024205131099
1500000000.0 -0.028241534957111066 -0.2975960743918379
1520000000.0 0.010408791418541865 -0.2626722430370446
1540000000.0 -0.22649481923569598 -0.03753761709603963
1560000000.0 0.009774125427589616 0.2065650909308211
1580000000.0 -0.08458926380440691 0.1609686067144373
1600000000.0 -0.12358137214775683 0.07467280878536836
1620000000.0 0.10916023775682934 -0.032402400600883306
1640000000.0 -0.019090009290677015 0.08488735264880888
1660000000.0 0.01723113058201555 0.06303455825187788
1680000000.0 -0.0062747741808241095 -0.04382154682041758
1700000000.0 0.0076362836972885045 0.030894042122877816
1720000000.0 0.021723372313266764 -0.009729123598680486
1740000000.0 -0.029838149147227457 -0.023859419220585265
1760000000.0 -0.047958634836819364 0.03441153346641803
1780000000.0 0.034271224667140374 0.0742392801125968
1800000000.0 0.0261679316981335 -0.10685033035525211
1820000000.0 0.06382487334196615 -0.13261774458371797
1840000000.0 -0.18247325171739348 0.03428051544490664
1860000000.0 -0.14258705886930773 -0.1784911554898695
1880000000.0 0.2501885907541113 -0.067541394725406
1900000000.0 -0.18228465416426295 -0.22262962397056715
1920000000.0 -0.21737134573969386 0.2366217341345076
1940000000.0 0.34646322264057117 -0.0781172106856983
1960000000.0 -0.3699273480985931 0.07810893992216719
1980000000.0 0.18541912630838797 0.3428072051116198
2000000000.0 0.30246823683717183 0.26433926159158005
2020000000.0 0.4169415593437436 0.036780848284246326
2040000000.0 -0.12043848531904844 -0.41393616388811794
2060000000.0 -0.15927750546077432 0.39859438175031175
2080000000.0 0.3622005135293236 0.2034892073816753
2100000000.0 0.40115476395154087 -0.01999678715727946
2120000000.0 0.3066537644057127 -0.2346261022356756
2140000000.0 0.1801589745480123 -0.32320770747797195
2160000000.0 0.3427684290745649 0.0685199890746944
2180000000.0 0.32662726971949446 0.06400061088656898
2200000000.0 0.21448221354102065 -0.23348579807964828
2220000000.0 0.004121626806020917 -0.3025682687443626
2240000000.0 -0.28318739748764754 0.06893692085467709
2260000000.0 -0.24933647507668405 0.1277134584279848
2280000000.0 -0.199435545571101 0.1883262353679162
2300000000.0 -0.220786781452076 0.16833894466549473
2320000000.0 -0.14745370838257257 0.25778595420370115
2340000000.0 0.29590463058322275 0.13224378498100756
2360000000.0 0.02401147317493712 -0.3536359556946599
2380000000.0 -0.352712441067715 0.1786313634433092
2400000000.0 0.417628342126715 0.14680475697409504
2420000000.0 -0.43794714609146257 -0.23388857584508277
2440000000.0 0.5466814931676759 0.057508626407301644
2460000000.0 -0.5903629206102006 0.0999164238538784
2480000000.0 0.5570905666743017 -0.3229310209053786
2500000000.0 -0.5801443293799315 0.35790350165693674
2520000000.0 0.5581812528259469 -0.443210576645821
2540000000.0 -0.6458823202496645 0.34831210462476936
2560000000.0 0.7403399892668435 -0.1042430138808134
2580000000.0 -0.6669218384270164 -0.3516519692917351
2600000000.0 0.40703593366994906 0.6318404269297568
2620000000.0 -0.16391957435355492 -0.7259936523125788
2640000000.0 -0.7112045394778592 -0.159071155556086
2660000000.0 0.695694581815493 0.11652874388071748
2680000000.0 -0.66604154299881 0.12091251604978388
2700000000.0 0.4499214124714633 -0.4605504153248247
2720000000.0 0.018510605830074762 0.6058316384148096
2740000000.0 -0.4518806126896808 -0.3414860991748303
2760000000.0 0.4906164343041954 -0.18894497120899284
2780000000.0 -0.21863574960167442 0.43773960147008073
2800000000.0 0.13406622567277515 -0.4411500371092177
2820000000.0 -0.12352625207529286 0.4230376579141664
2840000000.0 0.06701793534685992 -0.4226204754639109
2860000000.0 -0.1419264737757406 0.39548936708082355
2880000000.0 0.22819190899914565 -0.34769458022287686
2900000000.0 -0.4098134314017398 0.03050183929371285
2920000000.0 0.006933865940539306 0.4089942672223568
2940000000.0 0.35349872721345726 0.19946497574086916
2960000000.0 0.3610749467485249 0.17759774356258023
2980000000.0 0.1124187355236252 0.383453623165086
3000000000.0 -0.3410884407520722 0.2135145976115914
3020000000.0 -0.3392720016931955 -0.21467025280319912
3040000000.0 0.30726756756320744 -0.251520765527312
3060000000.0 0.09748764252687502 0.3771775629994011
3080000000.0 -0.2656172092079329 -0.2720522599831407
3100000000.0 0.36976077297193016 -0.0010001000619949722
3120000000.0 -0.3531382222989583 0.03899902352857212
3140000000.0 0.28964407369086786 -0.17951591393178135
3160000000.0 -0.2931731806313067 0.13664675242185792
3180000000.0 0.1373856289247516 -0.27400560582279726
3200000000.0 0.20090558167494324 0.19969439232896083
3220000000.0 -0.2554567881986244 -0.0046019952747073205
3240000000.0 0.18971062217780793 0.11049596555875822
3260000000.0 -0.09133765775939298 -0.1612951324574778
3280000000.0 -0.03643951445192062 0.14599071790333423
3300000000.0 0.045966568904999706 0.10864961197517797
3320000000.0 0.018683326410286763 0.08663022294949665
3340000000.0 -0.0024781792569986525 -0.06706966372016701
3360000000.0 0.03674389304655736 0.04187302578800176
3380000000.0 0.0476748502697646 0.004216368312738664
3400000000.0 -0.037036353712555134 0.0149637684235373
3420000000.0 -0.026837872770363487 0.0031416643250455653
3440000000.0 -0.002683738114043637 -0.015382884103559676
3460000000.0 -0.0001662737159825498 0.0026671942695247024
3480000000.0 0.007885432436089287 0.003646675478063131
3500000000.0 -0.0021261716599088056 0.017396981201145398
3520000000.0 -0.0014759163027132968 0.02813377722402882
3540000000.0 0.040482947828706595 0.012595186034191571
3560000000.0 -0.026962913662289388 -0.05085920610898443
3580000000.0 -0.013309888923785538 -0.06999983677618636
3600000000.0 -0.0432296124645436 -0.07291301743277415
3620000000.0 0.09573248758852634 -0.0072780297227197565
3640000000.0 0.08449129173244309 0.06513306730975503
3660000000.0 -0.04349149456290241 0.10528209249873217
3680000000.0 0.012983558811526633 -0.11734112895325108
3700000000.0 0.10057243064075676 0.07653875125471572
3720000000.0 0.12413223885333008 -0.061132467750975236
3740000000.0 0.03656501236394587 -0.12386576697054566
3760000000.0 0.12119513208202416 -0.06561114180157719
3780000000.0 0.1437994926741957 -0.03799572001970372
3800000000.0 -0.009369341315657063 -0.1607463930935943
3820000000.0 -0.08924026369798478 0.15326835573391331
3840000000.0 -0.18145778459135836 0.04306264856578889
3860000000.0 0.076344982356438 0.19090772894235067
3880000000.0 -0.2186388754407359 -0.038042270968965876
3900000000.0 -0.021403583249986088 -0.23755525720801943
3920000000.0 -0.005557472604266462 -0.2518011471974584
3940000000.0 -0.19296517853963155 -0.1767527906233544
3960000000.0 -0.22217007599622512 0.1483812471801966
3980000000.0 0.2593356069399049 0.06938841971530389
4000000000.0 -0.0971191003866444 -0.24269227157202594
