!Created with skrf (http://scikit-rf.org).
# Hz S RI R 50.0 
!freq ReS11 ImS11
400000000.0 0.15573138131845873 0.829423408125078
420000000.0 0.5860526014352031 -0.5962176904431062
440000000.0 0.12274787761880292 -0.7667616277815056
460000000.0 0.6260285039752471 -0.3735692886130414
480000000.0 0.6210217996444608 0.24246729292027633
500000000.0 0.5329185530652428 0.316891820170722
520000000.0 -0.31971789925561295 0.4608586792702327
540000000.0 0.08003270695903424 -0.4896134409425221
560000000.0 0.3250662987644055 -0.3435416155448743
580000000.0 -0.23075570637349896 0.3426626257168624
600000000.0 -0.05663854099948516 -0.35365952022230335
620000000.0 -0.3035108413761853 0.1824849866311689
640000000.0 -0.10574569444792309 -0.38162009178225426
660000000.0 0.0344490060763148 0.43101619892793014
680000000.0 0.4189609006580519 0.16465594858520513
700000000.0 0.4470837102991757 0.06118061980955224
720000000.0 0.16168557504320916 -0.39359013667111414
740000000.0 0.36534838433465877 -0.14290604398693021
760000000.0 -0.24130465208002647 0.27471767973825945
780000000.0 -0.08957040054261907 -0.33396985591562883
800000000.0 -0.3211778128528933 -0.036089077531928124
820000000.0 0.21159344085588241 0.1606430382318548
840000000.0 0.13671599273266255 -0.17061089857576106
860000000.0 0.10961600107200577 0.1429388524918979
880000000.0 0.1514651075163297 -0.009389592473443708
900000000.0 -0.10893889705317304 -0.06082868559264991
920000000.0 -0.09492442347811979 -0.010974628918397747
940000000.0 -0.025648985271322276 -0.06607160195816268
960000000.0 -0.017316442460653433 -0.06216682249473238
980000000.0 0.06429556498263478 0.02273077076767565
1000000000.0 -0.0743495149353711 0.005767695108380044
1020000000.0 -0.01712996702005812 0.08814030531018358
1040000000.0 0.08469216083355244 0.06417169563490335
1060000000.0 -0.024226568408203614 -0.14129708228168156
1080000000.0 0.1697610620985929 0.06858605588399976
1100000000.0 0.17471681114784077 0.12689592773773173
1120000000.0 0.15537731430478408 0.18980142565413222
1140000000.0 0.26864852317223437 -0.013888000269689178
1160000000.0 -0.160269885341517 -0.2526443446074146
1180000000.0 -0.27400043133420393 -0.17053647245178227
1200000000.0 0.32758436912980604 0.07183774128141666
1220000000.0 -0.053013686966281226 0.3523276831402633
1240000000.0 0.28234388911208264 -0.25585739968100357
1260000000.0 0.03421517752348147 0.40593824159001735
1280000000.0 0.3816640878771792 -0.18180005308230607
1300000000.0 0.11797605638605993 -0.4129198899678528
1320000000.0 -0.16238977954980977 -0.4090908398911657
1340000000.0 -0.3986031456722606 -0.20474799391024764
1360000000.0 -0.2034310848890527 0.3991125304758883
1380000000.0 0.13718472820480818 0.4114635895851187
1400000000.0 0.3749599456185344 0.19229852107142048
1420000000.0 0.37629001062765177 -0.1333403682644849
1440000000.0 0.3484224016964948 -0.16243292353000877
1460000000.0 -0.3242373103203207 -0.1675281123534634
1480000000.0 0.04201144704600102 0.33473829652903486
1500000000.0 -0.06610468915675395 -0.29442066998765265
1520000000.0 -0.007865514035232772 -0.26578672545798865
1540000000.0 -0.21381131550512156 -0.09253353552105227
1560000000.0 -0.07911219378057437 0.19393498759228053
1580000000.0 -0.156754293058602 0.0968952734807853
1600000000.0 -0.14212907201248723 -0.036607604429035975
1620000000.0 0.052243651170507215 0.10264440101760419
1640000000.0 -0.08759373426872721 -0.0004968872807144655
1660000000.0 -0.065110653875031 0.0073208185865528234
1680000000.0 0.01952466920297134 0.038694097897276986
1700000000.0 0.03109563701060925 1.4737262503195075e-05
1720000000.0 0.0044395450238203585 -0.023049212183524292
1740000000.0 0.015697457574847043 0.03505816951634371
1760000000.0 0.023235268525575448 -0.0535913239957841
1780000000.0 -0.06728192426909782 0.04476270546066422
1800000000.0 0.09199844748030696 -0.058733911126132445
1820000000.0 0.13732839302533983 -0.04793971311874485
1840000000.0 -0.1718201083474665 -0.06657344806256134
1860000000.0 0.0041330197637952405 -0.22706932567017288
1880000000.0 0.2541709850383316 -0.040296226151267295
1900000000.0 -0.14118471157837617 -0.24925432032509567
1920000000.0 -0.25698127574458945 0.19113758184372928
1940000000.0 0.3526496394626283 -0.036263760238509433
1960000000.0 -0.37543786951126334 0.03994782102120427
1980000000.0 0.1585668434516279 0.356149648864207
2000000000.0 0.291784748495714 0.2770182916754021
2020000000.0 0.4195415026924432 -0.020768438555804826
2040000000.0 -0.38145060178109735 -0.20712013195949744
2060000000.0 0.20086591920695687 0.38506786088001793
2080000000.0 0.39373570547878584 0.15005103795745742
2100000000.0 0.3999130611826094 0.047155374997316056
2120000000.0 0.3639351349087412 -0.13371097839547394
2140000000.0 0.25374963265406586 -0.27089751891282626
2160000000.0 0.2856032357868536 0.20457750814642334
2180000000.0 0.3022625398248278 0.13694801672485768
2200000000.0 0.2624471956928768 -0.17485999180656914
2220000000.0 0.065747133263528 -0.29339956771094167
2240000000.0 -0.28906869000986346 -0.0026705144388378716
2260000000.0 -0.2519402212347277 0.11663954235410451
2280000000.0 -0.1781496642451596 0.20580612051431757
2300000000.0 -0.2698467931698891 0.05870914126112007
2320000000.0 -0.25671949577167197 0.1454615412658849
2340000000.0 0.19930490052168992 0.25254882560016995
2360000000.0 0.17121767938950383 -0.3069805353759719
2380000000.0 -0.3836088533024191 0.07965673448451327
2400000000.0 0.38790498327316814 0.20563077241485633
2420000000.0 -0.4945980160670582 -0.030842002660836865
2440000000.0 0.5384952046373043 0.09009304185177386
2460000000.0 -0.5781689615097729 0.14771827373550667
2480000000.0 0.5593711848300955 -0.3137992714499593
2500000000.0 -0.6223177905290157 0.2738525036391968
2520000000.0 0.7005912240062654 0.07140192194413576
2540000000.0 -0.551339874570465 -0.46480443389760834
2560000000.0 -0.7120324883048655 0.15583146311716814
2580000000.0 0.6473105515246322 0.34685050005417944
2600000000.0 -0.19090330638151806 -0.7058754851755384
2620000000.0 -0.13864277064799768 0.7094414573721355
2640000000.0 -0.0027073325473187908 -0.7069499464894778
2660000000.0 -0.5804735511506904 -0.36067656773675966
2680000000.0 0.6341875341296178 0.16198630315172116
2700000000.0 0.3909034403826922 0.49161573124853547
2720000000.0 -0.5686233295651413 0.16583848768103188
2740000000.0 -0.3837342480715823 -0.4137181709365424
2760000000.0 0.5179409780414609 -0.013922880766510218
2780000000.0 -0.24265991457642444 0.4195443553762796
2800000000.0 0.08191946773700054 -0.449247404482422
2820000000.0 -0.05126227059305973 0.4329047159269392
2840000000.0 -0.062065227824981375 -0.42480236864821436
2860000000.0 -0.05324796665425149 0.42011821633840524
2880000000.0 0.11350092705997071 -0.4037004548328238
2900000000.0 -0.40351462461368015 0.0957510049462056
2920000000.0 0.07091668532570652 0.40642691658980296
2940000000.0 0.3449779184734163 0.2214946551401841
2960000000.0 0.3850149504902428 0.12744079343523554
2980000000.0 0.29614413677576457 0.26736596650025685
3000000000.0 -0.24174167283301212 0.3211488623719722
3020000000.0 -0.2301172817947406 -0.3346605671346995
3040000000.0 0.37928435910214886 -0.1290423007958792
3060000000.0 0.01882254122816033 0.3922223232034481
3080000000.0 -0.3085661382894363 0.17243337143861284
3100000000.0 -0.007036417031700031 -0.34306536360639134
3120000000.0 0.2772941144584005 0.17766997911441623
3140000000.0 -0.29415267869211353 0.11372651404666351
3160000000.0 0.181829980283561 -0.23640360332273525
3180000000.0 -0.212719701591796 0.18864153636461875
3200000000.0 -0.25309057545970404 -0.06019084087379147
3220000000.0 -0.21931952047912256 -0.07873540772281068
3240000000.0 -0.19827286070553024 -0.03675545976147492
3260000000.0 0.0840107752440942 -0.1671838478528235
3280000000.0 -0.10731515488073995 -0.10608327645328562
3300000000.0 0.07809138824144532 -0.08881958821040362
3320000000.0 -0.08879614986815315 -0.02929654219646281
3340000000.0 -0.06700163509421452 -0.024989252171680243
3360000000.0 -0.02783283668772995 0.05528342394226245
3380000000.0 -0.03829865655733767 -0.030944467052440326
3400000000.0 0.03437993038293683 0.030993951120612227
3420000000.0 0.0338106743932071 0.0017188410881192736
3440000000.0 0.022570946929224293 -0.004839210342461194
3460000000.0 0.006583089337783354 0.009913268097677584
3480000000.0 -0.0037471189397453846 -0.00849896028534925
3500000000.0 -0.029075137735822494 0.0032395950434951064
3520000000.0 -0.004558450928061586 -0.05545652812588006
3540000000.0 -0.0039838592007099775 -0.07003041165496224
3560000000.0 -0.0031041731305022735 -0.08736818595609028
3580000000.0 -0.10012843117897983 -0.02402335202036772
3600000000.0 0.06086289074864426 0.10314701459184857
3620000000.0 0.0022157140736322745 0.13209637531565652
3640000000.0 -0.08745422846627134 -0.1021919891422665
3660000000.0 0.053325611567221314 0.10286634708527612
3680000000.0 -0.08676296329269233 -0.08607397390193851
3700000000.0 0.11534002287748898 0.05846665659703391
3720000000.0 0.13637607293739126 -0.03171949227774597
3740000000.0 -0.14130717897379716 -0.012871827371337406
3760000000.0 0.04565908885203706 -0.14247520153827187
3780000000.0 0.06256855522822218 0.14905150567273007
3800000000.0 -0.006695305991640707 -0.17671118293975044
3820000000.0 -0.14676921875875784 -0.11865071935557943
3840000000.0 -0.09013308266278376 -0.13807774249279944
3860000000.0 -0.1682011747178191 0.011886370450622444
3880000000.0 -0.02999551337825684 0.17400858683956805
3900000000.0 0.16606339097027145 -0.08513850505703759
3920000000.0 -0.0425154763699248 0.1976209167493432
3940000000.0 -0.07635475918363728 0.19608709969507693
3960000000.0 -0.1580812456112084 0.19096944092034898
3980000000.0 0.2362670039516766 -0.06532641758080407
4000000000.0 -0.2163856115035049 -0.08195022596937139
