!Created with skrf (http://scikit-rf.org).
# Hz S RI R 50.0 
!freq ReS11 ImS11
400000000.0 0.8481401533536376 -0.22673892330871162
420000000.0 0.7581394734939775 -0.34050344666389487
440000000.0 0.5153494737859827 -0.5755563923801781
460000000.0 0.06772066927245537 0.691441594128939
480000000.0 0.31011663395374284 -0.5051717797241277
500000000.0 0.575637885951655 0.23820317430915267
520000000.0 0.5673030469592345 -0.29127908819844806
540000000.0 -0.0942968136264427 -0.6015616585207173
560000000.0 0.59213336019524 0.1750760765835755
580000000.0 0.40586180590068593 0.33874808771409887
600000000.0 0.18449185528062945 0.5670146334327306
620000000.0 0.05963756421153988 -0.597795802522911
640000000.0 -0.2501684440526024 -0.5092550717124544
660000000.0 0.1758790100871343 0.49138407072171697
680000000.0 0.11246091471863502 -0.45882335581882877
700000000.0 -0.04511635953745035 0.4938935858016271
720000000.0 0.48192163552643297 0.1466024302737514
740000000.0 0.457654593562097 0.11950242405874674
760000000.0 -0.13533825854062553 0.43622941731579096
780000000.0 -0.3576663887895652 -0.27334970833900996
800000000.0 -0.1991434062182767 -0.3529191507112143
820000000.0 0.10769811790016645 0.3404684666115896
840000000.0 -0.32414230208970285 -0.09774521106898007
860000000.0 0.13486395295136766 -0.2850870994932121
880000000.0 0.27056859848738024 0.059668934712912416
900000000.0 0.1432397958353266 0.22756023075818024
920000000.0 0.26095579149752923 -0.0038394786730120696
940000000.0 -0.20559098900301237 -0.08507430518611778
960000000.0 0.04766899884233762 -0.15866358163005814
980000000.0 0.008294272035631156 0.13554861262680462
1000000000.0 0.1353513789855596 -0.00987298770638126
1020000000.0 0.11119222075107114 0.01710696828179417
1040000000.0 -0.11881347575747668 -0.058930960201083946
1060000000.0 -0.08972978180335582 -0.12563870807846167
1080000000.0 -0.0332387652767242 0.19970597625194683
1100000000.0 -0.1318385715700545 -0.2058788442738502
1120000000.0 -0.23219853110733082 -0.16113570977214256
1140000000.0 -0.2047428893839298 0.2299276062519266
1160000000.0 0.28237270769719564 0.17316156012778186
1180000000.0 0.019889732851904488 0.34043973171287933
1200000000.0 -0.29929371977467173 0.18565435878024225
1220000000.0 0.34289927224752503 -0.13506801914085956
1240000000.0 0.38084475760082925 -0.02905568637483859
1260000000.0 -0.1862174026283234 -0.3489682662044774
1280000000.0 -0.30201641888989283 0.22676581216401406
1300000000.0 0.18061866447971622 -0.31620373681592945
1320000000.0 0.3175374913547236 -0.20636260889039257
1340000000.0 -0.2992852967537737 0.2128785964886629
1360000000.0 0.12137692904709768 0.3628055353343856
1380000000.0 -0.11700772246436919 0.3757194282852004
1400000000.0 -0.0017122492920808529 -0.3799079925835816
1420000000.0 0.2840516010210919 -0.25881891447354616
1440000000.0 -0.11066479965167353 -0.3711777904704735
1460000000.0 -0.26973884583302826 -0.2780694306079932
1480000000.0 -0.2681687249080378 -0.28458628855498325
1500000000.0 -0.3008174724284624 0.24991816480682374
1520000000.0 0.14325253076053807 -0.35723023295806783
1540000000.0 0.02999346895104911 0.3641518227921571
1560000000.0 -0.301004179258061 -0.13409598634452416
1580000000.0 0.269676317774531 0.11297751056142649
1600000000.0 0.2564426549520892 0.06762318819316843
1620000000.0 0.16572466998189425 0.13288284885574278
1640000000.0 0.011303406428880598 0.18595193314821037
1660000000.0 0.12313852561210238 -0.10061504477364608
1680000000.0 -0.08298449409090483 -0.08854679661610353
1700000000.0 0.061273575247120855 -0.09848154590029518
1720000000.0 0.08995674621330724 -0.015245788753549067
1740000000.0 -0.07742283101008507 0.02999635886547174
1760000000.0 0.003169107671777033 0.09102100256628548
1780000000.0 -0.10706341701391221 0.019382145492671685
1800000000.0 0.10469049028903067 0.07552562744612158
1820000000.0 0.14870538011443565 0.05535254483886977
1840000000.0 0.04923919314926078 -0.18494470858095635
1860000000.0 0.08779283941214877 0.2004815566162491
1880000000.0 0.24994510573640757 0.035999409008893375
1900000000.0 0.2718883491862913 0.0004795420301425929
1920000000.0 -0.045292240802947775 -0.29079092094844095
1940000000.0 -0.3034239648862295 0.0326943765494131
1960000000.0 0.2309138846479028 -0.20591594103541377
1980000000.0 -0.30751042433704445 0.062416071431023644
2000000000.0 0.0345015700529114 -0.31682107668945964
2020000000.0 0.3071558196962934 -0.0999356373657043
2040000000.0 0.32563867058151036 0.004829172355718821
2060000000.0 0.31679182087728797 0.053957054482896026
2080000000.0 0.06472441865809507 0.31772209900963655
2100000000.0 -0.029147383883462157 -0.3239888804251826
2120000000.0 0.31995125956213794 0.003737178598303135
2140000000.0 -0.2706120426694567 -0.16723098979637324
2160000000.0 0.12055565247592379 0.29559648489413554
2180000000.0 0.19643329714267077 -0.24192521307322404
2200000000.0 0.15154623716254068 -0.2634985729695736
2220000000.0 0.0997260055880768 -0.2812615057901791
2240000000.0 0.2859288515681642 -0.057726888181451254
2260000000.0 0.10023638531341239 0.2559997993953046
2280000000.0 -0.21389906397005798 0.1596823185488883
2300000000.0 0.0049189702997785075 -0.25114172959565645
2320000000.0 -0.002807611509710446 0.24384248209936377
2340000000.0 0.08450232088813564 -0.22850157151250716
2360000000.0 0.04903342880486654 0.24028317977016667
2380000000.0 -0.1943137598396628 -0.1646513162804547
2400000000.0 -0.27799646488603025 -0.042237178482952394
2420000000.0 0.2829406163718597 0.11130014226249685
2440000000.0 -0.2743051005660949 -0.17538638346187332
2460000000.0 0.14956716969512962 0.3230411812211516
2480000000.0 0.14352488771987307 -0.36421541723147016
2500000000.0 0.35677543265369427 0.23510082122147036
2520000000.0 -0.42772992441427754 0.17720820520622257
2540000000.0 0.15062132446468238 -0.4721347771157302
2560000000.0 0.12883478323597586 0.510186143783591
2580000000.0 -0.27218582040018424 -0.48069733361060146
2600000000.0 0.2881343654584644 0.49890094561990533
2620000000.0 -0.3635998213139016 -0.47238967979123236
2640000000.0 0.5302713362176091 0.3020928256952355
2660000000.0 -0.6204282454733047 0.07397396378065924
2680000000.0 0.07009014614494812 -0.6294002434307245
2700000000.0 0.6044222343591957 -0.21754080249089044
2720000000.0 0.6433050266699021 0.06692134153057319
2740000000.0 0.6180580653914569 0.1941909157561453
2760000000.0 0.62647823775653 0.17029936563580755
2780000000.0 -0.3716733628037975 0.5266244717094525
2800000000.0 -0.5855307355889477 0.244692698506226
2820000000.0 -0.454321700726617 -0.42661381163561507
2840000000.0 0.5391381712847517 -0.28520701320770153
2860000000.0 -0.36583554350970465 0.46926623770148623
2880000000.0 0.5307101983149816 -0.21742565283582357
2900000000.0 -0.19795360988472205 -0.5163431298481326
2920000000.0 -0.5213179566699144 0.08645616191711088
2940000000.0 -0.28136502922679024 0.4089965929513133
2960000000.0 -0.356585663089004 0.31101611808220225
2980000000.0 -0.24802151392178032 0.3742832625469123
3000000000.0 -0.15907060092137432 0.3923692994675334
3020000000.0 0.08196505119417186 0.3942384575297605
3040000000.0 0.3200211029432549 0.21124306999522577
3060000000.0 0.17463078442807486 -0.323127514034509
3080000000.0 -0.35544366468863614 -0.03800276963333019
3100000000.0 0.31337811655833714 0.1513483509664562
3120000000.0 0.15265783893039178 -0.3081713248874742
3140000000.0 -0.27155071076820303 0.20769780959361933
3160000000.0 0.3302720376818527 -0.09702014238754715
3180000000.0 -0.34342520842170804 0.02827845067388517
3200000000.0 0.07103511354945556 0.3367573897828343
3220000000.0 0.27581171950669237 -0.1976583294453464
3240000000.0 0.1488377915907586 -0.2996217814363971
3260000000.0 -0.1656974244545619 -0.2829443955946481
3280000000.0 -0.3105923779512359 -0.05761841251969671
3300000000.0 -0.23303362267221578 0.18724958638264066
3320000000.0 -0.0684901503694143 0.2630762748440756
3340000000.0 -0.2378865227411427 0.06698315859057108
3360000000.0 -0.19939371167407371 0.09144060241848936
3380000000.0 -0.08237500653614477 -0.1741347046635203
3400000000.0 -0.081927257079659 -0.14579944649055643
3420000000.0 -0.11291520531642645 -0.08279159646997251
3440000000.0 -0.006842117892232178 -0.11836808719943213
3460000000.0 0.019316491303157005 -0.09452428890941045
3480000000.0 0.02688180611206718 0.07207052328126318
3500000000.0 -0.07028298325610131 -0.019852362818298625
3520000000.0 -0.06742105693618629 -0.02997542716579546
3540000000.0 0.05305435996892283 0.05975425399865241
3560000000.0 -0.08145571563112171 0.027286640229288714
3580000000.0 0.03536186452604198 0.09057798160802147
3600000000.0 0.0798665325010225 -0.06831850898771429
3620000000.0 0.10796104118865156 0.05363147905503117
3640000000.0 0.060648251973554584 -0.11914618471739473
3660000000.0 -0.0697948465713761 -0.12992932261566661
3680000000.0 0.10314248947298375 0.1103259608234335
3700000000.0 0.08824161680947562 0.11334422030154682
3720000000.0 0.1275379644013935 -0.01248615297302902
3740000000.0 0.08767831462555473 -0.05539704766381643
3760000000.0 -0.07922711228823871 -0.017746842134402523
3780000000.0 0.03975766833758425 -0.04554755022133861
3800000000.0 -0.026524701134519338 0.006840305443990468
3820000000.0 0.0109429895066081 -0.0018022927852004923
3840000000.0 -0.013715177200573995 -0.045765953298155235
3860000000.0 -0.07656471246491608 -0.016409422990808713
3880000000.0 0.013137381705236963 -0.10523479819386182
3900000000.0 0.1260560306622596 -0.022211310058285298
3920000000.0 -0.08003143680552567 -0.11777248953343668
3940000000.0 -0.05482995035102076 0.143178982152284
3960000000.0 0.03972770270354564 -0.15351657443455863
3980000000.0 0.14249962589486334 0.0309391783578358
4000000000.0 -0.10264635046136776 -0.07012644464340001
