!Created with skrf (http://scikit-rf.org).
# Hz S RI R 50.0 
!freq ReS11 ImS11
400000000.0 0.8133967524055247 -0.3299527386223762
420000000.0 0.7588346234096243 -0.3401876517697151
440000000.0 0.4835138394076119 -0.6023474047286268
460000000.0 0.18205798525206118 0.6707863751190148
480000000.0 0.32954847215939603 -0.49032540100056854
500000000.0 0.5189547691825412 0.3532893752708295
520000000.0 0.3961198618149758 -0.5015756185337312
540000000.0 0.271179251850898 -0.5456609238030028
560000000.0 0.6173635640195556 0.052054736626956186
580000000.0 0.4736939154197049 0.22258327305738276
600000000.0 -0.2773500566447741 0.5298114459638245
620000000.0 -0.39273022486701953 -0.4588683622730052
640000000.0 -0.27399937371774463 -0.4871823733355161
660000000.0 -0.043443483971799805 0.5194891886564441
680000000.0 0.23595825081736146 -0.4185986623666995
700000000.0 0.4412125598528127 0.22891899390022927
720000000.0 0.49642493563840956 0.04700416668295531
740000000.0 -0.03471923251251196 0.4725293665380546
760000000.0 -0.030637364045274566 0.45887860583412793
780000000.0 -0.4238611967654146 -0.1465483398633959
800000000.0 -0.04240744181751646 -0.40636353188268365
820000000.0 0.3402076063507216 0.11881195635080045
840000000.0 -0.3243861756408321 -0.05944589207804574
860000000.0 0.3033259925312197 -0.05985200072123526
880000000.0 0.27693442184535416 0.07636935357472383
900000000.0 0.2526828096232797 0.10673460671640139
920000000.0 -0.04064754829898171 -0.2539480443992155
940000000.0 0.11904969218613586 -0.1885150787575856
960000000.0 0.16399953935827882 0.042346346240378537
980000000.0 -0.12782681878158472 0.0541870998695454
1000000000.0 -0.06951468496559361 -0.11138363067013674
1020000000.0 -0.06414673322372628 0.08977063535209591
1040000000.0 -0.11195454056527412 0.07040231833717003
1060000000.0 -0.058001385354726764 -0.147267490057346
1080000000.0 0.11973325655142314 0.1648735900606637
1100000000.0 -0.23568534897784885 -0.07757624365404396
1120000000.0 -0.13315226191341942 -0.24622626653149796
1140000000.0 -0.24287703532153027 0.19357197863131906
1160000000.0 0.1679801084472067 0.28784139665720443
1180000000.0 0.06639359321473491 0.33243309732623644
1200000000.0 -0.34106632556626443 -0.09458143767271936
1220000000.0 0.2594595281337526 -0.26204444142205213
1240000000.0 0.3007191316829125 -0.22980693495890483
1260000000.0 0.03040098027699119 -0.390765946377594
1280000000.0 -0.3650805818234263 0.10357685778199652
1300000000.0 -0.10152275047754622 -0.3532490752152514
1320000000.0 0.2559376678304762 -0.27481252949687834
1340000000.0 -0.35091845291926765 0.10895341196213548
1360000000.0 0.21902285468205698 0.3183154245646304
1380000000.0 -0.15890782281135488 0.3594212255126629
1400000000.0 -0.13601236772956318 -0.3588226607192843
1420000000.0 0.3459657308498008 -0.16543806147206147
1440000000.0 -0.03435846115170649 -0.38750452236176225
1460000000.0 -0.33984139438060806 -0.18595287125083643
1480000000.0 -0.12841922844842896 -0.36996334945171844
1500000000.0 -0.3832990989269704 0.07985747076187052
1520000000.0 0.10213179065553449 -0.3730639039020383
1540000000.0 0.1840975345797179 0.31181800756732386
1560000000.0 -0.22474211646300596 -0.23865587517089398
1580000000.0 0.264263484815466 0.1320547294779492
1600000000.0 0.24918506238969532 -0.08787068576193446
1620000000.0 0.156278823731459 0.14360381803971928
1640000000.0 -0.013760614847401296 0.1864228605277461
1660000000.0 0.12968431108406595 -0.09607054811670973
1680000000.0 -0.1150197864602851 -0.03758874852163312
1700000000.0 0.07456224305028349 0.08989440540837496
1720000000.0 0.06849097618845132 -0.06337656239761283
1740000000.0 -0.07787259906665392 -0.02896668824757072
1760000000.0 -0.0859416699468274 0.02715748307212939
1780000000.0 -0.08913653456386933 0.06320535900433093
1800000000.0 0.09633399856651798 0.08531040869985224
1820000000.0 0.1008956809525131 0.1237150988735979
1840000000.0 0.04772709272431015 -0.18477643464220161
1860000000.0 -0.009424846256873173 0.21775328179700812
1880000000.0 0.2210903000884061 0.12234469229615418
1900000000.0 0.20746915821504597 -0.176473733433514
1920000000.0 0.031128407233671503 -0.29014374026500056
1940000000.0 -0.304766748289334 -0.020330990866913663
1960000000.0 0.16221361503045498 -0.26537754831175564
1980000000.0 -0.28774914746340713 0.11965526666120509
2000000000.0 0.12641949200738448 -0.2939150763929639
2020000000.0 0.26692067032471073 -0.18546912902898172
2040000000.0 0.32250399636298976 0.029727016937567827
2060000000.0 0.26191113443740105 0.18628052696587394
2080000000.0 0.05095601054150513 0.3215032218755771
2100000000.0 -0.07094928768828197 -0.31623933076462835
2120000000.0 0.24793829084892097 0.20058852829203083
2140000000.0 -0.2695242589145409 -0.17340189037987236
2160000000.0 0.1801912015460874 0.2618292467876774
2180000000.0 0.2499318075521276 -0.18335817403866905
2200000000.0 0.20692263656885787 -0.22264855098237685
2220000000.0 0.07943541994378499 -0.2871764366177294
2240000000.0 0.28315790953188064 -0.06927359435437858
2260000000.0 0.06369961151078443 0.268275567489597
2280000000.0 -0.16254760985876238 0.21409774545297525
2300000000.0 0.05187072565273539 -0.24380410376631545
2320000000.0 -0.17945910010352356 0.1679985889519493
2340000000.0 -0.009656944071318887 -0.24395933617609503
2360000000.0 0.07006777756047479 0.2336357821894286
2380000000.0 -0.08081234026197864 -0.24231323895105822
2400000000.0 -0.27530313016735053 -0.05788800638766198
2420000000.0 0.27074492583767756 0.13560980942835818
2440000000.0 -0.27017347722632973 -0.1846977046737039
2460000000.0 0.1455124845236572 0.32348315374976955
2480000000.0 0.24847073438419734 -0.3023272265617118
2500000000.0 0.2904093596499841 0.31244121735006763
2520000000.0 -0.4297960667434271 0.169351299253995
2540000000.0 0.23813936815932518 -0.4334594966596113
2560000000.0 0.12549935024591252 0.5107002578189862
2580000000.0 -0.2337694777109571 -0.4998815879508233
2600000000.0 0.3352221203953592 0.46751009926882403
2620000000.0 -0.3986781477070099 -0.4423804383341222
2640000000.0 0.500149193100699 0.35121041654280505
2660000000.0 -0.6241306181313401 0.05378111049985398
2680000000.0 0.08770802688683604 -0.6281760365228598
2700000000.0 0.6326304041594978 -0.11566398172518716
2720000000.0 0.6263703952013843 0.1617355758922244
2740000000.0 0.6015724350699013 0.24160417638092826
2760000000.0 0.5862962270248712 0.2780789249178551
2780000000.0 -0.4550582339271316 0.4541576933747873
2800000000.0 -0.6161882956894714 0.1495905562339176
2820000000.0 -0.41955964700521403 -0.45990251836763124
2840000000.0 0.5650203516845704 -0.2274035573557665
2860000000.0 -0.38096192956464 0.4556655541307189
2880000000.0 0.530865546247916 -0.21687088822069717
2900000000.0 -0.27425652942983253 -0.47896262678264834
2920000000.0 -0.5246516224591843 0.06674249541097628
2940000000.0 -0.29033189428851586 0.4068372860389216
2960000000.0 -0.3527829447929665 0.31627337918672277
2980000000.0 -0.31084289575402513 0.3230005031460711
3000000000.0 -0.14911741701356587 0.3989383401730389
3020000000.0 -0.004278269828802839 0.40451156113716863
3040000000.0 0.2497937041469441 0.2912583492660561
3060000000.0 0.2987027055960757 -0.2150859829998716
3080000000.0 -0.31532838301263316 -0.1683873517920227
3100000000.0 0.2747185914473108 0.2131076517978335
3120000000.0 0.2546861736920631 -0.2293854623797967
3140000000.0 -0.31918177285754135 0.12166871937536688
3160000000.0 0.34083447990738386 -0.03536005101562283
3180000000.0 -0.331812592740006 0.09287859006638381
3200000000.0 0.11556755139546576 0.3228693680383017
3220000000.0 0.23887411526633878 -0.24162480497694264
3240000000.0 0.11582861754706658 -0.31465887097898126
3260000000.0 -0.22611106076701853 -0.23768979394899836
3280000000.0 -0.3156246400269697 0.028756603890821946
3300000000.0 -0.23152445214804726 0.19147092881867847
3320000000.0 -0.10216756702577247 0.25399428928969975
3340000000.0 -0.24798612104193324 0.02986829847961674
3360000000.0 -0.21324756751286278 0.058977484451764955
3380000000.0 -0.016595169554788014 -0.19219914379855507
3400000000.0 0.03266281773407487 -0.1648738709128089
3420000000.0 0.02745537611153103 -0.13857971275439965
3440000000.0 0.036528034889015334 -0.11269620564321586
3460000000.0 0.048756818760729036 -0.08060955359437881
3480000000.0 -0.0776863332156859 -0.0012250828874176732
3500000000.0 -0.045342676995199595 -0.05611092888208241
3520000000.0 -0.06948315546209813 -0.012952811597104348
3540000000.0 0.06250450194678213 0.04817541474988458
3560000000.0 -0.026838729391193833 0.08101924287845436
3580000000.0 0.07677423591585184 0.05924515105714866
3600000000.0 0.07243104851205606 -0.07613183697255073
3620000000.0 0.10614956292784798 0.05787013208399276
3640000000.0 0.029440982267678138 -0.13138439543791916
3660000000.0 -0.060699699636310785 -0.13505430598608598
3680000000.0 0.05541391988226988 0.14253472711353107
3700000000.0 0.06546544872924111 0.12856758670511312
3720000000.0 0.10808975077201563 0.06976226568121995
3740000000.0 0.0983918063224014 -0.030209472069907962
3760000000.0 -0.03514955401758927 -0.07177645729924653
3780000000.0 0.053681953519297824 0.02568220334196096
3800000000.0 -0.010858270885741206 -0.024913473549171904
3820000000.0 -0.004244123766375478 -0.011859330829936454
3840000000.0 -0.03034468101279655 -0.03773956374053101
3860000000.0 -0.04218836334512313 0.06687221005840017
3880000000.0 0.08889047868703347 -0.0586174182899097
3900000000.0 0.11695107586116588 0.05494552537884874
3920000000.0 -0.09543972386287564 -0.10760869303640558
3940000000.0 -0.14197836451497142 0.056634618607930176
3960000000.0 0.15340543615225352 0.0360787165429851
3980000000.0 0.10030493049738694 0.1090130236276712
4000000000.0 0.002892150376231935 -0.12285648977948209
