!Created with skrf (http://scikit-rf.org).
# Hz S RI R 50.0 
!freq ReS11 ImS11
400000000.0 0.8307945930302665 -0.2827754046083063
420000000.0 0.7535914165515689 -0.35084013585093354
440000000.0 0.5275076249430918 -0.5635315332721594
460000000.0 0.09170911089132987 0.689033194251002
480000000.0 0.3052135543583992 -0.507058489853742
500000000.0 0.5799810676502642 0.2289537234605507
520000000.0 0.5705698716805631 -0.28710835465371737
540000000.0 0.025370878652108814 -0.6069113686913659
560000000.0 0.6009938820897118 0.14637421524551583
580000000.0 0.4354200732825576 0.29792615056924765
600000000.0 0.13363192286036288 0.5823580493196813
620000000.0 0.024964339571228174 -0.6000246482945589
640000000.0 -0.23138026597187739 -0.5186831543825448
660000000.0 0.16463983853163866 0.4948836830684781
680000000.0 0.13747219247388692 -0.4532612672829132
700000000.0 -0.04439597763573455 0.49374172143524736
720000000.0 0.47046314285451424 0.18220904574707325
740000000.0 0.46454990173846594 0.08462885500209048
760000000.0 -0.10575894346773553 0.4450145334750379
780000000.0 -0.3720488714101031 -0.25104613011234794
800000000.0 -0.21184366042700953 -0.34557795354253057
820000000.0 0.15077438275593677 0.32320065727123487
840000000.0 -0.31671167399662936 -0.11967422538512024
860000000.0 0.14514503667033352 -0.280442616155592
880000000.0 0.25208464959863935 0.11319298588520435
900000000.0 0.15662640113378926 0.2194019598729079
920000000.0 0.26014705071964855 -0.006806253648728121
940000000.0 -0.18881686394213948 -0.11810845959755072
960000000.0 0.030828215765979352 -0.16322912536280682
980000000.0 0.029681100323055418 0.13346835395080103
1000000000.0 0.1341239315562709 0.015634467749206585
1020000000.0 0.09301045128805231 0.06256797712614313
1040000000.0 -0.11999255765227526 -0.0574746055260303
1060000000.0 -0.09347625666469021 -0.12357945582722293
1080000000.0 0.09450443717794156 0.17725473612865444
1100000000.0 -0.06655538724875751 -0.23350072419721316
1120000000.0 -0.2304734491447877 -0.16427031429632918
1140000000.0 -0.18351876410073512 0.24791021752900047
1160000000.0 0.2978176980547424 0.1433504859641715
1180000000.0 -0.040070124330398194 0.33736836603358683
1200000000.0 -0.32680332051630595 0.13249562042725926
1220000000.0 0.2986372810234893 -0.21598117591554072
1240000000.0 0.38046071995849967 0.0214727841602669
1260000000.0 -0.12694662082543337 -0.37442480150512364
1280000000.0 -0.3065798434501927 0.22056807597626754
1300000000.0 0.16867166243872633 -0.3231625977467897
1320000000.0 0.3045212921708549 -0.2227049761290151
1340000000.0 -0.312403506517664 0.19382590149842774
1360000000.0 0.15739381514496778 0.3491310270739552
1380000000.0 -0.15666963995451608 0.3600712625459016
1400000000.0 -0.012723468909169935 -0.37997776604370154
1420000000.0 0.25474560106348487 -0.288526393754028
1440000000.0 -0.06869193431642528 -0.3806317089556203
1460000000.0 -0.2117960320331184 -0.3243840909329218
1480000000.0 -0.21434912877867315 -0.3316914922569422
1500000000.0 -0.3075355243503412 0.24038603918446466
1520000000.0 0.13980049614856072 -0.35927514293945434
1540000000.0 -0.005608100181063211 0.3657414963424846
1560000000.0 -0.3119790265013606 -0.10579539850006045
1580000000.0 0.2706232274966049 0.10961362900821497
1600000000.0 0.23265757138811605 0.1242786631985623
1620000000.0 0.16920467579629822 0.13102339037774122
1640000000.0 0.07154984216044544 0.17097425494870278
1660000000.0 0.13302971494764992 -0.08679131707531473
1680000000.0 -0.0914574977462062 -0.08041615568022378
1700000000.0 0.09595867198388394 -0.06454741894770749
1720000000.0 0.09203030039211078 6.0273203677535806e-05
1740000000.0 -0.07606291300556815 -0.033250744129813006
1760000000.0 0.012660159202798149 0.09076057835448641
1780000000.0 -0.10082654048363453 0.04013072147208726
1800000000.0 0.10371261690016284 0.07614053635534483
1820000000.0 0.1398414642331042 0.0777752411974539
1840000000.0 0.06173838230243966 -0.18034245642321212
1860000000.0 0.047671674657984 0.2141416551698902
1880000000.0 0.24697189287807647 0.05131291926066135
1900000000.0 0.2711186795309251 -0.013109346131401863
1920000000.0 -0.018648158111997666 -0.2934988999283839
1940000000.0 -0.30032136009405125 0.05604971896624042
1960000000.0 0.25104489129928403 -0.17960947557646076
1980000000.0 -0.3028479647286276 0.08326290550592112
2000000000.0 0.00999259928156597 -0.31907472432036704
2020000000.0 0.31824923768632346 -0.05205003794633002
2040000000.0 0.3259864811075078 0.0010883833042601813
2060000000.0 0.3202124644681181 0.029072717588734972
2080000000.0 0.09029094778202856 0.3117856928856793
2100000000.0 -0.02866482109873427 -0.32390071169776063
2120000000.0 0.3064996372880513 0.094123906371142
2140000000.0 -0.2510374355981445 -0.1956146978886932
2160000000.0 0.15536058923113608 0.27881776279471543
2180000000.0 0.20059644477327446 -0.23743364606831027
2200000000.0 0.18793176871659487 -0.2395825986072786
2220000000.0 0.02389133033628579 -0.2975636413181828
2240000000.0 0.2799812832784318 -0.0780001054964494
2260000000.0 0.05299980702604161 0.27074594781123956
2280000000.0 -0.1980639756406994 0.1792683839174195
2300000000.0 -0.006151729176977133 -0.25151580027705345
2320000000.0 -0.010766336411780514 0.2425927933841841
2340000000.0 0.12862430283815707 -0.20787340108374852
2360000000.0 0.142199354197827 0.19863790883312665
2380000000.0 -0.17839690140492465 -0.1827934842894161
2400000000.0 -0.28038018394579456 -0.012276644992644095
2420000000.0 0.27328303413525384 0.13477856208357833
2440000000.0 -0.29324913296710636 -0.1429271297283309
2460000000.0 0.13971462061770834 0.32628738459655615
2480000000.0 0.20482188021665912 -0.3344318838959935
2500000000.0 0.34576321769568336 0.2505709871041928
2520000000.0 -0.41440894797149364 0.2064001778135099
2540000000.0 0.1462167688553878 -0.47323829012568824
2560000000.0 0.12457265270038519 0.5115674739123225
2580000000.0 -0.2407863452427574 -0.49700980542317014
2600000000.0 0.3049344988643611 0.48855918138108556
2620000000.0 -0.4150216356790824 -0.42774820708963707
2640000000.0 0.49465144646574793 0.35766958970432255
2660000000.0 -0.6163756098543158 0.10218983041531646
2680000000.0 0.05096990591544035 -0.6314810978836538
2700000000.0 0.6082269480002808 -0.20726451115103897
2720000000.0 0.642246896826696 0.07775845316965667
2740000000.0 0.641821676601174 0.09129644783003198
2760000000.0 0.6286643275608068 0.1647165819460173
2780000000.0 -0.4018042664990887 0.5035962197074054
2800000000.0 -0.5818828780624649 0.2542800678375989
2820000000.0 -0.44555595098082984 -0.4357594615623939
2840000000.0 0.5352149563474371 -0.2927522468464682
2860000000.0 -0.37204680422292924 0.4641479394245018
2880000000.0 0.5367571149510539 -0.20295346867456254
2900000000.0 -0.24262243211081852 -0.4965622580487556
2920000000.0 -0.5274661498597144 0.039544054541944075
2940000000.0 -0.2883784121156269 0.404963071806528
2960000000.0 -0.31314159897784544 0.3543845988074375
2980000000.0 -0.2520561253137378 0.37059255151126563
3000000000.0 -0.15636863890833613 0.3933065905896727
3020000000.0 0.07151231315946968 0.39690703379788084
3040000000.0 0.3501890121241878 0.15309673640701404
3060000000.0 0.2456862584616021 -0.2740460692158547
3080000000.0 -0.3573764018884356 -0.01912072234521132
3100000000.0 0.3160278841846105 0.14689099800065059
3120000000.0 0.16233386424408694 -0.3027584280070244
3140000000.0 -0.31120516801074033 0.14051122569128355
3160000000.0 0.3193830249712982 -0.13075597763200958
3180000000.0 -0.34325442188929767 0.013987446883666916
3200000000.0 0.0166640652433216 0.3436477221912346
3220000000.0 0.26144717069755785 -0.21641554271008218
3240000000.0 0.1064371588865419 -0.3165573752740761
3260000000.0 -0.19239337134788906 -0.2645367362059391
3280000000.0 -0.3090736556755984 -0.0678220794991537
3300000000.0 -0.18542094152352634 0.23438021557529226
3320000000.0 -0.0107697717537749 0.2713856545762968
3340000000.0 -0.24012047963204533 0.059693125312054854
3360000000.0 -0.20947279387658124 0.07039094042373993
3380000000.0 -0.11319533463475456 -0.15578495560695294
3400000000.0 -0.06042762439255521 -0.1561686437133703
3420000000.0 -0.08405363795948934 -0.11250197602058021
3440000000.0 -0.013955736096339403 -0.11792966898729405
3460000000.0 0.001886069096520142 -0.09596367896784355
3480000000.0 -0.05481051433816127 0.05457928169010409
3500000000.0 -0.07312119122954341 -0.003705847632167736
3520000000.0 -0.05432721756956771 -0.04908066860061202
3540000000.0 0.04192120488586224 0.06722706507563396
3560000000.0 -0.07164755366158922 0.04653401586394647
3580000000.0 0.05694292744853781 0.07909654865743329
3600000000.0 0.03980218429081156 -0.0973019014724561
3620000000.0 0.11715036605607759 0.025623428780356748
3640000000.0 0.06519875813053093 -0.11815744958603043
3660000000.0 -0.05675039029827668 -0.13668976397184726
3680000000.0 0.08122037027801561 0.12774475472731792
3700000000.0 0.10608218360397245 0.09764099931171617
3720000000.0 0.12130360933599886 0.040071534927256736
3740000000.0 0.09250222357974033 -0.04741424644196419
3760000000.0 -0.07531798934390219 -0.030698242281085954
3780000000.0 0.05904229031688157 -0.011965106452764206
3800000000.0 -0.02712053420073477 -0.0010188555205151442
3820000000.0 0.004544605241608084 -0.010468192904279198
3840000000.0 -0.020575791719985328 -0.04257060585346381
3860000000.0 -0.07823381542939861 0.007406220502950153
3880000000.0 0.011750906443769237 -0.10594988815129747
3900000000.0 0.12760609625816305 -0.001393099453790856
3920000000.0 -0.10820399584202563 -0.09319158235691094
3940000000.0 -0.02444788198254694 0.1515479963473258
3960000000.0 0.003965356578882287 -0.15955722756829532
3980000000.0 0.14700109642623083 0.004898930665553822
4000000000.0 -0.10126813506902653 -0.07327721074186244
