!Created with skrf (http://scikit-rf.org).
# Hz S RI R 50.0 
!freq ReS11 ImS11
400000000.0 0.840054030344724 -0.25484610102124317
420000000.0 0.7700950515879522 -0.31351930162736397
440000000.0 0.4782965813920386 -0.6070553496882028
460000000.0 0.23093588009983546 0.6560308768842895
480000000.0 0.3954491605812082 -0.4382483727717843
500000000.0 0.5645983938958914 0.27287520591186926
520000000.0 0.4478595421733908 -0.4549296106460427
540000000.0 0.1808100830233589 -0.5786888458458613
560000000.0 0.5952401611381773 0.1739174298232902
580000000.0 0.5249666891691417 0.02508235892453212
600000000.0 -0.11414963387386422 0.5856308188360647
620000000.0 -0.3584594319179972 -0.4825552483773727
640000000.0 -0.25390197985445206 -0.49970944544887613
660000000.0 -0.27903063137535467 0.44029614868889055
680000000.0 0.06037028718629405 -0.4774243944069739
700000000.0 0.3595108295222028 0.33762171802165103
720000000.0 0.4961506326637356 0.06130183501717295
740000000.0 0.3994804742553723 0.25090720467733146
760000000.0 0.019692257311520724 0.45516320417719236
780000000.0 -0.34216862419631083 -0.2877698097273011
800000000.0 0.003979140749343984 -0.41310573320954147
820000000.0 0.33758229108849513 -0.13076275161961728
840000000.0 -0.2786519700785532 -0.17393057689846314
860000000.0 0.3098064334593872 -0.03713060154808217
880000000.0 0.22599985827916386 0.1711988022213173
900000000.0 0.00856330588160949 0.2740111258109437
920000000.0 -0.1282162153382442 -0.22376370252393318
940000000.0 0.09615891744101564 -0.19534926819808276
960000000.0 0.10441278699096979 0.1305709351247273
980000000.0 -0.005886977675417226 0.1408092059921942
1000000000.0 -0.13175440972705696 0.014693044979131629
1020000000.0 0.005133809840415033 0.10840107998596722
1040000000.0 -0.12205251413196211 0.03627616202971575
1060000000.0 0.1507957779044885 -0.044245821097048416
1080000000.0 -0.01524089116270289 0.20528716115107018
1100000000.0 -0.24703459700145772 0.01201064053246755
1120000000.0 -0.16798504729530236 -0.22037080308906734
1140000000.0 -0.2546630131606552 0.1755821400509258
1160000000.0 0.32524813385636564 0.06163874171763041
1180000000.0 0.10103617723319891 0.3234273079857372
1200000000.0 -0.3359509931460513 -0.11797348387775146
1220000000.0 0.29268709232301987 -0.22274655715289673
1240000000.0 0.26527880704396234 -0.27450912165773783
1260000000.0 -0.06570617581878554 -0.3874243784766223
1280000000.0 -0.37423021964210523 0.05550254447115551
1300000000.0 -0.01453831836624182 -0.36651974412496274
1320000000.0 0.2195228724196486 -0.3057881176818591
1340000000.0 -0.35415284249819934 0.09584609561574378
1360000000.0 0.18252487333712133 0.3399458761272923
1380000000.0 -0.0722564792643541 0.38518165700060936
1400000000.0 -0.03979244603857158 -0.3804842773235341
1420000000.0 0.28542400173895843 -0.2565666980203544
1440000000.0 -0.06103602336703079 -0.38190837694215796
1460000000.0 -0.2360148320584231 -0.30915749443709223
1480000000.0 -0.25375829098139846 -0.2989041760443109
1500000000.0 -0.2656226201558695 0.2852142824743954
1520000000.0 0.08460393362908043 -0.37489335302031895
1540000000.0 -0.04456918221262178 0.36175180634440857
1560000000.0 -0.29427714160346063 -0.15093204596639243
1580000000.0 0.285394008454372 0.06946186336986701
1600000000.0 0.2628440076215222 0.014403379658033169
1620000000.0 0.10961723550864029 0.180224728858648
1640000000.0 -0.04009062415771919 0.1829356839230287
1660000000.0 0.09905187499751861 -0.12759014235340885
1680000000.0 -0.11171464077513513 0.04324367804704168
1700000000.0 0.09349333191372446 0.07018498225717865
1720000000.0 0.08588848045451945 -0.03771467101682501
1740000000.0 -0.0712726248143192 -0.04198203008170574
1760000000.0 -0.07058730064056608 0.05836401198876268
1780000000.0 -0.024993445940325505 0.10585649218220083
1800000000.0 0.09884377029181475 0.08213159920181093
1820000000.0 0.11282897447691512 0.11258977590150927
1840000000.0 -0.023455781018593077 -0.1916615180070441
1860000000.0 0.039119667100860844 0.2142686089127446
1880000000.0 0.22141024044082136 0.12048333058650569
1900000000.0 0.2670952020763082 -0.057601938492650946
1920000000.0 0.02042575336652392 -0.29001782052631087
1940000000.0 -0.3066220010435217 -0.009346519469592526
1960000000.0 0.1561087903783204 -0.2678473284762183
1980000000.0 -0.3029658540588813 0.07561474607733804
2000000000.0 0.056489856518704744 -0.3135712762780112
2020000000.0 0.3001285544015843 -0.1236165588055676
2040000000.0 0.32182845315399755 0.03797447305521737
2060000000.0 0.2748367652037195 0.16729718607072702
2080000000.0 0.1052136165313885 0.3089422139802692
2100000000.0 -0.09985640221789492 -0.30767044326258547
2120000000.0 0.2690272061072577 0.1692020350200164
2140000000.0 -0.251514112684449 -0.19951784753251714
2160000000.0 0.20357380389324345 0.24456310224952926
2180000000.0 0.273973237319858 -0.14483141562020732
2200000000.0 0.18302889081601217 -0.2452017267581455
2220000000.0 0.007549236617790523 -0.2977861396657023
2240000000.0 0.2882387539502426 -0.01975976403175601
2260000000.0 -0.017409258527156198 0.2755893230992038
2280000000.0 -0.1924816231233363 0.18790416508855606
2300000000.0 -0.06309359038093867 -0.2429490680243539
2320000000.0 -0.12438903996783836 0.21040188391702705
2340000000.0 -0.02981466751632033 -0.24056439650820344
2360000000.0 -0.001077565916366725 0.24409809427223259
2380000000.0 -0.1150252525654254 -0.22938664766585853
2400000000.0 -0.27950770018133103 0.03389172209438489
2420000000.0 0.27775016765088933 0.11972801068392261
2440000000.0 -0.224729889387311 -0.23547086252642205
2460000000.0 0.15868081281293575 0.3186311883167723
2480000000.0 0.22379433224659434 -0.3223719250438551
2500000000.0 0.316374230570144 0.28727556878206195
2520000000.0 -0.4189672506993257 0.19728505942252061
2540000000.0 0.21355485879790867 -0.4457923930656156
2560000000.0 0.09205309215257552 0.5177924124575976
2580000000.0 -0.18572159990159984 -0.5196522809797083
2600000000.0 0.3029139011667799 0.4896828913219054
2620000000.0 -0.41124393702796136 -0.43057152165089435
2640000000.0 0.49167084145437245 0.36223142575762873
2660000000.0 -0.6236958486182891 0.05037790660215887
2680000000.0 0.07401621074309396 -0.62931440747381
2700000000.0 0.624642799448198 -0.1519650478724899
2720000000.0 0.6379020296650457 0.10877664667391523
2740000000.0 0.6228657805575194 0.18019515914696235
2760000000.0 0.6010355083483939 0.24621915055613405
2780000000.0 -0.4230117598508997 0.48495686783728564
2800000000.0 -0.6160793487637816 0.1529907245334888
2820000000.0 -0.41520272810681436 -0.46497566315729294
2840000000.0 0.557569935457294 -0.24659833720996002
2860000000.0 -0.41499266418726766 0.4249290130181179
2880000000.0 0.5468693614571347 -0.17300933541172703
2900000000.0 -0.25439487483726514 -0.489464390663215
2920000000.0 -0.52735728638119 0.024627642999422723
2940000000.0 -0.33317052116277734 0.3730996119240248
2960000000.0 -0.27098891100010275 0.3871661491778815
2980000000.0 -0.3331777414565138 0.29774943966962364
3000000000.0 -0.22931419834163858 0.35970342107012926
3020000000.0 0.11814730304777031 0.38636024646200995
3040000000.0 0.2828947883110158 0.2587402900652466
3060000000.0 0.31828706602385853 -0.18657674017487466
3080000000.0 -0.35514986398971005 -0.04337753370227757
3100000000.0 0.2622234619338753 0.22986171414247117
3120000000.0 0.25761159263903954 -0.22722456919566314
3140000000.0 -0.3089671995298108 0.14832013962331925
3160000000.0 0.34286939048096776 -0.0037662654779419733
3180000000.0 -0.34283524713104785 0.029554084693000044
3200000000.0 0.04211532667518797 0.34025154315622996
3220000000.0 0.2309783229822673 -0.2490834933303074
3240000000.0 0.10027484153677078 -0.31804029473463086
3260000000.0 -0.195973320286645 -0.26277106253381316
3280000000.0 -0.31624997116754083 -0.0067124622803016515
3300000000.0 -0.13911413101003292 0.2650391644586482
3320000000.0 -0.03872214471881635 0.2696996166305292
3340000000.0 -0.24132563858637607 0.0633282778553423
3360000000.0 -0.19584708760229608 0.10600351881132283
3380000000.0 -0.07644667669791633 -0.17700588255501348
3400000000.0 0.0007750562017255334 -0.167491322898928
3420000000.0 -0.01778393015776432 -0.14184928201993832
3440000000.0 -0.04756264532258932 -0.10895280031649654
3460000000.0 0.04721768157028245 -0.08202602203194148
3480000000.0 -0.0720895380678313 -0.030196856718205677
3500000000.0 -0.05332517290252983 -0.05043103247205661
3520000000.0 -0.06816552620475815 -0.020693234454803287
3540000000.0 0.03514431552922765 0.07031358228205464
3560000000.0 -0.06083925382142103 0.06001299751918832
3580000000.0 0.06183699866875439 0.07449734260474672
3600000000.0 0.0948506135404177 -0.04310146088165595
3620000000.0 0.10000537370691856 0.06546172370025316
3640000000.0 0.0635657028734556 -0.11853436016768985
3660000000.0 -0.07491800299587567 -0.12612544653258903
3680000000.0 0.11526118799690971 0.0987023814378777
3700000000.0 0.05791171358801773 0.13185437910637868
3720000000.0 0.11731291299400168 -0.051280283244157385
3740000000.0 0.0882659094354104 -0.052481648672079786
3760000000.0 -0.05539841474073109 -0.06048578345830908
3780000000.0 -0.013698961772263629 -0.05816279884624746
3800000000.0 -0.022188655851897426 0.01722227929238804
3820000000.0 -0.010089889584997914 -0.004298037762146319
3840000000.0 -0.03986668600317465 -0.024022272119340556
3860000000.0 -0.03592682444938762 0.06823440541649589
3880000000.0 0.07026849075925141 -0.07881818463747411
3900000000.0 0.12315631444795587 -0.038544289178183595
3920000000.0 -0.1400219241059294 -0.028294314334547488
3940000000.0 -0.07165563975323914 0.13461008969817595
3960000000.0 0.11514237087023153 -0.10884110608755525
3980000000.0 0.1446209369343766 0.03239772542490304
4000000000.0 -0.004925362894121171 -0.1242446010115499
