!Created with skrf (http://scikit-rf.org).
# Hz S RI R 50.0 
!freq ReS11 ImS11
400000000.0 0.851040593365697 -0.21762326601526236
420000000.0 0.770827151446765 -0.3112923905309082
440000000.0 0.39467208540834475 -0.6639838698340694
460000000.0 0.11315077291462869 0.6841660812890097
480000000.0 0.39352446469903324 -0.4397711204665655
500000000.0 0.527636495512562 0.3406741490119509
520000000.0 0.37552498266837075 -0.5197753852037087
540000000.0 -0.1682508418586994 -0.5847074595464242
560000000.0 0.6141842224894725 -0.003778015247944726
580000000.0 0.24638521909422811 0.46146346380869085
600000000.0 -0.3565197841119947 0.4847130952228396
620000000.0 -0.3101093146816417 -0.5270902617847542
640000000.0 -0.5646820558358125 -0.01679926344273281
660000000.0 0.17747035455310395 0.48040564756171567
680000000.0 0.39644595225921586 -0.2611604101849993
700000000.0 -0.1518913835772257 0.47409587110827917
720000000.0 0.4740558858151216 0.16838953678607002
740000000.0 0.45808977456381555 0.14135087859398265
760000000.0 0.3758005947583916 0.24731215225121317
780000000.0 -0.2848067897134531 -0.3414794720836344
800000000.0 0.12349235805297226 -0.39121971339857936
820000000.0 0.2762247080964628 0.2348793539399757
840000000.0 -0.3183561525339529 0.09510147180244885
860000000.0 0.287691534027046 -0.11765880602326512
880000000.0 0.22295288250133505 0.17824446753602452
900000000.0 0.2656540621613716 0.07484635132602614
920000000.0 -0.06959574458415389 -0.24321330637997018
940000000.0 0.16341546310155752 -0.1381452022834481
960000000.0 0.022343322003891188 0.16580484720814231
980000000.0 -0.058055220546438045 0.13280279597800346
1000000000.0 -0.11051961896261071 0.08294101853046668
1020000000.0 -0.10139296167620161 -0.04146650002254789
1040000000.0 0.046458537279350454 0.11585117035760559
1060000000.0 -0.010520362588987265 0.15153620664847212
1080000000.0 -0.1884350925466545 0.08788340586094473
1100000000.0 -0.231300971843607 -0.0962741365752448
1120000000.0 -0.26230597257428473 0.10139048644722656
1140000000.0 -0.19910893959735085 0.22849517952750903
1160000000.0 0.13610518802380656 0.30333697477798316
1180000000.0 0.12443795983239336 0.3175040641920516
1200000000.0 -0.3427212164117968 0.08945528014583172
1220000000.0 0.28088278121881405 -0.23454825545575558
1240000000.0 0.3754071190900666 -0.06384578118915751
1260000000.0 -0.018362522260680934 -0.3960813089204572
1280000000.0 -0.2901277976968261 0.23911894572203635
1300000000.0 0.08286575370740479 -0.3546426065505697
1320000000.0 0.34807285885461997 -0.14511153670581967
1340000000.0 -0.3484007094529028 0.12490488097082526
1360000000.0 0.3270738892883862 0.20069053193958714
1380000000.0 -0.13336269196197975 0.3672847054121739
1400000000.0 -0.059116399597004717 -0.37940697665353423
1420000000.0 0.25372536162955317 -0.2872926510950275
1440000000.0 -0.04126733567241522 -0.3861198041749635
1460000000.0 -0.28581689315119846 -0.26304147937873906
1480000000.0 -0.18953408504113553 -0.3438872292155072
1500000000.0 -0.2946852500704082 0.2562744297640213
1520000000.0 0.2062297348950301 -0.3254632520963433
1540000000.0 0.006182332147748544 0.3647663607452641
1560000000.0 -0.29532774738586526 -0.14553458706646938
1580000000.0 0.2853919037949757 0.06653783792695091
1600000000.0 0.24774417513232785 0.08875323475752134
1620000000.0 0.11804818577541129 0.17702328513232385
1640000000.0 0.04631189722512244 0.1804248857296063
1660000000.0 0.13739302815872612 -0.08007987989876798
1680000000.0 -0.09859595567420325 -0.07276619701806414
1700000000.0 0.0912764242305537 -0.07177777572044909
1720000000.0 0.08890384144662287 -0.02397277171954049
1740000000.0 -0.017763532879868094 -0.08253700942561022
1760000000.0 0.045215706442809124 0.07881520567092519
1780000000.0 -0.06797684696673373 0.08287510395744033
1800000000.0 0.05606519132583433 0.11774314384924535
1820000000.0 0.11684180588997518 0.10980231667742986
1840000000.0 -0.08041634499771325 -0.17430346644856703
1860000000.0 -0.06415557789589216 0.20702734089401684
1880000000.0 0.22601894971166855 0.11735062707975785
1900000000.0 0.25218635452746163 -0.10316905619251485
1920000000.0 0.1041750210901216 -0.2722136469671692
1940000000.0 -0.30272843440911384 0.0376359468789405
1960000000.0 0.19341065669094756 -0.24219242438324154
1980000000.0 -0.30979556620397714 0.03519718664095796
2000000000.0 0.05248248731539605 -0.3161706104211516
2020000000.0 0.2537668492700158 -0.1998188875914228
2040000000.0 0.32103772762863686 0.037405469568117536
2060000000.0 0.2444680936271262 0.21031338671964991
2080000000.0 0.06768064369351208 0.31882752683716403
2100000000.0 -0.08699321314491551 -0.31177089217069376
2120000000.0 0.228721904914214 0.22205448112504153
2140000000.0 -0.270560510946557 -0.17285575841101916
2160000000.0 0.2064605486561931 0.2415613005783928
2180000000.0 0.282763105330484 -0.12428372810024965
2200000000.0 0.22797358285653532 -0.2049981962918794
2220000000.0 -0.0507100799141568 -0.29382169903254485
2240000000.0 0.27985936020102015 -0.07268385876887681
2260000000.0 -0.05165619734093973 0.27080728266911985
2280000000.0 -0.1841278313989427 0.19608873945965868
2300000000.0 -0.056226128844010625 -0.24389688461992326
2320000000.0 -0.1482692744911453 0.19556274921053254
2340000000.0 -0.0055982646396208575 -0.2432050622986585
2360000000.0 0.04752297159791308 0.23896598894658957
2380000000.0 -0.08954981259696199 -0.2398246949594483
2400000000.0 -0.2595227162441723 0.11003592588824732
2420000000.0 0.2637119595516252 0.14673636184321343
2440000000.0 -0.17711173639607522 -0.2745837312503569
2460000000.0 0.20150489834264723 0.29324482566311344
2480000000.0 0.19170940043975362 -0.34064613525303056
2500000000.0 0.256540874937844 0.341645281647957
2520000000.0 -0.4236284869992276 0.18864484451058938
2540000000.0 0.20877371094283387 -0.4479638064706886
2560000000.0 0.09092642217134558 0.5176155695029144
2580000000.0 -0.19594450865140303 -0.5165093996536483
2600000000.0 0.3260096093188553 0.4747709891659695
2620000000.0 -0.38990927218094906 -0.449598406206667
2640000000.0 0.49972264439429104 0.35108611931734635
2660000000.0 -0.6218135844571386 0.068923828171557
2680000000.0 0.0841419511233113 -0.6281649923326071
2700000000.0 0.6238533200533867 -0.15662342141646712
2720000000.0 0.6314834149177238 0.14122875288000944
2740000000.0 0.6231074821410273 0.17981024455888742
2760000000.0 0.6026150464193748 0.24216613858751712
2780000000.0 -0.44327638166199884 0.46653942059419157
2800000000.0 -0.6140487366111583 0.1612805141774056
2820000000.0 -0.41533583955136993 -0.4646342786395813
2840000000.0 0.5635244045429585 -0.23269242015133804
2860000000.0 -0.38740865355618126 0.44944754697019806
2880000000.0 0.5484282959842955 -0.1696722395308177
2900000000.0 -0.2710009973978912 -0.4809037852563575
2920000000.0 -0.5205366743799635 0.08626659562255592
2940000000.0 -0.32063903299922136 0.38224869957521246
2960000000.0 -0.33676946980340816 0.3325099813019902
2980000000.0 -0.277725750244223 0.351544502961935
3000000000.0 -0.17881480871260313 0.3850503019402493
3020000000.0 0.07126021175753643 0.3976573680536206
3040000000.0 0.29150500997964107 0.24974204330795902
3060000000.0 0.2338297539643183 -0.2846068031975027
3080000000.0 -0.34817392983509626 -0.08339763823244231
3100000000.0 0.2569860567728253 0.23427077968518983
3120000000.0 0.25728205392940484 -0.2289016818047283
3140000000.0 -0.2976435699834839 0.1716842939674595
3160000000.0 0.3384668261549682 -0.05172708850666528
3180000000.0 -0.3443452924452399 0.0019223403342094026
3200000000.0 0.0539086579308212 0.33909354217529036
3220000000.0 0.23714759015550688 -0.24264229729783524
3240000000.0 0.10878910159012783 -0.3153032497239417
3260000000.0 -0.21247005312308226 -0.2484019381623919
3280000000.0 -0.31455338115481907 0.031853254257674185
3300000000.0 -0.15862625461152044 0.2546617507644879
3320000000.0 0.010617472355660611 0.27262263598917325
3340000000.0 -0.24485108431395303 0.04860042063547502
3360000000.0 -0.18137471498633873 0.1279679154273507
3380000000.0 -0.051806678256122174 -0.18670254180007242
3400000000.0 0.009419843321207953 -0.16881475302124738
3420000000.0 -0.04431219562891464 -0.13456757200696345
3440000000.0 0.012817222315226272 -0.11813348041163803
3460000000.0 0.0899546255834767 -0.03120798755702788
3480000000.0 -0.07708646944616403 0.014452509691565177
3500000000.0 -0.04127352498634056 -0.059724487169815155
3520000000.0 -0.042975001555055424 -0.05691342503271717
3540000000.0 0.059514569273297055 0.052243801801643404
3560000000.0 -0.055166229569692096 0.06413484426033263
3580000000.0 0.039377952119861746 0.0875468880016454
3600000000.0 0.0956884865379283 -0.042287340025886404
3620000000.0 0.10741949992334088 0.055263766695757444
3640000000.0 0.0094648216608813 -0.13351933215276826
3660000000.0 -0.10841673506502197 -0.09870534940626743
3680000000.0 0.05011408083061977 0.14333567116310414
3700000000.0 0.05745979038970017 0.13317816635418128
3720000000.0 0.12842485585365893 -0.012607005617839125
3740000000.0 0.06174682722594061 -0.0830104177748746
3760000000.0 -0.049584729095636104 -0.06342968332699467
3780000000.0 0.0596541237591586 0.0008555697888958268
3800000000.0 -0.014874508316797826 -0.024169367820258483
3820000000.0 0.01073530181315359 -0.0029043984952831703
3840000000.0 0.020454913628843045 -0.04430222936309359
3860000000.0 0.021862391747316787 0.07575422836306447
3880000000.0 0.02320617236405594 -0.10254728538959505
3900000000.0 0.09909059360640517 0.08173824139908578
3920000000.0 -0.11968189639693871 -0.0811373041411609
3940000000.0 -0.04974324534624773 0.1443477923850437
3960000000.0 0.14962082821927364 -0.04957484186149134
3980000000.0 0.08198741961654916 0.12268728636206026
4000000000.0 -0.009280711930703692 -0.12412777096773553
