!Created with skrf (http://scikit-rf.org).
# Hz S RI R 50.0 
!freq ReS11 ImS11
400000000.0 0.8588143618552583 -0.18336376953044717
420000000.0 0.786377316403843 -0.27123638424230706
440000000.0 0.3866163271529769 -0.6697422263086013
460000000.0 0.2652148800390721 0.6397416388421794
480000000.0 0.3765258878546655 -0.4530702989328363
500000000.0 0.5565356639635756 0.2916986421658952
520000000.0 0.5094809213740485 -0.38683790183889527
540000000.0 -0.031480051695029626 -0.6111656523761763
560000000.0 0.6089200212810891 -0.11185089425568812
580000000.0 0.4711891688697337 0.21445542585757446
600000000.0 -0.41772022461914676 0.4251796528270074
620000000.0 -0.036666156327366146 -0.6088695592438852
640000000.0 -0.376481549040545 -0.421656202283735
660000000.0 0.22366705618451066 0.4689076286928482
680000000.0 0.18725239222493736 -0.4354759249163971
700000000.0 0.22971882918813916 0.4360550275120372
720000000.0 0.4901753927576615 0.08180593849471297
740000000.0 -0.12668035947892523 0.4588980817257292
760000000.0 0.3650741299576545 0.283614229130434
780000000.0 -0.44087114113415227 0.04980345302402193
800000000.0 -0.04463287998370104 -0.4079480741220958
820000000.0 0.3339894141137938 0.13244683086313333
840000000.0 -0.3280461666797179 0.05340017969351729
860000000.0 0.3017890507220151 0.0650570867844475
880000000.0 0.22085884071583234 0.18501646133959623
900000000.0 0.2694620418990292 0.06013200205150628
920000000.0 -0.0007313268740091049 -0.25285729130942275
940000000.0 0.08250199418969793 -0.20423698719800057
960000000.0 0.026924765553591478 -0.1651925968056743
980000000.0 -0.06385496362917836 0.11607231131747894
1000000000.0 0.02604975526199058 0.12943002738424378
1020000000.0 -0.11354424494239723 -0.02985366390536757
1040000000.0 0.08451280671497416 0.10797182607819095
1060000000.0 -0.1381242742916196 0.0697159048246826
1080000000.0 0.16001875149219266 0.12038713797755488
1100000000.0 -0.17713378155941562 -0.16546872168629256
1120000000.0 0.059657467055683665 -0.2746360428856195
1140000000.0 -0.2519156648985657 0.181303220513484
1160000000.0 0.3321140824955952 0.030924840705169016
1180000000.0 0.11873246270738386 0.31396473640319567
1200000000.0 -0.356442683732104 -0.0076774641089889
1220000000.0 0.24576285982978324 -0.27243314918183575
1240000000.0 0.3527389978066186 -0.1343305967854188
1260000000.0 0.1933066272466974 -0.3449141802330826
1280000000.0 -0.310502867861351 0.22430628519304616
1300000000.0 -0.15505518568730017 -0.32947897361776135
1320000000.0 0.2645921051978398 -0.2630961797610502
1340000000.0 -0.36753827137724737 -0.026583504730888285
1360000000.0 0.14809204444598112 0.35646397988094836
1380000000.0 -0.06937059418109832 0.3874303900632424
1400000000.0 -0.08002231470396816 -0.37450311711212775
1420000000.0 0.3167918521337624 -0.2126866860515191
1440000000.0 0.0019058570574535456 -0.388338599558831
1460000000.0 -0.3169107849354756 -0.22521434029980844
1480000000.0 -0.20090202554356043 -0.33634541397339873
1500000000.0 -0.35651806570480044 0.16234989074396283
1520000000.0 0.07788176868534619 -0.3784741342930915
1540000000.0 0.11237546876996257 0.3437956370819289
1560000000.0 -0.21795451661167486 -0.24710642257823567
1580000000.0 0.2760055460317845 0.10940041136440205
1600000000.0 0.24818918705549448 -0.08297202856960235
1620000000.0 0.06562379951217918 0.20135605738897971
1640000000.0 -0.00887874059798627 0.18695232024836034
1660000000.0 0.07719727420108445 -0.14088625574625302
1680000000.0 -0.11946600157751462 0.0037802278563785975
1700000000.0 0.11297019809143241 0.029673602167967137
1720000000.0 0.0880274254874546 -0.03016949159052353
1740000000.0 -0.0808167190242976 0.02022778707371746
1760000000.0 -0.08643064765714208 0.02467629487969813
1780000000.0 -0.07515929027968608 0.07813634785635792
1800000000.0 0.029962860156670733 0.1265204035781971
1820000000.0 0.13154776250180197 0.09158128926660597
1840000000.0 0.0403873883381825 -0.18597224462739806
1860000000.0 0.043956193732133934 0.21375855960091616
1880000000.0 0.20535471331621943 0.14711435644308102
1900000000.0 0.22001055949822135 -0.16406386921567462
1920000000.0 0.002268286473477245 -0.2913408571700487
1940000000.0 -0.3051736988196634 0.01592483402878454
1960000000.0 0.2163373275053074 -0.22132806632086885
1980000000.0 -0.31383095692771884 0.003639179699483794
2000000000.0 0.07420325387512433 -0.3114493602396087
2020000000.0 0.2218105945405848 -0.2359289268007338
2040000000.0 0.32201130096567565 0.016556783514907015
2060000000.0 0.2354091511214181 0.21758392273027236
2080000000.0 0.04708349897040763 0.32394117864622307
2100000000.0 -0.15777652902456524 -0.28368594661694374
2120000000.0 0.2819734572141214 0.14750394079688584
2140000000.0 -0.2822236597212809 -0.151233341681322
2160000000.0 0.18969511353940008 0.2559844977276693
2180000000.0 0.27509292327972706 -0.14068567191619563
2200000000.0 0.25035916672244235 -0.17609594853914493
2220000000.0 -0.06378855342873398 -0.293328064519122
2240000000.0 0.2691554299031667 -0.10537141982462667
2260000000.0 -0.0268410676357563 0.27350740585690575
2280000000.0 -0.2512936676417265 0.09125784279812446
2300000000.0 0.03928567194688496 -0.24920530513601857
2320000000.0 -0.005002341254771928 0.24519868209717507
2340000000.0 -0.028069754426071465 -0.2399477835216766
2360000000.0 -0.0441479530347343 0.238616562184446
2380000000.0 -0.03827944758449849 -0.25380286470713964
2400000000.0 -0.27967091218981255 0.04029111827095754
2420000000.0 0.28936277659659726 0.08237903345502433
2440000000.0 -0.24840600650314584 -0.2116117734477692
2460000000.0 0.1417585552514166 0.3267377645116038
2480000000.0 0.22471846796398703 -0.32062636317394677
2500000000.0 0.21969943263287123 0.3661999203209375
2520000000.0 -0.4325210468951428 0.16589300094689602
2540000000.0 0.21660711716732184 -0.4449411176410614
2560000000.0 0.11406105777449925 0.5130299929121118
2580000000.0 -0.19746110910249157 -0.515212671839569
2600000000.0 0.2710973060898945 0.5086296106650571
2620000000.0 -0.3539290502541677 -0.4784911746327389
2640000000.0 0.5077986459945115 0.3387805052607125
2660000000.0 -0.6213096907461603 0.07814267581815111
2680000000.0 0.10539698204807585 -0.6248634191978243
2700000000.0 0.6266641186200094 -0.14224290545009674
2720000000.0 0.6364216035871687 0.11448358453538567
2740000000.0 0.581285263711969 0.2871390785462236
2760000000.0 0.5426779024064262 0.3549612590573074
2780000000.0 -0.46071128646647785 0.44905457932452564
2800000000.0 -0.6259907889159544 0.10474216314272794
2820000000.0 -0.4462626807844858 -0.4346145069104767
2840000000.0 0.5504365485628464 -0.26233211530423556
2860000000.0 -0.3861772494921145 0.45032654071065786
2880000000.0 0.541505604136863 -0.18831093573867633
2900000000.0 -0.25639994405917993 -0.4896251196055781
2920000000.0 -0.518815317977943 0.099591220802779
2940000000.0 -0.33778061333957743 0.3679086142627978
2960000000.0 -0.332602740906732 0.33699297895628977
2980000000.0 -0.3013339286469957 0.33057209784368374
3000000000.0 -0.22320733393719736 0.36304248318541077
3020000000.0 0.09151136564406195 0.39399446338852867
3040000000.0 0.2617789093278097 0.28017783397808543
3060000000.0 0.2843444315619377 -0.2344956596936644
3080000000.0 -0.3436607038800421 -0.09900128356661464
3100000000.0 0.227816431055591 0.26316911515783364
3120000000.0 0.2691091874122805 -0.2132577105616591
3140000000.0 -0.2959151598477777 0.1717262345780874
3160000000.0 0.3418041409160126 -0.013154636229392926
3180000000.0 -0.34477885219028076 0.020218295079995972
3200000000.0 0.06025707231101869 0.33811829808840244
3220000000.0 0.2557579572710549 -0.22329669178423178
3240000000.0 0.12032169178970545 -0.31194790054842797
3260000000.0 -0.16883332609943166 -0.2801455538622885
3280000000.0 -0.3145450520635484 0.03406106005380129
3300000000.0 -0.17135699985216868 0.24636953044238952
3320000000.0 -0.02417860171211987 0.2713665191285667
3340000000.0 -0.24369540472397 0.05371233416648589
3360000000.0 -0.2056414213879525 0.08216500516071755
3380000000.0 -0.08437734500445686 -0.17378555837673954
3400000000.0 -0.018301479398699465 -0.16723344228007153
3420000000.0 -0.07801648933043431 -0.1183044495366899
3440000000.0 -0.03239318740423024 -0.11404567004844061
3460000000.0 0.06538182334660075 -0.06993188266519945
3480000000.0 -0.07834132393869903 -0.0008861812801247449
3500000000.0 -0.057224283615819015 -0.04631520979210478
3520000000.0 -0.05948570488316168 -0.038888342502379526
3540000000.0 0.05053040611393548 0.06155024533010685
3560000000.0 -0.0629842061837641 0.05829940221551528
3580000000.0 0.07257614874080139 0.06404463263287544
3600000000.0 0.1020649897358116 -0.023411598572785984
3620000000.0 0.09811995453981681 0.06982426120249938
3640000000.0 0.07888746228973377 -0.10856660660987498
3660000000.0 -0.07324049344413773 -0.12774372904599057
3680000000.0 0.065126049460735 0.13623287901430584
3700000000.0 0.09225577357615143 0.11001283147026611
3720000000.0 0.12733578050021316 -0.014647644267966779
3740000000.0 0.09404866552987125 -0.0436556625119576
3760000000.0 -0.0791942125269835 -0.015149937391243463
3780000000.0 0.05232245583191309 -0.027792460406825183
3800000000.0 -0.009249784320991161 -0.02703088427002294
3820000000.0 -0.010488592370765826 0.003938256877135903
3840000000.0 0.004322719961369503 -0.04634476111235174
3860000000.0 -0.054340819811100574 0.05598588778947572
3880000000.0 -0.06874919638910269 -0.08171202428973354
3900000000.0 0.1215976060086516 -0.0361504474721071
3920000000.0 -0.09306960629444418 -0.10950908134666165
3940000000.0 -0.06689083374915751 0.13833620599287735
3960000000.0 0.07387666098616168 -0.14091601495535674
3980000000.0 0.1171110030958663 0.08768603927625235
4000000000.0 0.06334798445754596 -0.10674382897461598
