!Created with skrf (http://scikit-rf.org).
# Hz S RI R 50.0 
!freq ReS11 ImS11
400000000.0 0.8559230278899217 -0.19647008766169027
420000000.0 0.7859115387835525 -0.2721307456941823
440000000.0 0.44972172078655054 -0.6283038125343883
460000000.0 0.20327943337646093 0.665539244759443
480000000.0 0.391589924214755 -0.44180555696091645
500000000.0 0.5685916728065397 0.2640889296863152
520000000.0 0.4322372421056758 -0.4696742530951908
540000000.0 0.17757174583932686 -0.5797084039773494
560000000.0 0.5933151311691648 0.1796982423859278
580000000.0 0.5243103080041562 0.04271669846691012
600000000.0 -0.10793394173492857 0.586937197428175
620000000.0 -0.3561130337055567 -0.4837551414745985
640000000.0 -0.2747114204477097 -0.4875773954371677
660000000.0 -0.3129976772845611 0.4166405154229413
680000000.0 0.07677939786436394 -0.4759240477283095
700000000.0 0.3793512604137112 0.31511119697556733
720000000.0 0.49205174279740366 0.0889960410614271
740000000.0 0.4069790273949173 0.23791981400458073
760000000.0 0.014564057252170571 0.4553551667938334
780000000.0 -0.3288013315950766 -0.3022683224495798
800000000.0 0.01778446244249962 -0.41244946957435674
820000000.0 0.35197505604498325 -0.08723835349190741
840000000.0 -0.29568443074945444 -0.14403896640889968
860000000.0 0.3087412549885135 -0.042953727799336955
880000000.0 0.2396097767242015 0.15073832377625376
900000000.0 -0.0077614150413442004 0.2735637224378478
920000000.0 -0.09273982066340428 -0.24055717261027448
940000000.0 0.06954835282052917 -0.2060984868465005
960000000.0 0.0937415797847975 0.13829982516717407
980000000.0 0.009760284574427493 0.14090357363061928
1000000000.0 -0.1301851778633211 0.027675227608786435
1020000000.0 0.004467280379429227 0.10839188717338637
1040000000.0 -0.12028821648199889 0.041999693613449254
1060000000.0 0.15598588761695287 -0.01586624141623395
1080000000.0 -0.030017320691427648 0.20356834962036668
1100000000.0 -0.24703919356454201 0.01710009813529138
1120000000.0 -0.1798224988683254 -0.21108049105682294
1140000000.0 -0.2377065060743559 0.19790172820280003
1160000000.0 0.3205406270718742 0.08138822144962192
1180000000.0 0.09384633012318404 0.32564307000373727
1200000000.0 -0.33390976142164097 -0.12406433991921302
1220000000.0 0.288783588117661 -0.22764231067366966
1240000000.0 0.27433956017268374 -0.26557094406832643
1260000000.0 -0.0686700905867213 -0.3870246105322643
1280000000.0 -0.376416578524475 0.035537736434943734
1300000000.0 -0.030959339329442802 -0.36511079758142984
1320000000.0 0.2520171364207253 -0.27972344141067623
1340000000.0 -0.36129179972616887 0.06329142128077975
1360000000.0 0.19797181622915191 0.33183031068223806
1380000000.0 -0.10926032475659614 0.37608936825908007
1400000000.0 -0.05647914705359375 -0.3782078126819426
1420000000.0 0.313215468332779 -0.22153919796915583
1440000000.0 -0.05918868817885779 -0.38219248440484044
1460000000.0 -0.25954688091416245 -0.29005817638730774
1480000000.0 -0.14847741653082513 -0.36468813601993305
1500000000.0 -0.29286557394621193 0.2574273646308635
1520000000.0 0.09275119940525724 -0.37323209783709443
1540000000.0 -0.02950698804341256 0.36333021914478847
1560000000.0 -0.2942458742453229 -0.15006740172477215
1580000000.0 0.2883497029036321 0.055355235734149195
1600000000.0 0.2616109765697073 0.03365151024475243
1620000000.0 0.10952593776288201 0.1803738032592653
1640000000.0 -0.04104442726376274 0.18268284688564126
1660000000.0 0.05982117253751391 -0.14954009715689937
1680000000.0 -0.11311220284271138 0.03968284199966846
1700000000.0 0.06917343190391742 0.09422449846408407
1720000000.0 0.09366816603308811 -0.005026988832541249
1740000000.0 -0.07872814969552817 -0.02455653410896811
1760000000.0 -0.07611984210967625 0.0504513971122964
1780000000.0 -0.044073997543046736 0.09963805025946447
1800000000.0 0.09229079822495713 0.08909906246479429
1820000000.0 0.1148605274995534 0.11027634764282979
1840000000.0 -0.014388945398101958 -0.19231478103893998
1860000000.0 0.04176085791326935 0.21356943003222326
1880000000.0 0.22839201695400493 0.10701589320283225
1900000000.0 0.2670351620407076 -0.05852372550591222
1920000000.0 0.025489209406430048 -0.28990250002373985
1940000000.0 -0.3066601906501783 0.0038619846419718066
1960000000.0 0.15418765645411614 -0.2689205201849823
1980000000.0 -0.3065531615686862 0.06054448778989531
2000000000.0 0.05636757853276257 -0.31387029762607843
2020000000.0 0.302547584204599 -0.11796977875092705
2040000000.0 0.3191846427551833 0.054703363232101225
2060000000.0 0.2585009358690997 0.19127166730687484
2080000000.0 0.10425884321180708 0.3092205318043066
2100000000.0 -0.12110198064385723 -0.2998261315143775
2120000000.0 0.27989580977405754 0.15074576248352586
2140000000.0 -0.2688199789168631 -0.1754135915091998
2160000000.0 0.205624955643622 0.2427462449467828
2180000000.0 0.2710464714627461 -0.1499661396298004
2200000000.0 0.19636383894050383 -0.23481663065162403
2220000000.0 -0.009117150025199623 -0.2980904074158472
2240000000.0 0.2867509131690301 -0.037258901333297206
2260000000.0 -0.03153261512903449 0.2738127248103156
2280000000.0 -0.19399394877491521 0.18630809255486366
2300000000.0 -0.04814321486936581 -0.24648982610685152
2320000000.0 -0.1113802622712531 0.21734515982515343
2340000000.0 -0.018168799359732236 -0.24231181727375808
2360000000.0 -0.01839045166254076 0.24340474138061005
2380000000.0 -0.09775239297537225 -0.23728035279722498
2400000000.0 -0.27694482583811164 0.04976618086385951
2420000000.0 0.2802551150067495 0.1134289776910206
2440000000.0 -0.2489593900644711 -0.21023940293839377
2460000000.0 0.16452933264215294 0.3156410547426418
2480000000.0 0.21489665353962636 -0.3282175195118699
2500000000.0 0.30751206401481435 0.2965819654088801
2520000000.0 -0.43578526967722253 0.15621857577761566
2540000000.0 0.20377531269126445 -0.45044359726670025
2560000000.0 0.09288118818855089 0.517615444595096
2580000000.0 -0.18319200148390083 -0.5204415534906033
2600000000.0 0.2991912295049006 0.49190570676208223
2620000000.0 -0.4032438500909202 -0.43804020794859827
2640000000.0 0.5092321648669879 0.33705147207812686
2660000000.0 -0.6242095407072926 0.044741300935933245
2680000000.0 0.026934319650040704 -0.6328300899725623
2700000000.0 0.6142156427408262 -0.18983926219569092
2720000000.0 0.6320036375502333 0.1398416293802574
2740000000.0 0.6212591661519485 0.1863706266969259
2760000000.0 0.5882155294463874 0.275945544019951
2780000000.0 -0.4675601486650974 0.4416649189836417
2800000000.0 -0.6124809187083657 0.16612691715699165
2820000000.0 -0.428759285171167 -0.45217093099189265
2840000000.0 0.565076301603393 -0.22930691287439744
2860000000.0 -0.3917159994384934 0.44636631385645825
2880000000.0 0.552808544510494 -0.1526057087912779
2900000000.0 -0.24697981210350597 -0.4936178826600502
2920000000.0 -0.5211888045195917 0.08265762270656891
2940000000.0 -0.29425884450148443 0.40380856980054913
2960000000.0 -0.30718375617730287 0.36024169863790195
2980000000.0 -0.313302295890713 0.3187285647757749
3000000000.0 -0.2688961141261968 0.33079459383267146
3020000000.0 0.13313662626383171 0.3815764515027173
3040000000.0 0.3201534337140203 0.2102698879481611
3060000000.0 0.29794386071175283 -0.21712456104916414
3080000000.0 -0.3541147652447968 -0.05013113551887494
3100000000.0 0.23028666158428002 0.26098330669599956
3120000000.0 0.23664244771303108 -0.24953446240866817
3140000000.0 -0.29381540203974604 0.1762180032350164
3160000000.0 0.3420078285035237 -0.007100420006610347
3180000000.0 -0.3432535099450225 0.030957759368202952
3200000000.0 0.07456307549756891 0.33488208247981494
3220000000.0 0.23483551064586214 -0.24559939657984076
3240000000.0 0.08123350223629537 -0.3233571950300224
3260000000.0 -0.2000316049852391 -0.2596863020824702
3280000000.0 -0.3156851960107653 0.015875704116973068
3300000000.0 -0.15812786112863692 0.2544572493168771
3320000000.0 -0.028884302188200452 0.271140902792712
3340000000.0 -0.24642205300340989 0.038306915799712356
3360000000.0 -0.178507470106973 0.1315185355464885
3380000000.0 -0.08665359809502415 -0.17207986900467132
3400000000.0 0.013092847847925785 -0.16675621050073408
3420000000.0 -0.024197464040243703 -0.14061879074412725
3440000000.0 -0.051166574803077194 -0.1074324192647328
3460000000.0 0.028976689784041533 -0.09007830089493225
3480000000.0 -0.07786329246062476 -0.0041293717250939456
3500000000.0 -0.05500227361035869 -0.048358664529794135
3520000000.0 -0.07020275527621976 -0.014623072317766885
3540000000.0 0.05443547557261943 0.05728290595061361
3560000000.0 -0.050397265436977055 0.0690332492104855
3580000000.0 0.04489360108194454 0.0858213238219069
3600000000.0 0.10083588304164028 -0.028748566099279463
3620000000.0 0.09783451057259987 0.06976506035496716
3640000000.0 0.06421188525484 -0.11772893999505693
3660000000.0 -0.06132225523626455 -0.13291930540232505
3680000000.0 0.08783987004875798 0.123661659581015
3700000000.0 0.06970508701469322 0.1260663476747548
3720000000.0 0.11046011588008865 -0.06383918190393358
3740000000.0 0.08560905875491255 -0.05615984347067986
3760000000.0 -0.05117971572302439 -0.06367082376792149
3780000000.0 -0.00590639254775562 -0.0593567341079025
3800000000.0 -0.016583161596094863 0.022373239186840574
3820000000.0 0.006717742447483996 -0.008942386860820967
3840000000.0 -0.03802749270093682 -0.027083154860588064
3860000000.0 -0.04790715770810667 0.06066189378103365
3880000000.0 0.06610918066885575 -0.0819320318799094
3900000000.0 0.12823330600093175 -0.01638942475229698
3920000000.0 -0.14251831281159008 0.0004083922132975312
3940000000.0 -0.10777050901096906 0.10654041841232059
3960000000.0 0.15582997073943985 -0.026172755689016138
3980000000.0 0.1417698824520688 0.0412752447019012
4000000000.0 -0.038579664380623914 -0.1163298134082575
