!Created with skrf (http://scikit-rf.org).
# Hz S RI R 50.0 
!freq ReS11 ImS11
400000000.0 0.1929824018695786 -0.8307130227185637
420000000.0 0.5023247980541626 0.6037597150180911
440000000.0 0.7753834985459142 -0.04171339663624038
460000000.0 0.25724424068069823 0.5972270674170215
480000000.0 -0.4958113313185522 0.4066618110565336
500000000.0 -0.5600468975625417 0.2288279243312892
520000000.0 0.5498796906793435 -0.2932933412274441
540000000.0 0.43101910182877856 -0.39663921022564663
560000000.0 0.5681468667940442 0.1346505828536132
580000000.0 0.5501228500715822 -0.1766184275856382
600000000.0 0.4160559646104019 0.45370603478401905
620000000.0 0.6085588676784427 -0.11708333086305839
640000000.0 0.5307242508917581 -0.2297252380263317
660000000.0 -0.20329910726760836 -0.5028563720198111
680000000.0 0.20392049029864928 -0.47773668455116564
700000000.0 0.4879637193557012 0.13089447364009346
720000000.0 0.5054612587168446 0.09090538226302382
740000000.0 0.4753961543658348 -0.09173464342838213
760000000.0 0.4706543216784666 0.00996050764689397
780000000.0 0.25702849533912814 0.3596160266502054
800000000.0 -0.07346288610654597 0.38867813541912655
820000000.0 0.022458811787185586 0.36407410438638943
840000000.0 0.19687273118401477 0.27381549819846335
860000000.0 -0.31797863587869013 -0.024834801453143974
880000000.0 -0.27443522340022136 -0.0646313112450708
900000000.0 0.25341682772800983 -0.11505130730832462
920000000.0 0.16416570724515234 0.21095776093636182
940000000.0 0.09508753403402993 0.20190325516353447
960000000.0 0.06736058609035649 -0.16181694638242872
980000000.0 0.1176972864355646 -0.07775292633964889
1000000000.0 -0.040767344912259224 -0.1285929366475353
1020000000.0 0.03155116497944367 0.11817992909680013
1040000000.0 0.11822518086281891 0.06785737247510439
1060000000.0 -0.06473694451069285 0.14213120233255186
1080000000.0 -0.12064819547200505 -0.16345325272584457
1100000000.0 -0.24391483218847843 -0.009402624097930303
1120000000.0 -0.26073149406192586 0.12005951536324225
1140000000.0 0.28950915404433636 -0.061688863990762684
1160000000.0 0.04857120156524806 0.321226476812698
1180000000.0 0.33894082105482226 -0.002995482017800315
1200000000.0 -0.1264360962441301 0.31441543447058906
1220000000.0 0.09205456908699299 -0.3482121872353343
1240000000.0 -0.04175747763145354 -0.36842202513057604
1260000000.0 -0.3361181646678258 -0.17883178483606751
1280000000.0 -0.18508613042952227 0.3211498615471799
1300000000.0 -0.3465270517987939 -0.10508877535892892
1320000000.0 -0.037904968783881166 -0.3608655752504505
1340000000.0 -0.3347450456108023 0.12767846354372958
1360000000.0 -0.09027467615864125 0.35627257586953937
1380000000.0 -0.32178569645443333 -0.2133431050156148
1400000000.0 0.006154336756404105 0.37941837900779607
1420000000.0 -0.037234513928269986 0.37970142887209024
1440000000.0 0.26752358508070884 0.2831272949287974
1460000000.0 0.30729562910014496 0.2472987886458987
1480000000.0 0.3781744224361498 -0.14639491037918612
1500000000.0 -0.39619300643225686 0.07350115433975721
1520000000.0 0.18049397183465138 -0.34687490052979164
1540000000.0 -0.017961106817292422 0.3704659678328749
1560000000.0 -0.332036043670252 -0.043333594409432366
1580000000.0 0.2972616901462361 0.031907913879893876
1600000000.0 0.09526743030984962 0.25229167304591016
1620000000.0 -0.03497064894475167 0.2268601523577711
1640000000.0 0.13517272706115677 0.14580941839508385
1660000000.0 0.17529042367312733 0.011257788716545317
1680000000.0 0.04613101309256062 -0.13787112843914878
1700000000.0 -0.0260592362401003 -0.11971228567947304
1720000000.0 0.07837904560567001 0.043952185625270375
1740000000.0 0.06809115425444481 0.038576563469510376
1760000000.0 0.06439709925105003 0.046640135810366995
1780000000.0 0.07179654653404265 0.06569217672199301
1800000000.0 -0.06486090944191523 0.10394937620734938
1820000000.0 0.02370887818270644 0.1523213407052039
1840000000.0 -0.02101621486915795 -0.18276350786855922
1860000000.0 0.21103971271827449 0.06937992884660518
1880000000.0 0.17824917350018488 -0.18348342599424802
1900000000.0 -0.22243714312067728 -0.1713696058361824
1920000000.0 0.24945753925489583 0.17921994740470693
1940000000.0 -0.3069393282709959 0.07454817266061524
1960000000.0 0.3106778481461071 0.05088675694967506
1980000000.0 -0.30712124959848136 0.10849209450060424
2000000000.0 -0.2609099840228982 -0.19831481875626242
2020000000.0 0.20670315545085302 -0.2517792961484389
2040000000.0 0.2692932566452467 -0.19128431956920017
2060000000.0 0.28245022934184927 -0.16077019405463605
2080000000.0 0.2826769264512505 0.1570075305197373
2100000000.0 -0.26166871094472394 -0.16835211302860503
2120000000.0 0.13125447775044108 0.27922829725644194
2140000000.0 -0.18541546517971091 -0.24617590236993195
2160000000.0 -0.11052619629379914 0.2785691426861682
2180000000.0 0.17336179880514177 0.23976962149819073
2200000000.0 0.28599233641210386 -0.05022293229854828
2220000000.0 0.14827882031719467 -0.2407339723317368
2240000000.0 0.24308604258864824 0.12059298333596868
2260000000.0 -0.17101305436709244 0.19106115477934896
2280000000.0 -0.17019434175748982 -0.18691635535445456
2300000000.0 0.16693320020921448 -0.1727546434659634
2320000000.0 -0.22606058538887194 -0.048832595187448744
2340000000.0 0.20046122379586273 0.10565780613244456
2360000000.0 0.014757643324828347 -0.2355136549211768
2380000000.0 0.247935983210135 0.03200521850817817
2400000000.0 0.2114995776656411 -0.16889275642719415
2420000000.0 -0.28300853547935156 -0.08437481755837278
2440000000.0 0.1528669229630341 0.27703041711145354
2460000000.0 -0.33919313139293344 -0.07309318364201059
2480000000.0 -0.029133420659157798 0.37175771480497544
2500000000.0 -0.23230772669414873 -0.33547896707985947
2520000000.0 0.31453168740917986 -0.3134835821765901
2540000000.0 -0.02155671159143672 0.4715955971853298
2560000000.0 -0.2233062221297532 -0.44962234174334265
2580000000.0 0.2992199139739393 0.43698856150553045
2600000000.0 -0.3249387908645015 -0.44772320016199213
2620000000.0 0.17035248216901716 0.5493969909207247
2640000000.0 -0.125898579799354 -0.5827153567566717
2660000000.0 0.3644911509290616 0.494202633223679
2680000000.0 -0.6275155819916349 -0.04836778883258165
2700000000.0 0.0465195450578289 -0.641840548735971
2720000000.0 0.499827295953634 -0.4221816485681418
2740000000.0 0.6133689709632724 -0.2514002731950924
2760000000.0 0.6587339773638131 -0.10592025125394525
2780000000.0 -0.04064024549400543 0.6646679890935726
2800000000.0 -0.20012155795581277 0.6287827805384749
2820000000.0 -0.5408379935715723 0.359668719678351
2840000000.0 -0.4161220618195763 -0.482788111540025
2860000000.0 0.6235255790260359 -0.0029078555092413904
2880000000.0 -0.6026500835882359 0.052291937946567044
2900000000.0 0.4209321105506122 0.40318622210294874
2920000000.0 0.28273292964088553 -0.48080353788571534
2940000000.0 -0.18185836241970849 -0.4969541708939506
2960000000.0 -0.349265402439525 -0.3588792713283619
2980000000.0 -0.36712823615864737 -0.2983940899529779
3000000000.0 -0.34658365708932987 -0.29023581772678003
3020000000.0 -0.3981685621641269 -0.15557491123463266
3040000000.0 -0.39484162384851806 0.11382065244835426
3060000000.0 0.20836092122179814 0.3385390875566966
3080000000.0 0.3099368733147803 -0.2251476007764852
3100000000.0 -0.1808025685947086 0.3279344795668553
3120000000.0 0.22157451922455454 0.29018434601235304
3140000000.0 -0.3248495615458249 -0.15745721363984627
3160000000.0 0.33001702254177245 0.12732412016223357
3180000000.0 -0.10904865177225787 -0.33818294554227907
3200000000.0 0.07798708484480217 0.3433397697327609
3220000000.0 0.33622069869830706 -0.08692976095124948
3240000000.0 0.08619922687400043 -0.33176471917459877
3260000000.0 -0.2324197845974978 -0.24418687106930578
3280000000.0 -0.2246564205863308 0.23540327189370802
3300000000.0 -0.04739821017129897 0.3019322372914454
3320000000.0 0.06305177210757147 0.2742009244103328
3340000000.0 0.1874557660385511 0.16458796692264888
3360000000.0 -0.14156558537866018 0.16744296696033106
3380000000.0 -0.12417161333241922 -0.14708264118119976
3400000000.0 0.05242572958756591 -0.15500129378789487
3420000000.0 0.1098244761187824 -0.08226442662004131
3440000000.0 -0.08271751391392436 -0.07723173661832633
3460000000.0 -0.04758519866405583 0.08311473768498238
3480000000.0 0.029172288568408204 -0.07897468464093602
3500000000.0 -0.08125002808466057 -8.342186083382252e-05
3520000000.0 0.004577958636195111 0.08100205776519692
3540000000.0 -0.08707731829121598 0.02691984013184842
3560000000.0 0.09984967324089547 0.0006809333807318597
3580000000.0 0.07112385072930968 -0.079326447688201
3600000000.0 0.09644246727855084 0.07547169173538783
3620000000.0 0.1271234675690364 -0.01566665942683644
3640000000.0 0.1010816895758858 -0.10371394273377402
3660000000.0 -0.10890575096461266 -0.10641231780441747
3680000000.0 -0.14875991762441332 -0.04350278121265389
3700000000.0 -0.030229722352082412 0.14320311813340192
3720000000.0 0.03209919268741331 0.12224426598954537
3740000000.0 0.0928108685339223 0.03829433455323722
3760000000.0 0.07366858469782317 0.017118151042549545
3780000000.0 0.038468707993721235 0.03822317968065849
3800000000.0 -0.021597310039740598 0.011274363418921825
3820000000.0 -0.014191554548418653 0.007228763688678532
3840000000.0 0.013566185965100036 -0.05213839274684135
3860000000.0 -0.06907643541115639 -0.04353372809939876
3880000000.0 0.07728263308085875 0.07284990391815648
3900000000.0 -0.08563208808130557 0.09231323597588131
3920000000.0 0.07461071149346167 0.11524779200887315
3940000000.0 0.1525659836087198 0.0006051458234124727
3960000000.0 -0.045711214274455604 0.14667089207845957
3980000000.0 -0.13008112814021414 -0.060747640151719406
4000000000.0 -0.09730844028792554 0.05769803421375839
