!Created with skrf (http://scikit-rf.org).
# Hz S RI R 50.0 
!freq ReS11 ImS11
400000000.0 0.18065218764489308 -0.8335376954221704
420000000.0 0.49953377815405287 0.6061170405941204
440000000.0 0.7755678042232734 -0.02092959838387972
460000000.0 0.20261814431480993 0.617510337548067
480000000.0 -0.45333850638907913 0.45473692372138935
500000000.0 -0.557396329504334 0.2363158201124769
520000000.0 0.5341660437826179 -0.3221259531682083
540000000.0 0.3049147759681247 -0.4981790366635469
560000000.0 0.45992887620699424 0.3522604392011501
580000000.0 0.581429194147577 -0.006081565853543678
600000000.0 0.5212151696661805 0.3346751409244136
620000000.0 0.5168524171498168 -0.3379569783537968
640000000.0 0.49877256393647007 -0.28696325261822186
660000000.0 -0.1197231133796132 -0.5270019796703896
680000000.0 0.31774493821388566 -0.41296240397283507
700000000.0 0.49481704432317913 0.10873747486030674
720000000.0 0.5106471410341866 0.0637495859849629
740000000.0 0.46019673272712086 -0.1568161615341227
760000000.0 0.4554414037194612 0.10648565096224033
780000000.0 0.32721275880866385 0.29369763694528517
800000000.0 -0.2868892071316611 0.2702938079628404
820000000.0 -0.0008052108590771516 0.3715206190490166
840000000.0 0.3089962615423441 0.13518188227784406
860000000.0 -0.3127986826968227 -0.06647782553042948
880000000.0 -0.2683978976889678 0.07799392896364397
900000000.0 0.2671898379937455 -0.06962759449512854
920000000.0 0.008958608474927559 0.26777071694015375
940000000.0 0.1753090070216291 0.14187493318019076
960000000.0 0.1488748653203825 -0.0937963601112685
980000000.0 0.09899528012204148 -0.10375423686467695
1000000000.0 -0.048522499498102334 0.12244675889620034
1020000000.0 0.039417450098653356 0.1122358250867493
1040000000.0 -0.08729792152843009 0.10145043870249777
1060000000.0 -0.16065523817914826 -0.0061887257424903565
1080000000.0 -0.11594188187905827 -0.16737483056439711
1100000000.0 -0.24357875094428028 0.011170114753624626
1120000000.0 -0.18657733898677795 0.21747657863132236
1140000000.0 0.293520315176817 -0.031871004876546594
1160000000.0 0.009122678186138563 0.32507654620757426
1180000000.0 0.3377092830858244 0.03978264930182888
1200000000.0 -0.10185210433631461 0.3236787439832717
1220000000.0 0.09685864088504627 -0.34615050521353113
1240000000.0 -0.07139399385500478 -0.36512633566288183
1260000000.0 -0.3492186815858258 -0.15261547475052173
1280000000.0 -0.11817095079420703 0.3495097057029136
1300000000.0 -0.2635521314680742 -0.2473290134425976
1320000000.0 -0.11552237746405557 -0.34608055509147445
1340000000.0 -0.33888746013256327 0.11816391303991172
1360000000.0 -0.10139805042382674 0.3508623194213
1380000000.0 -0.28888294677942933 -0.25737579872721766
1400000000.0 0.021281673343815994 0.3785409191736435
1420000000.0 -0.09931723018049712 0.369647314393864
1440000000.0 0.2767242682824012 0.27406208458396425
1460000000.0 0.3777654106062663 0.11428684192243632
1480000000.0 0.38108018765883694 -0.13400706439515636
1500000000.0 -0.3984517258351535 -0.06635380897979692
1520000000.0 0.11643701228544542 -0.3751503791050038
1540000000.0 0.05718396589588951 0.36430103582698464
1560000000.0 -0.3166233843966836 -0.10879924796546533
1580000000.0 0.2892283488900159 0.07674688307310264
1600000000.0 0.07812073166385221 0.25833516743078117
1620000000.0 0.06370745139838704 0.22029722300096938
1640000000.0 0.11441857689772064 0.16192770047879362
1660000000.0 0.17449643814019777 0.028744517687849972
1680000000.0 0.0003056145825198267 -0.14366392006705433
1700000000.0 0.04473299149975074 -0.11315712707195291
1720000000.0 0.08151108630708491 0.04075681013194828
1740000000.0 0.07353985059051099 -0.026895915124032468
1760000000.0 0.011108293418314177 0.07884565540601257
1780000000.0 0.07171088918462987 0.06604848863665017
1800000000.0 -0.03873596487837927 0.11626555218271294
1820000000.0 0.02611090771239069 0.15258752570345607
1840000000.0 -0.09011422258580754 -0.16001756256949073
1860000000.0 0.1839518208176556 0.12448211123093729
1880000000.0 0.2111544710590859 -0.145473559592894
1900000000.0 -0.23937267169058654 -0.14904370978857315
1920000000.0 0.2859017043994727 0.10827060923669819
1940000000.0 -0.315093289793131 -0.014611519443026296
1960000000.0 0.3126370207560255 0.045861406231647965
1980000000.0 -0.28531772024801916 0.15740855207070079
2000000000.0 -0.19822314707512734 -0.25978838203110516
2020000000.0 0.17403125088763738 -0.2758074418465742
2040000000.0 0.27697527015066503 -0.17976409927102716
2060000000.0 0.30389494873474143 -0.11569545033941317
2080000000.0 0.25273718456344035 0.20212472680476884
2100000000.0 -0.28396602314532327 -0.13050867983357975
2120000000.0 0.14391732961861653 0.2711898136172139
2140000000.0 -0.049114065650186584 -0.3047311298933626
2160000000.0 -0.06807610730050415 0.29320879405578903
2180000000.0 0.2146252842543437 0.20324710873146573
2200000000.0 0.28474072648686616 -0.05394869969738576
2220000000.0 0.19601669078253814 -0.20240285140354894
2240000000.0 0.22475169422230118 0.15437642536253948
2260000000.0 -0.14535090342475326 0.21234509883524078
2280000000.0 -0.20733274360400153 -0.1456759412471504
2300000000.0 0.14703187103862345 -0.1881663903522795
2320000000.0 -0.19109268075306687 -0.12920517650707736
2340000000.0 0.19643262936793066 0.11597313531244621
2360000000.0 -0.05558615582176019 -0.22935530070357923
2380000000.0 0.24620241364356668 -0.03320075277748386
2400000000.0 0.2543734757237846 -0.09393544374230933
2420000000.0 -0.2920299022390885 -0.047622764235604596
2440000000.0 0.11558788285574643 0.29317306255390196
2460000000.0 -0.3273431818641175 -0.1188347476034291
2480000000.0 0.03537514375422101 0.37114698133000806
2500000000.0 -0.25034951276218403 -0.32142912412227875
2520000000.0 0.36533570054674075 -0.25119564473534434
2540000000.0 0.01167140461843697 0.4731730775664272
2560000000.0 -0.2351973866168181 -0.443544659880328
2580000000.0 0.3012865475466238 0.4356284440190095
2600000000.0 -0.3332766076283759 -0.4419798517804751
2620000000.0 0.21086557247886373 0.534690687411523
2640000000.0 -0.12034607260155353 -0.5836345152842836
2660000000.0 0.3451939286843124 0.5084628418340298
2680000000.0 -0.6280299035849752 -0.043626336898425766
2700000000.0 0.06679303254056548 -0.6398591515858056
2720000000.0 0.4940034016921203 -0.4290085790822422
2740000000.0 0.6515527945703348 -0.11939379247693677
2760000000.0 0.6601453989116459 -0.09541719178223833
2780000000.0 -0.032183417953123954 0.6649968880975538
2800000000.0 -0.18424958224033142 0.6338171887005889
2820000000.0 -0.5619990763306815 0.3258373638806124
2840000000.0 -0.44618348533440894 -0.45598486586351344
2860000000.0 0.6235380256604481 0.002452461187411813
2880000000.0 -0.6015704780688247 0.06145832576072732
2900000000.0 0.3954300752793808 0.4277618459068336
2920000000.0 0.3375185199705487 -0.44493202687054595
2940000000.0 -0.20020369112785436 -0.490315196601046
2960000000.0 -0.3549253138300048 -0.35260159974637845
2980000000.0 -0.353157749499403 -0.31489836540243554
3000000000.0 -0.333147011390804 -0.30476082377187513
3020000000.0 -0.41210816269852873 -0.11148027978485305
3040000000.0 -0.3790542706013522 0.1577451380683172
3060000000.0 0.22092059149606302 0.33108118549892773
3080000000.0 0.2739812940988912 -0.2675464035672491
3100000000.0 -0.19978388412740125 0.31480347232001965
3120000000.0 0.22884576328503245 0.2863218147692396
3140000000.0 -0.3365260704891045 -0.12841342091245475
3160000000.0 0.341267731599416 0.09291395023933409
3180000000.0 -0.1366357648274445 -0.3277715100985356
3200000000.0 0.031300913667133445 0.3511729031308585
3220000000.0 0.34345842531254495 -0.054000187061678674
3240000000.0 0.050107860862020535 -0.33869021113479414
3260000000.0 -0.24961918655841397 -0.22622654507173579
3280000000.0 -0.2603419419870707 0.1965273833082962
3300000000.0 -0.015462280410205323 0.3046247187509256
3320000000.0 0.05101905387445282 0.2771716355039831
3340000000.0 0.16574042588388432 0.1878950738311718
3360000000.0 -0.10237012706998447 0.19343374717390582
3380000000.0 -0.08401600544716092 -0.17276329801640614
3400000000.0 0.07884315160843614 -0.1438792868655436
3420000000.0 0.13076766004493853 -0.04189163024677951
3440000000.0 -0.045774716274478496 -0.10363323168756854
3460000000.0 -0.04322709529328485 0.08504902907306669
3480000000.0 0.06661854596351899 -0.04889643874400099
3500000000.0 -0.078455932048454 -0.01836627973798708
3520000000.0 -0.0023662253015589462 0.08154678786825328
3540000000.0 -0.08917217023232513 0.018532959982101447
3560000000.0 0.08577879218181535 -0.050508331889690325
3580000000.0 0.05042590333336354 -0.09404033323639237
3600000000.0 0.06777882706259729 0.10132427193279703
3620000000.0 0.11634987794097752 -0.05618451296494294
3640000000.0 0.11352841832742515 -0.09125662570255913
3660000000.0 -0.12306354711437474 -0.08919885560362319
3680000000.0 -0.15240945235241696 -0.03310137188405935
3700000000.0 -0.01843080602916405 0.145713906023203
3720000000.0 0.03205262358897867 0.12149310065323807
3740000000.0 0.02049683411901688 0.09837063679804456
3760000000.0 0.0691328157383132 -0.0316572376882117
3780000000.0 0.04443800974262545 0.028680119073203433
3800000000.0 -0.018564224051552353 0.014744610428122069
3820000000.0 -0.00518344302580228 0.01448495178235087
3840000000.0 0.0529364389580392 0.006145132491209895
3860000000.0 -0.07346278754712825 -0.039557040470462525
3880000000.0 0.09947875166902133 0.03610655791834631
3900000000.0 -0.11951199409072388 0.03839645134180671
3920000000.0 -0.0007933160292152133 0.13854760568576913
3940000000.0 0.14532926586068315 -0.04762151651860865
3960000000.0 -0.05396131114165289 0.14208694940708044
3980000000.0 -0.11000771928617618 -0.09156750075895527
4000000000.0 -0.10152382202358516 0.05257852782244256
