!Created with skrf (http://scikit-rf.org).
# Hz S RI R 50.0 
!freq ReS11 ImS11
400000000.0 0.23575614761672511 -0.8194499192420084
420000000.0 0.5030479300442492 0.6038879524485788
440000000.0 0.7750208968855992 -0.025767368459988595
460000000.0 0.23983077601539216 0.6028247136040418
480000000.0 -0.46235452779859393 0.4459380308422403
500000000.0 -0.5534512022685572 0.23948177679027288
520000000.0 0.6229745264946673 -0.07503840701953564
540000000.0 0.14257656271141567 -0.5669588588328407
560000000.0 0.32763147421528177 0.4725705438759522
580000000.0 0.5785910258226139 0.09054273946012739
600000000.0 0.60001382168473 -0.1383596176639155
620000000.0 0.6116774906542568 -0.061098158034088995
640000000.0 0.5446467694723938 -0.1889429336337129
660000000.0 -0.3717650695656812 -0.3963225781233701
680000000.0 0.20891656269486553 -0.4705242890250761
700000000.0 0.23785096932549343 0.45130436010714353
720000000.0 0.4574159572316206 -0.2564698187265167
740000000.0 -0.08103787865323976 -0.4721596919738879
760000000.0 0.16988528568473937 0.4262007241853851
780000000.0 -0.2923858694793536 0.33939831142990495
800000000.0 0.18426555549517315 0.362223864927874
820000000.0 0.23692979185884971 0.272064259784958
840000000.0 0.1361928565359202 0.30322368325585003
860000000.0 -0.2838017832069067 -0.14876398100668894
880000000.0 -0.24577703906307927 -0.1429884939747836
900000000.0 0.03393119953048746 -0.27401328639597067
920000000.0 0.16843576042926514 0.20254014524700417
940000000.0 0.03156305961662883 0.2179097626980945
960000000.0 0.16362578883457152 0.07423504264909965
980000000.0 -0.14656462251878577 0.022482917582779934
1000000000.0 0.018185014715782363 0.1280658174320354
1020000000.0 -0.10434588090029354 -0.040986995127218456
1040000000.0 0.11821818124912369 -0.07238297158129964
1060000000.0 0.16109796928399686 0.02001790594735722
1080000000.0 -0.15753804924453146 -0.130550651833269
1100000000.0 -0.2236954389567751 0.08886494110051238
1120000000.0 -0.21890782955407834 0.1889363831761907
1140000000.0 0.29365547369160966 -0.03858066574805177
1160000000.0 0.032860368258875575 0.3220080651070263
1180000000.0 0.3004188103047035 0.16565381537569226
1200000000.0 0.018176304783902208 0.3382959999326643
1220000000.0 0.1476906451914943 -0.32548422483698397
1240000000.0 0.0456201503990244 -0.37147923301453073
1260000000.0 -0.380110236435164 -0.006722845508797154
1280000000.0 -0.18209569777326925 0.3205539500336029
1300000000.0 -0.1590677061402897 -0.3258735809152691
1320000000.0 -0.2532822892733082 -0.2641440216690563
1340000000.0 -0.30658712514032377 0.18301351516283745
1360000000.0 -0.29144088236877824 0.22562221817056308
1380000000.0 -0.3813271617088894 -0.06803051730762599
1400000000.0 -0.09985085282932459 0.36321912030446313
1420000000.0 -0.05918210649941418 0.38082161608006365
1440000000.0 0.3387274884160723 0.1898602000886087
1460000000.0 0.35203607421970845 0.17648725853957523
1480000000.0 0.36860059434567616 -0.16867277814093298
1500000000.0 -0.40378382985010525 0.02391308427066006
1520000000.0 0.14357930583327377 -0.36475546877764065
1540000000.0 -0.011878193324482741 0.37041198459310254
1560000000.0 -0.3274064380753105 -0.06921488884479847
1580000000.0 0.2798724083400014 0.10414402719717544
1600000000.0 0.10784670444176883 0.24790819667616304
1620000000.0 0.0033147654258719925 0.22927566857975232
1640000000.0 0.0727879326708457 0.18289657050354796
1660000000.0 0.1768079153027691 -0.014695500093350952
1680000000.0 -0.010653528403757186 -0.14401907718450033
1700000000.0 0.07530334889805088 -0.09391920691978482
1720000000.0 -0.021615278684188343 0.08910930161928741
1740000000.0 -0.015705374730769543 -0.07627058834829856
1760000000.0 -0.03243716494554429 0.07165193740539082
1780000000.0 -0.0038843584667837537 0.09853813929562957
1800000000.0 0.05591011923821798 0.10938079878912806
1820000000.0 0.01138516509873489 0.15244710617571383
1840000000.0 -0.006684988421384487 -0.1853847023206281
1860000000.0 0.22324258373930925 -0.00017008285018877792
1880000000.0 0.2067176111874923 -0.14920635116943945
1900000000.0 -0.12226126659706439 -0.2542364736585308
1920000000.0 0.2933840013930023 0.08959177519906701
1940000000.0 -0.31451338227668585 0.010184540211719904
1960000000.0 0.29082210819070764 0.12164391877592158
1980000000.0 -0.28672153841607045 0.15555535060044315
2000000000.0 -0.24703217303186992 -0.21347886954853482
2020000000.0 0.26231476389807235 -0.19266504971838164
2040000000.0 0.25059226928097583 -0.21666881547018949
2060000000.0 0.25438015957529164 -0.2024787216865177
2080000000.0 0.28195644567111855 0.15784861428368452
2100000000.0 -0.2370900012067586 -0.2047155354750268
2120000000.0 0.18400286778403466 0.24596593922658253
2140000000.0 -0.04536064529119942 -0.305304968526613
2160000000.0 -0.13057643672958866 0.2733330500517722
2180000000.0 0.24754354374962378 0.15977016548228734
2200000000.0 0.28780650495286225 0.02843656010116282
2220000000.0 0.2027339391210583 -0.19792140946173004
2240000000.0 0.2565293858978315 0.08647547337192253
2260000000.0 -0.19433654691009816 0.16869975166344653
2280000000.0 -0.21632851458033564 -0.13020869852482292
2300000000.0 0.17096843792431798 -0.1663413274160102
2320000000.0 -0.2037800597737199 -0.108854377068176
2340000000.0 0.20596793975062105 0.09498109537608065
2360000000.0 -0.03363112218878202 -0.23318855776457859
2380000000.0 0.24803495124326572 0.012996686340626052
2400000000.0 0.23556122985184363 -0.13462164063123683
2420000000.0 -0.29030612983455395 -0.06099061661547526
2440000000.0 0.13941051152686268 0.28256605837853827
2460000000.0 -0.282700982873445 -0.20069906016638295
2480000000.0 0.02523733591066889 0.37432370013021793
2500000000.0 -0.35103885290355435 -0.2070818238581393
2520000000.0 0.3420181738857438 -0.2814345925230349
2540000000.0 -0.11079160900948791 0.4596994129618662
2560000000.0 -0.25653446449757417 -0.432490215085406
2580000000.0 0.31729382691175007 0.4226303006371612
2600000000.0 -0.2744298235702505 -0.479714534101212
2620000000.0 0.23431635127628492 0.5257987495540404
2640000000.0 -0.2064513523104004 -0.5584590870074585
2660000000.0 0.3365419259687814 0.5135831846361539
2680000000.0 -0.6290980565145013 -0.029406481025557357
2700000000.0 0.024286176793695692 -0.6430030686539993
2720000000.0 0.5010089084316502 -0.42105468043906646
2740000000.0 0.6295534152860522 -0.2064968737374443
2760000000.0 0.6555281865211227 -0.1253537967954307
2780000000.0 -0.031786118558296494 0.6651062366326377
2800000000.0 -0.17763658372568025 0.6353387213815387
2820000000.0 -0.5645805006428739 0.32084638972457546
2840000000.0 -0.4562000785917367 -0.44675440214974305
2860000000.0 0.6177840956120059 -0.08571125350096023
2880000000.0 -0.6028134154900225 0.037220216357703985
2900000000.0 0.4368043689379084 0.3863831378264678
2920000000.0 0.2756067694543896 -0.48496589338048934
2940000000.0 -0.1366672545299026 -0.5107505831646235
2960000000.0 -0.34602205249104023 -0.36340147779548404
2980000000.0 -0.42102598098298954 -0.21401776626843164
3000000000.0 -0.27548419312842287 -0.3574250417508918
3020000000.0 -0.38036650260812854 -0.19841148230829092
3040000000.0 -0.3883939636254471 0.13329886611166747
3060000000.0 0.12671749139043678 0.37649472638977044
3080000000.0 0.3118414804827481 -0.223191277341799
3100000000.0 -0.10008269314319088 0.35930300487052524
3120000000.0 0.16995342527834756 0.32257479026905644
3140000000.0 -0.34038888675477996 -0.12061253972506031
3160000000.0 0.3318882677899257 0.12078535238615003
3180000000.0 -0.09363996938159334 -0.34288922329784016
3200000000.0 0.04759216295182303 0.349281580832464
3220000000.0 0.3334941258259707 -0.09931233584012909
3240000000.0 0.09465880934473964 -0.3292735522285883
3260000000.0 -0.2089171307161565 -0.26463729222465926
3280000000.0 -0.2269240029436473 0.23278101255745737
3300000000.0 -0.04505420121707969 0.30205162976467453
3320000000.0 0.02984116445742447 0.2802495416275714
3340000000.0 0.18746002392181155 0.16523863697063726
3360000000.0 -0.10764494470148744 0.19066088250144392
3380000000.0 -0.1020895866474905 -0.16264542309635882
3400000000.0 0.055465462282319085 -0.15478730866978802
3420000000.0 0.12863814280082456 -0.04679027211351796
3440000000.0 -0.06192303466635099 -0.09467726345442008
3460000000.0 -0.057919184332036036 0.07618360547052534
3480000000.0 0.03360890963436688 -0.07707240884989038
3500000000.0 -0.07910766414322035 -0.014886176953994518
3520000000.0 0.011974285641793498 0.07989647054367346
3540000000.0 -0.08447855954583891 -0.033820674117769525
3560000000.0 0.09861807205381126 0.00722210987399769
3580000000.0 0.05031035397785778 -0.09454461314555299
3600000000.0 0.1140876080403832 0.043209870390146544
3620000000.0 0.12451906532994805 -0.027421212402522828
3640000000.0 0.10151764246921077 -0.10471887518264969
3660000000.0 -0.13530233697581495 -0.07097256101417992
3680000000.0 -0.15099049700393494 -0.038180349151150414
3700000000.0 -0.05478996608963893 0.1363627558562073
3720000000.0 0.04211310059572345 0.11824059485316298
3740000000.0 0.008673319123677406 0.10109101043662577
3760000000.0 0.07681324464194784 0.005942198004023029
3780000000.0 0.04680734681420344 0.026524126090299176
3800000000.0 -0.022605473626715413 0.004020821036825256
3820000000.0 -0.007841622209690839 -0.01234590103983876
3840000000.0 0.0012153658342355413 -0.05391897801006079
3860000000.0 -0.07440966569711774 -0.0373557647222937
3880000000.0 0.0978372039335761 0.03990188995473436
3900000000.0 -0.11174336016063986 0.060985469626067455
3920000000.0 0.0781524619723172 0.114056964438383
3940000000.0 0.14831071610016539 -0.03686374111530932
3960000000.0 -0.08097366036468084 0.13122575374045395
3980000000.0 -0.12151952493596178 -0.07622469378218703
4000000000.0 -0.08051785037282484 0.08096620772729439
