!Created with skrf (http://scikit-rf.org).
# Hz S RI R 50.0 
!freq ReS11 ImS11
400000000.0 0.7797227956851835 -0.2320446192940881
420000000.0 0.727997288638988 -0.3795967636713459
440000000.0 0.5830341561658601 -0.49755235738278564
460000000.0 0.6627103709369282 0.29679139452881015
480000000.0 -0.25965626184584434 0.6257878855840797
500000000.0 0.3867275668756778 0.5382613946603506
520000000.0 0.5445837110416827 -0.2301449650651102
540000000.0 0.03015817068626241 0.5131467267471752
560000000.0 -0.3624757464234995 0.31800073163663833
580000000.0 0.40229627181885474 0.1512839212510204
600000000.0 -0.2834720460382826 -0.27125757682164
620000000.0 -0.15608818891531298 0.34209546177976563
640000000.0 0.2949648053339797 0.26999030267124224
660000000.0 -0.3914699695273351 -0.16313299829311134
680000000.0 -0.1960007036078368 -0.38298429502043424
700000000.0 0.21926861895599667 0.37380140040054066
720000000.0 -0.1100132661098381 -0.40690542783360834
740000000.0 0.0026332411080491796 -0.3827461000042721
760000000.0 -0.02566500311886763 0.3456349175998058
780000000.0 0.2769614714045141 -0.1747610462832209
800000000.0 0.24752839317167502 0.17158681915893675
820000000.0 0.08191176184964213 0.25708668928049516
840000000.0 0.12360728125993875 0.2020971451686091
860000000.0 -0.12240025518973838 -0.15277658160553242
880000000.0 -0.14987678081437697 0.003987100759491049
900000000.0 0.11321453684562592 -0.005436126395467883
920000000.0 -0.03168007492909156 0.0773564039200227
940000000.0 0.02448261775616413 0.057592604542007715
960000000.0 -0.03893701533917802 -0.038252707763284835
980000000.0 -0.05127858530953732 -0.040084515163222235
1000000000.0 0.09278028880242678 -0.0036979321390852252
1020000000.0 0.032758861222279244 0.09837760173775076
1040000000.0 0.08963928038513028 0.06381677996905843
1060000000.0 0.11674676648974475 0.051098853903799125
1080000000.0 -0.13230828960761848 0.10841807145541696
1100000000.0 0.2168994217572181 0.054601344679886366
1120000000.0 -0.19430203512269031 -0.17873215278760599
1140000000.0 -0.28403671573852246 0.06896182727080104
1160000000.0 0.30723828648213397 -0.026551984968594237
1180000000.0 0.23582612237647352 0.21448887659657911
1200000000.0 0.3296494437863597 0.032985723610360757
1220000000.0 0.15649259379827524 -0.3321830384533329
1240000000.0 -0.1675940098120731 0.35548363418296414
1260000000.0 0.31045306707504516 0.2585262209772306
1280000000.0 0.42341851826297117 0.03705904567024438
1300000000.0 -0.2301426873082481 -0.37435867582872767
1320000000.0 -0.4428313519283119 0.019733784290909624
1340000000.0 0.031580532947971425 0.4428024269627279
1360000000.0 0.3104278684041692 0.30524709157124696
1380000000.0 0.4179467168305997 0.04515124470365047
1400000000.0 0.39476121228421984 -0.06443163884722233
1420000000.0 0.2666659354910639 0.2749098902928659
1440000000.0 0.3715370329593169 -0.04177771898624208
1460000000.0 -0.3027147569219998 -0.1820525941135913
1480000000.0 0.2007496203109493 0.25661729531698313
1500000000.0 -0.18828881777393608 -0.22272966282214554
1520000000.0 -0.14044370749890947 0.21056961867310112
1540000000.0 0.21260224426868204 -0.015833382279579224
1560000000.0 -0.07475372436539267 -0.16338743434957964
1580000000.0 0.14009695923170706 0.04041091207217018
1600000000.0 0.0784464963367962 -0.07466234995871786
1620000000.0 -0.07866452277056027 0.020361541343261725
1640000000.0 -0.0636583677139152 0.01606320234490486
1660000000.0 0.011260056710592442 0.05577964408932555
1680000000.0 0.028238321940463593 0.024106262215412413
1700000000.0 -0.006698470692435434 -0.007302040307490731
1720000000.0 0.018669040480352412 0.03199914938491617
1740000000.0 -0.05588906524245559 0.03667854065762446
1760000000.0 -0.07313717939863591 0.04113069386624346
1780000000.0 -0.051707930054030724 0.08105119611066885
1800000000.0 0.1172353499126822 -0.06654803584879371
1820000000.0 0.13813220646012195 0.11691123042299671
1840000000.0 0.21134584769035147 -0.020452662651927984
1860000000.0 -0.23455604352036083 0.04649530135345972
1880000000.0 0.2096483323631061 0.17319517970914466
1900000000.0 0.13724612001389708 -0.2708583719392584
1920000000.0 -0.3412062521648834 -0.04195268733989795
1940000000.0 0.3673348707993115 0.10386244305435008
1960000000.0 -0.21682319852977522 0.34723727342747646
1980000000.0 0.039263160923399154 -0.41321476366960913
2000000000.0 -0.2510318922984324 -0.3288882886042485
2020000000.0 -0.1637516986985304 -0.38980591319227387
2040000000.0 -0.42652092841031836 -0.08687544777615042
2060000000.0 0.22094980497418387 0.3707594908844599
2080000000.0 0.4196899314760468 0.022961310956940335
2100000000.0 0.40676494662719476 -0.051379986952674005
2120000000.0 0.31451120066420385 -0.25023941201189054
2140000000.0 -0.17661021096736976 -0.34813614255484077
2160000000.0 -0.1515485685226307 -0.33835003658647295
2180000000.0 -0.3436479482315504 0.009640580306337245
2200000000.0 -0.29537395884884293 -0.1268995680590192
2220000000.0 -0.09412731432900377 -0.29645185765621307
2240000000.0 -0.10072212521608992 -0.29389370718024316
2260000000.0 -0.3107346916549648 -0.007821498807975542
2280000000.0 -0.07873810678601588 0.3032997077859946
2300000000.0 0.2830153187942141 0.1553284501635957
2320000000.0 0.2536716898906256 -0.2300111825809799
2340000000.0 -0.3528559115124654 -0.1127647152402927
2360000000.0 0.1516210301998757 0.3768517365631859
2380000000.0 0.06389983736260774 -0.44650188574244853
2400000000.0 -0.09312445240728949 0.4930003792646184
2420000000.0 -0.054447695153348984 -0.5526765131438492
2440000000.0 0.4754651804887436 0.3781602511754615
2460000000.0 -0.6388451303174549 0.1361913928276193
2480000000.0 0.41125193146411465 -0.5555244732679784
2500000000.0 -0.4507070478807174 0.5638957225062677
2520000000.0 0.5600179145324756 -0.4860391665997913
2540000000.0 -0.6764915756727148 0.3343475033586006
2560000000.0 0.7009592629662889 0.29891435514845366
2580000000.0 -0.32678688794061533 -0.6860109558420772
2600000000.0 -0.2565624003594164 0.7051829160863486
2620000000.0 0.4677895823742166 -0.5640835040708501
2640000000.0 -0.5013586079384352 -0.5006896042033502
2660000000.0 0.43520751489959186 0.51678856161668
2680000000.0 -0.4595442675670938 -0.4447926983566133
2700000000.0 0.46877942659500854 0.3732191740975293
2720000000.0 -0.49003183827571006 -0.269270840271982
2740000000.0 0.4840766417463763 0.1880215452329601
2760000000.0 -0.4691182525795766 -0.1094306743650165
2780000000.0 0.4503083245360304 -0.0034901146052781877
2800000000.0 -0.4225835935128814 0.053033237897346194
2820000000.0 0.3515061173457261 -0.2052488037302715
2840000000.0 -0.29564554984566654 0.25849177003193957
2860000000.0 0.3793258094746462 0.05424244002659744
2880000000.0 -0.0779129997358923 -0.37442328663615976
2900000000.0 -0.34906740454583246 0.16443990164232772
2920000000.0 0.3595867959864645 0.1505028778529396
2940000000.0 0.06401231830773318 -0.3809524815607999
2960000000.0 -0.009309993429169054 -0.3826706452586636
2980000000.0 0.2899526823753613 -0.24211156835132547
3000000000.0 0.32002144941902744 0.19501269286024167
3020000000.0 -0.22687268514546596 0.29492574519763937
3040000000.0 -0.2214820320713967 -0.2911317563632876
3060000000.0 0.3579813588620765 0.011976526456031308
3080000000.0 -0.34165948946979524 -0.061367253867998336
3100000000.0 0.3307633023135517 0.07121604629014515
3120000000.0 -0.32627917203853424 0.01912100029013176
3140000000.0 0.21114992180588452 -0.23028769923035672
3160000000.0 -0.0972385965406751 0.27730703906188064
3180000000.0 0.11922395207582756 -0.24686149698824747
3200000000.0 0.2294307522462031 0.07223507959493165
3220000000.0 -0.19602251144516572 -0.04960480324408658
3240000000.0 -0.15948179000252588 0.05059899966717361
3260000000.0 -0.10114770964776897 -0.09379039498662492
3280000000.0 0.10239339781013505 -0.034993524864116186
3300000000.0 0.05846505318365121 -0.061521195590653395
3320000000.0 -0.024773618879713633 0.06015734318995459
3340000000.0 -0.04959102468435023 -0.009921222155886048
3360000000.0 -0.03049775975803765 0.03353003522203982
3380000000.0 -0.025109651916717206 -0.03548554103253376
3400000000.0 0.04088294193174255 -0.004151637026783797
3420000000.0 0.02058356209943913 -0.03650107559181614
3440000000.0 -0.03547336646777644 0.00018765309591547259
3460000000.0 -0.025738048237343467 0.011222473705799008
3480000000.0 0.0130815614696864 -0.008416914197482231
3500000000.0 -0.009913360482776964 -0.013253378136512178
3520000000.0 -0.024428148578303645 -0.009532808873191655
3540000000.0 0.013374302359754175 0.040911221715727884
3560000000.0 0.056912530868857246 0.010098482575515056
3580000000.0 -0.03955010080422829 0.04943482164221465
3600000000.0 0.002161298295520321 0.06959253335625885
3620000000.0 -0.06995282022066963 0.010569368691770217
3640000000.0 0.02386243762890746 0.07044050159656239
3660000000.0 -0.06881910003111065 0.04297213407583892
3680000000.0 -0.0888912285145531 0.012480015414497992
3700000000.0 0.08250601881992603 -0.047363809035110636
3720000000.0 0.0010957352819339222 0.09589567893718251
3740000000.0 0.08424439047021594 -0.04230653696671959
3760000000.0 -0.03233993435185002 -0.08862696240800443
3780000000.0 0.03281718000315143 -0.09342282820341778
3800000000.0 -0.06151359168549397 -0.09473293080482124
3820000000.0 -0.1362515907223393 0.0011668094936510016
3840000000.0 0.15185043136917248 -0.013335447502148991
3860000000.0 -0.16293268343095071 -0.022930201146523818
3880000000.0 0.17915766119079876 0.03249683857861943
3900000000.0 0.15534197933521401 0.12055646568941622
3920000000.0 0.2015899465232675 -0.003349947558267475
3940000000.0 0.19612647889482193 -0.052236913077537125
3960000000.0 0.20373817194534533 0.023428569529790326
3980000000.0 0.19846362969461462 0.06831770046779388
4000000000.0 0.20533940208599508 -0.08036672797680566
