!Created with skrf (http://scikit-rf.org).
# Hz S RI R 50.0 
!freq ReS11 ImS11
400000000.0 0.6270868017650661 -0.5286001195093547
420000000.0 0.4686965855325073 -0.6821937780212729
440000000.0 -0.5429134335012166 -0.5496922635569896
460000000.0 0.019617517182588796 -0.7138322662280369
480000000.0 -0.2199376746013683 0.6251246913457984
500000000.0 0.595938970685189 0.22897934305020312
520000000.0 -0.37854847192411173 0.4232453153647151
540000000.0 -0.424390491214071 -0.2922620710131377
560000000.0 -0.3896334554600882 -0.27759474921457383
580000000.0 -0.4189684878910268 0.09523886329523876
600000000.0 0.38697164436541687 -0.09328054610507268
620000000.0 -0.37427113468313145 -0.08392048450469602
640000000.0 0.16956137337251273 0.37132419658278976
660000000.0 0.21426601369382012 -0.36935662926469903
680000000.0 0.09459529937133426 -0.4296183834481571
700000000.0 0.024641459235653182 0.4395036371523455
720000000.0 0.20635094258497014 -0.37884128031019537
740000000.0 -0.14440308048543563 -0.36977835813564597
760000000.0 0.27715763302822805 0.23587663680023022
780000000.0 0.1117346410992004 0.31913851838804735
800000000.0 0.0366111456218058 0.3019485741021646
820000000.0 0.17017107965861508 -0.18275968712785362
840000000.0 -0.1576912968208546 0.10983345795389221
860000000.0 -0.09446893789110387 0.11787407117095804
880000000.0 0.10028006263217444 -0.0783083891713052
900000000.0 -0.04874764915316815 0.09922867960363167
920000000.0 0.08945706021293019 0.02867250515320773
940000000.0 -0.0654282570354723 -0.03338641255047378
960000000.0 0.0644366335611875 0.040886470285919324
980000000.0 -0.05312522526603799 -0.07741237645491755
1000000000.0 -0.043529044135061694 0.08510519822752703
1020000000.0 0.10860770268985671 0.028785764896228656
1040000000.0 -0.1282094483853673 0.025468063039910338
1060000000.0 0.06361203344514037 -0.12723970366999401
1080000000.0 -0.15049132643434598 -0.10217310907582494
1100000000.0 -0.16055269885090534 0.13987209259247854
1120000000.0 -0.17152017013384968 -0.18758217292847199
1140000000.0 -0.14133033195301978 -0.2448854469953456
1160000000.0 -0.3063951315029893 0.06178073886380074
1180000000.0 -0.022559700181656726 0.33961180119163487
1200000000.0 -0.2675732171890205 -0.22215041942794705
1220000000.0 -0.24808844980119651 0.27740565576873283
1240000000.0 0.3371115415073912 -0.18347882989440578
1260000000.0 0.31459536448144504 -0.23032795669638167
1280000000.0 0.3865285953163672 -0.13138758121632257
1300000000.0 0.36556576915731603 -0.21255259026529275
1320000000.0 -0.13135342764424157 -0.4198610523637919
1340000000.0 -0.39152686022928823 -0.20923393949496216
1360000000.0 -0.03596194987792798 0.4446903404211362
1380000000.0 0.42010492755480305 0.07599547526417488
1400000000.0 0.41062254823092903 -0.007161959206613606
1420000000.0 0.15751739197408363 -0.35950754718477074
1440000000.0 -0.25716447506056145 -0.27283438056818116
1460000000.0 0.2932790190417335 0.17949685864223433
1480000000.0 0.29814636065505834 -0.07042176232217719
1500000000.0 -0.13941776194813052 -0.2392793344184418
1520000000.0 -0.2027870782067087 -0.13196581593079898
1540000000.0 0.18323653337740675 0.1022441426310232
1560000000.0 0.04269650524231884 -0.16704545157923742
1580000000.0 -0.07181846662122354 -0.12668504736601413
1600000000.0 0.06258944472425264 -0.09371494318109445
1620000000.0 -0.055755778482656185 0.06189353430253624
1640000000.0 -0.012514524563715773 0.06570759336868992
1660000000.0 -0.0386990217720562 0.03055589170529175
1680000000.0 -0.008869336154423606 -0.027755203312302256
1700000000.0 -0.013679193153775733 0.003871050991050506
1720000000.0 0.012155104556467296 0.0358585522670666
1740000000.0 0.020812820388094535 -0.055605878937505376
1760000000.0 -0.07098487234962636 -0.035997442421275005
1780000000.0 0.0732370631716753 0.07423678206435928
1800000000.0 -0.08522524921493671 -0.10905527007361746
1820000000.0 0.1646187017698411 -0.03936383378645507
1840000000.0 -0.11669081962156426 -0.16469977700273186
1860000000.0 0.23538056654478468 0.06279949271238168
1880000000.0 -0.12126062240822741 0.2542608993609366
1900000000.0 -0.027515245706880544 -0.3136334766939003
1920000000.0 0.002519471083948425 0.3456353192811161
1940000000.0 0.20569393212602732 -0.3150313262927023
1960000000.0 0.021118314588589326 0.39937311915944534
1980000000.0 0.12146019555045236 -0.3874103496418117
2000000000.0 -0.08306121816058243 -0.40140938395956266
2020000000.0 -0.16119112260289195 -0.384947852746634
2040000000.0 -0.2519249148360051 -0.3415831538702353
2060000000.0 -0.3794554178703354 0.2006766124018515
2080000000.0 0.021672569327963787 0.4258121344573766
2100000000.0 0.4071230219332587 -0.08997861099240485
2120000000.0 0.06155740095884496 -0.3941835855649376
2140000000.0 -0.19680844004632778 -0.3260350007845328
2160000000.0 0.13765800086786187 -0.335641740094147
2180000000.0 -0.1552696978410933 -0.30340287032115726
2200000000.0 -0.28798356042887724 -0.1358960321033947
2220000000.0 -0.01471424735476705 -0.3001802992340329
2240000000.0 0.2213913442531938 -0.1991347975249456
2260000000.0 0.0178194658179883 -0.3020809266873534
2280000000.0 -0.3070822023428738 0.0007335074599249914
2300000000.0 -0.015799195750877383 0.3147939499622555
2320000000.0 0.21080767711111925 0.2569370243093013
2340000000.0 0.2731511842868356 -0.24097169659877826
2360000000.0 -0.3975284066393709 0.08651734015943083
2380000000.0 0.35697271197770536 -0.28206215261547574
2400000000.0 -0.22454596600465318 0.44884319910058906
2420000000.0 0.17048187526432018 -0.525392324767854
2440000000.0 0.13155306436088032 0.5910698495227694
2460000000.0 -0.5480314677560021 -0.3555842102885079
2480000000.0 0.692076169193091 -0.04247919543630969
2500000000.0 -0.707922991959121 0.14917201942261726
2520000000.0 0.7422212581913037 0.06638387647218881
2540000000.0 -0.7250330750942017 -0.22107808832887318
2560000000.0 0.6135821930442729 0.4558317536123394
2580000000.0 -0.05352468089908434 -0.7607058274980211
2600000000.0 -0.3263764606546302 0.6776424308645702
2620000000.0 0.5446407617345771 -0.4955444154322408
2640000000.0 -0.32710344458055535 -0.6335015501506226
2660000000.0 0.331300914292858 0.5931454838324173
2680000000.0 -0.23719453582048272 -0.5963944544451087
2700000000.0 0.12345564176352096 0.5917087784782828
2720000000.0 -0.2519129763664838 -0.5061894146595934
2740000000.0 0.38336909291988563 0.3623192358477093
2760000000.0 -0.4819284049507983 -0.10531977737708799
2780000000.0 0.4219849682090639 -0.18499463523080742
2800000000.0 -0.28536551603730276 0.3238472758322213
2820000000.0 0.3619005366302486 -0.19091745314675082
2840000000.0 -0.3982984397283313 -0.050059257908504184
2860000000.0 0.384711879183227 0.10203012172811607
2880000000.0 -0.3133238724838684 -0.23245006294027248
2900000000.0 -0.24694968003711698 0.29754750829778814
2920000000.0 0.15029795132548762 0.36004086748731773
2940000000.0 0.38250827556762507 -0.08941759581269831
2960000000.0 0.2830989133489168 -0.26873662902620493
2980000000.0 0.3132249581559791 -0.22594328595629773
3000000000.0 0.34747481663325197 0.16634916092214647
3020000000.0 0.018761251565367825 0.38039200716952387
3040000000.0 -0.32301042106278444 -0.17864615943233927
3060000000.0 0.33650239940873145 0.1359500896180683
3080000000.0 -0.3532619955557262 0.013358861481377776
3100000000.0 0.30251601339727674 0.15592342394892075
3120000000.0 -0.29285736078018404 -0.16335459853799164
3140000000.0 0.1695687504590899 -0.27602653835782215
3160000000.0 0.28472105023223726 0.0956459371401856
3180000000.0 0.011309477569988175 -0.27243325030511567
3200000000.0 0.15923838979540803 0.18519537677403622
3220000000.0 -0.2089185166859635 -0.018196251822946707
3240000000.0 0.10309692726057233 0.13898156260899122
3260000000.0 0.10383936326962577 0.0935594860089485
3280000000.0 0.011637325809621589 0.10595356547032507
3300000000.0 0.033459661376283686 0.07147506676962016
3320000000.0 0.024442791743330538 0.05518281052148654
3340000000.0 -0.048114925366129255 -0.013775369372738482
3360000000.0 -0.042095812880154085 -0.004259924089902827
3380000000.0 -0.015329257974600883 -0.03331623745050484
3400000000.0 0.018417734019680557 -0.030858086614233036
3420000000.0 -0.0012501011384749845 0.028293024421926178
3440000000.0 0.008481460611315106 0.02059138988037321
3460000000.0 -0.021074344555253813 -0.003100638716393514
3480000000.0 -0.006149629388952608 -0.012648516207297577
3500000000.0 0.01030802582374697 -0.020565899328629136
3520000000.0 -0.02753517425505887 0.02837133055328293
3540000000.0 -0.052863386778864103 0.004953486500161731
3560000000.0 -0.05884078684962595 0.02115831700804607
3580000000.0 -0.023681135284511514 -0.06429827634076497
3600000000.0 -0.07091544960519598 -0.016375542315623173
3620000000.0 0.06405187446170903 0.04938403007456055
3640000000.0 0.0740344176333568 -0.03950036633650311
3660000000.0 0.03643589719680496 -0.08542498548686653
3680000000.0 -0.060509432251876154 0.07536961009812637
3700000000.0 0.07842627724000333 -0.05365618746740219
3720000000.0 -0.014736757113823416 -0.09274163532796374
3740000000.0 -0.00646612910343409 -0.09061592959060907
3760000000.0 0.012981755322130814 -0.09278843400936215
3780000000.0 -0.04942449190260823 -0.0912736888552765
3800000000.0 0.08983937978541956 0.07778797899092162
3820000000.0 0.060593049830636875 0.12234550070223374
3840000000.0 -0.013433683265969398 -0.1551840203741361
3860000000.0 0.07168041496237847 0.15441552373374226
3880000000.0 -0.16344105559438085 0.09128027769025904
3900000000.0 -0.12772228322032153 0.15469544289005036
3920000000.0 0.013855611376251123 0.20036307138096485
3940000000.0 -0.17584408492147602 0.10058253572514797
3960000000.0 -0.1969047565131423 -0.050824555693199436
3980000000.0 -0.08949915312169825 -0.180448196646496
4000000000.0 0.11631345620230218 -0.1623617259119589
