!Created with skrf (http://scikit-rf.org).
# Hz S RI R 50.0 
!freq ReS11 ImS11
400000000.0 0.3540187549147693 0.7650646343209554
420000000.0 0.4998142534253132 -0.6702340302462857
440000000.0 0.07082566349359584 -0.7740107940326325
460000000.0 0.5796372456723204 -0.44226413384812857
480000000.0 0.6357111314128068 0.19901455431553844
500000000.0 0.5378085384486918 0.30776845238235573
520000000.0 -0.33992204703461554 0.44640747519217444
540000000.0 0.07994330285304431 -0.48919404155938007
560000000.0 0.30594770658764925 -0.3591893829178899
580000000.0 -0.1548454664185812 0.38208948893880323
600000000.0 -0.1371005029956299 -0.3313593651381517
620000000.0 -0.2554197513153611 0.24611725181312763
640000000.0 -0.14874197140120823 -0.36765892999706823
660000000.0 0.04644218754161407 0.43091169689693565
680000000.0 0.4216421243061384 0.16117309905305988
700000000.0 0.44177407236198385 0.09532451663520408
720000000.0 0.19948281772235543 -0.3762242811156696
740000000.0 0.3731752426385655 -0.1159762024603204
760000000.0 -0.28157695126820864 0.23244038773173864
780000000.0 -0.011465630978788062 -0.34613045474424514
800000000.0 -0.3226079078336774 -0.009428344566187036
820000000.0 0.22590602532258794 0.13775014439264516
840000000.0 0.12627293105663806 -0.1764698321870672
860000000.0 0.13481282558305674 0.11762518721939325
880000000.0 0.13989057621045492 -0.056541524255140266
900000000.0 -0.12404139665208969 0.0011966089086586464
920000000.0 -0.07329646447378976 0.06080097305429455
940000000.0 -0.05670024605970335 -0.042432350985096096
960000000.0 -0.05919289497764546 -0.02725334215448558
980000000.0 0.06911772521319494 -0.00662889982777874
1000000000.0 -0.07510435747112615 -0.009859690070370098
1020000000.0 -0.06088150955770403 0.06715088992497949
1040000000.0 0.03816099754023916 0.09928559509457388
1060000000.0 0.025869638944463272 -0.14030343672024648
1080000000.0 -0.13525311875880613 -0.10744915689873745
1100000000.0 -0.1803617819418626 -0.10018597518950874
1120000000.0 -0.22134002816274378 -0.09251635833428873
1140000000.0 0.25924387161555534 -0.06839588111067084
1160000000.0 -0.2088725705099744 -0.21407182091604127
1180000000.0 -0.30700707404698463 -0.0993171387947955
1200000000.0 0.3355554400717619 -0.03477388167627414
1220000000.0 0.1086679739401507 -0.3450025925408109
1240000000.0 -0.3748992338224262 0.09533325404244486
1260000000.0 0.07538154304270628 0.4006463997305271
1280000000.0 0.37286046453274063 -0.20012950303549207
1300000000.0 0.10576156322522191 -0.41622000457681557
1320000000.0 -0.14607483921922193 -0.4152898420666843
1340000000.0 -0.3780148709606798 -0.24048688399160076
1360000000.0 -0.24609122681015125 0.3740750855433077
1380000000.0 0.09670267432751774 0.4222128872555146
1400000000.0 0.3520879015998264 0.2305656224413509
1420000000.0 0.3875143978275032 -0.09288461184613422
1440000000.0 0.3701663085652818 -0.1000763252880319
1460000000.0 -0.2986524895096793 -0.20747125525178642
1480000000.0 0.0370948899543201 0.3338015939088029
1500000000.0 -0.05642885169784241 -0.2949850747337202
1520000000.0 -0.01914184040645715 -0.2637009417261881
1540000000.0 -0.2273416174624806 -0.041626680707354785
1560000000.0 0.004050601646869632 0.2080052684345748
1580000000.0 -0.09935519717637933 0.15397668325275773
1600000000.0 -0.14503585489901166 0.004984482912155217
1620000000.0 0.11125557314447114 0.02588728370413835
1640000000.0 -0.054246744369092825 0.0675454126383834
1660000000.0 -0.023000835603798436 0.06080757089972139
1680000000.0 0.042488729018802796 0.010137920905710876
1700000000.0 -0.0008371567477844883 -0.03129676387496131
1720000000.0 0.0034890241878902215 0.023388151789064053
1740000000.0 0.03454986951479616 -0.014806245079454557
1760000000.0 -0.05236178096900664 -0.02583046415093048
1780000000.0 0.006341436928927818 0.08094191011444678
1800000000.0 0.03439686110308914 -0.10431797361788644
1820000000.0 0.09766232617017076 -0.10899239708671477
1840000000.0 -0.18459094218134667 -0.010000990090599434
1860000000.0 -0.044676829774115426 -0.22317558721860578
1880000000.0 0.25807285730400714 -0.016409823443573623
1900000000.0 -0.12764177246431352 -0.2572449923178571
1920000000.0 -0.2556924657297538 0.19429015124256552
1940000000.0 0.35459252513676875 -0.01740338219922777
1960000000.0 -0.3767059050789824 0.030577653608999774
1980000000.0 0.1414162980782078 0.363100320776823
2000000000.0 0.28805826308641985 0.2802673286761364
2020000000.0 0.40854652877528386 0.0915079323938859
2040000000.0 -0.079405233136403 -0.42390818248299345
2060000000.0 -0.1537714455518068 0.40090074708882834
2080000000.0 0.347678097695773 0.22712578508144857
2100000000.0 0.40154025666774074 0.011780911701427484
2120000000.0 0.3181436639278747 -0.21946795246122028
2140000000.0 0.19717733365693504 -0.31318278612170686
2160000000.0 0.34203494837904636 0.07359377914917468
2180000000.0 0.3265791912706422 0.06002842974174312
2200000000.0 0.22335401663370233 -0.22350383273366656
2220000000.0 0.032956919941305514 -0.29940633137430084
2240000000.0 -0.28919874977921345 0.022496849705317543
2260000000.0 -0.24428823254701543 0.1339958519965648
2280000000.0 -0.18382308698809857 0.20166213846208417
2300000000.0 -0.1949770898442591 0.1958417440439209
2320000000.0 -0.11744440758017102 0.2718692857977722
2340000000.0 0.3048659533477201 0.10675364434878681
2360000000.0 -0.03627202861514251 -0.3514772547608448
2380000000.0 -0.33020709345902505 0.21629341991667458
2400000000.0 0.43098268801244694 0.09985179604884967
2420000000.0 -0.4599081490282987 -0.18879734156967506
2440000000.0 0.549825875927883 0.02452769670260881
2460000000.0 -0.580342126239062 0.15277277505848455
2480000000.0 0.5303708464879263 -0.36768809915411044
2500000000.0 -0.5815332840267097 0.36010046469505386
2520000000.0 0.605306137185622 -0.37877572704992696
2540000000.0 -0.6517603905411722 0.34082897516480887
2560000000.0 0.7468462711025804 -0.05985150273282936
2580000000.0 -0.6430331038374176 -0.39564333604200397
2600000000.0 0.3323646822287693 0.6749576160670058
2620000000.0 -0.09021175900551866 -0.7385770238899525
2640000000.0 -0.7030207458523186 -0.19231342503025178
2660000000.0 0.6671892468837027 0.2294148628533103
2680000000.0 -0.6763030556710771 0.025342580144996338
2700000000.0 0.5206817353680772 -0.378172024306042
2720000000.0 -0.032632355713394415 0.6049515312033684
2740000000.0 -0.43323018616910547 -0.36596220743280283
2760000000.0 0.4770234435591522 -0.22529040031949765
2780000000.0 -0.18542123076648945 0.45532493760463205
2800000000.0 0.08092256805978645 -0.45615043570075975
2820000000.0 -0.09128223922741462 0.4338936954932298
2840000000.0 0.05470230167119704 -0.42765430871094273
2860000000.0 -0.1523639373027428 0.3954182721106585
2880000000.0 0.2132269959131438 -0.3607067710617317
2900000000.0 -0.4135118746903128 -0.0022612535330142495
2920000000.0 0.003339888262123725 0.4113680355303979
2940000000.0 0.31149197155352115 0.26402241844350827
2960000000.0 0.3458310433208126 0.21031001948692865
2980000000.0 0.07380493845605333 0.394386974745613
3000000000.0 -0.39660800194731777 0.0805954542656104
3020000000.0 -0.22941239218841591 -0.3310263492751281
3040000000.0 0.3522485825667568 -0.1835635575590486
3060000000.0 -0.005462561612523366 0.3899617574298753
3080000000.0 -0.17833392141410082 -0.3373756789277301
3100000000.0 0.3553660614147693 0.10527041203057393
3120000000.0 -0.348632869866889 -0.07020705757640901
3140000000.0 0.3366221032427907 -0.051552784145230415
3160000000.0 -0.3226797491276003 -0.0026662634770690955
3180000000.0 0.14938035734566713 0.26589636016411383
3200000000.0 -0.2757176072988264 -0.050378626052523225
3220000000.0 0.1121991953748697 -0.2248455018028873
3240000000.0 0.04848761456427809 0.21216828297183554
3260000000.0 0.03897924237496915 -0.1790651331888158
3280000000.0 -0.14715835892804996 0.0033888852099063895
3300000000.0 -0.048751329284271165 -0.10350747711814949
3320000000.0 -0.04595941792285291 0.0743244897604447
3340000000.0 -0.06321780700048257 -0.023191720563179644
3360000000.0 0.0557436621784002 0.0019654320014602226
3380000000.0 0.030418399880850665 0.037379763028894286
3400000000.0 -0.037011514967399475 0.015806617431294245
3420000000.0 -0.019935032997393395 0.020130841528676068
3440000000.0 0.015417147214082546 0.001962437292251123
3460000000.0 0.0018261463555530287 0.0036682261779049604
3480000000.0 -0.005245106886378136 -0.007028704938198666
3500000000.0 -0.014432499919070103 0.010807994969347985
3520000000.0 0.022321337723367887 0.01764824033136629
3540000000.0 0.017284440508517653 -0.038214727314710116
3560000000.0 0.03946212954582926 -0.04100529103578265
3580000000.0 0.07054193198413254 -0.008714863707759323
3600000000.0 0.04116726989662751 -0.07398471297036972
3620000000.0 0.0720531287910807 0.06401302556809374
3640000000.0 0.022689054201472946 0.10339200818625661
3660000000.0 -0.11105822875419805 -0.023505628307122658
3680000000.0 0.1104467399365162 0.03724476317995124
3700000000.0 -0.05328960416768089 -0.10857489368784226
3720000000.0 0.01539218128321477 0.12362814587569944
3740000000.0 0.12010299872522537 -0.044004922384520015
3760000000.0 0.11570042532352173 0.07295692569120937
3780000000.0 0.11098341241551761 0.09809389901361432
3800000000.0 0.11163697958211992 -0.11668285810963987
3820000000.0 -0.16255219227630321 0.0737758157580976
3840000000.0 0.12023583404325303 -0.14801316680509938
3860000000.0 -0.019006525739672785 0.20329211166555763
3880000000.0 -0.20593588031418625 -0.08029759862524603
3900000000.0 0.014778993066496587 -0.23758181834623543
3920000000.0 0.05060150746389294 -0.24664605398659165
3940000000.0 -0.20429429115925082 -0.16551514927936525
3960000000.0 -0.2440136219241598 0.11182386538474019
3980000000.0 0.22906006609365287 0.14132891921408403
4000000000.0 -0.10131955714274339 -0.2416095978920013
