!Created with skrf (http://scikit-rf.org).
# Hz S RI R 50.0 
!freq ReS11 ImS11
400000000.0 0.7826306552026658 -0.2934559844080525
420000000.0 -0.2858266191718696 -0.7818085543889989
440000000.0 -0.6176616177032567 -0.4699746627663652
460000000.0 -0.257667394087554 -0.6723688969672255
480000000.0 0.6611755367226007 -0.03366673639644022
500000000.0 0.5491486056912238 -0.3004822978947158
520000000.0 0.5548531247967559 -0.03704922964295291
540000000.0 -0.17214418107414342 -0.4521566373785438
560000000.0 0.4320641161647635 -0.1707300441079474
580000000.0 0.06483989631242992 -0.41903116583739597
600000000.0 0.3153895148628114 0.23009602432618817
620000000.0 0.3833624292952761 0.027711306015840393
640000000.0 -0.33166996925829884 0.2491427401755539
660000000.0 0.10287608622473388 -0.43391173246290415
680000000.0 -0.4490510938557681 0.0608830611761451
700000000.0 0.04530482107907182 -0.43571286655395797
720000000.0 -0.40994249502227476 0.05487007542626799
740000000.0 0.2494683293473855 -0.282440274733855
760000000.0 -0.22250494226157153 0.278603119088161
780000000.0 -0.20641270128652559 -0.26271674058858163
800000000.0 -0.2913279224412723 0.0925118088092762
820000000.0 -0.19982288513462299 0.14680675272430607
840000000.0 -0.20057261507909777 -0.05147909377329805
860000000.0 -0.1268067937290623 -0.1340888337333844
880000000.0 -0.14212247548629153 -0.05543569387786541
900000000.0 0.1152538500897766 -0.047820318384960696
920000000.0 0.08943256849907827 0.02262553628995201
940000000.0 0.027572124870217866 0.0574246743184921
960000000.0 -0.035851041192771875 -0.06017479104956774
980000000.0 -0.0514070942581376 0.045762508777160614
1000000000.0 0.028540448661928917 0.06891730632083473
1020000000.0 0.08929232986015577 0.032414267782465395
1040000000.0 0.055289509431820434 0.10453196032422736
1060000000.0 -0.15061726825126287 -0.05217386561889013
1080000000.0 -0.11553570333080908 0.1459352491336162
1100000000.0 -0.12389897751873746 0.18227647222513274
1120000000.0 0.13852005855033842 0.21453552455085462
1140000000.0 -0.1813200409113516 0.20693492823913448
1160000000.0 -0.02655638231284048 0.299106282943549
1180000000.0 -0.04080116011999974 0.3214028134212354
1200000000.0 0.2149639345371418 -0.2635740697630738
1220000000.0 -0.3621936638043347 -0.039028837655322966
1240000000.0 -0.20170279201607558 0.3242163609248609
1260000000.0 0.2401692643740053 0.32907000941637077
1280000000.0 0.3388027315261162 -0.25435846216382757
1300000000.0 -0.08470077164815384 -0.43110546255965393
1320000000.0 -0.24176637213193772 0.3708943236097799
1340000000.0 0.0010923399493982851 0.4387147144552941
1360000000.0 0.3031073727172159 0.30812533219008675
1380000000.0 0.29490055866363807 0.2953750211159457
1400000000.0 0.3709515048454122 0.1664600310587524
1420000000.0 0.32121310379387674 -0.21938103091241093
1440000000.0 -0.003732617495319428 -0.3715145441702907
1460000000.0 -0.20519634692678937 0.277759336457275
1480000000.0 0.3100743501858692 -0.04664466750669047
1500000000.0 -0.2750619177206449 -0.0056632614898867485
1520000000.0 -0.21478944346501394 -0.10115760534315892
1540000000.0 -0.043414079727928545 0.19792300231651794
1560000000.0 -0.05241497252835874 0.16672546622858794
1580000000.0 -0.03649327528297883 -0.14742216648745665
1600000000.0 0.08640533030419097 -0.08559551405929662
1620000000.0 0.09017774077152016 0.016481749672336288
1640000000.0 0.018788035837491328 0.05943381232350695
1660000000.0 -0.010838390797961867 0.03643082454739113
1680000000.0 0.008735816541427483 -0.019916961742762355
1700000000.0 0.021457205248026735 -0.0007615640730829512
1720000000.0 0.025007738950860992 0.019485472615303444
1740000000.0 0.01808777519579984 0.05301669282148603
1760000000.0 0.033930545843341535 0.07567823697842127
1780000000.0 0.09225252217884551 -0.06386314400802787
1800000000.0 0.09180334108746692 0.11003887599933478
1820000000.0 -0.07766023521452517 -0.1548494267867447
1840000000.0 -0.0404999965762048 0.2014467471303806
1860000000.0 0.0469276171865005 -0.23730673687053017
1880000000.0 0.0784944994386898 0.2680718313424534
1900000000.0 -0.00030511580486566956 -0.3106505219010827
1920000000.0 0.017667156908939063 0.34427542885369655
1940000000.0 0.16560961220025974 -0.33230402291413924
1960000000.0 -0.26083769824861663 0.29339395828749676
1980000000.0 0.3424829992262529 0.21596418706072879
2000000000.0 0.38764500179625205 -0.15736397834262494
2020000000.0 -0.004696167633170159 -0.4288066103201209
2040000000.0 -0.43077654237086377 -0.06720245032828356
2060000000.0 0.1930724709379202 0.3905359203581011
2080000000.0 0.37286548735067837 -0.20073826113754228
2100000000.0 0.0039238116407144105 -0.40620976646577084
2120000000.0 -0.02060984749240528 -0.38692445784916213
2140000000.0 0.060476533061923084 -0.3677938661979581
2160000000.0 0.35419530258351367 -0.06626810805546221
2180000000.0 0.08026550683389465 -0.33420191650866443
2200000000.0 -0.2766143426151517 -0.1724835922787424
2220000000.0 -0.21425014851746818 -0.22150509473911678
2240000000.0 -0.11910591550002929 -0.2789385950588259
2260000000.0 -0.23323566531089893 -0.19578401029179077
2280000000.0 -0.286270098126849 0.11451417900692436
2300000000.0 -0.06990225011020587 0.312681387448082
2320000000.0 0.3150725791782805 0.13414907029752685
2340000000.0 -0.1141492324812306 -0.3557865873023889
2360000000.0 -0.16886489995624576 0.3733671630960687
2380000000.0 0.3035780532371394 -0.3417472810296537
2400000000.0 -0.2525737124951001 0.44133735012056613
2420000000.0 -0.09798744309201023 -0.5535888817149345
2440000000.0 0.5220374602485203 0.3203268868003864
2460000000.0 -0.6367965892562306 0.16032278285391754
2480000000.0 0.41413399827578184 -0.5590532714970435
2500000000.0 -0.2010281839541852 0.6970327754737852
2520000000.0 0.21265742063275575 -0.7147695566007001
2540000000.0 -0.5307208862136276 0.5398273672393935
2560000000.0 0.7506641062442964 -0.12840189635370663
2580000000.0 -0.6176843047515376 -0.44044502604908947
2600000000.0 0.3158208811510295 0.6770368122579078
2620000000.0 0.061277579901948424 -0.7272254831660312
2640000000.0 -0.6551846273637152 -0.2594918265597981
2660000000.0 0.638658039556469 0.2092721641330849
2680000000.0 -0.6061397707093256 -0.18943162771401242
2700000000.0 0.5926590929857652 0.07265795140235583
2720000000.0 -0.5381203849956644 0.1355736051675988
2740000000.0 0.4962544266129003 -0.12896051422187535
2760000000.0 -0.47379874884846357 0.058402766213919606
2780000000.0 0.4460341942353546 -0.034746046102516186
2800000000.0 -0.4242598530089353 -0.024210355248175094
2820000000.0 0.4083378312888577 -0.0215834582553644
2840000000.0 -0.38786765825375846 0.09919321064224419
2860000000.0 0.3765924847316873 -0.11538754012524309
2880000000.0 -0.3801614335533672 -0.07432703172936016
2900000000.0 0.09507434738990238 0.37299273207564954
2920000000.0 0.37951813626079167 -0.05104935719155284
2940000000.0 0.0814082293791002 -0.3714346312425355
2960000000.0 0.09876706936895306 -0.36188470025162306
2980000000.0 0.3717095533842649 -0.03818543791353331
3000000000.0 0.10512274397402163 0.36423151410511034
3020000000.0 -0.19828530403042416 0.32084853411712344
3040000000.0 -0.3096334898037899 -0.20313194873402154
3060000000.0 0.26858112221827635 -0.24124242533281395
3080000000.0 -0.21062659208892182 0.27957388951382817
3100000000.0 0.229813028312496 -0.24728717510535367
3120000000.0 -0.188797857552793 0.2689530513793382
3140000000.0 -0.1490843077675389 -0.2803388716292924
3160000000.0 0.26890776641600295 -0.12298647017589359
3180000000.0 -0.26769634912642276 0.026375566838295637
3200000000.0 0.2051294069246589 -0.1122290291740276
3220000000.0 -0.09709218071894114 -0.1763646217403812
3240000000.0 -0.15165472393181292 0.08264888113252486
3260000000.0 -0.04565088229514545 0.13314127591265973
3280000000.0 -0.1102427052682017 0.008066009785175866
3300000000.0 0.004907990055396174 0.08523727438418334
3320000000.0 0.030452465045703623 0.0557354256962859
3340000000.0 -0.03809019340596123 0.023284619684751654
3360000000.0 -0.03648622922710292 0.005294051804930509
3380000000.0 0.011791523765761789 0.03882866348439397
3400000000.0 0.03715460009449175 -0.012535565800503882
3420000000.0 -0.0279767981354105 0.010936845183821443
3440000000.0 0.010932801831609069 0.020800283207926467
3460000000.0 0.02392222917380603 -0.0037961469812168797
3480000000.0 -0.020937737311360893 -0.003710417352401967
3500000000.0 -0.024819643483071877 0.001974130936869537
3520000000.0 -0.010815413161911494 0.03500163469029377
3540000000.0 0.03433677015202233 -0.040126626523441976
3560000000.0 -0.004839461500696267 -0.06330330279924616
3580000000.0 0.022314294204854025 -0.06591271875125804
3600000000.0 -0.03175719316581601 -0.06570488174978759
3620000000.0 0.05618071053614403 -0.05977825670786794
3640000000.0 -0.0907502902571131 0.019608850675226885
3660000000.0 -0.07450412131691586 -0.06550129027247091
3680000000.0 0.013380038011109081 0.0971610262941381
3700000000.0 0.09690309006738358 0.0010341857805728607
3720000000.0 -0.06945594617480724 -0.06432641051858215
3740000000.0 -0.06323534242611521 -0.06552652644503905
3760000000.0 -0.08183915808194989 -0.044803971781045566
3780000000.0 -0.0501879030101978 0.08661798433534408
3800000000.0 0.017088528547943165 -0.1100851912464769
3820000000.0 0.07566613389228888 0.10108065845787284
3840000000.0 0.020140033489885797 0.14442286982460675
3860000000.0 0.0036883042020811113 -0.16737168866327554
3880000000.0 0.18066645037318022 -0.044761371487094484
3900000000.0 0.1917801909828729 0.054656172286600364
3920000000.0 0.1934784825880942 -0.0496380993779505
3940000000.0 0.18930583673534473 0.05899368959272143
3960000000.0 0.11903746460012683 0.15859067275895225
3980000000.0 0.10354386561072691 0.16727830638881325
4000000000.0 -0.06442735955655267 0.17834632681448231
