!Created with skrf (http://scikit-rf.org).
# Hz S RI R 50.0 
!freq ReS11 ImS11
400000000.0 0.38450382014581264 0.7527759105306662
420000000.0 0.49250502805512203 -0.6753334182235423
440000000.0 0.04204818297810028 -0.7765808947284321
460000000.0 0.5536032221323748 -0.47275930524992044
480000000.0 0.641220586293612 0.18157464998671444
500000000.0 0.5634860022138625 0.25646389567814715
520000000.0 -0.37168990588483003 0.41975973338180944
540000000.0 0.018336188911495615 -0.49611849372593797
560000000.0 0.3498450860642265 -0.3172130980970052
580000000.0 -0.21705489424552785 0.3502294893034222
600000000.0 -0.14698907989231083 -0.32496420750418986
620000000.0 -0.23828476514938698 0.26003727326820203
640000000.0 -0.2423916303355764 -0.3112688142892224
660000000.0 0.17789699954511404 0.39288728993274286
680000000.0 0.44972961589257404 0.02421897116786273
700000000.0 0.45091091941800954 -0.02044335658446479
720000000.0 0.08749458797566655 -0.41710234998324264
740000000.0 0.3642317910267994 -0.14890874815845423
760000000.0 -0.2659101987192253 0.2525661760957464
780000000.0 -0.023035205524342732 -0.3468811695870242
800000000.0 -0.3189476041139848 -0.056251762025367955
820000000.0 0.17947379045583586 0.19514864151383085
840000000.0 0.1812260609869874 -0.12059702237629359
860000000.0 0.019447761278305553 0.1776855591854633
880000000.0 0.13084954646200903 0.07254595841079546
900000000.0 -0.07743939762963542 -0.09324128067006847
920000000.0 -0.07817088556037949 0.047417595881613185
940000000.0 -0.02670560045199037 0.06310780390558722
960000000.0 0.03368297534820519 0.05579062784440363
980000000.0 0.015916209299405182 -0.06948316101612861
1000000000.0 -0.07387474954738367 0.024095689203246323
1020000000.0 -0.08456508317105091 0.03742122127656904
1040000000.0 -0.0430608975234943 0.09872672198283475
1060000000.0 0.12489117465190888 -0.06982465121392993
1080000000.0 -0.007220850345984931 -0.1714919227654608
1100000000.0 -0.11923530115742054 -0.16571974679780013
1120000000.0 -0.21143346204661467 -0.10780561710806173
1140000000.0 0.2428487887803343 -0.10773626903672825
1160000000.0 -0.24907986060708284 -0.16078923145993482
1180000000.0 -0.32036205579583316 0.010633770995820167
1200000000.0 0.297366327869696 -0.15609441252655948
1220000000.0 -0.027649653719697707 -0.3594585487184309
1240000000.0 -0.3472901386305869 0.17034986575273178
1260000000.0 0.12277971534982425 0.3891998823641795
1280000000.0 0.3540120749230387 -0.23278742535227545
1300000000.0 0.05771396581280271 -0.4267166521545899
1320000000.0 -0.16535592068111843 -0.40870694177360034
1340000000.0 -0.37585117179981153 -0.24517337868256506
1360000000.0 -0.26247743217171843 0.3633543962270505
1380000000.0 0.07020547157439933 0.42777855958765776
1400000000.0 0.3434608406830188 0.24326128142616663
1420000000.0 0.3917509173810642 -0.07089846590220944
1440000000.0 0.3716946326157551 -0.09160333491515461
1460000000.0 -0.29195284715607217 -0.2158003947199735
1480000000.0 0.08734505210141076 0.3238250863200558
1500000000.0 -0.05298225954763356 -0.29469718379377247
1520000000.0 0.005706771705084927 -0.2631904376751088
1540000000.0 -0.22236508247907083 -0.05875654698879081
1560000000.0 0.00627668172711938 0.20729723369147496
1580000000.0 -0.08115370503875159 0.16329132787982473
1600000000.0 -0.13597264771143233 0.04929988453898565
1620000000.0 0.114021739572756 -0.003789301148232534
1640000000.0 -0.037695910845617284 0.07830347531471243
1660000000.0 -0.0030961109237753483 0.06505715022637674
1680000000.0 0.03248398267155608 -0.029262684888761784
1700000000.0 -0.029716245458195557 0.010121941685233145
1720000000.0 0.023038551660797314 0.003423636556294211
1740000000.0 0.009244166161520224 -0.03651924544334866
1760000000.0 -0.058234827612817265 -0.004088675449013935
1780000000.0 0.0240437350420939 0.07747577147801943
1800000000.0 0.03322620639639896 -0.10487502068227889
1820000000.0 0.07731513968653955 -0.12459716302133717
1840000000.0 -0.18139611567862085 0.03887333490941285
1860000000.0 -0.08863555887023805 -0.2105089176427473
1880000000.0 0.25788804772064244 -0.029249627752483034
1900000000.0 -0.1338394419903589 -0.25502382741383794
1920000000.0 -0.26228183493225404 0.18585544216440322
1940000000.0 0.3551377159813102 -0.005340218337137585
1960000000.0 -0.3779472342684503 0.012327180649282612
1980000000.0 0.12159542338722976 0.370159233032505
2000000000.0 0.27880248078698944 0.2890748996189103
2020000000.0 0.40888595017135126 0.0859552669307518
2040000000.0 -0.04525027360429798 -0.42840839775858863
2060000000.0 -0.20264176119052893 0.3778598157401767
2080000000.0 0.3408355865187174 0.2357977857110003
2100000000.0 0.39974695310700736 0.03269156888044181
2120000000.0 0.3059652210944866 -0.23472019177540118
2140000000.0 0.16922450050781856 -0.3281636195217492
2160000000.0 0.3479061117573802 0.028096066594408976
2180000000.0 0.33127828135761905 -0.01563414367726784
2200000000.0 0.15539189512210902 -0.2751942198256531
2220000000.0 0.016596439064773774 -0.30175928047954126
2240000000.0 -0.2748840931259322 0.09599931624684423
2260000000.0 -0.2493145921905632 0.12709857761223345
2280000000.0 -0.19328507595054278 0.19481281021401164
2300000000.0 -0.20837361782616465 0.18418916184718648
2320000000.0 -0.16571783252605907 0.247027984749793
2340000000.0 0.28790144274300716 0.1490026252504249
2360000000.0 0.02417768616457883 -0.35358567054918216
2380000000.0 -0.3604279575192808 0.162552775049296
2400000000.0 0.4158182312283211 0.15197324254088476
2420000000.0 -0.44502557503652673 -0.2209653763997494
2440000000.0 0.5490847423616207 0.03320727550718858
2460000000.0 -0.5745118798890954 0.172272182385361
2480000000.0 0.5163512785117551 -0.3862005900528588
2500000000.0 -0.5028191222101726 0.46153697723443554
2520000000.0 0.4863329928924242 -0.5206290130766015
2540000000.0 -0.5901076523044961 0.43660914217729374
2560000000.0 0.7097824580915545 -0.2339945676024631
2580000000.0 -0.6922623283349716 -0.2990746488036789
2600000000.0 0.4597610344142334 0.5953001589466397
2620000000.0 -0.2702229842489268 -0.6932010547836417
2640000000.0 -0.7278177917435642 -0.04442170172111047
2660000000.0 0.7022419119475013 0.07221719574519403
2680000000.0 -0.6603236545173474 0.14986215319968488
2700000000.0 0.4588074512237454 -0.4516058796545784
2720000000.0 0.014345149380254905 0.6059683308445198
2740000000.0 -0.4561492452506197 -0.3377660066120862
2760000000.0 0.4880764099248647 -0.20021483191887954
2780000000.0 -0.24602117699649936 0.42510060444493797
2800000000.0 0.17327101025662847 -0.4290584917898026
2820000000.0 -0.14317726594113578 0.4188783103713849
2840000000.0 0.1325192971339941 -0.40976308857736465
2860000000.0 -0.21008645283139285 0.3664164204663218
2880000000.0 0.27958217722040446 -0.31003303461548476
2900000000.0 -0.4113947500825258 -0.014611683193966484
2920000000.0 -0.02045450181948717 0.40932065784740906
2940000000.0 0.34522000378582585 0.21474973974755415
2960000000.0 0.35376254605208174 0.19343222949600242
2980000000.0 0.13771533999318333 0.37477832927972216
3000000000.0 -0.3710090929907566 0.15742944606951917
3020000000.0 -0.2989073784013348 -0.26849393813361055
3040000000.0 0.2726456863961064 -0.28859236320000914
3060000000.0 0.1531798251625755 0.35788004656354866
3080000000.0 -0.2467463770453706 -0.28938441008506427
3100000000.0 0.35987845530077683 0.08469419124315397
3120000000.0 -0.35230541197880316 0.045499228075008204
3140000000.0 0.2745209123799318 -0.201370583746273
3160000000.0 -0.26551102592902026 0.1826657673376462
3180000000.0 0.18018173019152867 0.24679635818848344
3200000000.0 -0.28091268981082357 0.0012664557473119837
3220000000.0 0.08465268910512058 -0.23752004555779102
3240000000.0 0.07533843461718445 0.20482043364643449
3260000000.0 0.022069234513988283 -0.1822987717422145
3280000000.0 -0.1458144247508154 0.026669193869838084
3300000000.0 -0.058420322974760096 -0.09987178467097493
3320000000.0 -0.021214383350733033 0.08604129759081859
3340000000.0 -0.03754963335602864 -0.05774506773877085
3360000000.0 0.029151410401946857 0.049785884016773876
3380000000.0 0.040906043778240066 0.028583850145993087
3400000000.0 -0.033793458027107745 0.025080784498077116
3420000000.0 -0.029402407728172673 0.0015375429402157373
3440000000.0 -0.0032136473257419296 0.016371373196844362
3460000000.0 -0.0039634953834732775 0.0020299544337865423
3480000000.0 0.001457029561778865 -0.00756404122950887
3500000000.0 -0.01635283559084457 -0.001820260916760609
3520000000.0 0.01139332565437852 -0.02494928533993204
3540000000.0 -0.034290084188279446 0.023819214361149896
3560000000.0 -0.006537104516107479 -0.05646841799264392
3580000000.0 0.04386009445368415 -0.055913891969876874
3600000000.0 0.026007689755816583 -0.08019865207744452
3620000000.0 0.09218813750607616 -0.03101829218106167
3640000000.0 0.10173537870122402 0.033604618151918245
3660000000.0 -0.03190257925132594 0.10975692300528604
3680000000.0 0.015492667515088824 -0.11795098635365135
3700000000.0 -0.1085601790857816 0.05733124676081955
3720000000.0 0.12234295929426098 -0.03367425352268417
3740000000.0 -0.06373908361133014 -0.1118372455063794
3760000000.0 -0.1369965119451147 -0.01410076808841896
3780000000.0 0.0598318809514923 0.13437228174393767
3800000000.0 -0.07363838890612172 -0.1407872507537894
3820000000.0 -0.15400558002000314 0.08314467341937282
3840000000.0 0.10658092308746844 -0.15606446358267959
3860000000.0 -0.0651474590698202 0.19231690719741731
3880000000.0 -0.08001704653628483 -0.20434207977794863
3900000000.0 0.20538759408712406 -0.11566869173118698
3920000000.0 0.24614526294083958 -0.04060664534941772
3940000000.0 0.19114158912022072 -0.17419407935047385
3960000000.0 -0.22292311362660933 -0.13292943618293548
3980000000.0 -0.18504955528216255 0.19013187175274432
4000000000.0 0.2519523877258412 0.059200763501724554
