!Created with skrf (http://scikit-rf.org).
# Hz S RI R 50.0 
!freq ReS11 ImS11
400000000.0 0.4216115515434741 -0.7056903354194126
420000000.0 0.0954428344392616 -0.8184091082931089
440000000.0 -0.630475820668234 -0.44705311526540487
460000000.0 -0.27991897428420087 -0.6619892185013717
480000000.0 0.3240211357511099 0.58241458703858
500000000.0 0.6076095285598924 -0.20627835045414686
520000000.0 0.3303880442534259 0.46089007522164527
540000000.0 -0.36865732339896806 0.33452714635199204
560000000.0 -0.24496122690462518 -0.3978684930338124
580000000.0 -0.40912669493419784 -0.07744235632497064
600000000.0 0.3020043524793328 0.22821918467856137
620000000.0 0.284912135504849 0.2428706436303206
640000000.0 -0.32327954688079796 -0.2570801704173274
660000000.0 0.35976515977352186 -0.26738909890293067
680000000.0 -0.40323567971908836 -0.21448029519983974
700000000.0 0.3760840676625465 -0.24187464716416668
720000000.0 -0.20053239787485228 0.3863332558367271
740000000.0 -0.1338958267863629 0.3583323302895552
760000000.0 0.2485037732388697 -0.24615515652162231
780000000.0 0.11724554899799182 0.29707186685177733
800000000.0 -0.09590576006168665 0.2702480557448339
820000000.0 -0.23618685912301457 0.0616495109184415
840000000.0 0.16868613237173444 -0.09820863927839897
860000000.0 -0.14876481994027974 0.08120720469522083
880000000.0 -0.13380948026275852 0.05114011820003923
900000000.0 0.036027926661937465 0.09819525531161234
920000000.0 0.0299527446878893 -0.07596592219603293
940000000.0 -0.037658750534130016 0.0367630312587353
960000000.0 -0.01904158766621166 -0.051167902832762374
980000000.0 0.06085892811119013 -0.04406914124162215
1000000000.0 0.03912232618753095 -0.0686081915172808
1020000000.0 0.06513059531136352 -0.09284750229843682
1040000000.0 0.09693660700449784 0.09538578294866933
1060000000.0 0.1588743036153866 0.05907786509834938
1080000000.0 -0.20175730456876712 0.06905286387658212
1100000000.0 -0.18745551613437325 0.14099990620698363
1120000000.0 0.11960165121964546 -0.21899821800574154
1140000000.0 0.10365194333746644 0.25616795870230147
1160000000.0 0.13989836064227398 0.25815692879479535
1180000000.0 -0.3284500854334 0.030084788331061017
1200000000.0 -0.27949744744038907 -0.20729289101248996
1220000000.0 0.07031646684799271 0.3626499277049657
1240000000.0 0.16216464780996026 -0.3375211419164242
1260000000.0 0.1931225727219793 0.3319634051461016
1280000000.0 0.3994355589072471 0.12678689882979788
1300000000.0 -0.050918196087018044 -0.42795566765431037
1320000000.0 -0.42415164348627904 0.11008805555110612
1340000000.0 -0.40120140499480617 0.17719186219511207
1360000000.0 -0.03665044094738828 0.445689940102173
1380000000.0 0.20086008663273178 -0.3786780226722522
1400000000.0 0.017421632630876357 -0.40618100829078013
1420000000.0 -0.30755180282186295 -0.22314218065075167
1440000000.0 -0.21868933619684477 -0.28854939262332197
1460000000.0 -0.0804388546163581 0.331137661112229
1480000000.0 0.18304906130173973 -0.2501766644788767
1500000000.0 -0.14613402735424588 0.23095991345909483
1520000000.0 -0.03218515180234974 0.2304202831140936
1540000000.0 0.19549669190722063 -0.001856845643343062
1560000000.0 0.04793806551153415 0.15411120518440594
1580000000.0 0.0654470921303198 0.13031737619643496
1600000000.0 0.09034416226692407 0.0811099173346864
1620000000.0 0.046523379611442865 0.07453663106379159
1640000000.0 0.02360452396649852 -0.0573685190362161
1660000000.0 -0.00942521772069273 0.039332396743865336
1680000000.0 -0.0027374219118196943 0.021633413072425448
1700000000.0 0.013672930251338299 0.008515539897958845
1720000000.0 -0.03805346117350559 0.005891936111544752
1740000000.0 0.06152408799964548 0.0005125390612034678
1760000000.0 -0.013223869734764587 -0.08674867444052588
1780000000.0 -0.09236196050228629 -0.06449179036131918
1800000000.0 0.12336970524976716 0.07683132800796308
1820000000.0 -0.13484112352478592 0.11544609818666514
1840000000.0 0.16856772121430003 0.11887455508627692
1860000000.0 -0.0864655751734448 -0.2285932230760742
1880000000.0 0.0803048150991062 0.27424649001311296
1900000000.0 -0.28895376242348464 -0.15121572025564425
1920000000.0 0.05079063905849339 -0.3556283270453506
1940000000.0 -0.06448531000401829 0.36701704552944997
1960000000.0 0.3540712028350035 0.15752416905814892
1980000000.0 0.38383288836262264 -0.12677409716627736
2000000000.0 -0.007855221287391967 -0.42460617503554127
2020000000.0 -0.37722549593144017 0.2164239560053814
2040000000.0 0.30182242100708007 0.314725471366332
2060000000.0 0.3547466453029184 -0.2394666016566644
2080000000.0 0.21051782022513052 -0.3620135907800801
2100000000.0 -0.07033676502033202 -0.4049522252299331
2120000000.0 -0.3624299162517847 -0.17162735015770028
2140000000.0 -0.28639924401394884 -0.26072305402598417
2160000000.0 -0.2619361897022048 0.2547732953068653
2180000000.0 -0.013831791711345636 0.34051438829083464
2200000000.0 -0.12304212363604543 0.29745064025226076
2220000000.0 -0.3120270991373964 0.03344548076279783
2240000000.0 -0.20366714180985163 0.24204205447616908
2260000000.0 0.27236309190325103 0.16196397166965262
2280000000.0 0.24941978767464526 -0.20060288449238559
2300000000.0 -0.06464373669448666 -0.32542995773178374
2320000000.0 -0.35242368182179806 -0.04317686203296315
2340000000.0 0.10034212084798544 0.3768985170129501
2360000000.0 -0.015178923628663315 -0.4349181003214995
2380000000.0 0.35704985948028306 0.32877514030741317
2400000000.0 -0.5329756644427853 -0.03376937253024187
2420000000.0 0.46509476353264834 -0.3541233954535284
2440000000.0 -0.06455401963526715 0.628963071272104
2460000000.0 -0.4159782478626183 -0.5311947219025379
2480000000.0 0.6844307291130018 0.18589109628838293
2500000000.0 -0.7336633667817343 -0.013538102018936935
2520000000.0 0.7481895046879249 -0.0569655308584494
2540000000.0 -0.7183423900714478 -0.24006649228789304
2560000000.0 0.551078345998264 0.5189976103200751
2580000000.0 -0.004848827257020891 -0.7488273375342677
2600000000.0 -0.3758704632481583 0.6284065574349553
2620000000.0 0.6161153948725654 -0.35191287542708416
2640000000.0 -0.06005664985917813 -0.6766191011240826
2660000000.0 -0.26468006175949255 0.5843312567890894
2680000000.0 0.49488468304507927 -0.3440428537850311
2700000000.0 -0.5273989803544833 0.20824426752714914
2720000000.0 0.41013926718690885 -0.33420816780878765
2740000000.0 -0.2657965943362127 0.4105833075730158
2760000000.0 0.20181259478674246 -0.40309261088922876
2780000000.0 -0.386268334032036 0.16831259953270483
2800000000.0 0.4017804152657775 0.040712911308762326
2820000000.0 -0.36645075765204627 -0.13969677102566355
2840000000.0 0.35921594617656905 0.14903389488136162
2860000000.0 -0.35967290896019494 0.12795974736186516
2880000000.0 0.32148163796552687 0.1871972985594341
2900000000.0 0.35449181995487716 -0.10197725181803163
2920000000.0 0.2218610262788751 -0.29964772100941056
2940000000.0 -0.13626835799417392 -0.35326438323325327
2960000000.0 -0.3318101939613544 -0.18081519683935024
2980000000.0 -0.24478255796796594 -0.28714372911877883
3000000000.0 0.05879983456859867 -0.370938477143663
3020000000.0 0.3524446632676885 -0.10897202979815063
3040000000.0 -0.12063572307217055 0.3399419928692275
3060000000.0 -0.018804324958940282 -0.350531418208571
3080000000.0 -0.1910311948470485 0.28490244955671645
3100000000.0 0.2718011988501042 -0.20006901374979563
3120000000.0 -0.027101987771687524 0.3276604200785815
3140000000.0 -0.2857685067644229 -0.13505872488824408
3160000000.0 0.15562075424052357 -0.24702964604097
3180000000.0 -0.2646270233602863 -0.0022030384426076485
3200000000.0 0.23344815225666088 0.022181203195222817
3220000000.0 -0.1315942098823454 -0.15560502781724017
3240000000.0 -0.1001383392772634 0.14446421659176092
3260000000.0 0.1433663243233267 0.026930726289495905
3280000000.0 0.1091802905696813 -0.019094476668669893
3300000000.0 -0.0008953679240546313 -0.08100113399581456
3320000000.0 -0.019047857218583805 -0.05527902129531381
3340000000.0 -0.050359517449346074 -0.0004621084865029921
3360000000.0 -0.028420884355991476 -0.037572066937541844
3380000000.0 -0.02782346681026206 -0.024484244609331914
3400000000.0 0.01563091593881685 0.022084417854920962
3420000000.0 -0.022494245999597876 -0.006872541370039014
3440000000.0 -0.017815066726298998 -0.01465043660730544
3460000000.0 -0.012686325260518936 -0.0007194271776317567
3480000000.0 -0.015377087735731099 -0.0023797741819896663
3500000000.0 0.028980387833946096 -0.006032524549331706
3520000000.0 0.04731963790843111 0.015261600483503479
3540000000.0 -0.0631560377934755 -0.016792617190320137
3560000000.0 0.07389345338426402 0.010887045913792987
3580000000.0 0.07587885258703378 0.018836231669894156
3600000000.0 -0.027480378121713857 -0.07508646918332972
3620000000.0 -0.03368823033448291 -0.07941843285212957
3640000000.0 -0.04592751391072716 0.08155182142629044
3660000000.0 0.017756315695871286 -0.0989234091601627
3680000000.0 0.08236835308421363 0.05778059430906714
3700000000.0 0.00622043747930511 -0.09627652759282163
3720000000.0 -0.03179630312930743 -0.08950048528178892
3740000000.0 0.07770025657243529 -0.05018061343715602
3760000000.0 0.04398736116183649 -0.084892042508874
3780000000.0 -0.09407149302783262 0.03753690984245008
3800000000.0 -0.02630256474973601 0.10452816880763202
3820000000.0 0.11013813837590737 -0.05890127593353332
3840000000.0 -0.05972055362552568 -0.1316225760349397
3860000000.0 0.1442787117853673 0.08109016215063888
3880000000.0 0.11767265826145892 0.1393665135182123
3900000000.0 0.14412274864360974 0.12780995483778917
3920000000.0 0.11319641329197305 0.1562646390198614
3940000000.0 -0.1765940057919215 0.07612954503957459
3960000000.0 0.08174771572991266 -0.17640077951791544
3980000000.0 0.18819122157025608 0.05784671286909538
4000000000.0 0.1369052205162407 0.1349347897692595
