!Created with skrf (http://scikit-rf.org).
# Hz S RI R 50.0 
!freq ReS11 ImS11
400000000.0 0.7137631288192596 -0.39820243409223033
420000000.0 0.5252635730186843 -0.6308090876117552
440000000.0 -0.48344081462500205 -0.6001841185287367
460000000.0 0.25250339268240485 -0.664076365610392
480000000.0 -0.408672379072703 0.5218200578154998
500000000.0 0.3035686658733722 0.5724544066661789
520000000.0 0.40436146877949036 0.40981173035131124
540000000.0 -0.5015352478718885 0.021159434589905927
560000000.0 -0.22162319300946184 -0.41878212476511084
580000000.0 -0.26198013527579417 0.3325258622691067
600000000.0 0.34789016748891444 0.14748784807399198
620000000.0 0.33896923618119884 -0.16407448612650838
640000000.0 -0.3134585965316866 -0.266585077686071
660000000.0 0.4351130119626329 -0.08676743649861204
680000000.0 -0.3616097868016366 -0.2665100441797612
700000000.0 0.3237317424624002 0.2953861067298863
720000000.0 0.35127505939046905 -0.24707983293274868
740000000.0 0.3077648097380164 -0.26433292753797316
760000000.0 0.2231033231062292 -0.3036522355947071
780000000.0 0.2322210539288986 -0.23770913085064324
800000000.0 0.14397761254611433 0.25343475850956315
820000000.0 0.17176850413589886 0.16690891208328715
840000000.0 -0.18564731707663853 -0.059783054317551924
860000000.0 -0.11709765658027088 0.13327923461393723
880000000.0 0.01871930479581361 -0.1445796708057906
900000000.0 0.013875307918697236 -0.1158826204277084
920000000.0 0.06891093620338787 0.026998947996760586
940000000.0 0.032865016728370215 -0.029919036361678496
960000000.0 -0.05689832471473618 -0.021062519296598997
980000000.0 0.06353703272757034 0.022348417168453854
1000000000.0 0.021318553213143045 0.07444032574612125
1020000000.0 0.0758438142748978 0.06378811622691859
1040000000.0 0.08939454563990278 -0.0692209445543681
1060000000.0 0.1532635215464922 0.0162135416228262
1080000000.0 -0.15910156492933014 -0.10242681881033731
1100000000.0 -0.20512645014823147 0.08146186920948141
1120000000.0 -0.18923059289282398 0.1725113971795859
1140000000.0 -0.18621394336708183 -0.21371447421052422
1160000000.0 -0.019699676746851913 0.31560305663205307
1180000000.0 0.3185517871200063 -0.08991502420455173
1200000000.0 -0.23251773650751417 -0.2440707795186211
1220000000.0 -0.3582938909566932 -0.008914539314781455
1240000000.0 -0.34190830845471 0.17375631747453457
1260000000.0 0.3918569797323011 0.10830574279684212
1280000000.0 0.38636253002495813 -0.16375797230310601
1300000000.0 -0.233695484766204 -0.36582662246478953
1320000000.0 -0.4264645180141174 -0.09078619941508531
1340000000.0 -0.3876788971887232 0.2107023851184876
1360000000.0 -0.01621223862538113 0.4337439977428006
1380000000.0 0.07111222305159112 0.42026118373187293
1400000000.0 0.4155413319443633 -0.01469697164651112
1420000000.0 -0.01814065243174176 -0.39471333496982813
1440000000.0 -0.3305204236513989 0.16220090731780612
1460000000.0 -0.07126444596126427 0.3264071840213728
1480000000.0 0.10525749538782153 0.2856869420258166
1500000000.0 0.27066402823919294 -0.0729584138049204
1520000000.0 -0.2169801076137839 -0.13172891051351068
1540000000.0 -0.08200575986251597 -0.19629796159613064
1560000000.0 -0.15448391592273772 0.0629807122535547
1580000000.0 0.0018216282457676931 -0.1356290275449495
1600000000.0 -0.044052217930888427 -0.10483240974858772
1620000000.0 -0.08985853001509118 -0.01742808651705877
1640000000.0 -0.032869835664442924 -0.06697299626691694
1660000000.0 -0.04947348277485547 0.004189085902968617
1680000000.0 -0.007837526703992032 -0.022742365921785766
1700000000.0 -0.01212740962232632 0.004876326345381093
1720000000.0 -0.03933137899048859 0.00022680214630225814
1740000000.0 -0.048348779296038674 0.044082816607310456
1760000000.0 0.02900501793774402 -0.0750007548273597
1780000000.0 -0.05048392165697582 -0.08324757981553539
1800000000.0 0.13235454441503852 -0.007749962454052524
1820000000.0 -0.12534777276110703 0.12123797790783249
1840000000.0 -0.14303662895302324 -0.1566312338454704
1860000000.0 0.07381143571280938 -0.23916818249713753
1880000000.0 0.22224475983143968 0.17460696220238808
1900000000.0 -0.2564945498644584 -0.17825357840025233
1920000000.0 0.16537761089802977 0.2975886340784257
1940000000.0 0.3357551429306785 -0.15655344338001853
1960000000.0 -0.33276290836903843 0.22163287052497918
1980000000.0 0.35982951853444817 -0.1997055212691384
2000000000.0 -0.18938736995819674 -0.37213763579301373
2020000000.0 -0.4156092599400967 -0.052174609960837844
2040000000.0 -0.4131338107925482 -0.06782064985692628
2060000000.0 -0.41987255027171033 0.00036027539898866043
2080000000.0 -0.34719062138499507 0.244243236164391
2100000000.0 0.4193120563179865 0.04072381060741172
2120000000.0 -0.0756170345415104 -0.39572443039585
2140000000.0 -0.3473974055112578 -0.15890468578770145
2160000000.0 -0.0057583099737098745 -0.36016499028862065
2180000000.0 -0.14774675976787083 -0.3065453756351994
2200000000.0 -0.2647588682402791 -0.18302505446644365
2220000000.0 -0.20237684699571434 -0.22964662061140606
2240000000.0 -0.1664245598469053 -0.2509551299133982
2260000000.0 -0.2731294650026284 -0.12003073766402342
2280000000.0 -0.29643063935120956 -0.0599990244815544
2300000000.0 -0.2604248009629869 0.1763326976409335
2320000000.0 0.059541393568005856 0.3335946490005102
2340000000.0 0.16052697298384047 -0.33681851970395044
2360000000.0 -0.2173514163631209 0.3477201172550823
2380000000.0 0.24977528661265855 -0.37878816753409966
2400000000.0 -0.28448793657436966 0.4155566049013411
2420000000.0 0.09695417082578876 -0.5494763810784589
2440000000.0 0.35236103896026943 0.4971404308701972
2460000000.0 -0.6441874391810626 -0.11649490485513847
2480000000.0 0.6295617754668494 -0.2918517276539187
2500000000.0 -0.59186249281272 0.4160815249750738
2520000000.0 0.5363396368551171 -0.5170242101689879
2540000000.0 -0.6387096402572788 0.407531341960963
2560000000.0 0.7617902430777874 -0.04926724820197265
2580000000.0 -0.6038099268491358 -0.4623431157349652
2600000000.0 0.26628136639588357 0.7006497594442457
2620000000.0 0.0822413690651156 -0.7270835756925914
2640000000.0 -0.6305910603745581 -0.3228500398612368
2660000000.0 0.5457575824920746 0.398828301788203
2680000000.0 -0.49212985132486725 -0.40708859087504107
2700000000.0 0.49723776356009963 0.33617392963489445
2720000000.0 -0.5457806902500717 -0.12706171082111153
2740000000.0 0.5197279300634629 -0.014075842755800169
2760000000.0 -0.46305565142514327 0.1377609165530345
2780000000.0 0.3864602529234806 -0.23328442393197119
2800000000.0 -0.39736109265884273 0.15825452488984837
2820000000.0 0.36944206584498973 -0.18338889804780886
2840000000.0 -0.3182676682015078 0.24585163868844337
2860000000.0 0.2684692202830403 -0.28847141362836687
2880000000.0 -0.3833494257400924 0.02546293708516882
2900000000.0 -0.1698832517065295 0.34059492552640597
2920000000.0 0.1914847889238338 0.33374992195982967
2940000000.0 0.38017304504717947 -0.07934148958848522
2960000000.0 0.26545375624513035 -0.2804712460573506
2980000000.0 0.3173684628949036 -0.22014573648487143
3000000000.0 0.3725858874019919 -0.08852398071349217
3020000000.0 0.1618241539009119 0.33819814790681957
3040000000.0 -0.3449533059719886 -0.12183178114697477
3060000000.0 0.3524242904613996 0.06445925575273692
3080000000.0 -0.33950794809774065 -0.08809041029872575
3100000000.0 0.323325979988062 0.11307512328153943
3120000000.0 -0.3217067359064214 0.09360463719782994
3140000000.0 -0.10124698538745583 -0.302641809421445
3160000000.0 0.2366114469794809 0.17908349312150693
3180000000.0 0.059028598494457844 -0.26752568985367814
3200000000.0 0.2301818672057376 0.08090873678129974
3220000000.0 -0.1795938273978546 0.10620262600466017
3240000000.0 0.16410311307800224 0.0531616676366742
3260000000.0 0.11435221501088395 -0.07473884396344568
3280000000.0 -0.0965953515838854 0.03335263668818815
3300000000.0 0.03809158825621502 -0.07070801585133725
3320000000.0 -0.06524553950651231 -0.005294042786302443
3340000000.0 0.02974683957800034 -0.043771088152520725
3360000000.0 0.0402008079955424 0.009899991513686056
3380000000.0 0.03302332209032768 0.013042160730350326
3400000000.0 -0.019432960253613393 0.029881609435939784
3420000000.0 0.021494772094100233 -0.02684259936518661
3440000000.0 -0.028096528277590783 0.0016993188501711238
3460000000.0 -0.014597443124169386 0.008011277200760662
3480000000.0 0.010365574945379779 -0.004899579811524566
3500000000.0 0.018753083996325408 0.02003557549635799
3520000000.0 0.007861021683737798 0.038357165768178575
3540000000.0 -0.047152067997773425 -0.01742457034037245
3560000000.0 0.015627098527691712 0.05291256885854416
3580000000.0 -0.056947538687671564 0.028738978762505436
3600000000.0 0.06259057038229375 -0.042227349193160506
3620000000.0 0.06728642865002285 0.04779763460573226
3640000000.0 -6.362510992563698e-05 -0.08458960830546453
3660000000.0 -0.02488092201949219 -0.08645270979134036
3680000000.0 -0.08929057669312468 0.029702602020091597
3700000000.0 0.019814924287794525 0.09348115540205959
3720000000.0 0.08625409045778676 0.04879678979062464
3740000000.0 -0.08597281807711557 -0.0492379911799606
3760000000.0 -0.02305632857210378 0.09377678297138019
3780000000.0 -0.0861870404524544 -0.057863523817521766
3800000000.0 -0.09240465197003929 0.07860145406371032
3820000000.0 -0.046446645112065914 0.13801970114857248
3840000000.0 -0.15855447336996195 -0.038984168833619756
3860000000.0 0.06054819865896532 -0.1662187020687166
3880000000.0 0.14643331628773598 0.12073221693486322
3900000000.0 -0.09971593202468572 0.17666259390978542
3920000000.0 -0.0688318801621035 0.19982594933659448
3940000000.0 -0.03328387025430502 0.21272095897189067
3960000000.0 -0.060411597326070474 0.2060333466675157
3980000000.0 -0.054971531371155395 0.20000267760616205
4000000000.0 -0.17840072469386895 -0.08157543898939998
