!Created with skrf (http://scikit-rf.org).
# Hz S RI R 50.0 
!freq ReS11 ImS11
400000000.0 0.4720832301497087 -0.6485401337366559
420000000.0 -0.5654187214354179 -0.5724125473791346
440000000.0 -0.22943389786962268 0.7279580331173635
460000000.0 0.712311004133949 0.10169733299135462
480000000.0 0.616695704539904 0.1929361988488322
500000000.0 -0.17208223085078164 -0.5964094961962602
520000000.0 -0.10074758404895451 0.5364081330170395
540000000.0 -0.4181751088073015 -0.23499070605589434
560000000.0 0.2964488375118082 -0.3705618040377922
580000000.0 -0.06865355548398791 0.4212278933019164
600000000.0 -0.33660529093007996 -0.17368298595535375
620000000.0 0.2921924862749357 -0.23476643356418267
640000000.0 0.4027980613831261 0.14709261509081678
660000000.0 0.023570246494519845 -0.4614855953046513
680000000.0 -0.08625051466086554 -0.45478946033969786
700000000.0 -0.18257008096063085 0.39535756729509314
720000000.0 0.35456826216522924 -0.2104655647773087
740000000.0 -0.40738153342567823 -0.04733313862820228
760000000.0 0.248288861861287 -0.30892710480261787
780000000.0 -0.2637068633784767 0.2670019438919647
800000000.0 -0.16565392941517057 -0.3131817041419393
820000000.0 0.32215654282649653 0.04497854940830579
840000000.0 0.014042556258339148 0.2889003517276216
860000000.0 -0.15186592180968125 0.21054182499818025
880000000.0 0.052977655701632695 0.22053100131198033
900000000.0 0.12749930487089586 -0.07693143410673853
920000000.0 -0.04302465790227041 0.04640254153988237
940000000.0 -0.01129699336611704 -0.006442432504242576
960000000.0 0.03171354766938975 -0.02935049742761349
980000000.0 -0.03141069866141084 0.06310796699151576
1000000000.0 -0.015895745571091916 -0.08731126735593198
1020000000.0 0.018132547633767766 0.1156895715781521
1040000000.0 0.07339033687403945 0.1344858344488761
1060000000.0 -0.1898431574928558 -0.010371707897098513
1080000000.0 -0.06384739114841642 0.23368087233452725
1100000000.0 -0.13193038034208088 -0.2592579900656533
1120000000.0 0.2975936176237887 -0.12683037301752043
1140000000.0 -0.2962413183311051 -0.17330830809170572
1160000000.0 -0.35266231488870375 0.06182902888946193
1180000000.0 0.1421497022253569 -0.33136012581230434
1200000000.0 -0.3379411689799756 0.10444813629174834
1220000000.0 -0.255499933753417 -0.22847638816145802
1240000000.0 0.3476252936809308 0.031033029722578015
1260000000.0 0.15275728375476733 0.3239380541783707
1280000000.0 -0.286664916449849 0.23421513905005054
1300000000.0 0.11672422169406886 0.36448712077180806
1320000000.0 0.37627798244889543 -0.03884576940182287
1340000000.0 0.2653433119745248 -0.2656322862201059
1360000000.0 -0.30121537856493374 0.20177199970394308
1380000000.0 0.33246866512087286 -0.017862554613147473
1400000000.0 -0.30219809097886896 -0.00515028022824493
1420000000.0 0.2608407792839473 -0.01344255098528461
1440000000.0 -0.2089854977230089 0.07200626564466692
1460000000.0 -0.1746315594095479 0.031685145365266607
1480000000.0 0.028305126156022407 0.1211998550478542
1500000000.0 0.00671304766002992 -0.07261486722731095
1520000000.0 -0.0007845623677373992 0.0337260738773006
1540000000.0 0.04629913521822393 -0.009464614306640787
1560000000.0 0.016442954762504805 -0.0784176243810409
1580000000.0 0.07412701405664042 0.0646526655124301
1600000000.0 0.11084127242117414 0.021314083565766258
1620000000.0 0.08573663974096103 0.1015788059944418
1640000000.0 -0.017044251622211543 -0.15629145160152352
1660000000.0 0.16273628420982017 0.06564429367076259
1680000000.0 0.02710993537067682 0.19222098700291185
1700000000.0 -0.13648826755972454 -0.15473297909210074
1720000000.0 0.1700950587029852 -0.13868552241151302
1740000000.0 0.23280012141826487 -0.021316733958253436
1760000000.0 0.2463738569692883 -0.04157176440411139
1780000000.0 0.25512030745360187 -0.09498609655705512
1800000000.0 0.2954740758234871 -0.07508774710701725
1820000000.0 0.05881072199972037 0.33118644342445996
1840000000.0 -0.3570988247592265 0.11779068584970422
1860000000.0 -0.3610688024515102 0.21387836342802877
1880000000.0 -0.34119321408118247 0.2936637994781468
1900000000.0 -0.28344280956364754 -0.3792216760990904
1920000000.0 0.4939064099041976 0.05503235808141475
1940000000.0 -0.4323974525326697 0.28284666934176034
1960000000.0 0.30516544860116224 -0.4303651513349127
1980000000.0 -0.4517159667970104 0.27823785349136837
2000000000.0 0.4678133278511552 0.25018720190828286
2020000000.0 0.3135550132159818 -0.41827727132977094
2040000000.0 0.15344490035602495 -0.4928759623393249
2060000000.0 -0.34650133321799526 -0.3767007229664991
2080000000.0 -0.4765312972953164 0.1480227630693679
2100000000.0 -0.36673287658158876 0.31705054400484434
2120000000.0 -0.10669690917744047 0.4604591577469457
2140000000.0 -0.447919763403903 0.09941994034771201
2160000000.0 -0.09477205873289556 0.4366310369969802
2180000000.0 0.4293086093885198 -0.056784398461135165
2200000000.0 -0.36009938727452867 -0.20964588281158078
2220000000.0 -0.07866419197866013 0.3906295211632931
2240000000.0 0.3915540152230235 0.0024248443258577195
2260000000.0 -0.26640369040724626 -0.27811548445298073
2280000000.0 0.08776265904952221 0.3738982767761576
2300000000.0 0.10266280841892468 -0.36699000082715966
2320000000.0 -0.309259701238539 -0.23366228006474754
2340000000.0 -0.39651274820265303 0.09774235621012622
2360000000.0 0.13430701882625015 0.41852740167320124
2380000000.0 0.3884641241482384 -0.27834746170934066
2400000000.0 -0.4790136139979588 -0.20026753792441396
2420000000.0 0.2381419571723363 0.5103110838382794
2440000000.0 0.2301482364911816 -0.5619001386925926
2460000000.0 -0.6124931403429836 0.2168438495515863
2480000000.0 0.6104386242427917 0.3158271849535103
2500000000.0 -0.21003150473381177 -0.6870016973214995
2520000000.0 -0.29698252406884346 0.6785267470684249
2540000000.0 0.6916212484556337 -0.3021793857995929
2560000000.0 -0.6602405075589439 -0.3800954854872058
2580000000.0 -0.06840749466507544 0.7568864759325256
2600000000.0 0.6236375882601947 -0.41592432347629177
2620000000.0 -0.6846587227169031 -0.26806737474762155
2640000000.0 -0.7173999630014798 0.026974390179079814
2660000000.0 0.36331653383875334 0.5946510942285959
2680000000.0 -0.03517210764738844 -0.6728545208429828
2700000000.0 0.049540289921923 0.6464271800730197
2720000000.0 -0.3538772466324388 -0.5107295320874957
2740000000.0 0.5739450031088663 0.15791667438822293
2760000000.0 -0.4501949412873127 0.3539772121954505
2780000000.0 -0.3584419840307564 -0.4219422498051796
2800000000.0 0.27059922166006 -0.46379021288081324
2820000000.0 0.3620391163076824 0.380079865867983
2840000000.0 -0.39838302060260733 0.3237398439957839
2860000000.0 -0.11186412567435118 -0.49010129378060135
2880000000.0 0.32678734630801054 0.3694550989734361
2900000000.0 -0.29760991343875226 -0.38585883306453006
2920000000.0 0.21431553136888554 0.43199467417021864
2940000000.0 0.1210320857332379 -0.4576873191828465
2960000000.0 -0.44675853838166407 0.08245282437865863
2980000000.0 -0.34211485064691205 0.2765747759442976
3000000000.0 -0.2912677677214278 0.3132634099770574
3020000000.0 -0.2703232666119942 0.3114356795141849
3040000000.0 -0.2770234703405693 0.2796442741424978
3060000000.0 -0.2807825949579136 0.24381604842579144
3080000000.0 -0.33682304332368423 0.06827004116014986
3100000000.0 -0.3094757697138609 -0.04806468989589067
3120000000.0 0.09459178240489352 -0.2633170868933777
3140000000.0 -0.13683906867613674 -0.1970897121803123
3160000000.0 -0.17171520306036936 0.09180992969129476
3180000000.0 0.09376164726532436 0.11013642565856346
3200000000.0 -0.011761695957285321 -0.09163133705881292
3220000000.0 0.00969056170389405 0.041399643542108705
3240000000.0 0.009627010398517497 -0.010581682016319463
3260000000.0 0.02434796187250376 -0.04859598650894261
3280000000.0 0.09373579407778725 0.006013925146093136
3300000000.0 0.03423407119174874 -0.1226794787156966
3320000000.0 -0.07375009000411202 -0.13712000520848128
3340000000.0 -0.14005342204248977 -0.11221577936551849
3360000000.0 -0.19519241766131026 0.02142277035932177
3380000000.0 -0.14334847404291823 0.14760514726634663
3400000000.0 -0.206082961956061 0.008415597369250972
3420000000.0 -0.1489128432931822 0.13136203954099898
3440000000.0 0.06623873063463445 0.1762584078457697
3460000000.0 -0.02255560101552944 -0.17522663194017582
3480000000.0 0.16314869360553458 0.003494731632354992
3500000000.0 0.15029802286729566 -0.02564364003407074
3520000000.0 -0.07875180849019946 0.12045136329755068
3540000000.0 -0.13145447519507736 -0.03177354815112135
3560000000.0 -0.035822851341177214 -0.13072248855345608
3580000000.0 0.11721364544387063 -0.08575178141571094
3600000000.0 -0.11031002896709349 0.12104700137665467
3620000000.0 -0.0773557609418704 0.17086186190827257
3640000000.0 -0.1982017299884896 -0.07714045354150671
3660000000.0 0.17883465732448942 0.14828580390553803
3680000000.0 0.1411100569520203 0.2002510163651483
3700000000.0 -0.025447515160220955 0.25494788244556427
3720000000.0 0.054197682384879084 0.26021031098492897
3740000000.0 0.12608638535580233 0.24016211264322054
3760000000.0 -0.27218498585433737 0.015283130296640286
3780000000.0 0.17606765831096816 -0.20147995378537628
3800000000.0 0.01979164067893716 0.25687348020019896
3820000000.0 -0.22264359486349494 -0.09581074725130785
3840000000.0 0.1357589952461526 -0.16620351999651106
3860000000.0 -0.1696602103187059 -0.05058966063829171
3880000000.0 0.11698305627544464 -0.06642912280487012
3900000000.0 0.07971997462509478 0.037225843884476764
3920000000.0 -0.038935525671183746 0.0164450857837351
3940000000.0 0.010654744641901883 0.005472034262484566
3960000000.0 0.003136105961674581 -0.057961660786779286
3980000000.0 -0.06742780959270654 -0.08529015564724518
4000000000.0 -0.06288781755670832 0.1408500072760685
