!Created with skrf (http://scikit-rf.org).
# Hz S RI R 50.0 
!freq ReS11 ImS11
400000000.0 0.749427519726959 -0.32265608164216064
420000000.0 0.1899990983074228 -0.8081964706133101
440000000.0 -0.5352176555431093 -0.5495112780929933
460000000.0 0.3917881232953874 -0.5980473254388589
480000000.0 -0.21071332674005616 0.6310327091414963
500000000.0 0.4033206482857722 0.5016036486765094
520000000.0 0.21645762911399982 0.5375226098741854
540000000.0 0.1024122065211266 0.48921820925436976
560000000.0 -0.3969079157500656 -0.22909229548009566
580000000.0 -0.4047628372059015 -0.06764832424441475
600000000.0 -0.17571736829748727 0.3423844365453345
620000000.0 0.26707299737577483 -0.27181140278667276
640000000.0 -0.2614584741271764 -0.31522224251120196
660000000.0 0.37869847686321856 -0.2432869519706526
680000000.0 -0.3137413082579377 -0.309437573775721
700000000.0 -0.23020140370168318 0.3682203143928155
720000000.0 0.36134927670464045 0.24889795806423948
740000000.0 0.11609904038957695 -0.39345575345930417
760000000.0 -0.1900700384905575 -0.33054463365149356
780000000.0 -0.3104621841209352 -0.09009233667588043
800000000.0 -0.18216972668578582 0.20631073790025467
820000000.0 0.0632248594088816 -0.23400544480847704
840000000.0 -0.20594024240655465 -0.03700795093370792
860000000.0 0.024348364579576034 0.18250644922857562
880000000.0 0.12540079181607056 0.06744358031863415
900000000.0 -0.044387520543037795 -0.09278863573938352
920000000.0 0.008374393332416175 -0.06694495852131707
940000000.0 -0.04484926663920191 0.016583048031414513
960000000.0 -0.030972203587971137 0.06001713767616473
980000000.0 -0.07806448161661891 -0.0264931706655693
1000000000.0 -0.03180811394931305 0.08398351726213342
1020000000.0 0.0597819784137507 -0.10096999703762101
1040000000.0 -0.11617638217436214 0.04187847927796771
1060000000.0 -0.15065659856024377 0.0034626698197391934
1080000000.0 0.08396976210783676 0.15967098348457984
1100000000.0 -0.20380387100078493 -0.053672933454630374
1120000000.0 -0.19306478506620076 -0.16671383515491764
1140000000.0 -0.15079993711710504 -0.23912125025243844
1160000000.0 -0.20825768567395825 0.23330595320703948
1180000000.0 0.33405358090115256 0.029228431746852444
1200000000.0 -0.2746452070743948 -0.19499165495660928
1220000000.0 -0.35864306719100814 -0.015381581730134902
1240000000.0 -0.3209438277594551 0.21353620563799605
1260000000.0 0.4101364724060354 0.04998784440907159
1280000000.0 -0.37964736655532183 -0.18042640066738072
1300000000.0 -0.3455135639867693 -0.2337507217199737
1320000000.0 -0.13309459488709877 -0.40466973897356345
1340000000.0 -0.11631406506310056 -0.42465158699189093
1360000000.0 -0.37076431712612384 0.24976090421123767
1380000000.0 0.3144292251805752 0.3025599574151611
1400000000.0 0.12747642081785968 -0.3969602635316962
1420000000.0 -0.12518141059228274 -0.3653024498736404
1440000000.0 -0.13266997432858813 -0.34332713157106964
1460000000.0 -0.1283708448939707 0.3194130039237521
1480000000.0 0.2895410887208073 -0.1252772342053176
1500000000.0 -0.10943238898230508 0.2535672956335271
1520000000.0 -0.19836695289297696 0.12194822083287343
1540000000.0 -0.1435197040347397 0.13970341158311247
1560000000.0 0.05264491441771558 0.16433798926820015
1580000000.0 -0.008168301755844246 -0.14784393730431103
1600000000.0 0.04705021319593776 0.10674291103468436
1620000000.0 0.08879581688480528 0.02371111662175377
1640000000.0 0.04302157175500719 0.05084764778279865
1660000000.0 -0.04691435451207237 0.0017437477523323283
1680000000.0 0.021334919532947534 -0.011808478927029522
1700000000.0 0.013870786382890701 0.008260452430986233
1720000000.0 -0.03438603952422183 -0.0023521168977035643
1740000000.0 -0.03621742967756023 -0.04096841349833897
1760000000.0 0.0377225062497604 -0.06877203898568601
1780000000.0 0.0840145328344987 -0.05901346337398538
1800000000.0 -0.0257060843080409 -0.132679951908096
1820000000.0 0.020673972240725775 0.1707877679445203
1840000000.0 -0.1931558322050256 -0.08058364906391395
1860000000.0 0.16306206997689535 -0.18099596873666732
1880000000.0 -0.21670535597459883 0.18583352247401444
1900000000.0 -0.17212679547969195 -0.26961280723474396
1920000000.0 0.3283413338493008 0.11901993236289354
1940000000.0 -0.2000940811509844 -0.3123356510692151
1960000000.0 0.0036648362482408297 0.39063494986030645
1980000000.0 0.39681872927671075 -0.06829766129426977
2000000000.0 0.2231431212893632 -0.3454246730973806
2020000000.0 -0.000659842258843586 -0.4194718069477979
2040000000.0 -0.32318229010911315 -0.27755835395402406
2060000000.0 -0.38599840099621746 0.18375036277617904
2080000000.0 0.05879839782645586 0.41962235169530626
2100000000.0 0.41557064955398715 0.016141230987986054
2120000000.0 0.002955663482814923 -0.40093885591063094
2140000000.0 -0.36687466561107324 -0.10872330262188859
2160000000.0 -0.19471129001238002 -0.3012708773359276
2180000000.0 -0.29699383431951676 -0.15224361186228358
2200000000.0 -0.14777736695184185 -0.27739584321168576
2220000000.0 0.0988335097360667 -0.28569721515859414
2240000000.0 0.20709022356434723 -0.2192306276041311
2260000000.0 -0.0638253761382147 -0.2988492628745905
2280000000.0 -0.23477970856134922 0.20106114246415865
2300000000.0 0.12041843221001831 0.2883359393664351
2320000000.0 0.13059830254985355 0.30467771169504443
2340000000.0 0.32945517502109123 -0.1621078320000455
2360000000.0 -0.39550261593896313 0.09686606963506499
2380000000.0 0.40691182492353445 -0.19807441840566511
2400000000.0 -0.41358718760984825 0.28338171068265194
2420000000.0 0.3358695431663845 -0.4411207116610134
2440000000.0 0.016129532600053377 0.6066894045657284
2460000000.0 -0.45800963407096046 -0.46708381288510403
2480000000.0 0.6927385371788153 0.03823152091356806
2500000000.0 -0.7166178517632974 0.09215954994369961
2520000000.0 0.7369879764722376 -0.1054523429908952
2540000000.0 -0.7536721870042663 -0.07136447781976424
2560000000.0 0.6014296526693295 0.4705036826844778
2580000000.0 -0.1995626640773176 -0.7346011228848203
2600000000.0 -0.17522323550854063 0.7302818136592731
2620000000.0 0.4856816313323361 -0.5510060847504797
2640000000.0 -0.249373369905804 -0.6651376946389177
2660000000.0 0.18029014589015288 0.6558856988192413
2680000000.0 -0.27055523940372805 -0.5835241939453443
2700000000.0 0.2769760095917738 0.534812148573155
2720000000.0 -0.26794996426429096 -0.4957386623126249
2740000000.0 0.43906046921688335 0.2917257898346091
2760000000.0 -0.4896171444445859 0.00692282445708488
2780000000.0 0.4320807220228123 -0.15454565521952954
2800000000.0 -0.3917048938426586 0.18267198201807333
2820000000.0 0.399556369514173 -0.11028364705829441
2840000000.0 -0.39318772062733265 0.08933480396590464
2860000000.0 0.3933983620557896 -0.029565952333337094
2880000000.0 -0.3119719984893006 -0.23325731760294593
2900000000.0 -0.23305055686889597 0.3047396787921333
2920000000.0 0.03410239181577423 0.3855799615476512
2940000000.0 0.3897386419479075 -0.03836247362264468
2960000000.0 0.2343190719569359 -0.3071544111431646
2980000000.0 0.30530001560082487 -0.2330478719189815
3000000000.0 0.3734772136413189 0.07860553151362783
3020000000.0 0.052799842691944855 0.37228358055165317
3040000000.0 -0.3344474543580262 -0.15180744435506857
3060000000.0 0.35943189581762003 0.03218305626320204
3080000000.0 -0.30343406809525003 0.1769050110155263
3100000000.0 0.31497870466461336 -0.12790529302932246
3120000000.0 -0.2375643407475966 0.22993387090137865
3140000000.0 0.1523431300028811 -0.27765710900753365
3160000000.0 0.19959347112573075 0.22644799448765393
3180000000.0 -0.25421014473643655 -0.11147741890352668
3200000000.0 0.11939456768334387 -0.21127690625265175
3220000000.0 -0.11623270288185801 0.16891675780469437
3240000000.0 0.0862380683947094 0.1498603577222905
3260000000.0 0.13178684682246872 -0.05358623466106195
3280000000.0 0.10717250595887548 0.018949407520450053
3300000000.0 0.03026594210921539 -0.074405941593787
3320000000.0 -0.0405157716911046 -0.042973596250997496
3340000000.0 -0.024497129077571296 0.040543508756954526
3360000000.0 0.0039914995783662185 0.04198590039699402
3380000000.0 0.0031149325168789515 -0.033711893366730854
3400000000.0 -0.03250031769277911 -0.008662187006052362
3420000000.0 -0.003159735383243269 -0.03384154363566722
3440000000.0 -0.024865933953879454 0.0005529643015409415
3460000000.0 -0.005566894202424494 -0.011535046693480353
3480000000.0 0.00472822178082329 0.01362859307397413
3500000000.0 -0.029905679250631916 -0.004722184903050954
3520000000.0 -0.04358886892663458 0.004804216114722481
3540000000.0 -0.043665679786439246 0.03412051744112589
3560000000.0 0.060403095203535255 -0.006166309997636668
3580000000.0 -0.011424912217103768 -0.06805028821172236
3600000000.0 0.0653647216821133 0.03947765630450872
3620000000.0 -0.02364346652909748 -0.07693835491942513
3640000000.0 -0.060675032481974214 -0.06056348117594757
3660000000.0 -0.026991004897408074 -0.08830225416602352
3680000000.0 0.09838881665450917 0.025575016371821368
3700000000.0 0.04281983145585936 0.09194342603957097
3720000000.0 -0.08137161684587155 -0.05039008575276871
3740000000.0 0.08706131889388095 0.02009967151427902
3760000000.0 -0.05611937177580138 0.07423772030924922
3780000000.0 0.09775964215814915 -0.032306271753075974
3800000000.0 -0.10213524105621717 0.05002267491676325
3820000000.0 0.004368919583804029 -0.1300445591155199
3840000000.0 -0.14079918598008995 -0.051023001475269274
3860000000.0 0.09629544637416948 -0.13880626889551942
3880000000.0 0.1604231636390498 -0.09086445323383413
3900000000.0 0.17919176900209002 -0.0726631450140234
3920000000.0 0.1939031787432293 0.024237054106797547
3940000000.0 0.055481720990740786 0.19054146880092596
3960000000.0 -0.11670088048766528 0.16433824449684775
3980000000.0 -0.03312012571099095 0.1983857622867623
4000000000.0 -0.06360955482314865 0.1737524585471466
