!Created with skrf (http://scikit-rf.org).
# Hz S RI R 50.0 
!freq ReS11 ImS11
400000000.0 0.6940128969974395 -0.4321092311178315
420000000.0 0.26642055779799606 -0.7858928643481018
440000000.0 -0.5915709084567384 -0.4848685820974639
460000000.0 0.5191641504147049 -0.4905488587979267
480000000.0 -0.12166676913290422 0.6628570448279406
500000000.0 0.6433460218746117 0.03421028785147591
520000000.0 0.46593618106437557 0.346063540844939
540000000.0 0.22468653675301772 0.4458376813515198
560000000.0 -0.45618831264706844 -0.02349647549350231
580000000.0 -0.3796431293699504 -0.13949408683098258
600000000.0 -0.36211381842147694 0.11420948356036997
620000000.0 0.38158424180411793 0.041868089037082196
640000000.0 -0.4012169925901651 -0.09828157843126134
660000000.0 0.1889503095765437 -0.4102131459543669
680000000.0 -0.44288449520401585 -0.0028342446014970146
700000000.0 0.18257878477905048 0.3940094623414031
720000000.0 0.4181906703019064 -0.12952739528056878
740000000.0 -0.11552589896606705 -0.3903835766246051
760000000.0 -0.2984195936652912 -0.22976753171971231
780000000.0 -0.2834535568155726 -0.14036466604423048
800000000.0 -0.2510063156957667 -0.10830949080327447
820000000.0 0.23661766874948398 -0.04998980749941117
840000000.0 -0.10224910899352557 -0.18280964563308846
860000000.0 -0.13008192728135598 0.1334861349543962
880000000.0 0.11659255733560026 0.08281564284569116
900000000.0 -0.00034566728768927016 -0.1018735828815974
920000000.0 0.06741301877682218 0.005152151637919721
940000000.0 -0.04499698115694699 -0.016782311960878434
960000000.0 -0.024639546686500553 0.06191386288823595
980000000.0 0.01087495124878527 -0.07803187511832187
1000000000.0 -0.08519642462644346 -0.013372785062231699
1020000000.0 0.0029684239829415662 0.11279990168249507
1040000000.0 0.12162837974332817 -0.015283346384352258
1060000000.0 -0.02876221214572445 -0.15028341680716942
1080000000.0 -0.15142874917476817 0.10675754759081707
1100000000.0 -0.2103099894706192 -0.0517493058364627
1120000000.0 -0.24367853090286154 -0.09197073813434119
1140000000.0 -0.2793221932560469 -0.06712347920232954
1160000000.0 -0.07917286671236624 0.30363079122866965
1180000000.0 0.33687225806202026 -0.016374307831965286
1200000000.0 -0.3124079068140323 -0.12826526855016104
1220000000.0 -0.35248551548230017 0.07793550025590441
1240000000.0 -0.21545105744853763 0.31843103873339995
1260000000.0 0.41170655494573 0.013715523980130139
1280000000.0 -0.381615387276941 -0.17115659619673199
1300000000.0 -0.30243010950287236 -0.2865118405443233
1320000000.0 -0.16202923242825837 -0.39329374105539194
1340000000.0 -0.17871910795969165 -0.4010500911429627
1360000000.0 -0.37013041567710225 0.2440801715153511
1380000000.0 0.2148841141573913 0.37680630328956166
1400000000.0 0.2224895026265102 -0.35176096933838524
1420000000.0 0.0561540066939151 -0.38225236943275276
1440000000.0 -0.03786090557895743 -0.36887316530680087
1460000000.0 -0.1283405381000729 0.3227181766018568
1480000000.0 0.2581919610621322 -0.18576460573257494
1500000000.0 0.0053868375548993055 0.2790360601246635
1520000000.0 0.05570022337212855 0.2275135393067884
1540000000.0 0.0866065176632844 0.17768291958531476
1560000000.0 0.1311347558662584 0.10630742747582189
1580000000.0 -0.056487218656165 -0.13289173698985504
1600000000.0 -0.025454940891439556 0.11054983918827065
1620000000.0 0.012073525918898818 0.08904821823752368
1640000000.0 0.015551414325680255 -0.06414042180299886
1660000000.0 0.04792143374834588 0.007367134185008418
1680000000.0 0.001015335601080364 0.026492112045931878
1700000000.0 -0.011865083474323154 -0.012444354626715469
1720000000.0 0.02533735117418159 0.02346557720890116
1740000000.0 -0.021429510917419323 0.050503192618708066
1760000000.0 -0.004510194780328506 -0.0772556614267773
1780000000.0 0.09624766043632993 -0.03709311254842097
1800000000.0 -0.03511955775245241 -0.13143361431192377
1820000000.0 0.08403321576058712 0.1505015420172951
1840000000.0 -0.20131295230265908 -0.055854334314585245
1860000000.0 0.18196763642650612 -0.1628300383217125
1880000000.0 -0.24240756037971353 0.1502247835453677
1900000000.0 -0.09145577010285255 -0.30663267125251703
1920000000.0 0.28416094324330643 0.2048328679009256
1940000000.0 -0.14039224875894435 -0.34574641424903796
1960000000.0 -0.007609772139827908 0.392292293627268
1980000000.0 0.3848582076399074 -0.12370133146639856
2000000000.0 0.1610318782446364 -0.37955886105158465
2020000000.0 -0.1139872191264865 -0.4036718546910484
2040000000.0 -0.36848973455487677 -0.21386116377567319
2060000000.0 -0.3232619705493 0.28009385920107016
2080000000.0 0.17602089924823194 0.3840785890889048
2100000000.0 0.40445018186210685 -0.09010258363507911
2120000000.0 0.030070193045824416 -0.3979896042216813
2140000000.0 -0.3369990088826616 -0.18401191075002454
2160000000.0 -0.2152310662589649 -0.2906370256711662
2180000000.0 -0.33200779055204654 -0.04646215374515113
2200000000.0 -0.19322110610711846 -0.2494503218140738
2220000000.0 0.0865981970292299 -0.2917027275564175
2240000000.0 0.13453656271484285 -0.2724538851685932
2260000000.0 -0.15559949615881918 -0.26433981990155087
2280000000.0 -0.22285246154534083 0.2157043207160372
2300000000.0 0.1324818387397802 0.2846838629441431
2320000000.0 0.12448737071626043 0.3099791673959578
2340000000.0 0.2830747138040687 -0.24000171977289964
2360000000.0 -0.32051528997543516 0.2563730968321761
2380000000.0 0.28164849337275766 -0.35757518875323174
2400000000.0 -0.2722008510590336 0.4232602159162573
2420000000.0 0.16694693648740444 -0.5306829965212526
2440000000.0 0.22489215845946312 0.5653806701678542
2460000000.0 -0.5987927105031774 -0.2661879117820547
2480000000.0 0.6689023442943803 -0.1855922969112174
2500000000.0 -0.6411914722659904 0.33272283497383603
2520000000.0 0.6253699021098986 -0.4033566715191556
2540000000.0 -0.7188747051259856 0.2347640468388277
2560000000.0 0.7494535777704001 0.1414092449724
2580000000.0 -0.5413057318490442 -0.5333738687168896
2600000000.0 0.24482532565532997 0.7079205482112415
2620000000.0 0.07346270215052651 -0.7281302348151661
2640000000.0 -0.6067892316007832 -0.3640199840911319
2660000000.0 0.5210343230000399 0.4315024825368415
2680000000.0 -0.5472117214794917 -0.3298072232528497
2700000000.0 0.5178318838557766 0.2989920014568191
2720000000.0 -0.47735621212597723 -0.2911275197445489
2740000000.0 0.5152433736989935 0.08747916528087177
2760000000.0 -0.45175262564493884 0.1783976600892707
2780000000.0 0.3181635246958374 -0.3244446066078642
2800000000.0 -0.3007903523502257 0.30348022506941064
2820000000.0 0.3574376027717739 -0.19931760315244496
2840000000.0 -0.3797310853659688 0.12334251540159206
2860000000.0 0.39144938907782434 -0.013155115888586427
2880000000.0 -0.3345211914628257 -0.19478575049250038
2900000000.0 -0.15934209082658415 0.34585840923504807
2920000000.0 0.12736677442363328 0.3624238429519211
2940000000.0 0.38177167754350494 -0.07438529017316595
2960000000.0 0.1880988048310753 -0.3355322042336749
2980000000.0 0.2583296752852232 -0.2819691706764018
3000000000.0 0.38049424807356635 -0.01253688367117751
3020000000.0 0.07622933251290419 0.3672117707042614
3040000000.0 -0.3646799819376544 -0.02930665904877974
3060000000.0 0.35396313732426377 -0.062442625787428194
3080000000.0 -0.28681833606869706 0.1987337192711967
3100000000.0 0.3188977439231975 -0.11315848981017708
3120000000.0 -0.24056235314226077 0.2239478979406959
3140000000.0 0.15718317034354257 -0.27240159097979105
3160000000.0 0.16570424248465854 0.2503428545754695
3180000000.0 -0.1898112178679597 -0.2011556439007693
3200000000.0 0.17251799312091248 -0.1701019824732092
3220000000.0 -0.16274139251894004 0.12293518795146847
3240000000.0 0.0030693509614447205 0.17170211949141836
3260000000.0 0.13927759905265705 0.028920996346968368
3280000000.0 0.09168558812630671 0.05738406707071654
3300000000.0 0.07978131923240986 -0.002827220823136844
3320000000.0 0.04973653643871751 -0.031953165465290874
3340000000.0 -0.004697617375050246 -0.04797621479266577
3360000000.0 -0.043209063088954294 0.0008129621189029747
3380000000.0 0.02210535174501448 0.02870390343851939
3400000000.0 -0.030848837733558728 0.018897223956849177
3420000000.0 -0.0301903442591273 -0.019289951869083687
3440000000.0 -0.00840609528930168 0.024955231168438324
3460000000.0 0.0049095139529881145 -0.013185164632142598
3480000000.0 -0.013318494194576461 0.002315156668300404
3500000000.0 -0.013082430013991947 0.026047706946449253
3520000000.0 -0.038790920960645764 0.01906560503226872
3540000000.0 -0.0006987765634978775 0.05468991632176246
3560000000.0 0.059239410122089615 -0.006515260037269397
3580000000.0 -0.015523057172101482 -0.06667381335302136
3600000000.0 0.06937585915598947 0.03059125159429395
3620000000.0 -0.0027631518754083193 -0.07983372029222124
3640000000.0 -0.035772554031036116 -0.07771006152297502
3660000000.0 0.015120553184001692 -0.09069617899932096
3680000000.0 0.03718496607358501 0.09434564440875169
3700000000.0 -0.019643299373706333 0.10003179428973492
3720000000.0 -0.06600425936659372 -0.06912523549524073
3740000000.0 0.04315865802422416 0.07747350627039537
3760000000.0 -0.08594912365268012 -0.03717472908170251
3780000000.0 0.07139738181534894 0.07895125884924103
3800000000.0 -0.10744372569859656 0.04722833042127539
3820000000.0 -0.08532456004472291 -0.10089066239337949
3840000000.0 -0.14978937052083155 0.018339688568840478
3860000000.0 0.11138058189603174 -0.1282542587497579
3880000000.0 0.1761858506560858 -0.060181618780258586
3900000000.0 0.18665189878212873 -0.06162863691116116
3920000000.0 0.19770023727987251 -0.005391127947491279
3940000000.0 0.07600454115007751 0.18646016667003149
3960000000.0 -0.11284601603724767 0.16999386099706024
3980000000.0 0.01203517680671394 0.2037838895412874
4000000000.0 0.009075700701577415 0.1881690804848304
