!Created with skrf (http://scikit-rf.org).
# Hz S RI R 50.0 
!freq ReS11 ImS11
400000000.0 0.6171797134040948 -0.5723947950018752
420000000.0 -0.5649966327041457 -0.6025311901872804
440000000.0 -0.4755053058212283 -0.6147565861205333
460000000.0 -0.27582690971055374 -0.6747649158238243
480000000.0 0.24159414237499266 -0.6226809185088349
500000000.0 -0.36952324683275806 -0.5029131908405251
520000000.0 0.11199744798840852 -0.5302053132587995
540000000.0 -0.4714110987722012 0.0453987507224642
560000000.0 0.32185447318694405 -0.3178816015188621
580000000.0 -0.3976251181028469 0.07947567738478528
600000000.0 -0.07629069083836086 0.3599400447413374
620000000.0 -0.023096480558331592 0.3759860866509706
640000000.0 -0.3859603819820969 -0.13422619910373668
660000000.0 0.439864643483759 0.01421800285161302
680000000.0 0.35235880772338013 -0.2707169874318932
700000000.0 0.12617358565114944 0.42518529682197015
720000000.0 0.18957601049201717 -0.38865618666548973
740000000.0 -0.32731481192121104 -0.22246895853122428
760000000.0 0.33972380535769775 -0.08395723244965668
780000000.0 -0.18740492860105762 -0.268678227055678
800000000.0 -0.28894342001873674 0.10582850933668461
820000000.0 -0.07248426763936049 0.24149059069360904
840000000.0 0.10622981135904372 -0.17614474725343018
860000000.0 -0.034115325542618556 0.17036500500574747
880000000.0 -0.09351735952822716 0.11008737862873273
900000000.0 -0.00978380534182361 0.10868376944612153
920000000.0 0.08283342436251193 0.015879255724868035
940000000.0 -0.032252211451998594 0.05444339097200935
960000000.0 -0.01314178141216571 -0.05950289024905164
980000000.0 0.04810347010985974 -0.06500053295486423
1000000000.0 -0.09463075826940572 0.02828329247022843
1020000000.0 0.012502382631820137 0.10717864073029332
1040000000.0 -0.05602889595153277 -0.11083522189289896
1060000000.0 0.14723211171239184 -0.03460360699622257
1080000000.0 0.06945921737139493 0.168118695982139
1100000000.0 0.21485063878423002 0.03705021975078078
1120000000.0 0.24368700490236297 0.011560750120426087
1140000000.0 -0.2610048477389649 -0.03742450532587238
1160000000.0 -0.2835506816347354 -0.06567695402081808
1180000000.0 -0.04357128463435513 -0.31977792432787505
1200000000.0 0.3444300078586009 0.002793423618372447
1220000000.0 -0.18857555486261493 -0.3150537499711462
1240000000.0 -0.28401838756360426 0.2688059039702051
1260000000.0 0.4022440262754288 0.08466863244549976
1280000000.0 0.012185175838680545 -0.42644420168262576
1300000000.0 -0.4248883494973253 0.07908490249127974
1320000000.0 -0.2772944962791738 0.3336017325258994
1340000000.0 -0.031036841662844584 0.4360145133149493
1360000000.0 0.3821601652092894 0.19559100046500635
1380000000.0 0.350679559716798 0.22052737935273556
1400000000.0 0.3607250682760134 0.1817340950773446
1420000000.0 0.3656316548939139 -0.13013401605501598
1440000000.0 0.096468768847853 -0.3576608338209535
1460000000.0 -0.31893486776559604 0.1377201378203949
1480000000.0 0.23724268442140123 0.20996356024336166
1500000000.0 -0.11804371153152679 -0.2568695658032977
1520000000.0 -0.25068811482508757 0.012622745788778068
1540000000.0 0.2108456219269841 0.037724785684460985
1560000000.0 -0.17824650743503195 0.024200025335149384
1580000000.0 0.13701598716689645 -0.04473250700620632
1600000000.0 -0.10120436781934468 -0.0348957584567108
1620000000.0 0.05767589913117433 -0.05032250136501942
1640000000.0 0.035912645949929385 -0.04020261038918648
1660000000.0 -0.02004881532515334 -0.03898384802550863
1680000000.0 0.03961283329135135 -0.009554589030775244
1700000000.0 0.03240606696494048 -0.012594122514878256
1720000000.0 0.0215522042720719 0.014232792061236498
1740000000.0 0.010355465203792488 -0.034843533142948795
1760000000.0 -0.03944934495335159 -0.044692765361850746
1780000000.0 0.09671963126420977 0.014380780798987526
1800000000.0 0.10404704520301217 -0.10267142071546886
1820000000.0 -0.11333772670481339 -0.1500361641711403
1840000000.0 -0.16597794073813418 -0.15724602476239655
1860000000.0 -0.21332748567241186 0.16466816061591608
1880000000.0 -0.04156679421512985 0.2899054470268529
1900000000.0 0.11690220574258756 -0.27739839236457847
1920000000.0 0.16910111543411446 -0.2708366272674991
1940000000.0 0.22544576145618572 -0.26110707649669995
1960000000.0 0.08731582349127746 -0.3637717636298385
1980000000.0 -0.24622294697091268 -0.31779130699915115
2000000000.0 -0.2824700885193092 0.325794321830124
2020000000.0 0.3871825587758989 -0.23418760061248645
2040000000.0 -0.29511875363254253 0.35266042785874424
2060000000.0 0.21617459362792124 -0.393511682466841
2080000000.0 -0.4236633542549179 -0.03100958831822162
2100000000.0 -0.3820920363822364 0.10682804691530423
2120000000.0 -0.19258543787383836 -0.31626363368053356
2140000000.0 0.3524072958587685 0.07127620799919901
2160000000.0 -0.3336850740455603 0.11908621779796486
2180000000.0 -0.2171199050255006 0.27002178012763567
2200000000.0 0.2556844195699663 0.22793569342843395
2220000000.0 -0.18670515424288192 -0.2762205846259392
2240000000.0 0.1365427386613194 0.28799243293421567
2260000000.0 0.2471982077446537 -0.17000940641941464
2280000000.0 0.26825796775096244 0.09990777944169352
2300000000.0 -0.28204770949675184 0.08665431296294299
2320000000.0 -0.3212726941786448 -0.05317139238797369
2340000000.0 0.14506827312823165 0.33712597409934697
2360000000.0 -0.3360592508708197 -0.2418782439217006
2380000000.0 0.3342265867806244 -0.32024633002492575
2400000000.0 0.056168678390288954 0.506145523548642
2420000000.0 -0.40504608079488985 -0.3824129314747521
2440000000.0 0.5710020595088875 0.19881776360788672
2460000000.0 -0.6487926631276367 -0.023177675830292004
2480000000.0 0.6593661352806603 -0.19803369632964274
2500000000.0 -0.7025984547101346 0.1537306313547066
2520000000.0 0.7229675409535313 -0.16419679319439792
2540000000.0 -0.7460476181415702 0.10984594188951648
2560000000.0 0.7290490127829077 0.21573830249499437
2580000000.0 -0.5366373504389519 -0.535265475081934
2600000000.0 0.04139052898290129 0.745316711894829
2620000000.0 0.2899452356375207 -0.6687576304392311
2640000000.0 -0.3449779464929238 -0.6152521386291394
2660000000.0 0.11747153857677653 0.6651969610836943
2680000000.0 -0.16658562517769396 -0.6194808412613629
2700000000.0 0.4199136909155209 0.4327984598493117
2720000000.0 -0.5595511325528248 -0.03413976105440918
2740000000.0 0.4440248362800083 -0.26290531032952075
2760000000.0 -0.39777576745567317 0.26050325047130085
2780000000.0 0.43495821875839297 -0.09060354106372946
2800000000.0 -0.4105077991854938 -0.1011840298332284
2820000000.0 0.3287009559398951 0.24753875541015175
2840000000.0 -0.3710962150772856 -0.1655685832365142
2860000000.0 0.4010112529926118 0.03855936892619145
2880000000.0 -0.3639684904480806 0.1640745534695018
2900000000.0 0.3820443643741287 0.08221211486869923
2920000000.0 0.197963731048996 -0.3310292380681654
2940000000.0 -0.03484999964616711 -0.37970222180869373
2960000000.0 0.07104737344628248 -0.3720178668010156
2980000000.0 0.3760223687043676 -0.019140273494099063
3000000000.0 -0.025612548092939252 0.37937134093371044
3020000000.0 -0.37094621196929817 0.08409866395609616
3040000000.0 -0.06593556253940859 -0.3719347908326351
3060000000.0 0.3610165335960427 -0.09280299476185319
3080000000.0 0.07534385003848103 0.34992916643560795
3100000000.0 -0.12224516795306738 -0.31695408918986073
3120000000.0 0.09608665659854579 0.31084329016139683
3140000000.0 -0.2036888897663467 -0.23408715788324638
3160000000.0 0.26952713972688824 0.09851559206045485
3180000000.0 0.24000684859418436 -0.10613968518749725
3200000000.0 -0.23108639578038614 -0.06907717315162987
3220000000.0 0.20053777250559776 -0.08079259773704593
3240000000.0 -0.07065408308615817 0.1742693428606221
3260000000.0 -0.116311616633187 -0.10120116350336374
3280000000.0 0.08332216135512732 0.07504531308689721
3300000000.0 0.07239456148650726 0.012762264848402519
3320000000.0 -0.053000790585012184 0.004781018712666312
3340000000.0 -0.02371346404952314 -0.047802125477181906
3360000000.0 -0.009865032560564167 0.05250264388814115
3380000000.0 0.005123555819897901 0.045633129402685144
3400000000.0 0.03130856777479782 -0.010116460407642858
3420000000.0 0.0028533328717441427 -0.018834757978598828
3440000000.0 -0.0038922595139605984 0.015520383984360814
3460000000.0 -0.004104005724859605 0.022048502676627862
3480000000.0 -0.007317692847336456 -0.025231272640033508
3500000000.0 0.014203751087368549 0.01952835572073599
3520000000.0 0.019593692615299488 -0.020052536395631284
3540000000.0 0.026219086845888934 -0.03522017095429092
3560000000.0 -0.0007713454935795599 -0.058813957706106486
3580000000.0 -0.03911837725360899 -0.061931925650407185
3600000000.0 -0.07811431025581879 0.025286272704017516
3620000000.0 -0.08585052057938829 -0.005038765429579617
3640000000.0 -0.027655749131405 -0.08194740806965924
3660000000.0 0.07496128735415244 -0.037577446292977705
3680000000.0 -0.047087264150928225 -0.07550431360288883
3700000000.0 -0.030144811577724567 0.09752118607879558
3720000000.0 0.059022631927500915 0.08946959998419915
3740000000.0 -0.04731681237583246 0.0883541791999092
3760000000.0 0.08200548458705387 -0.035483398939587886
3780000000.0 0.08669125095378395 0.02531570387384957
3800000000.0 0.08915715959312921 0.06745401806620487
3820000000.0 -0.07790862378471738 -0.1140213247035483
3840000000.0 -0.013603121216440988 -0.15409590241406634
3860000000.0 0.16570323980271065 0.01655717886852228
3880000000.0 -0.06812180480261773 0.1667959451399238
3900000000.0 -0.07223245702740023 -0.17983726943972023
3920000000.0 0.14602905110179878 -0.13813513158667273
3940000000.0 0.19587315844672717 -0.05580059011724526
3960000000.0 0.19180000778334927 0.06791770311128749
3980000000.0 0.16308838392983047 0.125083085545998
4000000000.0 0.18871029429645023 0.06497729693976469
