!Created with skrf (http://scikit-rf.org).
# Hz S RI R 50.0 
!freq ReS11 ImS11
400000000.0 0.7997296587268298 -0.22948313064192755
420000000.0 0.35205449856381427 -0.7479511196480365
440000000.0 -0.1330220421531151 -0.7649761361989498
460000000.0 -0.034827667831434324 -0.7263059067692684
480000000.0 0.6625105166312644 -0.022720120953669237
500000000.0 0.6255447538764238 -0.04421654273507616
520000000.0 0.31371375424489284 0.4651583758752318
540000000.0 -0.40825294619426017 0.28807781056779475
560000000.0 -0.07521375338372487 -0.45663812960479006
580000000.0 -0.4234072459700459 0.01350085979904952
600000000.0 0.29851217104957106 -0.24660609853591597
620000000.0 0.07888708697637478 -0.36400123170554116
640000000.0 -0.2460932285665125 0.3235954158093855
660000000.0 0.33244005220194534 -0.275285615135784
680000000.0 -0.3383763206340234 -0.29455756056355625
700000000.0 0.20194509988127066 -0.3839600259126936
720000000.0 -0.1375026482891366 -0.38345043700535153
740000000.0 0.3026308382792615 0.22482842922445684
760000000.0 -0.2489010918688656 -0.26452708069708336
780000000.0 -0.27632242920388744 -0.20815191724923304
800000000.0 -0.2916615887167346 -0.09523303742669353
820000000.0 -0.18043290674147044 -0.19120564504535442
840000000.0 0.17200989229093328 -0.14153441047551427
860000000.0 0.11305431979199093 -0.14434006179601733
880000000.0 0.14487819296675633 0.039200197247418314
900000000.0 0.058386887545396 0.1003411380240001
920000000.0 -0.07839461468969092 0.019768157497609386
940000000.0 -0.0032422226485792484 0.04878467026174796
960000000.0 -0.043442156049583895 -0.002224676154362098
980000000.0 -0.01400954372416284 0.054035398802341886
1000000000.0 0.060176667174500056 -0.007552182740477426
1020000000.0 0.03366517946297688 -0.08663401322017827
1040000000.0 -0.04242456873619529 0.11910789172415547
1060000000.0 -0.08722842005166029 -0.13441205058237743
1080000000.0 0.15678414194734241 0.11090381791089492
1100000000.0 0.1893430091550091 -0.08407021514241517
1120000000.0 -0.06324849153616698 -0.23134454186748257
1140000000.0 0.15907098711771595 -0.23028401172954482
1160000000.0 -0.3062199609921311 0.008899965314829976
1180000000.0 -0.008398638530058901 0.33008855472846815
1200000000.0 0.1733365579840933 -0.2870328222602901
1220000000.0 0.008110878509461092 -0.3661252911131984
1240000000.0 -0.11828690376399928 0.37523225934343274
1260000000.0 0.3379114656497077 -0.22641979079753408
1280000000.0 -0.05324887625660068 -0.41307921354392324
1300000000.0 -0.1667609092830902 -0.39058316334979754
1320000000.0 -0.39599397931704183 -0.1841524497251541
1340000000.0 -0.37312408628336935 0.23037345991237043
1360000000.0 -0.12384863462023059 0.4185904779681449
1380000000.0 0.19978439250412905 0.3759258142309507
1400000000.0 0.40468535066854755 0.061837342717354894
1420000000.0 0.38737142305912386 -0.051831112956399146
1440000000.0 0.16482643257806637 -0.339517501334763
1460000000.0 -0.2736835732002682 0.22461931545213681
1480000000.0 0.26928474296391763 -0.17708352120142357
1500000000.0 -0.25574798250009206 0.1125120012843113
1520000000.0 -0.2294068317125041 -0.07445036239601532
1540000000.0 -0.17737861817544495 0.10755692687477438
1560000000.0 -0.15130153305871835 0.09671941253619154
1580000000.0 -0.10396689498799791 -0.11746987802833064
1600000000.0 0.11761345727756592 -0.024190442557265227
1620000000.0 0.09086925305217392 -0.017666892051939338
1640000000.0 0.048688856741179155 -0.0505764287540452
1660000000.0 0.0006799023966165598 -0.04942446459024006
1680000000.0 0.02774863337812503 -0.0005189384186667013
1700000000.0 -0.008741509040388734 -0.022968575341485765
1720000000.0 0.026523084333270535 0.01863964248818969
1740000000.0 0.045269091087743046 0.02842459369109895
1760000000.0 0.054161641422974305 0.05467919556470272
1780000000.0 -0.0741456182333557 0.08071475377225365
1800000000.0 -0.02527543976798157 0.14393542730814066
1820000000.0 -0.12645144083877577 -0.1188530832106647
1840000000.0 -0.11278954993513267 0.16638249183700218
1860000000.0 0.10217743678174307 0.21937790075169575
1880000000.0 -0.21439880720509566 0.19922125568047314
1900000000.0 -0.2453374934538649 0.21139505982195633
1920000000.0 0.22926812774467675 -0.25100871544885417
1940000000.0 -0.025896250951612184 -0.3595598881390897
1960000000.0 -0.3868010865592476 0.009067319801197399
1980000000.0 0.10521473979407682 0.3927127790651808
2000000000.0 0.3936939880791534 -0.15324332119995632
2020000000.0 -0.021286749499363343 -0.4291290714822102
2040000000.0 -0.350796213408376 -0.2635077471650865
2060000000.0 -0.16222999307286262 0.41253031718804273
2080000000.0 0.4315738403213709 -0.05412665846856935
2100000000.0 -0.05051612547803575 -0.4165270038976494
2120000000.0 -0.301449500830411 -0.2632819970727261
2140000000.0 -0.371209347137504 -0.08868897847320295
2160000000.0 0.011892328496491742 -0.35734432454022563
2180000000.0 0.28270716333389967 -0.18457220989856013
2200000000.0 0.31352765864613896 -0.09947366061587781
2220000000.0 0.14795063702564568 -0.28372494637120815
2240000000.0 -0.1768449400167722 -0.2604919330008087
2260000000.0 -0.2866432229732865 0.11867266311329423
2280000000.0 -0.03233622112412684 0.3083288348616307
2300000000.0 0.2770484312309392 0.15496021866501702
2320000000.0 0.2595975864117626 -0.20939726813050796
2340000000.0 -0.1843134507812034 -0.3116986575641819
2360000000.0 -0.1587302008679972 0.36700612696393475
2380000000.0 0.26471678489443345 -0.3602961477829859
2400000000.0 -0.1586311454049217 0.4719781839488813
2420000000.0 -0.029877637571567462 -0.5500780303157018
2440000000.0 0.43927621061831146 0.41476180076972285
2460000000.0 -0.6487718936199564 -0.026690869569107465
2480000000.0 0.6163915251524082 -0.3027698070954865
2500000000.0 -0.6471373907931444 0.3074208194865114
2520000000.0 0.6963702414183041 -0.24728286457405688
2540000000.0 -0.7471052197163787 0.08737919316861233
2560000000.0 0.6962573151748982 0.2991933787543194
2580000000.0 -0.29264786770233303 -0.6973965394992547
2600000000.0 -0.16141208706336202 0.727490523545906
2620000000.0 0.45922378411797304 -0.5663180003069833
2640000000.0 -0.3233167912446832 -0.6270147540826022
2660000000.0 0.17346577196571572 0.6509932314243068
2680000000.0 -0.2290698055576712 -0.5934854251152708
2700000000.0 0.18294800254746785 0.5672557566764077
2720000000.0 -0.3176508473635232 -0.45665889949375155
2740000000.0 0.394450945468913 0.33572250316571317
2760000000.0 -0.4768905071502703 -0.06295501572075149
2780000000.0 0.437545030537291 -0.1012233766403773
2800000000.0 -0.4171745274575739 0.08226084970725381
2820000000.0 0.39772234993647354 -0.09643906917172423
2840000000.0 -0.36540293530147855 0.15918355374397258
2860000000.0 0.34610195879693145 -0.18050612335123745
2880000000.0 -0.3701849776276491 -0.09626218233834817
2900000000.0 -0.13681736909999695 0.354157066602655
2920000000.0 0.2683532803676413 0.2687528948655669
2940000000.0 0.38157583153097346 0.022990304455430648
2960000000.0 0.3560800154979584 -0.13495419410186243
2980000000.0 0.36335734774526485 0.11538568971824643
3000000000.0 0.28550318922761136 0.25410775529860935
3020000000.0 -0.05240243905150055 0.37160594266609104
3040000000.0 -0.35072145604043076 -0.10178346169238463
3060000000.0 0.33887581473928086 -0.10626260215785592
3080000000.0 -0.34357226991466683 -0.011800673211108002
3100000000.0 0.2799136453519811 0.18394525423912825
3120000000.0 -0.2934799898177185 -0.14157694007941135
3140000000.0 0.31474702437799285 0.016896302871117378
3160000000.0 -0.12795983819337847 0.26982014575543856
3180000000.0 0.20432461759932577 -0.18380015720058063
3200000000.0 0.030388649830968714 0.24222035404705974
3220000000.0 -0.05395946511508588 -0.20137589883574647
3240000000.0 -0.1443891093094121 -0.09564581519998902
3260000000.0 -0.016411857492687962 -0.14350096864602593
3280000000.0 0.0742942523600776 -0.08896277344260432
3300000000.0 -0.08608081248136353 -0.019634316175322887
3320000000.0 -0.00211435395809645 0.06759338040603564
3340000000.0 -0.053574971517747934 0.02420493048768017
3360000000.0 -0.0020592938758533454 -0.05122807414462484
3380000000.0 -0.029396358924500574 0.03351014495387688
3400000000.0 0.035898065423850385 0.003978583072452701
3420000000.0 -0.01525708178089352 0.02561782156306064
3440000000.0 -0.015201323030444639 -0.023573319477516213
3460000000.0 -0.01057547038967705 -0.024439356354545423
3480000000.0 0.010530304427816977 0.016200427940545728
3500000000.0 0.010104009512194678 -0.0036189083804377582
3520000000.0 0.02347968483533456 -0.006669684432104604
3540000000.0 0.0014491274620463397 0.047188585545429554
3560000000.0 -0.031468384529492514 0.052776962413183526
3580000000.0 0.047610192419764705 0.04774202281627508
3600000000.0 0.07194039459973361 -0.006402802450539829
3620000000.0 0.06201060816755199 0.04995852390040905
3640000000.0 -0.03481941646746871 -0.08244692844352425
3660000000.0 0.0879380614513047 0.04214066781808597
3680000000.0 -0.07754255047373665 -0.06139386068986384
3700000000.0 -0.09885069384993828 0.016498310211819446
3720000000.0 -0.04613757891079413 0.09457281687774642
3740000000.0 0.0028403256942860686 -0.10503136180807114
3760000000.0 -0.07437779202629517 0.07479575967486844
3780000000.0 0.06430615728112227 0.09210094705628905
3800000000.0 -0.12417626984567373 0.029158736075889834
3820000000.0 0.0974735849900117 0.10835343762496612
3840000000.0 -0.038868392040649014 -0.15468778193472646
3860000000.0 -0.021637603877452553 0.1742635013911912
3880000000.0 -0.1789869550868133 -0.08147242008136889
3900000000.0 -0.19757847927445646 -0.07500584189264359
3920000000.0 -0.21252220758105037 -0.017774288133203094
3940000000.0 -0.20435902119050742 -0.0717968773914782
3960000000.0 -0.2155046019870713 -0.0007658915155845564
3980000000.0 -0.17977378220406873 -0.10890216543622148
4000000000.0 -0.058434578687973644 -0.19564496722020946
