!Created with skrf (http://scikit-rf.org).
# Hz S RI R 50.0 
!freq ReS11 ImS11
400000000.0 0.79053373786835 0.22927396668182035
420000000.0 0.761976384195952 -0.3188497386969637
440000000.0 -0.054191081002793115 -0.7750446135192829
460000000.0 0.2916263530702902 -0.665092382090507
480000000.0 0.4505262999021512 0.4830380368098461
500000000.0 0.4116495659349969 0.4999149019564141
520000000.0 0.5669733107947964 0.05464979253480273
540000000.0 -0.4563476135951113 0.21057275806564862
560000000.0 -0.4484890902568755 -0.1474082774795128
580000000.0 -0.29671407861432914 0.3041093344368089
600000000.0 0.11777412940506969 -0.3679331543121175
620000000.0 0.08567688825732926 -0.36153996777920605
640000000.0 -0.18740793797674066 0.35674501700380695
660000000.0 0.3041124921760614 -0.3083892980275865
680000000.0 -0.06703976707049839 -0.4370820422783855
700000000.0 0.43071918099412787 -0.06704034436274435
720000000.0 0.10455841036177219 -0.402174985935172
740000000.0 0.3800386850664063 0.08309962221428105
760000000.0 0.18968905972074596 0.3188386284158659
780000000.0 0.20452474362632034 0.26347283490732
800000000.0 -0.26246010237988115 -0.11557152903837503
820000000.0 0.2572961875365716 -0.016915664394978092
840000000.0 -0.12053832074055115 0.18311666438256768
860000000.0 -0.14127818081139992 -0.1291317713108178
880000000.0 0.0845231971065575 0.13805679313271574
900000000.0 0.12497617465265604 -0.038911717301114715
920000000.0 0.017725833866968594 -0.08001836355787133
940000000.0 -0.051720538455867104 0.029444395937048045
960000000.0 -0.05704357688894983 -0.006267866981796575
980000000.0 -0.06064436026254246 0.02023465587636183
1000000000.0 -0.013356961528909498 -0.0715121345822439
1020000000.0 -0.05662166428695275 0.05871484665319971
1040000000.0 0.03353829244349268 -0.10230737407808949
1060000000.0 -0.055541736876057374 -0.1272144468852802
1080000000.0 0.13528390423348688 0.11434530998856873
1100000000.0 0.08429502521257232 -0.1956902670687339
1120000000.0 0.20052346270937915 -0.15106887168723562
1140000000.0 0.2882375881305814 -0.014903956216787266
1160000000.0 -0.3096783138896624 0.04577312573970501
1180000000.0 -0.262325259420267 0.21336476519654712
1200000000.0 -0.23310910007116922 -0.26153046874446795
1220000000.0 -0.34951482040513726 0.09588776276798831
1240000000.0 0.15061715955421515 0.3626459828975891
1260000000.0 0.07248225132707772 -0.39716701650075764
1280000000.0 -0.25478115782722965 -0.32115578784716836
1300000000.0 -0.07014244658961112 -0.40641876467175897
1320000000.0 0.10784344642978366 -0.4146534767767322
1340000000.0 -0.23538561589960175 -0.3716231998610941
1360000000.0 -0.4365512033534897 0.05844996721403412
1380000000.0 -0.23818726312063293 0.36298869989575233
1400000000.0 0.37908212727096985 0.1914831852710518
1420000000.0 -0.05021668459437826 -0.40361842170378187
1440000000.0 -0.2823755505887819 0.2530914979409203
1460000000.0 0.3263280575378561 0.1200587703471724
1480000000.0 0.06234404292840747 -0.3037002530567664
1500000000.0 -0.19702125817453967 -0.1859917806248872
1520000000.0 0.04695920727256381 -0.23286229381217183
1540000000.0 -0.04885905170385485 -0.2009230971848708
1560000000.0 -0.14179566377344918 -0.11247540275988685
1580000000.0 -0.14789993725761 0.056399533920006045
1600000000.0 -0.034256415954748 -0.13265730649853905
1620000000.0 -0.10074638451958895 0.04162238243320751
1640000000.0 0.05235037954203274 -0.060440842000563835
1660000000.0 -0.0052730597222149745 0.04242468357136086
1680000000.0 0.011315204411727278 0.004506385433599241
1700000000.0 -0.004531994632026433 -0.024685940897540105
1720000000.0 0.02044230608815208 -0.04238792254958887
1740000000.0 0.013612634718011248 0.06892606868387624
1760000000.0 -0.0035526536285535306 -0.09060510442001111
1780000000.0 0.001974319671544734 -0.10840725340025377
1800000000.0 -0.040643206612323284 -0.1263924765648948
1820000000.0 -0.14871475054744324 -0.06234404338851834
1840000000.0 -0.18880730377599395 -0.035634563186439004
1860000000.0 0.02335858586063329 0.23425835751064344
1880000000.0 -0.2014839594234077 -0.195772418903422
1900000000.0 0.3038077444128428 -0.10283884514712435
1920000000.0 -0.09946867037945 0.34107662314887505
1940000000.0 -0.09844866629788115 -0.3712291110404017
1960000000.0 0.3344383560000869 0.22292849303366563
1980000000.0 -0.006801499888186405 -0.40606492749797934
2000000000.0 -0.16181504986631212 -0.3770182360037856
2020000000.0 -0.12300479767559518 -0.3998571827296894
2040000000.0 -0.20766761633647401 -0.37492631465830817
2060000000.0 -0.42828280945307323 0.07606135862549844
2080000000.0 0.07704668912351395 0.4275370897033654
2100000000.0 0.40185566496047465 -0.13692856200236403
2120000000.0 -0.1159405986271597 -0.3919805309075604
2140000000.0 -0.3798143166652888 -0.07798700570423589
2160000000.0 -0.17634177283567598 -0.32096841494111106
2180000000.0 -0.2964494987608711 -0.16701560398709228
2200000000.0 -0.2259933287550312 -0.2260619897445629
2220000000.0 -0.023800724791482722 -0.3036971896351148
2240000000.0 0.1523336234009304 -0.2612893254466475
2260000000.0 -0.053071733439637954 -0.2991880551452101
2280000000.0 -0.30650184596191654 -0.029911137509968322
2300000000.0 0.11521918674792583 0.29703228599028686
2320000000.0 0.31444198986751776 -0.11582723840101199
2340000000.0 -0.28369607490715615 -0.22700234339563755
2360000000.0 0.13018342856128326 0.3736695584791499
2380000000.0 0.1452098540620305 -0.4133159613297414
2400000000.0 -0.3147407559381408 0.3731547669538039
2420000000.0 0.3131866927714736 -0.4465085948313519
2440000000.0 0.09760074719678671 0.5939827186041238
2460000000.0 -0.5351253388504952 -0.368620970381211
2480000000.0 0.6892091464217979 -0.03562599408028219
2500000000.0 -0.7071723074298697 0.13836965799029488
2520000000.0 0.728922575688393 -0.1361187869539275
2540000000.0 -0.7550119338104886 0.025498555659616305
2560000000.0 0.6773237236183652 0.3479310381939522
2580000000.0 -0.3613044795461934 -0.6665429024525679
2600000000.0 -0.10986442087517193 0.7393175139458888
2620000000.0 0.4163020360442185 -0.5997856624715783
2640000000.0 -0.3806351242369725 -0.5945711809403038
2660000000.0 0.26979310821685937 0.6164777415953898
2680000000.0 -0.22852584364511788 -0.5938998509276188
2700000000.0 0.22720342947062905 0.5527921708680159
2720000000.0 -0.36397413967749964 -0.4229034990548032
2740000000.0 0.4087468976999403 0.3203588927620086
2760000000.0 -0.47637628002969146 -0.0847851253849287
2780000000.0 0.41958257739127736 -0.16824525937111529
2800000000.0 -0.36871722647903454 0.21498975804322498
2820000000.0 0.3772969886058676 -0.15374872130830214
2840000000.0 -0.3943996326147666 0.011894991216380525
2860000000.0 0.29159493208841064 0.2548717602267055
2880000000.0 0.12737106785262164 -0.3633838119726956
2900000000.0 -0.3539385777275881 -0.159951716347224
2920000000.0 0.010180233236266337 0.3962560647841765
2940000000.0 0.3297104391113738 -0.22134961767560785
2960000000.0 -0.08122168673258044 -0.3813837145537157
2980000000.0 0.1253163646101219 -0.3602192229146273
3000000000.0 0.3756942782272683 -0.013128067698188592
3020000000.0 -0.1295547791540782 0.34294469123060584
3040000000.0 0.10138542094777282 -0.34358388303630366
3060000000.0 -0.21517533938031602 0.28004542500246915
3080000000.0 0.24164638014533368 -0.2557412775347777
3100000000.0 0.08819499514938893 0.33611173109725484
3120000000.0 -0.33032093102820465 0.05259054109980498
3140000000.0 0.10118215596644414 -0.2999881814980415
3160000000.0 0.18335248654250252 0.2309310412860587
3180000000.0 0.05881064095018878 -0.2598174145530752
3200000000.0 -0.0452488674786762 0.22904432648810918
3220000000.0 0.19467698124074706 -0.04525905067672266
3240000000.0 0.1518835924538229 -0.07828631546284737
3260000000.0 0.13786295309030028 0.04361824104666365
3280000000.0 0.12013381557601259 0.005766258801993117
3300000000.0 0.07161456978860523 0.059922227254772274
3320000000.0 0.05470221165656665 -0.0361609363249335
3340000000.0 -0.041529027798587775 -0.017973362116786344
3360000000.0 0.01588058699187224 -0.035277614383309376
3380000000.0 -0.03206301297085563 0.0303149510841429
3400000000.0 0.04529661837983469 -0.0109148061914263
3420000000.0 0.04144263964374722 0.0016581203209670083
3440000000.0 0.01817952803774541 0.02550538297076314
3460000000.0 0.005342727193902598 -0.01381623081352451
3480000000.0 0.008518854087545338 -0.003541637365053858
3500000000.0 -0.01430008975306004 -0.021019251398931717
3520000000.0 0.03137765742026956 0.02523773296103531
3540000000.0 0.04692068285662329 -0.016396585979974225
3560000000.0 -0.05071918329770974 0.005609420398901515
3580000000.0 -0.05401213952166212 0.012886329180221178
3600000000.0 0.03748969421212369 -0.056930454581319956
3620000000.0 -0.0809463858315914 -0.016296859898807633
3640000000.0 -0.09098673138769739 -0.03078535098308946
3660000000.0 -0.07225902999716985 0.07302856853442352
3680000000.0 -0.024883767168764302 0.09762429695311736
3700000000.0 0.09180378568456095 -0.006779225960097589
3720000000.0 -0.058832794216365746 0.06536779058502232
3740000000.0 0.009386281766032227 0.08679003035973687
3760000000.0 -0.020938845996087165 0.0979196932680913
3780000000.0 -0.11618220817390448 -0.003330570572543006
3800000000.0 0.1037165998108447 0.0778388643041872
3820000000.0 -0.11480435928938372 -0.08188626409684745
3840000000.0 0.031070789821629204 0.14469214406359887
3860000000.0 0.1401303463935827 0.07180249704701248
3880000000.0 0.13281492761519711 -0.11258032542378356
3900000000.0 0.006347322925214957 0.1960418044397424
3920000000.0 0.05637614074602288 0.20527037116364363
3940000000.0 0.1359646269097888 -0.17482403884787986
3960000000.0 -0.21747576158858137 0.0002267786991667103
3980000000.0 -0.1487443438139997 0.1431523135670875
4000000000.0 -0.18728990205014182 -0.03834582977186519
