!Created with skrf (http://scikit-rf.org).
# Hz S RI R 50.0 
!freq ReS11 ImS11
400000000.0 0.7358926009701927 -0.36940280113461504
420000000.0 0.28124871983484495 -0.7826459973138128
440000000.0 -0.6194479617928751 -0.4659487566269723
460000000.0 -0.05036897372134589 -0.7147970947164729
480000000.0 0.48964506861726287 0.4510607587223291
500000000.0 0.6293341133186731 0.07868259756432903
520000000.0 0.21946314179305473 0.5239082121396039
540000000.0 -0.4707842387652319 0.15768491334118534
560000000.0 -0.0987197218541363 -0.4534059353639806
580000000.0 -0.4115760676665481 0.018521744973566057
600000000.0 -0.09334966877313189 0.36395327115627846
620000000.0 0.1663733869906708 0.3442613331445965
640000000.0 -0.24150433912971284 -0.33806072515492674
660000000.0 0.4549725773408505 0.033378980365562805
680000000.0 -0.4655810717267523 -0.015793481993044464
700000000.0 -0.0691862317963234 -0.44057091489067685
720000000.0 -0.3762990073878284 0.19531790752321992
740000000.0 -0.25946738114615053 -0.27730279512343503
760000000.0 0.30204591476623965 0.19510638225020646
780000000.0 -0.2801733546961677 0.15705155818798633
800000000.0 -0.27799324033850514 -0.11970224416553146
820000000.0 0.08527238715734728 0.2296563076919726
840000000.0 -0.19936741458962215 0.016931796748437537
860000000.0 -0.15117034193493456 -0.08541490266593105
880000000.0 -0.06320435018952725 0.12942701673854334
900000000.0 0.04169999655740267 0.11510416891073358
920000000.0 0.013576740194587208 0.08009394260054019
940000000.0 -0.054048677724400314 -0.019370948052063717
960000000.0 -0.0712699792857902 0.0120422769576083
980000000.0 -0.05619873800934948 0.047334045493674676
1000000000.0 0.08619129373207587 -0.005691932512191659
1020000000.0 0.08203543028351849 -0.061321546836060475
1040000000.0 0.06383921290630386 -0.10060995796458864
1060000000.0 -0.10348062788756773 -0.11612641007553037
1080000000.0 -0.1494361014524745 -0.1143257593477269
1100000000.0 -0.1080660586302337 0.19784122962555073
1120000000.0 0.20555626338207666 0.14756185801725685
1140000000.0 -0.2250775423601358 -0.16356408579507237
1160000000.0 -0.05943745399576487 0.3060172940539922
1180000000.0 0.1842068125391736 0.2729270455885227
1200000000.0 -0.009758997141748202 -0.3454110722416628
1220000000.0 -0.29102980526783256 0.2212164857021119
1240000000.0 0.23292112025174497 0.30728376927526796
1260000000.0 0.3679447066766954 -0.1575109586388975
1280000000.0 0.2986330629281665 -0.289042194364263
1300000000.0 -0.11559129841821571 -0.41146473457643223
1320000000.0 -0.28828050579018094 -0.32253046565527904
1340000000.0 -0.43222814116220926 -0.09324161748696524
1360000000.0 -0.25789826586226394 0.35777760294198396
1380000000.0 0.286434644662742 0.32199046697862654
1400000000.0 0.36365741578920535 -0.194400006045221
1420000000.0 0.06831421978667467 -0.38438758628609077
1440000000.0 -0.18822400599699057 -0.3151797294710033
1460000000.0 -0.29826602340303443 0.17546242832988762
1480000000.0 0.26888175894898453 -0.17249696526813835
1500000000.0 -0.01891433908978456 0.27612996979250015
1520000000.0 -0.05476021824557836 0.22648929700655576
1540000000.0 0.09304571177360896 0.17267724829759198
1560000000.0 -0.060940976007845225 0.15382464135683396
1580000000.0 0.06890209308994472 0.12815585787058023
1600000000.0 -0.11247358556306743 -0.044991494384455946
1620000000.0 0.08510014310714666 -0.046578303499399745
1640000000.0 -0.025302023977086075 -0.0674009683132887
1660000000.0 0.0066911903819631005 0.04286609574337051
1680000000.0 0.013500057920407453 -0.01250892713518823
1700000000.0 0.007501623795164628 0.01933469396876463
1720000000.0 0.028311486004856567 -0.021866838327870494
1740000000.0 0.049267464047692486 0.024408759290920786
1760000000.0 -0.06951799613054321 -0.028169123001565127
1780000000.0 0.09187141825591084 0.04083923676942463
1800000000.0 0.12724856674665191 -0.05366486206180566
1820000000.0 0.023862782839937507 0.1741680213198534
1840000000.0 -0.1672517468449206 -0.12961102820979692
1860000000.0 0.1247791176985713 -0.21937715812504208
1880000000.0 0.2627958035699227 0.11348753799072528
1900000000.0 -0.31271336502419034 -0.031954990241005704
1920000000.0 0.2671863261807995 0.21196917762099796
1940000000.0 0.20479678104181756 -0.3067374444471127
1960000000.0 -0.2756542072450041 0.2829303869266018
1980000000.0 0.3841150466405477 -0.12920747521103348
2000000000.0 0.18033902800935733 -0.36909764226652436
2020000000.0 0.12006762610467514 -0.40025093471637424
2040000000.0 -0.07972037583727425 -0.42167854264752286
2060000000.0 -0.3400824389210671 0.2716776136301213
2080000000.0 0.38727435699427415 0.18011505655624135
2100000000.0 0.22882687479798255 -0.3439291358831645
2120000000.0 -0.09914874437376095 -0.3827844853722679
2140000000.0 -0.33818456880908143 -0.1742734965607149
2160000000.0 -0.15341142199372695 -0.32337149267803744
2180000000.0 -0.24710142488573206 -0.22471150272512858
2200000000.0 -0.12876934202734452 -0.2869418683142658
2220000000.0 0.15438781703698806 -0.2638037984934243
2240000000.0 0.06471007993359319 -0.2986903061953139
2260000000.0 -0.18926908703687836 -0.23975705298168895
2280000000.0 -0.2835589497004682 0.12513470494996623
2300000000.0 0.04807816827141505 0.31553033263063224
2320000000.0 0.31607290264199533 0.11911832908841434
2340000000.0 0.026859856808698925 -0.3691987107390731
2360000000.0 -0.2951668758676293 0.28207859377964206
2380000000.0 0.3754130968646709 -0.2589839302515991
2400000000.0 -0.2993996285178336 0.40874945306444527
2420000000.0 -0.038371048946451956 -0.5581028353464147
2440000000.0 0.4490834003779826 0.4108695474491069
2460000000.0 -0.6396292845982556 -0.13650357935956872
2480000000.0 0.6485151898917489 -0.24456763534897802
2500000000.0 -0.6037349544771581 0.3970473255768488
2520000000.0 0.5509213744043063 -0.49946183157917945
2540000000.0 -0.66315592302248 0.36364480204358146
2560000000.0 0.7586186835146153 -0.070708629951658
2580000000.0 -0.6187204264602448 -0.44039376634750604
2600000000.0 0.3591937286741315 0.6566437207577325
2620000000.0 -0.0864191969409528 -0.7262133845825562
2640000000.0 -0.6260880277114815 -0.3266865143354546
2660000000.0 0.5632463796459372 0.3710523760157159
2680000000.0 -0.5298261445516729 -0.35668540021608486
2700000000.0 0.5139497204323243 0.3122760288142702
2720000000.0 -0.549902971051581 -0.11965631616740552
2740000000.0 0.5010439048641533 -0.14202406245758853
2760000000.0 -0.42768707091722485 0.22513673876153337
2780000000.0 0.3529665163304405 -0.2824961771269367
2800000000.0 -0.3313590293420635 0.27096244620883986
2820000000.0 0.2922713144699673 -0.2877597041680354
2840000000.0 -0.3144999901181348 0.2410944368240599
2860000000.0 0.3887838021912521 0.01420344636400486
2880000000.0 -0.22483440683681208 -0.3130538002773584
2900000000.0 -0.2921004381910723 0.24898071513723657
2920000000.0 0.24372310863334196 0.2997256737102439
2940000000.0 0.3292060494191912 -0.20422781661177114
2960000000.0 0.153389641299566 -0.3517108695605965
2980000000.0 0.29345378289704876 -0.24289369787737047
3000000000.0 0.3797180260818347 -0.03337967454480845
3020000000.0 0.18588829028447834 0.3253773013663309
3040000000.0 -0.3536569631871325 0.09371775257985923
3060000000.0 0.3442305918429868 -0.08917580800355063
3080000000.0 -0.33425260915359584 0.09466633307144229
3100000000.0 0.3352571171150928 -0.05655043457236454
3120000000.0 -0.2525095493065768 0.2135999699043213
3140000000.0 -0.029883261771527312 -0.31570289730022216
3160000000.0 0.28455893103565333 0.08739165431688381
3180000000.0 -0.1683349283433343 -0.21457091522770608
3200000000.0 0.24191355233006617 -0.020813626402798782
3220000000.0 -0.17865204440612606 0.10602835312116021
3240000000.0 0.13471461557903794 0.11055412466956745
3260000000.0 0.13641770870333178 -0.032388017327464054
3280000000.0 0.010287450343043032 0.10646470372544052
3300000000.0 -0.05347476770778574 0.060698847250605203
3320000000.0 0.0637173032833124 0.0008927115868533467
3340000000.0 0.048453146577001144 -0.003236218864677359
3360000000.0 0.02655382864640565 0.032944785972283556
3380000000.0 0.03438688690821802 0.02270936984170831
3400000000.0 0.00696926165386869 0.0384578293001047
3420000000.0 -0.0017530664628591203 -0.032026628318229375
3440000000.0 0.024872008175884447 -0.0035818305633762222
3460000000.0 0.009860045850929101 -0.014353363164441918
3480000000.0 0.00930009982647564 0.012224458879982915
3500000000.0 0.02063048427466963 0.019112113676144234
3520000000.0 -0.018877564809351783 -0.0341954076269407
3540000000.0 -0.011480394185013539 0.04830925987724877
3560000000.0 0.05391784706687434 0.013363107766275343
3580000000.0 0.06207495175833954 -0.005940758049091295
3600000000.0 0.06414254750659883 -0.034400811498663725
3620000000.0 -0.08204503298297275 0.0017712528153424208
3640000000.0 0.07659956619102026 0.046476358197317436
3660000000.0 -0.09809897357008521 -0.0006733791229920476
3680000000.0 -0.06996812700240296 -0.07182293155215835
3700000000.0 0.03993107705218911 0.08711305811931816
3720000000.0 0.032353441656361226 0.08637946614845288
3740000000.0 -0.07637277460983394 -0.0474071332426234
3760000000.0 0.002135987099590853 -0.0957056130852142
3780000000.0 -0.09793995892530999 -0.04344838724954401
3800000000.0 0.06711322445225931 -0.10485190805626544
3820000000.0 -0.089997784578683 -0.1090186033225439
3840000000.0 -0.06456018282857612 0.14154806673966838
3860000000.0 0.008579380532924836 -0.17238422065993514
3880000000.0 0.1872390358109462 -0.01927155596555103
3900000000.0 0.19646755531380095 -0.02762704174811444
3920000000.0 0.1931891427555886 0.0554617130453806
3940000000.0 -0.11733157423479111 0.1682422624558082
3960000000.0 -0.2001996790085008 -0.06540177573152048
3980000000.0 -0.20831817680909562 -0.03929149937759946
4000000000.0 -0.199856437102764 0.0374445585914743
