!Created with skrf (http://scikit-rf.org).
# Hz S RI R 50.0 
!freq ReS11 ImS11
400000000.0 0.42504259447398857 -0.7418443012998722
420000000.0 -0.6901444118476948 -0.471034513685373
440000000.0 -0.7676800013939439 0.1348808494777479
460000000.0 -0.7052509369431593 0.1320969855251734
480000000.0 0.07066882131858222 -0.6396579746871119
500000000.0 0.09625518302733725 -0.5964375075761851
520000000.0 0.09231058672715792 0.5230535596733457
540000000.0 0.275325911785645 -0.3986482706500058
560000000.0 0.3605524276557701 0.28383308691673137
580000000.0 0.18705837860586166 -0.3785952056866553
600000000.0 0.3503065758065898 0.18221847518743173
620000000.0 0.3788144733219877 -0.07503926800471046
640000000.0 0.40963144304785737 0.03231254207083369
660000000.0 -0.2947826962332727 -0.3010821033646377
680000000.0 0.14940778368112687 -0.39539365231768986
700000000.0 -0.3918412027319539 0.17576320501624138
720000000.0 0.19493388609225976 0.37859862197586636
740000000.0 0.40466816101551745 0.07000551194120858
760000000.0 0.0908486433975715 -0.3641243221914837
780000000.0 0.13289966405422085 0.29511303949271145
800000000.0 0.15663460962574893 -0.2541067263844685
820000000.0 -0.2524151261890681 -0.08056464789893293
840000000.0 0.1951220860453669 -0.0898811041619077
860000000.0 0.051790263905077336 0.1820155576630303
880000000.0 0.10025976440252612 -0.11299435797436325
900000000.0 0.04636039389506954 -0.10484584011843862
920000000.0 -0.039745884386976654 -0.05293887282441368
940000000.0 0.04180711638406633 -0.006948468191630193
960000000.0 0.00026809366884367024 -0.055606917693743686
980000000.0 -0.05222166540601468 -0.04586488707207709
1000000000.0 0.03785449153545231 0.06489485018881654
1020000000.0 0.014410275816413897 -0.0860678087768781
1040000000.0 -0.02165388764122216 -0.10874596216033708
1060000000.0 -0.058888363075292965 -0.130533548657665
1080000000.0 -0.045036760690107425 -0.17351046204296344
1100000000.0 -0.16529896268794841 0.12672720833017148
1120000000.0 0.23210869276220927 0.06427293317108813
1140000000.0 0.09004096805712915 0.27071908444866366
1160000000.0 -0.14039431939940303 -0.28570828174129653
1180000000.0 -0.23345290526919268 0.2532994818389831
1200000000.0 -0.34666592943856145 -0.08548687134838687
1220000000.0 0.21731638631567485 0.2974208559117124
1240000000.0 0.13620728242226196 -0.35104698345858754
1260000000.0 0.3755108424775726 0.06755963195526977
1280000000.0 0.03243866869117914 0.4055005520622189
1300000000.0 0.39094485447657445 0.1857647249416694
1320000000.0 0.1821063073351085 -0.41584248786300876
1340000000.0 -0.16159037452065672 0.43349398854194177
1360000000.0 0.25263926839208567 -0.368006187085862
1380000000.0 0.08090831675589899 -0.4076702760030665
1400000000.0 0.36348174786495235 -0.1512994231987077
1420000000.0 0.18962449934202177 0.3282746671141533
1440000000.0 0.3294668282713278 0.17820415258160846
1460000000.0 -0.15325792365641322 -0.32447519846385203
1480000000.0 0.20304576466836052 0.2655393377081102
1500000000.0 -0.13831297283269167 0.26228184458225096
1520000000.0 0.18890601671893617 -0.15675784876928797
1540000000.0 0.18983685583914398 -0.04244433656362733
1560000000.0 -0.16533312821592394 -0.001383003333588562
1580000000.0 -0.040644834163465 -0.14133767623630838
1600000000.0 -0.08766009421673346 0.09725243756571086
1620000000.0 -0.005062677391151364 0.10787017021124741
1640000000.0 0.07028457546973485 0.03756057593101976
1660000000.0 0.02059726205385129 0.049288514323572966
1680000000.0 0.022565302288661177 -0.0028963547733713295
1700000000.0 -0.010297427411406436 -0.01227067276600655
1720000000.0 -0.028463210540687636 -0.031421481866099985
1740000000.0 -0.06675861007435877 -0.005008194573783295
1760000000.0 0.06940327949375155 0.058429683875827754
1780000000.0 0.0879731698648321 -0.06535573429377617
1800000000.0 -0.054310713856594965 -0.11990832838844924
1820000000.0 0.154290594036232 0.03711680575768449
1840000000.0 0.20362039731094805 -0.004571541899507842
1860000000.0 0.13484637181368023 0.2115968331419997
1880000000.0 -0.04947818926204766 0.29013166998944695
1900000000.0 -0.2846430532846252 0.15120362868953613
1920000000.0 0.33669798483517704 -0.07210246791464205
1940000000.0 -0.2562337799437234 -0.2664445516744864
1960000000.0 0.05428598394977308 0.3834720672864762
1980000000.0 0.37748711852858535 0.12746374600581722
2000000000.0 0.4092540834579157 0.036133207522202275
2020000000.0 0.41250986132170425 -0.10820915841860375
2040000000.0 0.08106736343091822 -0.43381887853522455
2060000000.0 -0.32762095752477527 0.3061118379657818
2080000000.0 0.40173162924631317 -0.1852408650777961
2100000000.0 -0.3402064802389353 -0.24863692175244115
2120000000.0 -0.39242351270066544 -0.05101801480890948
2140000000.0 -0.36911730963671047 -0.07568529086316635
2160000000.0 0.11067423386950336 -0.33947273841384873
2180000000.0 0.14389612304670263 -0.30503755025181245
2200000000.0 0.2793473217181787 -0.1622486684241118
2220000000.0 0.2971947867913546 -0.11667948556036842
2240000000.0 -0.17221080715840953 -0.26911678481085977
2260000000.0 -0.05389582166535556 0.30740958114241507
2280000000.0 0.16000294196897685 0.2631594258542512
2300000000.0 0.3146856788143293 -0.019596333633769728
2320000000.0 0.3206103475444421 -0.08378408952186439
2340000000.0 0.07988660957941732 -0.35789421093784135
2360000000.0 -0.12994874267518539 0.39084123181068015
2380000000.0 -0.2753859644806705 -0.3655112152795573
2400000000.0 0.4025537731515855 0.3012463464319765
2420000000.0 -0.4463456378404967 -0.3247301726675763
2440000000.0 0.586635680262672 0.14858047145992215
2460000000.0 -0.6015039603894099 0.2554799577734109
2480000000.0 0.4024369765512169 -0.5639800539473682
2500000000.0 -0.4196511171287422 0.5874540675985933
2520000000.0 0.5054423206951054 -0.5432428102815239
2540000000.0 -0.5787437535251868 0.48502473593237405
2560000000.0 0.7605735882583886 -0.009861047248282868
2580000000.0 -0.5297178618129488 -0.541606719441839
2600000000.0 0.04487549855369467 0.7455502344494411
2620000000.0 0.16166960967715985 -0.7117594422746528
2640000000.0 -0.4890603222211102 -0.5090544552130145
2660000000.0 0.3061496298303873 0.6005030858080063
2680000000.0 -0.22198550837090003 -0.596808098253071
2700000000.0 0.19878500097593121 0.5630465190162396
2720000000.0 -0.18245558135751305 -0.5276324522764948
2740000000.0 0.2687507999722844 0.4490237555741193
2760000000.0 -0.454064648713295 -0.1803092444082622
2780000000.0 0.4207620981116114 -0.17632507600678818
2800000000.0 -0.3508518779247285 0.24213869634699406
2820000000.0 0.4079198799899912 -0.003339729418348045
2840000000.0 -0.3791948256934047 -0.11762588836616632
2860000000.0 0.316094919915231 0.23117290962577422
2880000000.0 -0.2281952243339893 -0.3151437003304576
2900000000.0 -0.16195225909656974 0.35124195826078664
2920000000.0 0.38194264405038014 0.06289243822568023
2940000000.0 0.1704818917727901 -0.3412981792197269
2960000000.0 0.2187830005943482 -0.3027501924129652
2980000000.0 0.3370146763084465 0.15848795350304162
3000000000.0 -0.09993438909209865 0.36271276535121033
3020000000.0 -0.37205562296897765 0.059568791878877536
3040000000.0 -0.22103715940504923 -0.29739366194062433
3060000000.0 0.3122182188738937 -0.18021968780506661
3080000000.0 -0.24984412217430177 0.23670908562090984
3100000000.0 0.32876046371739553 -0.03539907542203251
3120000000.0 -0.3033962511236864 -0.09592870366187276
3140000000.0 0.12395269182427679 0.27937248047770774
3160000000.0 -0.18118888220115234 -0.234160392757608
3180000000.0 0.17912356836977653 0.213214296692479
3200000000.0 0.16225221259746805 0.1904503234342928
3220000000.0 -0.09236030897668142 0.18570306968679923
3240000000.0 -0.03274315781650845 0.16038699917622384
3260000000.0 0.1338574899153023 0.0025993516203158666
3280000000.0 -0.08961629478256125 -0.07027829536386831
3300000000.0 0.02896847083467609 0.09001522039104035
3320000000.0 -0.05355633237001529 -0.05362065211693006
3340000000.0 0.05394793537332733 0.0038495342200200195
3360000000.0 0.0002508807209043447 0.0432013920387923
3380000000.0 0.034965551227414425 -0.022875602891271926
3400000000.0 -0.037379811611388224 0.02243749525460742
3420000000.0 0.03769892589568271 -0.001313124876495108
3440000000.0 0.004555332016219147 0.027331108210213794
3460000000.0 -0.018470333699855547 0.006258529625615017
3480000000.0 0.00850727622195628 0.013502195697255333
3500000000.0 -0.012525358500947388 -0.01755369033952904
3520000000.0 0.012834710186142153 0.025149520578702247
3540000000.0 0.03853018844768682 -0.004002302445682146
3560000000.0 -0.031126136854439008 0.03668796132534581
3580000000.0 -0.06134626340832679 -0.007077123494359217
3600000000.0 -0.06802182261866976 0.03556902426223892
3620000000.0 -0.06368310239237329 0.05607816266165358
3640000000.0 -0.08595564901956936 -0.017579258555931832
3660000000.0 0.03742373611263443 0.07861751745453761
3680000000.0 -0.06656048140012975 -0.05625436007525321
3700000000.0 0.0309699637563195 -0.08965739907196556
3720000000.0 -0.08698488218481538 0.05361970417041976
3740000000.0 0.07912455289082736 -0.06588637488001688
3760000000.0 0.06257821614632939 0.08426610298424561
3780000000.0 -0.047103226176192454 -0.09606155889856147
3800000000.0 -0.0736944516151573 0.08990614724123631
3820000000.0 -0.11393894231995885 -0.07107428197118529
3840000000.0 -0.07602137446568165 0.13795569879244188
3860000000.0 -0.13815802524012416 0.11311581805714953
3880000000.0 -0.1342885559875392 0.13543143525172613
3900000000.0 -0.11386384032756146 -0.16336185762757982
3920000000.0 0.15950818948103 -0.13326785787545445
3940000000.0 0.1981527956100121 -0.08393555573399773
3960000000.0 0.10752701163475148 -0.18975068996752312
3980000000.0 -0.16730480531138134 -0.1348675490238885
4000000000.0 -0.1890741534089995 -0.07193778537504833
