!Created with skrf (http://scikit-rf.org).
# Hz S RI R 50.0 
!freq ReS11 ImS11
400000000.0 0.7338178934115459 -0.3856844957669218
420000000.0 1.6825992823684338e-05 -0.8309477603087443
440000000.0 -0.5283701843653072 -0.5626280680920286
460000000.0 0.021893349668521547 -0.7208442491593805
480000000.0 0.6069574928362175 0.26638846663620697
500000000.0 0.6266541216811458 0.0896818124350957
520000000.0 0.2405015168485476 0.5143767856477062
540000000.0 -0.43883423689859635 -0.25630162990503635
560000000.0 -0.4829468141749227 -0.027214260104272085
580000000.0 0.2677622580067771 0.31538460655206124
600000000.0 0.12977719015260722 -0.34717377319184267
620000000.0 0.14536023775453244 0.33840157362767953
640000000.0 -0.3971618657719744 -0.10503113958276193
660000000.0 0.44497423767040906 0.04173636182232021
680000000.0 -0.23365938180767531 -0.4018266190059544
700000000.0 -0.1317916735058298 -0.43398267731049567
720000000.0 0.271241405877368 0.3274188105606865
740000000.0 -0.11163063719561295 0.346694998895841
760000000.0 -0.32171409524158956 -0.07460547857036713
780000000.0 0.20496508639884706 0.25577588599448664
800000000.0 0.13575405634438142 0.27756677152557047
820000000.0 -0.017071709786777706 -0.2769846001734341
840000000.0 -0.21747410655271074 0.06492739940054473
860000000.0 -0.07226581831825929 0.16399564643989084
880000000.0 -0.10544795964508734 -0.07446706320393338
900000000.0 0.0725214590821559 0.05923225162200802
920000000.0 -0.039963399039683864 -0.06450658457170858
940000000.0 0.05317741062974222 -0.03585338563742325
960000000.0 -0.07246668101800609 0.018904602275823246
980000000.0 0.07534189430670327 0.05961072576248306
1000000000.0 -0.08816983319364761 -0.054696958409965676
1020000000.0 0.024284339688807784 0.10753552956250188
1040000000.0 0.09630788396189713 0.052027049930223356
1060000000.0 -0.06468088170283672 -0.11832061902229137
1080000000.0 0.011592474989510578 -0.17968989344116656
1100000000.0 0.07531434350168159 -0.20144044791306318
1120000000.0 -0.11529450105016445 -0.24056439758468026
1140000000.0 0.2093345848517717 0.2106353022999118
1160000000.0 -0.1621742667180302 -0.2501042781218136
1180000000.0 0.1144187478103676 0.28693108141274143
1200000000.0 0.2901857231707595 0.15840365871912487
1220000000.0 0.3653394399707351 -0.06990905936502133
1240000000.0 0.09591521571064929 0.39295153709406716
1260000000.0 -0.12476062546537134 -0.3885013468798712
1280000000.0 -0.20572212565797568 -0.3527738179716847
1300000000.0 0.28603333576660894 -0.30597954699607016
1320000000.0 0.2784643986756854 -0.34118488164391764
1340000000.0 -0.45746729826803856 -0.0004169120052549103
1360000000.0 0.44880126680865196 -0.04802789878981114
1380000000.0 -0.09175729007331933 -0.40912139877885495
1400000000.0 0.2253241020339225 -0.32478565423724687
1420000000.0 0.3731064937484549 -0.04167706735962902
1440000000.0 0.35941268344647354 -0.07490732131028399
1460000000.0 -0.3401456265875735 -0.07394267161111807
1480000000.0 0.2872161392573649 0.13963647277699057
1500000000.0 -0.1863726814350135 0.21254923768797526
1520000000.0 0.020028677490130032 0.23893101661841465
1540000000.0 0.18866775749591994 0.04835267970085333
1560000000.0 -0.16630396647928758 0.0215874760264487
1580000000.0 0.1465043277558041 0.04845197295921663
1600000000.0 -0.05782180083721277 -0.10946138922359416
1620000000.0 0.0205145633221007 0.08477545492417286
1640000000.0 -0.06578348817623024 0.012917892644795667
1660000000.0 -0.05072619983621655 -0.0005005552259412675
1680000000.0 0.013060026598499017 -0.016945894462523266
1700000000.0 -0.009887559882241487 0.004487514961409726
1720000000.0 0.02185046501388793 0.03924363716373939
1740000000.0 -0.05590485388432885 -0.044364457264318584
1760000000.0 0.0684424179464971 0.05526221493409359
1780000000.0 0.10462689942142951 0.040326764835357465
1800000000.0 -0.13460013637749202 0.02728207070743275
1820000000.0 -0.15405367415392107 -0.010382108731258164
1840000000.0 0.128629032455472 0.1473764567679658
1860000000.0 -0.20438900558166748 0.15207691314402833
1880000000.0 0.1126408286855059 0.2739945881353706
1900000000.0 -0.25748442686925255 0.19473715636631136
1920000000.0 0.14913453967131357 -0.3043373592822637
1940000000.0 -0.07687237871890006 -0.34767442331616244
1960000000.0 -0.2709685258165597 -0.2676036297575844
1980000000.0 -0.39324144678402906 0.10746009817893913
2000000000.0 0.38933503455828045 0.18972944069509995
2020000000.0 -0.4055183777665655 -0.17844088711245387
2040000000.0 0.16184799485582865 0.40557472859674154
2060000000.0 0.4193931624527473 -0.05666895486346891
2080000000.0 0.4077635938138463 -0.017114747914867355
2100000000.0 0.32835225584704897 0.22935332449826068
2120000000.0 0.3901889879094716 0.0714601379031328
2140000000.0 -0.061723743489980165 -0.3852611088750804
2160000000.0 -0.3128354444907227 -0.18943433097700474
2180000000.0 -0.33089944886641387 -0.04722442326469006
2200000000.0 -0.02304596815781033 -0.31325966250245674
2220000000.0 0.28709780056623896 -0.1104141465371834
2240000000.0 0.11646646683541605 -0.2875818906010795
2260000000.0 -0.30159867098508414 -0.06547310451149872
2280000000.0 -0.19683637226515618 0.23869279345083408
2300000000.0 0.0891631153133487 0.30496087076688083
2320000000.0 0.2697576486289493 0.2023710026432235
2340000000.0 0.05623188644090075 -0.36748105550600135
2360000000.0 -0.19860766114004735 0.35653881081599087
2380000000.0 0.3376221782670279 -0.30401653452661914
2400000000.0 -0.3116466307862218 0.39928336421491956
2420000000.0 -0.01618158378669529 -0.561438738063111
2440000000.0 0.5105611776035021 0.33628789575319507
2460000000.0 -0.6517788657343008 0.06732347452663534
2480000000.0 0.5735738475830923 -0.3915293120673275
2500000000.0 -0.4428748105191902 0.5732840791417256
2520000000.0 0.41046872489974057 -0.6216107875468972
2540000000.0 -0.6118078848109842 0.44595471012646254
2560000000.0 0.7384038196656686 -0.1844740780770129
2580000000.0 -0.6864263104616644 -0.32195758681075176
2600000000.0 0.4573923273702361 0.589459931842794
2620000000.0 -0.12986091144666537 -0.716763966550932
2640000000.0 -0.6775235081210675 -0.18859826265389126
2660000000.0 0.626030785672733 0.24233950993979436
2680000000.0 -0.5741555882684398 -0.271793313566643
2700000000.0 0.5856577635013204 0.11626249236067653
2720000000.0 -0.5288108753674873 0.17110695737965445
2740000000.0 0.4429742231239936 -0.25899965781475454
2760000000.0 -0.4442521516490546 0.1661486396301861
2780000000.0 0.43659164496536534 -0.09108902566708746
2800000000.0 -0.4222419883398816 -0.0461789602949266
2820000000.0 0.3962027646519791 -0.11476647182207317
2840000000.0 -0.3131559385365906 0.24850831456726832
2860000000.0 0.38072021898923625 -0.09079836225306852
2880000000.0 -0.3457332233934725 -0.17040575136924718
2900000000.0 -0.16433731607563837 0.347161541514356
2920000000.0 0.3561115457078408 0.14970646098176044
2940000000.0 0.1069017014694558 -0.3713457453979927
2960000000.0 -0.17747087557765906 -0.3363443213523142
2980000000.0 0.03950905435667878 -0.3708846013605224
3000000000.0 0.35483622790488323 0.10750102248300812
3020000000.0 -0.27735247649028294 0.24117224240314036
3040000000.0 0.02568150119236762 -0.3662662173305009
3060000000.0 0.34407270251441335 0.1201934173884736
3080000000.0 -0.2688625403759863 0.23710480965060945
3100000000.0 -0.110587549405888 -0.32599866367436786
3120000000.0 0.2396107739570268 0.22497908701338462
3140000000.0 -0.30824087165164393 -0.0016945106827551107
3160000000.0 0.1802968018152656 0.22417549953041854
3180000000.0 0.1787647886883856 -0.20451325304221848
3200000000.0 0.2427819668707081 -0.03999978769437929
3220000000.0 0.09222339912351431 0.18540580555839217
3240000000.0 0.15772907890572033 0.048507300221204946
3260000000.0 -0.07088755509737332 -0.11652088636698993
3280000000.0 0.10750214029895483 -0.04243590985935001
3300000000.0 0.06818197949208485 -0.06354600562456574
3320000000.0 -0.03521202962545953 0.0536325502879231
3340000000.0 0.0003394583174988925 0.04084477098730765
3360000000.0 0.0220800048453475 -0.029911588468166234
3380000000.0 0.04049088171402195 0.009435127884622708
3400000000.0 -0.04003792689192221 0.004707589694486614
3420000000.0 0.03246346130764317 -0.0015176191187375155
3440000000.0 0.008076481334431293 0.02392485976906302
3460000000.0 0.015647913712182916 0.008099396654322504
3480000000.0 0.005861026660480372 0.016383783948388287
3500000000.0 0.020397009104932157 -0.021276375667718846
3520000000.0 -0.039740834137309 0.005338472935787972
3540000000.0 -0.014595162933802757 -0.04678325560084029
3560000000.0 0.04072116256513698 -0.04201329184671293
3580000000.0 -0.005255197676189553 0.07146056392641015
3600000000.0 -0.079339557164673 -0.012559350263448637
3620000000.0 0.01454283635092663 -0.08464750244363667
3640000000.0 -0.05270532305829695 -0.07223485601518802
3660000000.0 0.03713799329794577 0.08979199995750434
3680000000.0 -0.03558468405143171 -0.09056370743494721
3700000000.0 -0.06585728932620569 -0.07140352661045533
3720000000.0 -0.07793212103967266 0.06367937599324386
3740000000.0 0.08367575668309299 0.0551351980535896
3760000000.0 0.010514920214570163 -0.09761413917869191
3780000000.0 0.09982875069459721 -0.030414348394300315
3800000000.0 -0.11565437262364428 -0.02696646181029966
3820000000.0 -0.09718832532877122 -0.10093584379818699
3840000000.0 0.15153791954648752 0.03960299236414242
3860000000.0 -0.1460570429330067 0.08593955071038381
3880000000.0 0.0812650739925837 -0.16193272648030063
3900000000.0 0.11599219163198188 0.1561853323179494
3920000000.0 0.17219578628879592 0.11163064160410095
3940000000.0 0.15504995168594926 -0.13917005842631405
3960000000.0 0.14470153653680412 -0.14331824649943872
3980000000.0 0.1645569282278742 0.1065849377454488
4000000000.0 -0.18479401486519992 -0.03424375503879384
