!Created with skrf (http://scikit-rf.org).
# Hz S RI R 50.0 
!freq ReS11 ImS11
400000000.0 0.8035841710035146 0.06446313931677292
420000000.0 0.7915229501966938 0.18809013366727967
440000000.0 0.7499113455577502 -0.1726225144731771
460000000.0 0.48316613380194506 0.5453848167896131
480000000.0 -0.6623897384767451 -0.12686062779903587
500000000.0 -0.39954922719900954 -0.52584856066921
520000000.0 -0.12967221592133568 -0.5898808745930851
540000000.0 0.46190311710764187 0.2693784440655319
560000000.0 -0.3552562741408725 0.3631116547134621
580000000.0 0.14634568296347256 0.4183393579351757
600000000.0 -0.3752829285068955 -0.06488139344288003
620000000.0 -0.3385719542188351 -0.09249870899803105
640000000.0 0.3106755958510226 -0.19162086312908866
660000000.0 -0.3404830597687477 0.16024364218531634
680000000.0 0.3211927347293962 0.18924265932224574
700000000.0 -0.19311277447865932 -0.3000879769463238
720000000.0 -0.2539631627073012 -0.23037518957784373
740000000.0 0.25231728931635444 -0.20909951927096654
760000000.0 0.21595332328847636 -0.24349620305381492
780000000.0 0.26865412678464856 -0.13954708406379623
800000000.0 0.24610836658070692 0.0099521864245133
820000000.0 -0.19317877064852113 0.026055723548297115
840000000.0 0.1483668441961896 0.0069104195857683515
860000000.0 0.08892134067683731 -0.08406781737238703
880000000.0 -0.03397606825213413 -0.09273527533844508
900000000.0 -0.07485776650312496 0.05661518847238265
920000000.0 -0.07191958763457561 0.056716651477899435
940000000.0 -0.04505529004842664 0.0866257946098363
960000000.0 -0.09519150174854954 0.0666977922180045
980000000.0 0.10623691638690418 0.09092265770081753
1000000000.0 -0.11252420432035094 -0.09826262783144331
1020000000.0 -0.1336156896646349 -0.10099899961334438
1040000000.0 0.03221212364047737 0.18900736130151427
1060000000.0 0.22008541031907114 0.04493218860644608
1080000000.0 -0.20204759826216437 -0.1381043794712258
1100000000.0 -0.16989249462037972 -0.21011154015529224
1120000000.0 -0.06304275159161196 0.2736541086053215
1140000000.0 -0.27019040809900624 0.11289279661644082
1160000000.0 -0.21651330184440112 -0.2192683053085164
1180000000.0 -0.214702863415234 0.22371726055559904
1200000000.0 0.03388503722360298 -0.30629451295780985
1220000000.0 -0.09581506979927192 -0.302316149434115
1240000000.0 -0.3281789835771162 -0.07342133160476566
1260000000.0 -0.24626231747193889 0.2476386510499117
1280000000.0 -0.1316579435681196 0.3394259732328789
1300000000.0 0.05475554423960656 0.37909687926192903
1320000000.0 0.2752204169780036 -0.28530488117811714
1340000000.0 -0.39364294756534646 0.045577332260190714
1360000000.0 0.18565627414579836 0.3365522989378015
1380000000.0 0.3283142268681785 -0.15408790120797497
1400000000.0 0.08488938488416768 -0.3225390339025839
1420000000.0 0.10115988539043572 -0.27503715587325106
1440000000.0 -0.19799916119451105 0.16057810335379985
1460000000.0 0.03405338889515271 0.228667319076479
1480000000.0 0.15779441362255406 -0.13709734976365653
1500000000.0 -0.1304881072486374 -0.14137278958784477
1520000000.0 0.13358853908186732 -0.10740769982987497
1540000000.0 0.026819376814280715 0.13596844615734927
1560000000.0 0.07471014681377054 0.0699442249516085
1580000000.0 0.0778893463822589 0.04503403182100664
1600000000.0 -0.08301288690493545 -0.06665577590522609
1620000000.0 0.12272181245327636 0.04921844116509674
1640000000.0 -0.15591554826593065 0.027786821301393778
1660000000.0 -0.16349898097587187 0.07778242263601627
1680000000.0 -0.20648746701796342 -0.006929653431527063
1700000000.0 0.031106684203457195 -0.22414768257578235
1720000000.0 0.14476160486626577 0.18535397443853033
1740000000.0 -0.14403520191481126 -0.20023872302376702
1760000000.0 0.22082904501514383 0.13906689871117442
1780000000.0 -0.2606267527865047 -0.11022654206252548
1800000000.0 0.26026519591711955 -0.18030033983164365
1820000000.0 0.08568385225647009 0.33734077008393726
1840000000.0 -0.31002314773168826 -0.2230712323630934
1860000000.0 0.19786145414723486 -0.37319115657975166
1880000000.0 0.39336096252556885 -0.22508808852691167
1900000000.0 0.09340666085247584 0.4644792828810447
1920000000.0 -0.35100568176208663 -0.34457886035114094
1940000000.0 0.35049754118412796 0.36249195242317633
1960000000.0 -0.03672244808956427 -0.5069505196302635
1980000000.0 -0.48927059114161364 -0.14181378116156407
2000000000.0 -0.5115110179108117 0.036315136428263284
2020000000.0 -0.5187554358348883 0.003137840116568538
2040000000.0 -0.5228704594068044 0.07904669605749116
2060000000.0 -0.09670440162842348 0.5250851490317254
2080000000.0 0.5275222548722686 0.0647898546955856
2100000000.0 0.03634448527147368 -0.5161780886144663
2120000000.0 -0.39798526500014453 -0.29301794235756257
2140000000.0 -0.34741591855770104 -0.31399750463012654
2160000000.0 0.4397768824869846 0.07936623770222323
2180000000.0 0.18321222393585887 0.3879462483814049
2200000000.0 -0.16310762247532334 0.38730761752896803
2220000000.0 -0.30678641415902924 0.2860308758254444
2240000000.0 0.09956615063139312 0.41567890727124085
2260000000.0 0.2725086409089248 -0.33711975989667353
2280000000.0 -0.4196594636590096 0.12937035836049873
2300000000.0 0.44918196570438995 0.008343813554662263
2320000000.0 -0.46893005019980216 -0.016310073474859507
2340000000.0 0.44765840751274716 -0.21410410043641798
2360000000.0 -0.17834200713550447 0.49418689836354623
2380000000.0 -0.2586817260599629 -0.49683922931541535
2400000000.0 0.5685180618916882 0.1849713051198188
2420000000.0 -0.5852155472267856 0.24937082171638422
2440000000.0 0.30481094434807005 -0.5997870629149874
2460000000.0 0.03423150051802528 0.7029277251954864
2480000000.0 -0.22385637998987568 -0.6928058247211699
2500000000.0 -0.05740704884015765 0.7436233048618734
2520000000.0 0.4007041312640373 -0.6414956069121804
2540000000.0 -0.7041743279773793 0.29047050355469395
2560000000.0 0.609803412570054 0.4570613879237412
2580000000.0 -0.11646906944507987 -0.7463622671989041
2600000000.0 -0.39091027233668213 0.6289579122619635
2620000000.0 0.5367667233687059 -0.47604394064527755
2640000000.0 -0.4180007030704727 -0.5436620345696739
2660000000.0 0.5267091487015467 0.36662545502248356
2680000000.0 -0.5765144289821129 -0.1250207038037234
2700000000.0 0.5034098181724657 0.18326403852001044
2720000000.0 -0.3835696715261634 -0.2929657553735374
2740000000.0 0.1553788934020753 0.4059256021914848
2760000000.0 0.03735828655788726 -0.3903254920590887
2780000000.0 -0.08219235253038332 0.34779621328723875
2800000000.0 0.02458461886629412 -0.3273313194211308
2820000000.0 0.10070152002009354 0.2871140153405735
2840000000.0 -0.10677556891103446 -0.26301549002097596
2860000000.0 -0.10438715295706597 0.24803667260314197
2880000000.0 0.20370641858302468 0.1574271216147662
2900000000.0 0.11609979704427252 0.22270918644857343
2920000000.0 0.07912386446325413 0.24490970340376164
2940000000.0 0.25448100525272266 -0.05921894097222727
2960000000.0 0.2283286803531128 -0.11788842979040896
2980000000.0 0.23169611986005895 -0.09627842170950676
3000000000.0 0.09753961788097429 0.21911506782633702
3020000000.0 0.12228258526711734 -0.18659323309516562
3040000000.0 0.1660156401703827 0.12979934260782314
3060000000.0 -0.1630657109144104 -0.12716237121251364
3080000000.0 0.00019938692922822395 0.2106567002367524
3100000000.0 -0.09409786115964869 -0.2005853831595579
3120000000.0 0.005643397336326427 -0.23383964745345295
3140000000.0 0.10966519466135984 -0.21498041712333268
3160000000.0 0.23369353407150237 0.08833919612810814
3180000000.0 0.24227309665597507 0.10571960561670829
3200000000.0 0.25929485981169514 -0.09021991776673889
3220000000.0 0.1799062490408669 -0.21931051744980393
3240000000.0 -0.09537645885871922 -0.2778849414418929
3260000000.0 -0.1671786894472062 0.2560322430674557
3280000000.0 0.09709925147979437 -0.297230029751319
3300000000.0 -0.17435621902746964 0.2608360420490264
3320000000.0 -0.302079599979768 -0.05252057441645109
3340000000.0 -0.07612296536711666 -0.28248266793729804
3360000000.0 0.2066741512343663 -0.18403970069626113
3380000000.0 0.25692376862160404 -0.023183485606258925
3400000000.0 0.19787071323202887 0.13024278774624384
3420000000.0 0.13517988231656639 0.1715906018823457
3440000000.0 0.2008882157004841 0.04037127441222246
3460000000.0 -0.19082842485803508 0.05125885281358003
3480000000.0 -0.1710500605441114 -0.08245541330523225
3500000000.0 -0.12256094101922411 -0.13641263290292524
3520000000.0 -0.13817098461071955 -0.12365175840451333
3540000000.0 -0.1867690614275249 -0.010297840616144934
3560000000.0 0.035398650495386465 -0.18675666883956005
3580000000.0 -0.09584416430792711 0.16922715517489184
3600000000.0 -0.02389837290358669 0.2008909419631724
3620000000.0 -0.17366275928115882 -0.12720189946985824
3640000000.0 0.23177868876374064 0.016099221080031364
3660000000.0 -0.23024581477496328 0.09838648001189824
3680000000.0 0.2586539453002332 0.0719637103976581
3700000000.0 -0.275503304718253 -0.06841863158667763
3720000000.0 0.24303331228188335 -0.16939754851525918
3740000000.0 -0.009682439461395513 0.29905826029034227
3760000000.0 0.2935185103944666 -0.07209890764841376
3780000000.0 -0.021934610051346184 -0.3016020599267826
3800000000.0 -0.23327633265526163 -0.18982829710990862
3820000000.0 -0.3024344523742958 -0.028196361578982074
3840000000.0 -0.2012069652199533 0.2282470132672085
3860000000.0 0.2973425568465595 0.04951254811988306
3880000000.0 -0.27555961799283724 -0.09661951889586465
3900000000.0 0.20918814158630572 -0.17632297668392063
3920000000.0 0.07218485171155309 0.2373476768578801
3940000000.0 -0.0061058074323014485 0.21487330939825616
3960000000.0 -0.1578582690086937 0.08287943045447549
3980000000.0 0.1326076915701033 -0.04746310919072413
4000000000.0 -0.06289959560905388 -0.0869114894516308
