!Created with skrf (http://scikit-rf.org).
# Hz S RI R 50.0 
!freq ReS11 ImS11
400000000.0 0.5709861057252028 -0.6339028337863802
420000000.0 -0.6328719913742676 -0.543914839995075
440000000.0 -0.7692164272635414 -0.10308113397273451
460000000.0 -0.5421513173694464 -0.46953461863191337
480000000.0 0.23773416180856538 -0.6135333317095016
500000000.0 -0.19862929815198418 -0.5782289074557134
520000000.0 0.5286797752832834 0.024186753106201633
540000000.0 0.4357466117448453 -0.19036449691893964
560000000.0 0.33861203842165116 0.30260949969155965
580000000.0 0.41435768005818774 -0.08191085882000475
600000000.0 0.1511220535741711 0.36427245077826437
620000000.0 0.3831003626452316 0.04570766245553862
640000000.0 -0.33934714058652043 0.23428912438793462
660000000.0 0.12814004144127825 -0.4219636450548488
680000000.0 -0.39652090934383477 -0.20829586886505755
700000000.0 0.2657021827503276 -0.34756886585286845
720000000.0 -0.3534619471654131 0.21355385875068084
740000000.0 0.3413006985240942 -0.12958246373546034
760000000.0 -0.1808998264882025 -0.30146894703344207
780000000.0 0.3041135615873731 0.15129677837099803
800000000.0 0.3048689117344998 -0.08129428777994233
820000000.0 -0.06766196406056824 -0.26776538343110123
840000000.0 0.13696331926304037 -0.19340716184557274
860000000.0 0.1397667671012091 0.14219801339695054
880000000.0 0.11905050052983265 0.08662778077969586
900000000.0 0.09235506798372475 0.06703061564400646
920000000.0 -0.03849005143450978 -0.06132905263954552
940000000.0 -0.033656852673603736 -0.02457836149502675
960000000.0 0.034629140505621686 0.02895010223747905
980000000.0 0.013803052767248195 0.033560548201461086
1000000000.0 0.016524748721291775 0.05255884677868978
1020000000.0 0.07497359747071991 0.04278800001113893
1040000000.0 -0.11170930977145127 0.023854237034732908
1060000000.0 0.08583856204144381 -0.11507574544446711
1080000000.0 0.12920188842875738 0.12392751380648838
1100000000.0 0.216097419604643 -0.03836656038686093
1120000000.0 -0.19492455878559328 -0.16712395756535195
1140000000.0 0.12098817442081722 -0.2523220859869119
1160000000.0 -0.2913203008586238 -0.11343580994338034
1180000000.0 -0.2060495946291818 0.26311474415435204
1200000000.0 0.11259522664529838 -0.33306275858921763
1220000000.0 -0.2614424420548785 0.2618110852571566
1240000000.0 0.3311341335433729 0.20206605290468757
1260000000.0 0.22042784824957087 -0.33285405401071755
1280000000.0 0.17415268505958875 -0.37161054276991984
1300000000.0 0.06264972703945737 -0.4185811520411069
1320000000.0 -0.2038524666877844 -0.38221375848979483
1340000000.0 -0.416054464286602 -0.1426708652752944
1360000000.0 -0.35565156568080625 0.26282451773615373
1380000000.0 0.18439215784553736 0.38837278193133246
1400000000.0 0.36267997341587505 0.19978327743739965
1420000000.0 0.34085430317022347 -0.21593452499111485
1440000000.0 -0.3717917342454435 0.0881964032739979
1460000000.0 0.34093254637912757 0.05560442434024663
1480000000.0 0.28683072569650325 -0.10311986117368815
1500000000.0 0.25466484152412006 -0.10015496975003818
1520000000.0 0.18196139250600177 -0.16855315521388992
1540000000.0 -0.141880947088615 0.1604223109758162
1560000000.0 0.1726892501029648 0.034184567099916637
1580000000.0 -0.14743559416112959 0.009534423043595513
1600000000.0 0.09012388548243376 0.09872297342517608
1620000000.0 -0.09476845439861989 -0.06073684818909151
1640000000.0 -0.05482837730786171 -0.049828341448387874
1660000000.0 0.022616704655654785 0.030463076143511705
1680000000.0 0.018415034028723572 -0.008936342380117094
1700000000.0 0.01575097194995088 0.02440452101137532
1720000000.0 0.030859726007797857 0.01843809783615395
1740000000.0 -0.01832603591330891 0.04859332528570513
1760000000.0 -0.0769911568638223 0.022914420858492286
1780000000.0 0.1104385281203061 0.022366314096260685
1800000000.0 0.11586205925236769 0.08571772844155363
1820000000.0 -0.12424881830501365 -0.11157250054348825
1840000000.0 -0.14054322552789883 -0.145900087483773
1860000000.0 0.24808811724210716 0.00817912547712859
1880000000.0 0.0822478824252042 0.2760555219101924
1900000000.0 -0.31256849054366553 0.06135864747093645
1920000000.0 0.33422952863791916 -0.061363974261401694
1940000000.0 0.09758777430065854 -0.3507682983575266
1960000000.0 -0.37953523965378333 0.09952979948645863
1980000000.0 0.3940637307644167 0.11085296330715116
2000000000.0 0.22061722331481948 -0.3501674791211098
2020000000.0 0.33377124577923817 -0.2629101705649016
2040000000.0 -0.21183708535067095 -0.38651117696532106
2060000000.0 -0.15526226745774288 0.4173878159427226
2080000000.0 0.42586344549426147 -0.0851942141235621
2100000000.0 0.056230658911093453 -0.41493454436916766
2120000000.0 -0.20921067215477746 -0.34210094912900213
2140000000.0 -0.36138995875436675 -0.12837461185783114
2160000000.0 -0.08262931751540561 -0.3507767903970994
2180000000.0 0.018624038562877466 -0.33903593262308784
2200000000.0 0.06578639323337618 -0.31754124044809884
2220000000.0 0.12252283737379682 -0.2891886536553462
2240000000.0 -0.04842149103806951 -0.3095438154930299
2260000000.0 -0.28627370397386914 0.11970713032150748
2280000000.0 -0.12618413772379974 0.28067596314911925
2300000000.0 0.2425413864099798 0.20747096877349597
2320000000.0 0.23311676934544528 -0.24260811084616735
2340000000.0 -0.28735754329616026 -0.2256658738704874
2360000000.0 -0.042809603241085875 0.39837466089993684
2380000000.0 0.20701191274440692 -0.3985787730671427
2400000000.0 -0.015345968104574424 0.5009390421987455
2420000000.0 -0.28310152775051955 -0.4753037481911678
2440000000.0 0.5290267736384345 0.2940507620900861
2460000000.0 -0.6512340070240035 0.027966833961116672
2480000000.0 0.5865558352803459 -0.3642471050390947
2500000000.0 -0.6130460823618218 0.3778800271079728
2520000000.0 0.6747155599431403 -0.30685600454925355
2540000000.0 -0.7361523239399382 0.16724510668055054
2560000000.0 0.6943715453675692 0.3111304318122112
2580000000.0 -0.35165421643658756 -0.6713447619786417
2600000000.0 -0.13948510687174187 0.7341018229876707
2620000000.0 0.43068422316520893 -0.5896343759972378
2640000000.0 -0.3037449025629804 -0.6378715009710952
2660000000.0 0.15034042530515473 0.65829225404175
2680000000.0 -0.22741586390289123 -0.5973063325749759
2700000000.0 0.2844818572218895 0.5277705557182306
2720000000.0 -0.39980440140795254 -0.3907788693780102
2740000000.0 0.4524527477773279 0.25237658168586496
2760000000.0 -0.4494253022906451 -0.17221744172757292
2780000000.0 0.44654974887143395 0.04579778074623422
2800000000.0 -0.37020764122237093 -0.21169603590874395
2820000000.0 0.4071811195142054 0.0661267647820173
2840000000.0 -0.39815391380873566 0.035548494993470625
2860000000.0 0.385524190520383 0.06762256448318957
2880000000.0 -0.292687267967595 -0.2538281937811184
2900000000.0 -0.07236199026237435 0.37711660080111364
2920000000.0 0.33212030607743814 0.18844085672650385
2940000000.0 0.35996462198115015 -0.1293678253393011
2960000000.0 0.2912296075018761 -0.24209400537263956
2980000000.0 0.35767720820837784 0.11613628098148841
3000000000.0 -0.0199646719466286 0.37972804714277614
3020000000.0 -0.23559948626004903 0.2935467800600625
3040000000.0 -0.2055337283726667 -0.3029288863338973
3060000000.0 0.2935656457574402 0.20370786355415765
3080000000.0 -0.33656822260483005 -0.08875625255200244
3100000000.0 0.3335659092732671 0.043398083583164826
3120000000.0 -0.319564154509283 -0.04865916007960974
3140000000.0 0.3048260877424063 -0.0603856006695953
3160000000.0 -0.2025960843258109 0.2108750498237816
3180000000.0 0.2616436540808214 0.06444919226918837
3200000000.0 -0.18617797430698982 0.15267883244839603
3220000000.0 0.1382354221682822 -0.15596232323816941
3240000000.0 -0.1748354197343679 0.016285669847600413
3260000000.0 -0.11932420029705958 0.07499176180783246
3280000000.0 0.07578564006319169 -0.07867410584149251
3300000000.0 0.08262271502369714 -0.020803162600425622
3320000000.0 -0.06592761102344434 -0.017759331287956887
3340000000.0 -0.00911292580053608 0.056853072056815605
3360000000.0 0.04640132832070373 0.012039186959380582
3380000000.0 -0.005638354471856147 0.04178379713966723
3400000000.0 0.03633687591963923 -0.016793529959821134
3420000000.0 -0.011878903669852186 0.029808116580899296
3440000000.0 -0.00558244812702694 0.026002865246238217
3460000000.0 0.016559676160365123 -0.014531279206031507
3480000000.0 -0.0074740365223006245 0.01799600299011627
3500000000.0 0.002354247892639492 0.019604056251153135
3520000000.0 -0.0003981011172867896 0.026903781001626895
3540000000.0 0.03048599484485753 -0.031194238714786257
3560000000.0 0.043058610548265396 -0.0363523568636595
3580000000.0 -0.04607255285845066 0.042505004858634586
3600000000.0 0.05947503546751643 0.04256848307965833
3620000000.0 -0.07147512235954413 -0.04085416544001093
3640000000.0 0.08944859207622087 0.005327632718809214
3660000000.0 -0.07959978764848397 0.04988595683036896
3680000000.0 0.07081959670176317 0.06357449063293175
3700000000.0 0.09257365644579378 -0.028772917621819653
3720000000.0 -0.07210180698213896 -0.06427156363670924
3740000000.0 0.021999218480353504 -0.09205911147173154
3760000000.0 -0.0915874624881655 -0.04546448017332014
3780000000.0 0.10770310840303685 -0.02584959759090641
3800000000.0 0.04176865937877427 0.11401413345807049
3820000000.0 0.12379914926134296 0.05949554380185663
3840000000.0 -0.01124951413930478 -0.1497647504096595
3860000000.0 -0.07766410026490955 0.14631741293983716
3880000000.0 -0.07044544669773967 -0.16826279532822722
3900000000.0 0.15242289256353098 -0.12400636560020388
3920000000.0 0.20213246365457152 -0.04669859295126973
3940000000.0 0.0868366508055533 -0.19498776850591815
3960000000.0 -0.040774814282317995 -0.2078068230288567
3980000000.0 -0.08879572033685221 -0.18777105096821958
4000000000.0 -0.13640386951335484 -0.13941435883654513
