!Created with skrf (http://scikit-rf.org).
# Hz S RI R 50.0 
!freq ReS11 ImS11
400000000.0 0.6916616446363829 -0.4481552935276218
420000000.0 -0.004093182052240016 -0.8312205223838691
440000000.0 -0.5927194112395905 -0.48784751673529275
460000000.0 0.17111262629356738 -0.6983986929631164
480000000.0 0.6494917828471567 0.09674941494850435
500000000.0 0.13023868368589508 0.6150616441452427
520000000.0 0.0332623533830803 0.5783007491455558
540000000.0 -0.4950628505189355 0.07585054573883276
560000000.0 -0.04949738738654912 -0.4763006233081137
580000000.0 -0.31569809022472123 0.27891520960780036
600000000.0 0.3299136535712276 0.20096141391306893
620000000.0 0.2771313301865073 -0.2613773760959298
640000000.0 -0.38677061580039657 0.14386100443090083
660000000.0 0.15381462858034609 -0.4234863959538115
680000000.0 -0.41247726288533054 0.1833353936575485
700000000.0 0.044755947149998726 -0.4421630303058905
720000000.0 0.012759648235841652 0.4171178602431573
740000000.0 -0.19991051186591238 -0.30827374752111525
760000000.0 -0.1448796537040747 0.31414807322806126
780000000.0 -0.07849640858860796 -0.31829239514191443
800000000.0 0.04304925733207802 -0.2908207420711803
820000000.0 0.2297827998233309 0.1150824135296179
840000000.0 -0.14217436971117114 0.17010472863635726
860000000.0 -0.07624752447560686 0.17363531329534035
880000000.0 -0.11882866474519245 0.10100618519971237
900000000.0 0.11269986398876192 0.05367343782755655
920000000.0 -0.00920985456871588 -0.08354883844346386
940000000.0 0.021237977673776675 0.056949062294969204
960000000.0 -0.026853471170732356 0.05619805052428737
980000000.0 0.05203355440136919 -0.05231391359373869
1000000000.0 0.06399425925180492 -0.05671314774661048
1020000000.0 -0.08878354903972015 0.03668418963120452
1040000000.0 -0.06371025135684243 -0.09597273922276861
1060000000.0 -0.05160989551742879 -0.14116533779210624
1080000000.0 -0.17249375460655963 -0.07800332410046908
1100000000.0 0.04490213098440705 0.2143145530007185
1120000000.0 -0.10182338605784404 0.22989597972114445
1140000000.0 -0.25703386070177814 0.11122204138747431
1160000000.0 0.2340736656064667 0.18880828750479495
1180000000.0 -0.03347230392866876 0.3178336364649246
1200000000.0 0.29188732541176 -0.160967446913123
1220000000.0 0.012994030713662529 -0.368148923397564
1240000000.0 0.0058274981895763914 0.3899000319481811
1260000000.0 0.40644526121925345 0.022949783102205065
1280000000.0 -0.00756055519380695 -0.4183692234587972
1300000000.0 0.01177342361093592 -0.42684221697583974
1320000000.0 -0.3811179962010529 -0.21875107956197798
1340000000.0 -0.36247546358696064 0.256808692712524
1360000000.0 0.3022201348437606 0.31978207719070734
1380000000.0 0.4197433081872799 0.044715147028724686
1400000000.0 0.352409670313928 -0.19881704539117165
1420000000.0 0.30140584874837056 -0.24187230636921292
1440000000.0 -0.21831135044523375 -0.30098532996846894
1460000000.0 -0.0333573043001035 0.3390273629771424
1480000000.0 0.301176839516409 0.07173999419496482
1500000000.0 -0.08940180004460802 -0.2607657830900204
1520000000.0 -0.1525346295794653 -0.18828100715972187
1540000000.0 -0.04237655501959116 0.2027871521983797
1560000000.0 0.10031058270086081 0.14655548069589963
1580000000.0 -0.1490952008106307 -0.03740701807429464
1600000000.0 0.09527332532265326 -0.07324227300583887
1620000000.0 -0.03195659159979373 0.08840722346491967
1640000000.0 0.04096928416831155 0.05454505779332168
1660000000.0 -0.038622419447484194 -0.011993525877598887
1680000000.0 -0.011924309792295003 0.00041783777544243054
1700000000.0 0.021069023730857492 0.015129912396589446
1720000000.0 0.040036879250261344 -0.013830097873349873
1740000000.0 -0.047113193262452294 -0.036612391839957396
1760000000.0 -0.06888903160886865 -0.03341726585208072
1780000000.0 0.09799881385655804 0.04084261571803844
1800000000.0 -0.026677095409458847 0.14147362965278032
1820000000.0 -0.17001374071878664 -0.010806363545402372
1840000000.0 -0.17093780220106736 0.10206071535709627
1860000000.0 0.22924633075775505 -0.06877571093394277
1880000000.0 -0.17562224208253951 0.21769355892941897
1900000000.0 -0.013946977802274375 -0.3123785072763507
1920000000.0 -0.04304442685345334 0.3409118983261468
1940000000.0 0.17074722094101782 -0.3309095597550346
1960000000.0 -0.2550730534075329 0.2981995597531119
1980000000.0 0.37226592217384247 0.16095253707118715
2000000000.0 0.329121597279529 -0.25580078442536264
2020000000.0 0.04100369431906699 -0.42639637782665335
2040000000.0 -0.42622967557266234 0.09444400350199639
2060000000.0 0.16133384506685208 0.4001850623122101
2080000000.0 0.4214347227112233 -0.02371814904338269
2100000000.0 0.2839649094976037 -0.2944080051803505
2120000000.0 -0.006240797437879404 -0.3959245878345936
2140000000.0 -0.25672943794419867 -0.2748243843989565
2160000000.0 0.27200634978289623 -0.23348914028699988
2180000000.0 0.09548410759976352 -0.32596219807021476
2200000000.0 0.012384602149586966 -0.3225744106112045
2220000000.0 0.05784938643650873 -0.3041496822618221
2240000000.0 0.03881120673631357 -0.3064458069412102
2260000000.0 -0.3017429107436386 -0.05199850868613809
2280000000.0 -0.25502099653550425 0.16943127030265445
2300000000.0 0.03577634586910828 0.31440481711789203
2320000000.0 0.31819804429814963 0.10723915985483656
2340000000.0 0.12405245679911162 -0.34386150837225204
2360000000.0 -0.3749781403078667 0.15626549456354535
2380000000.0 0.35999861656969956 -0.2774315965418089
2400000000.0 -0.21434189843511925 0.4561237534413733
2420000000.0 -0.009637688628943824 -0.5563116282707369
2440000000.0 0.41196794597583064 0.4472214986976897
2460000000.0 -0.6523698148520473 -0.05295511200281296
2480000000.0 0.6096724238034419 -0.33123274584675594
2500000000.0 -0.5151368706507212 0.5075881605636103
2520000000.0 0.5161944791149509 -0.5350455862407312
2540000000.0 -0.6639110058727029 0.360340439395176
2560000000.0 0.7597376273317027 -0.034790891404703206
2580000000.0 -0.5974722315232562 -0.46645547161039663
2600000000.0 0.31508107787599415 0.6772088102761566
2620000000.0 0.08068699709177204 -0.72492143946865
2640000000.0 -0.6178875599156621 -0.3394426374211757
2660000000.0 0.5441772382002427 0.3969823700917301
2680000000.0 -0.5308960766458165 -0.3522264705437573
2700000000.0 0.5527566714800112 0.22983192247569736
2720000000.0 -0.557049114710558 -0.00401015170363882
2740000000.0 0.5162108606491398 -0.03252235834048591
2760000000.0 -0.4176107631918358 0.2397762860658644
2780000000.0 0.3061770058534259 -0.3285210452204915
2800000000.0 -0.34860526035516504 0.2408706710502094
2820000000.0 0.38634979673204956 -0.12704741487341795
2840000000.0 -0.3945267812980653 0.05545215763212175
2860000000.0 0.3935773856516498 0.016618249573065784
2880000000.0 -0.36269601346333563 -0.14413274175989169
2900000000.0 0.025166135398110034 0.38672651872398267
2920000000.0 0.37786877085236 -0.0889593775877867
2940000000.0 0.0802719280341474 -0.37749993678987986
2960000000.0 -0.08567964679312234 -0.371965702938238
2980000000.0 0.17815820371726454 -0.3339319057514184
3000000000.0 0.36620213319770634 0.09595109944824509
3020000000.0 0.07320264493080263 0.3678571821050435
3040000000.0 -0.3514451028226999 -0.10336076688046075
3060000000.0 0.35366160976927447 -0.0680755462529213
3080000000.0 -0.3487569688282596 0.04317349160983373
3100000000.0 0.315941116763121 -0.13771811812590248
3120000000.0 -0.10161972518919117 0.31495104547917924
3140000000.0 -0.19468497060296633 -0.24934929533223285
3160000000.0 0.2942181292610366 -0.003859445029513657
3180000000.0 -0.12111992655892836 -0.24052968033834543
3200000000.0 0.19816180748104406 0.13499117538052383
3220000000.0 -0.18654762431675082 -0.08698701147739149
3240000000.0 -0.08503865918854141 0.15035363947457112
3260000000.0 -0.07966539654793534 0.11716775190843923
3280000000.0 -0.029901224549234974 -0.1084949261870695
3300000000.0 -0.02842670577946132 0.08579845635694411
3320000000.0 0.06384422842486959 -0.02400594007683475
3340000000.0 -0.010807761995469319 -0.04658454490818001
3360000000.0 0.02927196689314951 0.022432640047769632
3380000000.0 -0.03329725584153496 0.010786435735014952
3400000000.0 -0.01923220951551734 0.030605069870567582
3420000000.0 0.03098985421369134 -0.014132774332815548
3440000000.0 -0.004001706372990929 0.026451771339924615
3460000000.0 -0.002531311584003218 0.018495168663110267
3480000000.0 -0.013117178210499323 -0.01345512438684001
3500000000.0 -0.021975052705042283 -0.006410916604268259
3520000000.0 -0.024418586977446588 0.02331698896772169
3540000000.0 0.04223500245159958 0.027547029836338808
3560000000.0 -0.0094003656433424 0.060319451894990356
3580000000.0 -0.05685985650302863 -0.03930187351256443
3600000000.0 0.05948126180568978 -0.04619765391149546
3620000000.0 0.02430501251366693 -0.07715732784064741
3640000000.0 -0.08608404029635748 0.014577765935960019
3660000000.0 0.08657476875054383 -0.0333632256502089
3680000000.0 -0.07099239000046785 -0.060114138524175846
3700000000.0 -0.0907222788611085 0.024737156412944487
3720000000.0 0.0006989643616528943 0.09525628378969307
3740000000.0 0.08675262170024274 0.03466860511524497
3760000000.0 0.08130067813643263 0.04458831106664845
3780000000.0 0.08046477900075825 0.06473081880643941
3800000000.0 -0.11613313263937425 0.004515464167120301
3820000000.0 -0.10732532047430156 0.08029589954390023
3840000000.0 0.036862633141673144 0.14541060901574462
3860000000.0 -0.020876637275150996 -0.16970365274864732
3880000000.0 0.0917640219636228 -0.16442498148269685
3900000000.0 0.18386451304790571 -0.0770766793444362
3920000000.0 0.20170456194313177 -0.03627184827749585
3940000000.0 0.18271008220925075 0.1004421324997601
3960000000.0 0.20275395027070323 0.05423198548853133
3980000000.0 0.203194321559729 -0.030221783072017686
4000000000.0 0.19580311477911977 -0.023353881757164838
