!Created with skrf (http://scikit-rf.org).
# Hz S RI R 50.0 
!freq ReS11 ImS11
400000000.0 -0.01915414514205914 -0.8615474458289734
420000000.0 -0.800391645203275 0.24482044421262222
440000000.0 -0.5890172886841627 0.5026045285546904
460000000.0 -0.7109455742822404 -0.030141449469150244
480000000.0 0.19371051546382742 -0.6237082593538592
500000000.0 -0.5613984738188146 -0.22597196647757284
520000000.0 0.4328402404756776 0.2808826636489604
540000000.0 0.4636486035662704 0.07599845119341848
560000000.0 -0.07781697684034607 0.4416688514282344
580000000.0 0.23211373446726138 0.33739609676180554
600000000.0 -0.22546260643747434 -0.30690110183113367
620000000.0 -0.21708981631252985 -0.3207296714724277
640000000.0 0.017537732904478603 -0.4273157053431565
660000000.0 0.456427603492685 0.07801977849006063
680000000.0 -0.3961159119112929 -0.2457807851087086
700000000.0 0.3584356422455933 -0.28404251950873977
720000000.0 -0.047880666998461004 0.4338251864054177
740000000.0 0.03596552184433297 0.3842733567100833
760000000.0 0.10313312427856262 -0.3286846462462508
780000000.0 -0.23999325845933828 0.19751540679684648
800000000.0 0.26615605983214735 0.11313339288368936
820000000.0 -0.13824331292669384 -0.22034475977150322
840000000.0 0.10897687371670342 0.17485931176666492
860000000.0 -0.1757663965115796 0.006099311432236584
880000000.0 0.05345502040918015 -0.1327995163653429
900000000.0 -0.09381408002909165 0.07098947945548405
920000000.0 0.06955634535159583 0.04809087453030007
940000000.0 -0.053391215447072496 -0.022074080317025433
960000000.0 0.004871292004943359 0.05565480498589103
980000000.0 0.045243256102018244 0.046118392245193915
1000000000.0 -0.019560308690339024 -0.07640620101723927
1020000000.0 0.1043163485591501 -0.01577992395437735
1040000000.0 0.0856737719067779 0.09484305402499789
1060000000.0 0.000561529754473355 -0.16261103374970037
1080000000.0 -0.14938564034478977 0.1314712415002774
1100000000.0 0.22637078672199118 -0.017483638377710064
1120000000.0 0.20057654482822243 0.1566831281716958
1140000000.0 -0.16464661333715563 0.22909435111583776
1160000000.0 0.27390419849169484 0.13073718357422567
1180000000.0 0.06088267931528216 0.31676770106208174
1200000000.0 0.14643101667324146 -0.3053225922906083
1220000000.0 -0.257726816155384 -0.257372088625355
1240000000.0 -0.1352470215489315 0.3624258976582824
1260000000.0 0.3923243939589412 0.10360844611955121
1280000000.0 0.26203447103009936 -0.3246751312118313
1300000000.0 0.10925076021447988 -0.4181028281600843
1320000000.0 -0.42743447445653615 -0.11607532065233285
1340000000.0 -0.1742545020618725 0.408459944476701
1360000000.0 0.21893612139236962 0.3759624477090711
1380000000.0 0.315638724635288 0.28006720094326354
1400000000.0 0.4065128731864788 0.04425301005535884
1420000000.0 0.2482496705805578 -0.3016459389056404
1440000000.0 -0.2926600208049753 -0.23105472925078263
1460000000.0 0.10205618656380018 0.3271297365702035
1480000000.0 0.2260149631376597 -0.20981890820130078
1500000000.0 -0.2563227283189952 -0.08062965945433723
1520000000.0 0.031786214823709504 -0.23306085805976987
1540000000.0 -0.19993114035652113 -0.048918946695924205
1560000000.0 0.0784881460921341 0.15962178890969203
1580000000.0 -0.10870981334734584 -0.10267263144618685
1600000000.0 0.07620935114798331 0.08877943154552052
1620000000.0 0.04575776846053084 -0.07966095685629397
1640000000.0 0.05654397521230078 -0.03740816494771097
1660000000.0 -0.03209532364972618 -0.027553132954456435
1680000000.0 -0.014625888660361464 -0.012168885343979469
1700000000.0 0.018853680503869555 0.007315169128893731
1720000000.0 0.009587989520905615 0.03349918355718502
1740000000.0 -0.0012177568288838112 -0.054289458689596636
1760000000.0 -0.06151350823116477 0.04976661105261337
1780000000.0 -0.047637896912728364 0.09953561212379733
1800000000.0 -0.12132453652404586 0.08203850853942715
1820000000.0 -0.11939132553706909 -0.1256234386995568
1840000000.0 -0.20176656066655313 0.022545544743059486
1860000000.0 0.24775769282276783 -0.010394375182401177
1880000000.0 0.1754403130651278 0.22821755736456467
1900000000.0 -0.31378687984417813 -0.030074662976025922
1920000000.0 0.27401443300317413 0.20400979524712137
1940000000.0 0.09438489172493571 -0.3565068083264199
1960000000.0 -0.3174543484941267 0.22949602062437935
1980000000.0 0.36213607041447166 0.18417005280769735
2000000000.0 0.3553196031073773 -0.21873643197555404
2020000000.0 -0.04076177030488548 -0.4254434424378728
2040000000.0 -0.4304565193252373 -0.03290805132491359
2060000000.0 -0.08283430926597929 0.42170488195156486
2080000000.0 0.3195751189563698 0.27642093623460967
2100000000.0 0.39528376606252374 -0.1169952534351365
2120000000.0 0.028621409925925916 -0.39770652961909625
2140000000.0 -0.35398706166962385 -0.1415892332789425
2160000000.0 -0.1530317731751878 -0.3216508604833914
2180000000.0 -0.0676773442069332 -0.3272564278863132
2200000000.0 -0.06127658702454558 -0.313658930567072
2220000000.0 -0.00271767453821745 -0.3081838605029762
2240000000.0 -0.1392568056001388 -0.2708262714772313
2260000000.0 -0.25436494373308316 -0.16219176712837077
2280000000.0 -0.2967352567747247 -0.07365735341961684
2300000000.0 -0.2707033169485139 0.17153359124531148
2320000000.0 0.27281021331759536 0.20797340820031146
2340000000.0 0.045235648496366715 -0.37047894915754587
2360000000.0 -0.26747226689813763 0.3151327876276267
2380000000.0 0.2174959238553934 -0.40661508090242293
2400000000.0 -0.01856289941787998 0.510058072294294
2420000000.0 -0.23439031135275354 -0.5096396002415925
2440000000.0 0.5240275654039461 0.31354538708541346
2460000000.0 -0.6495905307357112 0.09431085596795194
2480000000.0 0.5255353303772777 -0.45378421239664163
2500000000.0 -0.5286057758604468 0.4946304103683193
2520000000.0 0.4677015109401109 -0.5802384464527053
2540000000.0 -0.5225253439775237 0.5483001636077485
2560000000.0 0.6343683251711361 -0.4236594132094215
2580000000.0 -0.7439088517882314 -0.15098491041377415
2600000000.0 0.46846766335987217 0.5832983259163551
2620000000.0 -0.1489949227166771 -0.7152173764711451
2640000000.0 -0.6713700455332401 -0.21841050246217444
2660000000.0 0.5480122417807892 0.3934775260972318
2680000000.0 -0.5061773243895759 -0.3890814898934529
2700000000.0 0.5209797637844121 0.2938720996998731
2720000000.0 -0.5522456952738564 -0.06906782581375644
2740000000.0 0.49659846342319985 -0.14365371076781103
2760000000.0 -0.37830517804006214 0.2970607776078851
2780000000.0 0.25143916499685015 -0.3725704363735525
2800000000.0 -0.2747512705919946 0.32345428386510156
2820000000.0 0.34165576693026445 -0.22382315678882825
2840000000.0 -0.37165636325545076 0.14088677222508494
2860000000.0 0.3911343937659679 -0.009070423275109171
2880000000.0 -0.3530690481758835 -0.15443360837843134
2900000000.0 -0.08690490601120635 0.37108640752189
2920000000.0 0.3011497165206333 0.23570640731393505
2940000000.0 0.38334389218610004 -0.04545395416805892
2960000000.0 0.2579903960711167 -0.2896680285427672
2980000000.0 0.2245714006705727 -0.310502537686971
3000000000.0 0.36701338503250897 -0.1001800288619515
3020000000.0 0.18291352339133066 0.3259313581628022
3040000000.0 -0.3442984109717527 -0.12194044033639737
3060000000.0 0.3533299893695726 0.05685375274036555
3080000000.0 -0.34976921450128795 0.034371417343911394
3100000000.0 0.24058309926788807 -0.24132143708473094
3120000000.0 -0.1841374196229985 0.2692534723785629
3140000000.0 0.10668350497356446 -0.2928106272653915
3160000000.0 0.07511310631883113 0.28531425066524574
3180000000.0 0.018135858898969442 -0.27395634838248284
3200000000.0 0.23645542603613925 -0.05974538209913711
3220000000.0 -0.005612256976464038 0.20463057863676293
3240000000.0 0.165640507327788 -0.006208570716483832
3260000000.0 -0.0655611788877327 0.11576087206731074
3280000000.0 -0.02050592181506888 -0.1057175402184322
3300000000.0 -0.05747791365552308 0.06189854353242554
3320000000.0 0.05888166373235798 -0.017242924179170373
3340000000.0 0.0484209081778731 -0.014027538235742227
3360000000.0 0.03858666136981823 -0.028405822875744988
3380000000.0 0.0024388017143661825 -0.04169364489635763
3400000000.0 0.011983233863398682 -0.029758183072706383
3420000000.0 0.010193615498508939 -0.023241591927282798
3440000000.0 -0.020198714094915728 0.012790954271789839
3460000000.0 -0.012738439967744179 -0.01746232716820018
3480000000.0 -0.004987856630975138 0.015472377914310661
3500000000.0 0.020798831625069212 0.006612948419561087
3520000000.0 -0.004303046644178194 -0.034770956135245175
3540000000.0 0.0037361790803157944 0.04685475348324827
3560000000.0 0.023047245029532346 0.04900938823299782
3580000000.0 -0.03118968719020101 0.0552230040473942
3600000000.0 0.013359207500174514 -0.0743239571881378
3620000000.0 0.08334095236552393 0.017447884882771686
3640000000.0 -0.08865673147054172 -0.00446461820037409
3660000000.0 0.04404048479836578 0.0774179480844489
3680000000.0 -0.021118202371999604 0.08882218557206636
3700000000.0 0.007278317413308141 -0.09416328749021564
3720000000.0 0.0024256930815696816 0.09338377448259753
3740000000.0 -0.08848482646627429 0.00352767451085284
3760000000.0 0.04758014388874115 -0.08083232768233106
3780000000.0 0.07554661000087554 -0.0786080274412913
3800000000.0 0.1265929578155382 0.017225536375604894
3820000000.0 0.05369067894200759 -0.13598055719978488
3840000000.0 -0.1253706607383065 0.09971604288734846
3860000000.0 0.10709326981537953 -0.13584861621708927
3880000000.0 0.07742486290183412 0.16865277400566742
3900000000.0 -0.14258814884413287 0.13599807643950648
3920000000.0 -0.15978153102754775 0.12902354065279742
3940000000.0 -0.1505437836145035 0.14930458937311855
3960000000.0 -0.19965149589163117 0.08424211313202068
3980000000.0 -0.20525429620703242 0.0728316678279513
4000000000.0 -0.20745785645555512 -0.014663063394164672
