!Created with skrf (http://scikit-rf.org).
# Hz S RI R 50.0 
!freq ReS11 ImS11
400000000.0 0.7183579249347607 -0.412247186046784
420000000.0 0.0410664195622292 -0.8320603485657861
440000000.0 -0.7356856859445357 -0.2483632752687487
460000000.0 -0.48970828943170214 -0.5202504750636476
480000000.0 0.4097133591705724 0.5091299746444079
500000000.0 0.6088794871736782 0.16397454053942218
520000000.0 -0.4953539503241301 0.25509040036297487
540000000.0 -0.32893314051771555 -0.394882968806204
560000000.0 -0.10711696936767415 -0.46225705797253375
580000000.0 -0.39490957953258277 0.15414542976695378
600000000.0 0.3826179334131652 -0.02599136379954619
620000000.0 0.37196193355968993 -0.048406956889632875
640000000.0 -0.38810392594866033 0.14789938914342277
660000000.0 0.16714206964389952 -0.4046512509114773
680000000.0 0.17590974503660148 -0.4104261988404792
700000000.0 0.09493429318651053 0.43754703738216255
720000000.0 -0.2111360315211506 -0.3933593225410473
740000000.0 -0.14638160016625076 0.3679400156191236
760000000.0 0.35108648911308643 -0.07153427055986963
780000000.0 0.32489035583354897 0.045950928322053664
800000000.0 0.23197709819197515 0.16697626042716854
820000000.0 -0.2277115075037403 0.02029371023629953
840000000.0 0.19178071583769427 0.02844841648879203
860000000.0 0.10887695177474768 0.139381487241601
880000000.0 -0.07880451834586798 -0.13867732035903851
900000000.0 -0.11855039630749577 0.0685817594990612
920000000.0 0.10475052338587851 -0.005710008027504503
940000000.0 0.07070553533142335 -0.033240298359114795
960000000.0 0.0009274064957930392 0.06896447274747586
980000000.0 -0.07914275737858364 -0.03237989570868706
1000000000.0 0.04433002278173075 0.05832376257840519
1020000000.0 0.04960033787134791 -0.06781310838284203
1040000000.0 -0.020161045034353862 -0.1050919711103451
1060000000.0 -0.1098293236133827 -0.0804228919696655
1080000000.0 -0.1394773344391755 -0.13088042719779344
1100000000.0 -0.004634274082351769 -0.23282652388957437
1120000000.0 -0.2553521762486194 -0.07216899226849599
1140000000.0 -0.2593061554629656 0.13935683747170324
1160000000.0 0.3145171542107444 0.02312819135244735
1180000000.0 0.2833843760966074 -0.1721832701680531
1200000000.0 -0.3338458185596113 0.029248745194013638
1220000000.0 -0.3310177291789691 -0.13802206091749647
1240000000.0 0.09738767806379688 0.36940916127184054
1260000000.0 0.32219357229234663 0.23872336158327445
1280000000.0 0.2440102443796428 -0.34249035833670444
1300000000.0 -0.05486770900413055 -0.42030913358284017
1320000000.0 -0.16032310162690372 -0.41094870237848735
1340000000.0 -0.23022843849591926 0.3797142246019836
1360000000.0 0.24675717609669184 0.36013750256954186
1380000000.0 0.24415049946225578 0.33781144751669506
1400000000.0 0.11130234941357056 0.3943771765314992
1420000000.0 0.3681130331275707 -0.14903009726508318
1440000000.0 -0.1803438444133044 -0.3320455689453699
1460000000.0 0.004009895879395943 0.349929838240612
1480000000.0 0.10060630152192548 -0.3045609801628426
1500000000.0 0.2695692453190555 0.06548793171711186
1520000000.0 0.18785406310123423 0.1270588450445167
1540000000.0 -0.06726362874101044 0.17593698779744493
1560000000.0 0.09125463922804093 -0.13541599125835083
1580000000.0 -0.02075939360727513 -0.15066907172383473
1600000000.0 -0.12099449394277827 -0.05138225304899769
1620000000.0 -0.10510916236789077 0.0014942854588219407
1640000000.0 -0.019807377821595182 0.07326829929015655
1660000000.0 -0.023679142133879817 -0.02798507185695768
1680000000.0 -0.004944610375200779 -0.0029075453541298197
1700000000.0 2.8167211977265913e-05 0.03388909475986808
1720000000.0 -0.03184396010141797 -0.04295061228451881
1740000000.0 -0.06037904278140724 0.00879492223721332
1760000000.0 -0.029839063537597417 0.06195317667279767
1780000000.0 -0.03698463314678418 0.07079411857757915
1800000000.0 -0.06204097940241248 -0.10051235367069652
1820000000.0 -0.16670533414589866 0.02220331557841587
1840000000.0 -0.22054008585347146 0.0473944798271461
1860000000.0 0.2371095470048713 -0.13734391743299273
1880000000.0 -0.06476344275092516 -0.2961717234848952
1900000000.0 0.26450103406103836 -0.17722062795622132
1920000000.0 -0.1521515499472878 -0.28977762188412737
1940000000.0 0.16518340563486414 -0.30950637121524155
1960000000.0 -0.19938715953209227 -0.32530197697405133
1980000000.0 -0.2818522259874058 0.2944196366634352
2000000000.0 0.4201060758719764 0.07402707098039371
2020000000.0 -0.18131839522962395 -0.3964206274369594
2040000000.0 -0.3003965254729311 0.31444452655351596
2060000000.0 0.3025090799780288 0.29941649425178307
2080000000.0 0.3839021447428532 0.15019984079325818
2100000000.0 0.36329417906721256 0.172233289981287
2120000000.0 0.37252557700009675 0.12860762187716016
2140000000.0 0.19340206744756633 -0.337305991192481
2160000000.0 -0.11354377100616288 -0.35223421159535834
2180000000.0 -0.3104571728836416 0.14089083746356665
2200000000.0 -0.19610252562161135 0.24431095474925746
2220000000.0 -0.08273221069796813 -0.2824495861991052
2240000000.0 0.25793950432262114 -0.1468916289600679
2260000000.0 0.14445648075435155 -0.2629132237724348
2280000000.0 -0.2061209461544189 -0.2314559630218824
2300000000.0 -0.11311194861164116 0.3002937531597707
2320000000.0 0.3375007256355286 0.03906175269028425
2340000000.0 -0.1671357242350818 -0.3270330491687236
2360000000.0 -0.22370204930253604 0.3346101913851233
2380000000.0 0.4294362856983272 -0.1286985910441506
2400000000.0 -0.4697667314176547 0.17443757994336762
2420000000.0 0.33564085474685174 -0.443901809354574
2440000000.0 0.15660476675914317 0.5874481007795899
2460000000.0 -0.5512295788373339 -0.351252079246825
2480000000.0 0.6911089641735009 -0.04403509316597677
2500000000.0 -0.6661524482036894 0.27582221148748143
2520000000.0 0.6880591310419824 -0.2783670890476466
2540000000.0 -0.7493707812640029 0.09530328009801521
2560000000.0 0.7357522625323126 0.19516399262522663
2580000000.0 -0.47368104483971846 -0.5930526696227519
2600000000.0 0.12793127962049386 0.7371308059887609
2620000000.0 0.24352352029980984 -0.6894099944806723
2640000000.0 -0.5785962016842736 -0.4045876994298222
2660000000.0 0.4225455746431339 0.5250745993320235
2680000000.0 -0.30316135464204336 -0.5611987252579476
2700000000.0 0.3361155908314901 0.5002299867003105
2720000000.0 -0.47568939071701233 -0.3049581306964504
2740000000.0 0.5190846130911249 -0.08027258407171803
2760000000.0 -0.3526487646734606 0.33316749750834906
2780000000.0 0.26876338214612105 -0.3617955929042303
2800000000.0 -0.35734808650652994 0.2283527259387504
2820000000.0 0.4068979351145705 -0.044898083375266205
2840000000.0 -0.39738970590080336 0.047774157836875185
2860000000.0 0.389910994280898 0.05976247729087259
2880000000.0 -0.3250760840527828 -0.213184968925523
2900000000.0 -0.11599809544148822 0.36676330490360814
2920000000.0 0.2415891247586499 0.3006067565338372
2940000000.0 0.35252165134782343 -0.15960972325524486
2960000000.0 0.2608483185722927 -0.28300358329344455
2980000000.0 0.29130559323080213 -0.24683152588042362
3000000000.0 0.3209957325723892 0.2039307904002757
3020000000.0 -0.10008071307090452 0.365348239581819
3040000000.0 -0.3707896000758375 -0.03500585294627183
3060000000.0 0.19893166926037575 -0.3015715612370853
3080000000.0 -0.1794952771551491 0.29741324277560593
3100000000.0 0.3036133049314918 -0.14196611173488288
3120000000.0 -0.3287733433514838 0.016021539629200627
3140000000.0 0.25884996193013166 -0.18859546657664852
3160000000.0 0.26018261992252384 0.16081706310003838
3180000000.0 -0.24370471798649954 0.13310060524306483
3200000000.0 0.008062262815770778 -0.2386073657245544
3220000000.0 -0.20157154660965457 -0.01639398776664971
3240000000.0 -0.14276123367287702 0.09629668862717448
3260000000.0 -0.14475249866102793 0.021630038466038025
3280000000.0 0.06160120193972288 0.1033608349269343
3300000000.0 0.06403554155923312 -0.0583809002155756
3320000000.0 -0.00835651024331533 -0.052881070942280464
3340000000.0 -0.02278462575312959 0.03617105403132841
3360000000.0 0.043461064613684285 -0.012224408456385408
3380000000.0 0.044815940174178906 0.010099173054964161
3400000000.0 0.023090102423087604 0.034625323917217996
3420000000.0 0.02502756673870343 0.017536929914800593
3440000000.0 -0.010292698072981821 -0.016976103250304728
3460000000.0 0.007541713259362577 0.009328832238820068
3480000000.0 0.022399958918703566 -0.0013687235149410894
3500000000.0 -0.031171119763563616 -0.001633987140981804
3520000000.0 -0.020633735153803127 -0.027453161174240945
3540000000.0 -0.03852503769926728 -0.021691303948648384
3560000000.0 0.014308046323029542 0.05086180696964135
3580000000.0 0.057433896539629645 -0.034331276880820466
3600000000.0 0.05769418521338793 0.055888456359044776
3620000000.0 0.0890750427161356 -0.010364406413527613
3640000000.0 0.08716094350291247 0.02482386727364046
3660000000.0 0.08158026671411406 -0.03565188460758882
3680000000.0 0.07813671231973025 0.04497527540863384
3700000000.0 -0.019930917583775236 0.09231797535452488
3720000000.0 0.06631809613828145 -0.07675663317346447
3740000000.0 0.016043484272611177 0.09995313686267522
3760000000.0 -0.051892534222232355 -0.08272990487013149
3780000000.0 0.0975477448573437 -0.01853778654889975
3800000000.0 0.07809248022794221 0.08734330075167338
3820000000.0 0.1395489043519396 0.018859155768687345
3840000000.0 -0.16043555993422057 -0.0020792217084856226
3860000000.0 -0.024469817219784327 -0.1761956890532832
3880000000.0 0.060425350720897844 -0.18255547315398635
3900000000.0 -0.010286391423723232 -0.2012049169822372
3920000000.0 -0.021942757093562124 -0.2020555746591106
3940000000.0 0.18787514170906464 -0.07677387262453461
3960000000.0 -0.13457702874834762 0.15232956986436189
3980000000.0 -0.12149082457755116 -0.16692894765365662
4000000000.0 -0.10441901818178015 -0.17733992444119834
