!Created with skrf (http://scikit-rf.org).
# Hz S RI R 50.0 
!freq ReS11 ImS11
400000000.0 0.7535722435469068 0.3514391198190129
420000000.0 0.7541851263077761 -0.34604558594264895
440000000.0 -0.19687635300496556 -0.7489339601699109
460000000.0 0.4590893329395932 -0.5543481996790872
480000000.0 0.14801122505464798 0.6450327462624177
500000000.0 0.542260112443951 0.33017847111427956
520000000.0 0.5302336111977765 0.18339872740625654
540000000.0 -0.3972365839083607 -0.2941454912490794
560000000.0 0.39041783726431767 -0.27522506187230716
580000000.0 -0.34630802486508844 0.26703122529475676
600000000.0 -0.005619104468326161 -0.3941263545765885
620000000.0 -0.27884572143362407 -0.2528031100686202
640000000.0 -0.21591255952803634 0.3452453455518691
660000000.0 0.1893871888610885 -0.3924497860908369
680000000.0 -0.35910691684431534 -0.2556284036885419
700000000.0 0.3136649235486644 0.29621892274480804
720000000.0 0.18741363208373418 -0.3746770582065913
740000000.0 0.16413452002002468 0.34782386420329264
760000000.0 -0.17319562889209694 0.32761489950970635
780000000.0 0.22038862568803302 -0.24541927112028172
800000000.0 0.21072044750707733 0.24297020197401523
820000000.0 -0.2763410954699858 -0.07347136752036723
840000000.0 -0.22983658945029817 -0.006583160011219857
860000000.0 0.038975949714531666 0.17600249676117957
880000000.0 0.010783053654238874 0.13202609056880035
900000000.0 0.04536208764886383 -0.09633491611039541
920000000.0 -0.07385034383900732 0.0011695546561875348
940000000.0 0.045325078930128326 -0.04115250632722729
960000000.0 -0.04826059110942006 -0.0427948522490616
980000000.0 0.026090900799548504 0.05881941939543395
1000000000.0 0.03256536942500764 0.07470197141017662
1020000000.0 -0.023325430402227388 0.09439330068536701
1040000000.0 -0.07751256654006936 0.07870082325835388
1060000000.0 0.13927437360318723 0.04009231693223625
1080000000.0 -0.07383341389072459 0.15389147870180234
1100000000.0 -0.14740225870357254 -0.1463752529211127
1120000000.0 -0.1859762886863001 -0.1632847740797557
1140000000.0 0.19719560018792662 -0.20309189531537236
1160000000.0 0.06715596824544405 0.30872148852230624
1180000000.0 0.32606219536658343 0.03565621043737298
1200000000.0 -0.2666456630022061 -0.20622152522296439
1220000000.0 -0.3534435104608046 -0.04576967425686596
1240000000.0 -0.19570015311222735 0.32679044322732703
1260000000.0 0.1982036993061981 0.35174654351618134
1280000000.0 0.40465063218025255 -0.12494512170679867
1300000000.0 -0.22290768230988703 -0.3782394568698672
1320000000.0 -0.39967103399712306 0.1879941315999003
1340000000.0 0.004418792508951069 0.44101890832459817
1360000000.0 0.016169547308522318 0.43329721198255344
1380000000.0 0.17869290429257165 0.3921976026224866
1400000000.0 0.3460780882305792 -0.2270738766514593
1420000000.0 0.28370447084719985 -0.27038758626745985
1440000000.0 0.24273655656898493 -0.29166129325203877
1460000000.0 -0.3450053065978291 0.11120410411113618
1480000000.0 0.2737031354954782 -0.18715272389210394
1500000000.0 -0.29219264415061097 0.042488760417680585
1520000000.0 0.008330888967426195 0.25663836746653007
1540000000.0 0.18595920041666594 -0.10511401031627857
1560000000.0 -0.06832679876435863 0.16807807482111142
1580000000.0 0.14809295839017297 0.07329722193343118
1600000000.0 -0.04940306352694425 0.13314243785533983
1620000000.0 0.10496455241683417 0.040337193545290057
1640000000.0 0.055509593847914325 0.05645338814012285
1660000000.0 0.048392296128954015 0.011174160700637854
1680000000.0 -0.005837958125596652 -0.027796172010622528
1700000000.0 0.027118040254210156 -0.02182304229141839
1720000000.0 0.023641037466435227 -0.02342788852147217
1740000000.0 -0.031468729063262084 -0.010835468148844955
1760000000.0 0.03048846838085188 0.04923020954926482
1780000000.0 -0.06780184399689743 -0.06527870574792323
1800000000.0 -0.08659033450725465 -0.10837889448548817
1820000000.0 -0.17325125760539117 0.016548828683612023
1840000000.0 -0.13458087031469088 -0.14645675719042822
1860000000.0 -0.11903118338895076 0.19271581900078308
1880000000.0 0.16517356931209604 0.20196321739141784
1900000000.0 -0.024287132033153597 -0.30029069193255126
1920000000.0 0.10247230045507924 0.32170557142664846
1940000000.0 0.018863962661702538 -0.36641052105218996
1960000000.0 -0.060561995416653615 0.3840824674418946
1980000000.0 0.39836267201501746 -0.04383410342273432
2000000000.0 0.2341559274687753 -0.3420068168069162
2020000000.0 -0.1369486243615599 -0.4029707104353237
2040000000.0 -0.43376255788605717 -0.020228157732514192
2060000000.0 -0.06043180888288651 0.4290955497153294
2080000000.0 0.41811097516078444 0.09653327179819848
2100000000.0 0.21075136659044819 -0.36185980627384245
2120000000.0 -0.23448649420357542 -0.32669180375472506
2140000000.0 -0.3833131867433535 -7.148678882745827e-05
2160000000.0 -0.058939534984259793 -0.3569544190107389
2180000000.0 -0.1379582557699128 -0.31373120144328376
2200000000.0 -0.21191327959616735 -0.2468143300390464
2220000000.0 -0.16181305540482455 -0.26510224298151164
2240000000.0 -0.17007361388700853 -0.2567330993157408
2260000000.0 -0.2595413407141435 0.16610048502012106
2280000000.0 0.2422488193702401 0.19000712263139644
2300000000.0 0.19607679118888263 -0.23930719797587857
2320000000.0 0.1767232404168993 -0.270554221714317
2340000000.0 -0.14816359674373983 -0.32486523002238016
2360000000.0 0.029057619686912665 0.39577702610311305
2380000000.0 -0.06160945512218528 -0.43486903213753053
2400000000.0 -0.011381855760816992 0.4847426463662988
2420000000.0 0.047088615947651145 -0.5366542319346752
2440000000.0 0.20919171145175885 0.5541407315161568
2460000000.0 -0.44763933533217376 -0.4573452471042082
2480000000.0 0.631179272168586 0.2549459293777366
2500000000.0 -0.6465782794286994 -0.3003432832732383
2520000000.0 0.677420118295181 0.28427415609589035
2540000000.0 -0.6165213730643324 -0.42648188914292573
2560000000.0 -0.07129712032675276 0.7541997054895726
2580000000.0 0.5408273190787071 -0.5295777177095411
2600000000.0 -0.7426557691069846 0.0785431469551879
2620000000.0 0.6740640731597305 0.28137932574922897
2640000000.0 0.4884621744196101 -0.511580057093111
2660000000.0 -0.5428541620055047 0.40425609743928304
2680000000.0 0.3633287373070683 -0.5293777993169801
2700000000.0 -0.07698150772671329 0.5981250858716476
2720000000.0 -0.21985592832005532 -0.5166087462614364
2740000000.0 0.29175627255448433 0.4317535624004577
2760000000.0 -0.375100716466573 -0.3067090091497092
2780000000.0 0.44959568893987173 0.0606223137316667
2800000000.0 -0.42371984252014416 0.06606752975827886
2820000000.0 0.3850306124117375 -0.14292344719725766
2840000000.0 -0.3791088814060983 0.1250765642160977
2860000000.0 0.3818281720954509 0.09658110275944762
2880000000.0 -0.2320788686685091 -0.31673484317108846
2900000000.0 -0.27950536292171946 0.276884831759978
2920000000.0 0.36567872549540686 0.14797204879890904
2940000000.0 0.25853166522889565 -0.29244402069534825
2960000000.0 0.28617958292303447 -0.2593003628736234
2980000000.0 0.36968284404678103 0.10659968618140842
3000000000.0 -0.011896624927568883 0.38711204175316904
3020000000.0 -0.3152854264531616 0.22039234268173163
3040000000.0 -0.0849315284154489 -0.3659953451300197
3060000000.0 0.29913464303088727 0.21407294863011658
3080000000.0 -0.280210967694601 -0.22240189044770511
3100000000.0 0.28227722326612775 0.2054303065970584
3120000000.0 -0.32113738551841997 -0.10964958503196737
3140000000.0 0.26059003022483596 -0.19602019046943706
3160000000.0 0.00821467785624894 0.30656326516883475
3180000000.0 0.12956307838757716 -0.25241134006901467
3200000000.0 0.20026264092214688 0.1574121331763923
3220000000.0 -0.21869371080578165 0.03812489692297232
3240000000.0 0.15711716871571976 -0.1000639535730316
3260000000.0 -0.112263317656258 -0.09930505760581647
3280000000.0 0.003347151392510642 -0.11850834043351968
3300000000.0 0.013007954657197254 -0.09060344612062872
3320000000.0 -0.06223766151901874 0.020626197281591475
3340000000.0 -0.01011917737701612 0.04536543868315464
3360000000.0 -0.006482439453733029 -0.03459674113408062
3380000000.0 0.0006559745153492212 0.02908484688982339
3400000000.0 0.004647570473286443 0.021814177357694906
3420000000.0 -0.0009273396109117361 0.022348642366835484
3440000000.0 -0.017674478269776535 0.011380936759050666
3460000000.0 -0.014091073486111737 -0.009919188320978
3480000000.0 0.0016264313453987964 -0.01759195498005539
3500000000.0 -0.024588988221050562 0.0057477217907250045
3520000000.0 -0.03630897989430749 0.0065805974856266635
3540000000.0 0.039152838859321235 -0.03455374327708062
3560000000.0 0.026544166682816266 0.05640284109062476
3580000000.0 0.039862796918721875 0.05855867844571241
3600000000.0 0.0018782425385591088 -0.07673308393511101
3620000000.0 -0.06952323223907855 0.051139064502699914
3640000000.0 0.08311427040301486 -0.047005963717369516
3660000000.0 0.09700632872450181 0.028970578711526314
3680000000.0 0.012586949623754045 -0.09895090966766464
3700000000.0 -0.03333456781784421 -0.09372667633501384
3720000000.0 -0.09896334087055503 0.01809661109492991
3740000000.0 0.09580931101710587 -0.01333828983488488
3760000000.0 -0.0720215928493819 -0.06326207901885311
3780000000.0 -0.09883961483089779 -0.02780620273697243
3800000000.0 0.10097839565088676 -0.056098359431929035
3820000000.0 0.10652414550086405 -0.07616930013866903
3840000000.0 0.1297908263465187 -0.06477240499229367
3860000000.0 -0.06161062458989945 -0.15597360923492293
3880000000.0 0.14068606616250195 -0.13476813176867802
3900000000.0 0.0818769921532567 -0.19239194731359965
3920000000.0 0.14800137919094344 -0.14271979393543607
3940000000.0 0.10707684229640643 0.17650731119076563
3960000000.0 -0.04555232776886869 0.20522824580120452
3980000000.0 0.18482987267846482 0.11452782832195899
4000000000.0 0.01493915052804828 -0.21360495177464267
