!Created with skrf (http://scikit-rf.org).
# Hz S RI R 50.0 
!freq ReS11 ImS11
400000000.0 0.7918297780783824 -0.2389079544046173
420000000.0 0.1453189713601278 -0.8135606597717918
440000000.0 0.044645744284161064 -0.7716177023638068
460000000.0 0.2511869398831508 -0.6832781635894357
480000000.0 0.6349440553132355 0.20611152962578913
500000000.0 0.6156735603560094 0.17145936743862022
520000000.0 0.5655995081483296 -0.06544800230845411
540000000.0 -0.23554361410435148 0.43383931424113464
560000000.0 -0.18940643405925273 -0.4199829791595346
580000000.0 -0.2206090681467124 -0.3439676150626928
600000000.0 -0.37346298466915634 0.09974369032959685
620000000.0 0.3091252197516787 0.24088538584965202
640000000.0 -0.3130747109800667 0.28115487474927847
660000000.0 0.11545310047649217 -0.4379711014129874
680000000.0 -0.46174949314159913 0.015088028481952787
700000000.0 -0.2057127947192219 -0.40529965592187234
720000000.0 0.39458802440668744 0.16915870798854027
740000000.0 0.26260249984008227 0.26320136408910905
760000000.0 0.11123794111637017 -0.3098407809109437
780000000.0 -0.015095956150892426 -0.2958295379521252
800000000.0 -0.19148559796652315 0.19830445206490666
820000000.0 0.2142153210503542 0.1235801536347226
840000000.0 -0.12071130262163879 -0.19511065144364192
860000000.0 0.20629673712073276 0.07079744588013787
880000000.0 -0.03821549497553741 0.18542203023476844
900000000.0 0.08624266464927673 0.11199072726438664
920000000.0 0.07902475739732204 0.01338308222069686
940000000.0 -0.0360917137697809 -0.04087493083965358
960000000.0 0.04398204795070685 0.050000520995111916
980000000.0 0.07911412406305277 -0.015872669458113744
1000000000.0 0.07051136790917753 0.06119095119871867
1020000000.0 -0.10307239530449441 -0.018165548661567887
1040000000.0 -0.12080346318518265 0.026295916143790107
1060000000.0 -0.02229705629298543 0.15712749391836248
1080000000.0 0.07770747156440692 0.17096297837060062
1100000000.0 0.10496349403982344 0.19353281183601884
1120000000.0 0.14255191788146376 0.2065793535324677
1140000000.0 -0.26093020105727555 -0.08432346318404674
1160000000.0 -0.19715395658103582 0.22712414961778127
1180000000.0 -0.3191852679502968 -0.04585570041989605
1200000000.0 0.3087830071952446 0.15227145782370696
1220000000.0 0.0808996340453378 -0.3627576105716112
1240000000.0 -0.32248168523039045 0.2409938124998646
1260000000.0 0.2860711166794698 -0.30999111265069823
1280000000.0 -0.38491674894070116 0.18356163206478418
1300000000.0 -0.1234898852159232 0.397522933814391
1320000000.0 -0.25202887364986953 -0.3363079489150899
1340000000.0 -0.36642826534106815 -0.2371747945279872
1360000000.0 -0.28545518853484625 0.3294405123448419
1380000000.0 0.06181251056895615 0.4170257016750863
1400000000.0 0.17748718095000918 0.369368204404081
1420000000.0 0.35911251880475215 0.16322635908267746
1440000000.0 0.289903913479425 -0.2422260118164817
1460000000.0 -0.3461755216085113 0.07786027339395615
1480000000.0 0.29650344324698313 0.13558013916209435
1500000000.0 -0.2880500961224566 0.04256807636267289
1520000000.0 -0.01910457597731955 0.24818296559339464
1540000000.0 0.06813215736860152 -0.19722855901959624
1560000000.0 0.02919100009271355 -0.16608165935311756
1580000000.0 0.04576386602762043 -0.13401082094155492
1600000000.0 0.04037048070397218 -0.10669200812435096
1620000000.0 -0.09516778023684366 0.013243790651719394
1640000000.0 0.013871008983503606 -0.07058256626025003
1660000000.0 -0.04098514215044752 -0.028244314988259862
1680000000.0 0.016989615506229575 -0.02218811254408404
1700000000.0 -0.01596922297181382 -0.011380177984044764
1720000000.0 -0.011550475895636375 0.028591658206334192
1740000000.0 -0.014533630964476333 -0.04714365385183695
1760000000.0 0.029276082256589845 -0.06709260197015718
1780000000.0 0.05960452282180571 -0.09342452263441753
1800000000.0 0.038543242034467864 -0.14501948602255096
1820000000.0 0.10545889065389648 -0.15342420793666825
1840000000.0 0.2172240347526815 -0.007424539373574398
1860000000.0 -0.07072444573763012 0.24212439912216172
1880000000.0 -0.2230161176917359 -0.17155845924266552
1900000000.0 0.1175461988591728 0.27950252024360406
1920000000.0 0.3069208004926813 0.10884004661954444
1940000000.0 0.3555588992620745 0.02132155523693223
1960000000.0 -0.062315004085577684 -0.3823797159740468
1980000000.0 -0.3006351552910808 0.28367511456003913
2000000000.0 0.4309467121072293 -0.016908504467166036
2020000000.0 -0.2352461629783683 -0.3700610321726536
2040000000.0 -0.3786373139275023 0.2256370264626614
2060000000.0 0.2847303579877252 0.33330743489765785
2080000000.0 0.24496728697532383 -0.35227695609539844
2100000000.0 -0.31989610578629146 -0.2520316830878123
2120000000.0 -0.12176115867991422 -0.3653121235086404
2140000000.0 0.28826050567584377 -0.23367557468351885
2160000000.0 0.13117754458927106 0.34267736180476704
2180000000.0 0.23136631452984063 -0.27319174575131827
2200000000.0 -0.32758220091031837 0.08592780184498842
2220000000.0 -0.10306766678436156 0.3000787810294205
2240000000.0 -0.1413765270876283 0.2721572198264516
2260000000.0 -0.016971265249280335 0.29980653018838316
2280000000.0 0.014019414226791177 0.2993597809866348
2300000000.0 -0.023988415979057088 0.3089998549986866
2320000000.0 0.11829725060135428 0.31310745401201784
2340000000.0 0.2950136585539914 -0.22471469888105658
2360000000.0 -0.3168810002509262 0.2678441198678218
2380000000.0 0.06172211701985621 -0.45753131348707804
2400000000.0 0.1912912237389255 0.46953789765197407
2420000000.0 -0.35077948572052975 -0.4296647870518658
2440000000.0 0.5220776548971485 0.3048052560416934
2460000000.0 -0.6470487063186 -0.08044735716250309
2480000000.0 0.6265860418991243 -0.2931125555959978
2500000000.0 -0.5697280163021705 0.44608842487850714
2520000000.0 0.6017671696020485 -0.4376033268222422
2540000000.0 -0.6986873842447273 0.29091248700146466
2560000000.0 0.7573049863888811 0.08280111199246297
2580000000.0 -0.5413001354063757 -0.5317447862196127
2600000000.0 0.14895267782144667 0.7337148479969885
2620000000.0 0.17853636146522872 -0.7087899790438351
2640000000.0 -0.552710801890334 -0.44020997546376256
2660000000.0 0.39420551475182253 0.5479860952643587
2680000000.0 -0.49227655656405045 -0.4089733370678328
2700000000.0 0.5364059547366924 0.269639718688145
2720000000.0 -0.5573855489427193 0.00677925952761028
2740000000.0 0.5026367974683864 -0.11235081665365267
2760000000.0 -0.44796472200935733 0.15996201647966266
2780000000.0 0.4409057866533638 -0.044519857096051066
2800000000.0 -0.40024251841393055 -0.12936665955579488
2820000000.0 0.3502271733415813 0.2077139971718872
2840000000.0 -0.38970736375314546 -0.09091303661161626
2860000000.0 0.39165609153518954 0.010919705237479914
2880000000.0 -0.29301824443950514 -0.252019395806596
2900000000.0 -0.14883297824711086 0.3547542981384097
2920000000.0 0.36829965961857014 0.11399291880709111
2940000000.0 0.15529467335991307 -0.3528146574469463
2960000000.0 -0.09828509745636964 -0.3663071546657628
2980000000.0 0.22975555979401072 -0.2939346410710859
3000000000.0 0.3167910372128905 0.19798239970206533
3020000000.0 -0.23865477373350974 0.28309664697182196
3040000000.0 -0.16684888420221908 -0.3266791391302613
3060000000.0 0.33576639921292895 -0.12228101247504658
3080000000.0 -0.30986381937670837 0.14981542978006665
3100000000.0 0.30868375347948845 -0.12365617781655186
3120000000.0 -0.3199851388502606 -0.0392929926094685
3140000000.0 0.2606369417811956 -0.17154398576758517
3160000000.0 -0.06696516872307708 0.28659877556174707
3180000000.0 0.15210390515647168 -0.22699892723367796
3200000000.0 0.17830331527960153 0.16432069580777836
3220000000.0 -0.19607569162749167 -0.061982721680238925
3240000000.0 -0.15759112470161504 0.0652757379082195
3260000000.0 -0.14215102163898732 0.004486455074851583
3280000000.0 -0.10963601421452436 0.026485007518338353
3300000000.0 0.08238175665494567 0.018237673027403343
3320000000.0 0.018554324856484304 -0.05655356029144266
3340000000.0 0.048445280280580275 0.0009417985004484951
3360000000.0 0.04220636412123124 -0.017586151569142984
3380000000.0 0.030227980339923785 -0.03529937839533016
3400000000.0 -0.009168463280666587 -0.045377859401007026
3420000000.0 -0.04084718392415109 -0.0031188641403298648
3440000000.0 0.007667133704005196 0.030936233455504832
3460000000.0 -0.016878305344093895 -0.0044752620152935345
3480000000.0 -0.0025019966307027754 -0.0166479767786849
3500000000.0 -0.026876763741551325 -0.006087194150930707
3520000000.0 0.028422775826902946 -0.01953626918558103
3540000000.0 -0.022240387584423815 0.03857484414017634
3560000000.0 -0.029364373127303153 -0.04316692439543447
3580000000.0 -0.03367914868066123 -0.0512206030040749
3600000000.0 -0.03307821804390383 0.062302190276959844
3620000000.0 0.07917147994226253 0.0065291100897906925
3640000000.0 -0.07613663006948337 0.03688500436827577
3660000000.0 0.08894681110046089 0.019630133491503134
3680000000.0 -0.05553745905493308 -0.07376624658497902
3700000000.0 -0.05251320164615806 0.07711584301189749
3720000000.0 0.03951714630727989 0.08348311685545241
3740000000.0 -0.06434793301542162 0.06477046591521322
3760000000.0 0.01979461255704827 0.09595961109417633
3780000000.0 -0.0019071877898948107 -0.10442184509170216
3800000000.0 0.0738812903207184 0.09052999144097561
3820000000.0 0.1319575366732499 0.011233400413844807
3840000000.0 0.12418816658698928 -0.07355552331303634
3860000000.0 0.04480371823583337 -0.1582974984376444
3880000000.0 0.16535602583924672 0.08615699199158827
3900000000.0 0.2018504196857756 0.008939310362763273
3920000000.0 0.14485279181926064 -0.14719360513966073
3940000000.0 0.1291272230346843 -0.16508315732248352
3960000000.0 0.043168245224749824 -0.20190967836047827
3980000000.0 0.07392160142014599 -0.18365517881669283
4000000000.0 0.15870617268252585 0.10173028168701376
