!Created with skrf (http://scikit-rf.org).
# Hz S RI R 50.0 
!freq ReS11 ImS11
400000000.0 0.7902330977964193 -0.2675652130582134
420000000.0 -0.16858679068535107 -0.8158107829278716
440000000.0 -0.684367471909525 -0.3700081356212228
460000000.0 -0.4041433633094816 -0.5965486206877778
480000000.0 0.6104124046164721 -0.2363209547714358
500000000.0 0.6132373930458543 0.12831545347390777
520000000.0 0.5125455512708436 0.22741159957124532
540000000.0 -0.043157407955734875 -0.48398136810497944
560000000.0 0.468874276695611 -0.0655566155101458
580000000.0 -0.4062443565850884 -0.13504752077947776
600000000.0 0.3730836970721405 -0.10374274591901188
620000000.0 0.22138800270376918 -0.3088269036759858
640000000.0 -0.38504703612477054 0.14198293618651683
660000000.0 0.061013233431291426 -0.44255624314524544
680000000.0 -0.434313185852823 -0.089050154768196
700000000.0 0.42762515034017756 0.09918881567120894
720000000.0 -0.4014841584432714 -0.13536738525200642
740000000.0 -0.06476363223432399 -0.3808568991237362
760000000.0 0.35279141795079383 0.024429663213370822
780000000.0 -0.28513680352412746 -0.15564895665941506
800000000.0 -0.26400830313635587 -0.1343593682661761
820000000.0 0.15155430582698173 -0.19397255933144594
840000000.0 -0.06135750757054588 -0.2076916116090821
860000000.0 -0.13463649831403687 -0.1390648529528822
880000000.0 0.05635921681687117 0.1527719440190429
900000000.0 -0.08780109221323835 0.08984904760702074
920000000.0 0.048298614767597406 -0.05858031485528927
940000000.0 0.03453239806115826 0.03689218232812923
960000000.0 0.015518294780214244 -0.05515402550705853
980000000.0 0.054282678604233046 -0.03300303420717668
1000000000.0 0.0025413051725083685 -0.07799002567411238
1020000000.0 -0.03773559183900249 0.08985374437414326
1040000000.0 0.09403510924666507 0.08221077307330872
1060000000.0 -0.0957678720541834 0.126353076341822
1080000000.0 -0.15454999084227508 0.10651748736164815
1100000000.0 0.1888838242250815 0.11690207423532306
1120000000.0 0.19205265111267936 0.15571036248570905
1140000000.0 -0.2764584886274271 -0.01971746344605189
1160000000.0 0.1424210968831809 0.26496486522836504
1180000000.0 -0.09063951956521736 0.3092030570559463
1200000000.0 0.1457708948211108 -0.30351512485264
1220000000.0 0.049986731287181736 -0.3594524308014894
1240000000.0 -0.2858333784933065 0.27123098356791164
1260000000.0 0.40855836341821866 0.04780079213267634
1280000000.0 -0.12041008945715542 -0.4053993418886474
1300000000.0 -0.16991056280492758 -0.39213093587526554
1320000000.0 -0.43372957719252775 -0.07671353563762535
1340000000.0 -0.24632426425913537 0.368431866041727
1360000000.0 0.3257464700983543 0.29267638366528115
1380000000.0 0.3997528156649336 0.12197309251046512
1400000000.0 0.4027970928297035 0.041298595489808874
1420000000.0 0.3236094474116905 -0.2116687195313648
1440000000.0 -0.021510202366242778 -0.3687538298211985
1460000000.0 -0.29608993602220834 0.1724067398210986
1480000000.0 0.26821346798142065 0.1652071322679169
1500000000.0 -0.22652612495396063 -0.16150763990489644
1520000000.0 -0.2406914673329745 -0.040921750460984306
1540000000.0 0.20486805303098374 -0.011568798413720821
1560000000.0 0.14589902102087643 -0.08643753542445287
1580000000.0 0.051976336911222554 -0.13535948687918628
1600000000.0 -0.09173942653060885 0.07538372661830128
1620000000.0 -0.011272810018550296 -0.096331280492418
1640000000.0 -0.05461013121589917 0.04441456107136345
1660000000.0 -0.03656713675747248 0.022226142988541687
1680000000.0 0.013070710730493458 0.004660958665450573
1700000000.0 0.020871008932294554 0.004587221096943284
1720000000.0 -0.03234171229689388 0.022815411835170944
1740000000.0 -0.03725507557807984 0.04550063340904029
1760000000.0 -0.07974715203448472 0.01332818214967767
1780000000.0 0.007584051936088948 -0.10689452140960638
1800000000.0 0.13909135908644832 -0.008800627969641189
1820000000.0 -0.014244379808833417 -0.16649378017018862
1840000000.0 -0.1984494991518871 0.04794726447004221
1860000000.0 0.11341313841750555 -0.2191180514284531
1880000000.0 0.2177354601875329 0.18059730199981705
1900000000.0 -0.3100674958289894 -0.005607958969539465
1920000000.0 0.2662302575572809 0.20545109005608306
1940000000.0 0.08411240213508948 -0.3532773621471668
1960000000.0 -0.3766398779720879 0.08708739039913437
1980000000.0 0.09372475588219822 0.3962502263179607
2000000000.0 0.37140286891311686 -0.20697458792231888
2020000000.0 -0.32420183924600465 -0.28900975836844084
2040000000.0 -0.22121677541855392 0.3741935080508216
2060000000.0 0.2707348070061916 0.33198576307684663
2080000000.0 0.41852191072182815 -0.0016647304144504565
2100000000.0 0.35403142270851545 -0.20062105350352605
2120000000.0 0.2735633905917658 -0.28555355403051264
2140000000.0 -0.2197512156135556 -0.3118403365305314
2160000000.0 0.06161904295818481 -0.35385739201463184
2180000000.0 -0.08272480989681451 -0.32711377543428694
2200000000.0 0.06999381948797141 -0.3106292533234306
2220000000.0 0.22936446508058767 -0.20825603774039697
2240000000.0 0.01184796897537437 -0.30936630278721083
2260000000.0 -0.29667102538593226 -0.08037617966809735
2280000000.0 -0.08700917905022296 0.2940646315143492
2300000000.0 0.10556951608221797 0.2951206375292041
2320000000.0 0.20301421041157086 0.2651409986287975
2340000000.0 0.22669452654523728 -0.2911342998350911
2360000000.0 -0.33731774950435334 0.23298304246230364
2380000000.0 0.26879440755659184 -0.36896651391896307
2400000000.0 -0.14184584607106698 0.4861026088925671
2420000000.0 -0.09597571251589536 -0.5490077453970715
2440000000.0 0.41142554506983575 0.4479248386382133
2460000000.0 -0.6382572686788374 -0.14222212109291976
2480000000.0 0.645601918499314 -0.25490798117121893
2500000000.0 -0.5716019789633695 0.4460250386002201
2520000000.0 0.5706688418816557 -0.4795160836907612
2540000000.0 -0.6756760383375974 0.34027245823360674
2560000000.0 0.7611800374953647 0.015582944658698694
2580000000.0 -0.6379954951029224 -0.4091526844532278
2600000000.0 0.28233588883665267 0.6907719237949929
2620000000.0 -0.013854088392934736 -0.7288265451218149
2640000000.0 -0.6335562022986473 -0.30888512510064403
2660000000.0 0.5069828705264541 0.442741768711255
2680000000.0 -0.4705580699901539 -0.43071972384617774
2700000000.0 0.5483243793589813 0.24429775842681953
2720000000.0 -0.5557282203253625 0.03893370944773621
2740000000.0 0.4887547517457212 -0.1624407681502752
2760000000.0 -0.465549582935045 0.10161078353300776
2780000000.0 0.44337993817625754 0.04953249625731911
2800000000.0 -0.3567248926338691 -0.2326303688591401
2820000000.0 0.3887605253970138 0.14494521147180245
2840000000.0 -0.38769089483159447 0.11903389884690946
2860000000.0 0.27648560290640156 -0.28488643751739234
2880000000.0 -0.35209247320840054 0.1587049018626631
2900000000.0 0.039691536581091605 0.37802649498419316
2920000000.0 0.32755709636131924 0.19452370343531947
2940000000.0 0.32235762796909184 -0.20727562349679926
2960000000.0 0.19087030323046028 -0.32930538662844383
2980000000.0 0.29553808558786776 -0.23351382176547011
3000000000.0 0.2814769812199167 0.24999051549768175
3020000000.0 -0.21633914313117458 0.30541865302180105
3040000000.0 -0.26142821493017887 -0.2616822544418815
3060000000.0 0.3495226287908585 -0.10113938101894436
3080000000.0 -0.21137962126650026 0.2835977670799162
3100000000.0 0.016903678133168974 -0.34281955170337747
3120000000.0 0.01644550831678348 0.32692014908273653
3140000000.0 -0.17598981531523278 -0.25710314592788563
3160000000.0 0.2225250808930221 0.19043305975849387
3180000000.0 -0.03181419250925764 -0.26925368679263467
3200000000.0 0.23153669426445705 0.06846650648617843
3220000000.0 -0.18357707788105168 0.09426053277974869
3240000000.0 0.03631979628781061 0.1656003665619728
3260000000.0 -0.053389133820114565 0.12670688219885348
3280000000.0 -0.0016288795898376008 -0.10851780573942353
3300000000.0 -0.04894803416686168 0.07263597247459606
3320000000.0 0.04133699582847087 0.05066375759453725
3340000000.0 0.019200970641690462 0.04132778665299362
3360000000.0 -0.014834983976707756 0.032239873257789424
3380000000.0 -0.007771120084865374 -0.038387358132216304
3400000000.0 -0.01566700924818206 -0.037776778882147324
3420000000.0 -0.014151715642952081 0.03248319647709338
3440000000.0 -0.014320460101882496 0.01832924964633357
3460000000.0 -0.006028642018543972 -0.019863428797352978
3480000000.0 -0.024071022823072108 -0.007993178607503586
3500000000.0 -0.01810982054472398 0.023203372019843745
3520000000.0 0.021615298280530597 0.029804156389532526
3540000000.0 -0.02855774960435895 0.042780434122227776
3560000000.0 0.01652500526804949 -0.060510736916421906
3580000000.0 0.07040565536814984 0.010248096276634129
3600000000.0 -0.0739728755005278 -0.007493866851464746
3620000000.0 -0.06160901972278036 0.05120456021315503
3640000000.0 -0.0336478651874349 0.07912986463909548
3660000000.0 0.07526604737665264 -0.05468326102402017
3680000000.0 -0.056271690323288104 0.07999761715612595
3700000000.0 -0.06736596120272781 -0.07169174164836267
3720000000.0 0.05917211165999055 0.07124129045925548
3740000000.0 -0.08565131691857485 0.004412924019744329
3760000000.0 0.05149073071575797 -0.07000502517479368
3780000000.0 0.07125737293268297 -0.06510919059035854
3800000000.0 -0.07311811020748385 0.08114501273249403
3820000000.0 -0.12583129408363697 0.008213495646453293
3840000000.0 -0.02852467626322332 0.13946485799077185
3860000000.0 0.15163160554576074 -0.05565884284624827
3880000000.0 0.1644010059204601 0.0747910234121404
3900000000.0 0.19181764065861234 0.026106204118859947
3920000000.0 0.18375858338485493 -0.07037071605120854
3940000000.0 0.1825182880591059 0.07718748371192904
3960000000.0 0.0935485649653296 0.17688319656876225
3980000000.0 0.04296903382341365 0.19365673586263038
4000000000.0 -0.007913445565931787 0.1898728083082624
