!Created with skrf (http://scikit-rf.org).
# Hz S RI R 50.0 
!freq ReS11 ImS11
400000000.0 0.7018146513319691 -0.4279649545021364
420000000.0 0.3997870426037358 -0.7293504556801148
440000000.0 -0.5869881094938407 -0.509771638696725
460000000.0 -0.25641303707229796 -0.6637118311379614
480000000.0 -0.0730555852455635 0.6546835709883582
500000000.0 0.5347152730191421 0.35987815726499617
520000000.0 0.38246983322646716 0.4263844577589899
540000000.0 -0.4518938182156682 0.2218005773855185
560000000.0 -0.426753776794699 -0.2063814678873149
580000000.0 -0.00693313176128537 0.41410243815673115
600000000.0 0.3451890405864516 0.12085748265806405
620000000.0 -0.24958341970172582 0.2824037519526423
640000000.0 -0.2859130194556752 -0.3001312725699692
660000000.0 0.4237298137746665 0.16307564386153045
680000000.0 -0.4590975199752973 -0.07312859746072055
700000000.0 0.00453885331678588 -0.44623754983048325
720000000.0 -0.40008800412475115 0.13370103289287552
740000000.0 -0.16739682965164993 -0.3425527782008932
760000000.0 0.06371378289206689 0.3542733499977379
780000000.0 -0.022911697930826064 0.32885643411407145
800000000.0 -0.2532609507631149 -0.15443195452277372
820000000.0 0.042661918505167554 0.24595459159439342
840000000.0 -0.095520304309555 0.17606235614910837
860000000.0 -0.08136000576394764 0.15799614176943721
880000000.0 -0.08791186550886985 -0.1058806344710588
900000000.0 -0.08584044213734188 -0.06018093760164961
920000000.0 -0.01956128667100234 -0.07432923524964458
940000000.0 0.049926201920858844 0.029458065758533738
960000000.0 0.07348032960361857 0.02780665306517831
980000000.0 -0.0809473589314623 0.030623168735940946
1000000000.0 -0.024103067013085157 -0.0812143766111303
1020000000.0 0.0731954934497396 -0.08171024046252358
1040000000.0 -0.011483672278961632 0.11510475508127542
1060000000.0 0.14949974283067688 -0.02321578620929512
1080000000.0 -0.09478343702113468 -0.1697849703208024
1100000000.0 -0.11773560143513759 0.19407379249568552
1120000000.0 0.22109635141342293 0.13853044765133843
1140000000.0 -0.1823461346820786 0.20561625752378532
1160000000.0 -0.24244675092661525 0.18944561276378644
1180000000.0 -0.0786672647707048 0.32142083194794724
1200000000.0 -0.09258919584782739 -0.33583609433962563
1220000000.0 -0.1777242010416372 0.3178658138614091
1240000000.0 0.011683998977958313 0.3803496913304928
1260000000.0 0.3982711765863718 0.055819797221669236
1280000000.0 0.2676985598326623 -0.317493667803214
1300000000.0 0.06472781385913941 -0.41925133473877063
1320000000.0 -0.22051364763192025 -0.37443627041888505
1340000000.0 -0.38454306958302 -0.22246651911936538
1360000000.0 0.009834390871051724 0.4424632925848695
1380000000.0 0.2930159309546262 0.31566251335246087
1400000000.0 0.21692319904584134 -0.34963092875125384
1420000000.0 0.19024764153361262 -0.3387981535647214
1440000000.0 -0.3236654637568985 -0.18272857843513837
1460000000.0 -0.017656632030365514 0.3400151159931355
1480000000.0 0.306411447295763 0.04471632001380061
1500000000.0 -0.18471244077254406 -0.20721615570647633
1520000000.0 -0.24255824456945524 0.027190855905453653
1540000000.0 0.07852330746843304 -0.18647461798624942
1560000000.0 0.024164703666197287 0.16145093748391082
1580000000.0 0.05659330736363009 0.1369769722840189
1600000000.0 -0.09820671842944106 0.07179253452500015
1620000000.0 -0.07205752179277239 -0.06354217170310951
1640000000.0 -0.012294927131880656 -0.06295914059944516
1660000000.0 -0.04219710855055799 -0.007018815135358054
1680000000.0 -0.01547350516105208 0.01760483505924682
1700000000.0 0.017953603125748042 -0.00035876261454697347
1720000000.0 0.03700442183738331 0.0028211837896788485
1740000000.0 -0.05664257465066485 -0.013285311731309302
1760000000.0 0.02554072539412219 -0.07513181767350119
1780000000.0 0.08480038892093474 0.06310666632719869
1800000000.0 -0.13741024860631823 0.01541278462696969
1820000000.0 0.17100256586535448 -0.004531531265306039
1840000000.0 -0.20039574436496807 -0.03609835378405601
1860000000.0 0.2403880990083724 0.04671758364766943
1880000000.0 -0.04314573135677227 0.28253500859723896
1900000000.0 -0.2228822986968748 -0.22511001888051982
1920000000.0 0.16060336535845635 0.30623839774252776
1940000000.0 0.0069464812170524255 -0.37416315569832925
1960000000.0 -0.03785928876035091 0.3923878062130857
1980000000.0 0.3910215722288539 -0.10546510272966181
2000000000.0 0.14327265705784908 -0.3886081573470601
2020000000.0 -0.17240647188546146 -0.3844029378470942
2040000000.0 -0.35077941463004975 -0.24076702311593434
2060000000.0 -0.4064125498725541 0.14284400008528553
2080000000.0 0.2863578944196448 0.317307230638237
2100000000.0 0.3915986325664184 -0.13520211005126825
2120000000.0 0.16458479725715253 -0.3628457448256504
2140000000.0 -0.260006125808427 -0.2832399725055372
2160000000.0 -0.2539960782476165 -0.2553134291374548
2180000000.0 -0.09455069573134701 -0.3216787914818619
2200000000.0 -0.17457561807490907 -0.26989549241312066
2220000000.0 -0.0830239755156778 -0.2942534202681489
2240000000.0 0.12056413618661763 -0.276624706834929
2260000000.0 -0.04515659905755227 -0.30084824467918214
2280000000.0 -0.31046134323663754 -0.000949964850871554
2300000000.0 0.0011316593857122878 0.3178311467092819
2320000000.0 0.24708626283978644 0.23045330639125144
2340000000.0 0.09186083687406983 -0.3595419390469424
2360000000.0 -0.2651776773878667 0.31384720227391705
2380000000.0 0.15689756482356707 -0.43036913066393856
2400000000.0 -0.07204584800329475 0.5025725897876397
2420000000.0 -0.05330623081410053 -0.5566755977237757
2440000000.0 0.5042852811613088 0.3462489748855312
2460000000.0 -0.6454384294648468 0.12063028318794924
2480000000.0 0.5868256307635216 -0.37328380138756423
2500000000.0 -0.5011956595201829 0.523850860564882
2520000000.0 0.38990963103492615 -0.6367516699017727
2540000000.0 -0.5009187067717535 0.5697480972284342
2560000000.0 0.5492339832728635 -0.5307191817055475
2580000000.0 -0.7562521423299496 0.07747288842549777
2600000000.0 0.628339118899038 0.4063451828213439
2620000000.0 -0.3753797106441901 -0.6260127766709515
2640000000.0 -0.6974170532147917 0.09433886155615198
2660000000.0 0.6626961837993018 0.11140034506998424
2680000000.0 -0.6084496099259208 -0.18311066735850065
2700000000.0 0.5819243412788506 0.12833105339056994
2720000000.0 -0.5552174996732171 0.02650110409621678
2740000000.0 0.4216196416624959 -0.29648923815199235
2760000000.0 -0.26368880126072824 0.3974842715260656
2780000000.0 0.21663955534450619 -0.39124374800443507
2800000000.0 -0.2770921788362934 0.31992193110237044
2820000000.0 0.3132028442634417 -0.26221384103855744
2840000000.0 -0.33486748087581475 0.21052795357597093
2860000000.0 0.3690614171046085 0.11903437034180367
2880000000.0 -0.1809847045630336 -0.34323285835909134
2900000000.0 -0.16698597901287068 0.349786988117122
2920000000.0 0.35586939887813557 0.1544418699038571
2940000000.0 0.22617620037744723 -0.3167129990703279
2960000000.0 0.10650362204205442 -0.3693185543845253
2980000000.0 0.28171475787102834 -0.25887010023945134
3000000000.0 0.35874682395177765 0.1302517721859378
3020000000.0 -0.08590576482705381 0.36633763258596397
3040000000.0 -0.34033639418414596 -0.14524690811386945
3060000000.0 0.33931780084229046 -0.11811168625634952
3080000000.0 -0.33739097632731396 -0.08477552999397137
3100000000.0 0.3410126531358049 -0.01815894100381631
3120000000.0 -0.3279748534278369 0.03555153617015954
3140000000.0 0.11096477940139539 -0.29504327276493253
3160000000.0 0.0722384846766541 0.288708192674622
3180000000.0 -0.10934157729162251 -0.25086485409292136
3200000000.0 0.2413604551638574 -0.005104254369132827
3220000000.0 -0.15280018162975886 0.1355200624410651
3240000000.0 0.12107989460812373 0.11592754933668126
3260000000.0 -0.07206270430043651 0.11314727993424453
3280000000.0 0.05750735623987324 -0.09192626064702705
3300000000.0 -0.08342455479427986 0.000536068224267464
3320000000.0 0.0429651535333802 0.04616777102287892
3340000000.0 0.046211815154877 0.016930545619248824
3360000000.0 0.017808964367332442 0.0345937144600417
3380000000.0 0.031717866798007525 0.026411832907933173
3400000000.0 -0.033026082664742315 0.022568664470610532
3420000000.0 0.025305118026730283 0.021542166308291245
3440000000.0 -0.022027677463821616 -0.019685825229082077
3460000000.0 -0.006879011542938385 0.01569850653996709
3480000000.0 0.006044537763469654 0.011185873912057076
3500000000.0 -0.02411780123586714 0.00018724757215165822
3520000000.0 -0.00574734479297984 0.0357279563263087
3540000000.0 -0.025614807404036474 -0.03962297236159719
3560000000.0 -0.046855288358985336 0.027228373913502683
3580000000.0 -0.0615599545464287 -0.014562833341520831
3600000000.0 0.0524597254751879 -0.05001349832624905
3620000000.0 -0.03438089956124103 0.07004369877659905
3640000000.0 0.04239778282799973 0.07537060261469948
3660000000.0 -0.09344333900342532 -0.005052948219224019
3680000000.0 0.032958746160267095 -0.08968424117446978
3700000000.0 0.015698809027540884 -0.0903410109805163
3720000000.0 0.027824610163518466 -0.08910863950458671
3740000000.0 0.09110672149891393 -0.01352810315818862
3760000000.0 0.060043695363306816 0.07580594795434574
3780000000.0 0.02113907710257449 -0.10531695358173823
3800000000.0 -0.029203451129692533 0.12056907166370832
3820000000.0 0.12696496225637008 0.06696846044197761
3840000000.0 -0.155797799482963 0.00615840874548906
3860000000.0 0.15901543076602523 -0.059260512253289925
3880000000.0 -0.1116706843526467 0.1492246307468734
3900000000.0 -0.1792286271463884 0.08685027009616969
3920000000.0 -0.13397480337270753 0.15909755543341894
3940000000.0 -0.2101159614597994 0.01959090779310117
3960000000.0 -0.14285504304212626 -0.15185664293897427
3980000000.0 -0.06923499315542307 -0.19580860456678467
4000000000.0 -0.023400063890657866 -0.19452402766433075
