!Created with skrf (http://scikit-rf.org).
# Hz S RI R 50.0 
!freq ReS11 ImS11
400000000.0 0.8126977845357322 0.04510349484634345
420000000.0 0.7301924975870487 -0.3877367647216379
440000000.0 0.25761391671924205 -0.7189758914364326
460000000.0 0.7149290817476135 -0.1291241134594185
480000000.0 0.027979598327055606 0.6727809642332483
500000000.0 0.2816105296364194 0.5872228681324073
520000000.0 0.4763252923670265 0.3438495534912498
540000000.0 0.05762523883519939 0.506438786677659
560000000.0 -0.38902678359532533 0.26615110629722716
580000000.0 0.10778012056776802 0.40309643541462736
600000000.0 0.37862484721286727 -0.040216543463086854
620000000.0 0.10314361163749543 -0.3618800546825267
640000000.0 -0.11345573871052017 0.3878201444141256
660000000.0 0.2800993266605201 -0.33330828081456243
680000000.0 -0.3834186340330378 -0.23034917663377705
700000000.0 0.3003485466494034 -0.3128809200403479
720000000.0 0.020926181012956884 -0.4132871590168841
740000000.0 0.3830356717474006 -0.059904377580628776
760000000.0 0.28127276494040226 0.22478294528025566
780000000.0 -0.3236568211826201 0.0017396789460137954
800000000.0 0.29455043896326916 -0.011883986110434735
820000000.0 0.2284450731768039 0.14141755829756525
840000000.0 0.23036376010141715 -0.009727528008728923
860000000.0 0.10110450225573067 -0.1626850227315939
880000000.0 -0.11944260845266484 0.09523566123546655
900000000.0 0.04231887988626312 0.09712149756378136
920000000.0 -0.05919266182146314 -0.016346649938947584
940000000.0 -0.039780312289081333 0.02124608153330331
960000000.0 -0.029407404927600557 -0.03657937726404272
980000000.0 -0.05511532735259859 -0.007198049996243272
1000000000.0 -0.033730690000940866 -0.07098062761262257
1020000000.0 -0.0035009929058409405 -0.09772979151623844
1040000000.0 0.006564123210555456 0.12540089354555517
1060000000.0 -0.15474896794749352 0.03388463738252537
1080000000.0 -0.16688617631795086 0.0846581361606959
1100000000.0 -0.20296351099430737 0.08980305091398079
1120000000.0 -0.1153089962362086 0.229179171962167
1140000000.0 -0.2667775861712471 0.10418576040701612
1160000000.0 0.2988593663530211 0.06891131562219911
1180000000.0 0.2929825947242476 0.1273737308270389
1200000000.0 -0.0022433368294556876 -0.3309505382422249
1220000000.0 -0.14735135471352828 -0.3212580639761107
1240000000.0 -0.34001844010824955 -0.1736892726910017
1260000000.0 -0.15204005900152054 0.37995368373114835
1280000000.0 0.4311877231662684 0.010610534033260637
1300000000.0 -0.41033807366467673 -0.16040547716317807
1320000000.0 -0.26203459375119453 0.3505527250945088
1340000000.0 -0.13564936108504927 0.4132844783659376
1360000000.0 -0.18563816199424918 0.3869602790448206
1380000000.0 -0.16926015020493793 0.38936155280873613
1400000000.0 0.4082520020034473 0.08941305932124981
1420000000.0 0.011144942347986918 -0.39299708027115093
1440000000.0 -0.14107836955872544 -0.3390007214169849
1460000000.0 -0.31749218063721774 -0.13536561156414154
1480000000.0 0.16639394521216833 0.2743456087243656
1500000000.0 0.13911643862709408 -0.25155061152012353
1520000000.0 -0.24088190175361154 -0.08743749766478946
1540000000.0 0.21606059801370833 0.004360963615635612
1560000000.0 -0.04357159994189494 -0.17376706792314964
1580000000.0 -0.1325942885013627 -0.06279224453779556
1600000000.0 -0.11304235142804031 0.03682028567320374
1620000000.0 0.01973346993231684 0.09254342416226156
1640000000.0 -0.05645357459831412 0.04409115005721295
1660000000.0 0.023790251854007207 0.03803490420206169
1680000000.0 0.015733525928738158 -0.012700310572431523
1700000000.0 0.004082932220590149 -0.029897888886180765
1720000000.0 -0.03701989591277367 0.027352376854658886
1740000000.0 -0.05813046012451701 -0.010367047620467432
1760000000.0 0.02411718856975956 -0.06751826628084785
1780000000.0 0.0938569923970786 0.02741750482579777
1800000000.0 0.060964407397709745 -0.12087445713972736
1820000000.0 0.08156680370880329 0.15212016301996611
1840000000.0 -0.1726103814634851 0.11215195566052025
1860000000.0 0.2397913030802753 -0.0258852701534591
1880000000.0 -0.18498836727468795 0.21678835363760804
1900000000.0 -0.24315035810753496 -0.2051637847839161
1920000000.0 0.24877743185286738 0.23819145899419847
1940000000.0 -0.0007167641557392081 -0.37133919126121073
1960000000.0 -0.2436433288149547 0.31094169378478603
1980000000.0 0.3933900401918835 -0.1127608988620109
2000000000.0 -0.015566826344174682 -0.4155521770674822
2020000000.0 -0.14548928644969814 -0.3943338161338484
2040000000.0 -0.147926272570402 -0.4024694884079523
2060000000.0 -0.4308070225363414 -0.07498882265907021
2080000000.0 0.057788875838051076 0.4342102255278628
2100000000.0 0.2514642989595507 -0.34426238808492166
2120000000.0 -0.3666361243228657 -0.17453448005119776
2140000000.0 -0.3625087372350521 0.11964094045634656
2160000000.0 -0.13559834192990985 -0.3303733795142726
2180000000.0 -0.04603966434445721 -0.33317020524584307
2200000000.0 -0.06453321588184736 -0.30986237747265455
2220000000.0 0.280778663396747 -0.11747661526259619
2240000000.0 0.28566932800825534 0.11762246726549555
2260000000.0 -0.10908766584262435 -0.2989487803982785
2280000000.0 0.11060794334262858 0.2993458450038516
2300000000.0 0.12540069614639737 -0.29221642947341137
2320000000.0 0.04966327882387343 -0.3248394545844198
2340000000.0 -0.22307302053129036 -0.27939801020604355
2360000000.0 -0.17776331913212992 0.3526184809789655
2380000000.0 0.3543257718060372 -0.26696459936332223
2400000000.0 -0.3475887388677019 0.3569107939714666
2420000000.0 0.02785745151717181 -0.552594422239552
2440000000.0 0.3956993364019083 0.45563753368412235
2460000000.0 -0.642242948576857 -0.09218048428986755
2480000000.0 0.6804246135775714 -0.10892494913267294
2500000000.0 -0.7042473366001352 0.14698917453525004
2520000000.0 0.7323729939919752 -0.11001085936464855
2540000000.0 -0.7534298262739376 -0.03544797393233173
2560000000.0 0.6388466034896947 0.41055739545358827
2580000000.0 -0.22238896915230483 -0.7235902440470444
2600000000.0 -0.26661294510603456 0.6975184656676218
2620000000.0 0.5285221959272802 -0.5046511749699204
2640000000.0 -0.22428417238658574 -0.6711070077463589
2660000000.0 0.1495233109379448 0.6595645975877376
2680000000.0 -0.12875422143826334 -0.6264784049942614
2700000000.0 0.030245085008662066 0.6002167135338374
2720000000.0 -0.0656517060667698 -0.5584747905384672
2740000000.0 0.2819754785396467 0.44451778925610325
2760000000.0 -0.44669720550256764 -0.20167491509085195
2780000000.0 0.454534262009588 -0.03352608493872934
2800000000.0 -0.39357983013964637 0.16603932596530308
2820000000.0 0.39208772555045196 -0.10912902890398829
2840000000.0 -0.3934914010249809 -0.029145598184212283
2860000000.0 0.31237400478763927 0.23256986732348794
2880000000.0 -0.07071155158587257 -0.3795194390258739
2900000000.0 -0.3632755526009751 0.1266540203402991
2920000000.0 0.024703795925650033 0.3891846552839311
2940000000.0 0.365683275612977 -0.14294767446899762
2960000000.0 -0.04744453931668012 -0.38113684017906385
2980000000.0 0.22497702529356378 -0.3015994986345687
3000000000.0 0.2634957406463746 0.26794352670357696
3020000000.0 -0.3125488897092552 0.20010044090043394
3040000000.0 0.028713130036285343 -0.36586292546696947
3060000000.0 0.30005600345383776 0.19990693616175315
3080000000.0 -0.3281075060108539 -0.11550743594381148
3100000000.0 0.1925614652405154 0.27631813155005
3120000000.0 -0.06873717455190495 -0.32271210486690594
3140000000.0 0.31871631126174405 0.03071581848505558
3160000000.0 -0.09213113370357377 0.28573045651041895
3180000000.0 0.22627613094998883 -0.15662630430570518
3200000000.0 -0.006309584074525836 0.24321189740037047
3220000000.0 0.004970089350554428 -0.20964241194920633
3240000000.0 -0.1532696836217822 0.08616019164419177
3260000000.0 -0.1232483363856596 0.06919216929228965
3280000000.0 0.1071098314754209 -0.02141400266072337
3300000000.0 0.07837530239361475 0.03646082039918886
3320000000.0 -0.023011161845281344 0.06795267050306213
3340000000.0 0.009876090840323558 -0.05633167243740798
3360000000.0 -0.04343021728934542 0.013089723160971609
3380000000.0 0.03002219422308427 0.022350337413789743
3400000000.0 0.0349867254652553 0.0023270770451656584
3420000000.0 0.02286080505852259 -0.027342409489972092
3440000000.0 -0.031741143839554155 -0.0009021676230044017
3460000000.0 -0.01887249728383425 0.016387803866084863
3480000000.0 -0.00018166200753070362 -0.012549502659609281
3500000000.0 -0.01059686881151344 0.010839003270163463
3520000000.0 0.005756500763815065 0.034230913807667664
3540000000.0 -0.04869593749350453 -0.02195494059945284
3560000000.0 -0.007100841563057754 0.06144753833674078
3580000000.0 -0.05878506184666642 -0.028021731675462132
3600000000.0 0.052991815589747915 -0.045349473593941474
3620000000.0 0.07761213757333275 0.0044249178519019826
3640000000.0 0.060623556772727905 0.06324903176605218
3660000000.0 -0.08713942299112093 0.027790780252746828
3680000000.0 -0.03709372639865726 -0.08407007438767483
3700000000.0 -0.07254146313056914 -0.062200520518372715
3720000000.0 0.09538673147491664 0.03191339373917536
3740000000.0 0.09578141645163714 -0.025203213859984572
3760000000.0 -0.09086941589833107 -0.0505464921839146
3780000000.0 0.10624055531932812 -0.03160634971501397
3800000000.0 0.0807627735516419 0.08505830236492462
3820000000.0 0.09365292297066209 0.09214607857695688
3840000000.0 0.14117678473602308 -0.047794861743268136
3860000000.0 -0.1681665847602045 0.014055370668655844
3880000000.0 -0.04558108497168752 -0.1801100926698494
3900000000.0 -0.012332207893397482 -0.1990499980029284
3920000000.0 -0.16432680002095132 -0.12583535199743612
3940000000.0 -0.19203687852782403 -0.07907000616766918
3960000000.0 -0.1669083118958818 -0.11613386907407396
3980000000.0 0.03677927988925812 -0.18995246618470887
4000000000.0 0.18202981675320823 0.02535923447613395
