!Created with skrf (http://scikit-rf.org).
# Hz S RI R 50.0 
!freq ReS11 ImS11
400000000.0 -0.10418761575601096 0.813690965570628
420000000.0 0.6251499850463784 0.5540257925081259
440000000.0 0.7476701313336418 -0.19356621761901782
460000000.0 0.6217149649408429 0.3904940326552558
480000000.0 -0.4945026080322321 0.4490355886122407
500000000.0 -0.5323002133844171 0.3727126358785444
520000000.0 -0.18743994698369937 0.5660001509655352
540000000.0 -0.44674156238797474 0.26920409568109327
560000000.0 -0.4880876356169398 -0.03859356715615391
580000000.0 0.11427740723469852 -0.3931905402865366
600000000.0 -0.3474437995112291 -0.0922445408903342
620000000.0 0.19088760974042995 -0.30037976615454465
640000000.0 -0.2876211682875208 0.2672802417331379
660000000.0 0.21142188133985254 -0.364370543379874
680000000.0 0.3562955404303701 -0.24117874585874424
700000000.0 0.04282789861375959 0.42867700763221245
720000000.0 -0.1203900783271042 0.40387578664347784
740000000.0 -0.13637603643322846 0.3854775968971211
760000000.0 -0.21558367769997258 0.3201512057809272
780000000.0 -0.2923434911502183 0.1953348596186086
800000000.0 -0.30199704687854856 0.09880760670529991
820000000.0 -0.22525140087326462 0.1488100949040096
840000000.0 0.14082886911426637 -0.16967202977485968
860000000.0 0.09157641443773717 0.1623272399012201
880000000.0 0.05276176332239214 0.1387339243051229
900000000.0 -0.11489583233496102 0.001461528714307663
920000000.0 0.019102473823110824 0.07993832731422258
940000000.0 -0.011184527514227823 -0.05293704971601903
960000000.0 -0.05632214995324906 -0.030442782866497802
980000000.0 0.02433427630705257 0.07551449457028239
1000000000.0 0.06918743453982011 -0.03480276141185303
1020000000.0 -0.08267971959752578 0.03247374517709898
1040000000.0 0.09936938985977907 -0.04299713108947394
1060000000.0 0.06888137299345098 -0.11804252597346694
1080000000.0 0.16240426659428217 0.04875797508850589
1100000000.0 0.1834964162161513 0.0952719223790333
1120000000.0 0.039081281234604276 -0.2470350584091917
1140000000.0 0.00015523228686317616 -0.2756542516700156
1160000000.0 -0.29117835117386376 0.08926338591957288
1180000000.0 -0.0965287370197261 0.31040049918600543
1200000000.0 0.1605303235724883 -0.29632005990483384
1220000000.0 -0.1884571027018739 -0.30476438586058285
1240000000.0 -0.3515774854869852 0.14856960012197193
1260000000.0 -0.07773654153843038 0.39662996898192165
1280000000.0 0.34841811320674093 0.24022294411226405
1300000000.0 0.3012246737832134 -0.3140036057635998
1320000000.0 0.10507799029944544 -0.4314528623658922
1340000000.0 -0.34820321650108715 -0.28674416769705485
1360000000.0 -0.28398928523633754 0.34945108760112376
1380000000.0 0.07494921430381862 0.4263811605279128
1400000000.0 0.2452552793827129 0.3423990398218943
1420000000.0 0.34593868708860204 -0.20279521717079055
1440000000.0 0.23710272348862332 -0.29477199263513476
1460000000.0 -0.17936906904862399 -0.30880333652527386
1480000000.0 -0.2886574579539124 0.1679419969291002
1500000000.0 0.2725891175165175 -0.13624220961219594
1520000000.0 0.03370898189650206 -0.2710335556362884
1540000000.0 0.21063130746567504 0.11893761610693629
1560000000.0 -0.12808591295797772 -0.1556414952104434
1580000000.0 0.04249075470323393 0.1696190271608725
1600000000.0 -0.0978127110691228 0.10187460665405128
1620000000.0 0.10900047815777085 -0.010968307310598776
1640000000.0 -0.054341649255769536 -0.0630393224889466
1660000000.0 0.038599516558023614 -0.048386663088988584
1680000000.0 -0.011158241733783577 -0.043314677886807346
1700000000.0 -0.029813530508160192 0.01473788025448075
1720000000.0 -0.005452982157318863 0.027219798580507996
1740000000.0 0.027642044290458842 0.019769367562063298
1760000000.0 0.04922565374035541 0.025124447708189702
1780000000.0 -0.03778507802927348 -0.07438851951246697
1800000000.0 0.1104581942331321 -0.02717684971194171
1820000000.0 -0.028848773840034227 -0.14920170393549576
1840000000.0 0.13874713641314945 0.12286237635864547
1860000000.0 -0.17462167281720462 -0.13372986773402837
1880000000.0 0.1069000121885011 0.2310320323150613
1900000000.0 0.034704793634338406 -0.28852982850065945
1920000000.0 -0.15154507437293963 0.28318562063134056
1940000000.0 0.31982973505541973 0.14249603714091577
1960000000.0 -0.18574385856994444 -0.33217590642608363
1980000000.0 0.05298140614162557 0.3946298781035066
2000000000.0 0.39959555748565123 -0.09342833177640586
2020000000.0 0.008725284657844857 -0.4176104957982312
2040000000.0 -0.3295930633901488 -0.2669425493247864
2060000000.0 -0.16801502379036615 0.38971405396717973
2080000000.0 0.35038661789263736 0.22341950334673788
2100000000.0 0.3947581829828632 -0.09259846155978282
2120000000.0 0.07816202752274584 -0.38364718002874476
2140000000.0 -0.19903720748021939 -0.314147243341266
2160000000.0 0.35039186073122147 -0.04819453307685165
2180000000.0 0.23996737488367811 -0.24211112694860906
2200000000.0 -0.1769706252821504 -0.2704531719245864
2220000000.0 -0.27373592083760645 -0.14334815602307174
2240000000.0 -0.2949453147746035 0.0729682575984901
2260000000.0 0.01569329089191146 0.2939532528109981
2280000000.0 0.14761852114283247 0.250735033001877
2300000000.0 0.2718812461728216 0.11669549996185186
2320000000.0 0.30918357594070706 -0.024289126768406017
2340000000.0 0.25846822733561486 -0.21838923480919498
2360000000.0 -0.31227009563476665 -0.2068637878210738
2380000000.0 0.18729283170565825 0.3773111192908806
2400000000.0 -0.17966124532571723 -0.4348104878334953
2420000000.0 0.21343870314049798 0.4757994844864922
2440000000.0 -0.39649634232825187 -0.41443539850765254
2460000000.0 0.5411756574647597 0.3054557217476795
2480000000.0 -0.616345450962809 -0.24625356725424244
2500000000.0 0.5987007368789835 0.3621868457684214
2520000000.0 -0.6203619730705593 -0.3782415257260074
2540000000.0 0.6246063727540113 0.40655018277850863
2560000000.0 -0.42204137910045014 -0.6283760486448313
2580000000.0 0.09000971275567651 0.7550369243641981
2600000000.0 0.2708938615870887 -0.7052392456531148
2620000000.0 -0.5261701947126934 0.5252829618837612
2640000000.0 0.390935265252843 0.6109475742118411
2660000000.0 -0.36662676264013067 -0.5953797798727815
2680000000.0 0.4419216585337445 0.5001123589695293
2700000000.0 -0.5558784905467357 -0.30162784790936004
2720000000.0 0.5851346883256555 -0.09443229234925796
2740000000.0 -0.4023050629941517 0.3775773871642966
2760000000.0 0.1620587184487933 -0.484711185710747
2780000000.0 -0.0036116619489490725 0.47392245415037343
2800000000.0 0.11307126817259558 -0.42854594312234184
2820000000.0 -0.29829206013404713 0.30168551920435394
2840000000.0 0.2788859421768978 -0.3084078506119302
2860000000.0 -0.14495266831541068 0.381596052562883
2880000000.0 0.24736608192525286 -0.3142560935094445
2900000000.0 -0.38324458230802944 -0.10226386678169662
2920000000.0 0.009288242796677587 0.39461806795101784
2940000000.0 0.3741459587050539 0.117264238488154
2960000000.0 0.36064757836562017 0.1348706118539302
2980000000.0 0.09423509254497864 0.3728196250785321
3000000000.0 -0.24906865605596246 0.295463105781305
3020000000.0 -0.3380964641866746 -0.17939538656630322
3040000000.0 0.29487309962971364 -0.23660227162386344
3060000000.0 -0.046307908346579 0.3694439517149553
3080000000.0 -0.07642225904931058 -0.3560923883675769
3100000000.0 0.15697444571667246 0.31894247723357433
3120000000.0 -0.336055396764401 -0.07944183272109609
3140000000.0 0.30766265140865695 -0.11930632478743058
3160000000.0 -0.1326162609016241 0.2809484073193822
3180000000.0 0.28597716960399344 -0.03855918753017106
3200000000.0 -0.20067632647688075 0.16854528119143136
3220000000.0 -0.025453618482287377 -0.23114986151154407
3240000000.0 0.12452138111140783 0.15649087747845625
3260000000.0 0.02084936035070794 -0.1646456546628635
3280000000.0 -0.13238071214101008 -0.02391819327493912
3300000000.0 -0.0010029416668840296 0.10430162350929359
3320000000.0 -0.04325754702689976 0.056015036582029935
3340000000.0 -0.03337375431426129 0.029797277195924312
3360000000.0 -0.032921786598064204 -0.009886480026451675
3380000000.0 -0.01806890996821422 -0.027841454494995827
3400000000.0 -0.03297511856503396 0.007568016908445608
3420000000.0 -0.01831976873499818 -0.022852627009343096
3440000000.0 -0.003755500088657957 0.014243683847921835
3460000000.0 -0.0031906312649396416 0.007052195312585866
3480000000.0 0.019519699081951176 0.007485475373868898
3500000000.0 -0.011319645563991242 -0.03313900736918026
3520000000.0 -0.03004937497790989 -0.033350996522578905
3540000000.0 -0.004425132141767276 0.05403980204315365
3560000000.0 0.02696335127275074 0.05485615976369417
3580000000.0 0.06276847956318234 0.02872467462641206
3600000000.0 0.07710003782635524 0.011146544702529203
3620000000.0 -0.07866170813447128 -0.045614261830739355
3640000000.0 -0.08980089100885187 -0.04395438464131676
3660000000.0 -0.08363288262284942 -0.06359339513022241
3680000000.0 0.09580186293675602 -0.04592003083591773
3700000000.0 0.03415765350607157 0.09829165939547631
3720000000.0 0.09638232164458366 -0.009815523146213903
3740000000.0 -0.08381202975196238 -0.03711469767241941
3760000000.0 0.050720195155880304 -0.08126425072041497
3780000000.0 -0.08767104358047102 -0.05627618188416133
3800000000.0 0.07938038627856835 -0.08266773046271778
3820000000.0 0.11512672155786036 0.05898406847792727
3840000000.0 0.13021390285548737 -0.05716170745041228
3860000000.0 -0.06783389520669904 -0.1425979293818798
3880000000.0 -0.013157217952535796 0.17700340502138517
3900000000.0 -0.0739927608126198 -0.1846270994258486
3920000000.0 -0.0631299855044776 -0.21142377647444824
3940000000.0 -0.23486395274280303 -0.004731278965559307
3960000000.0 -0.17567625448010962 0.16071357438508363
3980000000.0 -0.12564297158687546 0.1971607200242109
4000000000.0 0.06847223262859695 0.2167756963335945
