!Created with skrf (http://scikit-rf.org).
# Hz S RI R 50.0 
!freq ReS11 ImS11
400000000.0 -0.7674007302825943 0.2558046160646234
420000000.0 -0.7701005441904135 0.27804680010410004
440000000.0 -0.34672227584103094 0.6932445280840097
460000000.0 -0.6573719593589792 0.2949915830652114
480000000.0 0.5285788534957575 -0.40599549005509267
500000000.0 0.26480845104224826 -0.5870675307965508
520000000.0 0.5722137725804453 -0.008925714195997065
540000000.0 0.06638711868223568 0.5061990085877068
560000000.0 -0.42448687019321873 -0.19475445290699112
580000000.0 0.3710731454674881 0.1329842421798308
600000000.0 -0.15043054064154332 -0.3222112059865278
620000000.0 0.019734933960977395 -0.3538180395375128
640000000.0 0.3781538427594586 0.07484602190952525
660000000.0 -0.18860511265782598 0.377217357061639
680000000.0 0.430919956379341 -0.015314226191024688
700000000.0 0.02065042059811399 0.4241709942310567
720000000.0 0.12643459722886422 -0.3872200142202698
740000000.0 0.19595477409586476 -0.31601940410847523
760000000.0 0.2730109311348191 0.21302180747753635
780000000.0 0.14785998822734936 0.2898419282958709
800000000.0 0.20819633082353137 -0.20196551083242814
820000000.0 -0.21897935337234523 -0.0871000632172648
840000000.0 -0.18785727810653813 0.01226273942885825
860000000.0 0.13860735282915798 0.036437187553719545
880000000.0 0.053278031400305584 -0.10845019381820753
900000000.0 -0.06873680551596288 0.057775760932983276
920000000.0 0.07343235592543326 0.034799337947480954
940000000.0 -0.039887540815080204 0.05507691075850108
960000000.0 0.04420176626224668 -0.06220949066493277
980000000.0 -0.05531003370587455 0.06217187967205532
1000000000.0 -0.09677866081808831 -0.03321347087003684
1020000000.0 -0.11833236850473235 -0.0233160237114108
1040000000.0 -0.08693011075664493 -0.09911233263066724
1060000000.0 -0.15679940606262635 -0.012933912564069618
1080000000.0 0.17559321633932265 0.054225609476669906
1100000000.0 -0.21859046837023727 0.04316838995945824
1120000000.0 0.21953480362433783 0.10905838468628067
1140000000.0 -0.26948323909164773 -0.01593811106883256
1160000000.0 -0.003701920154913062 0.29316904531398863
1180000000.0 -0.2981106697818816 0.08859858825164713
1200000000.0 0.274332201061475 0.1814271139788274
1220000000.0 0.3359695365844501 -0.09369335579490574
1240000000.0 -0.043592359429730616 -0.37005861640628623
1260000000.0 -0.3635818101518763 -0.1330175923452238
1280000000.0 -0.40122244829578096 0.04507260763210359
1300000000.0 -0.07779029949906965 0.41186914401871727
1320000000.0 0.3618612341024654 0.23487949617245324
1340000000.0 0.14912520975527063 -0.40677595029921726
1360000000.0 -0.40259443454030974 -0.14918021448926988
1380000000.0 0.2126545019620454 0.35439109650549316
1400000000.0 0.36888524500559267 -0.1277734289191721
1420000000.0 -0.17853150033562348 -0.3137389246635239
1440000000.0 -0.20111710459331864 -0.26606154836640616
1460000000.0 -0.3106984726934147 -0.019659500475811085
1480000000.0 0.19292456704951036 0.20968868321360473
1500000000.0 0.24523594557017606 0.08078599711904726
1520000000.0 -0.22513557099141498 -0.011547990031668556
1540000000.0 0.07776000720539855 0.18541473735193487
1560000000.0 -0.16747024958508847 -0.04906032341054638
1580000000.0 0.11412070697021028 -0.09488747699808579
1600000000.0 0.059626547476359676 0.10039978205999187
1620000000.0 -0.009591995952225929 0.0881496434830885
1640000000.0 -0.036282591192371594 0.057099935245174656
1660000000.0 -0.046177051179082336 -0.03368524262686195
1680000000.0 -0.06117644510278753 -0.0343934055390525
1700000000.0 -0.09034719093527012 0.021677555447756992
1720000000.0 -0.10056431265299624 -0.050028500620942044
1740000000.0 -0.09585848972670855 -0.10119485072311676
1760000000.0 -0.11585790915061178 -0.11858326510434017
1780000000.0 0.10251061249939829 -0.17943800350585828
1800000000.0 0.00869857610317928 -0.25562372726637883
1820000000.0 -0.17784274152693505 0.25350393710165936
1840000000.0 -0.011884696282769017 -0.3607082043216594
1860000000.0 0.3626714672281026 0.19387057244727776
1880000000.0 -0.298321860236394 0.3434366579956528
1900000000.0 -0.27004627080785176 -0.4081446290723851
1920000000.0 0.48679986286079713 0.17342837045530596
1940000000.0 -0.5352875392866387 0.05794722614065034
1960000000.0 0.41693493085713296 -0.369208196590362
1980000000.0 -0.05595324796889566 0.5663295716019349
2000000000.0 -0.4275413979743057 -0.38216608621246817
2020000000.0 0.4838852611509794 -0.30136665216469744
2040000000.0 0.4112983174877957 0.3796658358103575
2060000000.0 -0.42697179977401245 -0.3328406828803097
2080000000.0 0.09266656147362766 -0.5118130629539247
2100000000.0 0.46921888490488084 -0.15966584663618477
2120000000.0 0.3440968302326181 0.3216012346908437
2140000000.0 -0.12047661230051873 0.43332565367814463
2160000000.0 -0.43227836713776324 -0.005211185677167015
2180000000.0 -0.10795715195040508 -0.40975630501973875
2200000000.0 0.33302297450252044 -0.25577328206914224
2220000000.0 0.19097667269436666 0.37109279255991945
2240000000.0 -0.3722019186108282 -0.1874862294034438
2260000000.0 0.32634781876695945 0.26018080074371097
2280000000.0 -0.07208161440558476 -0.41481233087149044
2300000000.0 -0.4057791099148129 0.13667612223081943
2320000000.0 0.08323245493752607 0.42750490675877373
2340000000.0 0.3968598359911422 0.18821700923362925
2360000000.0 0.4338140789368219 0.09147693064800522
2380000000.0 0.43357091347474047 -0.10999466426255962
2400000000.0 0.3342085774990059 -0.29581625762228214
2420000000.0 0.25249637561448085 -0.3576812403730691
2440000000.0 0.34003355620042947 -0.25535845743511637
2460000000.0 0.40949580774986394 -0.035408087632542655
2480000000.0 0.3117212019556613 0.234664456672805
2500000000.0 0.09093412472133984 0.3536325811023702
2520000000.0 -0.2965254431887877 0.1580225830499352
2540000000.0 0.3025575120732543 0.05877653948153741
2560000000.0 -0.06217946441679844 0.27320703354008363
2580000000.0 -0.05804382906932002 -0.24108670576059785
2600000000.0 -0.0488483892640166 0.214356727362571
2620000000.0 0.16199155165096343 0.11383731158812455
2640000000.0 -0.06096274817347942 -0.17480657146125733
2660000000.0 0.09299486445633513 0.1463415287407763
2680000000.0 -0.14889793754799974 0.07981706601810762
2700000000.0 0.07904303063207761 0.1435428637646071
2720000000.0 0.10499766343911392 -0.11811681792355415
2740000000.0 -0.13102965165373456 -0.08547532157217169
2760000000.0 0.10491123118938261 0.12251962092315326
2780000000.0 -0.1721295405240779 0.0014890035450242937
2800000000.0 -0.130215915192224 -0.13059995943423391
2820000000.0 0.19609357491112095 0.004868921514580874
2840000000.0 -0.19885021172799955 0.06653050715355953
2860000000.0 0.15069622896748838 0.16096335970441425
2880000000.0 0.19875103692899765 0.12574156835667205
2900000000.0 0.23507118745922112 0.08648645164262837
2920000000.0 0.2502949449292768 -0.08479564058785698
2940000000.0 0.2641296532202796 -0.06845098441562861
2960000000.0 0.13748722851109987 0.2390023013476826
2980000000.0 -0.28099451288842087 -0.006018116887518891
3000000000.0 -0.03310167487579022 -0.2830854120951999
3020000000.0 0.2306244384561565 0.15883172686358543
3040000000.0 -0.23665669095113398 -0.13877335934458918
3060000000.0 0.13744269662604677 0.22591520396599568
3080000000.0 0.1052117081007355 -0.2330321307507221
3100000000.0 -0.1936225853678887 0.14942052142505968
3120000000.0 0.2300449445438932 0.024602345049622627
3140000000.0 -0.19339408360776456 -0.0965488605196105
3160000000.0 -0.18291363009089187 0.07886924691719606
3180000000.0 0.08338708923756118 -0.1600149625681515
3200000000.0 0.13376273812866352 0.07774061903472881
3220000000.0 -0.022442677898587626 0.1195324029455036
3240000000.0 0.08022175672301822 0.034556974439398105
3260000000.0 0.034941282405159264 -0.04292814845936776
3280000000.0 -0.03237291026689138 0.0017977311633708794
3300000000.0 -0.020865101249544105 -0.02253075293140581
3320000000.0 -0.0344160632935595 0.01245781888414442
3340000000.0 0.009286227002711363 0.03583647505782431
3360000000.0 -0.03508025530266046 0.005390116432069802
3380000000.0 0.035295177254827254 0.004243002553259318
3400000000.0 -0.025046080093993048 0.028375752318028306
3420000000.0 -0.014525065760741427 -0.040500350651766596
3440000000.0 -0.020768211792195894 0.044762343319391336
3460000000.0 -0.04604458303824418 -0.026497094084124075
3480000000.0 -0.05701638164689947 0.005549829868107016
3500000000.0 0.018093112654551335 -0.06401896714471918
3520000000.0 0.074542327994452 -0.009008191492646643
3540000000.0 -0.08631779865234718 -0.0012991445200821882
3560000000.0 0.004392028207341233 -0.09372496512807046
3580000000.0 0.0861610816042674 -0.05089112269765502
3600000000.0 0.07230447059952637 -0.07390758177325564
3620000000.0 0.04331859827498345 -0.09202703211858931
3640000000.0 -0.04084371276964271 0.082092660868434
3660000000.0 -0.0010954841431074507 0.08439174167946775
3680000000.0 0.06299188686487142 -0.04526128937769048
3700000000.0 -0.07471399319599617 0.017516578074630123
3720000000.0 -0.07304059627149222 0.024269806392846108
3740000000.0 -0.025160136142516467 0.06495811765181136
3760000000.0 0.0628448129665807 0.007546025271392428
3780000000.0 0.024156134656165406 -0.06252131947817302
3800000000.0 -0.026550258386165287 0.0812576723941265
3820000000.0 -0.10018553153591046 0.042531968011345164
3840000000.0 0.09053216092058049 -0.08957500159926729
3860000000.0 0.1358802446813301 0.04429564744230635
3880000000.0 0.13590799207834772 0.07218412750871196
3900000000.0 0.13530480237366 0.07920542262798719
3920000000.0 -0.025650271923662513 0.14936258406365613
3940000000.0 0.1414615316734812 -0.038934376683077414
3960000000.0 0.1392406418301789 -0.03974292893956208
3980000000.0 0.1421369682627316 -0.041734555381502864
4000000000.0 0.032568204437556335 -0.14603752390289154
