!Created with skrf (http://scikit-rf.org).
# Hz S RI R 50.0 
!freq ReS11 ImS11
400000000.0 0.7040198862660396 -0.43475508688056275
420000000.0 -0.025896647796709662 -0.8306709243321364
440000000.0 -0.7281759708481204 -0.25254943655937967
460000000.0 -0.33278220071773357 -0.6241593744752991
480000000.0 -0.3081903581630734 0.5750984209216418
500000000.0 0.4903653025819012 0.4112632773697765
520000000.0 -0.4784211554365113 0.2948440393773623
540000000.0 -0.44621135899507736 -0.2652545941954228
560000000.0 -0.3054687040562847 -0.36468732788464625
580000000.0 -0.36207308972047264 0.21777108856766292
600000000.0 0.3607649321731277 -0.12968596128656965
620000000.0 0.3641874350273548 0.0653912585827522
640000000.0 -0.38694267059199805 -0.15430855187786022
660000000.0 0.23707509015629977 -0.37292796469315626
680000000.0 0.15374217611419713 -0.4220210714082197
700000000.0 0.2598347192602638 0.3662892004335156
720000000.0 -0.22006582343658654 -0.38593907812288325
740000000.0 -0.18362548130388306 0.350448555688555
760000000.0 0.35693097664711243 0.0037167560163465408
780000000.0 0.2146281145360457 0.2516657272834295
800000000.0 0.2857321476994504 0.056419966980727085
820000000.0 -0.1418788395030142 0.1798818649311958
840000000.0 0.07736226260892345 -0.17964854141772227
860000000.0 0.154166677796067 -0.08464307315086791
880000000.0 -0.12248535765633134 0.09528176946344433
900000000.0 -0.04511841109346781 0.1228390325334061
920000000.0 0.04101850736707963 -0.0906895495149926
940000000.0 -0.06721211737920049 -0.026087452361640305
960000000.0 0.06440778643357284 0.001873024500056926
980000000.0 -0.0381677993821707 0.07160576421189169
1000000000.0 0.06445329921082572 -0.02253263656362472
1020000000.0 0.059409428657244856 0.05506971827610925
1040000000.0 0.054824404266112445 -0.0882884959698869
1060000000.0 0.01948033184054204 -0.13337214010260076
1080000000.0 -0.010064001231572351 -0.19173049958201963
1100000000.0 -0.002130023233239663 -0.231900951150765
1120000000.0 -0.22553383317846382 -0.1377835211149916
1140000000.0 -0.2852842268150228 0.0699955604808862
1160000000.0 0.281220977644486 0.14058219771292443
1180000000.0 0.3186971280361298 -0.09246282522687044
1200000000.0 -0.32287968292580527 -0.09075880760832868
1220000000.0 -0.2276961115598859 -0.2811874163714507
1240000000.0 0.14917869458284713 0.357222059932987
1260000000.0 0.3938349773124934 0.08903081853682308
1280000000.0 0.019056227819031008 -0.42135898584262227
1300000000.0 -0.24526909619153767 -0.3447405481132643
1320000000.0 -0.2520785948610795 -0.35926655744010044
1340000000.0 -0.22915219638239784 0.37666263095905045
1360000000.0 0.17655244666680855 0.39815201347217627
1380000000.0 0.22936863694190643 0.34664708197109145
1400000000.0 0.009049480649598082 0.4085506652726292
1420000000.0 0.3965726506799564 -0.007522515822127675
1440000000.0 -0.12564505453036443 -0.35757830431464743
1460000000.0 -0.009634060265503102 0.34947883192109336
1480000000.0 0.2114096782301828 -0.23985980116290678
1500000000.0 0.20050723808251358 0.19433971839377373
1520000000.0 0.20151669316811968 0.10918087945244986
1540000000.0 0.031436766190976705 0.1874272108827218
1560000000.0 -0.058607380759521197 -0.151986083698019
1580000000.0 -0.1344041869520324 -0.06900785121742338
1600000000.0 -0.12739534264066227 0.02525697767691899
1620000000.0 -0.06982844411261585 0.0773698029781183
1640000000.0 0.06641467178134736 0.03527657154191423
1660000000.0 -0.009823181295081918 0.03295369754680047
1680000000.0 -0.0026780247031422824 -0.003819613636415501
1700000000.0 -0.03440743630657606 0.008828629981640532
1720000000.0 0.04309495690041001 -0.03604074738439162
1740000000.0 -0.057632451726235705 -0.029643089628766515
1760000000.0 0.05343396570752181 -0.049294556461694033
1780000000.0 0.006554799284531194 -0.08056456720101159
1800000000.0 -0.0682951353610427 0.09136679616078154
1820000000.0 -0.14990171256889168 -0.06535179821763153
1840000000.0 -0.17178755341152338 -0.14399645577365602
1860000000.0 0.271280561639436 0.04636139774884013
1880000000.0 0.028193784419562926 -0.30457183247340236
1900000000.0 0.2491649137956509 -0.20185619697749124
1920000000.0 -0.2191413401662397 -0.24419969392874577
1940000000.0 0.11187190995563648 -0.3313047426290727
1960000000.0 -0.1669267135352669 -0.3414650847115272
1980000000.0 -0.353734940982282 0.20090214039478768
2000000000.0 0.38024146825338695 0.1961911562737352
2020000000.0 -0.21955145469043194 -0.3794097090419049
2040000000.0 -0.23505372875923655 0.36739798567834997
2060000000.0 0.36371319538413205 0.22268301481603914
2080000000.0 0.3963636930590627 0.11423934018666147
2100000000.0 0.39753634308592295 0.058127739969113794
2120000000.0 0.3884546154278254 0.059149493016992835
2140000000.0 0.2064802033019579 -0.32799142899473066
2160000000.0 -0.08648532438922962 -0.3589613351271622
2180000000.0 -0.3271397275322024 0.09712960907351617
2200000000.0 -0.23144384452206543 0.21313830463249933
2220000000.0 -0.1022889453857502 -0.277998613863033
2240000000.0 0.2223493039482764 -0.1986110783715106
2260000000.0 0.17627581148570534 -0.24450296402374813
2280000000.0 -0.20000349794875524 -0.24032875016505512
2300000000.0 -0.037101638180022635 0.32215152242192513
2320000000.0 0.3298254823748176 -0.09188576219715937
2340000000.0 -0.2524201757687715 -0.26773293128060655
2360000000.0 -0.18777115563385466 0.35797611771618715
2380000000.0 0.39182497419264767 -0.22297308457011075
2400000000.0 -0.4194390782242072 0.2788430200499216
2420000000.0 0.15735690640896138 -0.5358568824218187
2440000000.0 0.34294452727957947 0.5045259790710624
2460000000.0 -0.6390178155656989 -0.14551812367194827
2480000000.0 0.6229635563187214 -0.30499421395581305
2500000000.0 -0.5488951879243388 0.4692601599340679
2520000000.0 0.547018285903162 -0.5024328309984044
2540000000.0 -0.6647584252854912 0.35843781093872623
2560000000.0 0.7565783980619811 -0.07965455364028338
2580000000.0 -0.6415638937960991 -0.40391881504319677
2600000000.0 0.35564090216743516 0.6566988201906134
2620000000.0 -0.03352279864969602 -0.7287609277372215
2640000000.0 -0.6358715205676518 -0.3013721817500589
2660000000.0 0.5721952196477855 0.35127940652419404
2680000000.0 -0.4656896980650226 -0.4321914030355324
2700000000.0 0.44827176267548047 0.39868037172861187
2720000000.0 -0.5328940287762057 -0.18071341922416811
2740000000.0 0.48527829444886317 -0.19553606027254639
2760000000.0 -0.2679196986330906 0.4017223081350045
2780000000.0 0.20937265276610206 -0.3961254837245947
2800000000.0 -0.34290042042830693 0.24562520946891625
2820000000.0 0.4059221680333757 -0.028798361674518158
2840000000.0 -0.3986021854882523 0.0037645361157304658
2860000000.0 0.3868820426940947 0.07132701715374025
2880000000.0 -0.3236027757417267 -0.21289655714617653
2900000000.0 -0.116422592833381 0.36531884365376627
2920000000.0 0.28652588610429863 0.25603387969613733
2940000000.0 0.3278413576345163 -0.20301348933853197
2960000000.0 0.2055736448885684 -0.3232086828676903
2980000000.0 0.22595860863800127 -0.3045001054007171
3000000000.0 0.34999058503139796 0.14150528354879918
3020000000.0 -0.04539141781306383 0.37414067351745495
3040000000.0 -0.36310710408664487 0.0745185830228014
3060000000.0 0.10694802867016279 -0.3429563771789879
3080000000.0 -0.11625052864355767 0.3249857412514297
3100000000.0 0.3176761988535047 -0.10037558008951727
3120000000.0 -0.3232314844769909 -0.05034927542387501
3140000000.0 0.27241050105443254 -0.16902873235277374
3160000000.0 0.2649986697418301 0.1550569646389358
3180000000.0 -0.19762585450236003 0.19605955193099592
3200000000.0 -0.09816843652310416 -0.2169335074443737
3220000000.0 -0.19994929740401177 0.00878745085359384
3240000000.0 -0.1577666643506979 0.06554866303246329
3260000000.0 -0.1185710996063515 -0.0843722632722164
3280000000.0 -0.02606029939895401 0.11707599793743027
3300000000.0 0.07017817271694797 0.051247590309077246
3320000000.0 0.053633469303832115 -0.007497722886605037
3340000000.0 -0.042642670368103826 0.008533611548095899
3360000000.0 0.04620643990729891 0.004260422725703131
3380000000.0 0.045979349944976336 0.012911456766053065
3400000000.0 0.03853075137109683 0.016294866064658266
3420000000.0 -0.017883094574657626 0.025570903633462067
3440000000.0 -0.015283580429372615 -0.014018363118728954
3460000000.0 -0.011585715532696106 -0.00603600237881267
3480000000.0 -0.022283877128604714 -0.0008631767277392402
3500000000.0 -0.011996915754660123 0.028152809838833885
3520000000.0 -0.028035593841625506 -0.01906834687445151
3540000000.0 -0.04176913878037126 -0.01483497804028202
3560000000.0 0.04642499022970826 0.024739686053066316
3580000000.0 0.06010299428301541 -0.02859132571273775
3600000000.0 0.06397064033592625 0.04687164675825875
3620000000.0 0.07530968370860164 0.04635273410802798
3640000000.0 0.030469303121706464 0.0851318059173542
3660000000.0 0.07419707826453209 0.05117182680071392
3680000000.0 0.045214679977691394 0.07994259152322514
3700000000.0 0.046979850147665675 0.08357855443002202
3720000000.0 0.020019192896517643 -0.09891001123854856
3740000000.0 -0.017863777772007806 0.09900333236820696
3760000000.0 0.04286481651744437 -0.08794666475329843
3780000000.0 0.09389819272665623 0.03675525006504352
3800000000.0 0.09263373072650542 0.07361658833905695
3820000000.0 0.14102935060746358 -0.012530895705611576
3840000000.0 -0.1548643480635775 0.042659466089152304
3860000000.0 -0.04620904579044083 -0.17234355486016872
3880000000.0 0.02460693348792301 -0.19182356063530723
3900000000.0 -0.10549775190387685 -0.17268011011704315
3920000000.0 -0.08307152267321387 -0.1851684565923712
3940000000.0 0.18483609490395103 -0.08287423259697337
3960000000.0 -0.16169158248360518 0.12391191216834457
3980000000.0 -0.09385157632269166 -0.1859296457063119
4000000000.0 -0.09372510824577428 -0.18443593048871387
