!Created with skrf (http://scikit-rf.org).
# Hz S RI R 50.0 
!freq ReS11 ImS11
400000000.0 0.7625212563275243 -0.30679868074805716
420000000.0 0.4368262908529446 -0.703254140440333
440000000.0 -0.524126033240886 -0.5691330319270432
460000000.0 -0.06076391914116295 -0.7109884692780046
480000000.0 -0.1711499890879246 0.6384971737402914
500000000.0 0.48751839250656237 0.41789120046378453
520000000.0 -0.07686412057615491 0.5697644080686529
540000000.0 -0.2791486457130024 0.43008712936484444
560000000.0 -0.4051169449042171 -0.23059128314553912
580000000.0 -0.3947317717042144 0.14107697280379564
600000000.0 0.358681135559028 -0.11474428592705707
620000000.0 0.3457933839831129 0.1443903348530159
640000000.0 -0.17040046348482768 -0.3688460032456292
660000000.0 0.4053025161211636 0.18508858681844118
680000000.0 0.18338983557165947 -0.4197090586297996
700000000.0 0.4517268472952405 0.06885752869202297
720000000.0 -0.44059782246286067 -0.008439640353666525
740000000.0 -0.112071932697365 0.38013734564650103
760000000.0 0.028869781178744756 -0.35016221450561263
780000000.0 0.2834250197020496 0.15229046020156586
800000000.0 -0.2717673916455621 -0.06205156026060177
820000000.0 0.015584679867659063 -0.24546245753666626
840000000.0 -0.19474984395485104 -0.06286820387011675
860000000.0 -0.12712499588456913 0.13045168478263625
880000000.0 -0.09347409857203039 -0.10778251833580396
900000000.0 -0.03559974942229606 0.1119112435901408
920000000.0 0.07348328127081058 0.02406482338562176
940000000.0 0.050609972921485766 -0.004588304445638931
960000000.0 0.046678592162031296 -0.038941944251125495
980000000.0 0.055103326481021384 -0.04351756762701724
1000000000.0 -0.07402855604888771 0.014861613309103471
1020000000.0 0.07952029592611937 0.06805874438877824
1040000000.0 0.04741193249970037 0.11166231698814894
1060000000.0 0.026827840009772765 0.15870578190477125
1080000000.0 -0.10570428755811362 -0.17220113317400262
1100000000.0 0.0682055842260106 0.22211665843400194
1120000000.0 0.2558978899162713 -0.05360634062742206
1140000000.0 0.08057092278306986 0.2653336213549936
1160000000.0 -0.030398215323189936 0.29864646675302525
1180000000.0 -0.19036070525207058 0.27030348103471286
1200000000.0 0.08452009654525994 -0.33486594053609575
1220000000.0 -0.2852693042440036 0.2409634741099384
1240000000.0 0.3396090779749183 -0.17391310379273497
1260000000.0 0.3886938460568542 -0.023088355861002174
1280000000.0 0.407827105804666 0.05259700645712456
1300000000.0 0.4082013270852864 -0.1270867771537647
1320000000.0 -0.05756686756790123 -0.44300403700841773
1340000000.0 -0.4317423295787106 0.11856885130309924
1360000000.0 0.30993168885494204 0.3227771354284926
1380000000.0 0.38941207344998735 -0.1626611970261336
1400000000.0 0.4043168128411233 -0.03912955555556024
1420000000.0 0.10906549478328957 -0.37203465712028033
1440000000.0 0.029478712278738307 -0.3650848985517457
1460000000.0 -0.3268189418975411 0.11414973984770455
1480000000.0 0.31635475099675553 0.018688978661747447
1500000000.0 -0.28131001263584354 0.002941001801625508
1520000000.0 -0.06930873978722657 0.23141052804168094
1540000000.0 0.13812174694680784 -0.14952053021320355
1560000000.0 0.06389433596703661 -0.15090662980347808
1580000000.0 0.13586836977540387 0.006514033944742019
1600000000.0 0.06860153934208305 0.09260654269202358
1620000000.0 -0.05537659884934732 -0.0819693564402526
1640000000.0 0.07741407160150383 -0.01500390140729107
1660000000.0 0.006608544386314274 0.04597019975090377
1680000000.0 0.010581026208564463 -0.014523822522804332
1700000000.0 0.006803671915430165 0.017500929120005025
1720000000.0 0.019646798681136668 -0.03031194029289162
1740000000.0 0.05833017743684362 -0.002398649369637002
1760000000.0 0.037902069233648764 -0.07326533862991493
1780000000.0 0.10084546134298449 -0.03970063175050772
1800000000.0 -0.06780850921317075 0.12187162022707031
1820000000.0 0.03996158339326417 -0.16675730872117994
1840000000.0 -0.20023955627876708 -0.0027877864187978696
1860000000.0 0.21540131629597736 0.11551134465412287
1880000000.0 -0.15371635427830002 0.24011728842335178
1900000000.0 -0.12995687938436948 -0.2919520561757165
1920000000.0 0.30351047465029257 0.16857571787695122
1940000000.0 -0.06341017789758166 -0.36492065232486104
1960000000.0 -0.17477736960684317 0.34973237335266905
1980000000.0 0.3805264233057903 0.13279075744536428
2000000000.0 0.3388672297865763 -0.2420083949893835
2020000000.0 -0.08911820962709188 -0.41568047481989395
2040000000.0 -0.38502134987825 -0.19107153560493115
2060000000.0 -0.22674065422827833 0.3664990530978141
2080000000.0 0.3225682989541781 0.2768054004899852
2100000000.0 0.25182390730160265 -0.32859062859456145
2120000000.0 -0.21385095229945725 -0.3300531422673498
2140000000.0 -0.24957823390368164 -0.2809682881843565
2160000000.0 0.14581204886827442 -0.3256705154408275
2180000000.0 0.056806449713244556 -0.3325143399540887
2200000000.0 -0.07439854598139299 -0.310891997377973
2220000000.0 0.06230706931519311 -0.3014762195302828
2240000000.0 -0.07876626648625758 -0.2964526835693816
2260000000.0 -0.3043836244386234 -0.01565886993868548
2280000000.0 -0.16493666201475432 0.256917967430516
2300000000.0 -0.027659453280164444 0.30954367186858617
2320000000.0 -0.04056659184662733 0.33247940714092195
2340000000.0 0.30330862007565546 -0.21708875893241383
2360000000.0 -0.28429853552980294 0.30077520532977414
2380000000.0 0.13227149615429262 -0.43694570362978363
2400000000.0 -0.18431679929565473 0.4673199314323945
2420000000.0 0.09908112545215707 -0.5464420586782884
2440000000.0 0.24109919164643148 0.5578962999868511
2460000000.0 -0.6176269251181082 -0.21965995208138706
2480000000.0 0.6532723715998445 -0.23641139784260407
2500000000.0 -0.5885730036232004 0.42230001805632794
2520000000.0 0.5234788629031706 -0.5316238264971956
2540000000.0 -0.6279424570995108 0.4247289570118985
2560000000.0 0.7616049809528807 -0.06347463755607538
2580000000.0 -0.6652118208574183 -0.37020269050880655
2600000000.0 0.31180085008293296 0.6820012695440011
2620000000.0 -0.03399555955456358 -0.7322660563513914
2640000000.0 -0.644956462273355 -0.2916831473805732
2660000000.0 0.5692709631471615 0.3628143064060856
2680000000.0 -0.5181379562507376 -0.3721541532745394
2700000000.0 0.479966937046431 0.3599218035904106
2720000000.0 -0.5196936797624472 -0.21216475799116244
2740000000.0 0.5196460647329492 -0.06224217569764048
2760000000.0 -0.38340691075894684 0.29708425587821896
2780000000.0 0.22179411090231133 -0.3936026096149903
2800000000.0 -0.2792739244278041 0.31962733042002855
2820000000.0 0.3698076914229894 -0.1692691188440511
2840000000.0 -0.3968835586852829 -0.01230274590677035
2860000000.0 0.37194317379182956 0.12806330963202328
2880000000.0 -0.3045254411666831 -0.24174479962816756
2900000000.0 -0.1759608566043679 0.3438212680896921
2920000000.0 0.3557133464434079 0.15669744149770443
2940000000.0 0.2259196337850319 -0.3138178035679415
2960000000.0 0.1969455685726 -0.3278452712875343
2980000000.0 0.3696424909505316 -0.08950029962789405
3000000000.0 0.31791401546106335 0.21489914218745268
3020000000.0 0.1565233009150096 0.3447636196288339
3040000000.0 -0.3630031154009324 0.07051676142604867
3060000000.0 0.28920341987192105 -0.21082768583954875
3080000000.0 -0.3291790465866142 0.11066470564454685
3100000000.0 0.3321151635755945 0.0570072049643357
3120000000.0 -0.3263083690162518 -0.04002195055370975
3140000000.0 0.2494927759358428 -0.19684163246422337
3160000000.0 0.09727266251648703 0.28539855206095854
3180000000.0 -0.15728172130741686 -0.23084303880709814
3200000000.0 0.023409420168975723 -0.2448957670164578
3220000000.0 0.1317158542609873 0.15390071229353763
3240000000.0 0.1500324261702083 0.06470498896685446
3260000000.0 -0.13275422400015277 -0.0033257086134699577
3280000000.0 0.10857672713160489 0.00293198764997052
3300000000.0 -0.0859973340334004 0.022003854295112948
3320000000.0 0.04511317220804448 0.04741866572825448
3340000000.0 -0.041453809124084154 0.013404823549939658
3360000000.0 0.03403920532236287 0.019301127397188988
3380000000.0 0.03489048804604973 0.025462669298212063
3400000000.0 0.04091281697616247 0.01235267586968915
3420000000.0 0.028349613931044185 -0.01671571480971508
3440000000.0 0.0026950934882181703 0.02152982182472191
3460000000.0 0.00563400892907104 -0.015252601214429905
3480000000.0 -0.007297570705442026 -0.017726965853833074
3500000000.0 0.021420788071194272 0.017368975198509058
3520000000.0 0.028885800681465745 -0.012929712869646445
3540000000.0 0.043557238938603346 -0.004020259935492536
3560000000.0 -0.010739512081208519 -0.05301269653961822
3580000000.0 -0.054404713737441296 -0.0359407937859002
3600000000.0 -0.07006062779463769 -0.03492036522328774
3620000000.0 -0.08250500293315241 0.0018835692942423992
3640000000.0 -0.07961469994944861 0.023742579057338738
3660000000.0 0.008474996270490821 0.08846049888671441
3680000000.0 0.0774293536139264 0.04856234473164179
3700000000.0 0.09269840914829496 -0.0040115749197878825
3720000000.0 -0.08131981295265601 -0.052620341288941205
3740000000.0 -0.08918283316171277 0.01617603188310837
3760000000.0 -0.05534125884533225 -0.07413666921320582
3780000000.0 0.04803470307607349 -0.09143365192394239
3800000000.0 -0.011471158574956324 0.1228322375006859
3820000000.0 0.14515862191788095 0.004782340665748762
3840000000.0 -0.12002332357198334 0.10629463675929927
3860000000.0 0.05834285895389007 -0.1621522983367438
3880000000.0 0.020097675466096695 0.1851285120835665
3900000000.0 -0.19942899640545264 -0.011479733257336859
3920000000.0 -0.20893487547033393 -0.0062282557279063865
3940000000.0 -0.21234833964270355 0.027212450211197427
3960000000.0 -0.21466697122933626 0.015202490644962733
3980000000.0 -0.20873937012155325 -0.03320691775943085
4000000000.0 -0.11376345762121955 -0.16604925238012808
