!Created with skrf (http://scikit-rf.org).
# Hz S RI R 50.0 
!freq ReS11 ImS11
400000000.0 0.5615983359866399 -0.5993438240115193
420000000.0 -0.46557329617586335 -0.6784980951927096
440000000.0 -0.7336113804349991 0.20549107714817794
460000000.0 -0.6832294792629494 -0.20244039922554644
480000000.0 0.37766144388459183 -0.5270291404332843
500000000.0 0.05849569931207068 -0.6258147013838797
520000000.0 0.3405201133317833 -0.4436352414950965
540000000.0 0.3195781682999213 0.38117796835346096
560000000.0 -0.33941815709139794 -0.33567149017924247
580000000.0 0.42112579693109514 -0.12466872379860734
600000000.0 -0.1419438639663136 0.371755258273987
620000000.0 -0.36964287017471953 0.08625655371638988
640000000.0 -0.026861905530714582 0.4086685478477223
660000000.0 0.32391899243123196 -0.30521804887021386
680000000.0 -0.2781469573887356 -0.3517810339267835
700000000.0 0.20928891316486317 0.3840087960107415
720000000.0 0.40603361248990716 -0.13092036771492818
740000000.0 0.1422672355634061 0.36764075752934033
760000000.0 -0.36598998834720786 -0.04269000046448289
780000000.0 0.32117080455527464 -0.12002501279614279
800000000.0 0.1374823247166168 0.28708701871504083
820000000.0 -0.1237574923319331 -0.25530408534721444
840000000.0 0.19182541513859677 0.09061927316434498
860000000.0 0.010521052710211608 -0.18920053503695222
880000000.0 -0.06553040975049736 0.13113923346276013
900000000.0 -0.026587701070950105 0.11661724480098268
920000000.0 0.026785482610215905 0.06938312515885861
940000000.0 -0.025639909108819702 0.008201807169186412
960000000.0 -0.015306901678402669 0.027781156606322556
980000000.0 0.012926839040572626 0.040734093544777264
1000000000.0 -0.04098362972596108 0.04479557130836704
1020000000.0 0.06627348966163796 0.05283837869165804
1040000000.0 -0.10237727220399222 0.017067898626538004
1060000000.0 0.1389446389782371 -0.0001222751271799808
1080000000.0 0.17567283553361143 0.015533555386733806
1100000000.0 0.02509038626477239 0.20984768672947846
1120000000.0 0.07057052029909765 0.24355311121449394
1140000000.0 -0.2759004495618633 0.0560200287261396
1160000000.0 0.16326216718983338 0.25706243925524014
1180000000.0 -0.2821795995819597 0.15771714839656634
1200000000.0 0.33561183112124937 -0.05895647632227696
1220000000.0 0.20223315205909956 -0.30314432180497564
1240000000.0 -0.38361304625193915 0.05623115997682363
1260000000.0 -0.006780212950853194 0.4027032168627096
1280000000.0 0.4140669946466769 -0.02855765788860353
1300000000.0 0.27876024883319755 -0.310475920909141
1320000000.0 0.2407740940423835 -0.3459191592860538
1340000000.0 0.04059911564463915 -0.4277176042029774
1360000000.0 -0.2936246098370954 0.30137068300318565
1380000000.0 -0.3982373394418453 0.002266754059192776
1400000000.0 -0.3136802594930784 0.2262651335222974
1420000000.0 -0.18415928754350555 0.31858906323881714
1440000000.0 0.2622840278286798 0.23610208026054874
1460000000.0 -0.2358082976705026 -0.225295141205685
1480000000.0 0.08319057296862264 0.2763160011906767
1500000000.0 0.15527909059169892 -0.19122336924828046
1520000000.0 0.20798308649790953 -0.051756230453684084
1540000000.0 -0.011134521130592774 0.17853333924708017
1560000000.0 -0.048779103523460016 0.12742597729329672
1580000000.0 -0.07103811828046704 -0.08175994359924024
1600000000.0 0.0865067455688928 0.01478733259908857
1620000000.0 0.06877202891612415 -0.0006525463312555188
1640000000.0 0.03355655000638869 -0.015859132360365402
1660000000.0 0.012664189985660601 0.0055520913837425944
1680000000.0 -0.0035928476409206227 0.018478511897300195
1700000000.0 0.015004357365021126 0.040612526306265426
1720000000.0 -0.0653705250581401 0.0097591728013404
1740000000.0 -0.08108798744622599 0.021794134464466364
1760000000.0 -0.10389892061278218 0.02855347860392149
1780000000.0 0.11489896730064085 0.07876300317454771
1800000000.0 0.17092336014417925 0.009057570665552694
1820000000.0 -0.0872336687972059 0.1803663703211985
1840000000.0 0.16235852920449528 -0.1721085926315215
1860000000.0 0.27038918759688724 -0.047450219296791545
1880000000.0 -0.20011435931494476 0.23685106545999884
1900000000.0 0.04083284258477319 -0.33542277506056
1920000000.0 -0.2433096906883492 0.28140657048490314
1940000000.0 0.29661998683616314 -0.26986550779295226
1960000000.0 -0.3884133619845887 0.164666591623616
1980000000.0 0.3914639386926689 0.19953048700834317
2000000000.0 -0.0777834245528837 -0.44094084951471174
2020000000.0 -0.35486847752064693 -0.2834131670737567
2040000000.0 -0.4098814457772926 0.21157996804759
2060000000.0 0.28083284627135974 0.3691684022715875
2080000000.0 0.27136643575338726 -0.3651797584051207
2100000000.0 -0.23191018358991014 -0.37381654422354793
2120000000.0 -0.4068768405388458 -0.12654280436987653
2140000000.0 -0.3303749837711442 -0.24790576316467264
2160000000.0 -0.2604365813292567 0.2901477362124505
2180000000.0 -0.04725589979661789 0.3632828910468972
2200000000.0 0.1392626855761318 0.3218841724959779
2220000000.0 0.332672764441033 0.05960123840109962
2240000000.0 -0.027900481209463975 -0.3291008127201666
2260000000.0 -0.28601357071581507 -0.1368878736883498
2280000000.0 -0.301138556683254 -0.10000578922754959
2300000000.0 0.0026371086509300473 0.3264577181401501
2320000000.0 0.3371788678361324 0.01340926960355768
2340000000.0 0.1803334751198388 -0.31076464450585645
2360000000.0 -0.3012662741005543 -0.24740811537437365
2380000000.0 -0.16796219700923548 0.4011030408844633
2400000000.0 0.2809693660023799 -0.3909146771248669
2420000000.0 -0.47058741598502835 0.2425108285875776
2440000000.0 0.5685785766301514 -0.12931898128237046
2460000000.0 -0.5559943848165722 0.29986404122512494
2480000000.0 0.5493941377024247 -0.3886109526535651
2500000000.0 -0.6491342779494599 0.27813113828107244
2520000000.0 0.7133479560458612 -0.15714181774944447
2540000000.0 -0.745673787438372 -0.014823693645076266
2560000000.0 0.604200191483956 0.4515552577263886
2580000000.0 -0.1705543143930054 -0.7339813777541397
2600000000.0 -0.38285885494041044 0.6380270174955375
2620000000.0 0.6656060594338719 -0.29686888070965894
2640000000.0 0.1329526153366003 -0.694641710812826
2660000000.0 -0.4013984547139333 0.5477202215937301
2680000000.0 0.4672033766339396 -0.44867648069107746
2700000000.0 -0.42679876775032133 0.44253377777222175
2720000000.0 0.19353518134790804 -0.5461541451422458
2740000000.0 0.03951138063201081 0.5436944502141018
2760000000.0 -0.39416374346363464 -0.3268737239616975
2780000000.0 0.48471378210531485 -0.008942177957844907
2800000000.0 -0.36733862307781046 0.2843795887521828
2820000000.0 0.08198308231574214 -0.4411735106815783
2840000000.0 0.10749964216260845 0.4264781121178185
2860000000.0 -0.30657444765492814 -0.308684404446265
2880000000.0 0.3452071489143873 0.25537223608991294
2900000000.0 -0.09747947330768583 -0.4142612874473253
2920000000.0 -0.32633874900269866 0.27052254704966955
2940000000.0 0.3149883026823462 0.27948702352841115
2960000000.0 0.4051809604195723 -0.07728718251066581
2980000000.0 0.40104788111901446 0.04821564190638768
3000000000.0 0.18606193506566612 0.35385729694199647
3020000000.0 -0.2704286513816372 0.2822215111317414
3040000000.0 -0.32557636717382954 -0.19814916618323686
3060000000.0 0.2584575405925231 -0.26392335408430534
3080000000.0 -0.01761649051377305 0.35309302464061315
3100000000.0 -0.15790604337882627 -0.29520841322561947
3120000000.0 0.2875189619030623 0.13062382364461453
3140000000.0 -0.27759672595449886 0.10317315689961425
3160000000.0 0.262497611292002 0.053793762890151045
3180000000.0 -0.1793549459158875 0.15426062862758716
3200000000.0 0.13743734084608666 -0.14555687403351056
3220000000.0 -0.15740916142405628 -0.04727007113173453
3240000000.0 -0.12399202148895394 0.02709819321196635
3260000000.0 -0.03330486443680275 0.08511658533872465
3280000000.0 -0.016950471559694313 -0.06500172193842957
3300000000.0 -0.05138077634590555 -0.02662616390219646
3320000000.0 0.0034960913214278403 0.05294068674974953
3340000000.0 -0.037748423938067474 -0.05391529398634095
3360000000.0 0.06744911165204992 0.029442162361954155
3380000000.0 -0.06359811402621107 -0.04544692944363645
3400000000.0 -0.06211537756029695 0.04967604948457333
3420000000.0 0.0767194344472762 -0.004945395019232274
3440000000.0 0.06416838453757712 -0.021309987896404002
3460000000.0 -0.04532580664516955 0.028393847874636977
3480000000.0 0.02006057740383462 0.029246576085123755
3500000000.0 -0.016396341261879898 -0.010014803876195947
3520000000.0 0.011205365837631496 -0.011919820877625036
3540000000.0 -0.031055936347786008 0.005185382092552327
3560000000.0 -0.04252819901208932 -0.025519862092390815
3580000000.0 -0.0636438502380915 -0.011032714496358117
3600000000.0 -0.04314115970145555 0.07118388820507886
3620000000.0 0.04058525311901655 -0.09208609322061803
3640000000.0 -0.08682710852529116 -0.07616052244498238
3660000000.0 -0.0988785354722325 0.08368442755371834
3680000000.0 -0.03375771204011912 0.13441125353351882
3700000000.0 0.006046283240177147 0.14552441060473456
3720000000.0 0.02104868475730647 0.14643442140429086
3740000000.0 -0.14726475736200986 0.019832002742589807
3760000000.0 0.058128128279003134 0.14176406809220266
3780000000.0 -0.07873232412711263 -0.13645696505253946
3800000000.0 0.015592779286350956 0.157363851777757
3820000000.0 0.09826827451353942 -0.13194886534076808
3840000000.0 0.053733382588826456 0.15633970691294147
3860000000.0 0.07733685889345536 -0.14642031319891805
3880000000.0 -0.10482200299706879 0.13062500867103205
3900000000.0 0.13955135557591186 0.08706018655987363
3920000000.0 -0.011075910863184726 -0.16353005378587332
3940000000.0 -0.03290629773617151 0.15763319443408
3960000000.0 0.1338291530260369 -0.07693646999019564
3980000000.0 0.04511096149633348 -0.1445526554376164
4000000000.0 -0.1475146764125443 0.016924189422801172
