!Created with skrf (http://scikit-rf.org).
# Hz S RI R 50.0 
!freq ReS11 ImS11
400000000.0 -0.19037152672344515 0.8025901052017367
420000000.0 0.6533467796948192 0.516184190416357
440000000.0 0.7573006475129711 -0.18131949927669974
460000000.0 0.6840300672738384 0.2669881251959602
480000000.0 -0.5559872465807917 0.36882612477818255
500000000.0 -0.596118077507582 0.2568996395682828
520000000.0 -0.3701654004881862 0.46341859740806335
540000000.0 -0.32637816237962924 0.40804694044748496
560000000.0 -0.35362540198361875 -0.32469366224215246
580000000.0 0.3959390009629472 0.11980475679761171
600000000.0 -0.12676116538359242 -0.33989861456879555
620000000.0 0.21898701144944868 -0.3011085091480098
640000000.0 0.2679891802910319 0.28851693268242096
660000000.0 0.11578571219102256 -0.403538429444049
680000000.0 -0.03539080054027941 -0.42942270802907
700000000.0 0.10367220939925904 0.41067540096840893
720000000.0 -0.14739913964018558 0.3861865527289912
740000000.0 -0.33219871994326605 -0.22758301275102
760000000.0 -0.31010030326039634 -0.24690067587557102
780000000.0 -0.23324181193072008 0.28660834284713166
800000000.0 0.31188820078830154 -0.08474809679088494
820000000.0 0.1509426008048722 0.2041600757072721
840000000.0 0.08091794714056477 -0.20798006958970439
860000000.0 0.1201099422677936 -0.12231807810094408
880000000.0 -0.0939574928990221 0.1081377879838263
900000000.0 -0.01710277878104432 0.11413546606696258
920000000.0 -0.09454001359787823 -0.0017089081625133948
940000000.0 0.05506810779139848 -0.0383978613637329
960000000.0 -0.05723814070422777 -0.03503177156779747
980000000.0 0.04478953495394765 -0.07285321144416208
1000000000.0 0.0874925502674452 0.00989714920126926
1020000000.0 0.06927462064834486 -0.06618937861764437
1040000000.0 -0.10652217508360891 -0.03247432618732367
1060000000.0 0.0933797977963457 0.10281827179714322
1080000000.0 -0.15885170399377618 0.03154018552522417
1100000000.0 0.1913871836288215 0.03585002924392167
1120000000.0 -0.035411100175942664 0.2400767655780856
1140000000.0 0.28108956502750504 0.02589873895041064
1160000000.0 -0.2983278377537714 0.0785740689960372
1180000000.0 -0.17196067702797055 0.2800862955136869
1200000000.0 -0.19132485410992997 -0.2791757009835742
1220000000.0 0.002165820044621968 -0.3550866591581999
1240000000.0 -0.37402358240162953 0.08688423970964648
1260000000.0 -0.22941251547455369 0.33405382485421187
1280000000.0 0.41689297453504015 0.08455058129105311
1300000000.0 0.23795082693020062 -0.3602319324469418
1320000000.0 0.29590265707168667 -0.3333038788515723
1340000000.0 -0.361933595406705 -0.26962542219314567
1360000000.0 -0.36489848992727364 0.26480214175730793
1380000000.0 -0.037618690407859576 0.4320307613361231
1400000000.0 0.16126623910214352 0.39023923411016453
1420000000.0 0.4020490108490036 -0.04147174198895564
1440000000.0 0.2221802322588082 -0.31280630512724505
1460000000.0 -0.3248856074351888 -0.1546903049325354
1480000000.0 -0.09362179919401638 0.31820362467454344
1500000000.0 0.26993858930738424 -0.13395277515990445
1520000000.0 0.11119996852297691 -0.24486982132507665
1540000000.0 -0.020274327507990006 0.2381841264819386
1560000000.0 0.14773390632652442 -0.1440622903773574
1580000000.0 -0.06612052229093619 0.1666532793835098
1600000000.0 -0.025809658351181073 0.14161898648048607
1620000000.0 0.07237513037907262 -0.08360623935762315
1640000000.0 -0.0754788207590958 0.0405346932983256
1660000000.0 -0.0028382802681995055 -0.06402935700644871
1680000000.0 0.044844051817812626 0.001366931606356773
1700000000.0 0.021531524917153922 0.024658083803337547
1720000000.0 0.01940861571986841 -0.016881989864895235
1740000000.0 -0.020675294277125594 0.02999039987668891
1760000000.0 0.009210693231756778 -0.05763870798477995
1780000000.0 -0.08286425546753602 0.0025299824936813884
1800000000.0 -0.01708047211864772 -0.11409342485002869
1820000000.0 -0.14857913975798268 0.004606651405551312
1840000000.0 -0.03702475265628805 0.17413309643133054
1860000000.0 0.21725517990075385 -0.041569726140010206
1880000000.0 -0.046281575173899706 0.2570334267271226
1900000000.0 -0.10164733561666457 -0.2759724473039692
1920000000.0 0.05563238014292741 0.3183700839813979
1940000000.0 0.2835851588262269 -0.20028972936653616
1960000000.0 -0.16521098689528624 -0.337227550948825
1980000000.0 -0.08169477330812142 0.3874935687040296
2000000000.0 0.3991660865492115 0.10024093488562973
2020000000.0 -0.005045965804154361 -0.4215662256762107
2040000000.0 -0.4215720677957624 -0.03354701034819005
2060000000.0 -0.21735855489445885 0.36103393433784536
2080000000.0 0.11697105054723918 0.39866339415837637
2100000000.0 0.4081284362509697 0.03315523790894236
2120000000.0 0.10833495026418381 -0.38048717553429484
2140000000.0 -0.27427241401462815 -0.2615279077756066
2160000000.0 -0.04810069040288906 -0.3533866522693992
2180000000.0 -0.0641371643758459 -0.32809077516922325
2200000000.0 -0.044858585134523093 -0.31429366339154075
2220000000.0 -0.018706673626468533 -0.30703109657232686
2240000000.0 -0.19751420914823975 -0.234853821718462
2260000000.0 -0.12669516025420283 0.2776601406901593
2280000000.0 0.2768274439248833 -0.11674719037824571
2300000000.0 -0.04555052854661754 -0.29305837801924256
2320000000.0 0.19431451824909374 -0.23680844902130302
2340000000.0 0.3009150842021908 -0.14906996806981623
2360000000.0 -0.18038408327372688 -0.3337217690766518
2380000000.0 0.2875255548632744 0.31714803393760643
2400000000.0 -0.3523076712807261 -0.3209160345948813
2420000000.0 0.46540065748918846 0.24710422982174687
2440000000.0 -0.5770099959570385 -0.03905115987004576
2460000000.0 0.6176634278137629 -0.11003360157370244
2480000000.0 -0.533081318343385 0.4080045101961998
2500000000.0 0.4727757886361702 -0.5258330998187143
2520000000.0 -0.5169925175892442 0.5193223101642995
2540000000.0 0.6635221067807614 -0.3501880663342512
2560000000.0 -0.7556519745763637 -0.08954290127833969
2580000000.0 0.42674118362852115 0.6328989658331698
2600000000.0 -0.11510194409530837 -0.7480554467385978
2620000000.0 -0.08019737789252468 0.7399678514782214
2640000000.0 0.66215429841857 0.29574211797425687
2660000000.0 -0.6463696014788486 -0.2594618848755421
2680000000.0 0.6611016913544291 0.041250709090098814
2700000000.0 -0.6265166374954314 0.029560347428418787
2720000000.0 0.4884366732646057 -0.3325384308977288
2740000000.0 -0.09419522639232347 0.5431252481157686
2760000000.0 -0.3299276732931323 -0.3887688093262289
2780000000.0 0.42272730359341293 0.20338604707847427
2800000000.0 -0.223053744366581 -0.37682612545292804
2820000000.0 -0.09006057007935078 0.4101310388559977
2840000000.0 0.2197458699421904 -0.34833618493509244
2860000000.0 -0.20719880168256644 0.35174737345093293
2880000000.0 0.27430731775285555 -0.2955559239920587
2900000000.0 -0.3939112686634368 0.057368252812840116
2920000000.0 0.10840443291180181 0.3775084135787461
2940000000.0 0.37629325507736533 0.08909557182835424
2960000000.0 0.33416288909790215 0.1828615192081166
2980000000.0 -0.0486274814373365 0.3783717429059687
3000000000.0 -0.3263452254335228 0.2047736512665411
3020000000.0 -0.3611122382653144 -0.12731041147657535
3040000000.0 0.2198447736854302 -0.3046279026986817
3060000000.0 0.04077909715994691 0.36485646541642086
3080000000.0 -0.05239950950690958 -0.3537379639380747
3100000000.0 -0.0389687306792603 0.3478878741712191
3120000000.0 -0.15103890944127527 -0.30683890255102003
3140000000.0 0.32826156998726536 0.033910037948483615
3160000000.0 -0.1740935245827287 0.25658440148225675
3180000000.0 0.28661357779760394 -0.030706004063405026
3200000000.0 -0.057786519588753575 0.2539453969227634
3220000000.0 -0.04407980873997828 -0.22303542172049456
3240000000.0 -0.1689394741373579 0.09950832476119097
3260000000.0 0.15245002852706363 0.06555369792865966
3280000000.0 -0.07723703613157384 -0.11069339748400296
3300000000.0 -0.010853626802603749 0.10324780194563679
3320000000.0 -0.0691558216724241 0.002438714217291498
3340000000.0 0.030504714431418504 0.0331820667139757
3360000000.0 0.002467654353367365 0.03728111564699813
3380000000.0 0.004053152044019161 0.03716382397692358
3400000000.0 -0.03708739999140031 4.578589434459602e-05
3420000000.0 -0.027530333604764576 -0.0080478624466523
3440000000.0 -0.004913470535615921 0.016159601871473476
3460000000.0 0.007993587823420334 0.007063243569271058
3480000000.0 -0.015892423844835562 -0.008731776799692012
3500000000.0 -0.018867174073734314 0.021084102886980236
3520000000.0 0.03673706006108424 0.0020688852032346022
3540000000.0 -0.027569405772506116 -0.03999982682419489
3560000000.0 0.054087890099459225 -0.013119988901154312
3580000000.0 -0.0027858834618779285 -0.06345742804023129
3600000000.0 -0.07542487003898792 0.00873252423755151
3620000000.0 0.08003981512094194 0.030404561071273734
3640000000.0 -0.094352435525338 -0.013600481353816545
3660000000.0 -0.009451921444349963 -0.10184706737219695
3680000000.0 0.09953678153762754 -0.009173615991622915
3700000000.0 -0.07711534967305822 0.0603008163090255
3720000000.0 0.040159613068068714 0.08382612751227912
3740000000.0 -0.07964544941921306 -0.033106415581906135
3760000000.0 -0.033821692948368634 -0.08055410797682572
3780000000.0 -0.030383012376760873 -0.0903443015337145
3800000000.0 -0.00765648076105373 0.10605222661196706
3820000000.0 -0.1242114176282488 -0.029904114206853606
3840000000.0 -0.15358175369063076 0.012223139676371014
3860000000.0 0.16817051886847845 0.048970653272930174
3880000000.0 -0.19566056094743148 0.03142511495462382
3900000000.0 0.08712359670752762 -0.1987257149853902
3920000000.0 0.16383900739198734 0.14697916229507607
3940000000.0 0.2265215758622305 0.02450682677538319
3960000000.0 0.22548588885127174 -0.049322436487745834
3980000000.0 -0.02429836220147056 -0.2410251872706656
4000000000.0 -0.06981694891387416 0.23930896750402408
