!Created with skrf (http://scikit-rf.org).
# Hz S RI R 50.0 
!freq ReS11 ImS11
400000000.0 0.4095915049995829 -0.6832880633278067
420000000.0 -0.7892440355227281 -0.12178781274781783
440000000.0 0.08132472650827705 0.7340380151366424
460000000.0 0.18955350000506746 0.6609691485587406
480000000.0 -0.5544926192174641 0.2972557565400623
500000000.0 0.37653718435977557 0.47829377094808556
520000000.0 0.47275461739481905 0.268274451938197
540000000.0 -0.057762516145405625 0.49137453758595545
560000000.0 0.02984431617625908 -0.48750750588932085
580000000.0 -0.31425199748698346 0.3427535544915834
600000000.0 0.13413287843244606 0.4126060879988686
620000000.0 0.19708430693763038 -0.37666035231838957
640000000.0 0.05458708041290926 -0.45040058429034574
660000000.0 -0.1596436896646693 -0.45677277456405213
680000000.0 -0.35659484343033315 -0.32724161715870465
700000000.0 -0.04077247142680529 0.4617255371393843
720000000.0 0.0575441096495903 0.44290926638030576
740000000.0 -0.41095465538516407 -0.010339869594288972
760000000.0 0.33626992872175354 0.17463417272074172
780000000.0 -0.08578962194813027 -0.35033453311879725
800000000.0 0.3166081485251586 -0.10485609284860112
820000000.0 0.08612728583975814 -0.2759302742726726
840000000.0 0.17939753872021635 -0.13274754547548667
860000000.0 0.07787015240052267 -0.18721027320046252
880000000.0 -0.14756654466037905 0.06751395290308332
900000000.0 -0.10113808086524254 0.07863860343981907
920000000.0 -0.06373325826299404 0.02656754365825275
940000000.0 0.0612725865014563 -0.011883493781752033
960000000.0 -0.0011373470833443652 -0.04751800060939808
980000000.0 0.027960867312459687 0.048695137704742285
1000000000.0 -0.06982508489396348 0.01757501961269363
1020000000.0 0.009234763676689866 0.10058496956511036
1040000000.0 -0.08417838995604479 -0.09185211467767032
1060000000.0 0.02474303081842861 -0.15633279420956056
1080000000.0 0.004997417435279011 -0.20832682463421012
1100000000.0 -0.19371678464642833 0.15879531531142232
1120000000.0 0.29005867947193986 -0.017203744252486216
1140000000.0 -0.11846452717927904 -0.30048594933912
1160000000.0 -0.25333137056787536 -0.23159871417222802
1180000000.0 0.34738675173950406 0.08256973885800578
1200000000.0 -0.22720470949549879 -0.28762684627237184
1220000000.0 -0.3427619859132055 -0.1605334466346416
1240000000.0 -0.0500683082276139 0.38817478774986863
1260000000.0 0.3860792703738904 0.09086080850918615
1280000000.0 0.11302737850206261 -0.3772546208198818
1300000000.0 -0.1886460396145263 -0.3345518947100819
1320000000.0 -0.32929080903289526 -0.17621983384891277
1340000000.0 -0.35093583238797416 0.0883722540287743
1360000000.0 0.2453047629996643 0.2253714330941273
1380000000.0 -0.23590967064974266 0.18107085892874275
1400000000.0 -0.22800573547412065 0.15418540215770213
1420000000.0 -0.023498225466719796 0.24422602633323665
1440000000.0 0.20875014454089155 -0.05608646213266697
1460000000.0 0.018387309873604922 0.1742943106300241
1480000000.0 0.12568577846588422 -0.008213553520097807
1500000000.0 -0.03191997986870334 -0.0707442678192907
1520000000.0 0.020746150119352134 0.031159956709402397
1540000000.0 0.00978178805497124 -0.0026211609124651525
1560000000.0 -0.0027782633510252228 -0.052330262891492195
1580000000.0 0.005354896421058509 -0.07839115165020703
1600000000.0 -0.08099632671501353 0.049744539014909446
1620000000.0 -0.012704104086183077 0.1115637609162499
1640000000.0 0.1346493247950531 0.050479960467069984
1660000000.0 -0.05917361239951616 0.15472900123716388
1680000000.0 -0.1853155144560185 -0.04141560860762574
1700000000.0 -0.08461383005403447 -0.19281947789986242
1720000000.0 -0.18312747868448084 -0.1323691535504238
1740000000.0 -0.08276464230571103 -0.22448615608823616
1760000000.0 -0.22266083175631549 -0.13843267164741044
1780000000.0 -0.01049494642287489 0.288915439420399
1800000000.0 0.20155150687349843 0.24516371359075598
1820000000.0 -0.003796174392005102 0.34335123085007724
1840000000.0 -0.36333492079963725 0.0923271596308844
1860000000.0 -0.38566066891741896 -0.11762111785333362
1880000000.0 0.1965858094625657 -0.38370730135003545
1900000000.0 0.13175834812367815 0.43096553014848094
1920000000.0 -0.15491900402606307 -0.4478395675461139
1940000000.0 0.16121129100087425 0.4673002520579422
1960000000.0 -0.017497569530709797 -0.5063122786222835
1980000000.0 -0.3866785238349073 0.34217651356056816
2000000000.0 0.4442470490372963 0.2642375243835107
2020000000.0 0.46555136885351 -0.2351438907984518
2040000000.0 -0.21825133672094998 -0.47400642630865303
2060000000.0 -0.3760630904161349 0.3509317032738897
2080000000.0 0.3247620461078561 0.3806227030922507
2100000000.0 0.4834865677591799 0.026145990490999627
2120000000.0 0.29186698737816114 -0.3672686916538397
2140000000.0 0.3579906327929929 -0.27247731947107906
2160000000.0 0.06979490016939015 -0.4213030223007988
2180000000.0 -0.3289603096851382 -0.24621989422567594
2200000000.0 -0.13549873011851354 0.37270175685792956
2220000000.0 0.36766440022532804 0.09535028713461292
2240000000.0 -0.0006705772856829904 -0.3700949626020136
2260000000.0 -0.34407038478082647 -0.11511369877681644
2280000000.0 0.05006759272306005 0.36173827647643114
2300000000.0 0.15750704846260047 -0.33105224199850086
2320000000.0 -0.24557867146250806 -0.28429006516869393
2340000000.0 -0.3617212357537246 0.16011681171718142
2360000000.0 0.16196025693706861 0.39017738561465143
2380000000.0 0.3643669363343654 -0.2753232783704591
2400000000.0 -0.36097226841087465 -0.3345556328053186
2420000000.0 -0.44471098529786696 0.29454892843796887
2440000000.0 0.4799457410056317 0.3276451929457005
2460000000.0 -0.05677362653811333 -0.6221519574927431
2480000000.0 -0.4426022736986562 0.49617749428510566
2500000000.0 0.6975527763235853 0.03484165722753601
2520000000.0 -0.4892097357332531 -0.5333553654273604
2540000000.0 -0.06439756786767349 0.7397799755176003
2560000000.0 0.6399675985409278 -0.39823995074034685
2580000000.0 -0.6429462783418608 -0.39821222034125475
2600000000.0 0.11840357996953062 0.7413866845456593
2620000000.0 0.45904674216634334 -0.5796841650092286
2640000000.0 0.041197281504071814 -0.7210549959705218
2660000000.0 -0.4616610154979037 0.5278246166523678
2680000000.0 0.5714406771583949 -0.3643502337345702
2700000000.0 -0.5374865812057875 0.36854911943297947
2720000000.0 0.2640631561458995 -0.5664227973930643
2740000000.0 0.28543395390951926 0.5261706332003488
2760000000.0 -0.5717320892424141 0.020968269844694604
2780000000.0 0.0516099012557156 -0.5490615053893326
2800000000.0 0.5347651512920353 0.009592274587451976
2820000000.0 0.11517988414374387 0.5077886871311468
2840000000.0 -0.47291483111675675 0.18700726439588805
2860000000.0 -0.06508092834577604 -0.49342961497457644
2880000000.0 0.3082533483745178 0.37714637082060526
2900000000.0 -0.26780843299487306 -0.39748161499790724
2920000000.0 0.09532331512387117 0.46406830542798927
2940000000.0 0.35284571462608144 -0.30050220703948965
2960000000.0 -0.1181594344388139 -0.43621135808247535
2980000000.0 -0.2296058012440545 -0.3781636576870041
3000000000.0 -0.3121781926992617 -0.3033887229097346
3020000000.0 -0.34135374889023473 -0.2478493481393189
3040000000.0 -0.20741435722097656 -0.34701125896587454
3060000000.0 -0.11296757709633073 -0.3666755054730716
3080000000.0 0.12067256547982301 -0.33696169885532706
3100000000.0 0.2105292300688844 -0.2559132982164483
3120000000.0 0.24610609257113802 0.17048709737989093
3140000000.0 0.2271763308073629 -0.1297450167817048
3160000000.0 -0.12214401656046434 -0.17805791834757023
3180000000.0 -0.09581118945775405 0.1342705043792542
3200000000.0 0.043075897832103166 -0.10429592661191696
3220000000.0 0.004383772910369618 0.061714479649653736
3240000000.0 0.0036555959796061533 -0.017025432488285856
3260000000.0 0.004576600016174328 0.042744759152554976
3280000000.0 0.007712190778221128 -0.08112938707611352
3300000000.0 -0.1101468617272697 0.04211772167084201
3320000000.0 0.08731238671386105 0.12314138101954875
3340000000.0 0.10822586309854205 -0.13248357995587953
3360000000.0 0.1634475574538533 0.08606317745071784
3380000000.0 0.19248732776845326 0.037369639924446196
3400000000.0 0.0837029983359422 -0.1817066765919957
3420000000.0 0.1502664536237524 -0.12423550730750273
3440000000.0 -0.041751776904766634 -0.17938878323877613
3460000000.0 -0.15170035757368894 0.08142820798696224
3480000000.0 0.07420637674370843 -0.13979296313326744
3500000000.0 0.09546744695746028 -0.10932538368242403
3520000000.0 -0.026994477410702187 0.12899164758764892
3540000000.0 -0.08790669409978598 0.08497946419328165
3560000000.0 -0.05648411920428889 0.11105340277807631
3580000000.0 -0.1308910043539332 0.036800994476156416
3600000000.0 0.0619541113777869 -0.14131480597664203
3620000000.0 -0.03446669896783126 -0.17394221689852038
3640000000.0 0.2013771166531261 -0.014414012826117841
3660000000.0 -0.21768533595962902 -0.05088986517226131
3680000000.0 -0.23879186561108315 0.04940768055565705
3700000000.0 -0.20618983443883002 0.15828801528157208
3720000000.0 -0.18738702385715217 0.19563295534452724
3740000000.0 -0.26726090483033677 0.06709952258904484
3760000000.0 0.09010400204293713 -0.26310982232520996
3780000000.0 0.19376091292347872 0.19479868715588705
3800000000.0 -0.202345670623212 0.1687989048619544
3820000000.0 -0.1458905647334397 -0.199766112679454
3840000000.0 0.13512555960860748 -0.17436777178309576
3860000000.0 -0.08368083433512752 0.16889208884958495
3880000000.0 -0.1487739127348754 -0.01447646902156112
3900000000.0 -0.035601505223959544 -0.09622597542814026
3920000000.0 -0.044848071556920055 0.03177298621183936
3940000000.0 0.007312378615160119 -0.0009340600282593633
3960000000.0 -0.046378508671193495 0.01391116641144013
3980000000.0 0.09706571651265467 0.007688335900141138
4000000000.0 0.10960776037677873 0.09170284992823191
