!Created with skrf (http://scikit-rf.org).
# Hz S RI R 50.0 
!freq ReS11 ImS11
400000000.0 0.80397704505675 -0.14709723620429943
420000000.0 0.5453270358521796 -0.6162227878042896
440000000.0 0.2687300398832081 -0.7157215128061132
460000000.0 0.693872485259162 -0.20533237015999473
480000000.0 0.27832414401683353 0.6086297553757932
500000000.0 0.30327576095643516 0.5847753540155154
520000000.0 0.2662911908203462 -0.5218194261423866
540000000.0 0.04139273116183058 0.5002006965253518
560000000.0 -0.3802471149509734 0.26890373108681376
580000000.0 0.1415088970122914 0.38602642871526366
600000000.0 0.36187560923126827 -0.08058583116636446
620000000.0 0.3360905756852074 0.15498367750240383
640000000.0 -0.36037493539011217 -0.18192029981739474
660000000.0 0.4138792239466095 0.1547454409034747
680000000.0 -0.06903435423147203 -0.45786305030584945
700000000.0 -0.29303160002745754 -0.3464105989890943
720000000.0 0.2042866984164519 0.3601387178893761
740000000.0 -0.3445701357787644 -0.10802380156586157
760000000.0 0.03990149413354982 -0.33284809155011497
780000000.0 0.15376530941288 0.29947802886502256
800000000.0 0.30922999806172174 0.07284933982983978
820000000.0 -0.1658458229721034 -0.220886021981937
840000000.0 -0.19297502467500083 -0.1169907676728754
860000000.0 0.09652645388949345 -0.15529098057295138
880000000.0 0.1122727612727394 -0.09965740573198661
900000000.0 0.08858599946777615 0.06351724212741079
920000000.0 -0.05902623694075445 0.048354810874404325
940000000.0 0.006342198030517771 -0.059659044284250035
960000000.0 0.01885307893259766 -0.06555971697573819
980000000.0 -0.015970948526355538 -0.0837758387495523
1000000000.0 -0.08610009739711844 0.019783567110886944
1020000000.0 -0.04806595863913993 0.08181104608312385
1040000000.0 -0.06731841863793177 0.07728452320579599
1060000000.0 -0.08569214554226892 -0.09200348938793115
1080000000.0 -0.1719297948003373 -0.020563165361413963
1100000000.0 0.13186539314494655 0.1788516663692155
1120000000.0 -0.12619114937766732 -0.23526317459043772
1140000000.0 -0.18281250910114966 0.22911868060873067
1160000000.0 0.23359349279217573 -0.1984988095464591
1180000000.0 0.31341560887332215 -0.034725337022300976
1200000000.0 0.206627279660031 -0.24472889149024182
1220000000.0 0.31600379578023835 0.15225794552900798
1240000000.0 0.3366437329831261 -0.21214155390766737
1260000000.0 0.2904316736790731 0.31672430658495776
1280000000.0 -0.34925284942455304 -0.2633889812727604
1300000000.0 -0.025862805031392752 0.4339379691221537
1320000000.0 0.30096726968847054 0.30429536037434507
1340000000.0 -0.05329860796626249 0.41457744904369187
1360000000.0 -0.4188374313972443 0.015408584554600407
1380000000.0 -0.38880538131526643 -0.15715564031038004
1400000000.0 -0.30032282889380085 0.29153011660949174
1420000000.0 0.4069137838390935 0.002203912187220606
1440000000.0 -0.31247178053859564 -0.22773286386597547
1460000000.0 0.17284687835113502 0.3071225135468366
1480000000.0 0.2370284484418688 -0.21149384903158816
1500000000.0 -0.27995864984753943 -0.009207985862275713
1520000000.0 -0.1626601371639444 -0.1821041402633463
1540000000.0 -0.012646781136557816 0.20944514432810396
1560000000.0 0.13967648572110425 0.11132611272833515
1580000000.0 0.13491322833779304 -0.06826465741879448
1600000000.0 -0.05087215913950677 0.11205768928361703
1620000000.0 -0.08295799749184957 -0.049971309531542545
1640000000.0 -0.06407081745347319 -0.012146030187450285
1660000000.0 -0.03177842183936982 -0.003527414111176328
1680000000.0 0.027505209924677875 0.008643838815835459
1700000000.0 0.043804039236956846 -0.015524850350723124
1720000000.0 0.004452559906138113 -0.044601013048109976
1740000000.0 -0.013549988545933887 -0.03400255005549438
1760000000.0 -0.05480810147501696 -0.007671089728976047
1780000000.0 -0.07117339902784284 -0.060599350664184426
1800000000.0 0.045840355777744264 -0.131336241363179
1820000000.0 -0.08689938944616456 -0.16109063329769946
1840000000.0 -0.2123536323463178 -0.06367968057575196
1860000000.0 -0.23327209155497947 -0.10877473062955388
1880000000.0 0.007216472117845727 -0.28266362595901007
1900000000.0 -0.26620459613549147 0.15094609648096524
1920000000.0 0.13065007230302242 0.30777937310660336
1940000000.0 0.35303992852582733 -0.09603772802398132
1960000000.0 -0.3954280096157596 0.03116884489108698
1980000000.0 0.404606231986141 0.06576183638512936
2000000000.0 0.16786503942500083 -0.3840168932712405
2020000000.0 -0.255773218222464 -0.33914643593955585
2040000000.0 -0.3818834374818847 -0.18989450542900774
2060000000.0 -0.41857643240821973 -0.10632096455810294
2080000000.0 -0.17416897512521506 0.40071181606568745
2100000000.0 0.37708362892356256 -0.2049857976267005
2120000000.0 -0.3333403930155689 -0.2362251375973914
2140000000.0 -0.3370072100000844 0.187006131525258
2160000000.0 -0.224546105711246 -0.28261761020949433
2180000000.0 -0.16469467211004016 -0.29507284615015134
2200000000.0 0.10682873507283144 -0.30198301138718536
2220000000.0 0.20480095017371408 -0.23555354170142914
2240000000.0 0.05999629570696414 -0.3048360173235149
2260000000.0 -0.27870545885987164 -0.13116457393039488
2280000000.0 -0.3071198297451643 0.04477065551161084
2300000000.0 0.06561380568093914 0.3170162533449474
2320000000.0 0.15154169349050858 -0.30751762099989904
2340000000.0 -0.33647658632180766 0.1391243819824528
2360000000.0 0.2603429384064329 0.29330069032280887
2380000000.0 0.28847921690861356 -0.32469473383228575
2400000000.0 -0.4757703396628586 0.11295868004126164
2420000000.0 0.4135777522715874 -0.3593141788080837
2440000000.0 -0.004128606110454814 0.5976943744297514
2460000000.0 -0.29560926293170203 -0.5679047723753519
2480000000.0 0.45046041673094217 0.5094003653908219
2500000000.0 -0.4376102848508488 -0.5620064850787106
2520000000.0 0.26258661853165843 0.686602397068736
2540000000.0 -0.1008637209411218 -0.7431254766555562
2560000000.0 -0.006827626481945231 0.7573628717177125
2580000000.0 0.31876531414025666 -0.6853333806640718
2600000000.0 -0.7357188823154436 0.1390773035245555
2620000000.0 0.6939879182623093 0.24015297827827012
2640000000.0 0.43828108982532826 -0.5616624277727174
2660000000.0 -0.3193021043436179 0.6018661622014735
2680000000.0 0.037691794894881045 -0.6444560600919987
2700000000.0 0.129184455469484 0.5927188526744958
2720000000.0 -0.42237127286383963 -0.369331117036738
2740000000.0 0.42865321637303344 0.2826446561702136
2760000000.0 -0.28413363252065543 -0.38209572119002394
2780000000.0 0.20544818479746466 0.40037928569373865
2800000000.0 -0.21569311294579696 -0.3767703387724292
2820000000.0 0.41872582178561596 -0.03389610315232006
2840000000.0 -0.1957798032097989 0.3529016754669778
2860000000.0 0.291770075422818 -0.2587236400228122
2880000000.0 -0.33234213449624334 -0.18415258509094304
2900000000.0 -0.35571482527168297 0.12494622994482375
2920000000.0 -0.050445328937614456 0.38084312260150843
2940000000.0 0.3871386655148077 0.039155403719869565
2960000000.0 0.27127755497626915 -0.27862950120492225
2980000000.0 0.3406095115413051 -0.17365416942500703
3000000000.0 0.30351691038452144 0.22886322323969557
3020000000.0 -0.1608877645868975 0.33793448248838265
3040000000.0 -0.09336252868134752 -0.35416753517207644
3060000000.0 0.21732841746559192 0.28509660616816335
3080000000.0 -0.18310713896786787 -0.2988555636386073
3100000000.0 0.22990024316598 0.2561187814084623
3120000000.0 -0.3227839574755762 0.08747871478154404
3140000000.0 0.10203616900400757 -0.29724770335493966
3160000000.0 -0.16926211525958149 0.23738670790967564
3180000000.0 0.13861614117371499 0.23599158450207813
3200000000.0 -0.2443990852908106 0.058708576921370596
3220000000.0 -0.04345190591124254 -0.21305335104165984
3240000000.0 0.06156567321648957 0.17065146805524373
3260000000.0 0.12598917683764888 0.06472486859037839
3280000000.0 0.025262168404203263 -0.1067833803731687
3300000000.0 0.08610063772850052 0.01717174057600346
3320000000.0 -0.005576046126353053 -0.07043789859975849
3340000000.0 -0.029333537730071444 0.05823976527258164
3360000000.0 -0.0131510730830034 -0.0554766098026531
3380000000.0 -0.012750872786018505 -0.03845467154904952
3400000000.0 -0.013495910019249767 -0.025301009014112072
3420000000.0 -0.03239602357456578 0.000815770316332406
3440000000.0 0.039162174610787824 -0.009737382020145475
3460000000.0 -0.03267171490664438 -0.017484714585506222
3480000000.0 0.011235312408855334 -0.013917774596706104
3500000000.0 -0.002966378785788244 0.009411274753034899
3520000000.0 -0.032389135081099814 -0.014849095759929824
3540000000.0 -0.05468119731420765 -0.006321117682058924
3560000000.0 -0.04229433815469392 -0.04163519971479532
3580000000.0 -0.04441445522439831 -0.039573731502663516
3600000000.0 -0.06653227987832842 -0.005090587849850581
3620000000.0 0.05308767588105162 0.0653550347127335
3640000000.0 0.08279524740152375 0.0405659676452407
3660000000.0 0.0143912303992318 0.09249718155224401
3680000000.0 0.035302265992616724 -0.08446272295224216
3700000000.0 -0.09072443551817319 -0.012649257420282637
3720000000.0 -0.07234913246770507 -0.06735090849198251
3740000000.0 0.09372035347202573 0.046079173254559125
3760000000.0 0.10836896999510884 -0.011329967875247756
3780000000.0 -0.1065547670157861 0.033076437318793485
3800000000.0 0.0023935940181231212 0.11981209068554194
3820000000.0 -0.1337861620778169 0.022554111915941612
3840000000.0 0.06177492880227323 0.14290048736372907
3860000000.0 -0.17739903819098576 0.021101484548785833
3880000000.0 -0.14657113755828924 -0.13862161705215378
3900000000.0 -0.047647494716995246 -0.20890871185039575
3920000000.0 -0.14599267967561066 -0.15640369304993954
3940000000.0 -0.10180504095043964 -0.18956425926795542
3960000000.0 -0.18937790066586635 -0.10536118834452185
3980000000.0 -0.027825929142540697 -0.20352623115228363
4000000000.0 0.18872098042567567 -0.051261952505072775
