!Created with skrf (http://scikit-rf.org).
# Hz S RI R 50.0 
!freq ReS11 ImS11
400000000.0 -0.6049721881763613 0.5306621479882104
420000000.0 0.8040439550925151 -0.0007873816599184908
440000000.0 -0.7347323265047927 -0.11357933254674847
460000000.0 -0.6725006313543648 -0.02192523653016856
480000000.0 0.4575348889428681 -0.39362259612316
500000000.0 0.29706047329650637 -0.5237391289461202
520000000.0 -0.5215274887442165 -0.16980241534283602
540000000.0 0.23306979337284628 -0.436512389109316
560000000.0 -0.3431798378994359 -0.3464267553241821
580000000.0 -0.4621848525687476 0.11982112609766356
600000000.0 -0.09390564916951954 0.44781888200343845
620000000.0 0.013062881412319507 -0.44142052315689767
640000000.0 -0.30046319898647744 -0.3554244421500486
660000000.0 -0.43150109522838803 0.2095329261944605
680000000.0 -0.41819195674295634 -0.2129535462253616
700000000.0 -0.29524558608091456 0.33919848851230205
720000000.0 -0.41560547968003797 0.1211164298724722
740000000.0 0.028032038737322653 -0.40176764821205013
760000000.0 0.019396507699760975 0.37825289429302555
780000000.0 -0.3486597528415802 0.026874476028055337
800000000.0 0.27274427676938906 0.13278185488603306
820000000.0 -0.2077684660093353 -0.16897055887715415
840000000.0 -0.20939682396145806 0.07284105287935344
860000000.0 0.1607366952728196 -0.08573402828011635
880000000.0 -0.10649570104916249 -0.08257939526633513
900000000.0 0.08523893860543182 -0.039828966512591484
920000000.0 0.03650146167979069 -0.06322468805760928
940000000.0 -0.027240635689979597 -0.05930176058981269
960000000.0 0.060837808673909845 0.030969909066141863
980000000.0 -0.01942604998989896 0.0773487137751192
1000000000.0 0.04868401142435414 0.08922443357908574
1020000000.0 -0.11953991962610358 0.03906336316191095
1040000000.0 0.037395407855943086 0.15074060601169326
1060000000.0 -0.16046064185885994 -0.10646459360296402
1080000000.0 -0.22111172880763366 -0.09945681977442294
1100000000.0 0.2800207661284948 -0.008523608640353088
1120000000.0 0.046468691803488914 -0.308895965185604
1140000000.0 -0.33523149578028033 0.009427249670415352
1160000000.0 -0.15216540719209956 -0.32277741634241414
1180000000.0 0.3735228964237096 -0.0036370123349105665
1200000000.0 -0.35515430137055065 -0.13206599118011061
1220000000.0 -0.3837662705176706 0.01938730087174669
1240000000.0 -0.22198119319732948 0.33007856184421913
1260000000.0 0.395550883394 0.07936057194488703
1280000000.0 -0.0656465805663271 -0.39501447693956176
1300000000.0 -0.38366302078795883 0.07149736793202689
1320000000.0 -0.0949736293224786 0.3581764359011643
1340000000.0 0.04991136298070792 0.3438703197496726
1360000000.0 0.07405971337759906 0.30645840146498143
1380000000.0 -0.20806933447507342 -0.19048189967752685
1400000000.0 0.218402478524606 -0.1486512455744654
1420000000.0 0.024604164919670036 -0.23736928304394167
1440000000.0 -0.06227022266465238 0.20080216959514502
1460000000.0 -0.07209944095760579 -0.13656714717008422
1480000000.0 -0.0015890667040399857 0.09981535021822646
1500000000.0 0.03363720525458304 0.04408984040846199
1520000000.0 0.03293613069614564 -0.022157088238837868
1540000000.0 0.039767940437682385 -0.04192929025727427
1560000000.0 0.02151002196374429 -0.08241788183926252
1580000000.0 -0.03129678596428596 -0.1054728582646101
1600000000.0 0.13814875598893905 0.004527881218765537
1620000000.0 0.10644373494132604 -0.12112316222943025
1640000000.0 -0.16681444948028426 -0.07551082820380287
1660000000.0 0.19073570534984652 -0.06265079637045638
1680000000.0 0.0027516602205097597 -0.21575494069674292
1700000000.0 -0.22966619356037368 0.05407662056500496
1720000000.0 -0.04743757022223234 -0.26117003222549084
1740000000.0 -0.23959013599110754 -0.17307999695904686
1760000000.0 0.139893106526155 0.28834216722639094
1780000000.0 0.21546221157998366 -0.2656986046986187
1800000000.0 0.08059577998342292 -0.35563109336717247
1820000000.0 0.2927994371518705 0.2462021504697433
1840000000.0 -0.30770217093635005 -0.2662240871979395
1860000000.0 0.44172140103051705 0.012578014073897298
1880000000.0 -0.21492775298728892 0.42200434287481087
1900000000.0 -0.09704973080234723 -0.49064258707908703
1920000000.0 0.4284082586848149 0.29810246475044816
1940000000.0 -0.531434306853427 -0.034042182735032143
1960000000.0 0.39019348023135825 0.3613013784537837
1980000000.0 0.5056369308687371 -0.15740188060171642
2000000000.0 0.38415548504667535 -0.3711450300729484
2020000000.0 0.07242180366907612 -0.5368504282259269
2040000000.0 -0.5363628601805916 -0.11372883784586019
2060000000.0 0.42121067163174486 0.3372978177827566
2080000000.0 0.13178904286268445 -0.503072562803565
2100000000.0 -0.38959794615677656 -0.30687415919289085
2120000000.0 -0.4679438821382269 -0.05263677983162127
2140000000.0 0.2975300181934824 -0.33806903209772604
2160000000.0 0.2104743336906238 -0.3840965959151974
2180000000.0 -0.2162281219585242 -0.3704895575115294
2200000000.0 -0.1883624419736009 0.3760996772574751
2220000000.0 0.4108887156217594 0.01809308970278688
2240000000.0 -0.22912918387257283 -0.33690256731860274
2260000000.0 -0.2508751003732087 0.3192419685426796
2280000000.0 0.2856962217171623 0.29548169071713676
2300000000.0 0.31669655590717294 -0.29387840698310247
2320000000.0 -0.43374747488608567 0.16985912477171713
2340000000.0 0.30528821850409565 -0.39855334257553854
2360000000.0 -0.05908849793676335 0.5348190383023256
2380000000.0 -0.11952645355242528 -0.5654577866121814
2400000000.0 0.3231819228745874 0.5297433203050625
2420000000.0 -0.5926726660395486 -0.28699323677473293
2440000000.0 0.6836310214721645 -0.08140133825723746
2460000000.0 -0.6795514741530765 0.20415640075991923
2480000000.0 0.7172973844790769 0.062421168548886935
2500000000.0 -0.3258043086906052 -0.6446775930557807
2520000000.0 -0.5017883330278511 0.514086401363839
2540000000.0 0.5535963448265641 0.4422515984871643
2560000000.0 0.5948987128241562 -0.35847361884491596
2580000000.0 -0.010732262599501824 -0.6762008265500612
2600000000.0 -0.5679540856697664 -0.3281344515432658
2620000000.0 -0.31807633070121816 -0.5525596696302738
2640000000.0 -0.45613720687186743 0.41829806280099546
2660000000.0 0.5755972390170357 0.15344090867904123
2680000000.0 -0.4636764986879693 -0.3333853009777219
2700000000.0 0.40277650864305464 0.3671079716804202
2720000000.0 -0.5203589383162242 0.0021729903063213343
2740000000.0 0.35058699570685625 -0.3502448666375968
2760000000.0 0.15174858653708317 0.4513864486258837
2780000000.0 -0.44163726190805414 0.14157011452862844
2800000000.0 -0.31172323897017684 -0.33217808259258186
2820000000.0 0.1420076371306899 -0.4249446108930172
2840000000.0 0.4210044629724949 0.12271778642220306
2860000000.0 -0.3869616325891588 0.19323979513199852
2880000000.0 0.3577058086825523 -0.2308149284257162
2900000000.0 -0.3279335211652652 -0.2608839079426668
2920000000.0 -0.22897985375030486 0.34864673801019996
2940000000.0 0.31616639537089974 0.26486921256990065
2960000000.0 0.402675044489583 -0.010893271320107102
2980000000.0 0.39101290598912225 -0.03489256794989707
3000000000.0 0.37719286937364166 0.05743559340023772
3020000000.0 0.3517069217853264 0.10419352062257638
3040000000.0 0.19940937533271552 0.282437265345943
3060000000.0 -0.017756065545155384 0.3250497441537996
3080000000.0 -0.10596387079694375 0.2799111696768501
3100000000.0 -0.2631344211917149 -0.06650258039796442
3120000000.0 0.01161091080963228 0.23653428826364584
3140000000.0 0.11045994465396054 -0.1595600383264993
3160000000.0 -0.002523222232945933 0.1466066798067589
3180000000.0 0.05088959493363217 0.08470801226203412
3200000000.0 0.048410415589303916 0.02254007054731441
3220000000.0 -0.0036988424244899613 0.03417723829523615
3240000000.0 0.026395306671862847 -0.05935244954075102
3260000000.0 0.09476073979099489 -0.03415220064768565
3280000000.0 -0.09486053667855754 0.09491206520060999
3300000000.0 0.13123175555605937 0.09941113543581846
3320000000.0 0.01691412274253674 -0.18863548196894006
3340000000.0 -0.13610086956904058 -0.15490876335534184
3360000000.0 -0.07868807206076069 -0.19925362898670854
3380000000.0 0.12564027931451713 -0.17858711197660945
3400000000.0 0.18332659190500905 -0.12119687850481423
3420000000.0 0.1148930502143234 0.1823857351152675
3440000000.0 0.14786065085635344 -0.14203344510799587
3460000000.0 -0.1875548558414626 0.030837283735078515
3480000000.0 0.13539990514056563 -0.11011609712360203
3500000000.0 0.12649545076755583 0.10034220138272305
3520000000.0 0.13825199020832432 -0.05253027122795159
3540000000.0 -0.04784953727535985 0.1298641532461906
3560000000.0 -0.13218432960663 0.018985562313122952
3580000000.0 -0.05519430489396622 -0.12421224721872624
3600000000.0 0.14490039423651782 0.031179794483384687
3620000000.0 0.1464817493741471 -0.08339571122269229
3640000000.0 0.16227572900899132 -0.10134420676640007
3660000000.0 -0.19778313421205937 0.06855209334805279
3680000000.0 -0.2115620674390696 0.08440286432995889
3700000000.0 -0.1520727770445592 0.1816667334213178
3720000000.0 -0.08853985676679009 0.22500993481517645
3740000000.0 -0.12812427798966267 0.20493837667268833
3760000000.0 0.17115862674097132 -0.16886420704180857
3780000000.0 -0.13357865010203723 0.19458063384569294
3800000000.0 0.20641598744056275 -0.08234504212913052
3820000000.0 0.05828228073257333 -0.19718970956331078
3840000000.0 0.032652268151004644 -0.17707894065253998
3860000000.0 0.11563124991386975 0.09406233136930255
3880000000.0 0.0031676040029880188 0.11891999204784505
3900000000.0 -0.08011965917269012 -0.052227940305047356
3920000000.0 0.06826111156706545 0.04776007528233944
3940000000.0 -0.020214206860127874 -0.09318751079903072
3960000000.0 -0.07612248379558646 -0.09635259417164278
3980000000.0 0.14555168258927365 0.06401424591163443
4000000000.0 -0.11474663016763294 0.15159202975928143
