!Created with skrf (http://scikit-rf.org).
# Hz S RI R 50.0 
!freq ReS11 ImS11
400000000.0 0.6536459917817371 -0.5096616525346774
420000000.0 -0.02139269192231781 -0.8319225464632222
440000000.0 -0.7572917274804967 -0.1744093996268857
460000000.0 -0.6390737391887716 -0.3208439433658385
480000000.0 0.25045438667467557 0.6000957589635592
500000000.0 0.6287515923799212 0.08056151545163497
520000000.0 -0.30549336425219126 0.46648822627927106
540000000.0 -0.44097184950030055 -0.26657124340135013
560000000.0 -0.4365755073923613 -0.1767908702474699
580000000.0 -0.38581518978787654 0.16341671861794863
600000000.0 0.3808457938055618 0.056679344710497126
620000000.0 0.3437678144867266 -0.15185835834650857
640000000.0 -0.3310002779437288 0.25685372098170844
660000000.0 -0.0576471437964028 -0.43747673761813255
680000000.0 -0.2868510778425921 -0.34562284140316085
700000000.0 0.4399148656022523 -0.032911402391347044
720000000.0 -0.229823078785678 -0.3705478666219544
740000000.0 -0.27219975941667074 0.2806823424115479
760000000.0 0.3440902093216188 0.08368805491507215
780000000.0 0.19692218503277054 0.2616734039368942
800000000.0 0.21298513291088325 0.19389367731262505
820000000.0 -0.17986060394554174 0.13815463848454967
840000000.0 0.15381873600089072 0.11147553299684218
860000000.0 -0.02788694475596223 0.17302768689077785
880000000.0 0.06085911483831699 -0.14561796711043812
900000000.0 -0.11594862150158508 -0.06689711084510942
920000000.0 0.036315388986703716 0.09460210828331003
940000000.0 0.05346771930029527 -0.04657227017911074
960000000.0 -0.05141419889021893 -0.03133000123075203
980000000.0 0.07402839831555369 0.015720462363726814
1000000000.0 0.04390771858748855 0.04926048296152595
1020000000.0 0.06715139748985169 -0.05052810807701895
1040000000.0 -0.005704953367143304 0.10809061167151096
1060000000.0 0.11176615036731082 -0.08509846859285987
1080000000.0 -0.06659033647615156 -0.18267467668802934
1100000000.0 0.1058089134577201 -0.20767046009517975
1120000000.0 -0.12396351159278468 -0.23711365905037754
1140000000.0 -0.2971076445063254 -0.005910313962433681
1160000000.0 0.30549689642187206 0.08919360747226619
1180000000.0 0.27159513156813453 -0.19524779555291022
1200000000.0 -0.335040454825284 0.019352481111726463
1220000000.0 -0.28114453094627 -0.22593691299883276
1240000000.0 0.15485396287680275 0.3532742821090628
1260000000.0 0.3926228105376426 0.09274686702385095
1280000000.0 0.1084550266284593 -0.40760918412436287
1300000000.0 -0.25543772150229227 -0.34003131337441345
1320000000.0 -0.3117895572202436 -0.3101440315885113
1340000000.0 -0.08113284293244477 0.43506563817250254
1360000000.0 0.37658437726827093 0.21667136192692266
1380000000.0 0.3228784747290221 0.25507745988371877
1400000000.0 0.0704754455329689 0.3983723578624811
1420000000.0 0.37668323827185396 0.1074099776753381
1440000000.0 0.14313457751342842 -0.3491290231874571
1460000000.0 -0.19826789068799813 0.2898494130485188
1480000000.0 0.2350040997109979 -0.21966621587102103
1500000000.0 0.1879112429208029 0.20678986145603623
1520000000.0 0.11100601240486259 0.20075434608655254
1540000000.0 -0.061068850329858176 0.1825056344011082
1560000000.0 -0.11635316335860484 -0.1173135136009976
1580000000.0 -0.14656773062834372 -0.03405798566322521
1600000000.0 -0.12542590008603047 0.03831629156770998
1620000000.0 0.008306025563981485 0.10398474713007815
1640000000.0 0.07470905075532797 0.0009435209047858209
1660000000.0 0.02519223892495569 0.02310493663148615
1680000000.0 -0.0006548817571731749 0.005401676739511361
1700000000.0 -0.017344707512384615 0.02925826096090952
1720000000.0 0.04931966906193014 -0.01989408408812987
1740000000.0 0.043326003765234364 -0.043310711743988796
1760000000.0 -0.06817785795813618 0.018884234465761374
1780000000.0 -0.07948134055053252 0.022773990732631876
1800000000.0 -0.1204419531125047 -0.02055250242692091
1820000000.0 -0.022143146435577396 0.16810397846385278
1840000000.0 -0.16296211198134128 0.155003507105521
1860000000.0 0.2278082748214008 -0.15287013196733212
1880000000.0 -0.11305633453936012 -0.2824088310016351
1900000000.0 0.22727075935735586 -0.22529900473841702
1920000000.0 -0.27792228223108667 -0.17286961162107536
1940000000.0 0.08333505867104248 -0.3387290504106125
1960000000.0 -0.20380060381371431 -0.3201018634760432
1980000000.0 -0.3427622983167165 0.21610194761462637
2000000000.0 0.35940590155897273 0.2282735377091103
2020000000.0 -0.04645664759637322 -0.4339315903518231
2040000000.0 -0.3703710902100391 0.23246018867967688
2060000000.0 0.35366859895902003 0.24108988844632015
2080000000.0 0.4121660075136204 0.03553927675446276
2100000000.0 0.40131016043153506 0.009887497662233775
2120000000.0 0.37768371976520115 0.10755461820271664
2140000000.0 0.23926541123704875 -0.30569895243535683
2160000000.0 -0.09733846739510059 -0.35817943857832807
2180000000.0 -0.29613227564973826 0.17114778473258194
2200000000.0 -0.2087567125166318 0.2348331556228214
2220000000.0 -0.0907016782046569 -0.2823717072903817
2240000000.0 0.21885588510611395 -0.20341386500160757
2260000000.0 0.09342279656365016 -0.28736348775697346
2280000000.0 -0.2760097088340281 -0.14394118491983024
2300000000.0 -0.08835963643270862 0.3096152379590464
2320000000.0 0.33476256512033525 0.07016679837769915
2340000000.0 -0.18993518857700406 -0.3182149178246392
2360000000.0 -0.16880679276415417 0.3696076348421886
2380000000.0 0.3811041787083448 -0.24278295507596256
2400000000.0 -0.3936819432134633 0.3148111475998697
2420000000.0 0.17266177488278028 -0.531909066896975
2440000000.0 0.3623219942155678 0.49143474871803733
2460000000.0 -0.6439546093837861 -0.1244176726426162
2480000000.0 0.6072997454878574 -0.3350903155691831
2500000000.0 -0.5234158417162849 0.4969049069260478
2520000000.0 0.5161083725374417 -0.5337964550392823
2540000000.0 -0.6583213340291909 0.36955020610082967
2560000000.0 0.7543055964222264 -0.09560529585031563
2580000000.0 -0.6376706731923468 -0.4093133576044937
2600000000.0 0.3475347245721819 0.66065500167141
2620000000.0 -0.028413213601247572 -0.7284131456979677
2640000000.0 -0.6302098766072274 -0.3120280897582055
2660000000.0 0.5513386360117782 0.38245458568172486
2680000000.0 -0.4713602242449567 -0.4250095617290537
2700000000.0 0.42326553026435937 0.42394042791199654
2720000000.0 -0.5290838634484907 -0.18918895872316652
2740000000.0 0.4911308403506424 -0.177826699976053
2760000000.0 -0.2783387876219566 0.3943310388678081
2780000000.0 0.18230193482134865 -0.408818977459947
2800000000.0 -0.32287062298794966 0.2704698884194902
2820000000.0 0.392374982831427 -0.10630019263563976
2840000000.0 -0.3890175054817782 0.07971794131281777
2860000000.0 0.3896606567733087 0.03200477581254937
2880000000.0 -0.30195505845533277 -0.2400038967408214
2900000000.0 -0.17103555709418528 0.34239435441263777
2920000000.0 0.22985064328823115 0.30825776307271296
2940000000.0 0.34145143497306585 -0.18131983561719509
2960000000.0 0.20509225621340915 -0.3245070609719239
2980000000.0 0.22917826772158 -0.3033211844262386
3000000000.0 0.350876538607943 0.14071283102626084
3020000000.0 -0.0630958286335229 0.37163093190948526
3040000000.0 -0.3708602614001956 0.0142069361030409
3060000000.0 0.19442050010169745 -0.30302303273689474
3080000000.0 -0.17982262528148005 0.29686964925975173
3100000000.0 0.23932803019009638 -0.23460046499242423
3120000000.0 -0.30553898498790427 0.11758035564974388
3140000000.0 0.2162724767513949 -0.23336192867172476
3160000000.0 0.2814081846224463 0.11384105326515989
3180000000.0 -0.23716312714973226 0.1396607432842094
3200000000.0 0.040559112028262546 -0.23388638862746866
3220000000.0 -0.19946851041898814 -0.021723537866392036
3240000000.0 -0.16438239504508595 0.045859694847461156
3260000000.0 -0.14013347909708723 -0.040626862639203135
3280000000.0 -0.00865401723770252 0.11947126643841514
3300000000.0 0.08653236093613671 0.004659417157557772
3320000000.0 0.02827253902881663 -0.04650036366538377
3340000000.0 0.02781867596814005 0.032559893914982145
3360000000.0 0.012107651481745713 -0.04245719302367976
3380000000.0 0.044544264968738784 0.006075672117888005
3400000000.0 -0.01554822611549041 0.03683180776954706
3420000000.0 -0.029971115578471864 0.002200907564626828
3440000000.0 -0.005040856394371864 0.020004385731499333
3460000000.0 0.012574562017088384 0.0037033698481499303
3480000000.0 0.01476601328182721 -0.017238882654341724
3500000000.0 -0.007703110654109213 0.030693579469845297
3520000000.0 0.021287723682627734 0.026808923716156608
3540000000.0 -0.036737672181817976 -0.020575240654516148
3560000000.0 -0.048235190356063634 0.020220618916578954
3580000000.0 0.027923063191316152 0.062339886663313256
3600000000.0 0.05395585774792304 0.06357474406067358
3620000000.0 0.057211083544398786 -0.07245254594972608
3640000000.0 0.07723614969369304 -0.05054641734140388
3660000000.0 0.047095436745227585 -0.07648138255719415
3680000000.0 0.09077195641077038 0.007034024328675233
3700000000.0 0.061382328095151484 0.07357181107377775
3720000000.0 -0.01226244344095832 -0.10191762109523932
3740000000.0 0.10020981713023167 0.017914795714109675
3760000000.0 -0.09675376917729134 -0.009478623690329533
3780000000.0 0.08465010425031944 -0.051142742236407975
3800000000.0 0.09798568080699184 0.0639126123188585
3820000000.0 0.12346226813999013 -0.0708141896091237
3840000000.0 -0.07929482193016123 0.1390804313660477
3860000000.0 -0.16627978151416112 -0.05899092987124586
3880000000.0 -0.10058453199166033 -0.16136917697032027
3900000000.0 -0.11170933501214564 -0.16439624895362348
3920000000.0 -0.08303848851276042 -0.18250994361600403
3940000000.0 0.16431445875764328 -0.1159290049396268
3960000000.0 -0.12563665623453593 0.15615694766565083
3980000000.0 -0.14597597580555072 -0.14305736182664408
4000000000.0 -0.11922641275314493 -0.1643151607833893
