!Created with skrf (http://scikit-rf.org).
# Hz S RI R 50.0 
!freq ReS11 ImS11
400000000.0 0.4716155786432653 -0.6729323179211
420000000.0 0.1763579452265067 -0.8065971147532829
440000000.0 -0.584660432822012 -0.5060549924638337
460000000.0 -0.262751363238102 -0.6690710691971069
480000000.0 0.32250387546417525 0.5824060913232489
500000000.0 0.6138613439201922 -0.18676287005201203
520000000.0 0.3157860407084707 0.4713318431144896
540000000.0 -0.39775116147313266 0.2996235647512638
560000000.0 -0.23225501557110292 -0.40587144505411826
580000000.0 -0.40519129560213274 -0.0990416649646327
600000000.0 0.2860999982238917 0.2485481400040918
620000000.0 0.2512345692204823 0.27799153196653936
640000000.0 -0.30602783914130455 -0.27691070850380706
660000000.0 0.3807888678839558 -0.23504268089870803
680000000.0 -0.3943180766912375 -0.22955367298672302
700000000.0 0.3877034350985812 -0.22337607450518648
720000000.0 -0.22949522302633074 0.3699939922177309
740000000.0 -0.12213757519085976 0.36306584675206277
760000000.0 0.22828510282559453 -0.26540151985848665
780000000.0 0.13253179969396792 0.2912525763763729
800000000.0 -0.09801084391148543 0.2700575848678766
820000000.0 -0.2378376178346089 0.05909622186954212
840000000.0 0.16885865085746343 -0.09945112915950306
860000000.0 -0.15027971003642684 0.07917140129694167
880000000.0 -0.14044907078276694 0.03319972513723413
900000000.0 -0.004538529469629022 0.10532952112509315
920000000.0 0.06641439637429397 -0.04850546100415855
940000000.0 -0.044138774911133445 0.029336291678231215
960000000.0 0.0007604964185892998 -0.05540639174371003
980000000.0 0.07268220904462545 -0.017644798915141834
1000000000.0 0.07239885023431064 -0.03145980565419629
1020000000.0 0.06443367895541426 -0.0932052958919692
1040000000.0 0.10539500132955142 0.08542950853230649
1060000000.0 0.15966924158393828 0.056637785464501884
1080000000.0 -0.2118694411265637 0.02190013828714608
1100000000.0 -0.20805163143382002 0.1063722301790415
1120000000.0 0.14913100498627707 -0.19925574948009628
1140000000.0 0.05693151626557459 0.2707385347399393
1160000000.0 0.12772280273063522 0.26536809634163605
1180000000.0 -0.32414974782612826 0.06537146779209435
1200000000.0 -0.2967103988160705 -0.18234983373069077
1220000000.0 0.09248503807953018 0.3567828935376979
1240000000.0 0.16841416180462854 -0.33360443951137464
1260000000.0 0.2009733221921239 0.3273213376678176
1280000000.0 0.3980931053216809 0.13177147226218802
1300000000.0 -0.02881908183764285 -0.430131686359116
1320000000.0 -0.42956209853425303 0.0856451171709877
1340000000.0 -0.4094935704693568 0.15664923179971674
1360000000.0 -0.047878431213718015 0.44469379232444645
1380000000.0 0.20986884248340837 -0.37410862104898773
1400000000.0 0.04690316472614166 -0.4044483221515621
1420000000.0 -0.30119066094827607 -0.23303102308292856
1440000000.0 -0.2172104518610216 -0.2905669230719881
1460000000.0 -0.03994760180067841 0.3391710699007562
1480000000.0 0.20680486702220402 -0.23236149375434856
1500000000.0 -0.15875973443514946 0.22321091266490495
1520000000.0 -0.03905772756855964 0.22927682300390823
1540000000.0 0.1884816639273705 0.05077023736769985
1560000000.0 0.02301470662624656 0.15944221523463234
1580000000.0 0.04300775213805224 0.13981502643521182
1600000000.0 0.07926255296024724 0.0925154376803465
1620000000.0 0.03390146283620348 0.0813179069044821
1640000000.0 0.03347534578045839 -0.0526570203537187
1660000000.0 0.004646634112710133 0.040433264414663724
1680000000.0 0.020007991410581325 0.008100395968920747
1700000000.0 0.0138024163527755 0.00563969967274135
1720000000.0 -0.03535375030177716 -0.010962329595400944
1740000000.0 0.059757681251463995 0.009786829840592702
1760000000.0 -0.006594295545668081 -0.0865445048918424
1780000000.0 -0.09560623323293536 -0.05799310334918689
1800000000.0 0.11676863159028374 0.08526952087235719
1820000000.0 -0.14467442143274356 0.10098883807857698
1840000000.0 0.17728778319055882 0.10358962511951009
1860000000.0 -0.08692969931613956 -0.22771530811902035
1880000000.0 0.0818497041114398 0.27373932142022794
1900000000.0 -0.2881250179395043 -0.15273374760368638
1920000000.0 0.05442097963972686 -0.3548533000530387
1940000000.0 -0.08462834249818814 0.3625137902006127
1960000000.0 0.331964176356575 0.199982395778322
1980000000.0 0.4009257457500978 -0.055336384294463484
2000000000.0 0.02275492644353033 -0.42440299461593134
2020000000.0 -0.39683277285899965 0.17839592112672098
2040000000.0 0.26867627935554306 0.34265921544705363
2060000000.0 0.36446241808422597 -0.22295221175647756
2080000000.0 0.25306138191827066 -0.33301992034915845
2100000000.0 -0.024324356388749344 -0.4099830709408552
2120000000.0 -0.3636536726226947 -0.167576260050793
2140000000.0 -0.24300782493377185 -0.3000083671439896
2160000000.0 -0.27615178613639574 0.23674116955779503
2180000000.0 -0.050081730130586734 0.336082182234571
2200000000.0 -0.12619351617658595 0.2948603899659145
2220000000.0 -0.30943414789147344 0.051376005530715925
2240000000.0 -0.18012408234025734 0.25942385676230134
2260000000.0 0.3008955323830712 0.09762368908578649
2280000000.0 0.2191417332288019 -0.23208466464390204
2300000000.0 -0.10711903638332348 -0.31257762212082957
2320000000.0 -0.3524991559748821 -0.02905701089052121
2340000000.0 0.07303163730256614 0.38209373951471
2360000000.0 0.012323748449439457 -0.43413285888619885
2380000000.0 0.27468841707238906 0.3983442994008389
2400000000.0 -0.5031255057006876 -0.17325094883009473
2420000000.0 0.5419295544630415 -0.21453485851290216
2440000000.0 -0.2717265700308514 0.569421954399511
2460000000.0 -0.20816043525303332 -0.6405970903082482
2480000000.0 0.5697530240192502 0.42099652178306624
2500000000.0 -0.681563229370865 -0.269277874260556
2520000000.0 0.710544854388512 0.23887239704731483
2540000000.0 -0.6314258871463079 -0.41627847671819923
2560000000.0 0.3615834733993841 0.6650914551820402
2580000000.0 0.21273464145754198 -0.7180853107659287
2600000000.0 -0.4783791924974846 0.555622448393785
2620000000.0 0.6429794002013763 -0.3034470951707428
2640000000.0 0.09241446493721532 -0.6742392302438217
2660000000.0 -0.29325093214188747 0.5722720343098953
2680000000.0 0.5007935095326491 -0.33936921552373506
2700000000.0 -0.5368441213431364 0.18682875695558246
2720000000.0 0.4356731500496537 -0.30383080218578123
2740000000.0 -0.2924614940838627 0.3939702143677795
2760000000.0 0.24486645208359842 -0.379967588113253
2780000000.0 -0.4089428198735332 0.1058007705346524
2800000000.0 0.3934809835319132 0.0973566211984098
2820000000.0 -0.35309844742959573 -0.1735964934415434
2840000000.0 0.3588435464013084 0.15131807447023524
2860000000.0 -0.36567508948105776 0.11004635959425828
2880000000.0 0.2994834280042576 0.22069189613385506
2900000000.0 0.36491266889451573 -0.05653034309599598
2920000000.0 0.27069496541567767 -0.2577734310841204
2940000000.0 -0.13458536002971241 -0.3551241851299902
2960000000.0 -0.2972759065530102 -0.23497165045541227
2980000000.0 -0.18593516059125553 -0.3282228397238703
3000000000.0 0.07652578733446462 -0.3678471551680059
3020000000.0 0.3652639143310953 -0.050745541662674754
3040000000.0 -0.1509904015675703 0.3275736587649122
3060000000.0 -0.01450880038035143 -0.35037740599738726
3080000000.0 -0.21054023633837216 0.2700349330461179
3100000000.0 0.19260470361471752 -0.27645749442823586
3120000000.0 0.08125337257538104 0.3185859838982224
3140000000.0 -0.3055343877445509 -0.07966672783208632
3160000000.0 0.0720898272946761 -0.2838047714695909
3180000000.0 -0.2618901474501453 0.04318349653485601
3200000000.0 0.23164799873465416 -0.043847638529132864
3220000000.0 -0.17625161024104277 -0.10521499031034089
3240000000.0 0.0015120034279100625 0.17662620071194993
3260000000.0 0.1309311136514032 -0.0637007270705427
3280000000.0 0.08563942588521636 -0.07134583316409385
3300000000.0 -0.043862464380268945 -0.06952559020731083
3320000000.0 -0.05699793396223523 -0.01686543528837469
3340000000.0 -0.026453390430108754 0.04292226826778378
3360000000.0 -0.040000464665700876 0.02435319510705369
3380000000.0 -0.009976937608728026 0.034129214240008296
3400000000.0 0.01236604555457549 0.02348057213146957
3420000000.0 -0.020638445236579043 -0.011820941454612089
3440000000.0 -0.014845489593689096 -0.01747573483366119
3460000000.0 0.007487772567320286 0.009548003737744965
3480000000.0 -0.014637609786199143 0.0005908966084625412
3500000000.0 0.01462428703715913 0.024660246515189235
3520000000.0 0.046063797022275116 -0.015959810974336096
3540000000.0 -0.010002996990904678 0.06495851561472493
3560000000.0 0.0706324379172189 -0.02215053345717216
3580000000.0 0.06741829836550778 -0.039962739408709355
3600000000.0 -0.07750002052090249 -0.021721949232512534
3620000000.0 -0.08443351082080472 0.022945077447290827
3640000000.0 0.05691066786338409 0.07547687496082389
3660000000.0 -0.09027349750986251 -0.045002779141275366
3680000000.0 0.07385429801744235 -0.0685673165514639
3700000000.0 -0.08270531477546242 -0.04985358340364748
3720000000.0 -0.09291086312989875 -0.018522840005360537
3740000000.0 -0.07236634821906192 -0.05717348933185381
3760000000.0 -0.09453764272512606 0.006118497461052107
3780000000.0 0.060684553276172525 0.07885964531571754
3800000000.0 0.10049481466724314 0.03394780039936017
3820000000.0 0.025777556929624534 -0.12037136938728545
3840000000.0 -0.13060769808790196 -0.059703785338390596
3860000000.0 0.16055277354624484 -0.03249477536051466
3880000000.0 0.1775653211975857 0.027012698890041324
3900000000.0 0.1888118822063262 -0.025763345922870964
3920000000.0 0.18448549206547923 0.05096135942580013
3940000000.0 -0.1216110498760316 0.14843054137108863
3960000000.0 -0.0054103654337282 -0.1946293074829004
3980000000.0 0.1824403469954636 -0.07566104305148728
4000000000.0 0.18792437259131145 -0.03511336462880214
