!Created with skrf (http://scikit-rf.org).
# Hz S RI R 50.0 
!freq ReS11 ImS11
400000000.0 0.488172242413472 0.6358569512673652
420000000.0 0.5731651128934153 -0.5627344121176773
440000000.0 -0.6026997050543649 -0.43271629937987605
460000000.0 -0.5638837685770695 -0.39856488276899393
480000000.0 0.3941170925415922 -0.4937482480458688
500000000.0 -0.4391251368238113 -0.4258448548501049
520000000.0 -0.45586099411999825 -0.2999800359544255
540000000.0 0.08131545227296366 -0.48746635380890274
560000000.0 0.04498943090997273 0.4817482354437418
580000000.0 0.060739709817387584 -0.4520188333954843
600000000.0 -0.4199249797092382 0.04698397340727564
620000000.0 0.3945672695463956 -0.11505832963196638
640000000.0 0.351819316796113 -0.26087225943862413
660000000.0 -0.0845855616087751 -0.4651723466435129
680000000.0 -0.36836203068098805 -0.2977013070444558
700000000.0 0.004888000128261713 0.4573175917339759
720000000.0 0.33460517616154045 0.2870974609779141
740000000.0 -0.3981696216794892 0.0917295737711881
760000000.0 0.3005281895026751 -0.23047125086769712
780000000.0 -0.3546539181699491 0.018802139814670153
800000000.0 0.07847378103114148 -0.32223658562593677
820000000.0 -0.2809093411697398 0.07075917988220179
840000000.0 -0.2001581661324341 0.09290808793445243
860000000.0 -0.04339481960880002 0.19628119317618214
880000000.0 -0.1060886091760774 -0.11703935217879421
900000000.0 -0.09622260883241152 0.08048238967228737
920000000.0 0.06707496496352246 -0.013459317286282347
940000000.0 0.03793815926519303 0.01796962120586028
960000000.0 0.023366433236893937 0.015348477820328273
980000000.0 -0.007846571115569936 0.032924988190492915
1000000000.0 0.053442800697811675 -0.0015500804314911361
1020000000.0 0.07753001766528697 0.030756187090240125
1040000000.0 -0.08486402423551871 0.06956053448055516
1060000000.0 0.000774986321448192 0.14298031330276592
1080000000.0 0.18438669712734795 -0.048199877518077236
1100000000.0 -0.2301684717814196 -0.022488216329469755
1120000000.0 0.27343709150762735 -0.016041214770101196
1140000000.0 -0.2759692139958706 -0.12997108612636613
1160000000.0 -0.2991673086085736 0.13509728991862316
1180000000.0 0.09875802738695662 -0.32843391554281903
1200000000.0 -0.334303555294746 0.11996338130406173
1220000000.0 -0.22020520777873062 0.29773007873058016
1240000000.0 0.3598190195284931 0.1406201722211509
1260000000.0 0.18857649840333562 -0.34615654774709814
1280000000.0 -0.32203313500203895 -0.23003725880785117
1300000000.0 -0.3861165905586543 0.05159700913010091
1320000000.0 -0.33590022676128095 0.18429266090734361
1340000000.0 -0.1861663708492194 0.32813394292352677
1360000000.0 0.35341621040661236 -0.033097080497587
1380000000.0 0.11162921459421099 0.3042330426716369
1400000000.0 0.1983976148248356 0.2290083589015637
1420000000.0 0.24654621311206043 0.12541781642556996
1440000000.0 0.017197673243079484 -0.25147069265767386
1460000000.0 0.13640416511748002 0.16654928331344174
1480000000.0 -0.1686826305143479 -0.010844830034421887
1500000000.0 -0.11327544442096611 -0.03868744386343264
1520000000.0 -0.06732122197574132 0.04814610057819195
1540000000.0 0.03877956141258022 0.0021739862533707425
1560000000.0 -0.006018067242719781 -0.008209484282587763
1580000000.0 0.026129307683263055 0.025530890850131428
1600000000.0 -0.012719020497962304 -0.05257764698669132
1620000000.0 -0.06743203724724837 0.017486255108302422
1640000000.0 0.0663299822170513 -0.07525304476356777
1660000000.0 0.10464731933872308 0.0678450501371893
1680000000.0 -0.005616636343198915 0.148355217040919
1700000000.0 -0.16591408069566743 0.034413699477855414
1720000000.0 -0.015944583818661377 0.188205442056269
1740000000.0 0.09484588015271841 0.1790629750494724
1760000000.0 0.1725921844953946 0.1452171167994623
1780000000.0 -0.07874977070741292 -0.24106543586179036
1800000000.0 -0.2668632677903298 -0.09156494366437455
1820000000.0 -0.11390982564212493 -0.28827848826718794
1840000000.0 0.28236048965220334 -0.19733788015654108
1860000000.0 0.3518262087777637 -0.13113540743070193
1880000000.0 0.0541541855040471 0.40270294520023
1900000000.0 -0.37736745605209016 -0.20284134464747122
1920000000.0 0.40444312499938984 0.2089170205374175
1940000000.0 -0.442697388873898 -0.18219725319107166
1960000000.0 0.38018956163896706 0.3144843103338554
1980000000.0 -0.035540036282276484 -0.5044374433456466
2000000000.0 -0.4371744833564078 0.2602993161766641
2020000000.0 -0.04188267954210387 0.5124456382424395
2040000000.0 0.5144343845284431 0.05037975641097571
2060000000.0 -0.0724468014037895 -0.5084659375934063
2080000000.0 -0.4896888412003689 0.1070654047542729
2100000000.0 -0.16390466544502597 0.45609196965329973
2120000000.0 0.2662374638623788 0.38723976545250266
2140000000.0 0.22978729151363864 0.39088992280976426
2160000000.0 0.42353847177523263 -0.06322222559157424
2180000000.0 0.1741835754975282 -0.36977001412729316
2200000000.0 -0.35229742519606627 -0.1772287557226288
2220000000.0 -0.02421359301523674 0.37807162334675304
2240000000.0 0.34988956950539807 -0.11638362554003479
2260000000.0 -0.06316166735996201 -0.3504787786784097
2280000000.0 -0.3551572209966648 0.013473739076316755
2300000000.0 0.29851128602575283 0.19833541302596183
2320000000.0 0.24725934065805827 -0.26850183406228184
2340000000.0 -0.147528021905034 -0.3528344851754008
2360000000.0 -0.4068302979839561 -0.026541102092652556
2380000000.0 -0.04658439934383362 0.44144096125490695
2400000000.0 0.4688591730276145 -0.10630945441027594
2420000000.0 0.00046227668485239443 -0.5218723525908248
2440000000.0 -0.5497263432735521 0.1555077028346767
2460000000.0 0.550198201683476 0.2790384047156604
2480000000.0 -0.2520049500721927 -0.6085943548863694
2500000000.0 -0.3034993391862469 0.6241090346796702
2520000000.0 0.6533787848644014 -0.30390565167414446
2540000000.0 -0.7348124041260639 -0.08734572862594474
2560000000.0 0.38753407801853296 0.6448476417239186
2580000000.0 0.26863478499886756 -0.7060359906475051
2600000000.0 -0.7207643348978086 0.2099585480999798
2620000000.0 0.6533105369072952 0.34565840501086503
2640000000.0 0.6682735848750215 -0.2748979599074187
2660000000.0 -0.6847173233099038 -0.14932917780725008
2680000000.0 0.6075164712121232 0.2984215122119577
2700000000.0 -0.6093845187334958 -0.22835815331970946
2720000000.0 0.6179713000095752 -0.08420386325617972
2740000000.0 -0.38413680580157633 0.4566730830659879
2760000000.0 -0.229653223170607 -0.521841089692484
2780000000.0 0.5322753678139851 -0.1359816573982096
2800000000.0 0.09927558511489487 0.5236669253500084
2820000000.0 -0.5044895254460294 0.12555316167862396
2840000000.0 -0.14373133011291933 -0.48906991942397815
2860000000.0 0.49895032380299403 -0.039334925081489475
2880000000.0 -0.3732961242588107 0.3190887679716482
2900000000.0 0.3906298645411267 -0.2862768415838627
2920000000.0 -0.4743849122897202 0.07145087447668629
2940000000.0 0.3398077380679122 0.3265688913757535
2960000000.0 0.40164004252917007 -0.2230608025949478
2980000000.0 0.28384846197571734 -0.3464374310851668
3000000000.0 0.23585583937074683 -0.371679899533256
3020000000.0 0.2000119348085445 -0.37788402864338605
3040000000.0 0.3052883488932255 -0.27403544558836296
3060000000.0 0.38973423952579456 -0.012779449716615392
3080000000.0 0.20156228991064828 0.3043592564471219
3100000000.0 -0.058580412375567124 0.3339077520839954
3120000000.0 -0.19489232023418376 -0.23968550616250614
3140000000.0 -0.22943201652637157 -0.15009750658665008
3160000000.0 -0.22942290584378508 -0.031090931747240067
3180000000.0 -0.15155427099604218 0.10335585632404358
3200000000.0 -0.06443566268713677 0.11582902392728248
3220000000.0 0.05279938616576065 0.0636344866318497
3240000000.0 -0.008040403710027953 -0.030141650879598726
3260000000.0 -0.01622427560291193 0.0004783210990349568
3280000000.0 0.01442977171582 -0.054825742520471975
3300000000.0 0.031775252643986875 0.08334307642487504
3320000000.0 -0.12104304326081734 -0.011795417312119772
3340000000.0 0.01555262584924604 0.1455219841462977
3360000000.0 -0.10732860100135558 0.11568561977322256
3380000000.0 -0.1548818446944487 0.06080487960824155
3400000000.0 -0.10699323182772566 0.13319403574157884
3420000000.0 -0.12693148847226743 0.11077008688554403
3440000000.0 0.15303773544867644 0.035951904900816026
3460000000.0 -0.08264579097276387 -0.1162802694334593
3480000000.0 0.12726215962849988 0.0024278406684554218
3500000000.0 0.11459316652799703 -0.0075686318321933795
3520000000.0 0.07182635785026632 0.07769612090893577
3540000000.0 -0.04343080760637053 -0.08975890396219395
3560000000.0 -0.10317317306288196 0.012447271976520558
3580000000.0 0.04678212179871931 -0.10763494587627669
3600000000.0 -0.1386981013268091 -0.008021107405092823
3620000000.0 -0.02889822527412749 -0.16052836080343763
3640000000.0 0.007445003049784483 0.18768504502266034
3660000000.0 0.20307658585896285 -0.05337412672560716
3680000000.0 0.1764196834080929 0.1450509342089827
3700000000.0 -0.016031919484970205 0.2447240999466264
3720000000.0 -0.20756345045144772 0.15153890499714928
3740000000.0 -0.1841555951568307 -0.1877167447445531
3760000000.0 0.1524923064822659 0.22021329362406886
3780000000.0 -0.2043191691004922 -0.17185182388548742
3800000000.0 0.2368007443203992 0.10741055198839722
3820000000.0 -0.24565087216175702 -0.048964031007393764
3840000000.0 0.18215662279930703 -0.13959812173799976
3860000000.0 -0.14146217510021936 0.14674013656633447
3880000000.0 0.09119161617810029 0.14662713952107276
3900000000.0 0.10158179085095351 -0.0844287822756465
3920000000.0 0.018816655421129088 -0.09080964273352256
3940000000.0 -0.01343965339183193 -0.0476438842342121
3960000000.0 -0.01064294113195551 0.013102629636378134
3980000000.0 -0.04430240966823077 -0.020288142215516634
4000000000.0 -0.007286414141188264 -0.08712313983025717
