!Created with skrf (http://scikit-rf.org).
# Hz S RI R 50.0 
!freq ReS11 ImS11
400000000.0 0.7241400044856927 -0.39847651929533884
420000000.0 -0.057627594418541254 -0.8276793067627777
440000000.0 -0.6618153693541476 -0.3930126519538738
460000000.0 -0.3249988169985123 -0.6346969812973864
480000000.0 -0.03198909286577963 0.6513108398296634
500000000.0 0.4907910919938891 0.4061135672319613
520000000.0 0.07328123940767167 0.5631575052847556
540000000.0 -0.3144120734266559 -0.40457295248793557
560000000.0 -0.47694934135666966 -0.08191887503738073
580000000.0 0.18383462169471207 0.37069299571449155
600000000.0 0.1747596044159776 -0.3266631602574029
620000000.0 0.10561493108701575 0.34932040312249224
640000000.0 -0.3101794245036027 -0.2664742127354343
660000000.0 0.38516973429369 0.2238450326829199
680000000.0 -0.04637938438578647 -0.46349144708886164
700000000.0 0.003202236777326212 -0.45888434271716844
720000000.0 0.35660585131122535 0.23434045059108954
740000000.0 -0.1604794718130268 0.32710352646052965
760000000.0 -0.3183516440484068 -0.0928521490130902
780000000.0 0.1797072091461783 0.27564636017468774
800000000.0 0.1509274618851756 0.27211932622790186
820000000.0 -0.05022110592055897 -0.27504441091224063
840000000.0 -0.2277440769444901 0.018787955736499048
860000000.0 -0.06667378185978161 0.1680132042286756
880000000.0 -0.12584390518235763 -0.03813100673799802
900000000.0 0.07828450961178336 -0.05758834706313969
920000000.0 0.04460940472286591 0.06166257090155519
940000000.0 -0.06878181695123099 -0.00517511681874867
960000000.0 -0.0820498165841461 0.0026799037103544462
980000000.0 0.08073407935766601 0.06139841529149078
1000000000.0 -0.08139474268237862 0.06551275246998083
1020000000.0 -0.10106254946283236 -0.010628907366567004
1040000000.0 0.08563009771123978 -0.055448529734219106
1060000000.0 0.0815163615435209 -0.10155354021131838
1080000000.0 0.1453554411824339 -0.10302062478670904
1100000000.0 0.10004591812050417 -0.1885838551233983
1120000000.0 -0.14493088214959168 -0.22056630056444296
1140000000.0 0.12854917172794839 0.26443683290834075
1160000000.0 -0.041178132889465494 -0.29454955028110075
1180000000.0 0.0055572935468013365 0.3095462583688267
1200000000.0 0.31180747064945585 0.11697974356119642
1220000000.0 0.34668106710406943 -0.13365338960661083
1240000000.0 0.1369092612923931 0.37877471654167
1260000000.0 0.002125576487735946 -0.40560180025476433
1280000000.0 0.02347266500919946 -0.40784718979164575
1300000000.0 0.40317372477485236 -0.12668785267732072
1320000000.0 0.25341127156905363 -0.36775551785417837
1340000000.0 -0.43472321422716065 0.15331633505094194
1360000000.0 0.3798691866813632 -0.24715147299869297
1380000000.0 -0.3035986239439494 -0.28895148479341565
1400000000.0 0.09098350928794637 -0.38124978774554175
1420000000.0 0.3719289742473508 -0.012045367886389933
1440000000.0 0.36552916314217515 0.011863567610829188
1460000000.0 -0.3238933749504398 -0.12505672742270527
1480000000.0 0.24253698860986575 0.20613683218218165
1500000000.0 -0.26370564494433385 0.0947281800264483
1520000000.0 -0.18958847733252607 0.1474141703306152
1540000000.0 0.0999442053801535 0.17181073805214367
1560000000.0 -0.16079160562379788 0.06392023796073358
1580000000.0 0.11062433791519723 -0.11137255799367896
1600000000.0 -0.12199876665737132 0.020167191767915704
1620000000.0 0.015277454904426857 0.08470504983749948
1640000000.0 -0.05710959978218846 -0.03446382297522554
1660000000.0 -0.03876789313718535 -0.037769404444062675
1680000000.0 0.011243776166338265 0.022839129565181027
1700000000.0 0.0011875998274690897 -0.007648535649328163
1720000000.0 0.04443731672443005 0.014889506807200652
1740000000.0 0.07139070278039304 -0.020653000631029105
1760000000.0 0.07725985367774194 -0.05157484659299847
1780000000.0 -0.03025785433279048 -0.10754361501619332
1800000000.0 -0.11380714042429745 0.07166076021953502
1820000000.0 -0.0327447694237721 -0.15001738321191851
1840000000.0 0.0816599376122104 0.1811923222045
1860000000.0 -0.15109116474641038 0.20916915692079913
1880000000.0 0.26954797901298866 0.12598808636636757
1900000000.0 -0.0320055413012092 0.31904043509940594
1920000000.0 0.09226465000814876 -0.32054554301133903
1940000000.0 0.1601783340220715 -0.3138325713918686
1960000000.0 -0.009062658374381614 -0.38147155066693156
1980000000.0 -0.4106196936225477 -0.026191974838110824
2000000000.0 0.4297981507158053 0.07470276315531109
2020000000.0 -0.4411623780326892 0.03153433887206321
2040000000.0 0.19290784528603194 0.38799458472371284
2060000000.0 0.4070217825185711 0.10446287144969992
2080000000.0 0.37228520964793377 0.16933609361407362
2100000000.0 0.3229185141599271 0.2411087845414524
2120000000.0 0.3947739427471425 -0.04799966482020068
2140000000.0 -0.2247782468167178 -0.3173011713584343
2160000000.0 -0.3149363343096961 -0.18238490300023252
2180000000.0 -0.33005592570436354 -0.05014151069515191
2200000000.0 -0.08626512785059545 -0.30211065153290556
2220000000.0 0.2605906798808179 -0.16372790968884415
2240000000.0 0.040565835652536346 -0.3074434062756787
2260000000.0 -0.3084840378550079 0.007333767648460674
2280000000.0 -0.17644569136562122 0.2528362787337013
2300000000.0 0.062117189556549185 0.31126942727719
2320000000.0 0.2416699591846972 0.23649003362121646
2340000000.0 0.06640804486158677 -0.36659616178310417
2360000000.0 -0.22534223717448001 0.3415536988844221
2380000000.0 0.3359954745416823 -0.30788536735105637
2400000000.0 -0.3120876985729443 0.4003701380427585
2420000000.0 -0.023038162300626247 -0.5612674019265315
2440000000.0 0.4962187072860899 0.3563525760193768
2460000000.0 -0.65410326859106 0.031158077036707914
2480000000.0 0.5357647338103533 -0.4409331995937257
2500000000.0 -0.41544260281170475 0.5936953437414968
2520000000.0 0.363877977438332 -0.6498447196956273
2540000000.0 -0.4788047158586316 0.5859073131356124
2560000000.0 0.735042368164976 -0.1995823747809265
2580000000.0 -0.7038096704877725 -0.28006791640984213
2600000000.0 0.4553965680009204 0.5916793762394356
2620000000.0 -0.20908432996380796 -0.6982303023098827
2640000000.0 -0.6991358343372079 -0.08510890612687316
2660000000.0 0.6478050773987449 0.18102055770900424
2680000000.0 -0.5921631073641257 -0.23279980145801826
2700000000.0 0.5888998847292493 0.10366270190517234
2720000000.0 -0.5238632768835864 0.1866694111442785
2740000000.0 0.4429377918800129 -0.25810844778972847
2760000000.0 -0.46445662979657104 0.09780015281161607
2780000000.0 0.4467233038942152 -0.022019558315855923
2800000000.0 -0.412158107146333 -0.10756280932553114
2820000000.0 0.40404081886905724 -0.08797637774312961
2840000000.0 -0.31186655963301896 0.2509718670061846
2860000000.0 0.32402150584976996 -0.21828083270803236
2880000000.0 -0.36153765020590806 -0.1302813629439626
2900000000.0 -0.15174309380863574 0.3523665476678403
2920000000.0 0.3771359764741218 0.0818671510944184
2940000000.0 0.08200147316674226 -0.3775291598279709
2960000000.0 -0.2111827878791244 -0.3155947627012998
2980000000.0 0.09893369883073241 -0.3577172146300344
3000000000.0 0.30440580794243527 0.21065607851863774
3020000000.0 -0.3022101607156921 0.20921528591182964
3040000000.0 0.018333403900022825 -0.36838507471380344
3060000000.0 0.354297805162914 0.09315702208023337
3080000000.0 -0.1391662003283944 0.3304630974579166
3100000000.0 -0.1978134736989314 -0.2804730545715927
3120000000.0 0.24539585625657834 0.21852839085920067
3140000000.0 -0.28485133653810096 -0.11975264902339008
3160000000.0 0.1760952038349552 0.2307877393319407
3180000000.0 0.04401823968184686 -0.27027984785134984
3200000000.0 0.1886850279666125 -0.1572207393175118
3220000000.0 0.07698513307131634 0.19005244883838296
3240000000.0 0.03547046325253022 0.15949959942153247
3260000000.0 0.08577233700076227 -0.10863387535331709
3280000000.0 0.09774900000651962 -0.06609101850984189
3300000000.0 0.00859905642453883 -0.09153970827086795
3320000000.0 -0.06237089263641245 0.005662935418294222
3340000000.0 0.04033805445787144 -0.012329183680842218
3360000000.0 0.03999101739028339 0.003717927541725271
3380000000.0 -0.006608332503656446 -0.04295000685818854
3400000000.0 0.02524145402325728 0.03103175294790194
3420000000.0 -0.006293032716697651 0.029954908912817768
3440000000.0 -0.0002925697467701588 -0.025244486699209163
3460000000.0 0.01938274792772885 -0.00135059789038832
3480000000.0 0.012040461468739959 -0.013395638076871686
3500000000.0 -0.02518440416696912 0.010887632930496
3520000000.0 0.011740217707961695 0.03727431786415836
3540000000.0 -0.006067584654956017 0.047723472560561794
3560000000.0 -0.05629184089532728 0.011568326561528902
3580000000.0 0.04372764827109799 0.05428786829341787
3600000000.0 -0.05671050732905713 0.05501037573856058
3620000000.0 -0.02829494311087065 -0.07975602276312016
3640000000.0 -0.06426565722229538 -0.06091773736709412
3660000000.0 0.07689811240910185 0.05907306533164845
3680000000.0 -0.0697038065489592 -0.0678251996295434
3700000000.0 -0.09112227362954914 -0.03453130584252831
3720000000.0 -0.05771358568759486 0.0825274115163195
3740000000.0 0.09882083458276009 -0.0033090606019687448
3760000000.0 0.04026300872650187 -0.08730478377029827
3780000000.0 0.08881340678381489 0.05442448375836
3800000000.0 -0.11290235064497352 -0.035897696762397915
3820000000.0 -0.10530114189626616 -0.09146197382646966
3840000000.0 0.15586155988298753 -0.016703370392395455
3860000000.0 -0.16205680655211646 0.04968946658658903
3880000000.0 0.13376355212036145 -0.12557680380669334
3900000000.0 0.032408905713012894 0.19507485901480756
3920000000.0 0.14835248914436847 0.14672770855376932
3940000000.0 0.17212464793576526 -0.12277305364168781
3960000000.0 0.1829789031348743 -0.09427346088514374
3980000000.0 0.09718497705044786 0.17582783515646755
4000000000.0 -0.1625966587595275 -0.10935176529919796
