!Created with skrf (http://scikit-rf.org).
# Hz S RI R 50.0 
!freq ReS11 ImS11
400000000.0 0.4964022185062181 -0.6455007814579122
420000000.0 0.20685690299502688 -0.8015437141980554
440000000.0 -0.7736151348054613 0.033993596506476695
460000000.0 -0.6417819760341248 -0.3258052478164035
480000000.0 0.4744491621625379 -0.4618963986233418
500000000.0 0.09408982304822423 -0.6181384830792195
520000000.0 0.5474708267139563 0.04338819352381988
540000000.0 -0.3212601107285953 0.39216496557335334
560000000.0 -0.4648469028232758 0.047129273429742984
580000000.0 -0.021543460150150517 0.40198404083698425
600000000.0 -0.303520679294714 0.2282782360269977
620000000.0 0.03298070105748085 0.39269691749166225
640000000.0 -0.4244676257586247 0.008724336129270859
660000000.0 0.46520659374303897 -0.003925080959715776
680000000.0 -0.22991984837357388 0.4193347027742519
700000000.0 -0.3082676461448487 0.3341335588710259
720000000.0 0.4035442764572136 -0.0883701098873305
740000000.0 -0.3615723101567908 -0.02246668017988945
760000000.0 0.2932962726636545 0.16235963494212305
780000000.0 0.2777995780799227 -0.10778667991731135
800000000.0 0.24954846858898688 -0.14035827003163712
820000000.0 0.06431446661306761 0.26305988569213007
840000000.0 0.23767950691113768 0.09196388936110456
860000000.0 0.06851356617770364 0.21240229556230586
880000000.0 0.12700924562712007 0.13753556084808966
900000000.0 0.13027606057684504 -0.02747118632340554
920000000.0 0.06690691909104551 -0.00911136294240867
940000000.0 -0.026319513265326402 0.035477009680209545
960000000.0 0.03504913290384376 -0.027224594880208827
980000000.0 -0.04112768974095444 0.029110553751993402
1000000000.0 0.036961920978633676 0.026194452014679664
1020000000.0 0.042655826931951114 0.03712045729183454
1040000000.0 -0.09269802970006147 -0.011825293467452532
1060000000.0 0.0341506097257902 0.13950365739814366
1080000000.0 0.18966513682428418 0.020699349570523183
1100000000.0 -0.23889927822108506 0.014671646970102273
1120000000.0 0.23070396475233906 0.16453245669929342
1140000000.0 0.30936763206980905 -0.05718274997865448
1160000000.0 -0.029011327651278604 0.33485584878808095
1180000000.0 0.29664674703685723 0.1745542317935641
1200000000.0 -0.2629771148531839 -0.21359895428253442
1220000000.0 -0.07025848387282951 -0.33797367681698837
1240000000.0 0.33752183571481215 -0.1344922620059154
1260000000.0 0.2680391840527789 0.2837206347990072
1280000000.0 0.4159140844698896 -0.09858518949180169
1300000000.0 -0.44490681365794077 -0.013757760537724735
1320000000.0 0.24866855709121616 0.3778195406192152
1340000000.0 0.2574031276088755 -0.3783108142615629
1360000000.0 -0.26547410645738884 0.3558776469219284
1380000000.0 0.2716548517921863 0.3124370260192447
1400000000.0 0.22926141584919185 0.3081080730681737
1420000000.0 -0.31652593892045766 0.1643537194676977
1440000000.0 -0.30443108726530965 -0.17020988908287876
1460000000.0 -0.1255551297006424 0.30580639766458273
1480000000.0 0.28060047119735065 0.13209495103849225
1500000000.0 -0.2769488743313838 0.07550224488590265
1520000000.0 -0.1667600991084147 -0.19516414148818326
1540000000.0 -0.15838688389167102 -0.13225667500510868
1560000000.0 0.1456743711693223 -0.06729612512550773
1580000000.0 -0.06022054456268491 -0.09821758113254704
1600000000.0 0.011406741659680109 0.08147349355906136
1620000000.0 0.04451608635014634 0.04171536771852042
1640000000.0 -0.028720795572876972 -0.03703645934387935
1660000000.0 -0.01190124299098588 0.02774125763482228
1680000000.0 0.012035361029542764 -0.014716348697521194
1700000000.0 0.0035184758106493927 0.01596065832126734
1720000000.0 -0.01894124652816072 -0.021481503628807106
1740000000.0 -0.0019493083972653873 0.05633166511048866
1760000000.0 0.0149687998933192 -0.0840612638125666
1780000000.0 0.09792973867911299 -0.0670979648866475
1800000000.0 -0.14834777229403986 0.03656343938387783
1820000000.0 -0.18134930564860074 -0.016618624162927784
1840000000.0 0.013056723058559002 -0.2127640422561833
1860000000.0 0.1308454368764087 0.20767285827099866
1880000000.0 -0.24863148892588766 -0.14006129536729509
1900000000.0 0.2396258166171923 -0.21028165256642634
1920000000.0 -0.26296025943010204 0.22552306780710857
1940000000.0 0.37066268421595266 0.05119822945593911
1960000000.0 -0.340933774388062 -0.20676397728772128
1980000000.0 0.15200611942482795 0.38501775360331836
2000000000.0 0.38825972343460646 -0.1723861174173882
2020000000.0 0.05438722014881943 -0.4288358876739804
2040000000.0 -0.4028273408154786 -0.16981947649433826
2060000000.0 -0.32986024215294385 0.28380270798306456
2080000000.0 0.050185408775967645 0.4260383663836233
2100000000.0 0.3253758184120007 0.2644379434687725
2120000000.0 0.40939015637475695 -0.023097096388673313
2140000000.0 0.09040738550475476 -0.3850885561910112
2160000000.0 0.2687046264681687 -0.26174066774439536
2180000000.0 0.06994956978722067 -0.3465677310235506
2200000000.0 0.0034229852846419 -0.33325747487242785
2220000000.0 0.19616633370563322 -0.25525896736860104
2240000000.0 0.22536927380333016 -0.22849983477719032
2260000000.0 -0.13853948485360165 -0.29273775726622114
2280000000.0 -0.3036019565400655 0.1308033161762694
2300000000.0 0.3309774656336642 0.08038068996310324
2320000000.0 0.017221968155025465 -0.3584002910757461
2340000000.0 -0.23407831654720848 0.3108671688920175
2360000000.0 0.2523856064109406 -0.3404531769982368
2380000000.0 -0.3308854543168082 0.3245279192660626
2400000000.0 0.4677891333086669 -0.20527755394275707
2420000000.0 -0.46393032571829457 0.31823950914885624
2440000000.0 0.28087641737003577 -0.5449799111880621
2460000000.0 0.006533643205929311 0.6587750417350481
2480000000.0 -0.27028898616862196 -0.642714260127331
2500000000.0 0.24220191541792918 0.6847959265233158
2520000000.0 -0.16137755455623942 -0.728910809510473
2540000000.0 0.10553131798521492 0.7510823138146135
2560000000.0 0.25794497722979615 -0.7181069618715229
2580000000.0 -0.6894484850768519 0.31868599635339445
2600000000.0 0.6747781910387183 0.3232122606602459
2620000000.0 -0.4078957366064929 -0.6061058685162144
2640000000.0 -0.7036136319389285 -0.030876958848642718
2660000000.0 0.5475254824916714 0.38739782730738886
2680000000.0 -0.3756567780165241 -0.5101488849912553
2700000000.0 0.24777264426756315 0.5404678941215919
2720000000.0 -0.3232990306094266 -0.45176665318796383
2740000000.0 0.37707214690524055 0.35533939836032075
2760000000.0 -0.3422492843079131 -0.3415892854480464
2780000000.0 0.34757832300334607 0.29739878296918076
2800000000.0 -0.3406173427186632 -0.27410229746809534
2820000000.0 0.39571939070384593 0.14960799377335765
2840000000.0 -0.37485286718616084 -0.16654736707183249
2860000000.0 0.23072108967656615 0.33078728738863333
2880000000.0 0.0740350097790333 -0.3954857249678271
2900000000.0 -0.4031741518322601 0.023436186344666092
2920000000.0 0.14200167032807098 0.3847465708335927
2940000000.0 0.2851812159211758 -0.29711636762146165
2960000000.0 -0.021499926727301433 -0.40579677540245124
2980000000.0 0.04283498811094001 -0.39909679362464473
3000000000.0 0.3502348905925476 -0.1870362803949168
3020000000.0 0.21951464453766628 0.3208624150584301
3040000000.0 -0.29829561591342996 -0.23777753563177298
3060000000.0 0.3782644549558196 0.012473756326792894
3080000000.0 -0.31354371302157974 0.2013360054248805
3100000000.0 0.008765225460827123 -0.36320612033539446
3120000000.0 0.34319933113622814 0.06587118400951675
3140000000.0 -0.11107402141246274 0.31098730352954024
3160000000.0 -0.14721058524333158 -0.26995518357727594
3180000000.0 -0.04265004047560313 0.2796055005360841
3200000000.0 -0.2533070180979875 0.01533613407095223
3220000000.0 -0.08025918378909035 -0.20373790847521978
3240000000.0 0.18200621402415385 -0.02248258248192975
3260000000.0 -0.10774797344811131 0.09555059607464435
3280000000.0 0.04610386559884245 0.09333601383084571
3300000000.0 -0.06887342503158544 -0.025829840679040126
3320000000.0 -0.047267077871925696 0.00662768135094409
3340000000.0 -0.023778938735409514 0.011881931624294744
3360000000.0 0.011481944425142637 0.0026072796952588354
3380000000.0 0.013360979080185503 -0.016093987183817347
3400000000.0 -0.023286300627095396 0.023535074831935884
3420000000.0 0.035520989174094235 0.02481772043079034
3440000000.0 -0.007757697447385028 0.04769573044125831
3460000000.0 0.022958078683317465 -0.03926776174314203
3480000000.0 0.005808634086253419 0.04303888649258896
3500000000.0 -0.024460505744448108 0.04494804358968465
3520000000.0 -0.0591466252934255 -0.002772061474184389
3540000000.0 0.04152997927406143 -0.0470758663949258
3560000000.0 -0.056467635641365845 -0.021058664849031433
3580000000.0 0.003837293125827805 -0.05851952434010993
3600000000.0 0.02079688131224698 -0.05360290176655599
3620000000.0 0.026603386469164884 0.04522590175111778
3640000000.0 -0.017730626140147396 0.0443679557068983
3660000000.0 -0.017455280693511026 0.04291462457289764
3680000000.0 0.05023526631034575 -0.01565981930954422
3700000000.0 -0.0010877446018920693 0.06213124441713505
3720000000.0 -0.07234533802816659 -0.021842174953895288
3740000000.0 0.09134511755306263 -2.9096337754974156e-05
3760000000.0 0.10942043697878932 -0.020963558265427302
3780000000.0 0.10379327691521816 -0.07925529277065431
3800000000.0 -0.15324754168196938 -0.007619996362367708
3820000000.0 -0.15053072717038507 -0.09921273144897379
3840000000.0 -0.1723727529534331 0.10001138402461882
3860000000.0 0.03521554805464616 0.2121378213788775
3880000000.0 0.15418270176872284 0.16972372345661293
3900000000.0 0.036147329526045435 -0.2362408916699644
3920000000.0 -0.2080171744945248 0.12321589509454468
3940000000.0 0.18245333035414205 0.14895427816445805
3960000000.0 0.21941275005784744 -0.02567340182757564
3980000000.0 0.15985171122835767 0.12767340621716583
4000000000.0 -0.0609354739034444 0.1702347044685681
