!Created with skrf (http://scikit-rf.org).
# Hz S RI R 50.0 
!freq ReS11 ImS11
400000000.0 0.8140041790648213 -0.1520109935457321
420000000.0 0.13124432169737277 -0.8208696938591075
440000000.0 -0.4545252594998673 -0.6318597553921947
460000000.0 0.03143052152034355 -0.726770660102393
480000000.0 0.6662752939518113 -0.03827608309090889
500000000.0 0.5385654236819087 -0.3297010890301631
520000000.0 0.5607745736653662 -0.030283124905312465
540000000.0 -0.48504430854741887 0.039669563774531076
560000000.0 0.20500086619508714 -0.4117960924510324
580000000.0 0.03819153350127289 -0.41344398968941476
600000000.0 -0.05856073762325318 0.3815556494270558
620000000.0 0.27088734154948346 0.2721385297406362
640000000.0 -0.42079892841018224 -0.027145055688730397
660000000.0 0.0728361996182483 -0.4499882189906822
680000000.0 -0.4146542312914429 0.18701263598740214
700000000.0 0.21161227146262246 -0.390745089813177
720000000.0 -0.2526582420701319 0.3452681422173284
740000000.0 -0.012369467156888034 0.3781825999685825
760000000.0 0.3278161483723717 -0.054237127823649645
780000000.0 0.2667937236651397 -0.1482624028179828
800000000.0 0.14209521708043055 0.257235264496578
820000000.0 -0.14386001798419756 -0.21370949618988885
840000000.0 -0.16596515894118197 -0.1748796418157856
860000000.0 0.16879020918391718 -0.11854461692651663
880000000.0 -0.16174001310097008 -0.034890806971236206
900000000.0 -0.10615322816259343 -0.06382509791855838
920000000.0 -0.0033482246121560575 -0.0752118297664359
940000000.0 0.04903551717658083 -0.023217226270305126
960000000.0 -0.054079450860870494 -0.019005095751008894
980000000.0 -0.011550855729046678 0.0664480970183175
1000000000.0 0.08010835680974596 0.010564505999210478
1020000000.0 -0.08763976797705471 -0.04189943689411196
1040000000.0 0.10198030188235178 0.05456395026089132
1060000000.0 -0.041591086271251826 0.13285427612247613
1080000000.0 0.17639441976811016 -0.03544393640010205
1100000000.0 -0.20396499394065973 0.08265987800426364
1120000000.0 -0.24581411737782344 -0.04909794211608382
1140000000.0 -0.06531754559593772 -0.278515950112705
1160000000.0 -0.015222188428591249 0.3145225916239177
1180000000.0 0.3145279492011567 -0.11019640374648904
1200000000.0 -0.3211475321581312 0.09047177370167421
1220000000.0 -0.268910603922044 -0.2206755867374183
1240000000.0 -0.24137888298437965 -0.2957268129511159
1260000000.0 -0.05260434554199926 0.41086366944532554
1280000000.0 0.07348667745630595 -0.4245436141453781
1300000000.0 -0.4259119813376001 -0.04567364957828966
1320000000.0 -0.3971912102857371 -0.1754374778521555
1340000000.0 -0.4103854910819465 0.16322277754477402
1360000000.0 0.04554472437153127 0.4410640837309036
1380000000.0 0.4022369382971777 -0.1458518830004003
1400000000.0 0.14680736563860483 -0.38133821442617033
1420000000.0 -0.2899818466209687 -0.2530247913786573
1440000000.0 -0.3570072383157385 -0.02284975343892993
1460000000.0 -0.25056080965234734 0.21202448995393977
1480000000.0 -0.29480559569163073 0.0281843851562431
1500000000.0 -0.2745716464284322 -0.05960122981406545
1520000000.0 0.1677851008340942 0.20695782814462596
1540000000.0 0.20031616212166134 0.12820712844884438
1560000000.0 -0.028047696620757245 -0.19422065583631865
1580000000.0 -0.08079623085097594 -0.12249862767193213
1600000000.0 0.09774740402805789 0.010075877131618545
1620000000.0 0.05753516215505126 0.013201450366371615
1640000000.0 0.0076682444835700575 -0.04420972705353101
1660000000.0 -0.020678939290126343 0.04255171556083401
1680000000.0 0.03437129404175732 0.03595798249984462
1700000000.0 -0.03688258464045612 0.01276909899247596
1720000000.0 0.005043640438811467 0.019630918060138492
1740000000.0 0.030272928097413977 -0.020565927825864933
1760000000.0 0.021990890660646058 -0.0717403106872906
1780000000.0 0.06936543933532682 0.08793654647586058
1800000000.0 0.09471698429199009 -0.12044126634505332
1820000000.0 -0.16781862558897181 -0.0820220911178801
1840000000.0 0.12951986701028792 -0.16205955755186294
1860000000.0 -0.10751141139658657 -0.20949440295868002
1880000000.0 -0.20711509196891872 0.18155234182157753
1900000000.0 0.2388909897576375 -0.20483365060613445
1920000000.0 -0.06480068798224954 0.34213942399596536
1940000000.0 0.08410037237762158 -0.3667297663647645
1960000000.0 -0.023569435798264822 0.39551086994964374
1980000000.0 0.31645819677874204 -0.2525507372431481
2000000000.0 0.09941535406935388 -0.39694630755633
2020000000.0 0.1678766250554183 -0.3817415181634857
2040000000.0 0.08919313301854596 -0.4220486400586426
2060000000.0 -0.42971478347562375 0.10539945664597883
2080000000.0 0.41429030265938005 -0.14230039138959383
2100000000.0 -0.390514112527681 -0.14692036798478436
2120000000.0 -0.2652691897940298 0.28058275814531114
2140000000.0 -0.311359526365331 -0.1861744518307823
2160000000.0 0.3252489803138115 0.11587748611101122
2180000000.0 0.09502585659618189 0.3239803050014286
2200000000.0 0.29523826034635214 0.15660560314478053
2220000000.0 -0.0968916667230513 -0.3108583216033822
2240000000.0 -0.14902927586943476 0.2760531143831141
2260000000.0 0.16643930827699513 0.2505717710456025
2280000000.0 0.030555935368370108 0.2919020885380885
2300000000.0 -0.28769883764141585 0.09519769896173186
2320000000.0 -0.33138709289032314 0.03023812506082227
2340000000.0 0.351014367599311 0.13629604210032575
2360000000.0 -0.35267933587756783 0.22566885537656306
2380000000.0 -0.003003175811903696 -0.4615363136999909
2400000000.0 0.16393309485324972 0.47896960572757585
2420000000.0 -0.17293102176371036 -0.5260510569227641
2440000000.0 0.36625441980900636 0.4818930908793525
2460000000.0 -0.6443906964641077 -0.10927545308019694
2480000000.0 0.6304266108808462 -0.2902192212863102
2500000000.0 -0.549180181732783 0.47220789401396895
2520000000.0 0.5013073570798955 -0.5517283088332162
2540000000.0 -0.5936808929681131 0.4700027341099606
2560000000.0 0.73463419773573 -0.20133697948482313
2580000000.0 -0.7076528969127368 -0.2719177273606491
2600000000.0 0.32881988239139787 0.6710087898503375
2620000000.0 -0.07868438692987946 -0.7252963705518832
2640000000.0 -0.6865653965076838 -0.15815098335573244
2660000000.0 0.5494760766582764 0.38752526026371215
2680000000.0 -0.5753000775992638 -0.271548398392919
2700000000.0 0.5932535208620868 0.059798924096177986
2720000000.0 -0.5351615863118951 0.1425031772739734
2740000000.0 0.46825042038668585 -0.20636032945133861
2760000000.0 -0.43811671754203785 0.18512808640079145
2780000000.0 0.41913488360017914 -0.15796008697056702
2800000000.0 -0.3790355527364549 0.19350318485807652
2820000000.0 0.36869111986965647 -0.17761678795791644
2840000000.0 -0.3806348723691219 0.11919941937079082
2860000000.0 0.39364928062795335 -0.015387759619479585
2880000000.0 -0.3650758099050638 -0.13508308142703776
2900000000.0 0.02154596920672642 0.3861002293696575
2920000000.0 0.3803271378460842 -0.06177360741965606
2940000000.0 0.11305524808829515 -0.36531815199169376
2960000000.0 0.1394200589312185 -0.35247820253585804
2980000000.0 0.32397217606064527 -0.19156688663749183
3000000000.0 0.26947907301698537 0.26670379326687693
3020000000.0 -0.03427468491115119 0.3745604012707662
3040000000.0 -0.35328409457962184 -0.10108999471697397
3060000000.0 0.3560368989361992 -0.045074050581180115
3080000000.0 -0.3529132627478437 0.00441154471636542
3100000000.0 0.25475737221216027 -0.2349687169264536
3120000000.0 0.10815231892727169 0.31273729005681744
3140000000.0 -0.1977365585161143 -0.24316374854930747
3160000000.0 0.2772802076919215 0.1026493503373881
3180000000.0 -0.20593709383834624 -0.17757790831627263
3200000000.0 0.22799736875129603 -0.07827636091823012
3220000000.0 -0.15953108041099948 0.12893446145115106
3240000000.0 0.11811842170354793 0.12166610849838828
3260000000.0 -0.08715515889748982 0.10589414886430756
3280000000.0 -0.025430514181365573 -0.10711228124576248
3300000000.0 -0.041930972057615694 0.07685505444836588
3320000000.0 0.06476402060950012 -0.0028838983878662575
3340000000.0 0.03371275945001953 0.032335968424200896
3360000000.0 0.013768800226271171 -0.03452547941162101
3380000000.0 0.031554471979273295 -0.0037578223340290315
3400000000.0 -0.0029733076124506684 -0.030932613148902353
3420000000.0 0.007809093732406152 -0.030018014507506203
3440000000.0 -0.027224494299611674 0.0009888380423779591
3460000000.0 0.017202125149242742 -0.0028313626900063117
3480000000.0 0.010901661761320833 -0.009080248379707596
3500000000.0 -0.02161217500057253 -0.01264198776972106
3520000000.0 0.02241768195267646 0.028786295920042542
3540000000.0 0.03987792470546525 -0.0349755466161941
3560000000.0 0.06013225023008532 -0.022513946475984307
3580000000.0 0.0591326462900796 0.04149296904204143
3600000000.0 -0.06834893312471993 0.03943370838580514
3620000000.0 0.06897626016859175 0.043385146443994466
3640000000.0 0.08369811761156602 -0.011236522620237522
3660000000.0 0.09137677649202526 -0.019103093547212173
3680000000.0 -0.10176881481636703 -0.0024220167197069532
3700000000.0 0.01671668206187417 -0.10485304243730602
3720000000.0 0.08970458139556027 0.05448624416532364
3740000000.0 0.010553654249227808 -0.09601690765697844
3760000000.0 -0.005106366951326149 0.09195260694231495
3780000000.0 0.007202677369480659 -0.10442382590267303
3800000000.0 0.12268491662439147 -0.029262993618496238
3820000000.0 -0.1454502434023552 0.012965885545686876
3840000000.0 0.1568922078205405 -0.004063557593363722
3860000000.0 -0.16334417994556646 -0.044813236607282626
3880000000.0 0.0700484149414545 -0.17294235344584374
3900000000.0 0.09169797797550194 -0.17410859513199722
3920000000.0 0.19331057236912716 -0.04170296374734623
3940000000.0 0.020039620381539364 0.20309185596100873
3960000000.0 -0.033493785329119154 0.20845052032118536
3980000000.0 0.1336767716474648 0.1573391556731516
4000000000.0 0.05823214046189341 0.1874214101832928
