!Created with skrf (http://scikit-rf.org).
# Hz S RI R 50.0 
!freq ReS11 ImS11
400000000.0 0.4185761867792673 -0.7139491842817294
420000000.0 -0.1757664543110077 -0.8077288111755488
440000000.0 -0.7368788873207026 -0.23660778659982085
460000000.0 -0.47870811378165884 -0.5359421628336614
480000000.0 0.6504964586554585 0.07964295447633075
500000000.0 0.5382625081858919 0.3231812013625577
520000000.0 -0.1803478232248085 0.5386345931552966
540000000.0 -0.49739952606479093 -0.10847941706531736
560000000.0 -0.23581897593043427 -0.4044846980129939
580000000.0 -0.22949203184612746 -0.35321967707339974
600000000.0 0.3536442704384948 0.1552586623476176
620000000.0 0.36480168085004705 0.11092942749818714
640000000.0 -0.4094250320080349 0.04997953277338509
660000000.0 0.42131013306769094 -0.1588698847138942
680000000.0 -0.42580770139267715 0.17543738879628654
700000000.0 -0.14587629169682 -0.41522545347087936
720000000.0 -0.33955680579723574 0.2518247620117816
740000000.0 -0.27726405138547544 0.2586176416992845
760000000.0 0.3459480925979253 0.021011592304227483
780000000.0 -0.08971804306042981 0.31047644902619304
800000000.0 -0.2524513330538057 0.14350754284076733
820000000.0 -0.1969415940144441 0.14406053611540778
840000000.0 0.20119491455718322 0.012640631734703074
860000000.0 0.10255496462783856 0.14360707414022778
880000000.0 0.10555606867963842 -0.08700115971352025
900000000.0 -0.0986920214932206 -0.016182841483915817
920000000.0 0.0654232204472844 -0.0042979934846873406
940000000.0 0.04365337340383468 0.031898266623820816
960000000.0 0.05514997296396076 -0.006542384350956924
980000000.0 0.04630420479472252 -0.04612955019659452
1000000000.0 0.055225591448646284 0.07064876195390105
1020000000.0 -0.09676015366600094 0.044767050695175364
1040000000.0 -0.1287429805615806 0.05308076813694065
1060000000.0 -0.026611510073824687 -0.16590616870174255
1080000000.0 -0.1073424037304678 -0.17523690573676703
1100000000.0 0.23567741164383446 0.04943103912440393
1120000000.0 0.15411592106521269 -0.2175035141615869
1140000000.0 0.23650409872545838 -0.16712375049347766
1160000000.0 -0.19880537473440615 -0.22381093482346073
1180000000.0 0.30128422681643857 0.09261970594186147
1200000000.0 -0.14782508868451982 -0.29190457727421887
1220000000.0 -0.005976241001477911 -0.35301315610949185
1240000000.0 -0.38379207917104613 -0.0014536752755173771
1260000000.0 0.16961502528768316 0.3726987064000759
1280000000.0 0.20127960052833638 -0.3772858494425139
1300000000.0 -0.3716036908039123 -0.2220862270384181
1320000000.0 -0.09926461368844057 0.42739949468098565
1340000000.0 0.07293760226469705 0.42896280747919885
1360000000.0 0.30122477500868916 0.30643939138518306
1380000000.0 0.3606307777531076 0.20919314087804908
1400000000.0 0.3929386307344851 0.10035752569796226
1420000000.0 0.20405006869408465 -0.3302000373061133
1440000000.0 -0.13393803318508354 -0.34892703922510016
1460000000.0 0.17330455958781033 0.30457646234349667
1480000000.0 -0.12757479326248083 -0.2866729183211515
1500000000.0 0.2618804177719955 0.07539233543660907
1520000000.0 0.18214572487792213 0.1293667379939582
1540000000.0 -0.11598826935316164 0.1470960081636139
1560000000.0 -0.0909005800594994 -0.1311772089402822
1580000000.0 -0.026347408767517125 -0.14248210514451715
1600000000.0 0.0747028345099554 -0.10238644810687672
1620000000.0 0.071501680459514 -0.06841863458403019
1640000000.0 0.0682805377195411 0.03319903953603837
1660000000.0 -0.03988886258084378 -0.0010053676817812058
1680000000.0 -0.0042514293474256535 -0.008588664756080144
1700000000.0 -0.003081304028945832 0.027587269534644066
1720000000.0 0.050406301281642946 -0.015009677459945752
1740000000.0 -0.04401502745565234 -0.0511539932330833
1760000000.0 0.04264556226212096 0.0757488655905515
1780000000.0 -0.10926532966843805 -0.012872499079735736
1800000000.0 0.09004933779264034 0.11521798155603258
1820000000.0 -0.0955531582928606 0.15066025772393926
1840000000.0 0.1617706675142316 0.12430520253250772
1860000000.0 0.16461108317736922 -0.1844293215124122
1880000000.0 0.16116155299258164 0.24309138312497164
1900000000.0 -0.2726876306510027 0.18343582607098408
1920000000.0 -0.02729387568761676 -0.354121214399202
1940000000.0 -0.27344229723295777 0.2576923287103764
1960000000.0 0.3969952518023818 -0.011603603148508373
1980000000.0 -0.15296348673168925 -0.3780143446551286
2000000000.0 -0.37991977536973026 -0.17617230621997787
2020000000.0 -0.3745034240478054 0.20508951429045907
2040000000.0 -0.1504259705820575 0.40742760879546597
2060000000.0 0.3827962371972231 0.21160214846967665
2080000000.0 0.0032739451339943377 -0.43216802400178544
2100000000.0 -0.39392731993812447 -0.14077598272848446
2120000000.0 -0.2596253646615658 0.30735577639552447
2140000000.0 -0.3836732950293226 -0.0007723703000555477
2160000000.0 -0.26120900771330124 0.2504102565514503
2180000000.0 -0.16720326494130616 0.2989496149451907
2200000000.0 -0.12565192463902852 0.30170394569024334
2220000000.0 -0.19941472037541283 0.2446890117017387
2240000000.0 -0.20363050334106042 0.23997264853272043
2260000000.0 0.24047900623546822 0.2121200256524684
2280000000.0 0.1381980650459216 -0.29409563457394894
2300000000.0 -0.3345351903806315 -0.04910110039265238
2320000000.0 -0.02567515762900165 0.35675395391636894
2340000000.0 0.37937331270139074 -0.08363801944601502
2360000000.0 -0.3700620238545535 -0.22111077802755125
2380000000.0 0.44772875041886 0.1779968313226277
2400000000.0 -0.5222670620324218 0.12229315153453736
2420000000.0 0.13863442082900504 -0.5720666384881502
2440000000.0 0.4469083022883392 0.4514249841699891
2460000000.0 -0.6736813631186038 0.0018541464991322506
2480000000.0 0.6279573576030826 -0.32250420949171743
2500000000.0 -0.6304217400566192 0.36774787182416474
2520000000.0 0.6546477789303304 -0.35784155274792284
2540000000.0 -0.7505493464173887 0.05325547763068536
2560000000.0 0.6824331367358805 0.3160225217701015
2580000000.0 -0.2065961704468383 -0.7138629380999609
2600000000.0 -0.24915465542107046 0.680868704507074
2620000000.0 0.5831245016999941 -0.39079562891498043
2640000000.0 0.004663252211372454 -0.6729792652267305
2660000000.0 -0.3382268833314675 0.5400862522945341
2680000000.0 0.5200450715277463 -0.2974250301168786
2700000000.0 -0.5358687634488349 0.16564387908247638
2720000000.0 0.47666119555163305 -0.21588794330661706
2740000000.0 -0.37849251530523703 0.30297138039297905
2760000000.0 0.29709443004863195 -0.3351108718077913
2780000000.0 -0.36888267974742744 0.1953099826768418
2800000000.0 0.36415225437924986 0.1558326963254347
2820000000.0 -0.1680504434800889 -0.3489907211891661
2840000000.0 0.18154822398237855 0.3381724327972559
2860000000.0 -0.1821896202147396 -0.335069182849474
2880000000.0 0.15654955928737618 0.34400032118900825
2900000000.0 0.3343917279599104 -0.16685744177623751
2920000000.0 -0.0033277787926038974 -0.37351037641636603
2940000000.0 -0.22397328294000496 -0.2973049980053143
2960000000.0 -0.09711845021199257 -0.35747701494177847
2980000000.0 0.21737740890349808 -0.3031416612239716
3000000000.0 0.370519257450126 0.07204360998388211
3020000000.0 0.17563638878472662 0.3328407894374941
3040000000.0 -0.20756997620586615 0.3043128267795693
3060000000.0 -0.21955201874343705 -0.27758308760973943
3080000000.0 0.07681968385563201 0.3305010471724209
3100000000.0 0.25634627181334596 -0.2037865458875482
3120000000.0 -0.3184945373418105 -0.035297768762192074
3140000000.0 0.2942549856998445 -0.101924604404114
3160000000.0 -0.010847181318571401 0.29894042462195886
3180000000.0 -0.14579157580035074 -0.23429514222161618
3200000000.0 0.1593406010037243 -0.18355396055786607
3220000000.0 -0.010756729219503065 0.20474828681984356
3240000000.0 0.16217942882118586 0.03972845783253054
3260000000.0 -0.12400249379028573 0.048117451691752994
3280000000.0 0.044775656364700364 0.10088347941150845
3300000000.0 -0.0895598709096527 -0.03019517853402045
3320000000.0 -0.034474028479606116 -0.06341248776015791
3340000000.0 0.015145829762424609 -0.04718257728128207
3360000000.0 0.023137411411830577 0.02590005966721124
3380000000.0 0.031660068112032584 0.010486223092324167
3400000000.0 0.027205201324893562 0.022731213493009043
3420000000.0 0.001635077840498432 -0.02767635079824162
3440000000.0 0.012599893108707396 -0.01069184031383097
3460000000.0 0.005286310462267147 0.0035521757774430274
3480000000.0 -0.017054389910030884 0.009083879544953757
3500000000.0 -0.0326835441765059 -0.016582973551039132
3520000000.0 -0.05307838903014814 0.004350027992687127
3540000000.0 0.04702553004817315 0.04551553214747001
3560000000.0 0.06386649754637606 -0.034981593608856824
3580000000.0 0.03598020964711054 0.06657450517673412
3600000000.0 0.06598990943348189 0.04649769855990277
3620000000.0 0.08702365399573161 -0.006026031131397465
3640000000.0 -0.018072393935682583 -0.09674670604118706
3660000000.0 -0.04805540605932025 -0.09429056378128395
3680000000.0 -0.014292129798384748 -0.10416938300609213
3700000000.0 0.0882551606963233 0.044000110788181133
3720000000.0 0.03618264701713815 0.08550816358420792
3740000000.0 -0.08098193348629075 -0.03453514224407236
3760000000.0 0.05935436428409207 -0.06732931477351392
3780000000.0 0.09318100793064292 -0.029629477857377504
3800000000.0 -0.08531037275618733 0.07317331591152972
3820000000.0 -0.09750341537976549 0.08179338906697949
3840000000.0 0.036561000738879454 0.1334467138756804
3860000000.0 0.14566431790225695 0.04665345563064353
3880000000.0 -0.16270315299835938 -0.059287119499650875
3900000000.0 -0.13452343636990907 -0.13494875471099632
3920000000.0 -0.14671757956301082 0.12933584009081708
3940000000.0 -0.18552960918081968 0.052634494870181354
3960000000.0 0.029440232895442148 -0.18859350704087594
3980000000.0 0.09183532512699044 0.16366295386222696
4000000000.0 -0.1834945340386862 -0.002881909638073482
