!Created with skrf (http://scikit-rf.org).
# Hz S RI R 50.0 
!freq ReS11 ImS11
400000000.0 0.6078250182314522 -0.5844985292322861
420000000.0 -0.6187097141738703 -0.5525694864469229
440000000.0 -0.5565338820474904 -0.5350795832136518
460000000.0 -0.08959455927964494 -0.7188521504063948
480000000.0 0.4068243676877231 -0.5340575456784525
500000000.0 -0.23453225693122706 -0.5790935214645353
520000000.0 0.15804330478892625 -0.5249696050409518
540000000.0 -0.40778215172254234 0.24176145826096854
560000000.0 0.41920617203255556 -0.16747354583012328
580000000.0 -0.35704285890551485 -0.19685244739015206
600000000.0 0.1296649730657152 0.34748065793305827
620000000.0 0.30325035196787153 0.21359212167048963
640000000.0 -0.3752529579418275 0.14197506718692254
660000000.0 0.35523218844029264 0.2411533458570791
680000000.0 0.4278092759351212 0.1258274500015056
700000000.0 -0.11485168946980946 0.4361449400767186
720000000.0 -0.25381233624598865 -0.3623349203221649
740000000.0 -0.3647838382963372 0.16030140573423435
760000000.0 0.06670254235542805 -0.3465315354250354
780000000.0 -0.25623116864927675 0.19581528848969237
800000000.0 -0.21819621574534928 0.1984598269815156
820000000.0 -0.036574881654848686 -0.23854189817844523
840000000.0 -0.21091535712140735 0.0026532775432885516
860000000.0 -0.1782705183538581 -0.010532778998798918
880000000.0 0.1575828279365931 0.005652455894406599
900000000.0 0.05252628017667923 -0.11648918135900761
920000000.0 0.04573549124533222 0.08053645179599621
940000000.0 0.04567450474166277 0.04390434216570738
960000000.0 0.06843711170006866 0.003707723235773985
980000000.0 -0.06255142167594441 0.048139725184606186
1000000000.0 -0.0599616779762512 -0.061625932662564754
1020000000.0 0.09431415578870107 -0.02023093114834628
1040000000.0 0.03981989686062461 -0.10588020592095115
1060000000.0 -0.15288570652411887 -0.010142292238547056
1080000000.0 -0.17280015378898622 0.07456327035108987
1100000000.0 0.217742309302371 -0.021002017481483427
1120000000.0 0.21521227871985268 0.11420560602330197
1140000000.0 -0.25565668704738 -0.08440406893837014
1160000000.0 -0.1581017337476163 0.2514360624707765
1180000000.0 -0.2908743477580944 0.13227757258414494
1200000000.0 0.25400458887481564 -0.2211694080373759
1220000000.0 0.2012258556423487 -0.29799169076299303
1240000000.0 -0.3933157114205761 -0.039412841223684124
1260000000.0 0.4148135289150584 0.018595034660061866
1280000000.0 -0.061397403028061306 -0.42431587715038194
1300000000.0 -0.41313400933291444 0.1290782341075129
1320000000.0 -0.28753873799701646 0.32569178704153023
1340000000.0 0.10644485070334075 0.424065100653596
1360000000.0 0.3479292580950476 0.248970370577005
1380000000.0 0.4044149242833413 0.09071201949870768
1400000000.0 0.34944176630315893 0.1957653969784826
1420000000.0 0.3763616525251619 -0.08362385679481199
1440000000.0 0.21696030195761723 -0.2971546494436875
1460000000.0 -0.3312168492936052 -0.10905512902491434
1480000000.0 0.22336750636000408 0.22875918204054302
1500000000.0 -0.16256188811609656 -0.24079573370408794
1520000000.0 0.054817088697851415 0.24713872454442284
1540000000.0 -0.17715649301924263 -0.11779963927658628
1560000000.0 0.0340511100946686 0.16672387931512475
1580000000.0 0.13432462702854378 0.003070576557483734
1600000000.0 -0.055721358540031185 0.08350239159700418
1620000000.0 -0.08034334788077244 -0.0036727472752030536
1640000000.0 -0.06860166807138389 0.020415304858372424
1660000000.0 0.05365247053630878 -0.003172883959898181
1680000000.0 0.03072134991366864 0.018473177227226273
1700000000.0 0.00783033261363931 -0.02376758893663081
1720000000.0 -0.02021119508021389 -0.007310540906087224
1740000000.0 0.0318864635576353 -0.01944179676865706
1760000000.0 -0.06721299993747949 -0.0075874684596260065
1780000000.0 0.06416454160343679 0.09024549945790662
1800000000.0 -0.15884740080026583 -0.01296758821051444
1820000000.0 0.19544709250743927 -0.034951198305051785
1840000000.0 0.06414784239774636 -0.21757704988570842
1860000000.0 0.18116509430617359 -0.17511003052827634
1880000000.0 -0.24039877080757677 0.12272231017188177
1900000000.0 -0.11963805750452769 0.2664780682428994
1920000000.0 0.0017595533700654961 0.31968579356481547
1940000000.0 0.07288135163498609 0.34390997176492044
1960000000.0 0.3859823001188364 -0.03944093019637459
1980000000.0 -0.38310896875706935 -0.17237633778093808
2000000000.0 0.4190369343334096 0.1445590859472787
2020000000.0 -0.4520501778713824 -0.011479518332116996
2040000000.0 0.4404213396812818 0.06614470811783354
2060000000.0 0.03799035198473372 -0.42531534317812747
2080000000.0 -0.08096665409801679 -0.3979365045505416
2100000000.0 0.3053602688511314 -0.23781443368959107
2120000000.0 0.22464394529799087 0.30245470007843095
2140000000.0 -0.04615187952994368 0.3750482537230156
2160000000.0 -0.09895933651376543 0.3621993706504626
2180000000.0 0.15780357619827629 -0.32487559740788935
2200000000.0 -0.295062142037661 0.1632740457656581
2220000000.0 -0.0018400903676026768 0.312809453569573
2240000000.0 -0.05834198081338927 0.28894261039103397
2260000000.0 -0.2750526590220591 0.07476812571090286
2280000000.0 -0.06775814178546383 -0.28256794822624387
2300000000.0 -0.18830315732180247 -0.24489861594253448
2320000000.0 -0.3278617272734262 0.07563496002306219
2340000000.0 0.37082554310535193 0.04912205698567162
2360000000.0 -0.27521784255677434 0.3079490690223737
2380000000.0 0.06652019091975898 -0.44697447039389276
2400000000.0 -0.09796942265072481 0.486955227318253
2420000000.0 0.05469254904500461 -0.544807173186248
2440000000.0 0.15564688991612327 0.5783662495148041
2460000000.0 -0.4687160110720555 -0.44688802245585696
2480000000.0 0.6880638723957647 -0.025790765630844044
2500000000.0 -0.6944343257954083 0.18543897957427033
2520000000.0 0.7175487540084673 -0.18010118966447983
2540000000.0 -0.7507177012287243 -0.05435969507876362
2560000000.0 0.6700472018666123 0.3570958414050534
2580000000.0 -0.2579080886830463 -0.7129794839550817
2600000000.0 -0.13983728092661835 0.7346563241116737
2620000000.0 0.4232934761638532 -0.596502293294812
2640000000.0 -0.33468411023546385 -0.6231236990740914
2660000000.0 0.3350186341065016 0.5865377082324156
2680000000.0 -0.39920574754375165 -0.49958269033030545
2700000000.0 0.4085249286910989 0.44000338168194025
2720000000.0 -0.4765882110509882 -0.29465505533200625
2740000000.0 0.5117443062041067 0.09033900732342746
2760000000.0 -0.46470471605585195 0.12663083986279705
2780000000.0 0.4292170720996134 -0.13052432234074618
2800000000.0 -0.4235407627329014 -0.022412759771307977
2820000000.0 0.3792203304504316 0.15376089596061848
2840000000.0 -0.3890979907581354 -0.10609795665951241
2860000000.0 0.3853691981328243 0.10977299486503903
2880000000.0 -0.3871146815524486 -0.08774725217321751
2900000000.0 0.25647252252239106 0.29890114420169717
2920000000.0 0.17665916539974258 -0.34780100857073776
2940000000.0 -0.22674378505805004 -0.3089267357167071
2960000000.0 -0.04262138977010758 -0.37394284315763326
2980000000.0 0.3727053389878798 0.03950556855088555
3000000000.0 -0.10306856465184804 0.3670313427765486
3020000000.0 -0.35673231356333 0.13570328775279764
3040000000.0 -0.18667326572954476 -0.32796834293646043
3060000000.0 0.34972300648211946 -0.12240193033442248
3080000000.0 -0.08113971709800916 0.35032392037563925
3100000000.0 -0.1143842132712878 -0.32569146603916965
3120000000.0 0.2459369302920872 0.21872426999051048
3140000000.0 -0.30211277254682684 -0.07108140914254647
3160000000.0 0.2608621258918135 0.12350405477770862
3180000000.0 0.15603663932795603 -0.21380572143624227
3200000000.0 -0.2287032131544524 0.07234154543754237
3220000000.0 0.21179250342616296 0.02399702203969979
3240000000.0 -0.18632983242894555 0.005071838472625479
3260000000.0 0.11674846920221173 0.10301701669721997
3280000000.0 -0.11950185409958336 -0.028924793538353255
3300000000.0 -0.0756776702771417 0.039728862840257353
3320000000.0 0.044394814201840965 0.026749950088315322
3340000000.0 -0.0026883752611085976 -0.04013760278881885
3360000000.0 -0.04160652870723351 -0.027195130722324528
3380000000.0 -0.00852404909095925 -0.05295344542556408
3400000000.0 0.034436688903753405 -0.03220047227724603
3420000000.0 0.029890948940894207 0.009189747799972581
3440000000.0 0.007599701615108148 -0.003155214765092164
3460000000.0 -0.015065733165873573 0.005023919482269943
3480000000.0 0.0038514267241199487 -0.03056050548398417
3500000000.0 -0.030336923365434795 0.023045209414941363
3520000000.0 -0.03611666739753672 -0.013989820065878164
3540000000.0 -0.0405693686197634 -0.0015028460337888061
3560000000.0 -0.008947014898379792 0.04345981093612366
3580000000.0 -0.05848258360042181 0.0018061460785826653
3600000000.0 0.06443910824895768 0.043142105283343286
3620000000.0 0.05816206238760387 -0.07456701219743711
3640000000.0 -0.04941619305659218 0.08954249328521781
3660000000.0 0.10079795004778262 0.012097079727346088
3680000000.0 -0.08389815547341307 -0.03564597495500701
3700000000.0 0.0755134554297368 0.035856136163744085
3720000000.0 0.0832890416339885 0.019634282889148955
3740000000.0 -0.07569993527236356 0.05360198503753803
3760000000.0 0.10381810254616028 -0.01008942657293773
3780000000.0 0.027290642970133373 -0.11505794418033577
3800000000.0 -0.034092495871113675 0.1195541521820674
3820000000.0 -0.011007230751598021 0.12769184260325336
3840000000.0 -0.1141273091474281 -0.07802666715644353
3860000000.0 0.04668746925021989 -0.15160687107704265
3880000000.0 0.016994172940088655 0.18536462428150244
3900000000.0 0.15169379208820807 0.14358659720249306
3920000000.0 0.002626965004015256 -0.21734881218761815
3940000000.0 -0.191230608747603 0.0979230236253588
3960000000.0 -0.10410001868926337 0.17875238414640038
3980000000.0 -0.18706784186062253 -0.060396772321877755
4000000000.0 0.18658507014776624 0.012469018984252503
