!Created with skrf (http://scikit-rf.org).
# Hz S RI R 50.0 
!freq ReS11 ImS11
400000000.0 0.7275117874246086 -0.3989333318101861
420000000.0 -0.14335069808512127 -0.8170504024021243
440000000.0 -0.4008252442597531 -0.6565686181808913
460000000.0 -0.03642965935147635 -0.721105715962388
480000000.0 0.49000296022744305 0.44551631418998383
500000000.0 0.6232854457234402 -0.12305205147283685
520000000.0 0.3492928710522446 0.4418642648805256
540000000.0 -0.4992205589562675 -0.016836466498324324
560000000.0 -0.3861252595400593 -0.2633612921781013
580000000.0 -0.2267811070714998 0.33667887600074675
600000000.0 0.27452345234496633 0.2407341386829718
620000000.0 -0.35347917866829487 0.07694184586107233
640000000.0 0.37072648151777565 -0.18538178459932267
660000000.0 -0.1355217205896201 0.43712748636460724
680000000.0 0.12353650752142238 -0.46364644631331087
700000000.0 -0.08270814345424943 -0.46343710647109837
720000000.0 0.3688882947699374 -0.2313256950038161
740000000.0 0.16024516578306885 0.3301726434239938
760000000.0 0.09664497386620462 0.32425686925796315
780000000.0 -0.051009179381663 -0.3114931956984696
800000000.0 0.2515897821949813 -0.16466560081405368
820000000.0 -0.2325174542417693 -0.11252764416273277
840000000.0 -0.10640885500080458 0.18022839158882656
860000000.0 -0.018026415170600087 0.18524295502379765
880000000.0 0.08012127158538315 -0.11969848715916304
900000000.0 0.09150377629056859 -0.05397322819180654
920000000.0 -0.04565800454834878 -0.06138099637786289
940000000.0 -0.04520660716785236 0.02935226715591553
960000000.0 -0.04287291178939672 -0.03209417600650074
980000000.0 -0.06537155258950297 -0.019772699598939784
1000000000.0 -0.06529268796950624 -0.04702372843221641
1020000000.0 0.10443110999862543 0.016181348988987026
1040000000.0 -0.1095131851276617 -0.06848401167972785
1060000000.0 0.026162417040913714 -0.15056386470838934
1080000000.0 -0.1265723879148118 -0.1497388300711097
1100000000.0 0.19307533120919448 0.11052259740625565
1120000000.0 -0.07119547225237317 0.24000887309307492
1140000000.0 -0.23280797613630308 -0.15934628335599976
1160000000.0 0.01516878967744667 0.30884431731692313
1180000000.0 0.1827139139954452 0.2801762388335581
1200000000.0 -0.32021714187511524 0.11438535685117372
1220000000.0 -0.287090660886204 -0.2070302935897718
1240000000.0 -0.33381923860387197 0.1962219771136354
1260000000.0 0.4117608938497066 0.011148574309938146
1280000000.0 -0.23648857798777487 -0.34715613213070395
1300000000.0 -0.28405056231931936 -0.31049186957379843
1320000000.0 -0.20904124444497169 -0.37897127650737233
1340000000.0 -0.44026286613710464 -0.03447790864727175
1360000000.0 -0.1164086846355488 0.42395122345685543
1380000000.0 0.2543695380173031 0.33868607097381026
1400000000.0 0.34098793556644436 0.2359703493747564
1420000000.0 0.1369825660524176 -0.3693794569366084
1440000000.0 -0.20378681793998185 -0.3125665166901201
1460000000.0 -0.06928613478559266 0.34082358358952425
1480000000.0 0.23596044730508964 -0.2110081766826629
1500000000.0 -0.03216437900770584 0.2747752472657811
1520000000.0 0.03868643372470518 0.2294082839715422
1540000000.0 0.047936459027845345 0.1865916390437746
1560000000.0 0.03960725797515731 -0.1599459031347567
1580000000.0 -0.005217389314788094 0.15669534025363918
1600000000.0 0.12199538113096041 -0.021617942062778058
1620000000.0 -0.0918521972175844 0.014177151063987089
1640000000.0 0.0007307788760103267 -0.06546336488945582
1660000000.0 0.005914729306838405 -0.042233359366352134
1680000000.0 0.010976759072161247 -0.02153570549765216
1700000000.0 -0.016742996439948022 0.007653464677546906
1720000000.0 0.028631264369006083 -0.01736081811545669
1740000000.0 -0.04298727877689145 -0.030844791146022718
1760000000.0 -0.046462131791477485 -0.06131710023441436
1780000000.0 0.06621142309266469 0.07446920892306572
1800000000.0 -0.011646184405081257 -0.13696242663965122
1820000000.0 0.09836027815481199 0.13798560785391573
1840000000.0 0.12382869882492019 -0.1672925342518976
1860000000.0 0.25181750856633506 -0.03237970415898629
1880000000.0 0.2597652764746038 0.1275052150312392
1900000000.0 -0.31460095651372944 0.025935704336709255
1920000000.0 0.3066347679509583 0.15598565040649454
1940000000.0 -0.24396118884914222 -0.2760633360506005
1960000000.0 -0.2002673874086089 0.3293989599815245
1980000000.0 0.2720183489550235 0.2953852560027899
2000000000.0 0.4060659179451949 -0.09679558767568718
2020000000.0 -0.04578391025899844 -0.42356893235332954
2040000000.0 -0.40005281347161725 -0.15684236517215144
2060000000.0 -0.20186673614586664 0.379094145775278
2080000000.0 0.22817512659852626 0.3562938290443651
2100000000.0 0.37197563185686244 -0.17959528528302843
2120000000.0 0.10174143506016238 -0.38326418796351885
2140000000.0 -0.22069099032418402 -0.31204963496354177
2160000000.0 -0.06149480416411054 -0.35581534326074726
2180000000.0 -0.2970219462019998 -0.15963892388198606
2200000000.0 -0.27922853586139584 -0.14522955139945337
2220000000.0 0.09977249129128336 -0.28323596786800953
2240000000.0 0.22746732827072738 -0.1977333801276455
2260000000.0 -0.00453923991560884 -0.30436303387124347
2280000000.0 -0.30418938740843887 0.06384624339997477
2300000000.0 0.1157683186763541 0.2957932630378235
2320000000.0 0.32912146939378206 0.06126429231586425
2340000000.0 0.07154129426626134 -0.36035137956101776
2360000000.0 -0.3423673088560394 0.21634019554653858
2380000000.0 0.43743692816737095 -0.12462364974092861
2400000000.0 -0.3153026404905295 0.3969656491829923
2420000000.0 -0.011291871697830635 -0.5575561607687513
2440000000.0 0.3663715119094314 0.48495857771324685
2460000000.0 -0.631352197716699 -0.17009444577273122
2480000000.0 0.6443881307507493 -0.25443165756086633
2500000000.0 -0.6020474172744158 0.39891754513189703
2520000000.0 0.5998666908133132 -0.439532472484403
2540000000.0 -0.6814898881517051 0.32775951617593735
2560000000.0 0.7578786635249649 0.08268651938915605
2580000000.0 -0.5518468785535549 -0.5214783838104602
2600000000.0 0.23722807231123685 0.7098075907861187
2620000000.0 0.09562997050491506 -0.7251103155480034
2640000000.0 -0.5616712186464747 -0.4286794030959748
2660000000.0 0.5077644528736833 0.4450263314722705
2680000000.0 -0.5059710223630027 -0.38960615315163133
2700000000.0 0.5079510354046048 0.3197679794219399
2720000000.0 -0.5386944308209631 -0.15309068350866115
2740000000.0 0.519643211571783 -0.017977899593956976
2760000000.0 -0.44377706697762465 0.19081452448326042
2780000000.0 0.4184801266068528 -0.1702260430413358
2800000000.0 -0.38472500631252876 0.19512804074594972
2820000000.0 0.20116715746958777 -0.36219769693856013
2840000000.0 -0.14475922158198806 0.3710970673062347
2860000000.0 0.34196027951226654 -0.18123370066398867
2880000000.0 -0.16483473332956494 -0.344748002469335
2900000000.0 -0.3589256510764424 0.13604620063436113
2920000000.0 0.14267043107449787 0.36307072414927627
2940000000.0 0.24344228723513262 -0.3038668519843095
2960000000.0 0.16336029001518912 -0.3461444611640479
2980000000.0 0.32798740184403424 -0.19436966622591625
3000000000.0 0.3800265408834762 0.03633555896638452
3020000000.0 0.017119565059072125 0.3758294358201615
3040000000.0 -0.36896899027210334 0.021869397089160268
3060000000.0 0.3143857835148172 -0.17106575210952263
3080000000.0 -0.3437928260812235 0.06277077691750989
3100000000.0 0.29373435635164447 -0.17364642694245125
3120000000.0 -0.16391868170793067 0.28612116930048886
3140000000.0 0.05613860991497656 -0.310234475743739
3160000000.0 0.10443852276894404 0.2786889476051522
3180000000.0 -0.05849774315487477 -0.27089979122406693
3200000000.0 0.23279903708224148 -0.07598287372806295
3220000000.0 -0.12508478563057632 0.16651893588101216
3240000000.0 0.10681556806892181 0.13523373971029715
3260000000.0 0.06175844766241986 0.12663541499606615
3280000000.0 -0.060615726914549056 0.09170881498813159
3300000000.0 -0.01663725503576302 0.0805065781521117
3320000000.0 0.04495571278899607 -0.043493275023446014
3340000000.0 -0.01948250059322867 0.045772017599948076
3360000000.0 -0.028517504131174872 -0.0316435178242792
3380000000.0 0.04027728159903611 -0.0005338584216162092
3400000000.0 -0.009824231614934025 0.036070038755049445
3420000000.0 0.025569104662310646 0.02085292233883443
3440000000.0 -0.021812765265113273 -0.014943224895602373
3460000000.0 0.014873549578686942 -0.007549001378668515
3480000000.0 -0.015111421944004161 9.320030541088566e-05
3500000000.0 0.021223512369422767 -0.01713560911925656
3520000000.0 0.009506151748380176 -0.034417048834919015
3540000000.0 0.04639380743766306 0.018001634432824595
3560000000.0 0.02485733530995891 0.05223044484309939
3580000000.0 0.024660129619750858 -0.05681470250997096
3600000000.0 0.05820437838794014 -0.03816586033251262
3620000000.0 0.07652119684672443 -0.023042919438220583
3640000000.0 -0.05341937221261212 0.07413841869940684
3660000000.0 -0.08378334581986216 0.05006189593604524
3680000000.0 0.043781638737094626 -0.08554445722621232
3700000000.0 -0.013350848079836023 -0.09413357184674595
3720000000.0 -0.0738937137524378 0.062131815988812206
3740000000.0 -0.06636883557541512 0.06368747016684134
3760000000.0 -0.04868978790037689 -0.07793136559661945
3780000000.0 0.10543167972062624 -0.0004484989284201059
3800000000.0 0.055147746497281734 0.1148877403865231
3820000000.0 -0.004740328172161822 -0.14611112982490623
3840000000.0 -0.08177407640440393 0.13830180223139826
3860000000.0 -0.07558822628921255 -0.1598553297960807
3880000000.0 0.1402241142920703 -0.12594223025117474
3900000000.0 0.1726043812537745 0.09840376073259349
3920000000.0 0.0925155293222079 0.18433922155107602
3940000000.0 -0.047174225912821506 0.20612750089377818
3960000000.0 -0.1649080865975902 0.13777005035543682
3980000000.0 -0.1633959879711728 0.13813528760064395
4000000000.0 -0.18556348258775612 0.08547582137815307
