!Created with skrf (http://scikit-rf.org).
# Hz S RI R 50.0 
!freq ReS11 ImS11
400000000.0 0.36323396392631246 -0.7506359138944636
420000000.0 -0.3536178461841481 -0.749166127065232
440000000.0 -0.7007709097678478 -0.3385395421930478
460000000.0 -0.7116507192167238 -0.12308614580026156
480000000.0 0.4948837814632365 -0.4240616810142042
500000000.0 0.6146721413854811 0.0766771180315654
520000000.0 0.038710681112677066 0.5596593178874895
540000000.0 -0.44679365867869153 -0.2127000153411823
560000000.0 0.411140515775464 -0.2137088510808352
580000000.0 0.005328729201235501 -0.4177187797625437
600000000.0 -0.043594090539408374 0.384484354982295
620000000.0 0.32923148335416713 0.1884140908276048
640000000.0 -0.32039681838776923 -0.2669490851084673
660000000.0 0.45071132051679025 -0.039476655767981754
680000000.0 -0.45045952270527506 -0.12131503177561657
700000000.0 -0.37639814109696323 -0.2541314473444874
720000000.0 0.404859339966228 0.11815675107250279
740000000.0 -0.23076915402398318 0.28483508958088577
760000000.0 0.1593149181968529 0.3053756655807094
780000000.0 -0.2851145310206641 -0.15218495644458838
800000000.0 -0.21765543733123296 -0.21971182068847075
820000000.0 0.04253999506382992 -0.25155763612638216
840000000.0 -0.07900708009957612 -0.17727326774767171
860000000.0 0.13604593253778433 0.09719941100053277
880000000.0 -0.0643978333389115 -0.11211710553279562
900000000.0 -0.04257796711262871 -0.09568261661175438
920000000.0 -0.07187971905932869 0.021137579051338208
940000000.0 -0.05427863180512042 -0.01328489491806983
960000000.0 -0.039464635210512355 -0.05641513279585024
980000000.0 0.05963945820242655 0.0569593787099247
1000000000.0 0.08192917122697824 -0.03642003676170634
1020000000.0 0.08919022551604194 -0.07735011776204874
1040000000.0 -0.020498693081450362 -0.13520094540701852
1060000000.0 -0.010041578616664324 0.16538526798543
1080000000.0 0.16729956346610908 0.09748288135615835
1100000000.0 0.21551792820268392 -0.053816440107250486
1120000000.0 0.20190489722632374 0.15293739957358893
1140000000.0 -0.11743407295276888 0.2547094920151058
1160000000.0 0.2583409133340325 0.16447309454313658
1180000000.0 0.3238157322881056 0.03791208833995376
1200000000.0 -0.25257496583734956 -0.21548595899867795
1220000000.0 -0.303182670510639 -0.1922815147451917
1240000000.0 0.0975044985137729 0.37122564086909227
1260000000.0 0.32430790924819763 0.23872440782319132
1280000000.0 -0.19279474834691576 -0.37449502063452667
1300000000.0 -0.3597974179089008 -0.22098691613952456
1320000000.0 -0.4163356375449792 -0.11446441396065789
1340000000.0 -0.3962355902326844 0.19200302924074467
1360000000.0 0.29702134541405806 0.3223816674518606
1380000000.0 0.4060644732934662 0.11597112444064425
1400000000.0 0.12132789943747875 -0.3930829150311664
1420000000.0 -0.27661907028553545 -0.26615534453859463
1440000000.0 -0.36094558673891763 -0.05494301553258389
1460000000.0 0.14309017053028272 0.30576418335972944
1480000000.0 0.25449734248037265 -0.1718806139276247
1500000000.0 -0.23818434549495915 0.12306215509903917
1520000000.0 -0.22078504682102987 -0.06642134511771774
1540000000.0 -0.15970412122197689 0.11741040194375858
1560000000.0 -0.15590089507680374 0.07201409388510167
1580000000.0 -0.12080180964153209 -0.09236640694647248
1600000000.0 -0.11339019697467476 0.004078782018181803
1620000000.0 -0.03372871951313088 -0.0740489081540636
1640000000.0 -0.006872067477463486 -0.05967063017049354
1660000000.0 -0.01717981421491969 0.04239918023723831
1680000000.0 -0.010953409333291225 0.01888284088290894
1700000000.0 -0.0031015562168698343 -0.020959601721615474
1720000000.0 0.04275133545978542 0.004330139636597698
1740000000.0 0.0549965114379173 0.019000659512900454
1760000000.0 -0.04599256824284672 -0.06587981174638054
1780000000.0 0.0865779070533165 0.06350802641214857
1800000000.0 -0.13412965553900139 -0.06309266329379802
1820000000.0 -0.18428037874153166 -0.006534583959316258
1840000000.0 0.20755702384830016 -0.03579297909220234
1860000000.0 -0.23970786069437672 -0.06814441561589012
1880000000.0 0.27536543433674193 -0.0829018304910253
1900000000.0 -0.19297907951473062 0.2544015828600426
1920000000.0 0.16986288810900857 -0.3048816863575636
1940000000.0 -0.3595239637221172 0.102543712649924
1960000000.0 0.3682742612157358 0.13825651311923806
1980000000.0 0.10084292888428036 -0.39373034387924705
2000000000.0 -0.27150496889106046 -0.3190348656621352
2020000000.0 -0.3958766136560397 0.1650403412604453
2040000000.0 0.01986474173066407 0.4347868614738999
2060000000.0 0.41762423752309363 -0.11234432820348461
2080000000.0 0.08442663541066853 -0.41392218179248874
2100000000.0 -0.24934893759667495 -0.3312556779879888
2120000000.0 -0.29709418766026946 0.2665913579823348
2140000000.0 -0.3789708497352315 -0.025972869589240454
2160000000.0 -0.28730727101393216 0.21389203750113728
2180000000.0 -0.12288381837457961 0.3143563670585548
2200000000.0 -0.2802150511477626 0.15908615532709516
2220000000.0 -0.30447167018726673 0.08885408701980117
2240000000.0 0.11964393857770715 0.2910058722814711
2260000000.0 0.3048818868103011 -0.05785361380632585
2280000000.0 0.20087047250240875 -0.24018302696733845
2300000000.0 -0.02581450395461535 -0.3251211596496501
2320000000.0 -0.3084141758347296 -0.16817533694495204
2340000000.0 -0.009437052827681213 0.3902296353577438
2360000000.0 -0.20386668940700164 -0.38409811007167566
2380000000.0 0.3877665036575619 0.2831687434039106
2400000000.0 -0.4875499085221987 -0.2045227849606775
2420000000.0 0.5512823371498743 -0.18643656538260714
2440000000.0 -0.17988473367990856 0.6042045236798929
2460000000.0 -0.2913191614766222 -0.6042795851686426
2480000000.0 0.6213375204744344 0.3335508889439193
2500000000.0 -0.7093999501674816 -0.1771261005138104
2520000000.0 0.7376518139068682 0.12797312388980844
2540000000.0 -0.7043145000365382 -0.27284317736995867
2560000000.0 0.534208075810816 0.534170216502329
2580000000.0 -1.6781298002511592e-06 -0.7477649606770826
2600000000.0 -0.4359699926301355 0.5866079617310083
2620000000.0 0.6327321297828583 -0.3179435373637212
2640000000.0 0.1936016611065599 -0.6511887877063514
2660000000.0 -0.32241135868609583 0.5567234513490877
2680000000.0 0.42689645729351433 -0.427376884816763
2700000000.0 -0.4582839117826469 0.32853540431979134
2720000000.0 0.41153181027405566 -0.32583771121968735
2740000000.0 -0.32516701930352426 0.3638757308606837
2760000000.0 0.2859759940421247 -0.3509092108854867
2780000000.0 -0.36886994345504986 0.21099511958217895
2800000000.0 0.4021564419606503 -0.047823484147457046
2820000000.0 -0.39118160859453127 -0.00972609497093637
2840000000.0 0.3708016962664481 0.09215447462749106
2860000000.0 -0.3246056420929327 -0.19326184193195958
2880000000.0 0.10275728666529764 0.36050959409880623
2900000000.0 0.36723119164664164 -0.051062364201960406
2920000000.0 0.2589545960205191 -0.2702877255447354
2940000000.0 0.018734073945498964 -0.37815951817820365
2960000000.0 -0.234246110551189 -0.299376300781567
2980000000.0 -0.17324862532904542 -0.33382759420819924
3000000000.0 0.277821981839824 -0.2515340979634363
3020000000.0 0.2318848611800675 0.2920694189579038
3040000000.0 -0.19872056185611628 0.30522302837502385
3060000000.0 0.1416762136755074 -0.323300184765768
3080000000.0 -0.25406477373567893 0.23554995617505062
3100000000.0 0.265715004112794 -0.21042664368386346
3120000000.0 0.07202325407284463 0.31936289876898305
3140000000.0 -0.2008650341350769 -0.23667656285754327
3160000000.0 0.28526338362341647 0.06420799323720366
3180000000.0 -0.06399175755410294 -0.26112160997747774
3200000000.0 0.21947884112386892 0.1027460635196724
3220000000.0 -0.15021390240488655 0.14467552393420396
3240000000.0 0.08985570204377692 0.14774555878318738
3260000000.0 -0.01699802444676984 0.14350732734237126
3280000000.0 0.06020915696668259 0.09918264363596485
3300000000.0 -0.08161293101952222 0.029550700936140137
3320000000.0 0.038979832133010865 0.0483286809316351
3340000000.0 -0.05048677034267092 0.00618255695021291
3360000000.0 0.04296044514943993 0.003955010922203193
3380000000.0 -0.026813713713062043 -0.021763229267785927
3400000000.0 0.031265869864498905 0.0060768557122061
3420000000.0 -0.017994999511362127 -0.016787054146141837
3440000000.0 0.013125250081870956 0.0031433641633683397
3460000000.0 0.011199855576668619 -0.005890847466085226
3480000000.0 -0.013626053991970451 0.017912686377853374
3500000000.0 0.02620414412555901 -0.020060789589422007
3520000000.0 -0.042757351141882026 0.00910595137404275
3540000000.0 0.05199737774540294 0.02567080264017061
3560000000.0 0.06231968631311662 0.027736503957972766
3580000000.0 -0.04890800951248265 0.056333501210742834
3600000000.0 0.0792847623229599 0.009767900502294004
3620000000.0 -0.07448462184106426 -0.04211222041833334
3640000000.0 0.03260834014008899 0.08544315204961014
3660000000.0 -0.08617115108194642 -0.03824177045217665
3680000000.0 0.02571424844975526 0.0912340542403047
3700000000.0 0.09451072454600921 -0.007724747463187391
3720000000.0 -0.09107894084659385 -0.025734466129566026
3740000000.0 0.0037492820693119083 -0.08798575046474902
3760000000.0 0.04743159733606289 0.07392966061306215
3780000000.0 -0.030092122326824428 0.0904493325445035
3800000000.0 0.10789402573272558 0.030180669049788784
3820000000.0 0.11225258217516566 0.07052619660437932
3840000000.0 -0.13878562345480847 -0.056617384380056604
3860000000.0 0.12721059556989192 -0.10524024009077833
3880000000.0 0.13907503893329537 0.11507177586350498
3900000000.0 0.025079506923085686 0.18550719174598448
3920000000.0 -0.15930913514350306 0.10881688263488083
3940000000.0 -0.17571858328221632 -0.08810449002127878
3960000000.0 -0.04506002750107774 -0.19150951495129595
3980000000.0 0.15659896877434437 -0.11756683244047864
4000000000.0 0.16299170898321777 0.08980826498605778
