!Created with skrf (http://scikit-rf.org).
# Hz S RI R 50.0 
!freq ReS11 ImS11
400000000.0 0.49847433505733885 -0.6870119579203217
420000000.0 -0.6653086547557105 -0.5060055205608592
440000000.0 -0.7590461331538729 0.18293317471910803
460000000.0 -0.7102362094289452 0.116123051227937
480000000.0 0.2601318008373279 -0.5922706246107012
500000000.0 0.2870505290067319 -0.5332127649306732
520000000.0 -0.03379752395100886 0.5361082977739481
540000000.0 0.47868581846581754 -0.07010129573097477
560000000.0 0.433915090058568 0.18463887931443052
580000000.0 0.1210286387681621 -0.4078166282069842
600000000.0 0.15169466175907312 0.3577406735929863
620000000.0 0.3026150346271005 0.23459323784207506
640000000.0 -0.38242385144013363 0.17402606137066048
660000000.0 0.07486939626750193 -0.436185503456501
680000000.0 -0.2917610200321037 -0.3519496839522296
700000000.0 0.1938352927741842 -0.40683689215290486
720000000.0 -0.032529669387880884 0.4246678448787827
740000000.0 -0.13178847115070627 0.34479015283373454
760000000.0 -0.334422744963253 0.026300954944355335
780000000.0 0.31572188016998726 -0.09494403591377845
800000000.0 0.14603819837563078 -0.27150749907664895
820000000.0 -0.05394981097237744 -0.2540241652036419
840000000.0 0.11502495505975867 0.1819697263445291
860000000.0 -0.16335141317560709 0.09258611356211192
880000000.0 0.10754826585960962 0.11546995245854898
900000000.0 0.10780411472009102 -0.052147312624753264
920000000.0 -0.08331974028477182 0.01517225430538965
940000000.0 -0.01014801042505036 0.05325341107368411
960000000.0 0.051282434103576975 0.02854252657820217
980000000.0 -0.03909808996143113 0.05702496241773108
1000000000.0 -0.0015303576001364585 0.07618070409462295
1020000000.0 -0.06237999318807161 0.07419293227439995
1040000000.0 0.11851357461946618 -0.025119699861973085
1060000000.0 -0.1524679334043533 0.053142335113510866
1080000000.0 0.048507933464009015 -0.18478024481933417
1100000000.0 -0.1361713482380406 -0.15479168708590046
1120000000.0 -0.10340019456065402 0.20769439090711073
1140000000.0 0.26720239830768394 -0.0224886207113335
1160000000.0 -0.1648753122873444 -0.25929855329574203
1180000000.0 -0.31965823183729103 0.10337144339377875
1200000000.0 -0.11293492545084363 -0.33038770531225137
1220000000.0 -0.27784815820316217 0.24196566980192014
1240000000.0 0.15370121994196378 0.34846649290704856
1260000000.0 0.15639721233703285 0.3750981834989681
1280000000.0 0.015885844890683877 -0.4255853006655916
1300000000.0 -0.32761368812411673 -0.28029290372570115
1320000000.0 -0.38298204737163277 0.20875887328459922
1340000000.0 -0.3419396530282223 0.27390202044597023
1360000000.0 0.11995851958215435 0.4139357209678475
1380000000.0 0.0032036247504729676 0.42246233840737096
1400000000.0 0.39594353529235865 0.12585049435253112
1420000000.0 -0.16023099571424768 -0.3581692486813075
1440000000.0 -0.3603114551711556 -0.06695662795161855
1460000000.0 -0.17395041381357207 0.2870710913672862
1480000000.0 0.2099849830339976 0.22850982024509486
1500000000.0 -0.06887882847764604 -0.2643460060411884
1520000000.0 0.016660316889837202 -0.24294438870185064
1540000000.0 0.01850734267575481 0.20826168264589526
1560000000.0 0.16207125402021588 -0.07010810509631087
1580000000.0 -0.13996292876398556 0.04526221401026895
1600000000.0 0.05245159585130951 0.10638696994234406
1620000000.0 0.048634119250830554 0.07998713419255955
1640000000.0 -0.06317564684790639 -0.01884631392160258
1660000000.0 0.020085242701891163 0.03671381605844485
1680000000.0 0.007480966336580126 -0.01484714947708141
1700000000.0 0.007024984167557738 -0.018936358022430353
1720000000.0 -0.030017352022260167 0.025216863371086348
1740000000.0 0.045585596732438664 0.04875458625291408
1760000000.0 -0.07623985232346754 -0.029913239326056378
1780000000.0 0.04110419810025821 0.09127251868663938
1800000000.0 -0.12961297209645314 -0.0011363903587156313
1820000000.0 -0.1265225527574936 0.10998779317543508
1840000000.0 0.06463358773987166 -0.2020965274873974
1860000000.0 -0.012388596644771679 -0.2544957065190821
1880000000.0 0.15655932129111363 -0.2343393607419051
1900000000.0 -0.28651179432463914 -0.10051982819037833
1920000000.0 -0.2791553509993677 0.1934041299396092
1940000000.0 0.30404352496992393 -0.21854478492247353
1960000000.0 -0.1716104675245605 0.35750315062484794
1980000000.0 0.3989955877566202 0.05438862968249801
2000000000.0 0.39986712388655055 -0.1072640633527475
2020000000.0 0.28426891271831556 -0.32167371202107636
2040000000.0 -0.42183319970498845 -0.12533655096098736
2060000000.0 0.26991583232906324 0.3437962251920192
2080000000.0 0.26911967965236877 -0.32264515109508823
2100000000.0 0.3089190759833611 -0.25896709865898165
2120000000.0 0.19861228931062336 -0.339045754329242
2140000000.0 -0.2353315972424163 -0.2979790504164027
2160000000.0 0.12058050437280542 -0.3373918000835093
2180000000.0 -0.07789918881206478 -0.328656509759005
2200000000.0 -0.007453755822366564 -0.31783736182815364
2220000000.0 0.14002745321206966 -0.2761462441908598
2240000000.0 -0.10576055809884309 -0.2909192272063961
2260000000.0 -0.3034162272835694 0.03157994285911123
2280000000.0 -0.25496448353873735 0.16907831650522012
2300000000.0 -0.05209759598995248 0.31350532322187574
2320000000.0 0.33323223212182096 0.06603455232338686
2340000000.0 -0.14969457977181333 -0.3355402212807902
2360000000.0 -0.27316911268530364 0.29593481046317366
2380000000.0 0.4333950503491518 -0.1335017062281887
2400000000.0 -0.38469125730354425 0.3326013111355061
2420000000.0 -0.11267386101444894 -0.5506562743134176
2440000000.0 0.5387007553294744 0.2852532605972333
2460000000.0 -0.6458291792383186 0.09339153859621027
2480000000.0 0.584209593496379 -0.37087135295106843
2500000000.0 -0.5188735099962817 0.50280459495795
2520000000.0 0.4699126613157561 -0.5753257670913656
2540000000.0 -0.5789059896717179 0.4844943684185273
2560000000.0 0.6770698629351906 -0.3440496205146395
2580000000.0 -0.7448476463413575 -0.13209536868632188
2600000000.0 0.5311187017554503 0.5228901416344703
2620000000.0 -0.24643679446881486 -0.6857036157567629
2640000000.0 -0.7012861170640607 0.055485414378153276
2660000000.0 0.663431831948379 0.10262249949235301
2680000000.0 -0.6115412948337291 -0.16985645767081248
2700000000.0 0.5933750396816372 0.06672956486287263
2720000000.0 -0.4788384737667724 0.28185621823665974
2740000000.0 0.36493596739487993 -0.36108337191470286
2760000000.0 -0.23510629109095207 0.41252136490644764
2780000000.0 0.33771440439896017 -0.28758726196024065
2800000000.0 -0.3926326415364566 0.158998600139504
2820000000.0 0.39583040492716765 -0.1032542380359626
2840000000.0 -0.3506573862500641 0.19486942299826415
2860000000.0 0.36086111609236055 -0.15501971563355652
2880000000.0 -0.3872900439098733 -0.0282778936818252
2900000000.0 0.20241882263824154 0.3284056494222467
2920000000.0 0.2443967473802717 -0.2947171479168548
2940000000.0 -0.02849479956338431 -0.37718931937464933
2960000000.0 0.1901817194232255 -0.32304270289145776
2980000000.0 0.3739090782278177 0.02752096650723516
3000000000.0 0.18931845424687702 0.32862489429855263
3020000000.0 -0.2589787031259009 0.2753962241828235
3040000000.0 -0.3082165367791324 -0.21021217817995808
3060000000.0 0.3223514581055031 -0.17108860718692429
3080000000.0 -0.17623618925414974 0.3086811855410423
3100000000.0 0.03831271173801039 -0.3398316724367955
3120000000.0 0.008984086903047538 0.3293241483687309
3140000000.0 -0.2556652383058459 -0.183552258389867
3160000000.0 0.293306069294292 -0.007135163561408665
3180000000.0 -0.12452279451704101 -0.238722210356363
3200000000.0 0.18212212914222942 0.1564575531241864
3220000000.0 -0.1584212275117625 -0.13477073358366895
3240000000.0 -0.06791194071137242 0.16309515582659523
3260000000.0 0.14477000097770812 -0.0011394323912442396
3280000000.0 0.10524385521604963 0.02619845447147564
3300000000.0 -0.047392357650660744 0.06366499187377811
3320000000.0 -0.055963708043130556 -0.030542624565952272
3340000000.0 -0.03707525664021464 0.04148260987564702
3360000000.0 0.04453418879555331 -0.002772148077052888
3380000000.0 -0.011545336414684757 0.03643639909400662
3400000000.0 -0.010670424520562242 -0.03675132796308646
3420000000.0 0.0008754161223177042 0.032447993768246836
3440000000.0 0.007809392826644987 -0.025798867597297954
3460000000.0 -0.008956683108679222 0.016934451271290556
3480000000.0 0.0006651710530606856 -0.0184682122670475
3500000000.0 -0.024735933899465143 0.001003303389262704
3520000000.0 0.028285565207530523 0.014592826507810054
3540000000.0 -0.04711787320093142 -0.0037565828034358453
3560000000.0 0.0582401567768523 -0.0006387319253837359
3580000000.0 0.05483200855483814 0.032559736207704595
3600000000.0 0.04019624717617541 0.057447654751752605
3620000000.0 0.058224509795561374 0.05032425694937221
3640000000.0 -0.020860266241394507 -0.08521185835772632
3660000000.0 0.08238968152136227 -0.03904457217309628
3680000000.0 0.01551803856299946 -0.08974545375803833
3700000000.0 -0.05731213436216345 -0.07285507093847822
3720000000.0 0.03264041960249794 0.09013642750967796
3740000000.0 0.03662117206366716 -0.08211635313231529
3760000000.0 0.08207082368117748 0.034075048170202925
3780000000.0 -0.07722140547753151 -0.06180431018491953
3800000000.0 0.11281410224475923 0.03645812254105142
3820000000.0 0.014464908866926097 -0.1403796802698705
3840000000.0 0.0003767914434968233 0.1574587477339352
3860000000.0 -0.11777751383102962 -0.12364527362850404
3880000000.0 0.1828157056671314 0.04076368664597495
3900000000.0 0.023598789368865575 0.2006379162212815
3920000000.0 0.15961055878546607 0.1368775747507018
3940000000.0 0.181018626839136 0.11537920307746123
3960000000.0 0.18966535617621472 0.10208551495919214
3980000000.0 0.1887676097962136 0.09683529787966809
4000000000.0 0.16014648361674644 0.12429003414658094
