!Created with skrf (http://scikit-rf.org).
# Hz S RI R 50.0 
!freq ReS11 ImS11
400000000.0 0.3867572143963056 -0.7202704542185324
420000000.0 -0.044121529248113925 -0.8230765832182164
440000000.0 -0.6045621130276272 -0.46571538451231337
460000000.0 0.23150106066133705 -0.6681261294694462
480000000.0 -0.3699329739067157 0.5496096993919504
500000000.0 0.051841074858346284 0.6477693540299345
520000000.0 0.06657759645535545 0.5859080385763269
540000000.0 -0.4456967392367092 0.26096043688495385
560000000.0 -0.2833000246350941 -0.3922872170561396
580000000.0 -0.3180242352473416 0.2937155843914182
600000000.0 0.2654094818393846 -0.2960207028305033
620000000.0 -0.25961769880292307 -0.2848513058305444
640000000.0 0.11886372015075666 0.40297344965564297
660000000.0 -0.29198659548831135 0.3474876760533657
680000000.0 0.42081168627175974 0.11532341933118974
700000000.0 -0.07734253638575112 -0.41335045455558317
720000000.0 -0.4055483413760492 -0.022006602758847076
740000000.0 0.11752706907778414 -0.35336356146787307
760000000.0 0.06496264698681574 0.34000374615703993
780000000.0 -0.18216091122756853 -0.2693367808492788
800000000.0 -0.09397138690633947 -0.2818936594540156
820000000.0 -0.03565378152537255 -0.2523285988718896
840000000.0 0.010994463499711931 0.21842084114003613
860000000.0 0.18705827377952036 -0.012420259747755107
880000000.0 -0.0800039930254975 -0.13577969824869315
900000000.0 0.08323671373019724 -0.07584662086082085
920000000.0 0.06806931564907853 0.023272918675038008
940000000.0 0.007610672268969029 -0.055978515767217844
960000000.0 -0.05930239219350533 0.025162526690568048
980000000.0 -0.06675003593639062 0.04110449881615647
1000000000.0 0.08877533758164141 0.0072162042479189635
1020000000.0 -0.09072724170099487 -0.0508770160989043
1040000000.0 -0.10497653548040138 0.056188687158809675
1060000000.0 -0.14873213677584735 0.03335030521624273
1080000000.0 -0.07754207049601299 0.17055585904536538
1100000000.0 0.21206388737868745 0.0401327637218304
1120000000.0 0.11433967101333765 0.21558714529326967
1140000000.0 -0.15380945075377356 -0.2259608036841644
1160000000.0 -0.13592558630841045 0.2717630636920991
1180000000.0 -0.14619942050914528 0.28897003456490716
1200000000.0 0.20093630086588177 -0.2781072522861482
1220000000.0 -0.2696017772821163 -0.2470842967619788
1240000000.0 -0.1235213496268346 0.37633607711758316
1260000000.0 0.14351675906107522 -0.389313090501216
1280000000.0 -0.36692173765927383 -0.20621270047759768
1300000000.0 -0.2607273389199266 0.33734346047470254
1320000000.0 -0.2252552749341471 0.360472150551622
1340000000.0 -0.2283881178142022 0.3632657902224749
1360000000.0 -0.04531804892809822 0.4279719034141602
1380000000.0 0.3516864722714773 0.22542997424417818
1400000000.0 0.3923783289686636 0.08178521669101176
1420000000.0 0.356545513901572 0.14921317692877797
1440000000.0 0.24650836020072012 -0.2826212045287893
1460000000.0 -0.2119406785568032 0.2883451378294932
1480000000.0 -0.2395648414544358 -0.21648641970691543
1500000000.0 0.2701514176967291 0.07452373210592213
1520000000.0 0.10370365118270235 -0.20982119155110004
1540000000.0 -0.1822790982247644 -0.0706396326818829
1560000000.0 -0.028391492208107463 0.15405276829939674
1580000000.0 -0.10288000314170946 -0.06970829167596938
1600000000.0 0.02003012946615722 -0.09581254588309793
1620000000.0 -0.07263458348004102 -0.03178994020662019
1640000000.0 -0.019657210915864316 -0.06585731396289206
1660000000.0 0.0434503874350051 0.03196484745541916
1680000000.0 0.024059950880527956 -0.028331168127362222
1700000000.0 0.025475861803382193 -0.0035529600288516086
1720000000.0 0.012503251134988846 0.019092735837604166
1740000000.0 0.007370424058639009 -0.0380038828172325
1760000000.0 0.03577592021374919 0.054064293537036165
1780000000.0 -0.013253108196961435 -0.10211726508951344
1800000000.0 -0.15084863040622132 -0.019463028697412628
1820000000.0 0.09283395115277585 0.16983490635352202
1840000000.0 0.012367665160482683 0.22741232192312677
1860000000.0 -0.2483946766940546 0.09359942991300436
1880000000.0 -0.27772325695328387 -0.11445142824894841
1900000000.0 0.2812585556114561 -0.15599687175377858
1920000000.0 -0.33550110385040127 -0.06544706824394088
1940000000.0 -0.2638506126614177 0.24642721103368384
1960000000.0 0.19932854008448347 0.3284396528298911
1980000000.0 0.37339326921390914 -0.14244574148241973
2000000000.0 0.25284651828389476 -0.32921471134196034
2020000000.0 -0.23943211065791245 -0.35711605618431735
2040000000.0 -0.3543876569736826 0.2577500016821477
2060000000.0 0.3687537029534196 0.23831890688384044
2080000000.0 0.15114580197505592 -0.4041057035503182
2100000000.0 -0.38842566596357686 -0.1552015699075357
2120000000.0 -0.20793818397233468 0.3430241204741875
2140000000.0 -0.3758353556286661 0.06687665453327982
2160000000.0 -0.17452343462414768 0.31718162274765155
2180000000.0 0.20489362186710292 0.2695964152474356
2200000000.0 -0.00860299240512334 0.3176163145497412
2220000000.0 -0.29807808357887067 0.07481911773316711
2240000000.0 -0.3103719828150889 0.0034883288943720688
2260000000.0 -0.09480315595729732 0.30108792124022354
2280000000.0 0.30024506733570067 0.12205086074409498
2300000000.0 0.12909437830816273 -0.31443405281399556
2320000000.0 -0.3557330906206145 0.0796758495653988
2340000000.0 0.38487639695111503 0.09752588360559722
2360000000.0 -0.431489425871241 -0.060283727533605655
2380000000.0 0.47097800556994623 0.08938751165919963
2400000000.0 -0.5263359034795433 0.055139767212814196
2420000000.0 0.48722222413200417 -0.31520693915817066
2440000000.0 -0.22756084265584936 0.5877744934476706
2460000000.0 -0.28092087464479126 -0.6116950273176226
2480000000.0 0.6336696909462086 0.3172658280934276
2500000000.0 -0.7151353428662014 -0.16451060620821
2520000000.0 0.7448649974089722 0.08596893702086453
2540000000.0 -0.7067546749129855 -0.2707487095432106
2560000000.0 0.4370452515667759 0.6182769603983139
2580000000.0 0.01166863361802294 -0.7475118810689589
2600000000.0 -0.3866645523407263 0.6209011773206254
2620000000.0 0.5641853569813754 -0.4304556721134133
2640000000.0 -0.10470085886988696 -0.6728520430747997
2660000000.0 -0.07996227287714129 0.6407708183174229
2680000000.0 0.22030451973119178 -0.5656591618806495
2700000000.0 -0.1712543283927418 0.5404339417942882
2720000000.0 0.010866981502361296 -0.5245911897554277
2740000000.0 -0.11172515316923405 0.4673331824186421
2760000000.0 0.3784362447271902 -0.2326886972455545
2780000000.0 -0.3822644817512409 -0.17323180601096283
2800000000.0 0.21508792721213113 0.3444772011703493
2820000000.0 -0.3148593465830181 -0.24277099326245347
2840000000.0 0.38218947397880365 0.07030289324466577
2860000000.0 -0.3452619868121071 -0.16827308098328275
2880000000.0 0.25702615735100764 0.2800643368129986
2900000000.0 0.17719432731065704 -0.3321745110327984
2920000000.0 -0.29121592741428187 -0.2371950527945397
2940000000.0 -0.34322162125752603 0.146063349486485
2960000000.0 -0.3634965150781164 0.05470446903227078
2980000000.0 -0.058232027960765015 -0.3616708312311533
3000000000.0 0.3691013573131743 -0.028528647380115027
3020000000.0 0.1586625326910214 0.3344959942119137
3040000000.0 -0.35057052633014746 0.10632721950842235
3060000000.0 0.12266725738612509 -0.33817376580446623
3080000000.0 0.05988788983026151 0.34653062809656343
3100000000.0 -0.17795592620619696 -0.29031403976542985
3120000000.0 0.3248452614211723 0.04918723392173656
3140000000.0 -0.20442101586859965 0.23348060180156463
3160000000.0 0.05934504883849383 -0.2796434469884605
3180000000.0 -0.20034781210431615 -0.16545099319942624
3200000000.0 0.1034505430042692 0.20795694855431773
3220000000.0 0.07779951689667632 -0.18883946211995323
3240000000.0 -0.1658031616549511 -0.06261017786009418
3260000000.0 -0.07829862353663969 0.12845508962384897
3280000000.0 0.09495268113212006 0.07358601479021704
3300000000.0 0.04481974615574849 0.07885457913689764
3320000000.0 0.06015926991595918 -0.01475036286349868
3340000000.0 -0.004361191443354802 -0.039894521938168705
3360000000.0 -0.012992396465689258 -0.031813286360703505
3380000000.0 -0.04032989412549294 0.011065195145681975
3400000000.0 -0.029297457349466035 -0.0328572451326684
3420000000.0 0.00023350598411367167 0.03802272142630694
3440000000.0 0.02056709378200473 0.012407674864317169
3460000000.0 -0.004339356647382028 0.0009727385694457807
3480000000.0 -0.012466198469513651 -0.014725436055845921
3500000000.0 0.014376257417326059 -0.03784682814790603
3520000000.0 0.04338045135876025 -0.03514949975162742
3540000000.0 0.029088119295844758 0.05993902035110993
3560000000.0 0.06940604645208819 -0.006420092286415259
3580000000.0 -0.03834188542768255 0.058122081466800264
3600000000.0 0.012170182081378617 -0.07038677731156219
3620000000.0 -0.009871662397100604 0.07946473751246969
3640000000.0 0.07251500056660735 0.05913215623997344
3660000000.0 0.038085962274388596 0.09597074452093554
3680000000.0 -0.09977580373176467 0.03308857242542066
3700000000.0 0.055301263641876694 -0.0890682364215612
3720000000.0 -0.02157874146776433 0.09897979070301234
3740000000.0 0.06983021192610162 0.06264836709446667
3760000000.0 -0.08612816653088426 0.015957531508877347
3780000000.0 -0.029577432296234333 0.08947055399946836
3800000000.0 -0.018893165120175012 0.11282242131251277
3820000000.0 0.1317448621924902 0.045437628948695574
3840000000.0 -0.14250494005794895 0.06657934511635634
3860000000.0 -0.11537699122803152 -0.12939651198898167
3880000000.0 -0.010097428394841582 -0.18620306661714073
3900000000.0 0.13712004079095255 -0.13530843973398657
3920000000.0 0.18489135035038184 0.05707498363774081
3940000000.0 -0.1937895547465189 0.01862409493470169
3960000000.0 0.19290083468805266 -0.04794693037272396
3980000000.0 0.14630662076711132 0.14207129901922097
4000000000.0 0.15371943508933994 0.13188753045464296
