!Created with skrf (http://scikit-rf.org).
# Hz S RI R 50.0 
!freq ReS11 ImS11
400000000.0 0.7266906169043627 -0.38787673054428706
420000000.0 0.33714734272906044 -0.7574690370372748
440000000.0 -0.5612173428375066 -0.5310224173471937
460000000.0 0.03459139546402102 -0.7129684754956553
480000000.0 -0.15096137267125417 0.6473642962717467
500000000.0 0.635376560578182 0.10701966801317912
520000000.0 0.15443509030327443 0.5519619490448043
540000000.0 -0.28681773706370495 0.4226205008805084
560000000.0 -0.4659423861847469 -0.003909181974052977
580000000.0 -0.2917930340637694 0.2948645309669303
600000000.0 0.3714947664655301 -0.008969294608009283
620000000.0 0.2019802803972594 0.3181540060521925
640000000.0 -0.3003265620614929 -0.27648595437612494
660000000.0 0.419346532498046 0.15084423799620036
680000000.0 0.058318036484151806 -0.4533481354519805
700000000.0 0.45586386300150994 -0.00027511220750788467
720000000.0 -0.4260676719975243 0.10135920969223366
740000000.0 -0.16887348297267613 0.35322350611163056
760000000.0 0.17477563686487488 -0.3047146082012989
780000000.0 0.26273293526738045 0.18275539601683854
800000000.0 -0.10622238282231364 -0.2565249787374046
820000000.0 0.20335021765645955 -0.1431685429444489
840000000.0 -0.20498032670458427 -0.03799139425865239
860000000.0 -0.17816314604242567 -0.04886808523401216
880000000.0 -0.14248232790813586 0.010500416357198207
900000000.0 0.03291221585998837 0.11216005033484693
920000000.0 0.06942240819907769 0.03117272323277358
940000000.0 0.0020097830828900063 0.049912255558452565
960000000.0 0.051992625682055746 0.03156806446760184
980000000.0 -0.04143424593095329 0.05705516245551875
1000000000.0 0.07084415451969894 -0.03578519402043185
1020000000.0 0.08477672703005727 0.07407747220717414
1040000000.0 0.117782561558174 -0.048389278308591514
1060000000.0 0.1416023363840719 -0.08331272194012193
1080000000.0 -0.17351482148517686 0.11001026412512913
1100000000.0 0.2089016279204947 -0.09820725529599329
1120000000.0 0.20638458136337756 -0.15399764349708886
1140000000.0 0.1390733149632794 0.2371331073509435
1160000000.0 -0.06707055083546588 0.28986160780827963
1180000000.0 -0.23299712504285602 0.23160507824274384
1200000000.0 0.22356626039912816 -0.26068925314317015
1220000000.0 -0.34892919464785027 0.13373903997057543
1240000000.0 0.38034153964583806 -0.04361732983482547
1260000000.0 0.38802218234068603 0.044564779955215385
1280000000.0 0.4016898891192734 0.0927384739478847
1300000000.0 0.3949709649072468 -0.16410471180090191
1320000000.0 -0.06867498027393105 -0.4422936243520909
1340000000.0 -0.39480111338514023 0.2108624398171708
1360000000.0 0.3236602393505867 0.307360159342396
1380000000.0 0.3973669755310007 -0.14179535249650738
1400000000.0 0.4039903420136012 -0.04730124493254909
1420000000.0 0.10091089770160884 -0.37451185696758277
1440000000.0 -0.03144899356746241 -0.3655863138821947
1460000000.0 -0.29314399393743423 0.185245184016015
1480000000.0 0.274726325928852 -0.15702356625210445
1500000000.0 -0.25494013519661907 0.11479911672399655
1520000000.0 -0.058405310193988404 0.23123843871383512
1540000000.0 0.19889638112677088 0.022062430900259184
1560000000.0 0.11966800510478592 0.11253407609800539
1580000000.0 0.04301361426162433 0.1338719448665238
1600000000.0 0.08783861403202967 0.0815606391381101
1620000000.0 -0.08256724277199966 0.05932203470833028
1640000000.0 -0.051905031405254765 -0.06105639769605841
1660000000.0 -0.03885435971559863 -0.025555245543239315
1680000000.0 -0.015665384641700662 -0.002380796304349292
1700000000.0 0.018273397330610713 -0.00448454051971213
1720000000.0 -0.019479325785991045 0.03438120882708344
1740000000.0 0.01869009143074854 -0.058361108166936994
1760000000.0 -0.032505057600182345 -0.07657305131332863
1780000000.0 0.09927738566401549 -0.04515442009540667
1800000000.0 -0.042918286105921556 0.13320342998452409
1820000000.0 -0.008457515219626942 -0.17163828823565527
1840000000.0 -0.1946801010627995 0.04409230776848729
1860000000.0 0.23022071221191823 0.0804476013614041
1880000000.0 -0.10940231073839837 0.26179276779418637
1900000000.0 -0.13803050025577296 -0.28608763490963385
1920000000.0 0.2905198781518805 0.18754554832071155
1940000000.0 -0.03658554386906084 -0.3679941011859093
1960000000.0 -0.20697253675783436 0.3315610796037913
1980000000.0 0.3814594672261264 0.13040848672426963
2000000000.0 0.34478374657260513 -0.23472738798925002
2020000000.0 -0.12663037624029305 -0.4067791027636861
2040000000.0 -0.4059769120186035 -0.14244360466053216
2060000000.0 -0.17124982212703013 0.39581902543931224
2080000000.0 0.35237162493725976 0.23836225725269183
2100000000.0 0.2417929915789574 -0.33680719100227985
2120000000.0 -0.2180638125650735 -0.32797024414568354
2140000000.0 -0.22733921066687732 -0.3002929182326035
2160000000.0 0.14036749294665057 -0.3285146134283723
2180000000.0 0.07083001434269443 -0.33001348703085426
2200000000.0 -0.035360398043875946 -0.3181770033284196
2220000000.0 0.1503624699124816 -0.2688474951291626
2240000000.0 0.0093387326278345 -0.3068706079163562
2260000000.0 -0.3005510981611702 -0.053806978154270754
2280000000.0 -0.17431300768054314 0.250630959869477
2300000000.0 -0.07226993975816992 0.30243025573659676
2320000000.0 -0.0838773610365313 0.32484017742410937
2340000000.0 0.3040224160919296 -0.2164218562803965
2360000000.0 -0.2870913394865926 0.2979366071966684
2380000000.0 0.1586722330742151 -0.427506127544279
2400000000.0 -0.25420401934410913 0.43245107592637283
2420000000.0 0.18613870578707076 -0.5228634416643274
2440000000.0 0.17140246324210634 0.5826092048611703
2460000000.0 -0.5671510451059637 -0.3279681279961134
2480000000.0 0.6911514746064329 -0.07122742527612727
2500000000.0 -0.6668631190967953 0.28288441154325605
2520000000.0 0.6565820579607464 -0.3546958643999687
2540000000.0 -0.7406618116360121 0.16442436947718894
2560000000.0 0.7631920419256568 0.04785354076749021
2580000000.0 -0.5501687931757328 -0.527693507591019
2600000000.0 0.201555082944565 0.7235510709226299
2620000000.0 0.11095451118745171 -0.725721933136092
2640000000.0 -0.6110859839931264 -0.359659315470733
2660000000.0 0.47260025151253476 0.4833257376257759
2680000000.0 -0.4111000298877209 -0.4894927567034165
2700000000.0 0.38451796794144016 0.46260086626620667
2720000000.0 -0.4777258948212297 -0.29741679110778646
2740000000.0 0.5238052474806074 -0.023552776319971533
2760000000.0 -0.388173146479437 0.29140378390940064
2780000000.0 0.24051903046837161 -0.38191030814568133
2800000000.0 -0.30536348956524134 0.2941392086880432
2820000000.0 0.3891541689489726 -0.11746630397307224
2840000000.0 -0.39530623845248036 -0.04219707408189276
2860000000.0 0.3891688996619925 0.05838468394036451
2880000000.0 -0.33709455087831053 -0.19449989357333858
2900000000.0 -0.1281424394195214 0.3638716572510691
2920000000.0 0.37456989178167516 0.10035942894156247
2940000000.0 0.23750662641380432 -0.3040629116908188
2960000000.0 0.24476695156803435 -0.2944783555878376
2980000000.0 0.37911768199109713 -0.045498271572026155
3000000000.0 0.3331274096314789 0.19152781239363736
3020000000.0 0.16074092036332532 0.3437122917697441
3040000000.0 -0.3624689683880137 0.07484483713286642
3060000000.0 0.28594075249945833 -0.21413860381291275
3080000000.0 -0.34029518382114726 0.06868915813935741
3100000000.0 0.3366990844590997 -0.023394952684816128
3120000000.0 -0.3284582223084925 0.017941230636614416
3140000000.0 0.2781785574383874 -0.15264841891926403
3160000000.0 0.0994167677217656 0.2842333722383349
3180000000.0 -0.16241584436092696 -0.22655977329894825
3200000000.0 0.07770783701761137 -0.2324373491704177
3220000000.0 0.07559468403117509 0.18812861787369697
3240000000.0 0.12975018798530782 0.10088827655143467
3260000000.0 -0.13016050796521242 0.031037036142036584
3280000000.0 0.0804422848895289 -0.07352911524327332
3300000000.0 -0.02225236906930065 0.08479324078737867
3320000000.0 0.06301072250920742 -0.007310329704085283
3340000000.0 -0.032407822180158294 -0.026593349369072514
3360000000.0 -0.006661029219065277 0.03817139847364829
3380000000.0 0.04113724016824361 0.011630296675786016
3400000000.0 0.04107742240288316 0.009021576394475811
3420000000.0 0.02953273117540067 -0.00992625369736157
3440000000.0 0.016503460435156995 -0.01134586210422433
3460000000.0 0.00799529087998979 -0.014002996171155531
3480000000.0 0.01991919948372844 0.0025974581814681577
3500000000.0 -0.02480100517590057 0.012237280908970779
3520000000.0 -0.027977127370976664 0.01711329070149748
3540000000.0 0.00551827532667148 0.04548884271982242
3560000000.0 -0.02977057903155897 -0.048704899510893365
3580000000.0 -0.0560719695369006 0.03793050781446384
3600000000.0 -0.0791655859312577 0.002888572807716566
3620000000.0 -0.07247076964000007 0.04286781864567898
3640000000.0 -0.05473562091723628 0.06440686878138714
3660000000.0 0.04125744602290751 0.08015336157498715
3680000000.0 0.09273897724744441 -0.0009679244596060271
3700000000.0 0.06190955519319322 -0.07130136090273786
3720000000.0 -0.08002335582949556 0.05699305072027367
3740000000.0 0.0024885905500922185 0.09108958043773406
3760000000.0 -0.08431666287925696 0.03601087324029685
3780000000.0 -0.035115521881699474 -0.09641024487571659
3800000000.0 0.06235896666198737 0.10382627703506071
3820000000.0 0.11170767317327863 -0.08926048456655028
3840000000.0 -0.04260941946023002 0.15172831353938077
3860000000.0 -0.010472013299947755 -0.16833941310272482
3880000000.0 0.04595540258499072 0.1767340332069645
3900000000.0 -0.1963396647582145 -0.0035949538873902937
3920000000.0 -0.20331655087482878 0.028850216155744672
3940000000.0 -0.19832825441376123 0.06961219299119102
3960000000.0 -0.20747055056259864 0.03477889790799512
3980000000.0 -0.1974296764794132 -0.05567227794837639
4000000000.0 -0.07838554121276715 -0.17819209961527796
