!Created with skrf (http://scikit-rf.org).
# Hz S RI R 50.0 
!freq ReS11 ImS11
400000000.0 0.5638986099672 -0.5989205598026759
420000000.0 -0.27967463113797475 -0.7747087415079078
440000000.0 -0.7585144971197259 0.06643276445828654
460000000.0 -0.606887225152017 -0.3668356626770552
480000000.0 0.5835271036485811 0.2844727961650399
500000000.0 0.4677568062893718 -0.4160362644910901
520000000.0 0.5657188559173253 -0.022991968263371732
540000000.0 0.5019502316383586 0.0027140992922975037
560000000.0 -0.4317599254695133 0.1994176456192757
580000000.0 0.37686106567015576 0.23679101480767858
600000000.0 -0.15871991928415688 0.36715645708367783
620000000.0 -0.36528133362033777 0.10063133466689106
640000000.0 -0.14125893119234914 0.38308825076832786
660000000.0 0.3529653544415761 -0.2705969463376954
680000000.0 -0.28232229003042175 -0.35014250263806773
700000000.0 0.2278036347680014 0.3735728771242653
720000000.0 0.3826762989948954 -0.1895050293531394
740000000.0 0.2903936951830198 0.26509444366887736
760000000.0 -0.35223858784197176 0.10423465901402036
780000000.0 0.2666540616492058 -0.21177300400914023
800000000.0 0.049040401256280404 0.3133202434956067
820000000.0 -0.23048576528262366 -0.1708045481618539
840000000.0 0.0934767462803164 -0.19010278435546954
860000000.0 -0.1845416125140086 -0.013874267651624474
880000000.0 -0.03120660828016393 0.1403554063115052
900000000.0 0.0647882227077449 0.09837273689769356
920000000.0 0.055957536224315915 -0.04678475637634998
940000000.0 0.006728697883144274 -0.024073274638037646
960000000.0 0.019593194195781587 0.020758465493485923
980000000.0 0.02405004342008245 -0.030731360246733393
1000000000.0 0.04375220128066179 -0.031805824621498044
1020000000.0 0.052400792932478076 -0.0600381802236534
1040000000.0 -0.0985711226702057 0.0035507422470805734
1060000000.0 0.14058527687566633 0.012090550362984875
1080000000.0 -0.17242692952339192 -0.06441936213690709
1100000000.0 -0.2093952076827919 0.06178839757206416
1120000000.0 -0.1284425829349839 0.22420543193223166
1140000000.0 -0.2678017208371241 -0.09891465399189515
1160000000.0 0.0646959783121413 0.2996650836130142
1180000000.0 -0.2612920811448801 0.1911335918841617
1200000000.0 0.33019983816689746 0.06653452305082755
1220000000.0 0.36109503038667634 -0.009172623552714606
1240000000.0 -0.27002374241308 -0.277242497038135
1260000000.0 -0.32255077092370926 0.24281218321825385
1280000000.0 0.2896363686271999 0.30049065668102
1300000000.0 0.39165627152093696 -0.15067045252412284
1320000000.0 0.39463336591874437 -0.1529839346483732
1340000000.0 0.2729365971660305 -0.3355420494229508
1360000000.0 -0.40076252825637104 0.13261314426785598
1380000000.0 -0.33632337964710834 -0.21624333681188407
1400000000.0 -0.36153147917301653 -0.1435792478329943
1420000000.0 -0.3713508197935669 -0.032467590445064046
1440000000.0 -0.05978129108234618 0.3560766849261445
1460000000.0 -0.030814430872780452 -0.33304688202330324
1480000000.0 -0.028810878092405907 0.2970061965096654
1500000000.0 0.14121860145020326 -0.21230204372809094
1520000000.0 0.15340292495232796 -0.16002841425931186
1540000000.0 0.057306519250011095 0.17338202295715482
1560000000.0 -0.026703711800656806 0.13659321573592972
1580000000.0 0.05661174568053303 -0.09650815093612918
1600000000.0 -0.0010492030662414375 0.09400992439934519
1620000000.0 -0.07304289161227782 0.020089132048880094
1640000000.0 -0.028270232336617126 0.036388179579213524
1660000000.0 -0.012749798471664023 0.019505433365467208
1680000000.0 -0.010948477863110435 -0.00696515866392518
1700000000.0 -0.010565461300270812 -0.03043572596868342
1720000000.0 -0.05638939394200767 -0.011181995940437919
1740000000.0 -0.07811132354915451 0.006010967878166521
1760000000.0 -0.07330500634007218 0.07161548207398356
1780000000.0 0.1329642550031495 -0.013131255252243545
1800000000.0 0.16363613443536124 -0.023713799920317975
1820000000.0 0.0320128466242955 0.19380018439629718
1840000000.0 0.048234968271919136 -0.22553212758500057
1860000000.0 0.2401393465267771 -0.12113686824022012
1880000000.0 -0.1126966266508984 0.28261269697436187
1900000000.0 -0.08226072754785704 -0.32191195204910616
1920000000.0 -0.22370553651459996 0.2884326612678786
1940000000.0 0.3015548682707759 -0.25748689431119925
1960000000.0 -0.3558850684865071 0.21874743285911813
1980000000.0 0.40339451254685227 0.16380352332527556
2000000000.0 -0.13583249203378592 -0.4224801374173072
2020000000.0 -0.39187011443120123 -0.22013652453732663
2040000000.0 -0.4360636423314572 0.1336015425827616
2060000000.0 0.20755983139780812 0.4096337718750412
2080000000.0 0.3167720150104631 -0.3223818739792908
2100000000.0 -0.18428903244252892 -0.39634345547922906
2120000000.0 -0.3558928192288578 -0.2291606776892432
2140000000.0 -0.27649034086655583 0.3041902085323002
2160000000.0 -0.3062051604462104 0.2386080952912578
2180000000.0 -0.12204289387198217 0.3433727833297583
2200000000.0 0.058220457439712464 0.3425208477934907
2220000000.0 0.26279077191936323 0.2061440097766295
2240000000.0 0.24049559128016815 -0.22142401093004718
2260000000.0 -0.11331097092110227 -0.2957943746463622
2280000000.0 -0.17906186211879235 -0.2610712935204499
2300000000.0 -0.23000058821615008 0.23068770333183758
2320000000.0 0.250830205902304 0.2281860708620343
2340000000.0 0.2971100932080023 -0.20606808712680194
2360000000.0 -0.22922041743971805 -0.319387218712558
2380000000.0 -0.2145057542036275 0.38240991714198275
2400000000.0 0.29438154241016334 -0.3868828716465844
2420000000.0 -0.4338484023002354 0.313558547246742
2440000000.0 0.4943531239698726 -0.31953970641017587
2460000000.0 -0.393281873509623 0.5010986539690154
2480000000.0 0.2941541905433855 -0.6101653512110163
2500000000.0 -0.35792495102619115 0.6123118931812586
2520000000.0 0.5358161752199121 -0.49963306180061906
2540000000.0 -0.6477426232480465 0.37183518477455735
2560000000.0 0.7467379246795309 0.10645949684624359
2580000000.0 -0.4588202618122994 -0.5964839975719884
2600000000.0 -0.03396289070724906 0.7410236741896524
2620000000.0 0.3971157644184279 -0.607571030201817
2640000000.0 -0.2242648879608373 -0.6663128753427096
2660000000.0 -0.08097013354262528 0.6686994564342624
2680000000.0 0.2091390668006495 -0.6065301757885966
2700000000.0 -0.15791900607071072 0.5867464110193845
2720000000.0 -0.07811457913392002 -0.5662987553907085
2740000000.0 0.3144550906060744 0.43579686065433326
2760000000.0 -0.4824794456926687 -0.14462319411727292
2780000000.0 0.46808665428612034 -0.08725488590873848
2800000000.0 -0.32810359345350837 0.31733532823553506
2820000000.0 0.06751742430291985 -0.4355239045253782
2840000000.0 0.1043203205583586 0.4197097542808225
2860000000.0 -0.2639867224092673 -0.33682110899082
2880000000.0 0.2965298240791642 0.3005473248120814
2900000000.0 0.026754366026033472 -0.41755990347790245
2920000000.0 -0.40998863522049656 0.07577954574957978
2940000000.0 0.0925599581342154 0.4051490713529608
2960000000.0 0.36547035107784787 0.1811424238379896
2980000000.0 0.24132246476457195 0.31897739086200033
3000000000.0 -0.14884608151797207 0.36776384366728654
3020000000.0 -0.3836720039337732 -0.06133460488223262
3040000000.0 0.07500109028096064 -0.37260395736559676
3060000000.0 0.33559992135748656 0.1535645095234013
3080000000.0 -0.3401754171252216 0.09897503982009437
3100000000.0 0.19058425623921743 -0.2778706422581989
3120000000.0 -0.05767549471465222 0.31304231191451365
3140000000.0 -0.18903831417473738 -0.2320629174248432
3160000000.0 -0.03429846785125886 0.26936093638295344
3180000000.0 -0.16413883431099044 -0.17784174453141585
3200000000.0 0.16104776038330015 0.12958547895668257
3220000000.0 0.025799435429265886 -0.17070593150326488
3240000000.0 -0.13240374843723743 -0.029213812098432754
3260000000.0 0.07983666502289748 0.05889725294662381
3280000000.0 0.06252347815428685 0.0385007235967763
3300000000.0 -0.05975764695716173 0.005658748372190277
3320000000.0 0.046682097838026404 -0.01909863807604592
3340000000.0 0.05977083053051005 -0.005955819963517968
3360000000.0 -0.03203323519322362 -0.057818938559618484
3380000000.0 -0.069229512827647 -0.008192242186210758
3400000000.0 -0.06896357982744322 -0.017402573667186016
3420000000.0 -0.026480092183070035 0.06373943104324842
3440000000.0 -0.055790574617998176 0.024740042387963342
3460000000.0 0.0383833744214129 -0.028044311543930923
3480000000.0 -0.0008453997953188722 -0.029348131241137245
3500000000.0 0.004884922687924242 -0.012251522712512002
3520000000.0 0.0061060413352570266 -0.011991689423365145
3540000000.0 0.02515517346731863 -0.019031320665784952
3560000000.0 -0.04799011093695847 -0.007592809165131663
3580000000.0 0.01276685267197555 -0.06173155855825829
3600000000.0 0.009799004750901468 -0.0792663247818802
3620000000.0 -0.09521446343803364 0.018885325829132854
3640000000.0 -0.09033454537905698 0.06356495903103321
3660000000.0 -0.03528469437368669 0.11891113388913069
3680000000.0 -0.016116913208995307 0.13168813265857182
3700000000.0 -0.01552072233625007 0.13822759666694642
3720000000.0 -0.0640561742490879 0.12571366732595193
3740000000.0 -0.06126803752833322 -0.12733071116394767
3760000000.0 -0.1461920696995562 0.006317661721236878
3780000000.0 0.11147584647366482 0.10353597753036801
3800000000.0 -0.04412942912623396 -0.148226309588573
3820000000.0 -0.08965650834521721 0.13551505143010417
3840000000.0 -0.027202965615098922 -0.16252518060154006
3860000000.0 -0.11211912360224889 0.12334165928902648
3880000000.0 0.13044615834136356 -0.11196323094316259
3900000000.0 -0.1658950686837444 -0.04160889371295428
3920000000.0 0.14213746882623854 0.0986655889746113
3940000000.0 -0.1709818224979456 0.005714186233491124
3960000000.0 0.16387040456057028 -0.022471915506713243
3980000000.0 -0.06463999624747135 -0.14831371522450473
4000000000.0 0.01961371498248535 0.1563259178185685
