!Created with skrf (http://scikit-rf.org).
# Hz S RI R 50.0 
!freq ReS11 ImS11
400000000.0 0.7185984209519327 0.38196030705333217
420000000.0 0.8002837612311978 -0.2127972058863031
440000000.0 -0.29037896428687654 -0.710481807428597
460000000.0 0.5158199239429215 -0.49532416415146535
480000000.0 -0.19961999580850118 0.6274212788238434
500000000.0 0.07465218590910197 0.643010550258271
520000000.0 0.030684791601246268 0.5768080475961296
540000000.0 -0.4783703299993079 0.19327387588515108
560000000.0 -0.4819419160774403 -0.02883335829921721
580000000.0 0.12144515449277918 0.4171318938756982
600000000.0 0.03789710942222719 -0.39062337455420393
620000000.0 -0.3703164525614786 -0.10903286800933397
640000000.0 0.39748785694449507 0.07345021302758631
660000000.0 -0.22063101590589734 -0.3617481666751037
680000000.0 -0.4033973288917949 -0.15783269949260378
700000000.0 0.03233185341975079 0.41734973586547686
720000000.0 0.12149064425849397 0.3994612075897708
740000000.0 0.16158458371192405 0.3656972851125119
760000000.0 0.019478144564708946 0.37213648052209836
780000000.0 -0.1343884009549044 0.307730543212693
800000000.0 0.24528206425922142 -0.16899638334878042
820000000.0 0.16405567979679125 -0.2150314896014844
840000000.0 -0.07641123048019258 0.21340573245086952
860000000.0 0.20234405071816908 0.001591544134317508
880000000.0 0.02451101180620461 0.15184946326714477
900000000.0 0.09425341612762175 -0.052505496800155135
920000000.0 -0.06750708199701415 -0.001275778740666654
940000000.0 0.009137858746921487 -0.03681475295548451
960000000.0 -0.03233958514305942 0.03860022375120727
980000000.0 0.06392410804768718 0.004194649835442406
1000000000.0 0.06412761603283691 -0.008494111866351007
1020000000.0 0.08368511007736021 -0.03212134283515477
1040000000.0 0.08763531517480218 -0.06826542130242756
1060000000.0 0.04681362926875865 -0.1372242842059395
1080000000.0 -0.13503957074302797 0.12317304556371672
1100000000.0 0.056670708073136566 0.19912281847523688
1120000000.0 -0.23669736436178507 -0.05253550527919331
1140000000.0 0.0025757296283498154 -0.27826845844412784
1160000000.0 -0.15282282050064983 0.27084182915415794
1180000000.0 0.30691214588103005 -0.13265064270054047
1200000000.0 -0.12974599556300823 0.30037729127347035
1220000000.0 -0.25970576375609933 -0.2348004750559614
1240000000.0 -0.38111811447773425 -0.016081497575825568
1260000000.0 0.21371815319050366 0.3508816320852645
1280000000.0 -0.04232340290077747 -0.42481590408376585
1300000000.0 -0.4264146523869001 -0.06326346456832505
1320000000.0 -0.3802981418922294 0.2105867046163687
1340000000.0 -0.383889700832271 0.2101022180017003
1360000000.0 -0.042912547359354854 0.44222834368500596
1380000000.0 0.4154347961474479 -0.10820275157981211
1400000000.0 0.13595562474805264 -0.3891291704056739
1420000000.0 0.0419895753150272 -0.3817026099453875
1440000000.0 0.3457495312219606 -0.12991854916727466
1460000000.0 0.0008540609625962848 -0.35769841856597595
1480000000.0 -0.06350030680986048 0.33837335342402947
1500000000.0 0.006644519675312755 0.30982490277436886
1520000000.0 0.20678436465967026 -0.15390411979824037
1540000000.0 0.08906656792417558 -0.19746018761591533
1560000000.0 0.09006339110093219 -0.16132070266713683
1580000000.0 -0.160225263029714 0.028740687376743124
1600000000.0 0.0061078739134542955 -0.1312878853390617
1620000000.0 -0.10052539433890532 0.007854114747717134
1640000000.0 -0.03543151833728479 0.07037553833365429
1660000000.0 0.014314853230656366 0.0555291121989721
1680000000.0 0.035429853108819555 -0.005449433840073439
1700000000.0 0.008152095110866264 -0.0310803261690565
1720000000.0 -0.017910296802193942 0.03341713247498143
1740000000.0 0.024051298477264487 -0.027344948029410038
1760000000.0 -0.03596595892996584 0.04058497586320798
1780000000.0 -0.09256339273040079 -0.000368637382018308
1800000000.0 -0.13052909475187205 0.046663335621971065
1820000000.0 0.02040324735893781 0.16890470670599708
1840000000.0 -0.009185421625815612 -0.1917841484996959
1860000000.0 -0.16018946837090653 -0.1571406394936933
1880000000.0 -0.14776457824153527 0.22345450792963992
1900000000.0 -0.12605146464705763 -0.28495049871289263
1920000000.0 0.33189932628837665 -0.08805255462452603
1940000000.0 -0.3603109185923073 0.046499986729011025
1960000000.0 0.049505377722003675 0.3755124963301479
1980000000.0 0.20709248548024525 0.34021704447705603
2000000000.0 0.40366914931240927 -0.1182469940248866
2020000000.0 -0.2725494529978874 -0.3387073314037683
2040000000.0 -0.09546516498010664 0.4269855141158168
2060000000.0 0.3881756779341125 0.17830999012373902
2080000000.0 0.3751313146900626 0.18364102045690722
2100000000.0 0.40416804209663676 0.07302092573934565
2120000000.0 0.3054867257863669 -0.26113233928132357
2140000000.0 -0.12114115066428321 -0.3686969365964555
2160000000.0 0.033768856177203835 -0.3657896861737154
2180000000.0 -0.20780630673037087 -0.2751295816845617
2200000000.0 -0.3037598166530743 -0.11541983722073478
2220000000.0 -0.2960158456305085 -0.08095835338702874
2240000000.0 -0.2718043058760337 -0.1212629516587687
2260000000.0 -0.2528261446631995 -0.15110802410772697
2280000000.0 -0.25667140879772443 0.1559633275135367
2300000000.0 0.2789520074555758 0.1264117589619414
2320000000.0 0.3137192744876053 -0.06034033777493553
2340000000.0 0.12773664776887972 -0.3261998597846326
2360000000.0 -0.2621833103550509 0.2888069324582581
2380000000.0 0.07748984440705083 -0.42675568904586714
2400000000.0 -0.1363490555626279 0.45652876014415056
2420000000.0 0.31053298729725937 -0.42787282803967625
2440000000.0 -0.11099449680392369 0.5741871181184811
2460000000.0 -0.2949424304107939 -0.5606945518997446
2480000000.0 0.593491857408103 0.3166430233030727
2500000000.0 -0.5884086436408239 -0.38599088070126003
2520000000.0 0.5576487594382813 0.46532648566898477
2540000000.0 -0.48971828023587266 -0.5558426716650279
2560000000.0 0.11253035022455718 0.7388140619424757
2580000000.0 0.3287810182076611 -0.6690646319791329
2600000000.0 -0.658974309434451 0.32689082691894794
2620000000.0 0.7202030532482925 -0.0027313017378170572
2640000000.0 0.23290770020072532 -0.6568401891259016
2660000000.0 -0.30250845382623 0.5930574394012125
2680000000.0 0.28111439349608297 -0.5646443825631967
2700000000.0 -0.20631608272714166 0.557200984782183
2720000000.0 -0.08631553176731303 -0.5501659115203595
2740000000.0 0.41412585489647225 0.31011126425361907
2760000000.0 -0.47773437504159566 -0.027202484146782217
2780000000.0 0.43977814448222546 -0.07344649214288815
2800000000.0 -0.41260109368990067 -0.09686996040917452
2820000000.0 0.41277972840635246 0.004714368339452215
2840000000.0 -0.29231677072673984 0.27545944347275714
2860000000.0 0.3227409014383477 -0.2229710777800309
2880000000.0 -0.3358214072151866 -0.19028392740684474
2900000000.0 -0.35675270485764193 0.15488494387379595
2920000000.0 0.2412662078963823 0.31602267588202426
2940000000.0 0.11634618597109951 -0.38006990322812645
2960000000.0 -0.09858521995463951 -0.37720529361286775
2980000000.0 0.24948259332797934 -0.2961914994262527
3000000000.0 0.36539347338580586 0.13133851040950192
3020000000.0 -0.08186933289854859 0.3745806022441161
3040000000.0 -0.24711199850353918 -0.28386577479740827
3060000000.0 0.34677680955650153 0.13170727510165087
3080000000.0 -0.35901666071260285 -0.056883876125280224
3100000000.0 0.3485209671228342 -0.0648602014441662
3120000000.0 -0.32211743063548975 0.12013030001261185
3140000000.0 0.1438458604543069 -0.2982110530377274
3160000000.0 0.20608552021023022 0.23631099725908894
3180000000.0 -0.23452260364711272 -0.17059463153749874
3200000000.0 0.2289209309730267 -0.11560005326712004
3220000000.0 -0.21460174651408542 0.063188604335782
3240000000.0 0.19434998164346345 -0.012918644775170227
3260000000.0 -0.12351544928860504 0.1034381217708978
3280000000.0 0.07294057855582585 0.09902431022312405
3300000000.0 -0.04209852855839619 -0.0837406876021346
3320000000.0 -0.007000831856872089 0.07191397332982037
3340000000.0 -0.008765684974709734 -0.05203645493943948
3360000000.0 0.018379755651296084 -0.02785837138780649
3380000000.0 -0.0189019191182305 -0.00397962184272267
3400000000.0 0.02223769834292953 0.001746994460241446
3420000000.0 0.021700796687330486 0.0032393959482837887
3440000000.0 -0.009968876257936927 0.0019266439868847417
3460000000.0 -0.00811502473990611 -0.0009564156382868669
3480000000.0 -0.021406876166291333 0.010073163131943
3500000000.0 -0.03200308640211977 0.010182889586897868
3520000000.0 -0.005117448499219304 -0.04443888172361033
3540000000.0 0.046437615193588494 0.03650796731955493
3560000000.0 -0.00284195752086673 0.07198906635750757
3580000000.0 0.06907966739388824 0.044064208036315985
3600000000.0 -0.08030061414137799 0.03509588177834354
3620000000.0 0.09586332895354857 0.005423237294235006
3640000000.0 -0.09499028468850303 -0.03811044637460153
3660000000.0 0.10827242876795751 0.025133020745032594
3680000000.0 -0.05026172864128011 0.10414092577675994
3700000000.0 -0.0968990438835096 -0.06208916398155387
3720000000.0 0.033424171657310084 0.10675276632021378
3740000000.0 0.01520324853701673 0.10990881342998488
3760000000.0 -0.013755240573228187 -0.11593982013327729
3780000000.0 -0.036528383645231956 -0.11910941639387793
3800000000.0 0.005853581077798852 -0.12631420363689944
3820000000.0 0.10523369799064944 0.08720013858701715
3840000000.0 0.1525574474454941 0.02613515947140515
3860000000.0 -0.07856526309955111 0.15308631357341923
3880000000.0 -0.08845624123577639 -0.15957336356055113
3900000000.0 0.027479941581912203 0.19282235403684686
3920000000.0 -0.14834836533498638 0.14722850471779675
3940000000.0 0.15182526942116473 0.15678701851400892
3960000000.0 0.1610608503823517 -0.1432189645942421
3980000000.0 0.023978910060250748 -0.20725878548609403
4000000000.0 0.0003091113143186943 -0.1985550609870754
