!Created with skrf (http://scikit-rf.org).
# Hz S RI R 50.0 
!freq ReS11 ImS11
400000000.0 0.40477000889894965 -0.7343887005585662
420000000.0 -0.6945766015393517 -0.4591218497768298
440000000.0 -0.5453959702347021 0.559342686099593
460000000.0 -0.5693764119840796 0.4234609008442164
480000000.0 0.4097391109004234 -0.4940586398340259
500000000.0 0.4914590068114184 -0.3666142587499553
520000000.0 0.49299384217050113 0.23046454249432363
540000000.0 0.18835662390075467 -0.44149087892419675
560000000.0 0.3181700436401658 0.33462937994780206
580000000.0 0.24278205046950518 -0.3430619981194458
600000000.0 0.3304295217868146 0.18872413086120624
620000000.0 0.06673892627851158 0.36187257261286404
640000000.0 -0.24261925626538827 -0.3371465905891526
660000000.0 -0.009608550527054638 -0.4469859314307381
680000000.0 -0.4510351925103226 -0.028968572967554247
700000000.0 -0.08830148315579707 -0.43566145372483456
720000000.0 0.32881059302027277 0.26375759158785395
740000000.0 0.35546098197207177 0.0890954147848584
760000000.0 0.31166685233446556 0.03316251440245057
780000000.0 -0.19144990983761828 0.2324140856478733
800000000.0 -0.08833605297996289 -0.2846825572365684
820000000.0 -0.23094628780552506 -0.16394196751361595
840000000.0 -0.008785718080569951 0.2536240170952429
860000000.0 -0.011192936449020925 0.22082294349855577
880000000.0 0.11484582385462463 -0.1343627142492297
900000000.0 0.10466977823437472 0.05545075403316677
920000000.0 -0.05277309193295083 -0.02313617846375388
940000000.0 -0.021983978151538713 -0.019648862738140434
960000000.0 -0.03380224178508114 -0.018341593756062678
980000000.0 -0.04283393177874385 0.027638331786026128
1000000000.0 -0.016688118417824725 -0.0667578507791843
1020000000.0 0.08694906862227295 0.012756706644844214
1040000000.0 -0.10340572150808275 0.07162221901367206
1060000000.0 0.10577542701632466 0.12156827054397658
1080000000.0 -0.01591477049550129 -0.1896650988145582
1100000000.0 -0.09331599939292864 0.19669549682541712
1120000000.0 -0.24670530679900823 -0.01698649598829177
1140000000.0 -0.1687310891104189 -0.21887280263350675
1160000000.0 -0.048143600772472955 0.29763965874919707
1180000000.0 -0.14880388703515723 0.28479788927444666
1200000000.0 0.08482673578733321 -0.32690536177995533
1220000000.0 -0.359628827465266 0.04425365308777107
1240000000.0 0.24041793091547542 0.2996438554154692
1260000000.0 0.24845603798728647 -0.3122331179954123
1280000000.0 -0.12425920829914006 -0.39212102634204193
1300000000.0 -0.30361599730872246 -0.2961278383562073
1320000000.0 -0.06840649688860997 0.42948661920270653
1340000000.0 0.4054100965472613 0.13717713810717383
1360000000.0 0.41507955101938776 -0.018569889851439664
1380000000.0 0.21035289512238858 0.3437716249782287
1400000000.0 0.08570736056967722 0.3867772039697134
1420000000.0 0.3463412627211944 0.17556590070483136
1440000000.0 -0.027000426832863255 -0.3773943848156299
1460000000.0 0.24543624727083987 0.25423826995710086
1480000000.0 -0.25720199520387627 -0.1864202543933078
1500000000.0 0.2747099171015535 -0.023104250644420517
1520000000.0 0.20679272476314056 -0.10341896385168033
1540000000.0 0.11474373278539807 -0.15116181781767887
1560000000.0 0.15229685103781654 -0.04945244489932612
1580000000.0 0.11270938392061934 -0.07643049152611094
1600000000.0 -0.0291099989403516 -0.11072871346421002
1620000000.0 -0.08722864553329646 0.03595660902033413
1640000000.0 0.05274710541027746 -0.03922930404339569
1660000000.0 -0.0333377915716354 0.006205812108885093
1680000000.0 -0.0022273036313195924 -0.010123519450720543
1700000000.0 -0.01827829178196439 0.0033309922187166443
1720000000.0 -0.009151015451592272 -0.03472640250030746
1740000000.0 -0.012363880928425596 -0.05452292437511425
1760000000.0 -0.02124357564754871 0.08262534733872809
1780000000.0 -0.10240413048695189 -0.03925441588549498
1800000000.0 -0.05726815217473142 -0.12864319415600575
1820000000.0 0.14364897877307595 -0.08774546809448439
1840000000.0 -0.19955911666431306 -0.01998745320135288
1860000000.0 0.14439078429509006 -0.18798070128626337
1880000000.0 0.050645848748002376 0.2667270496879472
1900000000.0 -0.09757567453971007 -0.28260698765143755
1920000000.0 -0.24961325551489416 0.215573298109921
1940000000.0 0.360257197671539 0.007147889402081659
1960000000.0 -0.26179783500465714 -0.28314116408116796
1980000000.0 -0.013246351309756134 0.40536628436641414
2000000000.0 0.4183576449404089 -0.036604314331049846
2020000000.0 -0.13742896483906097 -0.4069015005159607
2040000000.0 -0.3178439311275136 0.2906397890212049
2060000000.0 0.1927644362577676 0.3754070009140163
2080000000.0 0.3616320292413648 0.1945894777597189
2100000000.0 0.37653363255448125 0.13699386512382639
2120000000.0 0.35863726540282403 -0.1531924794854354
2140000000.0 0.04490043013369579 -0.36931124425861755
2160000000.0 0.34948370712807525 -0.020978195634003653
2180000000.0 0.326325073874004 0.030993307139700842
2200000000.0 0.26092647480543174 0.1754301768804088
2220000000.0 0.29060497839408056 0.09258219791447389
2240000000.0 0.23372936229487967 -0.18376258365248907
2260000000.0 -0.021980461560358305 -0.290023480101023
2280000000.0 0.1399611310636322 -0.2530050738465589
2300000000.0 0.04518680733715851 -0.2995842952204254
2320000000.0 -0.3044552115208406 -0.12800670464375116
2340000000.0 0.23855702093871542 0.278629508125988
2360000000.0 -0.39852563079429426 -0.06591675091018456
2380000000.0 0.4463424086305461 -0.010024947417435313
2400000000.0 -0.49160673700840907 0.060198752862985254
2420000000.0 0.4368619077923579 -0.3335469182231523
2440000000.0 -0.07105144886066612 0.5986042500649613
2460000000.0 -0.40901494491919094 -0.505365795559027
2480000000.0 0.6766999034720061 0.12950644742243644
2500000000.0 -0.7142898661668685 0.07821105133148278
2520000000.0 0.718021119125391 -0.1789491157886367
2540000000.0 -0.7523577389042224 0.00365912787776256
2560000000.0 0.6800687523518851 0.33634067366006554
2580000000.0 -0.28953332675736937 -0.6982498302496483
2600000000.0 -0.1020256282844208 0.7385644375729357
2620000000.0 0.35552352202196374 -0.6363752490738477
2640000000.0 -0.35959932146652673 -0.6063607603551492
2660000000.0 0.28476595208351557 0.6104224373064353
2680000000.0 -0.30275718710099697 -0.5609377456732598
2700000000.0 0.24645778689588518 0.5458887286387246
2720000000.0 -0.3040630800409008 -0.47093142687273454
2740000000.0 0.3850753082171433 0.3551791383775415
2760000000.0 -0.47994347017124406 -0.09811954909386786
2780000000.0 0.39952374835832166 -0.22884185185634737
2800000000.0 -0.21621316371498733 0.3769676439606123
2820000000.0 0.1593505177156767 -0.38368048182394243
2840000000.0 -0.16019797273741881 0.3698714059271498
2860000000.0 0.35526121843190195 -0.1737525728327077
2880000000.0 -0.343732358358682 -0.19194379422762284
2900000000.0 -0.1482479165833918 0.3677373155954354
2920000000.0 0.38782112777052474 0.11123991277074347
2940000000.0 -0.11114990081967398 -0.39150823870068335
2960000000.0 -0.39811013443671284 0.03968979221826151
2980000000.0 -0.35340807039688676 -0.1668754772460377
3000000000.0 0.20300150672508743 -0.3282881788138796
3020000000.0 0.18510942223754787 0.33456383082621866
3040000000.0 -0.33034415357647123 -0.18665258427029227
3060000000.0 0.34018199304438307 -0.15880983769771403
3080000000.0 -0.10282464152292416 0.352929122529786
3100000000.0 -0.2007391100492466 -0.29274773592031217
3120000000.0 0.2749166787812019 0.20131378012105589
3140000000.0 -0.29850372051324514 0.13216613199638652
3160000000.0 -0.010557537301640808 -0.3046779943695125
3180000000.0 -0.14360540373765981 0.2377220889852477
3200000000.0 0.009301090506901921 -0.2434177749553363
3220000000.0 -0.11958391319584062 0.1743046053005242
3240000000.0 0.1543718540864766 0.09568257909327711
3260000000.0 0.059734547692543404 -0.14273797113147008
3280000000.0 0.0001602772298359717 0.12600540685467324
3300000000.0 0.07964394238891842 -0.0433561875934712
3320000000.0 0.004362286253270834 -0.06004976555961304
3340000000.0 -0.03337900275132045 -0.021015528946883258
3360000000.0 0.005228292948062003 -0.03211001744358182
3380000000.0 -0.015073348316406525 0.021533016736254264
3400000000.0 -0.009170991216771993 0.02101614956204936
3420000000.0 -0.003356078764956526 0.017380058433727644
3440000000.0 0.0019697422838700243 -0.013666812386797558
3460000000.0 -0.0213086070723641 0.0053968979302033565
3480000000.0 0.008830201883224798 0.03150743133077933
3500000000.0 -0.03663794074536505 0.01607658436616126
3520000000.0 -0.037186906128372096 0.030629738391154078
3540000000.0 -0.05630251562318028 -0.02609561174320138
3560000000.0 0.041132666781842596 -0.06222059669015031
3580000000.0 0.07768640523437721 -0.02707446764945724
3600000000.0 0.0027568519470605683 0.086414458425078
3620000000.0 0.08974859710919476 0.012057451129154234
3640000000.0 -0.04924086691580794 -0.08285497466291326
3660000000.0 0.08514479390398075 -0.05655489195079053
3680000000.0 0.007762986042124032 0.09729464215094304
3700000000.0 -0.004710968884166041 0.0918175642481417
3720000000.0 -0.07187764725251049 0.05522393217733314
3740000000.0 -0.06422961580798371 -0.060997279497909146
3760000000.0 -0.0859176491906192 -0.030575861683832726
3780000000.0 0.004443529375971675 0.0977718976751451
3800000000.0 -0.04550538125792506 -0.0957873791215671
3820000000.0 0.09911329575724889 0.0661011103225304
3840000000.0 -0.011499730148326759 0.13353888550685802
3860000000.0 0.1530441062084304 0.04040404449624372
3880000000.0 0.17603254964899684 0.05050558872734365
3900000000.0 0.13479343953874087 -0.14399753066762075
3920000000.0 0.0025734761844183203 -0.2027099505956958
3940000000.0 0.043222833902007506 -0.19669977777302453
3960000000.0 0.10797269001029244 0.16874260630578886
3980000000.0 -0.2013970824064645 0.01986998789855714
4000000000.0 -0.18998895410823388 -0.06832711726502584
