!Created with skrf (http://scikit-rf.org).
# Hz S RI R 50.0 
!freq ReS11 ImS11
400000000.0 0.6099782170002065 -0.5828334630972409
420000000.0 -0.6534380837676472 -0.5196440007300724
440000000.0 -0.7721279910148067 0.07214239296053818
460000000.0 -0.6510665174479152 -0.29961582051337593
480000000.0 0.4406876671126888 -0.4753252216687788
500000000.0 0.5363801502671153 -0.2858284555284572
520000000.0 -0.3462040213358539 0.4284538829408768
540000000.0 -0.08768763183821712 -0.4860203445653151
560000000.0 0.4692038618260053 0.01844503693847626
580000000.0 -0.26472517382188665 -0.3347075211963539
600000000.0 0.2701918595474085 0.27679936168366914
620000000.0 0.3830982769794427 0.05855170317401499
640000000.0 0.04421482815467696 0.41323763271587294
660000000.0 -0.06336258993764896 -0.43313104983628403
680000000.0 -0.4007216701890138 -0.20466762784532636
700000000.0 0.1028894556364299 -0.42570423043977546
720000000.0 -0.4106204371241841 0.05679710849213341
740000000.0 -0.2324587794255321 -0.29059436648042464
760000000.0 -0.30516928269548105 0.15546222708005733
780000000.0 0.3217220300183435 -0.07942620272589135
800000000.0 0.29625645165454517 -0.06851223500288685
820000000.0 0.2646024905042091 -0.06320569129569044
840000000.0 -0.09544362444766265 -0.2094924763608161
860000000.0 -0.004939284615691428 -0.1827925400230438
880000000.0 0.07601540057498295 -0.1262480150549338
900000000.0 -0.12063772460505576 -0.004462661139575703
920000000.0 0.06189200126808328 0.0662488487489524
940000000.0 -0.035110678987842175 -0.04826066687810811
960000000.0 -0.05345023381715842 0.011913360586600566
980000000.0 -0.011837753261318208 -0.05760701803662747
1000000000.0 0.0010246418916670288 0.07160892337369366
1020000000.0 -0.08121126200754741 0.043307032991461936
1040000000.0 0.1160294280218043 0.011375097652866775
1060000000.0 0.11167377884692224 -0.10585437616273378
1080000000.0 -0.15635872061513068 0.10995900634737703
1100000000.0 0.21300642817024656 0.022877810036133
1120000000.0 -0.1709093503115403 0.1753797182978913
1140000000.0 -0.2708772372276042 -0.03467076330682658
1160000000.0 -0.26518036790252747 0.13270208347036644
1180000000.0 -0.2795328613807223 0.16165158925140227
1200000000.0 0.31710380911367475 -0.11310848794816074
1220000000.0 0.21665997232451778 -0.29524618666270924
1240000000.0 -0.31213602264429513 0.24792606375971527
1260000000.0 0.39375158032755153 -0.13966333128081432
1280000000.0 -0.4270219099983934 0.00023644460979237893
1300000000.0 -0.2663687896416233 0.3261338405065903
1320000000.0 -0.4152394314758397 0.06942190621714145
1340000000.0 -0.3052081581907868 -0.3068288771395867
1360000000.0 -0.32246422656562584 0.298238126352823
1380000000.0 0.30998779174618984 0.29771374343789014
1400000000.0 0.350262081049413 -0.21973491731561967
1420000000.0 -0.1595096421247701 -0.3548024149277035
1440000000.0 -0.358781387910574 -0.06689160590750133
1460000000.0 -0.27396316369370083 0.19037913026607617
1480000000.0 -0.15476550699222272 0.2705975051037094
1500000000.0 0.12305532698988886 -0.2590666374009357
1520000000.0 -0.12703498828053986 0.21890109686657128
1540000000.0 -0.15942358768094209 -0.13093415235151928
1560000000.0 0.15491928221504184 -0.05683093059344901
1580000000.0 0.13377762760285067 0.06385926782923922
1600000000.0 0.06927469929386684 0.10429271162184325
1620000000.0 0.0635420919934971 0.06899106310288464
1640000000.0 -0.06234794434660953 -0.012923489336209779
1660000000.0 -0.038678415392317936 -0.00883981892617239
1680000000.0 0.001263946021454314 0.024739857424179987
1700000000.0 0.011947156239632497 -0.012885828729591119
1720000000.0 0.040746637595646784 0.0002609211416108919
1740000000.0 0.06144023978451985 0.006935751292786378
1760000000.0 0.01713846751235896 0.07854869486912439
1780000000.0 -0.06374515335069746 -0.08411980357697095
1800000000.0 0.052466390033795995 0.12335458222940332
1820000000.0 0.12151256093969827 0.10937166771698553
1840000000.0 0.0029564453670422462 -0.202691065057451
1860000000.0 0.13522067126106954 0.2056311336356786
1880000000.0 -0.23317797809810015 0.16951815713297302
1900000000.0 -0.28398592415476714 -0.1490088799394627
1920000000.0 0.32632269887961374 0.11028201825471558
1940000000.0 -0.09723365985771336 -0.35608393602538846
1960000000.0 -0.12459475104811192 0.36909115913754414
1980000000.0 0.38512965463994475 0.10541734169999184
2000000000.0 0.4091134413278335 -0.049665598158686625
2020000000.0 0.28312612494423783 -0.32130732964144515
2040000000.0 -0.33052342280558444 -0.2883090305027449
2060000000.0 -0.023465493775991907 0.4398931129543067
2080000000.0 0.3859643022956877 -0.1866414016655116
2100000000.0 -0.005936160268989477 -0.4111152064032723
2120000000.0 -0.19132155568390138 -0.3421012589025486
2140000000.0 -0.06910117517064493 -0.3683581847668225
2160000000.0 0.3147320010993533 -0.1697700486768147
2180000000.0 0.30009189915822715 -0.1581233941616376
2200000000.0 0.2580243174343801 -0.2018611454508525
2220000000.0 0.017645292835800058 -0.317113878432959
2240000000.0 -0.3040155234020151 -0.05842671430683694
2260000000.0 -0.25650482777667255 0.15612017496792244
2280000000.0 -0.2977520947876279 0.01607135186410849
2300000000.0 -0.3108246586779305 0.030886558466201496
2320000000.0 -0.07373136921216279 0.32993698221973894
2340000000.0 0.27666095213926173 -0.2500540033782753
2360000000.0 -0.18288069202607568 0.36801193790988873
2380000000.0 0.05771805911314478 -0.4496439200818947
2400000000.0 -0.11272668394391656 0.48841939629825304
2420000000.0 -0.10046766992016715 -0.5459264846851569
2440000000.0 0.46901827537058427 0.3855338178132276
2460000000.0 -0.6530114987432459 0.01577443078876065
2480000000.0 0.57164532194166 -0.3916624147632742
2500000000.0 -0.5346505657593714 0.4852749536456134
2520000000.0 0.567270049230848 -0.4794722942863767
2540000000.0 -0.66693218273942 0.3530162745278387
2560000000.0 0.7600858275156821 0.0022549183990056188
2580000000.0 -0.6403650813133752 -0.40319748597412475
2600000000.0 0.3133107628983888 0.6759870232763217
2620000000.0 -0.08294947871244378 -0.7235575546787083
2640000000.0 -0.6574926229076336 -0.2505336953463716
2660000000.0 0.6134982687230164 0.2735640196716394
2680000000.0 -0.5848440072389413 -0.24539286746654645
2700000000.0 0.5687649035578503 0.17859307677476666
2720000000.0 -0.5496206601665843 0.08147220838335044
2740000000.0 0.47017607544726736 -0.20664539666572967
2760000000.0 -0.412402574556706 0.23641605272489769
2780000000.0 0.4350500605056562 -0.09603687442097429
2800000000.0 -0.42467284400729793 0.02798283042968517
2820000000.0 0.39200234337317136 -0.12941267882216703
2840000000.0 -0.2678185829951255 0.2995084043667413
2860000000.0 0.29024057283073945 -0.26779319610810043
2880000000.0 -0.380385856434561 0.08364336016022457
2900000000.0 0.27949634549181995 0.26529287390036815
2920000000.0 0.32762466027015313 -0.1961772991032583
2940000000.0 0.17009940541380034 -0.3403330370919393
2960000000.0 0.22222432133976477 -0.30740481337630615
2980000000.0 0.3649713849614873 -0.098485236959328
3000000000.0 0.18258473218271998 0.33599092267470065
3020000000.0 -0.00841516227920804 0.3820726247897007
3040000000.0 -0.3700363715890393 0.05444776366846319
3060000000.0 0.18760828936771085 -0.3089611951363177
3080000000.0 -0.1871531188674845 0.2933447693914794
3100000000.0 0.3152891064133822 -0.12679577403838857
3120000000.0 -0.2527067356656792 0.21480506187866852
3140000000.0 -0.12501649972717357 -0.29218911728784147
3160000000.0 0.2923242399360081 -0.04466289708178921
3180000000.0 -0.12197294285801562 -0.2376083498248822
3200000000.0 0.043970402367049424 0.233921800254184
3220000000.0 0.01569971115798398 -0.20643201074272916
3240000000.0 -0.17480887735755635 0.010704527452912675
3260000000.0 -0.14625676020264305 0.008075338282725433
3280000000.0 -0.10825279498653907 0.0487126519763667
3300000000.0 -0.08891770678905937 -0.016693918807251403
3320000000.0 -0.04658991830850198 -0.04065019770352115
3340000000.0 0.027589983379210314 -0.03418740451914517
3360000000.0 0.009202205001376243 -0.04100521286133661
3380000000.0 0.03878238766722146 0.02500107369395589
3400000000.0 0.04387992690034271 -0.0035738479063383627
3420000000.0 0.03007082746420064 -0.0008167505621529791
3440000000.0 -0.01400367165517213 0.005621982488030625
3460000000.0 0.01709668534259297 -0.0031838061601536486
3480000000.0 0.019723681374395882 -0.011073162001456551
3500000000.0 0.02179847002425989 -0.01604525174575756
3520000000.0 0.0008502245581254495 -0.03118510668138416
3540000000.0 0.030462631361405056 0.030906532438602138
3560000000.0 -0.04186549004511189 -0.03766300835133034
3580000000.0 -0.015192078518084738 0.06293615408799144
3600000000.0 -0.04629854039313547 -0.0588919284555234
3620000000.0 0.08214133092207133 0.008401034528595499
3640000000.0 -0.052966125450694485 -0.06795272100529622
3660000000.0 -0.0912715154133891 0.0015930310800747196
3680000000.0 0.052650540607512446 0.08077814585785217
3700000000.0 -0.0823904028313336 -0.05343491072497165
3720000000.0 0.07890263549575915 0.05739648169248329
3740000000.0 0.021498595375020867 0.08795864974159341
3760000000.0 -0.09376222731588284 -0.0007034580121483064
3780000000.0 0.011730895465183811 0.10552393981700266
3800000000.0 -0.11875678270295176 0.004020723174819562
3820000000.0 -0.13794038961851235 0.011369273508670516
3840000000.0 0.15265266790274504 0.03556487520499842
3860000000.0 0.020463022336708367 0.1731342810478644
3880000000.0 -0.1793906330029129 0.05105667985242999
3900000000.0 -0.018290702414348728 -0.19550840487961912
3920000000.0 0.17721496858107808 -0.0994191127198044
3940000000.0 0.11706572147750277 0.17501834273150477
3960000000.0 0.12354321894354821 0.17837463346944055
3980000000.0 0.16312744624664122 -0.14196408178595055
4000000000.0 -0.1583172696869274 -0.1312233597068086
