!Created with skrf (http://scikit-rf.org).
# Hz S RI R 50.0 
!freq ReS11 ImS11
400000000.0 0.808285064809579 0.03848019401476658
420000000.0 0.7862130164732337 -0.2530945112382638
440000000.0 0.2591106176165282 -0.7207070508260627
460000000.0 0.7174516762474564 -0.08146926527007699
480000000.0 -0.033021618525988235 0.6792413602612425
500000000.0 0.6253995347733042 0.16921389523773966
520000000.0 0.2957436343291668 0.4926522223030581
540000000.0 -0.49070782278216496 0.16365056918038845
560000000.0 -0.4838725517495882 0.013567670957325063
580000000.0 0.42876509727443857 0.024877401051818644
600000000.0 0.028979034876385253 -0.3816787557762886
620000000.0 -0.3764466176555873 0.0032499772599632482
640000000.0 -0.08388802413755836 0.3868769436950255
660000000.0 0.14593186296058835 -0.4024551652860832
680000000.0 -0.3578368016643362 -0.2477315938718484
700000000.0 -0.09432711452779895 0.42040803022156137
720000000.0 0.22779779677894682 -0.3565974920040209
740000000.0 0.3886697343438214 -0.06909460919836317
760000000.0 0.36409831871819537 0.026050235892291173
780000000.0 -0.31923670442084373 0.07157268348714782
800000000.0 0.0025713844683610608 -0.3009332464425182
820000000.0 -0.15659211929108152 -0.2108634817677085
840000000.0 0.17747500584339285 -0.1254377761721111
860000000.0 0.17320628308505853 0.05393923535220133
880000000.0 -0.04705871610993108 0.13619622886035812
900000000.0 0.0760222651288813 0.0824715912482629
920000000.0 0.0014953777812154918 -0.0632156758219562
940000000.0 0.03410449472845297 0.03519522575279912
960000000.0 -0.05031556559491325 -0.0028925897647379376
980000000.0 -0.027499249194344027 -0.0527994014833467
1000000000.0 -0.07973324313983714 -0.010069657058106581
1020000000.0 0.06437980413188313 -0.07889237104215935
1040000000.0 0.044566925338216185 0.12047889541374102
1060000000.0 -0.1591503094861598 0.03840961437011672
1080000000.0 -0.18275350913841776 0.063310060813879
1100000000.0 0.22366739283691064 -0.032899404540074104
1120000000.0 0.2104375601078375 0.13315738959741982
1140000000.0 -0.27238979188555784 -0.04575598702533233
1160000000.0 -0.12311393533097527 0.2773446941943237
1180000000.0 -0.2834782404965708 0.1601676900339285
1200000000.0 0.029184219627967214 -0.3407849905475832
1220000000.0 -0.08990649704295772 -0.35109266733046696
1240000000.0 -0.061827484051633734 0.3847517206819488
1260000000.0 0.33283457489712537 0.2241040606730357
1280000000.0 0.38373638580274383 -0.17522091255500472
1300000000.0 0.12687163915400199 -0.4071491296462042
1320000000.0 -0.1685108809129484 -0.41003086478494566
1340000000.0 -0.40061472580417373 0.19264101013019203
1360000000.0 -0.08502525504050959 0.43661754033513434
1380000000.0 0.4288528344632568 0.01737270371469917
1400000000.0 0.3638435467819966 -0.18211377627856984
1420000000.0 0.2437629443351511 -0.3020278863843187
1440000000.0 0.22369490526204056 -0.29159632893900467
1460000000.0 -0.30500797427989285 -0.17502862632743912
1480000000.0 0.17800591997090723 0.2667054744669387
1500000000.0 -0.05135128394103731 -0.2829345168893294
1520000000.0 -0.210961372706568 -0.13408716231941675
1540000000.0 0.0048491965998267526 0.2154972871071855
1560000000.0 0.15707136028127905 -0.09392588984640322
1580000000.0 -0.1514529591173086 -0.02637580115457501
1600000000.0 0.1055431747693073 -0.05678205708782088
1620000000.0 0.018817249044709623 -0.09040437703187526
1640000000.0 0.057355809502982386 0.03381338196692126
1660000000.0 0.02828046167794234 0.028839249916184702
1680000000.0 -0.022970430116382497 -0.008213422679446181
1700000000.0 -0.018457164668766866 0.024512655850543068
1720000000.0 0.038454153916715396 -0.022053122847950773
1740000000.0 -0.05173160396126786 0.02266830521061626
1760000000.0 0.0653899733794241 0.030380751916889732
1780000000.0 0.09362903326422277 0.03491385005080696
1800000000.0 -0.11701110135788782 -0.06864700183602662
1820000000.0 0.1544654186945766 0.0699420289769386
1840000000.0 -0.19489962807378144 -0.061522969893595444
1860000000.0 0.23806065938054038 -0.04840484158837695
1880000000.0 -0.22011105823821683 0.175030615355644
1900000000.0 -0.05491286435595061 -0.31459327300899237
1920000000.0 0.2889944178096655 0.19502393237409743
1940000000.0 -0.2003415396765407 -0.3136540471753305
1960000000.0 0.016679508123575992 0.3917012510084909
1980000000.0 0.3777755757583726 -0.14148500096980576
2000000000.0 0.13378452268240307 -0.3910557720845578
2020000000.0 -0.06271471790561632 -0.4178489821567855
2040000000.0 -0.3244569831820922 -0.2856267481211553
2060000000.0 -0.3025865274468316 0.3136703785617
2080000000.0 0.3159217258428852 0.2979895137459187
2100000000.0 0.1846558561957111 -0.37987384132127006
2120000000.0 -0.2838303726035127 -0.2870957237611935
2140000000.0 -0.3808876308205699 -0.035746091863268645
2160000000.0 -0.04205880970928055 -0.35769696889888636
2180000000.0 -0.10711226033919034 -0.32308464631213857
2200000000.0 -0.11003554817763404 -0.30321010644209606
2220000000.0 -0.00471211111417998 -0.30889542559304656
2240000000.0 0.04055942741505689 -0.3023204417710122
2260000000.0 -0.10400132771501076 -0.28671435089306524
2280000000.0 -0.2903756076676211 0.11506222498280133
2300000000.0 0.2944171467005278 0.1228638937311312
2320000000.0 0.17698763113622348 -0.2820543970152773
2340000000.0 -0.2514866179274072 -0.2560013868328618
2360000000.0 -0.23442359561956239 0.3199621176229852
2380000000.0 0.30025134638305173 -0.3282698368838362
2400000000.0 -0.2544393694119139 0.4254744876014405
2420000000.0 0.11514204229511511 -0.5375927995276051
2440000000.0 0.2515040540354033 0.5483108800325673
2460000000.0 -0.5564622935098834 -0.3380227991255447
2480000000.0 0.6914021744811145 0.008302561841212749
2500000000.0 -0.7114414127166889 0.122989870494034
2520000000.0 0.7424031851246334 0.04051498511157488
2540000000.0 -0.7387032652843298 -0.1670002415046951
2560000000.0 0.5035426167425344 0.5737045329766672
2580000000.0 0.08218355646652573 -0.7569927404860037
2600000000.0 -0.47714837480903327 0.5794578734187779
2620000000.0 0.6803545217328153 -0.276129781868819
2640000000.0 0.010715019582835262 -0.7103394797174921
2660000000.0 -0.12605354339087438 0.6667115138998256
2680000000.0 0.045374869494034104 -0.6405408529599623
2700000000.0 0.011538196734824238 0.6047187195084781
2720000000.0 -0.21400442227003863 -0.5232216633249661
2740000000.0 0.4461227175909179 0.2768275588868349
2760000000.0 -0.46909297891924856 -0.12177422673800929
2780000000.0 0.44231254000965875 0.09776564493514284
2800000000.0 -0.40812267776516903 -0.13572878507413175
2820000000.0 0.41354888915386007 0.0017318858526803344
2840000000.0 -0.385529716184967 0.10683230529149378
2860000000.0 0.3899266215047327 0.0068872725518589785
2880000000.0 -0.16886041282766012 -0.3442824988181571
2900000000.0 -0.382570698928038 0.023627478854975844
2920000000.0 -0.011598269452844489 0.38907684970656786
2940000000.0 0.3695157045302938 -0.12974719480444158
2960000000.0 0.0505117366708146 -0.3818729591010603
2980000000.0 0.2094140858868443 -0.3161389563535033
3000000000.0 0.3595745166136791 0.11037520503945082
3020000000.0 -0.22963010366470998 0.2913041348116224
3040000000.0 -0.14524610313259306 -0.3342987452678815
3060000000.0 0.31243010126986775 0.17301807103114936
3080000000.0 -0.33203701105990185 -0.10016769232737727
3100000000.0 0.3143287306799196 0.11372537111685145
3120000000.0 -0.20185987420485313 -0.25408836270567026
3140000000.0 0.2825434971025539 0.1338796903589435
3160000000.0 -0.28477411915805095 0.0869080887747425
3180000000.0 0.25478634319163307 -0.11076517157590333
3200000000.0 0.22902105542945797 0.09057367111220922
3220000000.0 -0.15786830857503448 0.12982715765082964
3240000000.0 -0.13219882921331683 0.09877666063176149
3260000000.0 0.0568716535741211 -0.12345530997580334
3280000000.0 0.07907596660242754 0.07795650562717736
3300000000.0 0.03461943298299409 -0.07918059866899381
3320000000.0 -0.04294088359312481 0.049766969267573645
3340000000.0 -0.03990315232231972 0.03558410285609042
3360000000.0 -0.042869776583158756 -0.013813538809356613
3380000000.0 0.0370119961626593 -0.013091291398699656
3400000000.0 -0.023765637044945952 -0.028947567221382142
3420000000.0 -0.03226667628806709 -0.01722654346925845
3440000000.0 0.0012463160348814286 -0.033627355822357645
3460000000.0 0.024370198799558856 0.013881245267644641
3480000000.0 -0.004211226540231228 0.01691310505405681
3500000000.0 0.008892489925982882 0.017089943486263005
3520000000.0 -0.03041003367784914 0.006474101619258689
3540000000.0 0.0218618031403208 -0.04356842007704584
3560000000.0 -0.05503264718183032 -0.03150550642235282
3580000000.0 -0.06668634537881094 0.02707705434851342
3600000000.0 -0.04951998254317397 -0.05689701355733569
3620000000.0 -0.06806498169948397 -0.03767500204513621
3640000000.0 -0.019930063646153427 -0.07800669868298336
3660000000.0 0.06312276583439519 -0.06358808433621836
3680000000.0 -0.09232508116103828 0.024237398964835837
3700000000.0 0.08819809983953435 0.04416402293469373
3720000000.0 -0.09517090503297711 0.024710811105985636
3740000000.0 -0.03040745075575815 0.09065552865650327
3760000000.0 0.03911111413151298 0.08900803106747814
3780000000.0 0.08010957991389644 -0.06681606361189679
3800000000.0 -0.07841721884160813 0.08189076593785528
3820000000.0 -0.03179258838687432 -0.12662033354505367
3840000000.0 -0.12772536422725847 0.08071850695972871
3860000000.0 -0.04349537127384808 -0.16514117870044753
3880000000.0 0.08399995641235525 -0.16717114914501038
3900000000.0 0.11598201355042859 -0.1609537958624667
3920000000.0 0.17728986028192267 -0.10000751539410818
3940000000.0 0.20704213112720493 0.007206566350982117
3960000000.0 0.12637903986084495 0.16581390619992356
3980000000.0 0.05944825000106068 0.1970158332378551
4000000000.0 0.02243165873082864 0.19500987515509624
