!Created with skrf (http://scikit-rf.org).
# Hz S RI R 50.0 
!freq ReS11 ImS11
400000000.0 0.702224992941243 -0.4209674771077669
420000000.0 0.2874058285883421 -0.7784358247419004
440000000.0 -0.5761431994622662 -0.503492615925086
460000000.0 0.5538563564402188 -0.45139587673047926
480000000.0 -0.14004593190261588 0.6593319252289079
500000000.0 0.6449868646281698 0.013467752575647347
520000000.0 0.4749773955736104 0.33270072610745444
540000000.0 0.19994644517386156 0.4579276108932076
560000000.0 -0.4550524649219089 -0.038549531631494785
580000000.0 -0.3805372842540803 -0.13857444214958411
600000000.0 -0.363948941725899 0.10819086381111077
620000000.0 0.38047865171638495 0.05070519217622403
640000000.0 -0.3964882423380696 -0.11646770854972995
660000000.0 0.18895666390803328 -0.41035130492576666
680000000.0 -0.44266547243841736 0.003816917113157071
700000000.0 0.17204118691850523 0.3986849458344229
720000000.0 0.4222895585590273 -0.11452606027241673
740000000.0 -0.09718325284604977 -0.39531320767507167
760000000.0 -0.29574966910130096 -0.23304180585593842
780000000.0 -0.28467111281896257 -0.13804467262500425
800000000.0 -0.25360769830848084 -0.1023627876694546
820000000.0 0.23404090839231098 -0.06126687293522329
840000000.0 -0.10265731258185974 -0.18282669829390263
860000000.0 -0.12204477763660329 0.14125182631934052
880000000.0 0.1174725621778972 0.08212866658504923
900000000.0 -0.005760740323512678 -0.102157276901042
920000000.0 0.06606336514930466 0.01752896359142964
940000000.0 -0.03821565328512248 -0.02960865580261857
960000000.0 -0.04030492390034097 0.05283118418095726
980000000.0 0.024156988913900494 -0.07485502232686081
1000000000.0 -0.08062134186827984 -0.02955279623449511
1020000000.0 0.006445410535335855 0.11258666977994501
1040000000.0 0.12053294762219637 -0.02130273565643713
1060000000.0 -0.037066226047272485 -0.14850346950657162
1080000000.0 -0.15163565997079853 0.10649263779826774
1100000000.0 -0.20732936907157148 -0.0627207982264524
1120000000.0 -0.23197221104067112 -0.11829811468547685
1140000000.0 -0.2748827947989405 -0.0835671434348025
1160000000.0 -0.0947248368442941 0.2992602908766964
1180000000.0 0.3365542859427766 -0.01898915543620746
1200000000.0 -0.30662714653602435 -0.14076801775780093
1220000000.0 -0.3553914861227772 0.062379955293661256
1240000000.0 -0.2381310970574168 0.3014998482572307
1260000000.0 0.4073349605923983 0.05954739173940395
1280000000.0 -0.37803197184074233 -0.1791378896933849
1300000000.0 -0.29599275729166935 -0.2931306978790356
1320000000.0 -0.16533696894544878 -0.3921378375096343
1340000000.0 -0.17467949930544657 -0.40298173547704197
1360000000.0 -0.3645387575059745 0.2527209988291967
1380000000.0 0.21803381629155733 0.37517818173723544
1400000000.0 0.22083829270074448 -0.3530266498841214
1420000000.0 0.05520887813953146 -0.3826791871986728
1440000000.0 -0.045824636960426456 -0.36819780261102947
1460000000.0 -0.1386417816043053 0.31871315435772496
1480000000.0 0.23464240034775471 -0.2151381781246029
1500000000.0 0.013545347502603923 0.2785448908249485
1520000000.0 0.04666166910227499 0.22994941832273594
1540000000.0 0.06109475139102385 0.18880518094052934
1560000000.0 0.13795344688808467 0.09776115968763756
1580000000.0 -0.0496773620802922 -0.13593199570068493
1600000000.0 -0.029947295901414313 0.10999921905235123
1620000000.0 0.03225608569413072 0.0843139665735659
1640000000.0 0.01181094576973884 -0.0649912199417803
1660000000.0 0.048601399014147235 -0.001890334124867879
1680000000.0 0.0009772787675853634 0.02651550969259077
1700000000.0 -0.014086262630817031 -0.009167721350540538
1720000000.0 0.028780366572275506 0.019097464591659664
1740000000.0 -0.030782452558298954 0.045371122972768
1760000000.0 0.010734646256583201 -0.07660783124722254
1780000000.0 0.09975042032351462 -0.025872739528924566
1800000000.0 -0.026451632234891206 -0.1333115108495097
1820000000.0 0.07416025055274215 0.15570143407560566
1840000000.0 -0.1846174462338685 -0.0969442128159208
1860000000.0 0.1927850562774728 -0.14961451678781545
1880000000.0 -0.2478974000719063 0.1407755784858897
1900000000.0 -0.086597030725805 -0.3079737716922963
1920000000.0 0.2786200518120871 0.21194976528055284
1940000000.0 -0.14125190768735899 -0.34524550151088595
1960000000.0 -0.0003611616288280642 0.39226039912109256
1980000000.0 0.385176090964718 -0.12240210456169073
2000000000.0 0.15256552552029237 -0.3828078547293935
2020000000.0 -0.07212619235584337 -0.41373215130057933
2040000000.0 -0.3612513002558909 -0.226945855433824
2060000000.0 -0.3002834044947705 0.3052830734045044
2080000000.0 0.18727159198576088 0.37920569489432004
2100000000.0 0.4050709028747325 -0.08857578612299236
2120000000.0 0.023603645130396363 -0.39857366712054904
2140000000.0 -0.3084445739239647 -0.2291461936177477
2160000000.0 -0.17455134045039314 -0.3173834700185835
2180000000.0 -0.3253399681915584 -0.0832383443174493
2200000000.0 -0.19383265571123168 -0.2493455188802899
2220000000.0 0.09143147574136264 -0.2904354276572389
2240000000.0 0.14421533636296113 -0.2675220094689779
2260000000.0 -0.14779065015478338 -0.26875342612981934
2280000000.0 -0.21656632579104348 0.2224600601558801
2300000000.0 0.13710873444211563 0.2826934825564438
2320000000.0 0.12877634675448604 0.30834891588821617
2340000000.0 0.2884182929793375 -0.23335006420825993
2360000000.0 -0.3189987081732632 0.25821554723803086
2380000000.0 0.25960077727364245 -0.3740514045197258
2400000000.0 -0.2309063798038996 0.4475337224923697
2420000000.0 0.07112334528572574 -0.5521953704399667
2440000000.0 0.3214403937998994 0.5177100604149953
2460000000.0 -0.6329738631953896 -0.1733474197576571
2480000000.0 0.6044584616496571 -0.3426361160858605
2500000000.0 -0.5702842009070451 0.44507290060165366
2520000000.0 0.5412748122006211 -0.5115146783868979
2540000000.0 -0.6707603246942788 0.3508382007264687
2560000000.0 0.7577735296970605 0.09296800483436035
2580000000.0 -0.5513244529993495 -0.5235353461423308
2600000000.0 0.23360326321715252 0.7120617980963367
2620000000.0 0.10636436790089732 -0.7241952067316288
2640000000.0 -0.5839429927281056 -0.3988701261099657
2660000000.0 0.537170526030567 0.4107614633071497
2680000000.0 -0.5623341946967269 -0.3026079210340327
2700000000.0 0.5145343743396609 0.3037870479699838
2720000000.0 -0.47200313297961444 -0.29875944531974086
2740000000.0 0.5140080201223752 0.09118053732465967
2760000000.0 -0.43905256032032397 0.20694690138630173
2780000000.0 0.31171218623746877 -0.3301868952156519
2800000000.0 -0.28319527259517013 0.3190207391119408
2820000000.0 0.33906209491520795 -0.22796316315329745
2840000000.0 -0.35401206168080385 0.18260960224588027
2860000000.0 0.3854243327328696 -0.06674383595416025
2880000000.0 -0.3414457019955868 -0.18222366093682688
2900000000.0 -0.1457501626224035 0.351705205821284
2920000000.0 0.15497443269486216 0.35138314675224747
2940000000.0 0.37513943540607886 -0.10186122342814471
2960000000.0 0.16363322758914634 -0.3475297190943661
2980000000.0 0.2616843163647221 -0.2786226157610427
3000000000.0 0.37985777203177895 -0.010489071026513613
3020000000.0 0.07432556467774895 0.3673759713487218
3040000000.0 -0.36491297719794685 -0.023235360121945554
3060000000.0 0.3588172072277197 -0.012349573259426243
3080000000.0 -0.29275964343700667 0.1898460167530826
3100000000.0 0.3102373693119569 -0.135353517301124
3120000000.0 -0.27751546252262194 0.17589476998488227
3140000000.0 0.16978517857445588 -0.26461340209764606
3160000000.0 0.13689559009233274 0.2672166202726223
3180000000.0 -0.18132199035916602 -0.20874668180838943
3200000000.0 0.18180480708891786 -0.16002812764328245
3220000000.0 -0.15254420805634256 0.1358319610746448
3240000000.0 0.0052963009925370026 0.171498096918784
3260000000.0 0.14091192771667085 0.017682599390297267
3280000000.0 0.07486551065474165 0.07842481174655672
3300000000.0 0.07787926311040683 -0.01729448373494591
3320000000.0 0.04051239441674021 -0.04220397415242231
3340000000.0 0.004825890467982753 -0.04765355524194676
3360000000.0 -0.035856786999754704 -0.024245898626581035
3380000000.0 0.013137563332361098 0.03363699695766109
3400000000.0 -0.03555792263390799 -0.005707733174233283
3420000000.0 -0.017330684634127153 -0.031082904919735692
3440000000.0 -0.026166236943029695 0.0038809174752150147
3460000000.0 0.01408124080300031 -0.0011078147773167896
3480000000.0 -0.0075547736893851955 0.011721927307824166
3500000000.0 -0.02202027624725435 0.01964465386008549
3520000000.0 -0.04229757370486722 0.009980883481829208
3540000000.0 -0.02012156315499219 0.05107498563277251
3560000000.0 0.059620269785209686 -0.0038443318902277846
3580000000.0 -0.01526883534371475 -0.06697929313784468
3600000000.0 0.050053019132632146 0.05689537915845897
3620000000.0 0.014267655437800274 -0.07887377421712173
3640000000.0 -0.00812503015665855 -0.08508979640228904
3660000000.0 0.028787275981000237 -0.08767868941862014
3680000000.0 0.014483594325640082 0.10046996355422415
3700000000.0 -0.04129658571720941 0.0938489400302406
3720000000.0 -0.04568320200519484 -0.08423008241555878
3740000000.0 0.01241409348435791 0.08753395674080348
3760000000.0 -0.0628893497295479 -0.06874953786643043
3780000000.0 0.025950624265073666 0.10282748330876669
3800000000.0 -0.1171372208903965 -0.005779866609287726
3820000000.0 -0.04642106736096735 -0.12364901064615601
3840000000.0 -0.14657829559967553 -0.03406951447783113
3860000000.0 0.15168902925129527 -0.07614754947891336
3880000000.0 0.1860318610506912 0.006411265246434588
3900000000.0 0.1957906899741616 0.008557034096074443
3920000000.0 0.18590725831401972 0.06604489897842408
3940000000.0 0.02146004961923114 0.19952635503550592
3960000000.0 -0.15024212167537293 0.13709193225421265
3980000000.0 -0.03524596567258367 0.20019794818686235
4000000000.0 -0.014860297309865628 0.1871646191100589
