!Created with skrf (http://scikit-rf.org).
# Hz S RI R 50.0 
!freq ReS11 ImS11
400000000.0 0.8088303750042919 -0.14709629578643416
420000000.0 0.4274296630246651 -0.7090081926872319
440000000.0 -0.2683492407255566 -0.7275977048819926
460000000.0 -0.06007160649611158 -0.7176775381136158
480000000.0 0.423719665730497 0.5134531194049037
500000000.0 0.6332974090132147 0.04812898483442604
520000000.0 0.2907783959534371 0.4891564277716457
540000000.0 -0.482418554329708 0.11341326292279316
560000000.0 0.18621888545485432 -0.42873436899041406
580000000.0 -0.390083082453659 -0.18013218987530424
600000000.0 0.3756472881575484 -0.07367973872830125
620000000.0 0.31834015940916005 0.20688445709150008
640000000.0 -0.4067038558438118 0.07825038390450201
660000000.0 0.39670029402965373 -0.20414477162418782
680000000.0 -0.3422919642522151 -0.2979633403059819
700000000.0 0.4338810317116269 -0.08142316059497569
720000000.0 -0.07963397136909284 -0.42650962729093833
740000000.0 -0.3945549984138785 0.010909421386558626
760000000.0 0.15354924378643042 -0.32271499757453503
780000000.0 0.010840407573681763 0.3214624429995594
800000000.0 -0.2816469297577981 -0.08092714308612281
820000000.0 0.0030532959299687003 0.24665623087777258
840000000.0 -0.11559827440697454 0.15782239365622278
860000000.0 -0.1736642239154957 0.0037875713792117696
880000000.0 0.007237146907392191 0.1400488905050306
900000000.0 0.024872604607158493 -0.11561527652775733
920000000.0 0.011572356738878024 0.08251488240376281
940000000.0 -0.035936919280434194 -0.04807421058856478
960000000.0 0.02941876025807525 0.06525574707790123
980000000.0 -0.07741843178988879 -0.020718289276012908
1000000000.0 -0.04067732208764241 0.07078542505730119
1020000000.0 -0.09322992767770907 0.01815847808900123
1040000000.0 -0.11409527083270257 -0.0348389545833836
1060000000.0 -0.043750539334301015 0.15964940705396974
1080000000.0 -0.20485613469135294 -0.023725734586475082
1100000000.0 0.19944986642644946 -0.11502834914094417
1120000000.0 0.23521599716840738 0.10067884607000555
1140000000.0 -0.23141919911108322 0.16085498374527685
1160000000.0 0.07509091842566998 0.29758742541806943
1180000000.0 0.21005895986038656 0.256912142108339
1200000000.0 -0.2801268835629756 -0.1904820035608634
1220000000.0 -0.3403793428621904 0.11836806567468432
1240000000.0 0.13041400843154952 0.35590007727954204
1260000000.0 0.0641630323596141 0.3896399358549935
1280000000.0 0.42138423398551467 0.04387326607422408
1300000000.0 0.033667359761471775 -0.43278171299324775
1320000000.0 -0.3723221483871908 0.2341298950189482
1340000000.0 -0.43230685907279537 0.03383307521899304
1360000000.0 -0.21077520118146528 0.3869881080406701
1380000000.0 0.054666907673487704 0.42211373881225756
1400000000.0 0.4213885196370609 0.0249676310090735
1420000000.0 -0.29880026706731694 -0.25992849679222957
1440000000.0 -0.33970607088200094 0.14147048878050775
1460000000.0 0.02637009008883644 0.3338221801609113
1480000000.0 0.08935667893762321 0.2953702570962997
1500000000.0 -0.22577905979317406 -0.1689064854490091
1520000000.0 -0.1560179179035169 0.18339017731944868
1540000000.0 0.14697385533482887 0.1381718802966052
1560000000.0 0.060034715622565446 0.1584477753340189
1580000000.0 0.10679244155399875 0.10148503321433101
1600000000.0 0.01640448831665761 0.12106667920790838
1620000000.0 -0.05177361579453609 -0.07464727548786335
1640000000.0 -0.008023877616612196 0.06665052163569168
1660000000.0 0.029866043164203587 -0.03223219229620278
1680000000.0 -0.02521145662907581 0.01226373381396079
1700000000.0 -0.012341037399590563 -0.004057322072540115
1720000000.0 -0.007003025563152417 0.030870208995983875
1740000000.0 0.014424685990079933 -0.05840096303332924
1760000000.0 0.06226461455378269 0.05977083130925748
1780000000.0 0.04051919284427799 -0.10097466195298561
1800000000.0 -0.1407312414297932 -0.01859823894580023
1820000000.0 -0.005575987065641227 -0.1752525850484844
1840000000.0 -0.13009668647629116 0.15683521624584434
1860000000.0 0.13517587583322746 -0.19987106466964435
1880000000.0 -0.09293249530416935 0.26326248514952
1900000000.0 0.011250447848154817 -0.31403422994597197
1920000000.0 0.08208332257568239 0.3374141874299408
1940000000.0 0.020078234117095188 -0.3730078092150718
1960000000.0 -0.09414291249489345 0.38380370243218265
1980000000.0 0.3437907593490402 -0.21038387583708668
2000000000.0 0.32732190195420374 -0.247099410894871
2020000000.0 0.2095726894060132 -0.3697215289813753
2040000000.0 -0.35597648745108046 -0.24924224793070054
2060000000.0 -0.02382931726498637 0.4341328336515618
2080000000.0 0.42279391634785546 0.037216391697964014
2100000000.0 0.2635299387692134 -0.3157779452103652
2120000000.0 -0.01363413289116786 -0.39272933947066935
2140000000.0 -0.09078630090880659 -0.366922505146625
2160000000.0 0.24738077856308247 -0.26489749700641846
2180000000.0 -0.07633701858068954 -0.33373630115571024
2200000000.0 -0.2584153865789806 -0.19108525047784775
2220000000.0 -0.17132529581700434 -0.25042448723758803
2240000000.0 0.17369319697422794 -0.2428362471473689
2260000000.0 0.06873912922561155 -0.29667218549772306
2280000000.0 -0.30693103354290174 -0.06151029803508577
2300000000.0 0.06474857774032228 0.3137683333235148
2320000000.0 0.3042727214731251 0.14510163387608918
2340000000.0 0.009436681416058197 -0.36844691810788555
2360000000.0 -0.19549726192916914 0.3565104837093233
2380000000.0 0.39390597634483016 -0.2181711987469146
2400000000.0 -0.4664027741775501 0.19320891967623735
2420000000.0 0.15549766874707233 -0.5398623027803755
2440000000.0 0.46787248077093707 0.39737968037941035
2460000000.0 -0.6327340815563983 0.1793634895021284
2480000000.0 0.5346190905561412 -0.4441835118066617
2500000000.0 -0.6323085135485464 0.3512619168192167
2520000000.0 0.6843219904804925 -0.2963819753461427
2540000000.0 -0.7393057687731207 0.17103718637532
2560000000.0 0.7089928538383165 0.2887739173952171
2580000000.0 -0.5288026148940853 -0.5496633069098954
2600000000.0 0.2734565285375036 0.6992245138116967
2620000000.0 -0.04974473469564773 -0.7316701449493596
2640000000.0 -0.6859892923875557 -0.17293646250501
2660000000.0 0.625270441757581 0.2530040326895687
2680000000.0 -0.5450213568414443 -0.3321759995706409
2700000000.0 0.4691408741205251 0.37267050096569787
2720000000.0 -0.495751217711067 -0.258330116977043
2740000000.0 0.5014542656817916 0.14586420672216063
2760000000.0 -0.47708210285675984 0.10108271749748805
2780000000.0 0.2087501565482076 -0.4037711280334134
2800000000.0 -0.004544910158187614 0.4256374713934942
2820000000.0 0.19226009777020228 -0.35543635749169267
2840000000.0 -0.36256134319505956 0.15433180203752825
2860000000.0 0.317076873201482 0.22852111647599227
2880000000.0 -0.21899483990996604 -0.32333064625849034
2900000000.0 -0.10389763433774683 0.3735288125401689
2920000000.0 0.3753542353255961 0.09738489332522594
2940000000.0 0.23365016774587247 -0.3059018377282848
2960000000.0 0.2930257017151249 -0.24706680697668112
2980000000.0 0.3742637301611666 -0.08095759509452331
3000000000.0 0.36733824487932826 0.10996654097588271
3020000000.0 0.13242248503725268 0.35460216473923206
3040000000.0 -0.3482532808944838 0.11978910307223381
3060000000.0 0.35234101477623314 -0.04639767664839934
3080000000.0 -0.3436123960476381 -0.05562011228153044
3100000000.0 0.31750941887638673 0.12119587957594452
3120000000.0 -0.331070447873416 0.008358530795838795
3140000000.0 0.16502609113969816 -0.2733851149159552
3160000000.0 0.253595458287336 0.1604310799344447
3180000000.0 -0.19071984302614983 -0.19712292657823333
3200000000.0 0.22577194029293132 -0.08094313844208234
3220000000.0 -0.2011750429285052 -0.026141419818313694
3240000000.0 -0.05862781783589591 0.15980037047148116
3260000000.0 -0.022686858431735773 0.1365285768488583
3280000000.0 -0.0849236306850064 0.06979112397538577
3300000000.0 0.04095728167444005 -0.07082667119029697
3320000000.0 -0.014759925376134053 -0.05609230159471119
3340000000.0 0.031258491182970534 0.03585544750805567
3360000000.0 -0.021560218694932708 0.04220152626502466
3380000000.0 -0.004523992761948654 0.04135421490074804
3400000000.0 0.025937521162168044 -0.022269858574612396
3420000000.0 0.02743885412117104 -0.007614540301098241
3440000000.0 -0.024610790451306524 -0.007813837128184275
3460000000.0 -0.00652259479336147 0.020005091981688778
3480000000.0 0.014231262201214241 -0.0013604210826310878
3500000000.0 0.01788388988436996 -0.010202212180199425
3520000000.0 -0.02959016028133935 0.01979244248730493
3540000000.0 0.04737059197401485 0.017353133745384386
3560000000.0 0.047676395794605 0.030631006710262337
3580000000.0 -0.013134533593895414 -0.06126621081573511
3600000000.0 -0.02956819075887185 -0.0645075810938863
3620000000.0 -0.005042343460452936 0.08193924575654588
3640000000.0 0.003622149970560144 -0.08865771080922083
3660000000.0 0.0545514160407244 0.07704391278618881
3680000000.0 0.09215977870531843 0.0010679333134788742
3700000000.0 0.04126214912737461 0.07865130796597002
3720000000.0 0.04021342062898715 0.0820631605083323
3740000000.0 0.07602868048694297 0.04954845437214926
3760000000.0 -0.017312359133509748 -0.0956528442487056
3780000000.0 -0.0757609465010368 0.07215401949260605
3800000000.0 0.11830655716595573 0.004677686412737184
3820000000.0 0.12738949677193756 0.05723844889495036
3840000000.0 0.07497381205670912 -0.14304801393263908
3860000000.0 0.07447017443073593 0.1660158656796916
3880000000.0 -0.13207159174803168 0.14808339145136196
3900000000.0 -0.06571737839071842 0.19760599562995457
3920000000.0 -0.07843353192951227 0.1871789144705488
3940000000.0 -0.18962074284623337 -0.07821029889785283
3960000000.0 -0.09679877782816643 -0.18619757321317837
3980000000.0 -0.17592900597250088 -0.11598230928370067
4000000000.0 -0.1954600998274679 -0.06784422464767853
