!Created with skrf (http://scikit-rf.org).
# Hz S RI R 50.0 
!freq ReS11 ImS11
400000000.0 0.7219625992893808 -0.3964170387469044
420000000.0 0.3394891497762589 -0.7530745507440726
440000000.0 -0.5885823781679825 -0.5085127322815827
460000000.0 -0.25580357175469803 -0.6689367393599696
480000000.0 0.1250536751205644 0.6455921644575499
500000000.0 0.6127431208800511 0.19387646417385423
520000000.0 0.34989814936673425 0.4424436014980921
540000000.0 -0.41938825755832787 -0.2772233053911073
560000000.0 -0.20714180320725464 -0.4261673756029881
580000000.0 -0.35380298630141965 0.22356040395739563
600000000.0 0.3065102233525378 0.2149278014931302
620000000.0 0.14771631154712098 0.3487860738694556
640000000.0 -0.40134567661165965 -0.10715918345624546
660000000.0 0.4484191923830115 0.03280508923290711
680000000.0 -0.3054571373028557 -0.34963788933827555
700000000.0 0.30897014184618565 -0.3260542358856491
720000000.0 -0.4142494477953846 0.12043819785790918
740000000.0 -0.3469612260161195 0.16939771211860644
760000000.0 0.25099160818851335 -0.24849107482528976
780000000.0 -0.09141972395158572 0.30123112669401897
800000000.0 -0.17239888984194093 -0.23125077250034537
820000000.0 0.16400816420920403 -0.18694328289008433
840000000.0 -0.11722739603986397 0.17396729091441826
860000000.0 -0.1752596833120396 0.035944393994034526
880000000.0 -0.059422907265305525 -0.13532775094694996
900000000.0 0.09948179661209879 0.04699822559294702
920000000.0 -0.08024065153033517 -0.026508223245118787
940000000.0 -0.0597558672361968 0.033544882238237865
960000000.0 0.06756638508438345 0.002113755142049816
980000000.0 0.02051386059264078 0.09077271005906454
1000000000.0 -0.04253674041245722 -0.08817775192837757
1020000000.0 0.0071023775215026145 -0.10723014537175679
1040000000.0 0.06266631516429785 0.09872656240216116
1060000000.0 0.11890782550417085 -0.057045189204717774
1080000000.0 0.16901971451943323 0.018199343171845316
1100000000.0 0.20876648423714694 0.035142153477476415
1120000000.0 0.17725677670057038 0.1886360102811574
1140000000.0 0.20526312891120124 -0.21836924169275596
1160000000.0 0.20244221783114932 0.25695972443193305
1180000000.0 0.30064250795086606 -0.1664827049993665
1200000000.0 0.17236853607255254 0.29405329070658
1220000000.0 -0.10081903744557029 0.3373698542807495
1240000000.0 0.17352015404818802 0.32823451108089713
1260000000.0 -0.12984685752356132 0.37196281541196513
1280000000.0 0.41147478596871173 0.08960911042162986
1300000000.0 0.15194648085871884 -0.4039119138911553
1320000000.0 -0.31507650663970455 -0.3110073935875618
1340000000.0 -0.3126571044015579 0.3196419277279004
1360000000.0 0.25535377893322264 0.35846061761787934
1380000000.0 0.421567617899582 -0.011145452908178286
1400000000.0 0.402894166659791 -0.04474803807584813
1420000000.0 0.36423726449199856 -0.12522720711652266
1440000000.0 0.3099725431565018 -0.20886540234659462
1460000000.0 -0.24281485170493822 0.2583725092879775
1480000000.0 0.2597532641433183 -0.1929484303797012
1500000000.0 0.281882003322685 0.012534508740896906
1520000000.0 0.22565177978282253 0.04205640002072879
1540000000.0 0.1384954154194538 0.12946186812170027
1560000000.0 -0.06970284113952323 -0.14424090313053967
1580000000.0 0.012842703314540639 -0.1476357211437394
1600000000.0 0.1000714281111689 -0.07915714079364014
1620000000.0 0.08972005655577775 -0.05714020460322175
1640000000.0 -0.07356638362548411 -0.021107522134945936
1660000000.0 0.0045477219580109815 -0.036589311844619415
1680000000.0 0.006524444457646499 0.010232622071173769
1700000000.0 0.00823922842645733 -0.02368476072545715
1720000000.0 0.00383979652600863 -0.038821431447386257
1740000000.0 -0.05244241140057834 0.020249730674102014
1760000000.0 -0.078338527550874 -0.016122225947886447
1780000000.0 -0.1022735244724706 -0.006532106387236309
1800000000.0 -0.10859848588922072 -0.07525187986039422
1820000000.0 0.10468119086037908 0.13127043573581543
1840000000.0 0.1216059061630477 -0.16099534221164105
1860000000.0 0.038718993823701746 0.2472836127645853
1880000000.0 -0.13644000670877898 0.25742793911634376
1900000000.0 -0.3214740985175091 -0.048597797364540736
1920000000.0 0.3307427879223864 -0.11061371138144302
1940000000.0 -0.3615064976119637 -0.08587592637264638
1960000000.0 0.25270536187056863 0.2926653448379855
1980000000.0 0.3942184349387489 -0.017149803935345122
2000000000.0 0.39892785387840246 -0.08668695614788172
2020000000.0 0.34648120320767656 -0.23490899091580977
2040000000.0 0.22768769287062135 -0.3686875373436351
2060000000.0 -0.4303643970137109 0.10080005306858328
2080000000.0 0.3810551955751931 0.21374891430231047
2100000000.0 -0.15629881881736307 -0.39146961728776986
2120000000.0 -0.37895307759289276 0.10672217160983336
2140000000.0 -0.3678744885254468 0.023570326538494918
2160000000.0 0.26085842252340113 -0.22956528116711258
2180000000.0 0.3301483834489031 -0.04155730003960351
2200000000.0 0.30153753944626754 -0.11910429955507609
2220000000.0 0.043220254024403375 -0.31158102441785124
2240000000.0 -0.2651778941830765 -0.15583657129652065
2260000000.0 -0.29637965857649934 0.050572578910158705
2280000000.0 -0.2915550660400455 0.08820629707442067
2300000000.0 -0.004323037170511155 0.31461776208697473
2320000000.0 0.21852310514423845 0.2538078546878131
2340000000.0 0.19301774456628373 -0.31609076005033765
2360000000.0 -0.20218097469762375 0.35777334374360764
2380000000.0 0.18936888607716248 -0.41605462416384864
2400000000.0 -0.04522000429166541 0.5027899191639394
2420000000.0 -0.08206778655452832 -0.5505618410101785
2440000000.0 0.40133369931341684 0.4570614113547
2460000000.0 -0.6273969173637569 -0.18977625975797746
2480000000.0 0.6197356215148517 -0.31595582171151954
2500000000.0 -0.5343011328645865 0.4892772181039156
2520000000.0 0.5554384736535094 -0.4964795610111151
2540000000.0 -0.6123306146809918 0.44541439018838824
2560000000.0 0.7444417104201012 -0.1633167068375668
2580000000.0 -0.6517739473208936 -0.3894112697847805
2600000000.0 0.38596874836199974 0.6405463684873476
2620000000.0 -0.0939556616920507 -0.7244352464021271
2640000000.0 -0.6295654053850372 -0.3156279974437894
2660000000.0 0.5847537918771619 0.3296460521263042
2680000000.0 -0.503995109113907 -0.3863119606735989
2700000000.0 0.5048514468920156 0.32293555919358824
2720000000.0 -0.558623114984772 -0.049631196124849286
2740000000.0 0.3936416485805512 -0.3419834675801184
2760000000.0 -0.09727286010492128 0.471971137154758
2780000000.0 0.01774758575890793 -0.4471438705539226
2800000000.0 -0.1541790491466272 0.3927172377840884
2820000000.0 0.2809712086245372 -0.2883502093493901
2840000000.0 -0.390801379020567 -0.03281589840576409
2860000000.0 0.22626311638655716 0.31829477895916547
2880000000.0 -0.10875513745871843 -0.37749870139542646
2900000000.0 -0.11881190905734164 0.3719878961883036
2920000000.0 0.3821863654150826 -0.08160148370240237
2940000000.0 -0.09001201404500794 -0.37481906680729465
2960000000.0 -0.06297287694380713 -0.3732076450489729
2980000000.0 0.32614752002352 -0.1835722544686414
3000000000.0 0.19381286831881867 0.3228467044164423
3020000000.0 -0.2930919133309414 0.23658579627480114
3040000000.0 -0.15195346504837778 -0.3410815765516816
3060000000.0 0.35545668101905437 -0.08396234262827355
3080000000.0 -0.21931447449891556 0.2789865498090707
3100000000.0 0.05574471487367086 -0.3348566762222715
3120000000.0 -0.1045362474551659 0.30447641152965066
3140000000.0 0.2530713000336269 -0.17630156513024603
3160000000.0 -0.23287127340605931 0.18231922280378227
3180000000.0 0.2584292711795174 -0.09782034712341299
3200000000.0 0.14556728557088394 0.2043769063838987
3220000000.0 -0.06840772329357886 0.20373627266073244
3240000000.0 -0.05027794627280004 -0.1673321165723799
3260000000.0 -0.0695443875230674 -0.11507122334742981
3280000000.0 0.010789082138454156 0.09900490564903211
3300000000.0 0.0753931934871992 0.0009758515129554491
3320000000.0 0.02474994346090003 0.0581636829655889
3340000000.0 0.019048029043029262 -0.053562977829741155
3360000000.0 0.02988213616389164 -0.03695240762886467
3380000000.0 0.011117247177702886 -0.035700590873898215
3400000000.0 0.0021858428531932018 0.03177664162412203
3420000000.0 -0.01886486990784023 0.0220213587187323
3440000000.0 0.02032216010390404 0.019001473563276448
3460000000.0 -0.014367856398372009 0.016360528853725936
3480000000.0 -0.01004223592446793 -0.009411836651908647
3500000000.0 0.01770466046197114 0.01120641627376663
3520000000.0 -0.006576130768887925 0.03386805538742355
3540000000.0 -0.04862043920654066 0.01583015689197631
3560000000.0 0.012554579347666333 0.056728815871934436
3580000000.0 0.06415088690205979 0.004779931855161217
3600000000.0 -0.03366979003583176 -0.064075259537932
3620000000.0 -0.06919595884407445 0.03942152083016247
3640000000.0 0.06923043975224757 0.050945609169024256
3660000000.0 0.07228507489546801 -0.05787996831185336
3680000000.0 0.03984934977524307 0.08901752253655766
3700000000.0 -0.044133066289284505 -0.08357388115890489
3720000000.0 -0.08945447549703511 0.01931674059679976
3740000000.0 -0.005667646446853186 -0.08864440575632797
3760000000.0 0.05257508435102855 -0.07931173359808176
3780000000.0 -0.1031090614353343 -0.018064133817862617
3800000000.0 0.05792054576763991 0.10551982803049453
3820000000.0 0.02855936848808011 0.13963060477855524
3840000000.0 -0.09966997303240646 -0.12887722889455483
3860000000.0 0.05923269413494842 -0.16746166031602475
3880000000.0 0.18847855947421138 0.02377008374242542
3900000000.0 0.14722611224092616 0.1313103241671333
3920000000.0 0.10731598560458544 0.1693660279621791
3940000000.0 -0.18476181989310392 0.08724743354427783
3960000000.0 -0.13172525743787997 -0.16102331324700012
3980000000.0 -0.13748082288783783 -0.16482885692070318
4000000000.0 -0.1944919267502719 -0.07342702823053301
