!Created with skrf (http://scikit-rf.org).
# Hz S RI R 50.0 
!freq ReS11 ImS11
400000000.0 0.7096116012311253 -0.3970566404914908
420000000.0 0.4917865877503558 -0.6586124743494113
440000000.0 -0.14814474049987902 -0.7623342473346835
460000000.0 0.07666058461349691 -0.7149852467469124
480000000.0 -0.18618004575012018 0.6362546490292642
500000000.0 0.4728052386447959 0.45078121626368434
520000000.0 0.4779086140714311 0.32400744595255404
540000000.0 -0.3959194975443998 0.3072550175143332
560000000.0 -0.47612788215918456 -0.019055630589844066
580000000.0 -0.030680827186198214 0.41248162081524714
600000000.0 0.32621460523585544 0.17519069239357893
620000000.0 0.29310266230093085 0.24315043947700263
640000000.0 -0.3182897007461724 0.25495756231965183
660000000.0 0.44287774651200457 -0.00224954526543236
680000000.0 -0.28462667798815194 -0.3486618504245883
700000000.0 0.096272286467354 0.43007213667614513
720000000.0 -0.11014361534702301 -0.42476891235114406
740000000.0 -0.33166996611334904 -0.21865411812185195
760000000.0 0.28089555609864475 -0.23276348400574376
780000000.0 0.24848299898085988 0.20405448446644878
800000000.0 -0.3015432808464538 0.02421735864926723
820000000.0 0.24182661299399338 -0.03693291159019998
840000000.0 -0.012291992180093358 0.19389585604845852
860000000.0 -0.1689527275081184 -0.0053569744881778285
880000000.0 0.12669293326768918 0.06876496628208845
900000000.0 0.023615682941194885 0.11302507848953451
920000000.0 0.058347359337914795 0.04058386785571289
940000000.0 -0.045357542221462925 -0.017495806785566267
960000000.0 0.05882982830611337 -0.004087127164335278
980000000.0 0.05284739072111315 -0.05229138244535254
1000000000.0 0.020557931658509426 0.07973574682316137
1020000000.0 -0.08122015955871834 0.0656227853158699
1040000000.0 0.058496878798372655 0.1013634837032609
1060000000.0 0.12886366456793125 -0.09454239551493247
1080000000.0 -0.15850659347376628 -0.10140904080968256
1100000000.0 -0.2211139219658897 0.03556846810775458
1120000000.0 -0.061775865545176625 0.25134533968452893
1140000000.0 -0.2318603611316691 -0.16350421741631316
1160000000.0 -0.044243076906738045 0.30739525714382687
1180000000.0 0.05254675494534922 0.3315211180456924
1200000000.0 -0.2900158005681572 -0.18628131850190835
1220000000.0 -0.3266131032033929 0.16300782142207637
1240000000.0 0.18140752897251577 0.342204974990084
1260000000.0 0.2644160020691335 -0.3026016469272142
1280000000.0 -0.06511475882689159 -0.40377844675720914
1300000000.0 0.23453178109327616 -0.34653173684898436
1320000000.0 0.0269365423332575 -0.4359980697517568
1340000000.0 -0.4403942367365659 -0.031887651852234904
1360000000.0 -0.23026819924034722 0.3729388783364513
1380000000.0 -0.030269267105818922 0.42856119023963357
1400000000.0 0.38884757092276595 -0.15729080048176172
1420000000.0 -0.03435456883585109 -0.3905792793748204
1440000000.0 -0.2565140823363664 -0.26582673854717526
1460000000.0 -0.21065613907286396 0.27590936227316976
1480000000.0 0.21636654512960504 -0.23224422475954976
1500000000.0 -0.13631361090237004 0.24211239752647237
1520000000.0 -0.144972169860727 0.19063203403225967
1540000000.0 0.19476394058357668 0.046741230312451226
1560000000.0 0.12017907516159337 0.11782205986864436
1580000000.0 0.1457669472835072 0.009440393347932806
1600000000.0 -0.010491459543565604 0.11904927379684033
1620000000.0 0.0764550854065576 -0.05074498230002017
1640000000.0 0.06415585379395443 -0.023827985727421744
1660000000.0 0.03904548304021775 0.010686471357908605
1680000000.0 0.018593670891466827 -0.005484552368231293
1700000000.0 -0.013888076128777151 0.021520512449793625
1720000000.0 -0.03643852178031328 -0.012941138630425734
1740000000.0 0.04594917580672035 -0.02538159018187004
1760000000.0 0.03904627374035441 -0.06331828594335581
1780000000.0 -0.04704692428363999 0.09046564541632157
1800000000.0 -0.07862481256255383 -0.1110646006393512
1820000000.0 0.02100888466477426 0.17202342367444845
1840000000.0 -0.2021774036153715 0.02505359998737678
1860000000.0 0.2251879893618374 -0.0980342303165954
1880000000.0 0.1223271476925774 0.24819779198775266
1900000000.0 0.19586513379690598 -0.238037357853604
1920000000.0 -0.27171994937146837 0.21734380568268855
1940000000.0 0.2868246453623565 -0.24744801496782162
1960000000.0 0.07705750048054928 0.3952770497329723
1980000000.0 0.1791127551101215 -0.36655938262709165
2000000000.0 -0.2754991337508051 -0.3083424326035821
2020000000.0 -0.3633458333506786 -0.2000244678457556
2040000000.0 -0.33826055123444576 -0.24980473923094174
2060000000.0 -0.4027448987737721 0.1354519843110591
2080000000.0 -0.07382031972547067 0.41565789887900295
2100000000.0 0.39479418680757283 0.12785930964760844
2120000000.0 0.17540471011160497 -0.360942444280441
2140000000.0 -0.1652501090890148 -0.3437667458097907
2160000000.0 0.11425313176222167 -0.3443641876151597
2180000000.0 -0.21821037220015552 -0.2633595143565119
2200000000.0 -0.30401201898538005 -0.10332381448109372
2220000000.0 -0.1700170266947137 -0.24974596740806557
2240000000.0 0.01767560378200101 -0.2972128487465013
2260000000.0 -0.13163765810642145 -0.26474371761439663
2280000000.0 -0.22265393759939828 -0.20563595665418127
2300000000.0 -0.22998933566300703 0.21601823130757686
2320000000.0 0.23784329556240924 0.2362278542920461
2340000000.0 0.17715420166516407 -0.3226816812329483
2360000000.0 -0.257764409401326 0.31305060864813955
2380000000.0 0.3558739868331449 -0.2761651174886963
2400000000.0 -0.3923395893404908 0.31343161971519173
2420000000.0 0.09618783381056495 -0.5507080417351482
2440000000.0 0.3893050568589268 0.4684164906849947
2460000000.0 -0.6202556037631484 -0.20663527086828626
2480000000.0 0.6799032580909594 -0.13754194083573126
2500000000.0 -0.6571554568585328 0.30526728247374263
2520000000.0 0.5861581192733576 -0.4622264142085163
2540000000.0 -0.6583656010428244 0.3771419344464285
2560000000.0 0.7633096880686498 -0.03463356190026576
2580000000.0 -0.5983162469395458 -0.47064341472634186
2600000000.0 0.18626858715069786 0.726455530670426
2620000000.0 0.19604947633771633 -0.7069086784550589
2640000000.0 -0.5216830515112147 -0.4802959562009211
2660000000.0 0.4896228106755926 0.4668480289798369
2680000000.0 -0.47981993306212184 -0.42113480573029877
2700000000.0 0.4806454980120874 0.3580697578721929
2720000000.0 -0.5240109727299582 -0.19130173489174643
2740000000.0 0.5122035936793785 0.09093063320120656
2760000000.0 -0.4846991168545162 0.05004649082036561
2780000000.0 0.3389828926545519 -0.3083878547969771
2800000000.0 -0.2296060811741749 0.3659274301253581
2820000000.0 0.38359275914003665 -0.14844282756280658
2840000000.0 -0.39858631639410647 -0.05285240630514487
2860000000.0 0.38715537779281234 0.0892490603749855
2880000000.0 -0.3357395688340314 -0.19761000337632365
2900000000.0 -0.26064625421428794 0.28262632291772605
2920000000.0 0.011161831758187664 0.388708796886849
2940000000.0 0.39304888141737565 -0.020950062771635063
2960000000.0 0.2319287918131906 -0.31141032693576004
2980000000.0 0.36646670735502507 -0.11571913653812897
3000000000.0 0.32421090926253976 0.21039247091239074
3020000000.0 0.021428081412470625 0.3800657756655462
3040000000.0 -0.36919849983781977 0.016834014240927824
3060000000.0 0.3579906263728728 -0.02514423924131839
3080000000.0 -0.3483263273493076 0.04540983555008353
3100000000.0 0.33577530246604376 -0.05492921614266386
3120000000.0 -0.31248220547958727 0.10361854724150657
3140000000.0 0.194195500610813 -0.2522817915312031
3160000000.0 0.11789733158249456 0.2770556486934607
3180000000.0 -0.039795727993086796 -0.27413556831655134
3200000000.0 0.24120883595586087 -0.0392470277302204
3220000000.0 -0.1731495659028486 0.11594284986195837
3240000000.0 0.15604106958512415 0.07841195371907252
3260000000.0 0.09201956090764901 -0.10570297228467108
3280000000.0 0.005632843599354698 0.10309543881087282
3300000000.0 0.025701869052232887 -0.07531991722464612
3320000000.0 -0.055274857449984165 0.03816520648333032
3340000000.0 -0.03986434504649409 -0.033933201346078766
3360000000.0 -0.037906591750463764 0.011483795042710096
3380000000.0 -0.03622154119864652 -0.011488310176412709
3400000000.0 -0.0037559075644516817 -0.03592825847509736
3420000000.0 0.01296729429244636 -0.029696295016839697
3440000000.0 -0.028395988199340045 0.004320602641176083
3460000000.0 -0.006663024794063225 0.01456736472154385
3480000000.0 -0.006471829711993823 -0.008519219342683624
3500000000.0 0.012464548840211705 -0.019386026248942714
3520000000.0 -0.017554653094726095 0.02866728850881273
3540000000.0 -0.037484973244081544 -0.03298493929796542
3560000000.0 0.03633490175638774 0.050688448035837885
3580000000.0 -0.05106835293711244 -0.043555215057042455
3600000000.0 -0.0525907437898468 0.05203004999870166
3620000000.0 0.059845286821294946 -0.05299355616230693
3640000000.0 0.00472040030843856 -0.08274930277010369
3660000000.0 0.06809171390114967 -0.05292918932315045
3680000000.0 0.07451290259642566 -0.05066234090730636
3700000000.0 -0.09372646524861243 -0.015292584584243341
3720000000.0 -0.07736104999934922 -0.06120604068459468
3740000000.0 0.04305427417709131 0.08536410130123297
3760000000.0 -0.06699097457211661 0.06504117637970247
3780000000.0 -0.057750679271522276 -0.08719880316320058
3800000000.0 -0.03739253951426064 0.11654514111548342
3820000000.0 -0.08152405344455795 0.1212675973354374
3840000000.0 0.0378135455966872 -0.1591597989735522
3860000000.0 0.1699417461951038 0.0465206528627498
3880000000.0 -0.11622581151195913 0.14834523247728987
3900000000.0 -0.1870618972388674 0.06656658087490894
3920000000.0 -0.03075424516794998 0.20260823307756076
3940000000.0 0.024764628417839756 0.20764573446298557
3960000000.0 -0.04918339323541877 0.20193128342047673
3980000000.0 -0.20106964646037004 0.06405227252464643
4000000000.0 -0.13631243847133317 -0.15153758329020303
