!Created with skrf (http://scikit-rf.org).
# Hz S RI R 50.0 
!freq ReS11 ImS11
400000000.0 0.25906295517655953 -0.8095356393102312
420000000.0 -0.7701480404533098 -0.30762441268006596
440000000.0 -0.7772138124559611 0.01879101895910602
460000000.0 -0.6983502752225549 -0.17145167274123344
480000000.0 -0.015769873855443994 -0.6518516098905908
500000000.0 -0.22687947436020212 -0.561228905135543
520000000.0 0.43069832655635154 0.31091687559187076
540000000.0 0.07513932112976862 -0.4714215737679367
560000000.0 0.18420470191761068 0.4115881534569533
580000000.0 0.4074324555536269 -0.10633133694621852
600000000.0 -0.35302300125352104 0.1651021726127246
620000000.0 0.10667121511001056 0.3739491031215527
640000000.0 -0.15946070789315178 0.39212484802789876
660000000.0 -0.23104342497695174 -0.38071194580822637
680000000.0 -0.3767472253685016 0.2342516896175808
700000000.0 0.418006702474352 -0.10271327977831136
720000000.0 -0.2626781105168084 -0.3270176750927756
740000000.0 -0.28306409045025654 -0.25362101557596983
760000000.0 0.08052939026505541 0.3339342523375567
780000000.0 0.28073681116248206 -0.1431538772977401
800000000.0 -0.2883522017491952 0.10931420543497689
820000000.0 0.23575891521719997 -0.14543272520584363
840000000.0 0.23251108175702626 0.03299230030552112
860000000.0 -0.194155370538718 0.05800391655611012
880000000.0 -0.13931039135145198 0.06644069835387735
900000000.0 0.09647413286470201 -0.03148506608947132
920000000.0 0.03296078727573363 0.0407897491008937
940000000.0 -0.01839140609454697 -0.020853282101316796
960000000.0 0.039547002187155386 0.020588347120847915
980000000.0 -0.06569658185414345 0.004471276079173996
1000000000.0 0.08170327515289291 -0.007105036384187592
1020000000.0 0.044898749321572944 -0.09361510049364809
1040000000.0 0.10201534684651342 -0.04901780878870206
1060000000.0 -0.0738752654844135 -0.11606443554067207
1080000000.0 0.08233098623212858 -0.15752242591693658
1100000000.0 -0.12610617194242946 -0.17059665709880584
1120000000.0 -0.15040220175996594 -0.20312647250692442
1140000000.0 -0.23665106027304963 -0.1558432709582005
1160000000.0 0.14932379886769964 0.2677893746490618
1180000000.0 0.2153324575832002 0.24134052039570278
1200000000.0 0.09016488637467394 -0.3194533290638824
1220000000.0 0.1487176635977913 -0.33317003984812077
1240000000.0 -0.20767220276577691 0.33619037906992777
1260000000.0 0.40487610824106396 -0.08603340726338435
1280000000.0 -0.36232347195476217 -0.21927539190401596
1300000000.0 -0.4200027693891925 -0.05345698416246752
1320000000.0 -0.42560932186980927 -0.07381350629220595
1340000000.0 -0.4107734294637803 0.14918132252454178
1360000000.0 0.015994323868849337 0.4379120486277031
1380000000.0 0.3694705881981627 0.20552668741323715
1400000000.0 0.38492970636314283 0.12758603601913257
1420000000.0 0.3920665386411198 -0.02754526348300223
1440000000.0 -0.20198952558037442 -0.3186906030603005
1460000000.0 -0.1434446779096332 0.31508004423194996
1480000000.0 0.2937219507047925 0.11951039837109549
1500000000.0 -0.1941562455551403 -0.20542834898613807
1520000000.0 -0.1986031708484708 0.1463679056636982
1540000000.0 0.18041439775225684 0.09779239282557037
1560000000.0 0.04580675953299656 0.16831085480962343
1580000000.0 0.15104694770323446 -0.009013985898978153
1600000000.0 -0.12235126784869213 -0.02551493782546529
1620000000.0 -0.03685874353543422 -0.09505136679474879
1640000000.0 -0.05929553647477938 -0.03963646860197049
1660000000.0 0.04495089478039821 0.004417077223673908
1680000000.0 -0.0242412639858268 0.008295263830495793
1700000000.0 0.003963697012898582 -0.023193450253951645
1720000000.0 0.001851057452281204 0.03306213753031616
1740000000.0 0.039047849078534695 0.04277825900833747
1760000000.0 -0.01180573928846088 0.07982223149696052
1780000000.0 -0.08848978240033119 -0.06138207626311728
1800000000.0 0.14037868895654956 -0.00270947660436367
1820000000.0 0.03250005421935038 -0.16576192421017336
1840000000.0 -0.20855358693573658 0.023267380081414265
1860000000.0 -0.058607284531305134 -0.2445822395403877
1880000000.0 0.28602429274297914 0.008241663892293442
1900000000.0 -0.29018750940252463 0.12720989245119932
1920000000.0 0.34234469491012165 -0.006523313710589561
1940000000.0 -0.17528228521062506 -0.32152057154807473
1960000000.0 -0.3314087149109993 0.19701739420058514
1980000000.0 -0.045371427202443526 0.402462606518235
2000000000.0 0.41483468485759234 0.09312210472029939
2020000000.0 -0.08408966667085407 -0.4300757878852523
2040000000.0 -0.36569379805335606 0.2482189896567589
2060000000.0 0.36868121026065015 0.23147050016809348
2080000000.0 0.4114267854437079 -0.09489516236539658
2100000000.0 0.3124104973269193 -0.265874455105067
2120000000.0 0.07781368535028446 -0.39152675752173566
2140000000.0 -0.3318051273682804 -0.19301166782126036
2160000000.0 -0.1155147479309076 -0.34203485616643475
2180000000.0 -0.07631671363463352 -0.32970236975471173
2200000000.0 -0.060033839067649614 -0.31737893434136744
2220000000.0 0.0233589331281527 -0.31180555109542846
2240000000.0 -0.15760583146654955 -0.2719822727681527
2260000000.0 -0.14557890389577752 0.27368760456209285
2280000000.0 0.09958176388210144 0.28941180020112905
2300000000.0 0.23367885260250884 0.20917748035039582
2320000000.0 0.31721853726158367 0.11110764729477551
2340000000.0 -0.14687594229648324 -0.3394113349190778
2360000000.0 0.023172510752117362 0.4047924455444798
2380000000.0 0.01781488815435539 -0.45024981000544684
2400000000.0 0.08544738191526445 0.4929533920480951
2420000000.0 -0.32432652810472384 -0.4491210109047755
2440000000.0 0.6049100156397074 -0.008040630036612735
2460000000.0 -0.4234227083102741 0.4903199386190262
2480000000.0 0.2094600148947664 -0.6512872977557168
2500000000.0 -0.24029953788450453 0.6726203928306576
2520000000.0 0.2874801164786185 -0.6748730709945199
2540000000.0 -0.3705952612383116 0.6472991849199154
2560000000.0 0.6580433698766428 -0.36084522849203654
2580000000.0 -0.7454515524791743 -0.042520161623019186
2600000000.0 0.5395839190178663 0.49938866603164456
2620000000.0 -0.2883975031324061 -0.6570721087407464
2640000000.0 -0.6928614195623716 -0.019516750945769823
2660000000.0 0.642099210359543 0.15544477690102557
2680000000.0 -0.607440326071686 -0.14498532410351245
2700000000.0 0.5722646043948357 0.13152986820741414
2720000000.0 -0.5359632801756841 0.10855995055601758
2740000000.0 0.4662946500379368 -0.19740115219840243
2760000000.0 -0.4213810265510251 0.20869167305333097
2780000000.0 0.3500624220336959 -0.26745565834467827
2800000000.0 -0.35572998370792563 0.2208873455455051
2820000000.0 0.2826284356645601 -0.28931919966880104
2840000000.0 -0.13695435356814326 0.36913095630969134
2860000000.0 0.1272144532926442 -0.3622559286870717
2880000000.0 -0.36984264622889546 0.07024760953045055
2900000000.0 -0.04112391444827354 0.3742450232275046
2920000000.0 0.3538562910508586 0.13890113382156064
2940000000.0 0.16658037455564395 -0.3433758780311023
2960000000.0 -0.0789826978108948 -0.3694357708242332
2980000000.0 0.19824427848775203 -0.3173016974097941
3000000000.0 0.3125800013191218 0.20820974152799573
3020000000.0 0.03313621680291828 0.3742888136788325
3040000000.0 -0.35996975415617305 0.06912568425835018
3060000000.0 0.19630999636959368 -0.295998855390693
3080000000.0 -0.23302326943534915 0.25430871237528335
3100000000.0 0.2850714911375483 -0.17573295534822608
3120000000.0 -0.30352248493224326 0.11992082370391732
3140000000.0 0.056075197511518744 -0.3105585539924578
3160000000.0 0.18042541711090698 0.23502713855374988
3180000000.0 0.05693568253654439 -0.2667434625991568
3200000000.0 0.19936422200093493 0.14195269897691812
3220000000.0 -0.19588562605257331 -0.07391992018854812
3240000000.0 -0.05644736436299872 0.16610923079851797
3260000000.0 -0.08598676868917562 0.11367763374677498
3280000000.0 0.02383950477278122 -0.10978432074037964
3300000000.0 0.021015523758228436 -0.08726165052668557
3320000000.0 0.019259591471576666 0.07020299298309929
3340000000.0 -0.06107459672619917 -0.014036777926678668
3360000000.0 0.012484425995454332 -0.04942089291923651
3380000000.0 0.014849801112053293 -0.03708069109531798
3400000000.0 -0.02682214157292201 -0.024694420794165103
3420000000.0 -0.006504226809595747 0.03372425166275773
3440000000.0 0.02616431719762184 -0.00729513859125803
3460000000.0 -0.02203678803468106 -0.003030152508237029
3480000000.0 -0.0037076427089726563 -0.01195193508395246
3500000000.0 0.0040461414613430875 0.013727086928409378
3520000000.0 0.03018340973845058 0.0017932969408720539
3540000000.0 -0.006717539194008072 0.04575228487020235
3560000000.0 -0.05675027282236206 0.0027112955259996274
3580000000.0 0.06637532974362173 0.004512379571503406
3600000000.0 -0.07177813296118278 -0.02634954261394737
3620000000.0 0.08448607699982608 0.016571361684446183
3640000000.0 -0.0821393886045097 0.04427372337746633
3660000000.0 0.0959285304378244 -0.012672471704338412
3680000000.0 0.10102441604648178 -0.012519757957121437
3700000000.0 -0.10647694958052328 -0.01945066057757739
3720000000.0 0.11193669916753293 -0.011178203164393441
3740000000.0 -0.11242750741832382 -0.00771388667076924
3760000000.0 0.11211779918139314 -0.017004116129757007
3780000000.0 -0.11019317565890971 -0.04791191117300794
3800000000.0 0.019448131978651917 -0.13278549564571226
3820000000.0 -0.1498381293352984 -0.019613816187739382
3840000000.0 0.16294504852791136 0.026604967323560866
3860000000.0 -0.16150174879453927 -0.07972498083625941
3880000000.0 0.16938592021906373 -0.10121257125849017
3900000000.0 0.21173298702004817 -0.0021966891203111343
3920000000.0 0.17578720683435123 -0.13080737251513486
3940000000.0 0.17136535120406263 -0.13785932790134006
3960000000.0 0.1372105929060405 -0.17154392642695387
3980000000.0 0.0581872258374531 -0.20632415836446605
4000000000.0 0.0177674603591925 -0.20322669509426747
