!Created with skrf (http://scikit-rf.org).
# Hz S RI R 50.0 
!freq ReS11 ImS11
400000000.0 0.691080386514621 -0.4530246319517023
420000000.0 0.0037283440626518006 -0.8299056129967418
440000000.0 -0.4724096772260521 -0.6114220376243306
460000000.0 -0.10618588728497343 -0.7117226125097769
480000000.0 0.31620048752214774 0.5842596116204147
500000000.0 0.6339949544898589 -0.048745695022199824
520000000.0 0.21578875282029616 0.5235609241500458
540000000.0 -0.4220390802534623 -0.28209389661461265
560000000.0 -0.46061201520382883 0.1407729672878312
580000000.0 0.27126180273279155 0.308730429154923
600000000.0 0.23777612725199715 -0.2884833654811133
620000000.0 0.22296109249973992 0.2977298960634327
640000000.0 -0.38112162495279095 -0.16027313319644626
660000000.0 0.3948563224755653 0.2146096723054749
680000000.0 -0.07466496697404243 -0.461107906379056
700000000.0 -0.10432379940748426 -0.4455650348741538
720000000.0 0.3873429576888899 0.16831097754305313
740000000.0 -0.2784190264319738 0.22838965536261907
760000000.0 -0.2632982860669976 -0.20388166722510184
780000000.0 0.2954555793342769 0.1439214093232887
800000000.0 0.18885150891357458 0.24284002720652623
820000000.0 -0.0658540259172789 -0.2682328776595186
840000000.0 -0.2177529270367868 0.06036447422394224
860000000.0 -0.1280146784409648 0.12621032139206376
880000000.0 -0.11725112372540573 -0.05566843138303266
900000000.0 0.09297969532948486 0.017698379265021037
920000000.0 -0.043612104407183244 -0.060134387436439396
940000000.0 0.0458483676771352 0.04564935908225342
960000000.0 -0.07340345177721024 0.0035583424003743694
980000000.0 -0.011677208084661333 0.09563567492030459
1000000000.0 -0.07521549381507245 -0.07346333731965338
1020000000.0 0.0347144515112815 0.10498012058642552
1040000000.0 0.10620207308906703 -0.029656974250764138
1060000000.0 -0.059927887608026816 -0.11950883578815362
1080000000.0 0.06969750812052222 -0.1653631352570149
1100000000.0 0.13834352651650805 -0.1645671405590474
1120000000.0 -0.05644377553288293 -0.26007621110609463
1140000000.0 0.19479823868376145 0.22523812016324762
1160000000.0 -0.2186860575386874 -0.20137156887815516
1180000000.0 0.05687317160435059 0.30336862608470033
1200000000.0 0.29126135675091797 0.15706338089695643
1220000000.0 0.3685647458029192 -0.03822259694071848
1240000000.0 0.13776863914466186 0.38059874820872597
1260000000.0 -0.16581992264115938 -0.3711336895576032
1280000000.0 -0.20510616032180484 -0.35221661978700086
1300000000.0 0.3039850185129396 -0.28755069019776064
1320000000.0 0.25424626229148506 -0.36064892518404146
1340000000.0 -0.45777428365265815 0.012972362627611155
1360000000.0 0.43644832265224115 -0.11411126672360894
1380000000.0 -0.08622290316299085 -0.4093244382904303
1400000000.0 0.3039160939180828 -0.2548113538193819
1420000000.0 0.3675843026950373 -0.08233289965470274
1440000000.0 0.3539255047058741 -0.0972951086757293
1460000000.0 -0.34233723806437705 -0.06494236528611674
1480000000.0 0.28984780697809626 0.13492921308252567
1500000000.0 -0.2037950020620089 0.1972397497253932
1520000000.0 0.029770422229225664 0.23845018314913702
1540000000.0 0.18018990518654202 0.07580608534394362
1560000000.0 -0.1670188592213173 0.02272439250322473
1580000000.0 0.13896440443344932 0.06839081111592032
1600000000.0 -0.05990987754625992 -0.10844006705776453
1620000000.0 -0.02338030839347696 0.08390855070848695
1640000000.0 -0.06444869302673564 0.01747834965700537
1660000000.0 -0.04193119282671901 -0.029758255937242385
1680000000.0 -0.020184962161956175 -0.008116846548493368
1700000000.0 0.004556317822221038 0.009615284949179447
1720000000.0 -0.012973306324434788 0.04360202077376801
1740000000.0 -0.05019226110251555 -0.049821419801948624
1760000000.0 0.07666112616417788 0.040788006540354284
1780000000.0 0.05041727457564136 0.09821731445135402
1800000000.0 -0.13076100969225518 -0.03871487478581577
1820000000.0 -0.14738544994116431 -0.042998514923236954
1840000000.0 0.08874769041517418 0.17283083408940275
1860000000.0 -0.2239280521093221 0.11792216036310815
1880000000.0 0.0887635444065317 0.28142611332314693
1900000000.0 -0.25373736688448023 0.19723429368728745
1920000000.0 0.15904718197747258 -0.297547546594086
1940000000.0 -0.05641822259040698 -0.3506677187612737
1960000000.0 -0.24232976219370544 -0.2928621152671458
1980000000.0 -0.39722213050001104 0.09073957413721552
2000000000.0 0.3956032495467662 0.17387478890836555
2020000000.0 -0.3961296400755601 -0.1949273609915504
2040000000.0 0.09966863782815083 0.423492740272533
2060000000.0 0.42150887454953884 0.0032196672131930165
2080000000.0 0.40164646752255656 0.0683444643820901
2100000000.0 0.2819490065536536 0.2835600808569586
2120000000.0 0.3708042899294484 0.13672228280947044
2140000000.0 -0.021835601888351215 -0.3869701634059156
2160000000.0 -0.2659188383832025 -0.24731628922146043
2180000000.0 -0.31740567137968156 -0.09722341562967529
2200000000.0 -0.0034987119681934783 -0.3116010961070647
2220000000.0 0.2955851159776369 -0.0712354925685573
2240000000.0 0.15970471208196624 -0.2619878311278146
2260000000.0 -0.29863173816344296 -0.06195756429941604
2280000000.0 -0.23058442979156085 0.20026558811906864
2300000000.0 0.02281313082723395 0.3125564833229786
2320000000.0 0.21498115365024534 0.2532893009040734
2340000000.0 0.1932603052064598 -0.3110513677614358
2360000000.0 -0.34181740056527166 0.2119851787956382
2380000000.0 0.4391969202968123 -0.0894389901745743
2400000000.0 -0.48235984232651646 0.1328302818224229
2420000000.0 0.362491172974129 -0.4203668430015047
2440000000.0 0.09220038970105189 0.5986155664465048
2460000000.0 -0.46712629542114126 -0.45220321288055404
2480000000.0 0.6644593703199845 0.18719077152353547
2500000000.0 -0.7215272207545516 -0.018646985784135692
2520000000.0 0.7422033361334767 0.04303021924150303
2540000000.0 -0.7242305458257878 -0.2203099120145035
2560000000.0 0.46358845648165087 0.6054934582675601
2580000000.0 -0.08530026688067918 -0.7558070164431923
2600000000.0 -0.38339184900929096 0.6442137184493902
2620000000.0 0.6033042212083672 -0.4169717607153117
2640000000.0 -0.05845161964913226 -0.7074834769103246
2660000000.0 0.02626972173475533 0.6790022004087753
2680000000.0 -0.012531611703063413 -0.6440765682792826
2700000000.0 0.16447018039292663 0.5840943501502853
2720000000.0 -0.40887700238438845 -0.39168780603277326
2740000000.0 0.4766091555929044 0.21749910018267007
2760000000.0 -0.4314496055393408 -0.2207245558686073
2780000000.0 0.40034358055734726 0.21807099715313982
2800000000.0 -0.3320699980671452 -0.2792737670131243
2820000000.0 0.3978255230940045 0.13638519467811805
2840000000.0 -0.4079324023397778 -0.0008626930899459452
2860000000.0 0.38667221434502425 0.0977066260149841
2880000000.0 -0.23312643367898067 -0.3152097576798133
2900000000.0 -0.32933638212706384 0.2095814714496714
2920000000.0 0.2308163256154633 0.3172210303764537
2940000000.0 0.2889871617087337 -0.2661902537463037
2960000000.0 -0.014648648703050516 -0.3862025917577147
2980000000.0 0.12688475888155665 -0.3560243869018922
3000000000.0 0.3037884579806604 0.21956924050918267
3020000000.0 -0.3566971400338018 0.1020598561303116
3040000000.0 0.11274257079287434 -0.35305911537835305
3060000000.0 0.29725084366060545 0.21758759217513424
3080000000.0 -0.30598541606549773 0.1932776216448804
3100000000.0 -0.1076133775140689 -0.3305869525246381
3120000000.0 0.1760277081706192 0.2800643415627891
3140000000.0 -0.3014610911525069 -0.0741251469725027
3160000000.0 0.15415823250098612 0.24640338791828384
3180000000.0 0.14912812690194252 -0.2301959583646076
3200000000.0 0.21950925463629556 -0.11700821303573687
3220000000.0 0.17190491751434192 0.1183842622861923
3240000000.0 0.1610971360640444 -0.043250159815544795
3260000000.0 -0.13849266307564587 0.0038583427994655396
3280000000.0 -0.06678908669324232 -0.09711347496231358
3300000000.0 -0.0887415442728761 0.032701671485917794
3320000000.0 -0.020460102386136356 -0.06098269733676664
3340000000.0 -0.014132592150827109 0.03655592632660396
3360000000.0 0.007480435404108561 0.03269979301553133
3380000000.0 0.008944110700995222 -0.03652934567257748
3400000000.0 -0.024378064363119456 0.026213232010164643
3420000000.0 0.011301926913511194 0.026312656762800753
3440000000.0 -0.021943751898821317 -0.0020658584737586576
3460000000.0 -0.008529444255398713 0.012872776620280215
3480000000.0 0.00837887513476548 -0.015737664011120187
3500000000.0 -0.025672759336756567 0.017929345738663283
3520000000.0 0.0015082467104596238 -0.04189256762103559
3540000000.0 0.050897045742229925 -0.00373417629814831
3560000000.0 0.056577219838878125 -0.023001220379472005
3580000000.0 0.028426389118675517 0.06875180560371928
3600000000.0 -0.06488694600265514 0.05046465578413431
3620000000.0 -0.06883113752531737 -0.054425729028707244
3640000000.0 -0.08495701502427186 0.03184904885969476
3660000000.0 0.09628054747711237 0.020377388747809512
3680000000.0 -0.09389156823341585 0.031252579304081506
3700000000.0 -0.04780673710346914 0.0852792636930702
3720000000.0 0.08925487568844785 0.04685792125974544
3740000000.0 -0.006593162460403126 -0.09959397581759345
3760000000.0 -0.06434072718593996 0.0712184080391305
3780000000.0 -0.06898216430917505 -0.07482394759341848
3800000000.0 -0.04347608162490861 0.10636281752081664
3820000000.0 -0.13318485624522466 0.023514459966457613
3840000000.0 0.13317092239632378 -0.07161772725205598
3860000000.0 -0.08614345452549113 0.13864473882393882
3880000000.0 0.05016290116670941 -0.1682989796803922
3900000000.0 0.12158704631265776 0.14455569488506192
3920000000.0 0.17539525804438233 0.09475070121240373
3940000000.0 0.14027367716196973 -0.1462738896460673
3960000000.0 0.14785416333325474 -0.13066903626456816
3980000000.0 0.11995515671756533 0.14664412168421517
4000000000.0 -0.12628339956166912 -0.12990522883309646
