!Created with skrf (http://scikit-rf.org).
# Hz S RI R 50.0 
!freq ReS11 ImS11
400000000.0 0.6882655158825527 -0.4410403583965582
420000000.0 0.26311408532502506 -0.7870917711854493
440000000.0 -0.5886026780743175 -0.48837644211990044
460000000.0 0.5374442168197447 -0.47038884546968124
480000000.0 -0.11579424423383851 0.6640411406163901
500000000.0 0.6429866243449952 0.04358231920208252
520000000.0 0.455311757583082 0.3600879564816002
540000000.0 0.21956642666034393 0.4487224232097573
560000000.0 -0.4562250743704744 -0.019190760955568747
580000000.0 -0.3831872334647734 -0.12937715761218202
600000000.0 -0.36398000947675097 0.10812675002938416
620000000.0 0.3815417156899442 0.04237234348553849
640000000.0 -0.39614846520631347 -0.11835441139545497
660000000.0 0.19210567425004443 -0.4089760262628479
680000000.0 -0.4418404301026349 0.024241820856319495
700000000.0 0.17949255996972158 0.3954861392400971
720000000.0 0.4178108216625226 -0.1306658492764988
740000000.0 -0.10601773242308013 -0.3930602807902264
760000000.0 -0.29121518355591786 -0.23877189960508122
780000000.0 -0.28654388015913324 -0.13313869873365325
800000000.0 -0.24335917276528743 -0.1253602030198554
820000000.0 0.23196890600372674 -0.06846434993687096
840000000.0 -0.11322764432448203 -0.17657909853430806
860000000.0 -0.1310675799849191 0.1326939465390481
880000000.0 0.11327272668877233 0.08750007564270965
900000000.0 -0.0029987378963589354 -0.10188553644562395
920000000.0 0.06545723266757417 0.015000799932080418
940000000.0 -0.033464713697520576 -0.034221372571695115
960000000.0 -0.038433221463292276 0.054502409384428976
980000000.0 0.00017847883823751234 -0.07879987941376777
1000000000.0 -0.08374316062574626 -0.02133565646530615
1020000000.0 0.020840889885315666 0.11098443409318515
1040000000.0 0.11676937720540446 -0.03706897610269555
1060000000.0 -0.044908975501045986 -0.1466217530419881
1080000000.0 -0.15217157186808783 0.10598366164945518
1100000000.0 -0.20514398602150358 -0.06995316695831315
1120000000.0 -0.2296216723328312 -0.12304606017681793
1140000000.0 -0.2760509210213361 -0.0797722396542728
1160000000.0 -0.09994034044957992 0.29724620540433794
1180000000.0 0.3363102010185525 -0.02400818893616607
1200000000.0 -0.30759731168822224 -0.13846474806886785
1220000000.0 -0.355135456463313 0.0646182871903972
1240000000.0 -0.23351574150473317 0.3052553617681339
1260000000.0 0.40974093731327704 0.0415248696598337
1280000000.0 -0.369873624168378 -0.19543584098889893
1300000000.0 -0.30340714853574147 -0.285868555418909
1320000000.0 -0.1621133091186418 -0.3933963242928344
1340000000.0 -0.17073414186417749 -0.40446020995534726
1360000000.0 -0.3696077562803485 0.2446579943181105
1380000000.0 0.21821557163872832 0.37488931092877936
1400000000.0 0.21721123225380318 -0.3549512897563981
1420000000.0 0.06203786024893154 -0.38153680083625624
1440000000.0 -0.05363653092550382 -0.3668006715852186
1460000000.0 -0.1297341979301418 0.32223144532219633
1480000000.0 0.24940771954322746 -0.19747435761373197
1500000000.0 0.023886874042745636 0.277679318932692
1520000000.0 0.07004274645510776 0.22343536493127564
1540000000.0 0.08345401992735021 0.17955135852783383
1560000000.0 0.1293160215901612 0.10890739022157414
1580000000.0 -0.05639354230822973 -0.13312426179062298
1600000000.0 -0.022463900855116455 0.1114183250170306
1620000000.0 0.04085792115317008 0.08027782495281405
1640000000.0 0.019206222568478218 -0.0629084513333618
1660000000.0 0.04693439387433609 0.012311164670664931
1680000000.0 -0.00634376422463957 0.025509697346018222
1700000000.0 0.001811597328723568 -0.017494588879079
1720000000.0 0.024115287100399944 0.024959727247799955
1740000000.0 -0.03294913732643516 0.043772711972529084
1760000000.0 0.015715369720019478 -0.07554832849983237
1780000000.0 0.10040944686839288 -0.02289877695428677
1800000000.0 -0.03868363538265809 -0.1305619630467633
1820000000.0 0.07961083017020214 0.15312004677555152
1840000000.0 -0.19444527710137913 -0.07595731945206767
1860000000.0 0.18431137440004705 -0.16017208792349638
1880000000.0 -0.2430842363296494 0.14929517891659053
1900000000.0 -0.09634266180121812 -0.3052761038536375
1920000000.0 0.2897802296303946 0.1970263071278217
1940000000.0 -0.15150534746426378 -0.3412561266353459
1960000000.0 0.018387130743094976 0.3920727597177563
1980000000.0 0.3858238813234384 -0.12074915645449688
2000000000.0 0.1656916530420273 -0.3777317141894187
2020000000.0 -0.0915953072999644 -0.40986402556103047
2040000000.0 -0.3612913624824577 -0.22678543626979786
2060000000.0 -0.3241230443000107 0.279753265889478
2080000000.0 0.17182628964099247 0.38631258740324653
2100000000.0 0.4059896343399234 -0.0834940709468923
2120000000.0 0.051080757231823 -0.395984820906743
2140000000.0 -0.3246099736574717 -0.20531801719169485
2160000000.0 -0.19618374310374537 -0.30407119324144466
2180000000.0 -0.32799563360593154 -0.07119389146029888
2200000000.0 -0.18991679963925925 -0.2523679036884233
2220000000.0 0.0647700332938081 -0.29734016717102063
2240000000.0 0.14070319118349164 -0.2699042128684709
2260000000.0 -0.14725488340794066 -0.26948237189748636
2280000000.0 -0.22704977361007203 0.21215053182926333
2300000000.0 0.13606974703550256 0.2838849019532024
2320000000.0 0.13248354461429118 0.30788766818095314
2340000000.0 0.27071247804420134 -0.2553974371668837
2360000000.0 -0.30520524173297797 0.2761514064295025
2380000000.0 0.2392336751060172 -0.38865485419482276
2400000000.0 -0.21117708681130756 0.45804445855173076
2420000000.0 0.08885990926955858 -0.5502972984853718
2440000000.0 0.30544805519142015 0.527561476102732
2460000000.0 -0.6273544268014103 -0.19281960125390027
2480000000.0 0.6244908399650255 -0.30488279964309134
2500000000.0 -0.5667328078001141 0.4491592589972708
2520000000.0 0.5533587690961311 -0.49823803794824695
2540000000.0 -0.6966029233656711 0.2955377315870346
2560000000.0 0.7625840313407531 -0.012088190343188296
2580000000.0 -0.5795050839092378 -0.4918065639214432
2600000000.0 0.2701216185104526 0.6983922252273065
2620000000.0 0.07032989061712348 -0.7282714771803155
2640000000.0 -0.6082581601577629 -0.3604679261011618
2660000000.0 0.5457882125630777 0.39926740131575417
2680000000.0 -0.5513124439153849 -0.3222627184211717
2700000000.0 0.5371241393883611 0.26137555169590815
2720000000.0 -0.4900732710496625 -0.2672840064026815
2740000000.0 0.5166910447788768 0.07225043166461513
2760000000.0 -0.4399114088178068 0.20371968755720124
2780000000.0 0.30436279072475586 -0.33615043519809856
2800000000.0 -0.27487837479027194 0.32584832510778294
2820000000.0 0.33985158310238467 -0.22667303508854272
2840000000.0 -0.35316023634885135 0.183558860788282
2860000000.0 0.38819762760839854 -0.04771516401964782
2880000000.0 -0.3522136042771457 -0.15936083483466143
2900000000.0 -0.13351705163141783 0.35657906662678496
2920000000.0 0.13619007886674392 0.3594124567148082
2940000000.0 0.36345934753781795 -0.13770851777454274
2960000000.0 0.17004863369749323 -0.3449000665531772
2980000000.0 0.2608146111005481 -0.2793455256589625
3000000000.0 0.3797475070878539 -0.027087468149035794
3020000000.0 0.08290432142164389 0.3659921502175107
3040000000.0 -0.3663074819559718 0.001967501562017242
3060000000.0 0.3575496539892902 -0.0383283684711868
3080000000.0 -0.2842609056084883 0.20293287386548775
3100000000.0 0.3087950235011514 -0.13919171345234202
3120000000.0 -0.21348742273918522 0.25057178589539786
3140000000.0 0.16734576101064083 -0.26621966680602466
3160000000.0 0.13647829569339662 0.2672979741348739
3180000000.0 -0.1834563834715944 -0.20692534854121594
3200000000.0 0.1814237355419999 -0.16016944020657467
3220000000.0 -0.16096558276968478 0.12543104346242614
3240000000.0 -0.004057159142906241 0.1714629352759631
3260000000.0 0.13786909571474923 0.03405089641915549
3280000000.0 0.07167722026808009 0.08133140733663426
3300000000.0 0.07964895035180142 -0.006037179401050686
3320000000.0 0.049734207191160035 -0.031390248971615076
3340000000.0 0.008858966472137002 -0.047503742382199614
3360000000.0 -0.04287383338065021 0.004782826652812115
3380000000.0 0.019552499357253585 0.030658075913790855
3400000000.0 -0.033069282825229945 0.015299359782557441
3420000000.0 -0.034259554489417726 -0.010772487117877868
3440000000.0 -0.000291129279384616 0.02666109498648019
3460000000.0 0.0013366014366475827 -0.013989953103663296
3480000000.0 -0.005472038449032698 -0.011810202087566612
3500000000.0 -0.02871518558858233 0.0025641440012109623
3520000000.0 -0.042479549276253054 0.0072529167375934775
3540000000.0 -0.0173648418451837 0.05141458538658471
3560000000.0 0.05916430690534108 0.0038193596339443684
3580000000.0 -0.007927022407000113 -0.06754414105211998
3600000000.0 0.043533931693608925 0.06136359731572454
3620000000.0 0.040386141364350515 -0.06853623275926343
3640000000.0 0.022179855360864847 -0.08196467958143636
3660000000.0 0.052895772795753575 -0.07510889603667131
3680000000.0 -0.016161913415000537 0.09997706154705653
3700000000.0 -0.07842761925774705 0.0645582441247484
3720000000.0 0.015319891051374348 -0.09435619208235195
3740000000.0 -0.04117064530045408 0.07858704007453157
3760000000.0 -0.033581620793854086 -0.08787430023612881
3780000000.0 0.0060944438594942325 0.1064970312301153
3800000000.0 -0.11833858370969343 -0.009571776993873692
3820000000.0 -0.03776885631523921 -0.12859175341199558
3840000000.0 -0.14982659958665734 -0.027891127883203255
3860000000.0 0.13020553138894586 -0.11228287591829857
3880000000.0 0.18639634919020823 -0.021976370036860822
3900000000.0 0.19169557937668213 -0.04860611033542041
3920000000.0 0.19677462741107948 0.03144249622030913
3940000000.0 0.03610490972093765 0.1991261322987946
3960000000.0 -0.13290399659575347 0.15714674884419547
3980000000.0 -0.022569568147399667 0.20484093002679343
4000000000.0 -0.018556303765608087 0.18926016914361252
