!Created with skrf (http://scikit-rf.org).
# Hz S RI R 50.0 
!freq ReS11 ImS11
400000000.0 0.6826135096172791 -0.467941571080964
420000000.0 -0.07437126427657306 -0.8265787262199548
440000000.0 -0.5383208889973088 -0.5542473924516963
460000000.0 -0.15761162155235311 -0.7015966911825461
480000000.0 0.368330321485605 0.5473272486824233
500000000.0 0.6376440461377408 -0.017593450764804026
520000000.0 0.43684726562358284 0.3622471321248591
540000000.0 -0.4226520351454379 -0.27835936585796084
560000000.0 -0.43015815331096463 -0.21314911949097584
580000000.0 0.11905377899319092 0.3987163392513143
600000000.0 0.14984280886176912 -0.34078048672160777
620000000.0 0.28146055032894585 0.23799130469881727
640000000.0 -0.4011984424109275 -0.08349752490325103
660000000.0 0.445078195524905 0.022104013372188338
680000000.0 -0.2713591187719399 -0.3769758574351292
700000000.0 -0.17420435727100905 -0.41928678854536866
720000000.0 0.2713922201373207 0.32390128841850896
740000000.0 -0.2480600236386377 0.26767791781251804
760000000.0 -0.3331618687324802 -0.006982525592309033
780000000.0 0.2731363803614199 0.18082916165630644
800000000.0 0.09565406550329404 0.29404237119731114
820000000.0 0.0640034136000048 -0.27092329682776384
840000000.0 -0.2186052260777319 0.06463863434116152
860000000.0 -0.08615488652644096 0.15411530646783572
880000000.0 0.02821240405174442 -0.12611858794802194
900000000.0 0.06358993900895671 0.07112830879768091
920000000.0 -0.07243005064096451 -0.019055055462950665
940000000.0 0.06252169617862818 -0.015648666368526996
960000000.0 -0.05064845057112776 0.05505708673956412
980000000.0 0.07165256577883414 0.06672312593806178
1000000000.0 -0.09809604114627266 -0.035439307856680986
1020000000.0 -0.00016904351751657537 0.10951208059265086
1040000000.0 0.10980986572995309 0.009543050670816247
1060000000.0 0.01427289545098065 -0.13344031261688863
1080000000.0 0.04434160659552067 -0.1750904565069843
1100000000.0 0.10603595335397854 -0.18716906624559704
1120000000.0 -0.18706544121092844 -0.1903189433715034
1140000000.0 0.236177563452846 0.17829761044371278
1160000000.0 -0.22382719709648716 -0.19755953800236956
1180000000.0 0.1788420569349404 0.25154601918007186
1200000000.0 0.27279147403088677 0.18700462915519514
1220000000.0 0.3717324315926061 -0.02155588638100894
1240000000.0 0.1446402531721499 0.3786023462330571
1260000000.0 -0.14967480766004868 -0.3791666904116794
1280000000.0 -0.2503740076870627 -0.3227942251339039
1300000000.0 0.2987322317529953 -0.2926164756461016
1320000000.0 0.3012359436700311 -0.3228419659296661
1340000000.0 -0.45785332270354334 -0.00700279481333815
1360000000.0 0.44835330269018003 -0.049806235187470384
1380000000.0 -0.09596999579027377 -0.40792560694155916
1400000000.0 0.30333215279296655 -0.2529077430671527
1420000000.0 0.37403475542052 -0.041571851090705395
1440000000.0 0.3551511132869076 -0.09024979731145728
1460000000.0 -0.3219529940797809 -0.12917193409430802
1480000000.0 0.27196420789688835 0.1699510281789367
1500000000.0 -0.143459298772612 0.24367274438402362
1520000000.0 0.08358817878805413 0.22372765762549401
1540000000.0 0.18871943149149298 0.0427220170646533
1560000000.0 -0.16635573619239605 -0.01767280113092838
1580000000.0 0.13440803610042437 0.0761029683777603
1600000000.0 -0.07819496543230194 -0.0945510109523775
1620000000.0 -0.043087647616064886 0.07511034470049013
1640000000.0 -0.06047255028429112 0.028969885485272153
1660000000.0 -0.050769389970387914 -0.001315785738494456
1680000000.0 -0.009242528576544952 -0.018539811027414164
1700000000.0 -0.009085068692011831 -0.0054824036045138585
1720000000.0 0.034763445850919915 0.028463870553221582
1740000000.0 -0.05356969216497986 -0.04616222812955347
1760000000.0 0.0845927079465299 -0.029160224059690376
1780000000.0 0.07229946773353939 -0.08375030094342419
1800000000.0 -0.13530835950267567 0.012214993297120297
1820000000.0 -0.14774380050383332 -0.04370625964503814
1840000000.0 0.09052631405159217 0.17272218548085871
1860000000.0 -0.23239144840460363 0.10647372107187575
1880000000.0 0.11279852395086196 0.2763880617571165
1900000000.0 -0.14275210199030505 0.2908609591167643
1920000000.0 0.1413738471678315 -0.3073808421961725
1940000000.0 -0.022498567651017147 -0.3553853072643723
1960000000.0 -0.22213487012960995 -0.30946675800728835
1980000000.0 -0.40718477546410137 0.037401835387590905
2000000000.0 0.39247403764804367 0.1852183892238052
2020000000.0 -0.3950830332725474 -0.20185699681889163
2040000000.0 0.17669474249202474 0.3992374997605062
2060000000.0 0.4191386125284614 -0.04260976216620662
2080000000.0 0.40596447936611174 -0.03229998929039614
2100000000.0 0.3457001287479864 0.20193132755065185
2120000000.0 0.3953907999357376 -0.022781671149084946
2140000000.0 -0.11897027797344885 -0.37057712251683766
2160000000.0 -0.33272907037507043 -0.1498217596230089
2180000000.0 -0.33283944311057806 -0.00618913116897408
2200000000.0 -0.05465423122516401 -0.30947196762963297
2220000000.0 0.2844046985074928 -0.11855173848133356
2240000000.0 0.020030165233444943 -0.3111674500552901
2260000000.0 -0.3092903400997839 -0.00666811401500084
2280000000.0 -0.17100758437396704 0.2591236748699043
2300000000.0 0.1393181731563418 0.2859342936000937
2320000000.0 0.29230229548483544 0.17089251441251216
2340000000.0 0.036062247030255436 -0.3712236609028227
2360000000.0 -0.1827993662917456 0.3663697492061093
2380000000.0 0.3349226817848839 -0.30900567926361094
2400000000.0 -0.2985688109242364 0.41078834972977746
2420000000.0 -0.05630190570067284 -0.5591695817218859
2440000000.0 0.5337436913547711 0.2985585951183795
2460000000.0 -0.642181173740239 0.12909892977620263
2480000000.0 0.5116128265038498 -0.4684593305780451
2500000000.0 -0.34226324900285415 0.6377666814072505
2520000000.0 0.36657012372498 -0.6473436868026222
2540000000.0 -0.5216241255704847 0.5465964997956659
2560000000.0 0.679589591696866 -0.3405295403392857
2580000000.0 -0.7285782603281574 -0.206013519245127
2600000000.0 0.5430756901576702 0.511196182863205
2620000000.0 -0.2561137593662359 -0.6817069309103392
2640000000.0 -0.7014772712651011 -0.048688987127246536
2660000000.0 0.6640982293867753 0.09784969986957645
2680000000.0 -0.60937144626187 -0.17856198353760114
2700000000.0 0.5972954977432774 0.005899785628098931
2720000000.0 -0.49918382625186586 0.24431774382967475
2740000000.0 0.41440303829617553 -0.30171083594021414
2760000000.0 -0.44862000310188616 0.15110469441736535
2780000000.0 0.44413276199527574 -0.026394701983918196
2800000000.0 -0.41690123405770557 -0.07696345316138585
2820000000.0 0.3979457244139655 -0.10237870183635511
2840000000.0 -0.326011616620924 0.2285497278996945
2860000000.0 0.3452907656092831 -0.17897646711083112
2880000000.0 -0.3553822614932842 -0.1443707855210793
2900000000.0 -0.10618552775709829 0.36681219816511745
2920000000.0 0.3733199531722451 0.09163623721602261
2940000000.0 0.09768199239338274 -0.37307767842830053
2960000000.0 -0.18061008025987088 -0.3349338962241513
2980000000.0 -0.01920415061415507 -0.37132769173799784
3000000000.0 0.3593316969210517 0.08886258708966928
3020000000.0 -0.2507384236580006 0.2687901316917119
3040000000.0 -0.033544471562603394 -0.36728966934500323
3060000000.0 0.3657819794805869 0.01595718873371309
3080000000.0 -0.19590247048062506 0.29932283349628086
3100000000.0 -0.12311419657752136 -0.32125671039766074
3120000000.0 0.23930397072099344 0.22531594617785475
3140000000.0 -0.3076656514261735 -0.0033387348724369464
3160000000.0 0.15579781112768715 0.24136151211067208
3180000000.0 0.1997417787911127 -0.1848560703603896
3200000000.0 0.2467194832844301 -0.005731403413111676
3220000000.0 0.0541874522635863 0.20025211355084757
3240000000.0 0.15924793246449162 0.043063750171531544
3260000000.0 -0.05949332897002965 -0.12244643269238997
3280000000.0 0.10589241289370198 -0.047111715067449704
3300000000.0 0.06298071149276319 -0.066874541728955
3320000000.0 -0.06322522327017172 0.0017533401793400792
3340000000.0 -0.03816637475730426 -0.018498441276112564
3360000000.0 0.03135894488741 -0.024004845453218057
3380000000.0 0.03937698371163952 -0.013664178589827429
3400000000.0 -0.0399401261371238 0.001218784433506212
3420000000.0 -0.012692517263263564 0.030142880081515763
3440000000.0 0.011983475576635988 0.02306395504073394
3460000000.0 0.0165615352763189 0.008346402236723697
3480000000.0 0.005687160859201562 0.014482650906119936
3500000000.0 -0.008205474761714135 -0.026037452442293517
3520000000.0 -0.03552571522730826 0.014818447423673574
3540000000.0 -0.01374225486426374 0.047126605719022004
3560000000.0 -0.05583471604842866 -0.011880963183932683
3580000000.0 0.03914450889918399 0.058237822800057085
3600000000.0 -0.06993266929216514 0.03663719902731316
3620000000.0 -0.012128270646801394 -0.08363560669369326
3640000000.0 -0.062901588785806 -0.06170539145490511
3660000000.0 0.08537201931190024 0.04763114431922172
3680000000.0 -0.08383442928888156 -0.04957991238844867
3700000000.0 -0.0675069913074729 -0.0692370474422689
3720000000.0 -0.0670115199996098 0.07551017026301206
3740000000.0 0.08126786387886929 0.05693834493817957
3760000000.0 0.006217579397769349 -0.09782466633529296
3780000000.0 0.10170683168767872 -0.022378798835444667
3800000000.0 -0.11864716706057328 0.0130159652199065
3820000000.0 -0.13748377814141746 -0.028005604264182256
3840000000.0 0.1511585124322739 -0.04614708727713693
3860000000.0 -0.10696597099079808 0.13208858138995577
3880000000.0 0.06090722098341315 -0.1718659653747516
3900000000.0 0.1395330249282689 0.13852105323790198
3920000000.0 0.18468449978370038 0.09447920004134273
3940000000.0 0.15159861905528982 -0.14581493115085933
3960000000.0 0.12036575119636098 -0.16604277791877575
3980000000.0 0.18027274380852948 0.08219463505015935
4000000000.0 -0.18959601581246838 -0.018384074251790526
