!Created with skrf (http://scikit-rf.org).
# Hz S RI R 50.0 
!freq ReS11 ImS11
400000000.0 0.43760003095676203 -0.6961572936936182
420000000.0 0.17685965886636124 -0.8060783750768015
440000000.0 -0.6068238293247582 -0.47974070947991104
460000000.0 -0.25326084746339445 -0.673111901867522
480000000.0 0.29418950002216765 0.5984326534112193
500000000.0 0.6146590715787115 -0.18506672063836885
520000000.0 0.325124863359782 0.46408580707783936
540000000.0 -0.4037050813704167 0.290932741249481
560000000.0 -0.24840353805005475 -0.39611598577710716
580000000.0 -0.4115163900751284 -0.06583845671149002
600000000.0 0.3009070990307522 0.23053297829336664
620000000.0 0.2802217809199024 0.2488417145388001
640000000.0 -0.3090866472078773 -0.2745499672779078
660000000.0 0.3930569117719597 -0.2162108818707516
680000000.0 -0.37269594473290496 -0.26448009181372256
700000000.0 0.38777882567679317 -0.22257004059039162
720000000.0 -0.1998070479022818 0.3860781203056369
740000000.0 -0.13887943770030733 0.3561897285223841
760000000.0 0.2579224604434219 -0.23630667045212775
780000000.0 0.1060485581232747 0.30127997787041366
800000000.0 -0.10287336628748042 0.26796642405516885
820000000.0 -0.23558529764123717 0.06569581934795132
840000000.0 0.16774554646240117 -0.10105320153551002
860000000.0 -0.14034759796872173 0.0958398398455905
880000000.0 -0.12713161544601304 0.06762550488446621
900000000.0 0.01711203964440239 0.1043300996067047
920000000.0 0.039199233144727924 -0.07272121872496769
940000000.0 -0.05153564712486449 -0.012216984501091962
960000000.0 0.0116327681623091 -0.053215366082187965
980000000.0 0.07039479896990339 -0.024238911371254078
1000000000.0 0.05502791595853671 -0.05624114793084137
1020000000.0 0.06068317911672547 -0.09584907727705158
1040000000.0 0.09898588083374914 0.09305839512668751
1060000000.0 0.16424242929161023 0.04296626971628199
1080000000.0 -0.20232246293811412 0.06861479067837639
1100000000.0 -0.17269363545419722 0.15867387311898454
1120000000.0 0.12886474935590403 -0.21390560474614817
1140000000.0 0.0904400753966766 0.261126235443554
1160000000.0 0.11853927466572446 0.26883107501275144
1180000000.0 -0.32999630815754316 -0.0020105430842815037
1200000000.0 -0.2581151452294729 -0.2331035004434793
1220000000.0 0.023381596286074852 0.36845563059515046
1240000000.0 0.20880340328614413 -0.31039067119568436
1260000000.0 0.16500477818699924 0.34686081754857845
1280000000.0 0.39399432295834463 0.1426758463047368
1300000000.0 -0.05317778645985449 -0.4277369042217421
1320000000.0 -0.42325176231482475 0.11303129017112269
1340000000.0 -0.3973579781690202 0.18554582711720363
1360000000.0 -0.024210976029102105 0.4465099045872075
1380000000.0 0.18913550940062984 -0.38459431081198114
1400000000.0 0.011850828995704756 -0.4067540240826576
1420000000.0 -0.3212260103147207 -0.20316000371255977
1440000000.0 -0.23212653132013497 -0.2787744310952066
1460000000.0 -0.05646774823763125 0.3366312273957679
1480000000.0 0.19497895313765468 -0.24212405994569158
1500000000.0 -0.14469839575505702 0.2330056795533101
1520000000.0 -0.04813572741828332 0.22871430559811218
1540000000.0 0.19652492716669925 0.00029081714006523655
1560000000.0 0.020913298819426274 0.161018025256711
1580000000.0 0.056586432438498674 0.13561332107950697
1600000000.0 0.08352475421117159 0.08951206505592813
1620000000.0 0.028044742672576523 0.08409640306152248
1640000000.0 0.04999540531233651 -0.0370895542614129
1660000000.0 -0.029767142488240726 0.02763511778802009
1680000000.0 -0.011492638089654216 0.018651598407252667
1700000000.0 0.014823158159731707 0.007095558539520937
1720000000.0 -0.03857074724138805 -0.002277586299347191
1740000000.0 0.05553404830030402 0.026196121456592298
1760000000.0 0.02177808390128248 -0.08470197250539951
1780000000.0 -0.06695139821262927 -0.09031085046648113
1800000000.0 0.09661230715528554 0.1077304940950383
1820000000.0 -0.15848998013433724 0.07808332139998618
1840000000.0 0.13290835889047334 0.15702608918912983
1860000000.0 -0.043883876560470964 -0.239997959099846
1880000000.0 0.05958472726507367 0.27921441604696234
1900000000.0 -0.28406996929125505 -0.15953092154413756
1920000000.0 0.050425157604231184 -0.35539532033451143
1940000000.0 -0.0506929592058273 0.3692159479112503
1960000000.0 0.36442441904553896 0.13165724721903943
1980000000.0 0.38242908274800985 -0.13160149738485558
2000000000.0 -0.017831438166565607 -0.42467594999751973
2020000000.0 -0.3788938142412736 0.2149891373989332
2040000000.0 0.30829104390561474 0.3099557825778361
2060000000.0 0.3519443398937047 -0.24563710659496016
2080000000.0 0.20853336247481352 -0.36450186472934915
2100000000.0 -0.038958663879380746 -0.4101672640649211
2120000000.0 -0.3454866594926894 -0.20571127480405232
2140000000.0 -0.26736717885141226 -0.2813843141994344
2160000000.0 -0.2749841848623086 0.2419516589714861
2180000000.0 -0.08424473529814702 0.331111771656195
2200000000.0 -0.156186401204264 0.28234146128732285
2220000000.0 -0.31400313583525824 -0.017659328846025907
2240000000.0 -0.23030038533929817 0.21700772681958516
2260000000.0 0.2512140997541532 0.19262957649638857
2280000000.0 0.2449942469737238 -0.20601960489811436
2300000000.0 -0.05932152428037772 -0.3258509426759571
2320000000.0 -0.34849493788617064 -0.0625036801898091
2340000000.0 0.08717206529776451 0.37890684224612337
2360000000.0 -0.02468384815809552 -0.4334349020005865
2380000000.0 0.35105633101648653 0.3332298948172355
2400000000.0 -0.5318377991595397 -0.036101161999273976
2420000000.0 0.4727170201532688 -0.34299752640200337
2440000000.0 -0.06265968952973253 0.6291926652984705
2460000000.0 -0.4457926626232839 -0.5069395829357906
2480000000.0 0.7022330272195507 0.10681334155710821
2500000000.0 -0.7345964612097075 0.023258681077184377
2520000000.0 0.7499024563874797 -0.04615186511770861
2540000000.0 -0.7336923317119605 -0.19224183017455146
2560000000.0 0.47299654930551366 0.5927804673168194
2580000000.0 0.04285710800702069 -0.7481214762832402
2600000000.0 -0.3594988350245938 0.6386357642032257
2620000000.0 0.5675229684631461 -0.42526530434896853
2640000000.0 -0.05894663766095741 -0.6755863865677136
2660000000.0 -0.21187205046441218 0.6037601305803677
2680000000.0 0.4296003758406458 -0.4204201520303399
2700000000.0 -0.49539968587744354 0.27241049328513217
2720000000.0 0.34309603184428866 -0.4010157596480363
2740000000.0 -0.20436291453257 0.4430480836959874
2760000000.0 0.15915770085039516 -0.420931627273607
2780000000.0 -0.3650481340733385 0.2098731036457877
2800000000.0 0.4033961981165695 -0.018804778539550572
2820000000.0 -0.38769540394959456 -0.05793531166906149
2840000000.0 0.3858316920004384 0.04731167090356973
2860000000.0 -0.3403080482137992 0.17465208151059766
2880000000.0 0.3530886751417699 0.1171551302455423
2900000000.0 0.34945336197582666 -0.12059527513558042
2920000000.0 0.2331265475275185 -0.2928546287915391
2940000000.0 -0.12578574916470048 -0.3583030379002431
2960000000.0 -0.3363695662273022 -0.17446254086621657
2980000000.0 -0.23642448746946298 -0.2954708371050747
3000000000.0 0.0719152739209328 -0.3702893751581671
3020000000.0 0.3698933116956536 -0.01725987340557405
3040000000.0 -0.2207879504177751 0.2866756196896661
3060000000.0 0.05140791160682892 -0.34801205374576255
3080000000.0 -0.245583126048745 0.24041146448551767
3100000000.0 0.2794178895209461 -0.19048653157021955
3120000000.0 -0.055141998935121554 0.3249981576489973
3140000000.0 -0.24135729850710883 -0.20407707944545866
3160000000.0 0.1947098637129116 -0.2177271455641324
3180000000.0 -0.2601205511715017 -0.049868751871021036
3200000000.0 0.22303226123340733 0.07177125562705018
3220000000.0 -0.09334440856055728 -0.18102805231248478
3240000000.0 -0.13175213847007453 0.11611197820533187
3260000000.0 0.12559654754527272 0.07247177931506726
3280000000.0 0.09805428255520018 0.050746662530517406
3300000000.0 0.06111085838019356 -0.05279660899064807
3320000000.0 0.015200159885701647 -0.05674519016513526
3340000000.0 -0.042949072400297064 -0.027332413644400744
3360000000.0 -0.01627029246660045 -0.04529981349079071
3380000000.0 -0.03671776986459161 -0.007353464599503998
3400000000.0 0.027591458626052296 -2.283281722166377e-05
3420000000.0 -0.02087686719468378 0.011125564686901988
3440000000.0 0.022483734810756526 0.004917528618914918
3460000000.0 -0.011686347933050387 -0.0007827529781672298
3480000000.0 -0.012367740177396419 -0.006592305107207416
3500000000.0 -0.01850441322999368 -0.020599747214272473
3520000000.0 -0.04736853447140507 0.008732400889703739
3540000000.0 -0.010430347470993246 -0.06293289079465464
3560000000.0 0.01360803848252136 0.07092700487146338
3580000000.0 -0.007041921519995123 0.07528002813351806
3600000000.0 0.07732768150660385 -0.004179431029122962
3620000000.0 0.08009956273031178 0.023973557002288665
3640000000.0 -0.004837774906195071 -0.09050126188901553
3660000000.0 0.05001069630415423 0.0839682189489973
3680000000.0 -0.097147089664798 0.011443826267525199
3700000000.0 0.028844164914699887 0.08979252710080231
3720000000.0 0.05716767654701525 0.07393201125688881
3740000000.0 -0.059954833062107554 0.06924361338272644
3760000000.0 -0.026494271780283206 0.0919522230812977
3780000000.0 0.07655751233020196 -0.06729637243715268
3800000000.0 -0.05062020210973688 -0.09884962682977126
3820000000.0 0.04341776210606455 0.12162766228277785
3840000000.0 0.12113692692344664 -0.08677087407723971
3860000000.0 0.001085643433470859 0.1699174340375053
3880000000.0 -0.019249685978279002 0.18549391900967496
3900000000.0 0.016916414620132877 0.19600981426121145
3920000000.0 -0.021026704069006558 0.19698867945644313
3940000000.0 -0.1963888409217538 -0.02859492872040936
3960000000.0 0.1288573897649034 -0.15497176648063307
3980000000.0 0.205222111991667 0.00812984562066067
4000000000.0 0.20135912318985835 0.007231902197965462
