!Created with skrf (http://scikit-rf.org).
# Hz S RI R 50.0 
!freq ReS11 ImS11
400000000.0 0.6649568308275698 -0.47699502280065065
420000000.0 0.2942892401340627 -0.7764768327771122
440000000.0 -0.5832657972884648 -0.4963286328911371
460000000.0 0.4944379549609884 -0.51469955784317
480000000.0 -0.16010695114084206 0.6546913746731956
500000000.0 0.632924081053822 0.12083649701187082
520000000.0 0.48582299887066244 0.32156639093716277
540000000.0 0.2707620016458507 0.4169874677850122
560000000.0 -0.4547698275167113 -0.051287588555592796
580000000.0 -0.3963954212259973 -0.08276124852460308
600000000.0 -0.34873137572970764 0.14998605695140121
620000000.0 0.3822124251408834 -0.02421132424124055
640000000.0 -0.3680941564195329 -0.1898071808384545
660000000.0 0.16600255117474955 -0.42013846018016116
680000000.0 -0.4425212506670696 0.026463491863012598
700000000.0 0.17280379886079839 0.39775989055770883
720000000.0 0.42722120447873635 -0.09370931590040972
740000000.0 -0.12454699973401634 -0.3879746585382726
760000000.0 -0.29313696556713137 -0.23543464370753375
780000000.0 -0.2827352752076713 -0.1423346134893377
800000000.0 -0.2449064899924098 -0.12157807984753642
820000000.0 0.23209466625552627 -0.06764045432886369
840000000.0 -0.12774797393077195 -0.1668695292754565
860000000.0 -0.12129915710757415 0.14109956595953185
880000000.0 0.11226943917697735 0.08882904712308655
900000000.0 -0.019222558249175948 -0.10098317688717336
920000000.0 0.06529597504771603 -0.012646578201475033
940000000.0 0.005633539840666878 -0.0478621838297168
960000000.0 -0.012384453655934883 0.06555329222819221
980000000.0 -0.02122966126009525 -0.07588781496271987
1000000000.0 -0.08200678829888666 -0.026091360455026517
1020000000.0 -0.011338713286043644 0.11277726375698448
1040000000.0 0.1203870512901665 -0.023287624408875066
1060000000.0 -0.013837946178795288 -0.1527431614779384
1080000000.0 -0.12655320040685075 0.1356806362056992
1100000000.0 -0.20410270715820586 -0.07236169357987933
1120000000.0 -0.2186267602349313 -0.14189601122474219
1140000000.0 -0.2767744212730905 -0.07768711606245592
1160000000.0 -0.08969724078290607 0.3009489434122337
1180000000.0 0.33553337832932223 -0.030667135186654464
1200000000.0 -0.3095086921690277 -0.13335639383581407
1220000000.0 -0.3592276671015998 0.03168962383574148
1240000000.0 -0.22233221717481683 0.31362943548687844
1260000000.0 0.4106386212559442 0.027934849635259842
1280000000.0 -0.36688409000592626 -0.2005649226204811
1300000000.0 -0.2940431913648164 -0.2950530695709818
1320000000.0 -0.16086038914133322 -0.39441151632976423
1340000000.0 -0.1834712307308631 -0.3991142429561362
1360000000.0 -0.36549577885970014 0.249693304151462
1380000000.0 0.18628785752496094 0.3919386520100739
1400000000.0 0.23726445746672584 -0.3422267939635348
1420000000.0 0.02823996566904837 -0.38530073726527936
1440000000.0 -0.025888389145372597 -0.3696586307103514
1460000000.0 -0.14486127320006928 0.315721101569371
1480000000.0 0.2753291478400448 -0.1597687253975713
1500000000.0 0.024073090705789838 0.27775651717761946
1520000000.0 0.025675487491135168 0.23261602044009383
1540000000.0 0.08998729731628564 0.17610435363576132
1560000000.0 0.12778484684525857 0.11069665902979527
1580000000.0 -0.04047163082547234 -0.13843242643434292
1600000000.0 -0.012047484611794338 0.11273642187202457
1620000000.0 -0.0006521371224567363 0.08958996672196408
1640000000.0 0.002186041116908031 -0.06582789992298455
1660000000.0 0.04898182834875473 -0.0056232821438208435
1680000000.0 0.023091614486551025 0.011506246499029116
1700000000.0 0.01717670570908266 -0.0025568729425889127
1720000000.0 0.03339060222829606 -0.011076227447394386
1740000000.0 -0.0350317213794038 0.04161133471231934
1760000000.0 0.007178826185649567 -0.07688270030102214
1780000000.0 0.099122941146206 -0.02783951953978753
1800000000.0 -0.033681984655182934 -0.1322430509582382
1820000000.0 0.09582232687842467 0.14316076974221797
1840000000.0 -0.19452199748217447 -0.07663105126241994
1860000000.0 0.19491539870541466 -0.14730584805046018
1880000000.0 -0.23929772183852846 0.15595952324897075
1900000000.0 -0.0943773240985315 -0.30595531545571575
1920000000.0 0.2789675018868308 0.21221397499547184
1940000000.0 -0.1473632364592403 -0.34294643845261347
1960000000.0 0.011704241786635292 0.3922238613197809
1980000000.0 0.3874540544345575 -0.11574766519693634
2000000000.0 0.1601221299238547 -0.38054758519045095
2020000000.0 -0.10860016045139867 -0.4055221581851601
2040000000.0 -0.3605711588215063 -0.2276162957827466
2060000000.0 -0.31011369160366425 0.2955620805619492
2080000000.0 0.1919918107526936 0.3766900894072585
2100000000.0 0.40429766103644776 -0.09197487317942676
2120000000.0 0.046103202892650234 -0.3968608270407297
2140000000.0 -0.317525999922502 -0.21707306282091893
2160000000.0 -0.183955305461967 -0.3124573816546316
2180000000.0 -0.32508573812003866 -0.0871869920820957
2200000000.0 -0.19156211409082935 -0.2516936459715809
2220000000.0 0.08677081827752163 -0.2923757246135062
2240000000.0 0.1612826307058743 -0.25871737847014226
2260000000.0 -0.14793645644911374 -0.2699701479814998
2280000000.0 -0.21940796301299095 0.22108357569326414
2300000000.0 0.13575002546300874 0.2846605858481224
2320000000.0 0.13211739512696 0.30877098738582814
2340000000.0 0.26594019130319585 -0.261733002609079
2360000000.0 -0.2976444928177482 0.28508890744003346
2380000000.0 0.2127509726549142 -0.40468307770200407
2400000000.0 -0.16345516147826294 0.4782670109406388
2420000000.0 0.016820278632402652 -0.558108168501524
2440000000.0 0.37730371198704354 0.4803250158367206
2460000000.0 -0.6552935756365796 -0.050452905484844615
2480000000.0 0.5465721030170296 -0.4309848496887578
2500000000.0 -0.4787851244743752 0.5430406932287005
2520000000.0 0.44877262848755634 -0.5946604152898931
2540000000.0 -0.6015126409880484 0.4595693472031449
2560000000.0 0.7630423439505689 -0.015339471984971181
2580000000.0 -0.6097464816045539 -0.4533233192133738
2600000000.0 0.33754112259158336 0.6682174765839232
2620000000.0 0.012316554046797497 -0.7307779733404685
2640000000.0 -0.6589160144583708 -0.25514502889723567
2660000000.0 0.578256303665929 0.3485099568337948
2680000000.0 -0.5781727435448375 -0.2686369756220252
2700000000.0 0.5424157974077348 0.24766238156111242
2720000000.0 -0.4918660308601907 -0.26255339596103017
2740000000.0 0.5188654826710346 0.052897984214383055
2760000000.0 -0.42989088870143366 0.22391971742295522
2780000000.0 0.3078212455085004 -0.33298281352202164
2800000000.0 -0.27919803511727864 0.32266092766010895
2820000000.0 0.34796974213633225 -0.21433593861143166
2840000000.0 -0.3639619927169975 0.1618114650718941
2860000000.0 0.3889511432020186 -0.045087553869334135
2880000000.0 -0.3507804641676085 -0.16235281155786796
2900000000.0 -0.12860753336323388 0.358009232824341
2920000000.0 0.12524342177394582 0.363339007732728
2940000000.0 0.3688657512553881 -0.1222145783213562
2960000000.0 0.14840248105865642 -0.3538240221529005
2980000000.0 0.2631306092225296 -0.2768257167148599
3000000000.0 0.3767308026116348 -0.05115204199296362
3020000000.0 0.07664832959655296 0.36648199668392545
3040000000.0 -0.3647714519246129 -0.02288913358600567
3060000000.0 0.35509331397669136 -0.05522577487744687
3080000000.0 -0.2614225702853247 0.23094450716032713
3100000000.0 0.3036623497885732 -0.14893402436533873
3120000000.0 -0.19769600290155462 0.2632278037202421
3140000000.0 0.14615181920424616 -0.2781520285558051
3160000000.0 0.16196454198312657 0.2526543044537316
3180000000.0 -0.2103778801234725 -0.17995371677055477
3200000000.0 0.1733287342511817 -0.16918037873954272
3220000000.0 -0.15985147054046087 0.12696184656956144
3240000000.0 -0.017253205610492116 0.1709500096310102
3260000000.0 0.13188648507873788 0.053075440443260784
3280000000.0 0.05111599964580203 0.09575015450370582
3300000000.0 0.07900642727048178 0.013681404753691073
3320000000.0 0.05640876119610323 -0.017984345538669993
3340000000.0 0.02698725801328816 -0.040702187943214674
3360000000.0 -0.04321263994488849 -0.00704749797563522
3380000000.0 0.02993551651698201 0.021419378871066527
3400000000.0 -0.02358499018465056 0.028084997294972224
3420000000.0 -0.03457436815360153 -0.011738578320225995
3440000000.0 0.015192516118331254 0.0226671128452189
3460000000.0 -0.013122968769907678 -0.005549636141215617
3480000000.0 -0.00392368593403152 0.012585658865666318
3500000000.0 -0.013019150591401416 0.025864225475321318
3520000000.0 -0.030835456312203146 0.029801843160409385
3540000000.0 -0.014162571209141247 0.05201216809194874
3560000000.0 0.05751928718220783 0.01243570914898961
3580000000.0 0.022768147209697803 -0.06360258799585973
3600000000.0 0.033210833938523344 0.06743427930614579
3620000000.0 0.048789476993224355 -0.0625280282689231
3640000000.0 0.03194550041480859 -0.07826282968383419
3660000000.0 0.06284182980491168 -0.06708869383708226
3680000000.0 -0.012695654003974304 0.10070928702961593
3700000000.0 -0.07815581528124348 0.0653795529833312
3720000000.0 0.015521692851097819 -0.0948628645962686
3740000000.0 -0.042504061554634376 0.07839197512810568
3760000000.0 -0.039118220005610105 -0.08570963222835508
3780000000.0 0.022903855600847726 0.10459471083942898
3800000000.0 -0.11743291452837795 -0.013997668774970459
3820000000.0 -0.041676385116945845 -0.12686454820645626
3840000000.0 -0.15080008849571205 -0.020518304534793693
3860000000.0 0.11836533271162616 -0.123772616305248
3880000000.0 0.1795542796809373 -0.05394049054332324
3900000000.0 0.18672501886654153 -0.06339963258656209
3920000000.0 0.19854624010938496 0.001604062162414959
3940000000.0 0.07751909842243018 0.18631331864852702
3960000000.0 -0.10874104257322205 0.1728564932780748
3980000000.0 0.01183155362461316 0.2040981313754519
4000000000.0 0.029688169118761088 0.18652118856642408
