!Created with skrf (http://scikit-rf.org).
# Hz S RI R 50.0 
!freq ReS11 ImS11
400000000.0 0.8179340330361495 0.08225330952330365
420000000.0 0.47592280848713786 -0.6718837465082691
440000000.0 0.25674633138182673 -0.7248248155336711
460000000.0 0.6564175611279456 -0.31378616983833085
480000000.0 0.3840863487589963 0.5511930163369247
500000000.0 0.4866460484158056 0.43502125815564796
520000000.0 0.5514639346835924 -0.19950406130351833
540000000.0 0.020128249592658236 0.5125835347957008
560000000.0 -0.4018321011797664 -0.2680671510596328
580000000.0 0.35112220872035355 -0.2504875897135062
600000000.0 0.01430431567765514 0.38304736456777405
620000000.0 -0.1623018856634009 0.31794730684028394
640000000.0 0.26617881051818815 0.2841565137382376
660000000.0 -0.19803052202898844 -0.36332125814047567
680000000.0 0.10333402491489604 -0.40483764591163124
700000000.0 -0.37478371504739605 0.19323620221253104
720000000.0 0.2528059803041407 0.33220243767754115
740000000.0 0.0914012956068204 0.3816803259875283
760000000.0 -0.35428471082133633 0.1116582386874943
780000000.0 -0.322745888584701 -0.11215028765829912
800000000.0 0.05705388550400317 -0.30431896934298613
820000000.0 -0.1282630674819792 -0.2500109885117738
840000000.0 0.11150645059902388 0.20970025903701964
860000000.0 -0.18388710037545652 -0.025747467320808886
880000000.0 0.10100336876596383 0.08925869317505453
900000000.0 -0.01717635925663091 -0.08240358007957338
920000000.0 0.01848869267462649 0.027033239785608815
940000000.0 0.01841042819775992 0.013346196787171496
960000000.0 -0.015416276876303555 -0.021882286349699895
980000000.0 0.01180389857356276 -0.035767372998023766
1000000000.0 0.0022542995538547615 -0.05302996005073558
1020000000.0 0.03903990654585546 0.08458589147923644
1040000000.0 -0.10797355127490768 0.06917806987216918
1060000000.0 -0.15426888688560184 -0.04181305205020659
1080000000.0 -0.15398435105005476 0.1302656670949158
1100000000.0 -0.14702687408238801 -0.19308119974440138
1120000000.0 -0.09644782581902031 0.2524172236259526
1140000000.0 -0.24766061837315123 0.16392838872733362
1160000000.0 0.17659084863476834 -0.26548956275232843
1180000000.0 0.03553152023741427 -0.32074491740128247
1200000000.0 -0.3030957139788294 -0.12396855336713422
1220000000.0 -0.26682353392017116 -0.21892508386957155
1240000000.0 -0.17430987280812263 -0.33154139783664505
1260000000.0 -0.34236229441550003 0.21561135290329916
1280000000.0 0.2889726627325954 0.3146355934526359
1300000000.0 0.015552043375647412 -0.4403170366356365
1320000000.0 -0.4414757095970921 -0.05259962807780864
1340000000.0 -0.05338676235205457 0.4393464559354735
1360000000.0 0.00029646052021142175 0.4337013045799367
1380000000.0 0.3801761531803684 0.19355185806176006
1400000000.0 0.363427575711524 -0.17864720748566856
1420000000.0 0.2942958655931932 -0.2431249988001587
1440000000.0 0.3046586594815611 -0.19942841990353422
1460000000.0 -0.10865865459906843 -0.33179977322840043
1480000000.0 0.14847614920281388 0.28625293718321904
1500000000.0 -0.13476854520995196 -0.24862983521006662
1520000000.0 -0.12870466342031794 -0.20679989601091162
1540000000.0 -0.2124613255042461 -0.012929982780824665
1560000000.0 0.18041428055588674 0.022236287633733476
1580000000.0 -0.092414958914333 -0.11552375944404854
1600000000.0 -0.015679404573644487 0.11667591178681537
1620000000.0 0.07360378985552711 0.05172656596067943
1640000000.0 0.005959499955994382 0.06418645565620784
1660000000.0 0.017473791868780002 -0.028312761993768053
1680000000.0 0.023111662115359304 0.003158631811215509
1700000000.0 -0.01713989506318023 -0.03123039268539103
1720000000.0 0.044361124768503415 -0.018713833671007648
1740000000.0 0.04263307468548507 -0.048596937943502214
1760000000.0 -0.0771952775089387 -0.0037309337776853004
1780000000.0 -0.05200987930005663 -0.08549790532926992
1800000000.0 -0.12987304110723774 -0.021943272870529894
1820000000.0 -0.13091155012733408 0.10321071615304855
1840000000.0 0.2063032946990797 0.018930023635290446
1860000000.0 -0.03541833317277699 0.25120267715856126
1880000000.0 -0.25805453801834743 0.14196152857499247
1900000000.0 0.014066373517207712 -0.32756042496655297
1920000000.0 0.30604748623348227 0.1883449831781972
1940000000.0 -0.36716915904704034 -0.09987371325730965
1960000000.0 0.30725737196212977 0.24873395688606595
1980000000.0 0.2496717979635657 -0.3135467178597185
2000000000.0 0.2952824109036978 -0.28220304164481436
2020000000.0 0.30511251327019656 -0.2914376493331224
2040000000.0 0.0027308576128682103 -0.43347152564457303
2060000000.0 -0.4383314762925971 -0.005633636870790354
2080000000.0 -0.01201973261063772 0.4358218306786362
2100000000.0 0.4247007353877688 0.0007028248471817508
2120000000.0 0.08970897511032888 -0.40290445875877534
2140000000.0 -0.3924225495764831 -0.031344280020000656
2160000000.0 -0.2903840384851046 -0.23108675638355122
2180000000.0 -0.29717939943189203 0.16950901368489046
2200000000.0 -0.31434486065557726 -0.03556290707940598
2220000000.0 0.07372923345698297 -0.2916115687794842
2240000000.0 0.2921257312715131 0.08230448745524027
2260000000.0 0.2559506322197845 -0.17466812335584705
2280000000.0 -0.1386239387645085 -0.28701025498316174
2300000000.0 -0.00035055685538317176 0.33133274200520646
2320000000.0 0.2228245934982023 -0.26768770858421054
2340000000.0 -0.369088353885775 0.05542705882286359
2360000000.0 0.34304929636597264 0.2107566623911865
2380000000.0 0.002212321039892895 -0.4438141999701177
2400000000.0 -0.25100260371864064 0.4244378798001396
2420000000.0 0.24617154895543297 -0.4909219505062852
2440000000.0 0.10337513927765257 0.5943120633983855
2460000000.0 -0.47808338130948796 -0.44125863289905
2480000000.0 0.6691955100158814 0.16863704975290839
2500000000.0 -0.7139377224787535 -0.09181150394890712
2520000000.0 0.7104130720234325 0.21303942502708928
2540000000.0 -0.6640824985762824 -0.35806538891965106
2560000000.0 0.3805819810739649 0.6596391494920805
2580000000.0 0.19723085343535285 -0.7338038105702153
2600000000.0 -0.5534189687496479 0.5057815194972216
2620000000.0 0.7019000636783099 -0.21448672028560642
2640000000.0 0.1309157352696947 -0.6990100673671888
2660000000.0 -0.2239107028799059 0.6426310706025429
2680000000.0 0.07056814778662841 -0.6414594524778003
2700000000.0 0.11828375047856345 0.5936719442415175
2720000000.0 -0.3405001318666291 -0.44548947382730814
2740000000.0 0.3862042021883842 0.34396961044787744
2760000000.0 -0.33227771058045213 -0.3441567397381498
2780000000.0 0.2238183482964677 0.3870603908925958
2800000000.0 -0.08110852545739428 -0.41762406738106017
2820000000.0 0.06710814210356597 0.40626766115422946
2840000000.0 -0.21736192776087068 -0.33999064398311674
2860000000.0 0.3128100330624762 0.24603321152686808
2880000000.0 -0.3474693319542985 -0.18251903110756773
2900000000.0 0.1797818828747422 0.3397117839010677
2920000000.0 0.3514895989699429 -0.13835424040834218
2940000000.0 0.24721445801335348 -0.27971032961883324
2960000000.0 0.3541097763797736 -0.10500851687320922
2980000000.0 0.2174676275662246 0.2986214726492271
3000000000.0 -0.18529971392520847 0.32316230402226104
3020000000.0 -0.36394500196255025 -0.074319677060016
3040000000.0 0.10283030766398393 -0.35332366908296087
3060000000.0 0.2768496882053444 0.23212786999622562
3080000000.0 -0.3384593680692965 0.09682573991891877
3100000000.0 0.01316631033674548 -0.3349962355559583
3120000000.0 -0.17998732841320342 0.257410715447047
3140000000.0 0.28640492822635716 -0.08052493596243282
3160000000.0 -0.21558449454277703 -0.18117459101945746
3180000000.0 -0.21257782313314544 0.157618214973461
3200000000.0 0.08680182899909242 -0.22646993919699196
3220000000.0 0.09212144737072149 0.19212691484082467
3240000000.0 0.05373436850290551 -0.17313216474991489
3260000000.0 -0.14465018954738432 -0.04295684139727944
3280000000.0 -0.0502953866847124 0.10476570064377944
3300000000.0 0.027391682054170637 0.07810985184810693
3320000000.0 0.005636917789307835 -0.06060258596703409
3340000000.0 0.05164761873387221 0.016778786904198855
3360000000.0 0.04872113197837441 0.031402563839881444
3380000000.0 0.007280494984831475 0.05992903841262637
3400000000.0 0.027300719772420868 -0.04374098274549923
3420000000.0 -0.019807184245294835 0.030778930341327077
3440000000.0 -0.01728649080328831 -0.012977294749549539
3460000000.0 -0.014374357214324682 0.004317719716000886
3480000000.0 0.01489048967243899 -0.010126388220342567
3500000000.0 -0.0011642690492971487 -0.0229214322466248
3520000000.0 -0.010107740146962661 -0.02565218280592795
3540000000.0 -0.034917945427429556 0.005126587353481359
3560000000.0 -0.00010785775031642093 -0.04506109914692174
3580000000.0 0.012789206818349405 -0.05827376107008808
3600000000.0 -0.028750398086461727 0.06957007353872936
3620000000.0 -0.019228389346463447 0.08913731079033874
3640000000.0 0.09411539608681765 -0.0326906755390286
3660000000.0 -0.07431656193180985 -0.07006973541951672
3680000000.0 0.09368712278822233 0.018163055543422298
3700000000.0 0.04765279368472956 0.07555283450651036
3720000000.0 0.04435469581272887 -0.07657999289241478
3740000000.0 -0.09565407880320372 0.003612726819839254
3760000000.0 0.09554555923707708 -0.05471964101929526
3780000000.0 -0.07110396855528055 -0.1006900795295018
3800000000.0 0.011653830864689256 0.13010716468288508
3820000000.0 0.12091379051372891 -0.06302901659370647
3840000000.0 0.14097799305775738 -0.003553608848313429
3860000000.0 0.12432114057589157 0.09210334397361518
3880000000.0 0.07352413033738438 -0.16101925586386426
3900000000.0 0.19983369566796869 0.006304435220282717
3920000000.0 -0.11947831728867024 -0.17716749575146334
3940000000.0 -0.07183296113695499 0.20384795355020416
3960000000.0 0.14655082950449808 0.14878124480555305
3980000000.0 0.03782472953804165 0.193864327296258
4000000000.0 -0.17951842211125635 -0.03559690191662416
