!Created with skrf (http://scikit-rf.org).
# Hz S RI R 50.0 
!freq ReS11 ImS11
400000000.0 0.6910289771881485 -0.46269512178249683
420000000.0 -0.016163599414696295 -0.8330352390095747
440000000.0 -0.7397234415739563 -0.24947843648054893
460000000.0 -0.5906644326529598 -0.4173412971523831
480000000.0 0.5820133074962276 -0.2982878469970766
500000000.0 0.28318262573749303 -0.557490457230796
520000000.0 0.2641388151409596 0.4680192608128477
540000000.0 0.4110169169589161 -0.2710526250559337
560000000.0 0.4442501378746013 0.14773317572690048
580000000.0 -0.23249581012215553 -0.35856434064024173
600000000.0 0.36520860119116744 -0.10652796963255236
620000000.0 -0.03967060849818871 0.36179692870277386
640000000.0 -0.23199486605690614 -0.3449346556062112
660000000.0 0.4467987111141252 -0.013215594148538278
680000000.0 0.19250805779927596 -0.4150459811596689
700000000.0 0.43059428345453143 0.1530950320314043
720000000.0 -0.4302018219978192 0.10335802226208828
740000000.0 -0.008463541895381173 0.3944106080157329
760000000.0 0.0736622968383596 -0.3346918050273346
780000000.0 -0.31951728817324854 -0.06315277797943034
800000000.0 -0.21988460139199875 0.1926756237702881
820000000.0 -0.056059931889071754 -0.23830276160051556
840000000.0 -0.18823170622708235 0.09454397015114903
860000000.0 -0.13155168083945668 0.11928298002886839
880000000.0 0.01826438609578571 -0.1409544964090763
900000000.0 0.044305929465266125 0.10629181339160175
920000000.0 0.07056576815996599 -0.042049479474228234
940000000.0 -0.050811669433026785 0.0031567462472058046
960000000.0 -0.04711099396640976 0.021605017343452812
980000000.0 -0.05466257236163568 0.02592541826783096
1000000000.0 0.03817236209008285 -0.060498705888221496
1020000000.0 -0.09612382058813368 -0.023883442362132554
1040000000.0 -0.12866149301374163 0.019256090876655273
1060000000.0 -0.03671515366496179 -0.1554123242630232
1080000000.0 -0.09350612265226341 -0.17038431166986984
1100000000.0 0.09885247449154597 0.2059432897085053
1120000000.0 0.1337839202336715 0.21393158340162355
1140000000.0 -0.275648116247245 -0.055519161162859446
1160000000.0 0.05415842874030009 0.3020731926090866
1180000000.0 0.05035481193043714 0.3265756935010485
1200000000.0 -0.1628799481845623 -0.30115173490075864
1220000000.0 -0.3653166272286137 -0.04700399130460728
1240000000.0 0.2289734073359038 0.31131729630504207
1260000000.0 0.4012297474416343 -0.07033617425721132
1280000000.0 -0.2603437211078475 -0.32577771764126573
1300000000.0 -0.17887634870389527 -0.37911014205551785
1320000000.0 -0.23289721029164392 -0.3678511908642148
1340000000.0 -0.4371893630623777 -0.05388792018396075
1360000000.0 -0.14532085455178959 0.4141941157197494
1380000000.0 0.17017495231345825 0.38998575008606834
1400000000.0 0.3783979751459099 0.16943147164027036
1420000000.0 0.13259864933564744 -0.3719626113168327
1440000000.0 -0.3219254278118597 -0.18211237203516525
1460000000.0 -0.10793099482473624 0.323962746108493
1480000000.0 0.3081522213513947 0.057328830173283586
1500000000.0 -0.27897912330949515 -0.00252804610946895
1520000000.0 0.15502441188349367 0.188280250147929
1540000000.0 -0.04687685885302324 -0.18633612933636526
1560000000.0 -0.035240600281713504 0.15444386526154327
1580000000.0 -0.14035696813077234 0.024296031490576766
1600000000.0 0.09988136594330665 -0.07679890309481839
1620000000.0 -0.05243532145960644 0.08746067926544643
1640000000.0 -0.03831067227211756 -0.05354409774066241
1660000000.0 -0.02824292825073264 -0.023201569346356386
1680000000.0 -0.023723585143663226 0.008125480595842135
1700000000.0 0.011849614029894153 0.019619231011175808
1720000000.0 -0.0041748923053307125 -0.031614297177213306
1740000000.0 0.046907086076552244 0.01650661419482889
1760000000.0 0.0027828785731317364 0.07058886394717807
1780000000.0 0.01597777281654066 -0.10504423375766175
1800000000.0 -0.14575414358279695 -0.015006672990459534
1820000000.0 -0.01918403626901376 -0.17204305055984578
1840000000.0 -0.10459099730820742 -0.174804070191221
1860000000.0 0.08575279306429369 0.2371527041547413
1880000000.0 0.17374752733557322 0.2405039861388394
1900000000.0 -0.12219492318682024 0.29290630626592423
1920000000.0 0.26745011585576195 0.2060788704335893
1940000000.0 0.3167446842654397 -0.18810238239995247
1960000000.0 -0.34329756931188127 0.20336922464360863
1980000000.0 0.3333334998519212 -0.2371759986741722
2000000000.0 -0.15300848735582304 -0.3810777000857823
2020000000.0 -0.07452966319802241 -0.4053658316082289
2040000000.0 0.08766891143718897 -0.41463299587957
2060000000.0 -0.4336961793496164 0.028427217336599055
2080000000.0 0.36106402819038 0.23353926667386846
2100000000.0 0.061343270504043944 -0.4085577805093391
2120000000.0 -0.056056942652240024 -0.3883826346125453
2140000000.0 -0.2214625283535384 -0.30686262246774476
2160000000.0 -0.0072117882162419334 -0.36203064910827976
2180000000.0 -0.33218757099016133 -0.06123227339946891
2200000000.0 -0.2892456900063578 -0.12359663348078502
2220000000.0 0.025992834644098853 -0.30254095569992634
2240000000.0 -0.09150784027903537 -0.29069617040614665
2260000000.0 -0.2892589826456177 -0.08979311919367658
2280000000.0 -0.2894136825737758 0.09770537279232128
2300000000.0 -0.23290085018266266 0.21469771286110625
2320000000.0 0.12407445550878017 0.31620875561631084
2340000000.0 0.2054227754103529 -0.3114742681077125
2360000000.0 -0.3034266623713352 0.2751004338923652
2380000000.0 0.3653651306766356 -0.2683773193213051
2400000000.0 -0.3854288311805292 0.32108846889260045
2420000000.0 0.31836735353409895 -0.4566191277297549
2440000000.0 0.20974156011655323 0.5710332096814964
2460000000.0 -0.6206499830472362 -0.20451320016951113
2480000000.0 0.6446219671435712 -0.25436474514508217
2500000000.0 -0.6203855964686952 0.37086070809161037
2520000000.0 0.658995479629898 -0.3448191238172979
2540000000.0 -0.7388737159179222 0.1640971694544949
2560000000.0 0.6634191293297574 0.37458392567866083
2580000000.0 -0.2193606781004855 -0.7276358729538835
2600000000.0 -0.014761899558475665 0.7491181098106556
2620000000.0 0.21765249204037207 -0.6998760167276395
2640000000.0 -0.44924311006776263 -0.5495667251601123
2660000000.0 0.43720159828410987 0.5182131884541841
2680000000.0 -0.4907497071324357 -0.41183636910550864
2700000000.0 0.43663132977610664 0.41475868606490696
2720000000.0 -0.37420333222950075 -0.4230949743920699
2740000000.0 0.5021344300210678 0.1600893427355732
2760000000.0 -0.48376422615303905 0.06695675291871374
2780000000.0 0.45569416397090845 -0.028592275757897825
2800000000.0 -0.4329849751808425 0.0081202792149187
2820000000.0 0.35286699394103826 -0.21648538718756938
2840000000.0 -0.3398556847066888 0.210030481547933
2860000000.0 0.36285298867489135 -0.1459789271184236
2880000000.0 -0.3321100654670363 -0.19233612217724028
2900000000.0 -0.2803186619651787 0.2602149909088427
2920000000.0 0.25571922195490954 0.2893429226774685
2940000000.0 0.30308101495662726 -0.23718105541014678
2960000000.0 0.05737347672159456 -0.3753196382942854
2980000000.0 0.2243785667503971 -0.2995683399039086
3000000000.0 0.1930802819227021 0.321640969344165
3020000000.0 -0.14262665821072404 0.34925686344596757
3040000000.0 -0.36900423421453044 -0.03863887275175842
3060000000.0 0.1431529512675068 -0.3304047894179345
3080000000.0 -0.13630572012798942 0.3204176784240422
3100000000.0 0.1175086550270225 -0.31548857877706366
3120000000.0 -0.0986485235900967 0.31172728917041426
3140000000.0 -0.1790765312953036 -0.25833588405979013
3160000000.0 0.29499154030025343 0.006747737805507417
3180000000.0 -0.21206813598536547 -0.1676996288179105
3200000000.0 0.18923258044866087 0.15021902780643462
3220000000.0 -0.21221721234729116 0.015128495851959321
3240000000.0 0.16782783308966043 0.04976707465106759
3260000000.0 0.11405964199155114 0.08293113951282383
3280000000.0 -0.05833578531394143 0.09452591160606362
3300000000.0 0.08430372894767675 -0.005236659277317981
3320000000.0 -0.03171998803316538 0.05471079777021647
3340000000.0 0.004604308547576434 -0.046559441818690664
3360000000.0 0.03902523116817469 0.007105942639224749
3380000000.0 -0.03153231749838654 -0.027242001323537858
3400000000.0 0.01362274555204672 0.03848121407621833
3420000000.0 0.02745175397887983 0.016346006423376268
3440000000.0 -0.018404081223123724 0.01121749742352541
3460000000.0 -0.006074270165470704 -0.016643873878371015
3480000000.0 -0.009249361784370767 0.016301350772660334
3500000000.0 0.016833420362586123 -0.023006871670460106
3520000000.0 -0.03680162107505758 0.01959562616785202
3540000000.0 0.05076985419768223 0.0068378700544013725
3560000000.0 -0.05805080500494587 -0.012130238815263981
3580000000.0 0.04998073152287814 0.04113000547559582
3600000000.0 -0.06867216196866978 0.012930996796244777
3620000000.0 -0.011051298596797453 0.07984847544820536
3640000000.0 0.0553330766527002 -0.07029524558494603
3660000000.0 0.08222951520260097 0.049717172292352146
3680000000.0 -0.09824991345072828 -0.021154568408515595
3700000000.0 0.09778512127280614 -0.023687975230294766
3720000000.0 -0.090177054166994 0.034922865135052605
3740000000.0 0.029253669991208375 -0.08378060674865197
3760000000.0 -0.07123719687799313 -0.05622442921632843
3780000000.0 -0.10550491387545288 -0.0028091138157198808
3800000000.0 0.02147112501169992 -0.11796671807882074
3820000000.0 -0.059814629680773244 -0.12318439528554964
3840000000.0 -0.08682285082800699 0.12309021903588191
3860000000.0 -0.005285206948764134 -0.17043854194097355
3880000000.0 0.10702630948923511 -0.15186657762084094
3900000000.0 0.1954859309318844 0.013924027958506809
3920000000.0 0.1498579686541981 0.1387436947950015
3940000000.0 0.002803025473359154 0.20889836942093795
3960000000.0 -0.188166066227759 0.09911220627636554
3980000000.0 -0.19111054780812767 0.08749591448130832
4000000000.0 -0.19356757272778696 0.04212945568454973
