!Created with skrf (http://scikit-rf.org).
# Hz S RI R 50.0 
!freq ReS11 ImS11
400000000.0 0.7476824318144173 0.36207061565574905
420000000.0 0.5914106938622032 -0.5839921770827103
440000000.0 -0.2286358839345355 -0.7351459349938284
460000000.0 0.3076699264214833 -0.6513686732868126
480000000.0 0.06580964511749546 0.6555077171526479
500000000.0 0.6314445924309111 0.0026147136064074944
520000000.0 -0.1784113210171573 0.5285769697078565
540000000.0 -0.4885354100935695 0.12905608736136495
560000000.0 0.16310169056965515 -0.4460187661506647
580000000.0 -0.1351565058244081 0.41613344118950524
600000000.0 -0.27972420418837124 -0.2708534647694379
620000000.0 -0.16339046219716472 -0.33411356971328476
640000000.0 -0.31700619123433144 0.2444410717562034
660000000.0 0.39926365128888713 -0.17804544840316072
680000000.0 -0.2534800172411905 -0.3626756198340892
700000000.0 0.2673353147211709 0.33816566855679164
720000000.0 0.28948669124582227 -0.3056072677473009
740000000.0 0.3308182688937634 0.20540157837552894
760000000.0 -0.24215518175188172 0.27178169059420404
780000000.0 7.60839084569004e-05 -0.3391776351964766
800000000.0 0.28264519552842043 -0.13879846042578847
820000000.0 -0.20439266728026464 0.19390232861335163
840000000.0 -0.1828606035264233 -0.10576616446448286
860000000.0 -0.1828550357491325 0.04315759331100325
880000000.0 -0.14651799073944738 0.012347966223859677
900000000.0 -0.04844741334196124 0.11201756963408499
920000000.0 -0.03627384100725187 -0.07684396096162711
940000000.0 -0.026366161448075288 0.031196955421414665
960000000.0 0.04593771334999128 -0.017661480728883044
980000000.0 -0.00788858033798284 -0.05903571523754955
1000000000.0 -0.057471469359284905 0.0462215894067166
1020000000.0 0.05325645763264539 0.07979226194366419
1040000000.0 -0.07972969179532169 0.07815318114312295
1060000000.0 -0.12149259082634535 -0.07751473498549702
1080000000.0 -0.13804926125035782 0.11485544554145904
1100000000.0 -0.20417169979948266 0.05224329788492385
1120000000.0 -0.11816835641585176 0.22115801528263668
1140000000.0 -0.27722176994716113 0.01823202343351641
1160000000.0 0.18672835067625437 0.23368089437571313
1180000000.0 -0.1295940335197578 0.2911951683994674
1200000000.0 0.2024778939936607 -0.2690729823569692
1220000000.0 -0.17090804433547604 -0.32108075316517554
1240000000.0 0.004638080675832983 0.38918486059123886
1260000000.0 0.4061299344947094 0.0006144046417885373
1280000000.0 -0.031166065589220627 -0.41961705941929217
1300000000.0 -0.356243148278937 -0.23528382611125362
1320000000.0 -0.42014562887391355 -0.10942029005279813
1340000000.0 -0.41749967638702495 0.15597985649667162
1360000000.0 0.42115984312031257 0.1304625026582176
1380000000.0 0.30249999020702184 0.2936723584068266
1400000000.0 0.4092677989262722 0.05456004702665942
1420000000.0 0.3780692146454897 -0.11930099714219924
1440000000.0 -0.020930104386656413 -0.384418504566028
1460000000.0 -0.03534299726621843 0.3595811276475141
1480000000.0 0.22324537284134077 -0.23878270925827133
1500000000.0 -0.2865036384223506 -0.028082544749124045
1520000000.0 -0.2087039322904863 -0.15044751431924996
1540000000.0 0.21780038789797823 -0.058299870940881834
1560000000.0 -0.035324542965981386 -0.18076297863320975
1580000000.0 0.012629172166660114 -0.1548005860343046
1600000000.0 0.013914623001987753 -0.13318002269326873
1620000000.0 0.06867822974862585 -0.09333739900725768
1640000000.0 -0.08529241459267656 0.002811626343879626
1660000000.0 0.017169323715561135 0.05665966742155451
1680000000.0 0.00877391134853741 -0.03402615538988634
1700000000.0 0.01770938263323628 0.007509807321737291
1720000000.0 0.010047562215215033 -0.026827688109734217
1740000000.0 0.044896433456963473 -0.008700305784180028
1760000000.0 0.0156677583973118 0.0656301066938273
1780000000.0 -0.09776877830946656 0.01573779432037812
1800000000.0 0.03096000514612613 -0.1279002218739075
1820000000.0 -0.10834615600503719 0.11661738917463838
1840000000.0 -0.0293037675207558 0.19089425447383673
1860000000.0 -0.22876192866061074 -0.04890608053992431
1880000000.0 0.2616736188804668 0.06382370642486636
1900000000.0 -0.29779207066427954 -0.02177571435329706
1920000000.0 0.05733063666698786 0.32987061418910973
1940000000.0 0.06763063792583535 -0.36002242229674913
1960000000.0 -0.26360087179420016 0.2850188518507485
1980000000.0 0.3837139858853474 0.1381244935630095
2000000000.0 -0.09027464953844663 -0.408385460675867
2020000000.0 -0.29409183709825193 -0.30566046852151424
2040000000.0 -0.43025688747165 -0.0388748708041661
2060000000.0 -0.06552482333048706 0.4316343313888675
2080000000.0 0.42884700142602866 0.006151741662904297
2100000000.0 0.19983424618037107 -0.362493435531072
2120000000.0 0.06676268492073278 -0.3942939543636109
2140000000.0 -0.3192331286374486 -0.21914359651203502
2160000000.0 -0.11715456319560771 -0.34538480414230366
2180000000.0 -0.1625944422332225 -0.29899896001140946
2200000000.0 -0.08153008904011133 -0.3142089261791618
2220000000.0 -0.13992787034750945 -0.2800771527371534
2240000000.0 -0.2923693686461015 0.09563252556421543
2260000000.0 -0.1660397122728398 0.24528594970896342
2280000000.0 -0.22008278617401167 0.20263395295085546
2300000000.0 0.24641033049502506 0.19060285391327678
2320000000.0 0.1424649869681423 -0.2941802225516269
2340000000.0 -0.3073175577843581 -0.17156620677582837
2360000000.0 -0.0159373600656503 0.3859796183142491
2380000000.0 0.249060344032656 -0.3570775917486507
2400000000.0 -0.10576888520849649 0.4735003987050909
2420000000.0 0.028604262787918062 -0.5351053089663008
2440000000.0 0.20731434398524914 0.5526345009676198
2460000000.0 -0.5206094301846644 -0.37026594381739103
2480000000.0 0.6698374668333659 0.11176934653151059
2500000000.0 -0.7059121204275018 -0.08181320724666574
2520000000.0 0.707238273915438 0.1948638120737823
2540000000.0 -0.673127422515061 -0.32448122105553223
2560000000.0 0.34807862408603274 0.6690211607360416
2580000000.0 0.21131325745185744 -0.7218054132953354
2600000000.0 -0.5866143484859204 0.4541148113586836
2620000000.0 0.7015024365530009 -0.18373391579851941
2640000000.0 0.18912599176620404 -0.6755534325226503
2660000000.0 -0.31995696003438273 0.5892468154293592
2680000000.0 0.2448802604472572 -0.5866816197072195
2700000000.0 -0.09159790940309144 0.5910699696246617
2720000000.0 -0.19448879726437826 -0.5223788706099786
2740000000.0 0.40349423783328386 0.32595916266560643
2760000000.0 -0.48056769515049574 -0.029305164099506995
2780000000.0 0.42992635017382536 -0.1339066728464278
2800000000.0 -0.3986612803299141 0.15258340496631118
2820000000.0 0.36470649154788076 -0.18491075234291668
2840000000.0 -0.3999416923757817 0.0016512399478789356
2860000000.0 0.3830944667198941 0.10688771740989114
2880000000.0 -0.3239694128450771 -0.22510476637800175
2900000000.0 -0.09849242756632123 0.38015719917931945
2920000000.0 0.35331006402528076 0.17350025814606052
2940000000.0 0.3166598831954908 -0.23609439544456662
2960000000.0 0.1329578446889871 -0.36717482798281703
2980000000.0 0.3361640638149 -0.1880685662880699
3000000000.0 0.17662551454816827 0.34235855081613137
3020000000.0 -0.36986045698864045 0.09498102064103986
3040000000.0 -0.008757254156651526 -0.37770590732667403
3060000000.0 0.3145604474300043 0.1980826428869797
3080000000.0 -0.35755559026971767 -0.05695175120915131
3100000000.0 0.3492139744057238 -0.0240899778157885
3120000000.0 -0.31669644576745626 0.11811811069732663
3140000000.0 0.19689949041773705 -0.2604257095612701
3160000000.0 0.15724749635507623 0.26296884265751463
3180000000.0 0.031117908885378895 -0.2806997429082652
3200000000.0 0.19630610001051182 0.15999242974271832
3220000000.0 -0.22009835754387508 -0.039357877285645555
3240000000.0 0.1444797578800292 -0.12306802666241791
3260000000.0 -0.1536469057000016 -0.003950724661549349
3280000000.0 -0.0805585783971626 -0.08994948471543017
3300000000.0 -0.025335378419716222 -0.09295696574070693
3320000000.0 -0.03668666452921105 -0.057826468243690345
3340000000.0 0.025533480318899314 -0.03590122806530512
3360000000.0 0.024365451910654694 0.022438467915808023
3380000000.0 -0.025681547344396725 0.0038408503718064665
3400000000.0 -0.019425386521341754 0.01190048799314643
3420000000.0 0.01938784994699074 0.005377987460377512
3440000000.0 -0.011265199119141277 0.011236957912015746
3460000000.0 -0.00854583503107807 -0.004535052181260352
3480000000.0 0.013099599541561325 0.008307109242355604
3500000000.0 0.0234354193433942 -0.01891843046236901
3520000000.0 0.005765783920763621 0.04131236802861769
3540000000.0 0.021200703494477998 0.04822726237953185
3560000000.0 0.004669774459957032 -0.06310142342456071
3580000000.0 0.07030119003604705 -0.016469467324869085
3600000000.0 -0.0034906935231477972 -0.0809857888006096
3620000000.0 0.07291031845018076 0.05621540342550384
3640000000.0 -0.09836291841161267 -0.005853747142081522
3660000000.0 0.08687415467758856 -0.05846299223972731
3680000000.0 -0.08263136314850661 0.06977702893930367
3700000000.0 0.03620005424175779 -0.10374647902600262
3720000000.0 -0.04352557023343509 0.09764322076403514
3740000000.0 -0.06843554046238616 0.07790581439894556
3760000000.0 0.05599000837556427 0.09206124326576509
3780000000.0 -0.11592494633507153 -0.011520177101259601
3800000000.0 0.013302649313593366 -0.12429129517967026
3820000000.0 0.06204113697227663 -0.12718303754452526
3840000000.0 -0.10277907426106941 0.11669248112277261
3860000000.0 0.16984689566030625 -0.009868622881770374
3880000000.0 -0.06263948578347352 0.17726891289727287
3900000000.0 -0.17970726103260534 -0.08781518546701017
3920000000.0 -0.019675859030611635 -0.2103277834266592
3940000000.0 -0.153332457450563 -0.15545390408778695
3960000000.0 -0.21652828145775666 0.02111451014188753
3980000000.0 -0.2113610949725559 0.038949522927292514
4000000000.0 -0.12120516151616395 0.17232627739995834
