!Created with skrf (http://scikit-rf.org).
# Hz S RI R 50.0 
!freq ReS11 ImS11
400000000.0 0.6886160469342933 -0.4389945679012177
420000000.0 0.4971114321535411 -0.6549967722868736
440000000.0 -0.05004683145488298 -0.773352732931672
460000000.0 -0.060174394203394946 -0.7193390273250162
480000000.0 -0.05363554863455123 0.6642222607570459
500000000.0 0.6397012133409443 0.0804855974148228
520000000.0 0.2800339334624665 0.49805310368521183
540000000.0 -0.5053598967573147 0.028502373703945483
560000000.0 -0.46611297269596685 -0.1195680785083308
580000000.0 0.31673696379072763 0.2702002381220051
600000000.0 0.24047780428149912 -0.2858563085160401
620000000.0 0.3594204294153867 0.050035399483858066
640000000.0 -0.27404835609843714 -0.2985560775188045
660000000.0 0.15918637945554345 0.4140561267837644
680000000.0 0.21771624260223368 -0.40503522008516707
700000000.0 0.457467950956906 0.04651990850771289
720000000.0 -0.3236673500115504 0.29298537309807804
740000000.0 -0.3546948515295222 0.14408555087419417
760000000.0 0.2920598949874469 0.20557693169969998
780000000.0 0.16567049306028486 0.28099327606187524
800000000.0 -0.2771011792957691 -0.08493590671271671
820000000.0 -0.23921311234974768 -0.06815274462935232
840000000.0 -0.17631020739926345 0.10424005306886111
860000000.0 -0.07416047682462182 0.16824473277243784
880000000.0 0.050573668994209155 0.12961151193503176
900000000.0 0.09558700648102884 -0.040993104600202696
920000000.0 0.07211833650378785 -0.009464185330034416
940000000.0 -0.004416848240820173 -0.04439998648210784
960000000.0 0.05457318331614612 -0.012974788925840754
980000000.0 -0.07361919489940659 -0.0003906888152461417
1000000000.0 -0.0433225040233608 0.07482643886447894
1020000000.0 0.02741714378157631 -0.11599386696622326
1040000000.0 0.10157246500116976 0.08215419537126578
1060000000.0 0.1282551039865505 0.08254001355164806
1080000000.0 -0.08244165695927479 0.16678165631679132
1100000000.0 0.012940662871137496 0.21058320828452917
1120000000.0 -0.08726401369081936 -0.2368489451529089
1140000000.0 0.06745856961873375 -0.27694029593708136
1160000000.0 -0.3103445585415999 0.08523285929167565
1180000000.0 0.3102553965857543 -0.1482023820409737
1200000000.0 -0.13975123175527998 0.3087702431708977
1220000000.0 -0.2985357423774373 0.19188326918804072
1240000000.0 -0.3058845472517962 0.22409691529915976
1260000000.0 0.2966928955685523 0.28139994311642175
1280000000.0 0.01975051930264101 -0.41885068726601205
1300000000.0 -0.21605263490102083 -0.363238269546148
1320000000.0 -0.24772880998274138 -0.35150671707437203
1340000000.0 -0.31297562492603376 -0.31121138936081605
1360000000.0 -0.2343909865938045 0.37529660426894257
1380000000.0 0.22310712386486733 0.3671173746611995
1400000000.0 0.3230635399576765 -0.2617721948760806
1420000000.0 0.025006739317900616 -0.3886137754100767
1440000000.0 -0.30096725706568567 -0.21557828921151637
1460000000.0 -0.2726382536230044 0.2052733115440776
1480000000.0 0.2897515334093842 0.12936349109078124
1500000000.0 -0.1991898350604167 0.20035659665473643
1520000000.0 0.004221796954859733 0.24029220865441464
1540000000.0 0.10392317218495067 -0.17122718587634006
1560000000.0 0.07725862245328158 0.1430969872014575
1580000000.0 0.04014602272332719 0.14036436284953374
1600000000.0 -0.10697876005208949 0.054433354385129695
1620000000.0 0.09467825873838992 -0.004612500245829813
1640000000.0 0.03650737883109968 -0.061290575165876306
1660000000.0 -0.04269507988827722 -0.0028759910384196273
1680000000.0 -0.018775372259492745 -0.0032920754765219614
1700000000.0 -0.004337887038013872 0.02170410388194278
1720000000.0 -0.03627282360843409 0.013387677649403528
1740000000.0 0.05182914525904691 0.028641242332110406
1760000000.0 0.004420274716789396 0.07580808814113571
1780000000.0 0.09496288502158465 -0.029710430359664513
1800000000.0 -0.030617300323229527 -0.12950409955726047
1820000000.0 0.004093879586291741 0.17107470758589075
1840000000.0 -0.06374949385452928 -0.19495089109704478
1860000000.0 0.2458177980942391 -0.004930314145001297
1880000000.0 -0.18571622099121834 0.215474787002834
1900000000.0 -0.2381879281187947 -0.20863190285634453
1920000000.0 0.1376185070369473 0.3148573155344306
1940000000.0 0.2046807838762779 -0.31019175998220744
1960000000.0 -0.3163932460574229 0.24367787710099134
1980000000.0 0.18756476946920309 -0.3681777564392541
2000000000.0 -0.32537160171063184 -0.2498846099053189
2020000000.0 -0.18738923117067507 -0.36845223375765807
2040000000.0 -0.18847854541735923 -0.3783990704428733
2060000000.0 -0.42712787015085274 0.03528616081289352
2080000000.0 0.1387623753480544 0.4027119650432829
2100000000.0 0.3942067480676597 -0.12995308015722676
2120000000.0 0.059055930897775964 -0.3930682251752688
2140000000.0 -0.1591897532834128 -0.34628333352124063
2160000000.0 0.15446323532685818 -0.3270458317229307
2180000000.0 -0.21204962248056106 -0.2686972125478312
2200000000.0 -0.31860176656467387 -0.03439762329611339
2220000000.0 -0.1511293495099033 -0.26174514611468025
2240000000.0 0.09038597652437975 -0.2834980678833571
2260000000.0 -0.0960869353283476 -0.2842811282382089
2280000000.0 -0.2956053169660729 -0.0820324648499155
2300000000.0 -0.1268193280052034 0.2895686182861341
2320000000.0 0.17199857488580236 0.28851979248471776
2340000000.0 0.09976357376851584 -0.3560725777909504
2360000000.0 -0.2620375574259286 0.30927888069307696
2380000000.0 0.39575727839395486 -0.211843680751142
2400000000.0 -0.44335682718942376 0.23823696913702452
2420000000.0 0.16050667209175615 -0.5344541026745078
2440000000.0 0.3328124430127014 0.5084694015695054
2460000000.0 -0.6313693935267836 -0.16852921576576946
2480000000.0 0.6924153720672542 -0.017755153734089067
2500000000.0 -0.7099365679048323 0.13638446796143522
2520000000.0 0.7325372963320358 -0.13925077245308592
2540000000.0 -0.7584588153771226 -0.022567936493150555
2560000000.0 0.6267864728187484 0.43767593084092943
2580000000.0 -0.22505270787879084 -0.7286528639658328
2600000000.0 -0.11446274041350951 0.7426787274776208
2620000000.0 0.20824532374202837 -0.7034844234163883
2640000000.0 -0.5123567338187686 -0.4894185851004012
2660000000.0 0.32490334513305247 0.5954478763864902
2680000000.0 -0.2993426749796756 -0.569474363092833
2700000000.0 0.3381893117290129 0.49947396148472106
2720000000.0 -0.38848918061054766 -0.408503879749294
2740000000.0 0.4299590663137871 0.30374943336583937
2760000000.0 -0.48203342965698487 -0.08751790289217588
2780000000.0 0.4575326206366829 0.004845460666236934
2800000000.0 -0.4257436241386091 0.07900280832082243
2820000000.0 0.3856188991421988 -0.15823988526669286
2840000000.0 -0.29774173445246177 0.2709091642719793
2860000000.0 0.37076342449108773 -0.12009944388788248
2880000000.0 -0.14392374525622673 -0.35761504310793574
2900000000.0 -0.3466460251996702 0.17491436250545608
2920000000.0 0.30479425661822096 0.24442179183833176
2940000000.0 0.3049097482903449 -0.23970995881636734
2960000000.0 0.23441996541221016 -0.30504512099207065
2980000000.0 0.36770973361187026 -0.10828961646397912
3000000000.0 0.3193061080293227 0.2139224041599126
3020000000.0 0.03837205094835575 0.3770546962701062
3040000000.0 -0.3684614288389673 -0.003905242187429298
3060000000.0 0.3474055523679908 -0.08713170754838548
3080000000.0 -0.34567043166794614 0.04461559050409737
3100000000.0 0.33668072541923605 0.04445175812654748
3120000000.0 -0.32131251982042364 0.08160809024251947
3140000000.0 0.1457246378961777 -0.2827734008571155
3160000000.0 0.15479768766176052 0.25673766617354776
3180000000.0 -0.012071394386689055 -0.27691076128672515
3200000000.0 0.18684963133441662 -0.1593915585091907
3220000000.0 -0.0663065690358596 0.19400104577204516
3240000000.0 0.03706020340103702 0.16571401924528573
3260000000.0 0.024692284147372436 0.13822410938019694
3280000000.0 -0.10867756318248449 -0.004440438383687423
3300000000.0 -0.005813791454900374 0.08282986520765752
3320000000.0 0.0007402202376618777 -0.06284253116173738
3340000000.0 -0.03653589991037525 0.031214251809865725
3360000000.0 0.028551156114401198 0.032344466245223226
3380000000.0 0.04022501473974103 -0.009071929058033246
3400000000.0 0.011243358509378533 0.03486293703138809
3420000000.0 -0.022930897680328747 0.0202729958439134
3440000000.0 -0.02222036592786668 -0.015808349198365507
3460000000.0 -0.014716608893755622 -0.010576741046724274
3480000000.0 -0.011262499951953265 0.007453364266908963
3500000000.0 0.023856603492652808 -0.00010640418438682384
3520000000.0 -0.03572182464989878 -0.005730640575107641
3540000000.0 -0.03457232159034576 0.03836682520924566
3560000000.0 0.053798139884033085 0.034514677170529716
3580000000.0 0.027319288178199973 0.0634927240391848
3600000000.0 0.022735122073049067 0.06825243220354478
3620000000.0 0.06552265330391066 -0.04464760901663093
3640000000.0 -0.022341405907779586 -0.08234198782104811
3660000000.0 -0.08865942074013525 -0.023004546286139464
3680000000.0 0.07630473803128938 0.057007333248492144
3700000000.0 -0.08922202452068101 -0.02937617285776573
3720000000.0 -0.06245865230561109 0.07241289882166688
3740000000.0 0.009679734185193859 0.09426864511516754
3760000000.0 0.0697431803577601 0.06438073328538145
3780000000.0 0.02507601621325636 0.09827628871441149
3800000000.0 0.10320808991603407 0.056345783597930986
3820000000.0 0.10814959741334394 0.09207415852904602
3840000000.0 -0.15688924889635986 -0.012073984467234957
3860000000.0 0.17062701493999494 -0.018246686243916024
3880000000.0 -0.10438368367589482 0.1565954961802345
3900000000.0 -0.02326764465764108 0.1996919941487374
3920000000.0 0.1887472252148769 0.08021140051864586
3940000000.0 0.07971501715391102 0.18949696571152483
3960000000.0 -0.20651428229137514 0.01802902882348496
3980000000.0 -0.17541875749191982 -0.13304502873266144
4000000000.0 -0.17304895262241995 -0.13174321012600598
