!Created with skrf (http://scikit-rf.org).
# Hz S RI R 50.0 
!freq ReS11 ImS11
400000000.0 0.7732208842749216 -0.28344899229269005
420000000.0 0.11389845722779629 -0.8221708647535152
440000000.0 -0.5091310400243673 -0.5785252044181184
460000000.0 0.2184864299793725 -0.6867933540271948
480000000.0 0.5963396609884494 0.3095491443405606
500000000.0 0.5041922924474069 -0.37331494875950894
520000000.0 0.0607426194500901 0.5549381521270863
540000000.0 -0.2631474827670516 -0.42925181809622887
560000000.0 -0.1648489014218153 -0.4382665770035646
580000000.0 -0.38700549100989473 0.15249876270758048
600000000.0 -0.031065847353836704 0.37754692696097436
620000000.0 0.30369300110797137 0.23001292061664064
640000000.0 -0.3834971849605655 -0.15596555402928838
660000000.0 0.42709024029592274 -0.14020658825118626
680000000.0 -0.3173415565982466 -0.3337024433599115
700000000.0 0.24395122288867735 -0.3782161755128513
720000000.0 -0.4235861166519321 -0.054781578694658765
740000000.0 -0.1649602900785892 -0.34465218525889985
760000000.0 0.1953117891602084 0.3097700320231497
780000000.0 0.2500279801733925 -0.21789529822667225
800000000.0 -0.12381253805755311 0.2562252296633232
820000000.0 -0.11037560507337879 -0.21050442579538287
840000000.0 -0.16243156574579776 -0.12465290971719863
860000000.0 -0.1776445921546906 -0.02198752050739796
880000000.0 0.1368993445945835 0.03766467071005405
900000000.0 -0.038537588638635496 0.1103648344900622
920000000.0 0.05602551160426711 -0.05880321170398061
940000000.0 0.050393117174085095 0.0337050454761257
960000000.0 -0.046885419979452 -0.06524929283485341
980000000.0 -0.0814691270639264 0.01555001877425007
1000000000.0 0.07905218706415107 0.011949146514209502
1020000000.0 -0.06962425655259127 -0.06517122473755191
1040000000.0 0.08477521414161884 0.06640579180600652
1060000000.0 0.013884321621591547 0.1547080983820844
1080000000.0 0.08139003775630956 -0.17293159178159093
1100000000.0 -0.2189476651880534 -0.05759096169565324
1120000000.0 -0.031822955289857055 0.2616342816401782
1140000000.0 -0.032826808971329086 0.2820817409265373
1160000000.0 0.19916369126348674 0.23198643188750653
1180000000.0 0.1469700603383598 0.29138898736839586
1200000000.0 0.20716964514067307 -0.27161736360414723
1220000000.0 -0.3468316568271922 0.1316489484292564
1240000000.0 0.3273802090884414 0.2009924716602173
1260000000.0 0.37985731821905466 -0.12700112752335047
1280000000.0 0.18653229149791753 -0.36908898650144145
1300000000.0 0.01089381913169787 -0.42741339367337416
1320000000.0 -0.39970469701586 -0.16939857850968237
1340000000.0 -0.4257477021177059 0.10458743824743365
1360000000.0 -0.2801094830279123 0.3320042804397754
1380000000.0 -0.13550050448807935 0.4081928078198435
1400000000.0 0.38637669995065566 -0.15757934059334408
1420000000.0 0.1479451519321191 -0.3618208977526129
1440000000.0 -0.2370006734127689 -0.2881284850452167
1460000000.0 -0.13739370576039983 0.32006052896982157
1480000000.0 0.0017607774098219713 -0.3181628449836747
1500000000.0 -0.0024767296314079797 0.26969605327736773
1520000000.0 -0.2322727326563906 -0.0014160904634474387
1540000000.0 -0.03669537753062842 0.19648575220927844
1560000000.0 -0.05931118921510196 0.15847419938232757
1580000000.0 0.10914845767033783 -0.0998339885224127
1600000000.0 -0.02643491609895541 0.11517235389554475
1620000000.0 -0.0855618058531771 -0.03793862147480457
1640000000.0 0.06025297147834038 0.02247142227568843
1660000000.0 0.014986192961208053 0.03924090907858924
1680000000.0 0.021033380445201734 -0.0017457205565273818
1700000000.0 0.025468596074998753 -0.003393316750279361
1720000000.0 0.030951727730656464 -0.013141081164703623
1740000000.0 0.007582882410256891 -0.03784746109036787
1760000000.0 -0.0002592922981496435 -0.06807154273346727
1780000000.0 0.01326459729842178 0.11332102185362083
1800000000.0 -0.13878962351561624 0.07152103146974768
1820000000.0 0.11221496239714521 0.13436533559080086
1840000000.0 -0.004057406511845312 0.19270277571398886
1860000000.0 -0.07033198961251384 0.22687142638441965
1880000000.0 -0.2695689969328013 -0.10663407974718007
1900000000.0 -0.14179595436236875 -0.29426872635853984
1920000000.0 0.31967367239531713 -0.14889313658662653
1940000000.0 -0.34971077817413365 -0.11774171654378943
1960000000.0 0.005335880382068541 0.386800920824987
1980000000.0 0.32107259674832606 0.2346195411953644
2000000000.0 0.4065985893496151 -0.09174146754875882
2020000000.0 -0.19065701911128743 -0.37771742608376335
2040000000.0 -0.3212432529664708 -0.27701978306346353
2060000000.0 -0.4252406541541287 0.05984433156519812
2080000000.0 0.11223631903537527 0.412939824591294
2100000000.0 0.31672249692799026 -0.2714722079603175
2120000000.0 -0.2564484519718534 -0.3032979617693344
2140000000.0 -0.34548100351392413 -0.14932695341158586
2160000000.0 -0.02087569827715613 -0.35447940264736594
2180000000.0 0.06390998418249512 -0.3276536900580701
2200000000.0 -0.08482821896295446 -0.30923596243718704
2220000000.0 -0.1979297276310175 -0.2327629708521022
2240000000.0 -0.16047171555593645 -0.25466536064904227
2260000000.0 -0.15935282198539197 -0.2540582819913955
2280000000.0 -0.29201710065133113 -0.09240778339756213
2300000000.0 -0.08604115956874638 0.30531248763335733
2320000000.0 0.23618977621487605 0.23888494247361763
2340000000.0 0.10245697869419333 -0.3533894221090353
2360000000.0 -0.3170035176852496 0.24971436791452506
2380000000.0 0.4429471925994888 -0.09043793935111896
2400000000.0 -0.4296204021974 0.25987843906453867
2420000000.0 0.1691229795610288 -0.5303677817057273
2440000000.0 0.3534880851755794 0.4942442390034005
2460000000.0 -0.5926542602339807 -0.2726844116429253
2480000000.0 0.6873164561338639 -0.07276182268611783
2500000000.0 -0.6791515988523207 0.24138854845253652
2520000000.0 0.6846400167570111 -0.2870343422977955
2540000000.0 -0.7544647801308988 0.03690676808300706
2560000000.0 0.752601201840541 0.11550390881223534
2580000000.0 -0.5917762668122453 -0.4748719633294578
2600000000.0 0.3706317187706394 0.6486090261966153
2620000000.0 -0.029368654571119684 -0.7293173301797595
2640000000.0 -0.5965661299083891 -0.37746608339206195
2660000000.0 0.46879510780165046 0.4852398048105774
2680000000.0 -0.37797865493632626 -0.515639058484958
2700000000.0 0.34641369560003826 0.4925813288006621
2720000000.0 -0.38173515444522377 -0.4134547273002788
2740000000.0 0.4807385502871644 0.20753694509480958
2760000000.0 -0.47604519470317724 0.1001842869855352
2780000000.0 0.34863744542503866 -0.2910163875754451
2800000000.0 -0.23501032188643986 0.357583821854343
2820000000.0 0.27918075627099004 -0.2995245798724734
2840000000.0 -0.36888483007579936 0.145703915381976
2860000000.0 0.34104863671338115 0.19535170085328207
2880000000.0 -0.2248690154815686 -0.3180694665242133
2900000000.0 -0.1872991479241744 0.3361230680399243
2920000000.0 0.2582288747559472 0.2865376075452774
2940000000.0 0.3619383516875269 -0.13351960021406584
2960000000.0 0.33769419650090576 -0.18237088221640368
2980000000.0 0.3603802384172171 -0.13186976635000872
3000000000.0 0.3819614821908515 0.03619391958072117
3020000000.0 0.19857732897277297 0.32087825135085574
3040000000.0 -0.3598541382001411 0.06798276152384754
3060000000.0 0.2984503278466902 -0.19578445275170125
3080000000.0 -0.33277694024433363 0.10168429634147488
3100000000.0 0.31029448309368957 -0.13639809194772196
3120000000.0 -0.31833017593902785 0.0816325344821146
3140000000.0 0.10969892830514334 -0.30011637410333425
3160000000.0 0.26232052444268195 0.14682012911162726
3180000000.0 -0.21110957324677546 -0.17588708837014647
3200000000.0 0.22845752236383615 -0.08098465322448176
3220000000.0 -0.11510314033714368 0.17208719365478722
3240000000.0 0.09472935533915973 0.141650871684562
3260000000.0 -0.08155836425178373 0.11707671245211966
3280000000.0 0.03760065058301448 0.10970435945211497
3300000000.0 -0.08149693085178218 0.023489834601933626
3320000000.0 -0.057693707869810956 0.0006775978622650823
3340000000.0 0.04657737407629425 0.013130182260230248
3360000000.0 0.04671920204632679 0.0008213563991471601
3380000000.0 0.01238413363670367 0.039662823730869774
3400000000.0 0.03157346275172469 0.011568042608755807
3420000000.0 -0.030206671593177227 -7.230249606583054e-05
3440000000.0 0.012179869305151485 -0.02385898706194678
3460000000.0 0.015084576494898869 0.006976345228310483
3480000000.0 0.012544397271855325 0.00688040443282002
3500000000.0 -0.004938608109295076 0.02422974409644346
3520000000.0 0.03298123001576068 0.016947456700760012
3540000000.0 0.024747618417278537 0.04454567019218639
3560000000.0 -0.04628648821392473 0.04383993909654477
3580000000.0 -0.051976162914876875 0.04777071235623691
3600000000.0 0.034970546043602155 -0.0639851764692265
3620000000.0 0.0194617308004498 0.07573966924452974
3640000000.0 -0.08310129046486157 0.024515519531471398
3660000000.0 0.06833638398498447 -0.07070012019054023
3680000000.0 -0.018918853603850604 -0.1005799668593235
3700000000.0 0.0881354955574458 0.04128601622131787
3720000000.0 0.0739141252848325 -0.05629697452918016
3740000000.0 -0.007152368301076722 0.0911707510473941
3760000000.0 -0.03326660365040873 0.08978160784608175
3780000000.0 -0.10763549304902285 -0.0009340921106563659
3800000000.0 0.09498516952521721 -0.08156713737708132
3820000000.0 -0.10810958040222181 -0.09303059512207787
3840000000.0 -0.06395196313337287 0.14114043204935858
3860000000.0 0.07833907845811339 -0.15449443073870228
3880000000.0 0.09320048328108585 -0.1631074801113076
3900000000.0 0.1291750656970565 -0.14477580269277457
3920000000.0 0.1916843760669655 -0.0470744269072657
3940000000.0 0.10594980092349864 0.17614361046490679
3960000000.0 -0.019314510034219738 0.2117128617253396
3980000000.0 -0.019369397690812862 0.20902940662546995
4000000000.0 -0.18526368049463962 0.07229229391895042
