!Created with skrf (http://scikit-rf.org).
# Hz S RI R 50.0 
!freq ReS11 ImS11
400000000.0 0.7607043444237809 -0.3047196999089219
420000000.0 0.4975511523395002 -0.6597049147220951
440000000.0 -0.5122327693829124 -0.5860440516610363
460000000.0 -0.05578285355723253 -0.7135749975882802
480000000.0 0.24246371377139583 0.6191519929341089
500000000.0 0.5812755438309192 0.2688558937836137
520000000.0 0.27612367069182087 0.4969286820803216
540000000.0 -0.49886264973265554 -0.06976803572121854
560000000.0 -0.2843952102241001 -0.3772157832032086
580000000.0 -0.32977343814670557 0.2577770311428858
600000000.0 0.24654614723959634 0.2948804873278025
620000000.0 0.2527862986312168 -0.28528933786657856
640000000.0 -0.30756640090550924 0.26952629502247366
660000000.0 0.42642226844434217 -0.09763578858098425
680000000.0 0.09814614005409966 -0.44155143874594177
700000000.0 0.34299760964414117 0.29164681642890816
720000000.0 -0.35222836384824074 -0.2535000067171395
740000000.0 -0.2790994979470058 -0.28306854497253353
760000000.0 -0.16846849754899162 -0.3238955075555541
780000000.0 0.30910766448266713 0.0701594559954113
800000000.0 -0.21439295156319185 0.18400957322031125
820000000.0 0.19414596770345818 -0.13486307449658333
840000000.0 0.024765224697547043 -0.20824259838796375
860000000.0 -0.15218836120957027 -0.10704753688432506
880000000.0 -0.13926508656457273 0.060583109745800875
900000000.0 -0.08577642248988405 0.0777853361714279
920000000.0 0.07180499129814055 -0.0014067927360431952
940000000.0 -0.045480433328726415 0.014678463833981944
960000000.0 0.004933012112401836 0.055375068601533704
980000000.0 -0.06280839569500737 0.029174346318526685
1000000000.0 0.0860522467496205 0.028106379856749963
1020000000.0 -0.058029754431733145 0.09876661695944239
1040000000.0 0.08804860562084689 0.09737036564966804
1060000000.0 0.11441357530633106 -0.09795004267274833
1080000000.0 -0.15431519553827214 -0.0917363584649208
1100000000.0 -0.14404235699067602 -0.1637324844874715
1120000000.0 -0.23464757205840986 -0.10591101478008917
1140000000.0 -0.20124372866115017 -0.20858418124961953
1160000000.0 0.21938054113564193 0.22517355769592337
1180000000.0 0.3058138996098664 0.12936438406467787
1200000000.0 -0.28557036564187205 -0.17918205397769013
1220000000.0 -0.28270620936461377 -0.22481625189917798
1240000000.0 -0.07380327244836367 0.3826175667532715
1260000000.0 0.36268953500906526 -0.18641943653591883
1280000000.0 -0.22181856861171295 -0.3525353166982284
1300000000.0 -0.32326639075422037 -0.26551331758583296
1320000000.0 -0.21505240293026157 -0.36741608400676984
1340000000.0 -0.10464860048705718 -0.4251143281401316
1360000000.0 -0.41168502777432947 0.17285788027688145
1380000000.0 0.2767278142902774 0.33324637174168054
1400000000.0 0.3663648994674895 -0.20081879416316636
1420000000.0 -0.1492228519761645 -0.36374091116315116
1440000000.0 -0.36734713216495307 -0.0370659142602733
1460000000.0 -0.10309879812050768 0.32387514169232
1480000000.0 0.2372450992441794 0.20552685260446502
1500000000.0 -0.27443160939932226 -0.0705086233622947
1520000000.0 0.01706950490274782 0.24389169967788077
1540000000.0 -0.08919209051909788 -0.18089559274476014
1560000000.0 0.08960240535592345 -0.13048902386911063
1580000000.0 -0.10312986337851293 0.08862923010763461
1600000000.0 -0.02767217210705237 0.11501746446178249
1620000000.0 -0.10119376245318455 -0.012406734579646425
1640000000.0 -0.011749488023281287 -0.07675526875689147
1660000000.0 -0.012865076479582722 0.042109509765190865
1680000000.0 0.011471812301626512 0.0082304552609437
1700000000.0 0.0021335386560116924 0.0251665507964789
1720000000.0 0.03950562866714939 -0.012624150460228885
1740000000.0 -0.017169158514555215 0.04882560936269684
1760000000.0 -0.039818804204851184 -0.05649841825950833
1780000000.0 0.03230368428410329 -0.09307353361770342
1800000000.0 0.1310316152548719 0.059622752824762225
1820000000.0 0.1758341105105451 -0.024045161948305253
1840000000.0 -0.20061872016013693 0.05192287105668377
1860000000.0 0.19244252327210704 -0.15188852269298034
1880000000.0 -0.07220127050117225 0.27432249678149123
1900000000.0 -0.2167190111139484 -0.23343197058643012
1920000000.0 0.28207274037647234 0.2009894718356927
1940000000.0 -0.07880723304735775 -0.36456697424800955
1960000000.0 0.018654341477896817 0.39290628059044314
1980000000.0 0.37469315453693885 -0.14788156710785905
2000000000.0 0.191907420076901 -0.36490477146576156
2020000000.0 0.016881654362634328 -0.4205843390940079
2040000000.0 -0.31527516702111497 -0.289936699757519
2060000000.0 -0.37845344163148775 0.20462499273802454
2080000000.0 0.191845285824959 0.3805468251648435
2100000000.0 0.385897329363549 -0.1525789024662528
2120000000.0 0.011225321342319503 -0.3990077196766889
2140000000.0 -0.34611342910275406 -0.16195707654213362
2160000000.0 -0.14923102115236828 -0.32612242030672683
2180000000.0 -0.20144238783945292 -0.2647642451865699
2200000000.0 0.036895021101314804 -0.31279835901853764
2220000000.0 0.16382391266377078 -0.25670383519623274
2240000000.0 0.08647055753554668 -0.2915486356570051
2260000000.0 -0.21880640501469836 -0.21098332268057982
2280000000.0 -0.2879953505517804 0.1046907714666177
2300000000.0 -0.10255684545205566 0.299838849963321
2320000000.0 0.30362743968628586 0.14757033821433607
2340000000.0 0.04334198423127437 -0.3665113950752329
2360000000.0 -0.25689871534151176 0.3172322448287329
2380000000.0 0.336350808050286 -0.30373733226421756
2400000000.0 -0.2983303354369419 0.40722804772641347
2420000000.0 -0.05500294557454626 -0.5576100997206428
2440000000.0 0.5318234962840941 0.303739026012874
2460000000.0 -0.6159545617539458 0.23136741277791387
2480000000.0 0.3367797178903295 -0.6092442970281462
2500000000.0 -0.24926309323845464 0.6808533307467071
2520000000.0 0.27995922178574495 -0.691015409316271
2540000000.0 -0.5160692293110195 0.554603225565252
2560000000.0 0.7579470712334853 -0.0894675900387419
2580000000.0 -0.7167088953138087 -0.2518773408945722
2600000000.0 0.5181624805747107 0.5382257911228546
2620000000.0 -0.23870735883789646 -0.6894124114368819
2640000000.0 -0.7032180082607481 -0.02204886597783653
2660000000.0 0.6648935898260558 0.08449999666565083
2680000000.0 -0.6091237646000951 -0.17725266416920243
2700000000.0 0.5478263234607259 0.23993691194271863
2720000000.0 -0.5285460007342841 -0.18553155228643076
2740000000.0 0.51935773786517 0.04505343177761301
2760000000.0 -0.45537595281854876 0.16631137574234453
2780000000.0 0.32904686650457066 -0.3106738093081287
2800000000.0 -0.22825817836103368 0.36083221558104206
2820000000.0 0.17650155523580244 -0.3691549809567103
2840000000.0 -0.23433401366453574 0.32100506283968966
2860000000.0 0.37896152112442355 -0.09244559256368447
2880000000.0 -0.23346598132212124 -0.3073904530338027
2900000000.0 -0.35025440518477635 0.16155749906947228
2920000000.0 0.15517207830687157 0.35877861149804635
2940000000.0 0.341887573749736 -0.19095387492864074
2960000000.0 0.12939988851414466 -0.3618858927613247
2980000000.0 0.34388486220069664 -0.1661109956358712
3000000000.0 0.37865684558481527 0.048036234876041015
3020000000.0 0.09888202366609268 0.3630728286125048
3040000000.0 -0.34999018147979927 0.10874369854284782
3060000000.0 0.3466178856939237 -0.07594839264061995
3080000000.0 -0.34272622787782736 -0.04990471480790787
3100000000.0 0.3150671229460357 0.12397186070723831
3120000000.0 -0.31955414218743344 0.08879876482756226
3140000000.0 0.0780232797183074 -0.30760463035105595
3160000000.0 0.23548815199733047 0.1818890481963758
3180000000.0 -0.13440718838612245 -0.23667974227006222
3200000000.0 0.2337868764583206 0.05691323111175459
3220000000.0 -0.20299067645250593 -0.03409006972092553
3240000000.0 -0.0016550576761309701 0.17197330465481653
3260000000.0 0.12027288625056354 0.06932009558760935
3280000000.0 -0.0290492976594794 0.10219275533814781
3300000000.0 0.006411829474789542 0.0792649427488334
3320000000.0 0.012009397965754044 0.058042270215384224
3340000000.0 0.008207947691961566 -0.05000477005336748
3360000000.0 -0.014571293497265521 -0.04385051958937897
3380000000.0 -0.04060448676532573 -0.004365403338631557
3400000000.0 -0.036949285383651394 -0.0035884721332650775
3420000000.0 -0.02800590645969303 0.01612161101810118
3440000000.0 0.019650462604038528 0.01725521678030441
3460000000.0 0.014166067654881764 -0.007068225515213406
3480000000.0 0.003368707944353945 -0.01167253320926229
3500000000.0 -0.012743349745325516 -0.024331877210607936
3520000000.0 -0.03858311008190829 -0.005898328250364156
3540000000.0 0.008296610732239893 -0.04766981462018493
3560000000.0 0.039806039010174814 0.03734399489968276
3580000000.0 0.06003928573462327 0.004939531688032784
3600000000.0 0.0682534883022297 -0.01580067877647143
3620000000.0 -0.08092111316882303 0.009339183197518478
3640000000.0 0.08791473329508886 -0.016513156896991787
3660000000.0 -0.07742674476601914 0.05510486641683582
3680000000.0 0.09297451813245705 -0.018387113713932233
3700000000.0 0.07052092668320152 0.05928847245029537
3720000000.0 -0.05963693824077232 0.07345958000828179
3740000000.0 0.0758971583488079 -0.056001618384474185
3760000000.0 -0.08465903506407219 0.03936019961672399
3780000000.0 -0.10032013742032264 -0.002629296031337733
3800000000.0 0.07376513272071315 0.0937447729844552
3820000000.0 0.12781240992950688 -0.05968775577900777
3840000000.0 -0.1480103493971426 0.06013810627334329
3860000000.0 0.1355221381621837 -0.11521197068358179
3880000000.0 0.03503827431526959 0.19246494260624736
3900000000.0 -0.11810542659055534 0.17552400040815475
3920000000.0 -0.025544667601218835 0.21279920844310424
3940000000.0 0.050819984918627534 0.20692155105445684
3960000000.0 -0.043675572713510406 0.20502884849515507
3980000000.0 -0.15968112461470235 0.1293510490859835
4000000000.0 -0.16787705056085583 -0.11101209449672761
