!Created with skrf (http://scikit-rf.org).
# Hz S RI R 50.0 
!freq ReS11 ImS11
400000000.0 -0.7850521401991803 -0.19942123469108855
420000000.0 -0.19403527075764748 0.7866860777655462
440000000.0 0.7143750150446515 0.22698846878329007
460000000.0 0.5616803164978135 0.41887778733247794
480000000.0 -0.430654692029147 0.47106043967071987
500000000.0 0.15922014937149953 0.5957170456620734
520000000.0 0.04074521277723167 0.5471589182845918
540000000.0 -0.49275700372623954 -0.0019910210326376217
560000000.0 0.45742455349521177 -0.13653268958571968
580000000.0 -0.3671461187707376 0.2506688545786629
600000000.0 0.3703144622191409 -0.1753023022112974
620000000.0 0.1455504252447496 0.36637835855568346
640000000.0 0.38262856665744305 0.17971779810593974
660000000.0 0.022100278818962153 -0.4567422393179109
680000000.0 -0.3433835591801537 -0.3055950735002454
700000000.0 0.1759336963936642 0.4108173267380397
720000000.0 0.43266484866467847 0.02974110824773257
740000000.0 -0.17449013077605502 0.36136837158591106
760000000.0 -0.09392758145426983 -0.361979229160507
780000000.0 0.06753434672947907 0.3421009216755988
800000000.0 -0.3249699237982305 -0.026324369241801402
820000000.0 0.26828248209717187 0.10039451547094758
840000000.0 0.02907100912063206 -0.21427757407327377
860000000.0 -0.1950241202883085 -0.0018133610443144463
880000000.0 -0.15030279714146014 -0.0033987676300558014
900000000.0 0.048234598929297386 -0.10975759017522405
920000000.0 0.04511688458838472 -0.04928546025624285
940000000.0 0.018619212494336096 -0.013216545113916608
960000000.0 -0.008847509341763858 0.000679512681797965
980000000.0 -0.02068994683023463 -0.013451153306022371
1000000000.0 -0.014718164707926798 0.04491433426803699
1020000000.0 -0.05714211846142854 0.05231068668586039
1040000000.0 -0.09035034582829278 0.04531636877596376
1060000000.0 0.04016601831175645 -0.12912531209152808
1080000000.0 0.17697168833766413 0.026534664513321583
1100000000.0 -0.1124916093028813 0.18709134070018105
1120000000.0 -0.2510467980199488 -0.0683994785588604
1140000000.0 0.2907105003786472 -0.0006029796048310528
1160000000.0 0.029121937891005256 -0.31299822859477683
1180000000.0 0.2908379510327541 0.1575821445802412
1200000000.0 -0.08063654366324272 -0.33722299740060674
1220000000.0 -0.29293223407596447 -0.2197094563910893
1240000000.0 -0.13115315621567067 0.3637569415192088
1260000000.0 0.37368736672654623 0.13868126597591113
1280000000.0 0.22868920270356147 -0.33416039198634034
1300000000.0 -0.03613072520985921 -0.40214619558657677
1320000000.0 -0.15174763868430283 -0.37384411878704377
1340000000.0 -0.27893442474058466 -0.29184699759106003
1360000000.0 -0.08169195029219667 0.37992662286304985
1380000000.0 -0.34362772204989 0.11519758262387958
1400000000.0 -0.237329512856351 0.25178202145142314
1420000000.0 -0.13618113886840302 0.29357746151179864
1440000000.0 0.2766157401724876 0.12711463798840816
1460000000.0 -0.27026890530528286 0.03288197426623381
1480000000.0 0.22354536536513803 -0.04784994520491168
1500000000.0 0.17619143035524618 0.05032230067834942
1520000000.0 0.10528027711340579 -0.10582030663360527
1540000000.0 0.06377398275683431 0.0885351787440666
1560000000.0 0.06375312864863775 -0.019786565330102344
1580000000.0 -0.031249218884368865 0.02909781446707111
1600000000.0 0.012738364215277222 0.02721995086791746
1620000000.0 0.007472723102926243 0.013608822579948696
1640000000.0 -0.023860568852322475 0.023872865668304155
1660000000.0 0.004025054132478161 0.059579134714444246
1680000000.0 -0.08372509045085007 0.015513800991343325
1700000000.0 -0.06687052844946882 -0.08599875362901693
1720000000.0 -0.12205479558143595 0.045898850975923014
1740000000.0 -0.01945628996841673 0.14589422529012466
1760000000.0 0.02666884311493469 0.16847520925146844
1780000000.0 0.013711519057096392 -0.19975249039408946
1800000000.0 -0.19839676230779107 -0.11715132141491084
1820000000.0 0.013004411358554582 -0.25920588526294075
1840000000.0 0.26583792347449714 0.1294607665454159
1860000000.0 0.2468852118576709 0.21951746899731683
1880000000.0 -0.3294498581996541 0.1533724917607568
1900000000.0 0.08347690852334712 -0.3803284997114909
1920000000.0 -0.1305434448363146 0.3989442568168545
1940000000.0 0.08845907883006995 -0.4375590787716072
1960000000.0 -0.20441119768623908 0.4169468540862625
1980000000.0 0.45018102026554563 -0.1655370359414803
2000000000.0 -0.4236235673412935 -0.2374058408696787
2020000000.0 -0.4632265211715888 0.1650251939627947
2040000000.0 0.08235875890045931 0.4907032851286127
2060000000.0 0.4291216087969256 -0.2523075712762609
2080000000.0 -0.32871838153225363 -0.35892751041394494
2100000000.0 -0.4264914634433778 0.2001075663629188
2120000000.0 -0.1247816128621842 0.4405883599191314
2140000000.0 -0.1665964925088016 0.4102264635807963
2160000000.0 0.4013726654659689 0.11699844092650771
2180000000.0 0.3493770077499404 -0.18696373523453919
2200000000.0 -0.06259899630520346 -0.3757150745959675
2220000000.0 -0.3585195736870605 0.07287045714791675
2240000000.0 0.26362290253571125 0.2377447651405547
2260000000.0 0.2571150728813387 -0.22462324970638595
2280000000.0 0.03987841152751292 -0.3373399428574218
2300000000.0 -0.312616957358574 0.1470960783490232
2320000000.0 0.12291784741910192 0.3314224038415952
2340000000.0 0.3625069451200187 0.08025778658869104
2360000000.0 0.2685183925761275 -0.2950365300034148
2380000000.0 -0.3045578417551963 -0.3171529203899423
2400000000.0 -0.07117225555260999 0.476403969842338
2420000000.0 0.513682704958567 -0.11752902715507761
2440000000.0 -0.4802001348032279 -0.32414203326227675
2460000000.0 0.4255325729174487 0.46066226546300587
2480000000.0 -0.32879961801619995 -0.5826889677653698
2500000000.0 -0.006486484946739123 0.7029802113114487
2520000000.0 0.23174950177087167 -0.6899437546241927
2540000000.0 -0.5596156154015397 0.4917305552520966
2560000000.0 0.747372555438147 -0.09201360212247721
2580000000.0 -0.5333027451969959 -0.5305748614185809
2600000000.0 0.019619306235340167 0.7440286211778905
2620000000.0 0.43304836316046014 -0.5886490623145509
2640000000.0 0.010283730656132523 -0.7114147176260309
2660000000.0 -0.3021138834348395 0.6165096334182171
2680000000.0 0.41528512411429713 -0.5125960122780014
2700000000.0 -0.4208394673460563 0.4703271059281697
2720000000.0 0.16743020735246178 -0.5771485455115267
2740000000.0 0.18744836609154408 0.5405373158557215
2760000000.0 -0.5276486587333853 -0.13143975066013736
2780000000.0 0.39219956588351457 -0.34302435551417754
2800000000.0 0.1808620119295016 0.4696814084839841
2820000000.0 -0.4872261712499573 0.04621560773606277
2840000000.0 0.13261113336833258 -0.46152043877991245
2860000000.0 0.3552724601092341 0.31204776067811996
2880000000.0 -0.45786883782762794 -0.08113686198129853
2900000000.0 0.41296915021155045 0.20046684144188334
2920000000.0 -0.1684359893153503 -0.4226426490904046
2940000000.0 -0.2844381967226675 0.34689929328188224
2960000000.0 0.24311016454722845 0.3648913421203666
2980000000.0 0.26743561158017676 0.33386570076855776
3000000000.0 0.10390594824024596 0.40835299628535776
3020000000.0 -0.14246364352318175 0.38338484897215414
3040000000.0 -0.36111519525681984 0.1560341266819377
3060000000.0 -0.24188145754279375 -0.2879440607692013
3080000000.0 0.3011183157489582 -0.1859927725940456
3100000000.0 0.12961702995487454 0.30335071503381
3120000000.0 -0.30255610492081675 0.017454629206135063
3140000000.0 0.2735622436444879 -0.014889638032931772
3160000000.0 0.0987850280641248 0.2147278378751399
3180000000.0 -0.1767008125928035 0.08317383384723394
3200000000.0 0.14278814732468745 -0.0443064984035369
3220000000.0 0.08934502485863109 -0.05806653231609761
3240000000.0 0.04704317183329449 -0.04320932833859394
3260000000.0 0.007522417526944774 -0.03620664703008237
3280000000.0 0.02764189068131995 -0.03941553691070865
3300000000.0 0.050447322007613975 -0.049578890398923124
3320000000.0 0.06746793082744251 -0.0637981828571619
3340000000.0 -0.11541416739273341 0.011626319197492919
3360000000.0 0.023665755961366712 -0.12308183108955092
3380000000.0 0.09926895355470652 0.08693197748667765
3400000000.0 -0.0991375445531167 -0.08837839211961944
3420000000.0 -0.11343812350286608 -0.06331474543304194
3440000000.0 0.044479561925809694 0.1093224556576385
3460000000.0 -0.07951309177304748 -0.06376692600962465
3480000000.0 -0.0017404492044574007 -0.08410597573702307
3500000000.0 -0.06881109168437866 0.007821409577427673
3520000000.0 0.01568959579628129 -0.05989709031272475
3540000000.0 -0.006513200503793122 0.06123983309903819
3560000000.0 -0.004065295739058193 -0.07139748629909155
3580000000.0 -0.05944114788975827 0.06184442133539062
3600000000.0 -0.03586151835489656 -0.10126372020701871
3620000000.0 -0.1292691587756845 0.0022844950928463626
3640000000.0 -0.10100841451202693 -0.11132283882056843
3660000000.0 0.04651712670499071 -0.1637848165004636
3680000000.0 -0.06430099706847313 0.1726590146253229
3700000000.0 0.08747482604874575 -0.17745142940087597
3720000000.0 -0.1441148734229723 0.14867852004483972
3740000000.0 0.20821355104072312 0.04018641115184018
3760000000.0 0.21736499948800656 -0.0021937991681018295
3780000000.0 0.17920810308165905 -0.12668821276636624
3800000000.0 0.019284125205014102 -0.2158794269846061
3820000000.0 -0.10234260977368156 -0.18779542895892493
3840000000.0 -0.19593205344795953 0.05338664066081253
3860000000.0 -0.18755975532580343 0.0050979830547323145
3880000000.0 -0.12444280572911999 -0.11637190761847176
3900000000.0 0.04857873727615407 0.13723577100654827
3920000000.0 0.11080477122775854 0.05614111055721735
3940000000.0 -0.10242694552051815 0.012294109626633186
3960000000.0 0.08006587462533701 -0.0321756736101756
3980000000.0 -0.015799965814624308 0.08326017732136726
4000000000.0 0.038335057709230506 -0.0839453594169115
