!Created with skrf (http://scikit-rf.org).
# Hz S RI R 50.0 
!freq ReS11 ImS11
400000000.0 0.5597057192718122 -0.6247723411304924
420000000.0 -0.38808271314092657 -0.7306366522601416
440000000.0 -0.6721366792804915 -0.387288869502577
460000000.0 -0.35080845313595793 -0.6289559467157239
480000000.0 0.6562321893085665 -0.02310287043301086
500000000.0 0.5567710894421157 -0.2913720990041959
520000000.0 0.4523825472553132 0.3246993169712321
540000000.0 -0.4791316506886317 0.1185579677044248
560000000.0 0.24787803305388223 -0.3935945549032913
580000000.0 -0.3872093972269683 0.17428618288059633
600000000.0 -0.018848399938551866 -0.3739792561608048
620000000.0 0.2585528390699262 0.25215031113006475
640000000.0 -0.2944921317122598 -0.2846253656073114
660000000.0 0.41318576754294134 -0.1428995574718301
680000000.0 0.20230104777436542 -0.4053963454374694
700000000.0 0.29024074535927097 -0.3542140177758041
720000000.0 0.27178479648025744 0.3267361338595436
740000000.0 -0.32108663310672614 0.17069509634878918
760000000.0 -0.28414021398734346 0.1820416549084655
780000000.0 0.32141338725972884 0.0026556777158010855
800000000.0 0.2504683465288716 0.1710527265366661
820000000.0 0.08131747533827573 0.2523117889866875
840000000.0 -0.21149879754014408 0.11570349603840302
860000000.0 -0.19831537423360013 -0.05483551645178131
880000000.0 0.14597750238179175 -0.0562194277460118
900000000.0 0.0912285983539953 -0.07328178476000614
920000000.0 -0.07153110572664773 0.008181327969046198
940000000.0 -0.05365835546149842 0.0016996413723334128
960000000.0 0.04235166291782938 0.02259888753141814
980000000.0 -0.04770790771317223 0.039705918826892304
1000000000.0 -0.07223591916569393 0.035530670138979425
1020000000.0 -0.059201421326324194 -0.06926841858973999
1040000000.0 0.027236382633276105 -0.10934742284520882
1060000000.0 -0.11286688162848292 -0.09348526437129424
1080000000.0 -0.12005062587443859 -0.1360538371953705
1100000000.0 -0.16559086791779054 0.13783821085981451
1120000000.0 -0.1639241387837361 0.18027366488720772
1140000000.0 0.08785589776541418 -0.26017159146308294
1160000000.0 -0.29413930202629807 0.05537931820884585
1180000000.0 -0.220822097697289 -0.23864486155058387
1200000000.0 0.31483816135044873 -0.14960399623006074
1220000000.0 -0.34062657962965975 -0.13824792379440468
1240000000.0 -0.04221809232703309 0.38844593637553665
1260000000.0 0.38884894224183814 -0.12397278609714811
1280000000.0 -0.18358599377520587 -0.38146104044726553
1300000000.0 -0.4223544037564253 0.018049629428136826
1320000000.0 -0.43015225840914983 -0.006796724461017342
1340000000.0 -0.3073119644083623 0.3093863033329002
1360000000.0 0.034588983616843726 0.43161474968438757
1380000000.0 0.22904020634863642 0.3523361528972198
1400000000.0 0.40910098958468005 0.028629379283223632
1420000000.0 0.3184342868000371 -0.22259342071888297
1440000000.0 0.07993800520887903 -0.36609420559918454
1460000000.0 -0.07384762106227319 0.34696359470238985
1480000000.0 0.07633875953644342 -0.30715056164152166
1500000000.0 -0.2548448278752943 0.11008976926524265
1520000000.0 -0.12921449559206036 0.2029928235484573
1540000000.0 0.14081910595458616 0.1411086194330129
1560000000.0 -0.17050908935988662 -0.03451666671403273
1580000000.0 0.0351601900707883 -0.15210425833863578
1600000000.0 -0.08739344713679437 -0.08072800603724273
1620000000.0 -0.0041333169998509535 0.08714731784732106
1640000000.0 -0.07206932896570513 -0.018287675965870297
1660000000.0 -0.03998894449779376 0.028194551437360806
1680000000.0 -0.0200977145663633 -0.0077897114036162484
1700000000.0 -0.017616332134222278 -0.008093307053735
1720000000.0 0.011990315685059259 -0.03430284954780601
1740000000.0 -0.050905830478936515 -0.0262886938895422
1760000000.0 0.048627254351068905 -0.061225316370523405
1780000000.0 -0.033143104409582236 0.0980441229570771
1800000000.0 -0.04831476171087287 -0.13456185678793997
1820000000.0 0.09187204737486745 -0.15037608590701596
1840000000.0 0.004124443372084896 0.20423016934348512
1860000000.0 0.10186854760991171 -0.21930798369260762
1880000000.0 0.1948075729654937 0.20330563011098773
1900000000.0 -0.2998437849837296 -0.06264929494107915
1920000000.0 0.0017291053400341878 0.3371966956854853
1940000000.0 0.23429232392659194 -0.2805248283449624
1960000000.0 -0.3890198587957415 -0.01199638835634176
1980000000.0 0.155167735413947 0.37658741742522595
2000000000.0 0.3933651224023645 -0.15689032526003371
2020000000.0 -0.3018249784255251 -0.31047998800588333
2040000000.0 -0.3911632385511556 0.1868099037573843
2060000000.0 0.034389049076046306 0.4314050553662823
2080000000.0 0.40861103359659157 -0.11275562715109444
2100000000.0 0.26806570823857234 -0.306854372575659
2120000000.0 0.17362425775073317 -0.35372551767972626
2140000000.0 -0.12971451310589 -0.3566080337202936
2160000000.0 0.304120898576614 -0.18859859730300035
2180000000.0 0.234601047018053 -0.24986563102514264
2200000000.0 0.0806291926145654 -0.3148131916637864
2220000000.0 -0.018580118572793097 -0.31206944837024714
2240000000.0 -0.10990811866697159 -0.2834762262251138
2260000000.0 -0.11615699344948063 -0.28207826287155063
2280000000.0 -0.2836272384935731 0.12434937448293963
2300000000.0 0.1609658254853638 0.26960689819038997
2320000000.0 0.23381655334229265 0.23378409257519972
2340000000.0 0.33667566857834247 -0.13952826909346988
2360000000.0 -0.37292089580313337 0.16727148831323846
2380000000.0 0.263787324665101 -0.3713441939768922
2400000000.0 -0.17374249216603146 0.4739883367925394
2420000000.0 -0.24604773726173496 -0.5021493625610997
2440000000.0 0.6082746101960804 0.027404468841235048
2460000000.0 -0.5684894638931636 0.3228533040293566
2480000000.0 0.5008136637229615 -0.47743740103362875
2500000000.0 -0.4641824916530671 0.5527275546494561
2520000000.0 0.40434960060342984 -0.6230141217692368
2540000000.0 -0.4953361408451634 0.5697859833139706
2560000000.0 0.73252885475505 -0.2005474751575943
2580000000.0 -0.681587266815183 -0.3286290363367534
2600000000.0 0.4686898412806422 0.579770591828914
2620000000.0 -0.16461013071571357 -0.7091936117997562
2640000000.0 -0.6363075420608061 -0.3017475416485629
2660000000.0 0.4432502198248071 0.5059754866226367
2680000000.0 -0.4532715884993171 -0.44731736280750006
2700000000.0 0.4595091444993998 0.3803125839808293
2720000000.0 -0.5203771190319593 -0.19220569608953164
2740000000.0 0.501030527715146 0.12243999550584107
2760000000.0 -0.47657558710497805 0.055537108028543385
2780000000.0 0.41207760706198276 -0.18236935448493907
2800000000.0 -0.3471647047116473 0.2475341557238616
2820000000.0 0.38955438447295737 -0.1309009566702392
2840000000.0 -0.3629741315051386 0.17136308044276485
2860000000.0 0.3685320289655398 -0.13516241851438282
2880000000.0 -0.31962854988285283 -0.22002417112388872
2900000000.0 -0.13794563228291779 0.3644244020153597
2920000000.0 0.37859198039103487 -0.10234462747349497
2940000000.0 -0.08742783427993044 -0.3769858388483573
2960000000.0 0.07225058427846437 -0.3754616940622085
2980000000.0 0.32498763297219974 -0.1994029634053538
3000000000.0 0.30288653692199075 0.23021170404633193
3020000000.0 -0.16669910463282248 0.3400737807521792
3040000000.0 -0.3115404711599266 -0.20443187431700824
3060000000.0 0.3486755342918661 -0.10874777806412217
3080000000.0 -0.20210008759980871 0.2916861892113156
3100000000.0 0.1663007153296941 -0.29554305787804624
3120000000.0 -0.2465332560203979 0.21435365977494103
3140000000.0 0.14307478285205258 -0.2814010462608716
3160000000.0 0.1119546144463928 0.2767903751567637
3180000000.0 -0.035547037745867975 -0.2729080434930797
3200000000.0 0.2372472133008957 0.05473591674381044
3220000000.0 -0.2072718843190719 -0.0041690618642921725
3240000000.0 -0.013775640493309434 0.17170095609379818
3260000000.0 -0.12495020689669402 0.06470846160493429
3280000000.0 -0.0942021658095338 -0.06114869826867263
3300000000.0 -0.08998874529097692 0.0008077885260151085
3320000000.0 0.054103328858709804 0.0493751912432714
3340000000.0 -0.02834269091398903 -0.04237618258761151
3360000000.0 0.04053580524514054 -0.011406137675187895
3380000000.0 -0.03298977466341499 0.017173511960645003
3400000000.0 -0.024978346399574834 -0.0267442857473743
3420000000.0 -0.025565625158963812 -0.018308418000436706
3440000000.0 -0.020072526216866216 -0.005884145488310832
3460000000.0 0.011352642056148884 0.01572796759998921
3480000000.0 0.01852886213437768 -0.0033787467632427955
3500000000.0 0.01062674175463054 -0.019538642212344668
3520000000.0 -0.03071214526907885 -0.0021224979157388043
3540000000.0 -0.020923315861443997 0.04483681861718156
3560000000.0 -0.004243740123085788 0.061321542990723954
3580000000.0 -0.06630278209846009 -0.007013112599333129
3600000000.0 -0.05267029584729822 -0.05304294255800976
3620000000.0 0.030114258109562864 -0.07715020271133773
3640000000.0 -0.07317562441070842 0.044339265933207146
3660000000.0 -0.016212781899104356 0.08959939971428876
3680000000.0 0.07666134608336582 0.05569314646399268
3700000000.0 -0.047309869691150565 -0.08681814404911681
3720000000.0 0.011587867802657659 0.09728415949643286
3740000000.0 0.040136817030003456 -0.0841997475306543
3760000000.0 -0.016017198695504758 -0.09061992080554065
3780000000.0 0.07100990502131949 -0.06929857775758047
3800000000.0 -0.11200458077847515 0.03542426846780855
3820000000.0 0.07130165316535365 0.1181789320938833
3840000000.0 -0.04450020656946021 -0.14451545819569347
3860000000.0 -0.01384884568408749 0.16687938791423337
3880000000.0 -0.15297370279943073 -0.10417045803334612
3900000000.0 0.16494583652453107 -0.1152476028154715
3920000000.0 0.196459117655867 -0.0641154969318888
3940000000.0 0.16440191413778726 -0.13286696435421502
3960000000.0 0.014297303278409047 -0.20967940294397797
3980000000.0 -0.042498241322669 -0.20286601856957143
4000000000.0 -0.017187765496025374 -0.19174037587646034
