!Created with skrf (http://scikit-rf.org).
# Hz S RI R 50.0 
!freq ReS11 ImS11
400000000.0 0.6459574098743143 -0.49158458604608224
420000000.0 0.12155128662781549 -0.8199212434140247
440000000.0 -0.7627228711858826 0.03783264404867527
460000000.0 -0.24267130811880905 -0.6664606306593495
480000000.0 0.4228234479162892 0.5092005865669678
500000000.0 0.502864681463203 -0.39716960908758264
520000000.0 0.5621946172722146 -0.013539660097245824
540000000.0 -0.15549720925771238 0.4810496769364527
560000000.0 -0.46040727084775257 -0.09603450404142452
580000000.0 -0.27445330935069234 0.34082509609161343
600000000.0 0.19581240694580251 -0.35562127828795836
620000000.0 -0.38607252294342387 0.04918424204659112
640000000.0 0.15172175269559465 0.38198008475388867
660000000.0 -0.09977110890235877 -0.43310686225625367
680000000.0 -0.44852381320100665 0.05092821708211651
700000000.0 0.11608919484142888 -0.42338264861369546
720000000.0 -0.3379375076829911 0.24026438221997995
740000000.0 0.16549409494512635 -0.32700494083044024
760000000.0 -0.33515173915496144 0.07756065740452901
780000000.0 0.239815446708067 0.21459098507664998
800000000.0 -0.2319576580320197 -0.20001627868042257
820000000.0 0.16736891457134379 0.23590528461429902
840000000.0 -0.039673022487841 -0.233125096017092
860000000.0 -0.15289292607288746 -0.11002238375466464
880000000.0 0.002407440560157943 0.14909175056648732
900000000.0 0.052230129520764 0.0752810552749666
920000000.0 0.005748973787027472 0.03510232700023307
940000000.0 0.005884901033801555 0.013228243313211575
960000000.0 -0.02559611356471908 0.0043257790357614
980000000.0 -0.0390738286058224 -0.027758615013817555
1000000000.0 -0.055042313597533324 0.04149662218792099
1020000000.0 -0.04422227340805774 0.07566311842195822
1040000000.0 0.12332452193439064 -0.019051666481908976
1060000000.0 -0.11341926618406707 0.11863144298000246
1080000000.0 0.13413620154325392 0.15986161467794802
1100000000.0 -0.1799610786383239 0.1694764398934378
1120000000.0 0.11288918788821041 0.2430667339300988
1140000000.0 -0.2863628432367788 -0.020333576987408904
1160000000.0 -0.3003693474432412 0.010406792446989438
1180000000.0 0.14383855593586845 -0.28682821835737393
1200000000.0 -0.32411489295260393 -0.10126547415839673
1220000000.0 -0.024618846106449124 0.36430156400670954
1240000000.0 0.16770325270750397 0.34448442260721995
1260000000.0 0.35762736951145896 -0.2117107242228427
1280000000.0 -0.4114310232330291 -0.12370588700203923
1300000000.0 0.026891247517484403 0.43579030492451126
1320000000.0 0.2849481484866056 0.33032970911241655
1340000000.0 0.4140876915291837 -0.15211525800379594
1360000000.0 0.044410912709007384 -0.42744762567415306
1380000000.0 -0.007819927082739323 -0.4139972926861358
1400000000.0 -0.16133699768061976 -0.3630680802147222
1420000000.0 -0.11737441619358345 -0.36394957707368497
1440000000.0 -0.3441654254067928 0.1282810850786274
1460000000.0 0.34731561857914706 0.023506308325309665
1480000000.0 -0.21105195705886334 0.22821819771543095
1500000000.0 0.24254152713469446 -0.09834897364825988
1520000000.0 -0.03013467035905879 0.2240201192889353
1540000000.0 0.19692550600172692 0.02017565638999082
1560000000.0 -0.10141809291068675 -0.13098191477692606
1580000000.0 -0.03582532883384631 0.13753199319339038
1600000000.0 0.02278631994953465 0.1107609954140942
1620000000.0 -0.02829473988969371 -0.07339757916473151
1640000000.0 0.02726523630238501 0.03506822046805637
1660000000.0 0.012314527165464342 -0.011750295997338733
1680000000.0 0.013794478082123177 0.007770472163118654
1700000000.0 -0.008524262367663717 0.02650137712314213
1720000000.0 -0.03918085540336584 -0.025767936479976657
1740000000.0 -0.05729326844554723 0.03744459929390975
1760000000.0 0.0843636143239966 0.010565494551615411
1780000000.0 -0.09980882842084202 -0.030754681998376304
1800000000.0 0.08905499860946223 0.10618553123665093
1820000000.0 -0.0408066254397651 -0.16105027395196364
1840000000.0 -0.20680015380061667 0.008777200470583404
1860000000.0 -0.2140355563963011 -0.14088472220293152
1880000000.0 -0.10867688466463053 -0.27372606702305585
1900000000.0 0.3295185856206417 -0.022589998301727827
1920000000.0 -0.08876761267507288 0.3507000657749479
1940000000.0 0.02908733313210728 -0.37887595877211
1960000000.0 -0.25964522938990414 0.3034552201354117
1980000000.0 0.400875003997618 0.07248815207662748
2000000000.0 0.4119240739436212 -0.04948216409786345
2020000000.0 0.40092462326517797 -0.1426942172295917
2040000000.0 0.24122465212183677 -0.3629462177341881
2060000000.0 -0.27112721895260705 -0.3485548164269199
2080000000.0 -0.337138581650959 0.2852960562319599
2100000000.0 0.4168743696677099 0.12263847775334415
2120000000.0 -0.052667149466253234 -0.4116850472545131
2140000000.0 -0.3532147138021672 -0.1641971870222122
2160000000.0 0.2591143560702361 -0.2570284249954429
2180000000.0 0.3417365621110483 -0.05169418116567211
2200000000.0 0.3165737275820647 0.10606534174406933
2220000000.0 0.3252691614870526 0.00014621767125670164
2240000000.0 0.32304534921406786 -0.013564992826049225
2260000000.0 0.1612743773873047 -0.28416934509636205
2280000000.0 -0.3286476170995958 0.06600412634640501
2300000000.0 0.33030183970964516 -0.09310873499675867
2320000000.0 -0.2883767738926124 -0.20570941823210778
2340000000.0 -0.24897979476124238 0.2798385034440406
2360000000.0 0.27313872567576275 0.30541304135326564
2380000000.0 -0.0004394480194286683 -0.45909169029802716
2400000000.0 0.18251784313648667 0.48062742808564557
2420000000.0 -0.5360274163915547 -0.19369246746436222
2440000000.0 0.46456664503499545 -0.4089143450466854
2460000000.0 -0.22873322549282893 0.6179628727214306
2480000000.0 -0.01731922476759888 -0.6945693835975247
2500000000.0 -0.06174462991985841 0.7216375823640515
2520000000.0 0.31273901547421884 -0.6748241487522076
2540000000.0 -0.5130892620732624 0.5555307356451581
2560000000.0 0.7127072770929125 -0.26878633390348605
2580000000.0 -0.7459994570832018 -0.1353698934884874
2600000000.0 0.5067353164976728 0.5468411106164157
2620000000.0 -0.013097023245704009 -0.7273002884809396
2640000000.0 -0.5230371666540425 -0.4684511352483839
2660000000.0 0.37496755518670194 0.5540305452751465
2680000000.0 -0.3058597817505639 -0.5540961917475483
2700000000.0 0.18604266399156336 0.5648590177714103
2720000000.0 -0.3096442139959519 -0.4596656351623187
2740000000.0 0.37867675290048924 0.34325619560603055
2760000000.0 -0.1901227984019539 -0.4310203427765307
2780000000.0 -0.2422071523867153 0.37253214073804247
2800000000.0 0.40284100532813993 -0.16018985018699247
2820000000.0 -0.163227574058986 0.39200520413733064
2840000000.0 -0.16944843637623824 -0.3791185255157221
2860000000.0 0.3040074531053706 0.27253296151416834
2880000000.0 -0.2883110482656202 -0.2779080176053702
2900000000.0 -0.19732384917531107 0.33822739987962314
2920000000.0 0.012720152010117988 0.39083714340154785
2940000000.0 0.20806578962439637 0.3352666575875341
2960000000.0 0.1808409249900639 0.3559954940865168
2980000000.0 0.28358013473701704 0.2893352528677026
3000000000.0 0.4030103352553694 0.019781305052687364
3020000000.0 0.37128368557642355 0.12374610623116793
3040000000.0 -0.26361150537295086 0.2667132794129301
3060000000.0 0.2624879876900686 -0.24747317778239117
3080000000.0 -0.3217264495478384 -0.14190352464033787
3100000000.0 0.14360215108109062 0.31602056712061316
3120000000.0 -0.2905715255073472 -0.18850191790301907
3140000000.0 -0.182435964779981 -0.2836808946279959
3160000000.0 0.04753030699868385 -0.31040808824024635
3180000000.0 0.12101763795438122 0.2590243340086005
3200000000.0 -0.04663471722409315 0.2458300627733221
3220000000.0 -0.19069522927587892 -0.07795109344095782
3240000000.0 -0.15341980836232982 0.05882515767332584
3260000000.0 0.06427675646074309 -0.12011996286818871
3280000000.0 0.03628340171399246 -0.10528066439125161
3300000000.0 -0.08807169100526961 -0.0020970645808981708
3320000000.0 0.056996575302684045 0.0013250651631193807
3340000000.0 -0.021887990639953277 -0.012206167808049794
3360000000.0 0.015846684050178205 -0.0029226172115736173
3380000000.0 0.015401269356354752 -0.02636833379975986
3400000000.0 -0.03723946114840038 0.010232463210761199
3420000000.0 -0.01001410340341315 -0.04068972862895386
3440000000.0 0.03583569350577457 -0.022594608068924715
3460000000.0 -0.04083372699819158 0.007017722259454249
3480000000.0 -0.03516947456524866 0.022204031466499664
3500000000.0 -0.04404075450691319 -0.004833904938075324
3520000000.0 -0.045983259804608344 0.012484490855583832
3540000000.0 -0.014639206890709317 -0.053044056816265145
3560000000.0 0.056659173247316966 0.00101798833479914
3580000000.0 0.041824406584232164 0.034584872209708475
3600000000.0 0.0009714196265022755 -0.05456752947628659
3620000000.0 0.05521158357820197 -0.014136477013639761
3640000000.0 0.005245090247275436 0.05221587530367114
3660000000.0 0.03147355513574977 0.03631988189119067
3680000000.0 0.027980801050239562 -0.047984330503818715
3700000000.0 0.02948654126638164 -0.06401708791969643
3720000000.0 -0.0827182729114357 -0.026515821727577334
3740000000.0 0.052179507603436294 -0.07898182818833181
3760000000.0 0.07817002020026156 0.06782627847694819
3780000000.0 -0.03849576192462616 -0.11337231799203895
3800000000.0 -0.1298197029409334 -0.06829575232078901
3820000000.0 -0.06579281634352607 -0.1629494346923032
3840000000.0 -0.1928232374219575 0.053476646700088996
3860000000.0 0.00458786788221461 0.21979535930108743
3880000000.0 0.21608159217830952 -0.08816917534022083
3900000000.0 -0.160194575484576 -0.1741391450245445
3920000000.0 -0.22957567151690753 -0.030615896771936695
3940000000.0 -0.22326544713057464 -0.03712336456194945
3960000000.0 -0.2200799751612609 -0.03662101094605366
3980000000.0 -0.1932233223601255 0.09149753043962242
4000000000.0 -0.1182522276008757 0.1557611229724275
