!Created with skrf (http://scikit-rf.org).
# Hz S RI R 50.0 
!freq ReS11 ImS11
400000000.0 -0.690748609880761 0.45222698137497713
420000000.0 0.5151707020674222 -0.5407564299439834
440000000.0 0.5184030528581023 0.4929710978572792
460000000.0 -0.44413563209632384 0.5135527554657975
480000000.0 0.46812674521873304 0.3484607561815622
500000000.0 -0.13717997175262184 -0.45269701744251656
520000000.0 -0.35281517384959304 -0.174450591194518
540000000.0 0.3803631933542206 0.28194917995082064
560000000.0 0.009377274764764028 -0.47233338786710755
580000000.0 0.40366000029217103 0.1244799551138462
600000000.0 -0.33460818503913786 -0.15271744667606088
620000000.0 -0.1258770493891701 -0.3419667526750225
640000000.0 0.35927134204839345 0.060107515789219655
660000000.0 0.03940816630430597 0.3480344572086335
680000000.0 0.34009049243678063 -0.002464201982315368
700000000.0 -0.2789818658224329 0.18603335309899252
720000000.0 0.3374123273457221 -0.09330093540985449
740000000.0 0.24352224008781315 0.20308707465943793
760000000.0 -0.2639578624092818 -0.16827671888369217
780000000.0 -0.2902087925373573 -0.01559843214358329
800000000.0 0.12223366358078719 -0.21353996728519448
820000000.0 -0.17851431289476613 -0.12496137412720257
840000000.0 0.02554190665968163 -0.20933176108884152
860000000.0 -0.17975629631934723 0.017426104989608796
880000000.0 0.18582245956497867 0.01465573486398905
900000000.0 -0.06891297927052499 -0.14492963774955278
920000000.0 0.14908571808659618 -0.01733607502367601
940000000.0 0.12496196035415288 0.047163403741083756
960000000.0 -0.02632308853326065 0.10732010608799572
980000000.0 -0.007198603102853822 -0.06821408061497318
1000000000.0 -0.03118141794084039 -0.023633384338978842
1020000000.0 -0.045401418593475774 0.0030229300322681023
1040000000.0 0.01048362674224731 -0.07595397400789837
1060000000.0 -0.0028514569417674458 0.11365003900161616
1080000000.0 0.12966979801639883 0.09031863264008483
1100000000.0 0.13365651009799856 -0.11854086185251653
1120000000.0 -0.20411340335687883 0.056397691711866565
1140000000.0 0.1633746338122585 -0.19075368357713743
1160000000.0 0.2847336701092523 0.0200956554424469
1180000000.0 0.30640662123178775 -0.037462624029714474
1200000000.0 0.31085908285552105 0.08875771968720556
1220000000.0 0.32360803277300715 0.01500776761449129
1240000000.0 -0.2595587765187065 0.20214102167279907
1260000000.0 -0.3337263830632819 0.03843680216721141
1280000000.0 -0.33855330482196405 -0.017678318016506572
1300000000.0 0.24184946358191942 -0.2518112440787133
1320000000.0 0.17027950102894465 -0.3156174016600723
1340000000.0 -0.09922174037282548 0.3523113202229088
1360000000.0 -0.34689067894540326 -0.15095445060865306
1380000000.0 0.20989236654816723 -0.3133132819220072
1400000000.0 -0.3168009787952377 0.2022971581818024
1420000000.0 0.3200146334001411 0.18464797557479604
1440000000.0 0.3606334469492716 0.057859390895011284
1460000000.0 0.2708198833423918 -0.23594214360605303
1480000000.0 0.058976276959396515 -0.34353883160776916
1500000000.0 -0.09763179396868268 0.3241570036863315
1520000000.0 0.29045108378123125 -0.11520133217937698
1540000000.0 -0.2165502649686877 0.176866438621094
1560000000.0 -0.0034253582136693083 0.2404445979762737
1580000000.0 0.12111598279378594 -0.17597177081822724
1600000000.0 -0.07088284240337576 0.1661295120744437
1620000000.0 0.13265755108167196 -0.08707032337334646
1640000000.0 0.06003642795852452 -0.11731868244833106
1660000000.0 -0.08095747405863277 -0.050431034355397975
1680000000.0 0.05603047928022188 -0.06905147409958753
1700000000.0 0.025295883098259225 0.072770939202284
1720000000.0 0.041040352078194474 -0.030525425063255788
1740000000.0 0.01150337051536203 -0.04764686450874701
1760000000.0 0.034732050971015456 -0.05672432297014546
1780000000.0 -0.09432937511968563 0.02002053590786881
1800000000.0 0.058435257918338396 -0.11210067261825848
1820000000.0 0.154598379354275 0.03298119235139503
1840000000.0 0.14418485965993408 0.13360801266244124
1860000000.0 0.15305633617743375 -0.16413382714392077
1880000000.0 0.20165127019925272 -0.13463409227540848
1900000000.0 0.2297954993878424 -0.13916825718967724
1920000000.0 -0.2763336679626004 -0.0935550348522232
1940000000.0 0.2886101443299826 0.10083774299744883
1960000000.0 -0.3138828605813203 0.0018079680206793997
1980000000.0 -0.13700513886693563 -0.28236866174924136
2000000000.0 0.31049370857465936 0.05456424531345206
2020000000.0 0.2653422246444078 0.15987687821889326
2040000000.0 -0.023910495375953356 0.30991806876902384
2060000000.0 -0.038461058974815075 0.3052676251083756
2080000000.0 -0.2983885896610341 0.04101974918723405
2100000000.0 0.24299001612363133 0.18634895144544747
2120000000.0 -0.2547557265294189 0.17328903978802376
2140000000.0 -0.1065425441260221 -0.2813124927658524
2160000000.0 -0.1220811623625847 0.27199171540058953
2180000000.0 0.2371091584045861 0.16708403054579196
2200000000.0 0.2337497995560728 -0.15824008793479152
2220000000.0 0.18605203029368853 0.20036973350290965
2240000000.0 0.11073370478314529 0.25048838753226466
2260000000.0 -0.19764130649090503 0.16402399390492037
2280000000.0 -0.005522149547520797 -0.2460369386612349
2300000000.0 0.18737043237941925 0.15408573511790724
2320000000.0 -0.10472426588745558 0.20565694752082192
2340000000.0 0.2191052893279028 -0.04692214025111396
2360000000.0 -0.11782996971940596 0.18639537232017903
2380000000.0 0.20103993871337605 -0.11217262244441747
2400000000.0 0.20669219132481428 0.14506682934204346
2420000000.0 0.19031383233472868 -0.20259118591123773
2440000000.0 -0.20388675856575444 0.22879043537487143
2460000000.0 0.07413884783001244 -0.3296954699445644
2480000000.0 -0.359378285642171 0.09360789444679457
2500000000.0 -0.08725974970758585 -0.4016928625516973
2520000000.0 0.434354563525364 -0.10426882562431186
2540000000.0 -0.05477845508527701 0.4768823044967259
2560000000.0 -0.26310812505859993 -0.4410629228937537
2580000000.0 0.5046070286839994 0.21077684704705532
2600000000.0 -0.5487757217956464 0.16614897232356038
2620000000.0 0.3413129657556572 -0.4872432647363408
2640000000.0 -0.00025567308751154726 0.6128469227960006
2660000000.0 -0.5791598544650747 -0.23955020093726442
2680000000.0 0.22496569343509387 -0.5935291623019545
2700000000.0 0.6355012062873047 -0.09215850606703573
2720000000.0 0.5902136469029512 0.26041828367292835
2740000000.0 0.526809680302854 0.3723775339191758
2760000000.0 0.5294197772188272 0.3651675028527889
2780000000.0 -0.5903682289008412 0.2363752186369386
2800000000.0 -0.6127727532190318 -0.1356023050412691
2820000000.0 -0.12472949047782723 -0.6022375235864904
2840000000.0 0.5600752746699496 0.2213052566361727
2860000000.0 -0.5866428195641669 -0.07970100094320728
2880000000.0 0.5064401786848514 0.2755555690985082
2900000000.0 0.13249734012861983 -0.5431492764842233
2920000000.0 -0.5287786064210687 -0.1085812965955572
2940000000.0 -0.3072786771827331 0.41378407885527124
2960000000.0 -0.05182075101151002 0.49070977511339103
2980000000.0 0.37308044704123955 0.2925424727326681
3000000000.0 0.26405246829592405 -0.3644441647830613
3020000000.0 -0.40438039083554334 -0.1289558585626357
3040000000.0 0.15040868391152287 0.36853578849954516
3060000000.0 -0.05481580023561273 -0.371818328420352
3080000000.0 -0.03698125769284111 0.3493469930754901
3100000000.0 0.1303429333359235 -0.30732852482883677
3120000000.0 -0.1899146784082022 -0.2653321155329901
3140000000.0 0.2154074947164816 0.23011777769997432
3160000000.0 0.009790269147467173 -0.31436458858131305
3180000000.0 -0.06402973477145518 0.3089392303956874
3200000000.0 -0.014118197154583345 -0.3057697607443076
3220000000.0 -0.2930052522013098 -0.016373305247917958
3240000000.0 -0.2771234103794149 -0.012102521300805672
3260000000.0 -0.14232767491028817 -0.22336002175244116
3280000000.0 0.08170576514409318 -0.23362195727189045
3300000000.0 0.01268923419092853 0.23133818204039028
3320000000.0 -0.21075089224020416 -0.022308547315518637
3340000000.0 0.1254875643412109 -0.14668762442213543
3360000000.0 -0.12706942532309282 0.11311571310184161
3380000000.0 0.04851288017270908 -0.13442008291748656
3400000000.0 0.1150015977075256 0.036397192177852276
3420000000.0 0.07583957171508478 0.08048189304048849
3440000000.0 0.06988997234929534 -0.07445511019160023
3460000000.0 -0.06454589125622699 -0.0725394835001929
3480000000.0 0.01976512072391507 -0.08215050662182696
3500000000.0 -0.05304695758763157 0.05052497408161815
3520000000.0 -0.06670852165805619 -0.012893945666104618
3540000000.0 0.026812284732931374 0.05810820337974589
3560000000.0 0.06314428239255689 0.016322402568763265
3580000000.0 0.06886444791671582 -0.028958846173798417
3600000000.0 -0.08328258325484166 -0.017606179870809906
3620000000.0 0.03905885310004788 0.0879852275974456
3640000000.0 0.0657287930307072 0.0827992631584653
3660000000.0 -0.01259935151300962 -0.10361485290778846
3680000000.0 0.07321208853045182 -0.06905316703814554
3700000000.0 0.02155051881235079 -0.09226267681024987
3720000000.0 0.0007669695169220103 0.0856714935142333
3740000000.0 0.001863919839893651 -0.0747683962672498
3760000000.0 -0.0010205002871620187 -0.06910268548286538
3780000000.0 0.04938250729488615 0.03207371483784035
3800000000.0 0.023402497261017327 -0.038966133393481886
3820000000.0 0.023522047358676107 -0.0258665148342621
3840000000.0 -0.017903469125389048 -0.05111947924015317
3860000000.0 -0.05374721490733038 -0.050224428561952694
3880000000.0 -0.09361315979586436 -0.016564121018015816
3900000000.0 -0.06727207920773312 -0.07582982881098467
3920000000.0 -0.024603092274821655 0.10122518122113354
3940000000.0 0.10496620770189155 -0.01756880926960652
3960000000.0 -0.10574593037404509 -0.012603356704835342
3980000000.0 0.08451172103726828 0.045779575413794044
4000000000.0 0.04528658848882809 -0.07111926524764507
