!Created with skrf (http://scikit-rf.org).
# Hz S RI R 50.0 
!freq ReS11 ImS11
400000000.0 -0.6822983769326979 0.46491249751336294
420000000.0 0.5283270985307631 -0.528025445779768
440000000.0 0.5092220522674874 0.5031481111615874
460000000.0 -0.44674975435412817 0.5110122440511332
480000000.0 0.48616660089576785 0.32210067688970523
500000000.0 -0.11723302508541222 -0.45802352030382415
520000000.0 -0.3243903629548881 -0.22238364132480204
540000000.0 0.38470945086030206 0.27635190429184214
560000000.0 0.036124475467035025 -0.471335477493553
580000000.0 0.4102288826849138 0.09377025777253896
600000000.0 -0.3408720788628564 -0.13796041708121615
620000000.0 -0.10000650699840331 -0.3501506007320656
640000000.0 0.36051814489120837 0.05521373841245516
660000000.0 0.018017245990682124 0.3498171517096648
680000000.0 0.34017915067635174 -0.005333797150392737
700000000.0 -0.27217471724543596 0.19629371492369727
720000000.0 0.345216484928844 -0.05859852885234258
740000000.0 0.26196684688562843 0.1781477604710575
760000000.0 -0.28616311901950786 -0.12654034963305236
780000000.0 -0.2905903505685226 -0.006440589890339252
800000000.0 0.11225122393522621 -0.21927717172508643
820000000.0 -0.18403729104818659 -0.11646698007516748
840000000.0 0.051233929444176665 -0.20531915271318324
860000000.0 -0.17495675017762263 0.044394367460286535
880000000.0 0.1813204601397222 0.04393563960487235
900000000.0 -0.07280340380748322 -0.14328338937736007
920000000.0 0.1494672608359971 -0.012584974949918696
940000000.0 0.1220128292087352 0.05346917040377491
960000000.0 -0.021650953270436833 0.10805484222349719
980000000.0 -0.02708715354587551 -0.06336653417951343
1000000000.0 -0.03816669502109174 -0.009105110848840157
1020000000.0 -0.04303941055360422 0.016014425863367578
1040000000.0 0.010759987141456566 -0.07599177388907737
1060000000.0 -0.019126929183630372 0.11192406090265306
1080000000.0 0.10824302613372133 0.11504386017034231
1100000000.0 0.14030944345566046 -0.11098903588598194
1120000000.0 -0.20114166013342905 0.06554725732974809
1140000000.0 0.18691533952457362 -0.16775189490183726
1160000000.0 0.281451006807993 0.04458414961073184
1180000000.0 0.306197403528302 -0.04019894886687272
1200000000.0 0.30644693923653404 0.10300575649170024
1220000000.0 0.3226045922672359 0.030375921454106856
1240000000.0 -0.255173651249167 0.20739176043737273
1260000000.0 -0.3345447777338576 0.029127783381987148
1280000000.0 -0.33723564672318285 -0.03551833385680764
1300000000.0 0.2485552831723856 -0.24525866065067572
1320000000.0 0.18352533762882142 -0.30816547076745254
1340000000.0 -0.0976943171559609 0.35260516517706164
1360000000.0 -0.34340312294463804 -0.15800687134582628
1380000000.0 0.20620729300686794 -0.31589724162769106
1400000000.0 -0.31799865075816613 0.20005074097318945
1420000000.0 0.31737865341372107 0.18914039110107708
1440000000.0 0.3635581828792196 0.030961613507303944
1460000000.0 0.25617550046536597 -0.251962292869288
1480000000.0 0.11185494245482767 -0.33135015963203074
1500000000.0 -0.12128821006960176 0.31588876227205215
1520000000.0 0.29531247147897843 -0.10202853105391543
1540000000.0 -0.21381999298000678 0.18000748517034607
1560000000.0 -0.0027323891260818416 0.2403856237435153
1580000000.0 0.11539967047187862 -0.180111932665729
1600000000.0 -0.05879173711791336 0.17080258210148316
1620000000.0 0.14031208112246749 -0.07417743236455022
1640000000.0 0.06237356204202143 -0.1165284107143133
1660000000.0 -0.0829401733105836 -0.046742051645649194
1680000000.0 0.030122044076910475 -0.08334050268705684
1700000000.0 0.000785313207261819 0.0767079403792206
1720000000.0 0.0376042041505763 -0.03474729908290352
1740000000.0 0.03140349065476227 -0.03789175278573095
1760000000.0 0.038183942329553335 -0.05433192570173096
1780000000.0 -0.09228039304346991 0.028227424429027682
1800000000.0 0.05143709020407513 -0.11560373548892255
1820000000.0 0.15384768497872744 0.03629689804749122
1840000000.0 0.1409005778307512 0.13673166724846145
1860000000.0 0.16155580250801638 -0.15574051992480933
1880000000.0 0.18315144886906867 -0.15907639865770942
1900000000.0 0.22937405092406227 -0.13987486315174513
1920000000.0 -0.27588982793230693 -0.09512350743780074
1940000000.0 0.28362977582598464 0.11401692858326562
1960000000.0 -0.31356100666575415 0.009516320532322833
1980000000.0 -0.1274465117860824 -0.28666177806744125
2000000000.0 0.31230953144134715 0.043478325565299215
2020000000.0 0.26169990987930647 0.16537123291006145
2040000000.0 -0.023899653780540805 0.3103295240857128
2060000000.0 -0.0502031076205696 0.30344901156598436
2080000000.0 -0.29988075360770494 0.028340837582206485
2100000000.0 0.2292884710325229 0.20278082333480466
2120000000.0 -0.2604379260660637 0.16492524057393035
2140000000.0 -0.10533582706110806 -0.2815707586992781
2160000000.0 -0.1285340394769688 0.2692699669920296
2180000000.0 0.24397150800263417 0.15661502190969503
2200000000.0 0.23378227110976033 -0.1588211063349922
2220000000.0 0.18901489011455114 0.1972179261707968
2240000000.0 0.11464319014288907 0.24869701625260004
2260000000.0 -0.19330177946852498 0.16878869764639928
2280000000.0 -0.011050347504059869 -0.2459694787850399
2300000000.0 0.19031277567705313 0.1502765150381301
2320000000.0 -0.10341954382680488 0.20615774343701607
2340000000.0 0.21743754386453626 -0.05268790840111684
2360000000.0 -0.13009686422080943 0.1782385091487128
2380000000.0 0.19492407530068082 -0.12218489732755168
2400000000.0 0.192162071665608 0.16390243776760968
2420000000.0 0.21010513812775386 -0.18204696299334228
2440000000.0 -0.21135581281714072 0.22204360831473383
2460000000.0 0.09757187484297364 -0.32352017390219173
2480000000.0 -0.34728288285522524 0.13013658396189584
2500000000.0 -0.14104609816590258 -0.38677757049611544
2520000000.0 0.43160407013314545 -0.11612651585891494
2540000000.0 -0.0723938220005841 0.47432730341969814
2560000000.0 -0.25601687655486355 -0.44514819283925117
2580000000.0 0.48522198635734715 0.2516097574658354
2600000000.0 -0.5501927079317767 0.16160772482523306
2620000000.0 0.3940233459539636 -0.44645170669834644
2640000000.0 0.02001855019316213 0.6123166569574489
2660000000.0 -0.5833042574696758 -0.22906023195210773
2680000000.0 0.29617003273779796 -0.5617199983044779
2700000000.0 0.6404763857339394 -0.04041190493930122
2720000000.0 0.5972852430674093 0.24309082829964693
2740000000.0 0.5146643746297546 0.3891689283244593
2760000000.0 0.4788008755528819 0.42900146498659114
2780000000.0 -0.5928249710651503 0.23050836963073812
2800000000.0 -0.6114848444772095 -0.14118603695979756
2820000000.0 -0.14609860717166068 -0.5973972573105576
2840000000.0 0.5453204462786685 0.2556548069508338
2860000000.0 -0.575239518560689 -0.14042208180211505
2880000000.0 0.5040008017520652 0.2801468927929664
2900000000.0 0.1412900555413387 -0.5408062161323237
2920000000.0 -0.5162449749094329 -0.15887033939564293
2940000000.0 -0.33340055771055543 0.3933500581266722
2960000000.0 -0.07832379084639653 0.48749522051419386
2980000000.0 0.3704511651035327 0.2950165467592827
3000000000.0 0.22012208262800392 -0.39275430311317355
3020000000.0 -0.41193340448024174 -0.10151374773319924
3040000000.0 0.12048337627428529 0.37986879343820457
3060000000.0 -0.11319383011184063 -0.3583814631763633
3080000000.0 -0.02581733147928637 0.3501263324692785
3100000000.0 0.12844715469779877 -0.30812992475166934
3120000000.0 -0.11344805563309186 -0.30508629724911324
3140000000.0 0.217893092201722 0.22755546355546158
3160000000.0 0.005532697554448605 -0.3142970215262949
3180000000.0 -0.06343304302934705 0.30932991320149233
3200000000.0 -0.0037396925291962027 -0.30634750389978765
3220000000.0 -0.29340073690293395 -0.007414561317462901
3240000000.0 -0.2764002340985278 -0.03364831119404211
3260000000.0 -0.12996316428287463 -0.2307057508719971
3280000000.0 0.11094314468222072 -0.22240502002537063
3300000000.0 0.06366474359750962 0.22186837821196734
3320000000.0 -0.2102415026728469 -0.024280088874767625
3340000000.0 0.15808442075323123 -0.11171004486857963
3360000000.0 -0.14946300992554828 0.08149725909894336
3380000000.0 0.045633406101335164 -0.13544062166501544
3400000000.0 0.11417951818390362 0.03826348022975153
3420000000.0 0.06980958570774157 0.0845752826856173
3440000000.0 0.08867307753797009 -0.05055585430476574
3460000000.0 -0.06524116500344675 -0.07142960676507534
3480000000.0 0.01840892517348564 -0.08290431478723755
3500000000.0 -0.03519676946698495 0.06442517525845051
3520000000.0 -0.06654194068755928 -0.010884109787258896
3540000000.0 0.02208125910345601 0.060361043136713234
3560000000.0 0.06081678564713399 0.023989221725350358
3580000000.0 0.06193104732192006 -0.04184704739311783
3600000000.0 -0.07978431483311352 -0.028936481987279602
3620000000.0 0.01721901072274783 0.09456546651249671
3640000000.0 0.08001153412330275 0.06957718946413827
3660000000.0 -0.03606570509015212 -0.09756150529479142
3680000000.0 0.07421703199663664 -0.0682021784317124
3700000000.0 0.052756325713472045 -0.07871403019829411
3720000000.0 -1.5078643189366554e-05 0.08594575358374686
3740000000.0 -0.009613277804875486 -0.07432298988607297
3760000000.0 0.01517926125000558 -0.06730554511546813
3780000000.0 0.05846631491116481 0.009106785268578376
3800000000.0 0.009294921344297236 -0.04465133308200398
3820000000.0 -0.005062915677976107 -0.03479393453010002
3840000000.0 -0.011838338679215113 -0.05294640792258309
3860000000.0 -0.038889577492409726 -0.06263342068342771
3880000000.0 -0.09291494378277998 -0.0200393963153121
3900000000.0 -0.07009902563774868 -0.07346196785980522
3920000000.0 -0.045223557966716794 0.09374436961007585
3940000000.0 0.10514641826850596 0.015397743989918005
3960000000.0 -0.0784106178942829 -0.07072973621318837
3980000000.0 0.05193478327984897 0.07966913664250436
4000000000.0 0.06528670570777631 -0.05131135552853369
