!Created with skrf (http://scikit-rf.org).
# Hz S RI R 50.0 
!freq ReS11 ImS11
400000000.0 -0.613681217136303 0.6058467892813717
420000000.0 0.25489122045324775 0.8184133032317153
440000000.0 0.8248196865949643 0.08444211188103652
460000000.0 0.3451597058557287 -0.7060494215502563
480000000.0 0.3934832690697907 0.5861945295147671
500000000.0 0.5441680774490955 0.2264036355728279
520000000.0 0.2568547950389741 -0.44507861921241215
540000000.0 0.4484627029377564 -0.08137796902412595
560000000.0 -0.38938355825765664 0.03122175328094094
580000000.0 0.2905133608207889 -0.21323854262573558
600000000.0 -0.3252010279535074 -0.16132378957954863
620000000.0 0.3441314816135562 -0.15517554185024293
640000000.0 -0.16835362428187445 -0.3591984603904251
660000000.0 -0.40999478414918783 -0.02778432462494453
680000000.0 -0.3277386967135119 -0.26279932125819494
700000000.0 -0.3490923242824249 0.23790959054819896
720000000.0 -0.3405836011442148 0.23407013681493274
740000000.0 0.36270595789935006 -0.19040410640146874
760000000.0 -0.23137552598463415 -0.3166455344573878
780000000.0 0.28351013826813276 0.22120208282330586
800000000.0 0.2519780407936016 -0.19923549537901872
820000000.0 -0.27547233413094524 0.010702052869410254
840000000.0 -0.22541858183154595 0.07314637189283439
860000000.0 -0.18107378470972327 -0.10052833721821165
880000000.0 0.1460468038703815 -0.060076813336003475
900000000.0 0.042172283945664496 0.09544149706263748
920000000.0 0.03238850096972111 -0.06549244616783154
940000000.0 -0.047823994014771776 0.005964547612761982
960000000.0 -0.050010493589813625 -0.01876842752383841
980000000.0 0.060548541397102404 -0.038130744376528324
1000000000.0 0.08037116856202642 -0.031909912254473566
1020000000.0 -0.055329435994542805 -0.0908010319952749
1040000000.0 0.11985729106001458 -0.02111977474834692
1060000000.0 0.15286559106890846 -0.03491294650598667
1080000000.0 0.17448531626296596 0.011215615899474967
1100000000.0 -0.18569265848858554 -0.06480089816153844
1120000000.0 0.18202985340425462 0.11725162131684869
1140000000.0 -0.08221391075633917 -0.23496933319624846
1160000000.0 -0.24716048690591405 -0.13351316511993616
1180000000.0 -0.21564219039292815 -0.22920611484392386
1200000000.0 0.1264335949525332 -0.3171251531251332
1220000000.0 -0.16052527304074732 0.32608366352353274
1240000000.0 0.38502021278706516 -0.03430351951203879
1260000000.0 -0.11272973494269942 -0.3939912734235668
1280000000.0 -0.28079195416738006 0.3237627267796067
1300000000.0 0.3422086532710246 0.2784227894049952
1320000000.0 0.3629310174140671 -0.25101392049475807
1340000000.0 0.4072662662060343 -0.1685261018789242
1360000000.0 0.3708247698441545 -0.236996895405942
1380000000.0 0.09757692229031151 -0.42827925239090814
1400000000.0 -0.4255518219376144 0.006427792483892065
1420000000.0 0.03058346600701139 0.40484942608245156
1440000000.0 0.3798392521838831 0.020842429634326066
1460000000.0 0.04924148423222862 -0.34627250933665943
1480000000.0 -0.31034581256911214 -0.0751169348842749
1500000000.0 -0.08156183791225217 0.2744628017318442
1520000000.0 0.163749127775946 0.19546727277864728
1540000000.0 -0.1991554320040339 -0.10428222312597453
1560000000.0 0.09934369117603277 -0.16327114669469767
1580000000.0 0.14434153057352378 0.07393365148511268
1600000000.0 0.10324438809524518 -0.08054252102707322
1620000000.0 0.08444363839324173 -0.05380189209244286
1640000000.0 -0.07415961847643528 0.023184426257188587
1660000000.0 0.04927260000349815 -0.023536764504660163
1680000000.0 -0.024645749716378965 -0.025732203014444663
1700000000.0 -0.008084622967243263 0.01983455509275209
1720000000.0 -0.0006148347218344266 0.010316333248464718
1740000000.0 -0.0022700819169634914 0.019393037433316548
1760000000.0 0.006126528724569036 0.03304421220449328
1780000000.0 0.0488351381039494 0.03697929644810047
1800000000.0 0.09620797804227806 0.010788011032200834
1820000000.0 0.12408920896780341 0.04110950041099482
1840000000.0 -0.14283286177918075 -0.09507800960358426
1860000000.0 0.2104698757450123 0.01551524804140006
1880000000.0 -0.2457032550548338 -0.036366875684296335
1900000000.0 0.2411260285246071 0.15721579378224002
1920000000.0 -0.22477813825071988 -0.2313616103926605
1940000000.0 -0.15663647369229386 0.31795968744434305
1960000000.0 0.37404237143008956 -0.08637609452242884
1980000000.0 -0.3025766675091625 -0.26776722914005374
2000000000.0 -0.3537377411296949 0.2281241079250367
2020000000.0 0.2882151735794945 0.32087977303665155
2040000000.0 0.43192627519663984 -0.05321564299068825
2060000000.0 0.18439716820992355 -0.3952587600148068
2080000000.0 -0.07253735458816025 -0.4267053896337869
2100000000.0 -0.26216098504253255 -0.3385226982410234
2120000000.0 -0.41727849289199914 -0.059202483156506135
2140000000.0 -0.3083463229200741 0.274976020288164
2160000000.0 -0.39791700599002655 0.02330193180930629
2180000000.0 -0.23299538594341215 0.30469539678109736
2200000000.0 0.06490628927970424 0.3662903110102276
2220000000.0 0.3264752452518731 0.1611556370600964
2240000000.0 0.26695285108959826 -0.24576287452559062
2260000000.0 -0.1806895182873219 -0.31755493960514125
2280000000.0 -0.36092270787280806 0.08556846622819125
2300000000.0 0.24832911532663116 0.2962524868147969
2320000000.0 0.07675728762605849 -0.40449005515286346
2340000000.0 -0.32154237638238864 0.3051318021580369
2360000000.0 0.41212593514889717 -0.2504341018152258
2380000000.0 -0.39289344515028435 0.3482920871413518
2400000000.0 0.2462940341936883 -0.5123117645200052
2420000000.0 0.10061653858467942 0.6007918643809539
2440000000.0 -0.43918520285438967 -0.47251759921525033
2460000000.0 0.6131312967937933 0.2760637298380542
2480000000.0 -0.6577906703144563 -0.21365313901620434
2500000000.0 0.4870361837300501 0.5043196624416535
2520000000.0 -0.06595562662696992 -0.6997864862104974
2540000000.0 -0.4701170186067132 0.5142417886215253
2560000000.0 0.6129260724370895 0.30547478284506707
2580000000.0 0.19420331281763503 -0.6344193626465082
2600000000.0 -0.6189731981216365 -0.1451575692041126
2620000000.0 -0.1680499324186767 0.5795844336335448
2640000000.0 -0.31100968301242404 0.47202607584906486
2660000000.0 0.3705365293655592 0.3686778704823513
2680000000.0 0.42442989798196945 -0.2243571820747119
2700000000.0 -0.19349381230696241 -0.39356901061855537
2720000000.0 -0.3430833992532819 0.19909955413736183
2740000000.0 0.19199711049442272 0.3037005233707481
2760000000.0 0.17936677595863973 -0.27253743394937036
2780000000.0 -0.24912122080614268 0.16948900609681744
2800000000.0 0.2205613738498457 -0.1752144986153459
2820000000.0 0.06356234176715041 0.2609121128025001
2840000000.0 -0.26016747813118335 0.007215053463705704
2860000000.0 0.037228772018192496 -0.25564550914557327
2880000000.0 0.255704614915109 0.036948958741218535
2900000000.0 -0.239869060637231 0.1035654371744417
2920000000.0 0.2658388643647151 0.015744521324114538
2940000000.0 -0.1426072334265125 -0.23396081278799324
2960000000.0 -0.2757109715684512 0.0373141456519918
2980000000.0 -0.27611520603275563 0.063058375389839
3000000000.0 -0.27130896610050487 -0.09549485975659111
3020000000.0 0.03544352309081666 -0.2865009426491365
3040000000.0 0.2726647260622166 0.08991314297681585
3060000000.0 -0.28491534595133283 -0.018215687427000075
3080000000.0 0.28068446251140966 -0.02708648390114648
3100000000.0 -0.2767226721181449 0.031900171397005725
3120000000.0 0.26636580279016175 -0.058028133617708116
3140000000.0 -0.15335520151005858 0.21542865506292802
3160000000.0 0.04625111761357613 -0.24712521259592218
3180000000.0 -0.23263460058576463 0.03964284387560627
3200000000.0 0.09623199601941443 -0.19212337010097857
3220000000.0 0.10008206372023178 0.1609530975494597
3240000000.0 -0.13597748705454413 -0.08794130834104036
3260000000.0 0.013281323041501519 0.1301574116373234
3280000000.0 0.09941519879849656 0.01980732051053905
3300000000.0 0.043754006775644345 0.06041830651611198
3320000000.0 0.04788815921409857 -0.013366163300696109
3340000000.0 0.027964154368605353 0.010190652732744878
3360000000.0 -0.011303305171263314 0.013965492378131364
3380000000.0 0.0035014424537698516 0.01338610381632794
3400000000.0 -0.018135578518781177 6.47069420250161e-05
3420000000.0 0.014923704838426297 -0.020697223643371402
3440000000.0 -0.002938008304154366 0.03513120868998914
3460000000.0 0.014129741005483885 0.03979177719107139
3480000000.0 0.04118038613882323 0.030683328972216876
3500000000.0 -0.06324377924613166 -0.014447141634671954
3520000000.0 -0.07663359381498736 -0.021693066187998346
3540000000.0 0.04960142297486212 0.08139121224475938
3560000000.0 -0.04317853507191927 -0.10148561311974329
3580000000.0 0.021319158905703506 0.12391601726449275
3600000000.0 -0.14565982698362004 0.0007915058369676535
3620000000.0 -0.13870340984049925 -0.07849566311073679
3640000000.0 0.029598574247720666 -0.16817246945508127
3660000000.0 0.07021485484106336 -0.1673547144844362
3680000000.0 0.17837202035529204 -0.05400690043405756
3700000000.0 0.15290811103243462 0.10856520692014411
3720000000.0 -0.045628634956221006 0.18220012297302435
3740000000.0 -0.17219692290510533 0.06938485091318923
3760000000.0 0.1735061863289957 -0.048309383106310846
3780000000.0 -0.1720390212294056 -0.024834006610248087
3800000000.0 -0.012917863398713904 0.16645796730322288
3820000000.0 0.13311477790154724 0.09290641617703167
3840000000.0 0.14381064503774874 0.06751487132468179
3860000000.0 0.06864790975894332 0.14542265138674315
3880000000.0 0.16690604835819697 -0.0026758825943703937
3900000000.0 -0.12668090073858418 -0.1139962883323072
3920000000.0 0.12379918233611126 0.12513232009302366
3940000000.0 -0.15427992246438874 0.09353823894579925
3960000000.0 -0.18146842126887172 -0.02055668822853024
3980000000.0 -0.12165539126698675 0.1356901903566592
4000000000.0 -0.07325989531872827 0.15899908830926832
