!Created with skrf (http://scikit-rf.org).
# Hz S RI R 50.0 
!freq ReS11 ImS11
400000000.0 0.6878728461281807 -0.6027130539753015
420000000.0 0.8571074367807482 -0.15132395596421086
440000000.0 0.44616645038182196 0.7016248476213421
460000000.0 -0.35010786353462675 -0.7135857984218263
480000000.0 0.0908113202049127 -0.7759388055470775
500000000.0 -0.4519642215817648 0.6290996720847665
520000000.0 0.6030269862021659 0.3935397200684923
540000000.0 0.28269771025583823 -0.6285975781408872
560000000.0 -0.24156157364738065 0.6064868486544694
580000000.0 -0.3592234770333323 0.4321861404023304
600000000.0 -0.29839796732226753 0.49079520506180435
620000000.0 -0.19521626784750928 0.5256388938978125
640000000.0 0.04815856818178426 -0.5448494774781059
660000000.0 -0.43760783830015176 -0.28529397017826874
680000000.0 -0.4833472114827259 -0.022507569337960512
700000000.0 0.30980139912504306 -0.36365534128754007
720000000.0 0.38846329513730216 0.27542029305519994
740000000.0 -0.41382237261369026 -0.19751138589554695
760000000.0 -0.4007214161310798 -0.21184695014574353
780000000.0 -0.406133645937796 -0.16488492387586895
800000000.0 -0.31432923345339386 0.23316590581473917
820000000.0 0.08067305817613388 0.3271367779649441
840000000.0 0.3129913639915354 -0.011486603643632699
860000000.0 0.28107831409995876 0.02774260996922764
880000000.0 -0.21091961739400406 -0.1558657248145873
900000000.0 -0.13809345604600307 -0.20007375158136664
920000000.0 0.062108722508975096 0.20991396662982623
940000000.0 0.17004637137598294 0.10196378264396293
960000000.0 0.04742464825459086 -0.1459212305873016
980000000.0 -0.09887308118727461 -0.04824636322992605
1000000000.0 -0.07685688381712535 -0.025719167592405306
1020000000.0 0.0709907808634104 0.025816399313464578
1040000000.0 0.02845019062063462 -0.0904885590644628
1060000000.0 -0.12189766144164738 -0.056434696584015835
1080000000.0 -0.14681598135374868 -0.11479698297806214
1100000000.0 0.026224936160301703 0.22189502059775612
1120000000.0 0.12398113039692112 -0.2379686024058132
1140000000.0 -0.2789541152697227 -0.02717368362131895
1160000000.0 0.24708198945479906 0.16992592332330736
1180000000.0 0.15460538688609832 0.2963901379874374
1200000000.0 -0.09420345713521106 0.33973446096007176
1220000000.0 -0.24254827350035182 0.25218005572839464
1240000000.0 -0.1520371648655609 -0.3245582252820672
1260000000.0 -0.2379247515153499 -0.26645695165144334
1280000000.0 0.36446312995198854 0.03361818515384961
1300000000.0 -0.08350771855718349 -0.37316652170360953
1320000000.0 0.3135686330296626 -0.19499033877842797
1340000000.0 -0.3694736490238172 -0.08120593061961728
1360000000.0 -0.048419880288144555 -0.3787885156756835
1380000000.0 -0.06662488259264028 0.3781948159366213
1400000000.0 0.21559706456570166 -0.32550468017486567
1420000000.0 -0.3580503143273424 -0.1429422700838412
1440000000.0 -0.09680319699387693 -0.36373488552914063
1460000000.0 -0.11612640019553645 -0.35911008076402867
1480000000.0 -0.37743433332570564 0.016991946863259753
1500000000.0 -0.37803644750221044 -0.007455378691152041
1520000000.0 0.3584346661625739 -0.11031008156226478
1540000000.0 -0.08549760383132815 0.3517261619303765
1560000000.0 -0.3301195423539929 0.044665211551771035
1580000000.0 -0.20936401226086052 0.2100637800638355
1600000000.0 -0.24207183635721746 0.08456275121710419
1620000000.0 -0.21329790049605604 0.007887886128412456
1640000000.0 0.1293076488172267 0.12605480610739045
1660000000.0 0.04757040684144451 0.14343507087595242
1680000000.0 0.11376118678550999 0.02913377888548651
1700000000.0 -0.09579451555310611 0.0033262164162962578
1720000000.0 0.05903571724950925 -0.0592962020306662
1740000000.0 -0.05919205509458708 0.03145500146313528
1760000000.0 0.0205019453198758 0.09039389787277012
1780000000.0 -0.03249193194692247 0.09627561660275302
1800000000.0 0.10956458832645709 0.06201666002396223
1820000000.0 0.09063627599408829 0.13026713631759052
1840000000.0 0.18487267242702327 0.022286984716446374
1860000000.0 0.12940785251943576 -0.16708518006143855
1880000000.0 -0.1202831011878948 -0.21606117057941487
1900000000.0 -0.2545203650904159 -0.07628817218997738
1920000000.0 0.2567398274666581 0.1435530887505587
1940000000.0 -0.19058439287578163 -0.2352179706947441
1960000000.0 0.30989783796145887 0.007196955928305424
1980000000.0 -0.31193620358617696 0.04547593228234415
2000000000.0 -0.09979270836725043 -0.30932023886075655
2020000000.0 -0.1745874647821588 -0.272134306492322
2040000000.0 0.26182490410830556 -0.18345355651013562
2060000000.0 0.25585084538846964 0.19825207614559134
2080000000.0 0.29840157084334146 0.12011197551508851
2100000000.0 0.023235905615611927 -0.314659945989387
2120000000.0 -0.22685942443247686 0.21442675474633713
2140000000.0 0.216604148256969 -0.2233579786326644
2160000000.0 -0.30710018257427635 -0.03874967258156626
2180000000.0 -0.030498303614503595 0.30375260804198967
2200000000.0 0.19804621747734097 0.21816844382962916
2220000000.0 0.0183989799829291 0.28457239300531245
2240000000.0 -0.24703017741588612 -0.12624866658722306
2260000000.0 0.10298000336507515 0.25440803701667036
2280000000.0 0.055383232532602106 0.26698913298375027
2300000000.0 -0.24792562910143856 -0.11890153877941735
2320000000.0 -0.24922298728188774 0.11242146951521234
2340000000.0 -0.22782490636639785 -0.12326307503888997
2360000000.0 0.1885065839450743 -0.17241378755843545
2380000000.0 0.13063207799896073 0.2250166076016168
2400000000.0 0.08875019078182599 0.25157566551601207
2420000000.0 -0.2195993863878587 0.18673978157987894
2440000000.0 0.30619054998583367 0.059663947333877844
2460000000.0 -0.15015022234196032 -0.30661204258232166
2480000000.0 -0.16945632546742562 0.3289711894866196
2500000000.0 0.261417175763485 -0.30830042945964925
2520000000.0 0.0068542474348518055 0.4453007213259573
2540000000.0 -0.26572061820279286 -0.39896378982767633
2560000000.0 0.48959019836208917 0.16277903458764406
2580000000.0 -0.5445595095962372 0.05896835756792612
2600000000.0 0.48391267859743387 -0.3123266328481241
2620000000.0 -0.4213675130631211 0.42284123607273255
2640000000.0 0.2885369965764104 -0.5480426378602309
2660000000.0 0.23861789886662957 0.5901417338552604
2680000000.0 -0.6454456410446825 0.03252292688724472
2700000000.0 -0.14311205125981616 -0.6406160939979976
2720000000.0 0.2412277882274619 -0.6188491190926169
2740000000.0 0.3433676928950939 -0.5722435726662789
2760000000.0 0.4396136082868241 -0.5046523048491485
2780000000.0 0.3466159863056768 0.568361146270806
2800000000.0 0.23913445666560032 0.6135780070760075
2820000000.0 -0.2210729698230674 0.6084260075706285
2840000000.0 -0.6178637443366309 -0.13249019449920135
2860000000.0 0.5497455715162861 -0.2808490606180594
2880000000.0 -0.5227369224254141 0.2913469340367036
2900000000.0 0.46423772246530626 0.34030793716525565
2920000000.0 0.3524086700770115 -0.42746689242347563
2940000000.0 -0.22400224460535545 -0.47698395083714273
2960000000.0 -0.22161737295531653 -0.44837994575468076
2980000000.0 -0.311379284770084 -0.3608195418732252
3000000000.0 -0.3748340360237726 -0.2631922408851761
3020000000.0 -0.4284525740840179 -0.05516266921250314
3040000000.0 -0.2399141075106305 0.34722994008639013
3060000000.0 0.37969371461043405 -0.13092434531856156
3080000000.0 -0.16226922268084415 -0.35212998642060067
3100000000.0 0.024961830833126614 0.3758562117726363
3120000000.0 0.3053999647363364 -0.2156147466846836
3140000000.0 -0.13559568780155934 0.3378387500672165
3160000000.0 0.15561823821821974 -0.3300126026537243
3180000000.0 0.16434240899483907 0.322505662915361
3200000000.0 -0.0021367508325870503 -0.3553948726830157
3220000000.0 -0.20646072294628204 0.27860208430478617
3240000000.0 -0.16362145935870384 0.29644094256344333
3260000000.0 0.31317704872236934 0.0799918625042726
3280000000.0 0.05438637763373539 0.3000995999187725
3300000000.0 0.1897529406751774 0.22125572080085185
3320000000.0 -0.08529804721769292 0.24905079197561167
3340000000.0 -0.04223680561983062 -0.2315815421656199
3360000000.0 -0.05327737887599598 0.20580730856098692
3380000000.0 -0.17295077568144201 -0.08516787634333248
3400000000.0 0.07786350904040565 0.15099980290214665
3420000000.0 -0.007594254481796802 0.1552377211292971
3440000000.0 0.02905408260673691 0.13419538080329876
3460000000.0 -0.11011767689667605 0.011267035895741457
3480000000.0 0.07778694698725303 0.06816738047418801
3500000000.0 -0.10075514738276033 -0.019231411193337457
3520000000.0 0.08879311050177395 0.01291559450083676
3540000000.0 0.06821798725843733 -0.07058079543942777
3560000000.0 -0.07892197448167995 0.06902920749972485
3580000000.0 0.08623633907712643 -0.06460661262805589
3600000000.0 0.0812941937531233 -0.07683606741657709
3620000000.0 -0.06198938684667908 0.10936425689365714
3640000000.0 0.11108165212265013 0.07217087096921115
3660000000.0 -0.06396188657970435 0.12731758035641477
3680000000.0 0.11445462198686517 0.09090413144092786
3700000000.0 -0.12324950792877239 0.05076743278177297
3720000000.0 0.0727366505635651 -0.09425425619402285
3740000000.0 -0.01446276199312772 -0.0999053080175282
3760000000.0 -0.08001723095782703 -0.012819097466425962
3780000000.0 0.024235815049902635 -0.05705965180542383
3800000000.0 0.03258367933948763 -0.011423531665776306
3820000000.0 -0.00020927550761673885 0.005429827444893545
3840000000.0 0.019684968138683305 -0.032724836074483545
3860000000.0 -0.07123784434674818 -0.009284049278547191
3880000000.0 0.03441790034188353 -0.08679570667971938
3900000000.0 0.035640763512690625 -0.10515547961321497
3920000000.0 0.034607206041998094 -0.12028267864343531
3940000000.0 -0.03404442789457867 -0.12792671494181532
3960000000.0 -0.09837184633699193 -0.09144365376842241
3980000000.0 0.013810112825508763 0.1293226509486964
4000000000.0 0.03362323085854621 0.10092113425666902
