!Created with skrf (http://scikit-rf.org).
# Hz S RI R 50.0 
!freq ReS11 ImS11
400000000.0 -0.5411634881482609 -0.6210690061126964
420000000.0 -0.5356630342827071 0.5408810547145321
440000000.0 -0.01816797625136299 -0.7437452447530112
460000000.0 0.7309334671749823 0.07866576608345208
480000000.0 0.547708391525137 0.35532092060676834
500000000.0 0.4729178369895052 -0.12452089107023466
520000000.0 -0.4004841112819409 -0.12576496405780177
540000000.0 0.5023471322029618 0.0414884630319206
560000000.0 0.3911622155478621 -0.31040422735388606
580000000.0 0.15146223542893253 0.40739441085155254
600000000.0 0.436396495821866 0.039628576007919844
620000000.0 -0.14348390770191785 0.3587817312805072
640000000.0 -0.3585351870030432 -0.0017406011952596132
660000000.0 0.2918699666678295 -0.2424163875776013
680000000.0 -0.2028500551064818 -0.2872351840517799
700000000.0 -0.019234141501393652 0.34507329274651377
720000000.0 0.32364798503038383 0.0007289746587429539
740000000.0 0.33006849698477647 -0.09354139301073633
760000000.0 0.29020417409238763 -0.0884644225700752
780000000.0 -0.2586118049095249 0.10171638144403472
800000000.0 0.21656114948754915 0.12250600327836374
820000000.0 0.03926030672922003 -0.21834999444770506
840000000.0 -0.19260624800679432 0.01689404054591667
860000000.0 0.08136184757111718 0.15039110962748384
880000000.0 0.16626396303267343 -0.06255984103504157
900000000.0 0.13574322968606853 -0.08434093868957716
920000000.0 -0.1262410128515905 -0.06579673007478988
940000000.0 0.12963666677811714 0.01734992918581549
960000000.0 0.09705590477723158 0.0051387060158461645
980000000.0 0.0076404260353847295 -0.058856700802346555
1000000000.0 0.036242218022278914 0.014606416050169537
1020000000.0 0.006053486543409537 0.0443326738087618
1040000000.0 -0.032954651527905394 0.06404844773731921
1060000000.0 0.06045410383242578 0.09323424631178678
1080000000.0 0.12034267757505222 0.08295858874640179
1100000000.0 -0.07003572656262498 -0.1841604526663417
1120000000.0 -0.20834503451917735 0.09960010421750895
1140000000.0 0.09836721514185029 -0.2356803984741809
1160000000.0 0.27488680612164756 -0.08796594832311046
1180000000.0 0.23158320786693318 0.20929204449334468
1200000000.0 0.3031951897556251 0.11253142333125585
1220000000.0 -0.2520766270467777 0.20616294576514899
1240000000.0 -0.2952506050217199 -0.16581614114699358
1260000000.0 -0.29443582924532596 -0.17511724128267345
1280000000.0 -0.327156508636789 -0.08823789076827994
1300000000.0 0.34259318727036425 -0.04972490609764528
1320000000.0 0.3641874492805532 0.004904138756388437
1340000000.0 -0.37102709874403983 0.018422801934227274
1360000000.0 -0.031275012090453407 -0.3743448233966358
1380000000.0 0.26200209203521474 0.2725216316247907
1400000000.0 -0.2791265938644319 -0.26241336482509336
1420000000.0 0.011688154050365235 0.3733007834155376
1440000000.0 0.19589011663790742 0.3122817258835722
1460000000.0 0.07223188102443873 -0.35557793418407824
1480000000.0 -0.21869894644565024 -0.2708616766811217
1500000000.0 -0.25614554943429746 0.20960767164772967
1520000000.0 0.2442831961215113 -0.19418225946430256
1540000000.0 -0.2788798567323545 0.010773648330923018
1560000000.0 0.22123183061478535 0.10440583098176195
1580000000.0 -0.15946859134982536 0.13109715945847727
1600000000.0 0.13854462159288994 -0.1177891772847374
1620000000.0 -0.11638838331302198 0.09845081890678012
1640000000.0 0.12215899377945923 0.0432543877890412
1660000000.0 -0.0995417422838439 0.04210467000076587
1680000000.0 -0.05696952700114946 0.06755814907929543
1700000000.0 0.046378086142332416 -0.05480527015234748
1720000000.0 -0.04817042675313147 -0.022932774885768933
1740000000.0 0.027768303513378268 0.029457481888429643
1760000000.0 0.012134251488549384 -0.06669293028895007
1780000000.0 -0.06415885429392139 -0.06818263680681266
1800000000.0 0.11677740733600053 -0.05028940448899839
1820000000.0 0.02031256048509267 0.15443577718647608
1840000000.0 0.02996323355985 0.18478903689259238
1860000000.0 -0.19195791928289402 0.10943982205638735
1880000000.0 0.23905542671202537 0.050273261753201334
1900000000.0 0.18414946129493884 -0.19070583835775323
1920000000.0 -0.23661696646547256 -0.16240750247090488
1940000000.0 0.2507732392082143 0.16713731598649587
1960000000.0 -0.23710099437009086 0.20073277015641783
1980000000.0 -0.24704338947962698 -0.19542169772725004
2000000000.0 0.19240494797933483 -0.2466616610504017
2020000000.0 0.2923487763441314 -0.11947923990366385
2040000000.0 0.28782591172904853 0.12023595170841629
2060000000.0 0.023887722100885144 0.30939067478914906
2080000000.0 -0.29897053275344676 0.09407351469982592
2100000000.0 0.24483802185450376 -0.18470201581255372
2120000000.0 -0.28707465776874275 0.10535548038941546
2140000000.0 0.20037726671927256 -0.23245728690077316
2160000000.0 -0.22629710773884928 0.1997586743198324
2180000000.0 0.17841318968571235 0.23081511703609367
2200000000.0 0.1328656878506932 0.2498777908891661
2220000000.0 0.1188787146258724 0.24880373240566198
2240000000.0 -0.2655525773257017 0.040295574326956275
2260000000.0 -0.18492594484205294 -0.1873728276445012
2280000000.0 0.17006427739993712 -0.1883083806487944
2300000000.0 0.05146929486257919 0.2350974528758725
2320000000.0 -0.09150987265250626 -0.21411074704194857
2340000000.0 0.17723864736940662 0.1452580575099258
2360000000.0 -0.02375812659559778 -0.22731294416761655
2380000000.0 0.23686634296277637 -0.008054177123403906
2400000000.0 -0.06779516778785183 0.24179178161231601
2420000000.0 -0.01907844518351068 0.27501401749506205
2440000000.0 0.2566609104492403 -0.1585528969960209
2460000000.0 -0.224767272375948 0.2473047095264187
2480000000.0 0.3168034123184818 0.18571438333368612
2500000000.0 -0.29074015958298527 0.2793900557655549
2520000000.0 -0.10473501235625765 -0.4317126852417513
2540000000.0 0.48111775431467807 0.012602551917992734
2560000000.0 -0.4090975537893415 0.31177421974994424
2580000000.0 0.13041822377172052 -0.5326456835760108
2600000000.0 0.26898929916492526 0.5125110813239498
2620000000.0 -0.5668464547315024 -0.2037252962675204
2640000000.0 0.6187885981416935 -0.06019098900095929
2660000000.0 -0.3000853389051775 0.5632166520517783
2680000000.0 -0.5346582917134525 -0.3692696573516399
2700000000.0 0.1728465786225442 -0.6355009442308073
2720000000.0 0.5279367110167389 -0.405527810639944
2740000000.0 0.5980018274325487 -0.3041506903955423
2760000000.0 0.5773157247633944 -0.34535187068061707
2780000000.0 0.18170942883454186 0.6435548067621619
2800000000.0 -0.0447299078179081 0.6593618282085105
2820000000.0 -0.45353878184557866 0.4686367284336719
2840000000.0 -0.5207264929120548 -0.3718717701994491
2860000000.0 0.6267119815848391 -0.024534103010714237
2880000000.0 -0.6099693394108203 0.049972550459077426
2900000000.0 0.5103068098700917 0.3061870042353219
2920000000.0 0.032333319748093704 -0.5734096625751249
2940000000.0 -0.5203854256366324 -0.1772009630553526
2960000000.0 -0.3177575488459503 0.42020835977642135
2980000000.0 0.20484073766007227 0.4599837646897524
3000000000.0 0.4382268220303816 -0.19712399783296733
3020000000.0 -0.3685703060914091 -0.2686579064644191
3040000000.0 0.2215566309274647 0.36754270691843716
3060000000.0 0.17245124584410035 -0.36119311514405295
3080000000.0 -0.3023125415007362 0.22501761875440485
3100000000.0 0.2882802754537534 -0.21715132636279294
3120000000.0 -0.037654638259553376 -0.34715560157954484
3140000000.0 -0.00654554523388737 0.3411028794309228
3160000000.0 -0.121923037280172 -0.31413713394466414
3180000000.0 0.09904123125620783 0.31674344231524676
3200000000.0 0.20243422910395364 -0.25161480081131904
3220000000.0 -0.29457549066290234 -0.10965627026482387
3240000000.0 -0.290690732722671 0.07608165956073759
3260000000.0 -0.2814801273730162 0.03284293340961071
3280000000.0 0.11327524798281285 -0.24284376367631622
3300000000.0 0.22889832679757996 0.10641921262500417
3320000000.0 0.13246104304648765 0.19224997380735748
3340000000.0 -0.1544075638742277 -0.1434988698474622
3360000000.0 0.18294769123017363 0.023380682553386795
3380000000.0 -0.15302401340413055 -0.041692489133137986
3400000000.0 -0.12992851312797696 0.03928631815231314
3420000000.0 -0.1225928385128982 -0.007246256590784412
3440000000.0 0.07217180629939043 0.0873968335525661
3460000000.0 0.0014710772343245724 0.10628116881542699
3480000000.0 -0.0548770966453216 -0.07923901255203286
3500000000.0 0.06743756535707338 -0.051448125967338464
3520000000.0 0.009187596885877688 0.07584015862428369
3540000000.0 -0.007961948580635148 -0.0749254066255858
3560000000.0 0.04873884795246505 0.05715452587727884
3580000000.0 -0.06406536694338547 -0.05481069656421805
3600000000.0 -0.06954740064779458 -0.05722263257433267
3620000000.0 0.04702435850762098 -0.09636948684425838
3640000000.0 0.0053124081525356736 0.11473837526165574
3660000000.0 -0.0009091662864876962 0.1136696633804025
3680000000.0 0.08922292813459708 0.06445718156691976
3700000000.0 0.06748531621792471 -0.08233119238434776
3720000000.0 -0.022505989031672502 0.09045301031212703
3740000000.0 -0.016944348163582746 0.08451232302399861
3760000000.0 -0.07585233386393311 0.016682284104862746
3780000000.0 -0.013942306065106012 -0.06458490700351459
3800000000.0 -0.02816693120898838 0.03830330019096717
3820000000.0 0.034333368069154505 0.014385080282418248
3840000000.0 -0.04257832478745105 0.03125924199527612
3860000000.0 -0.006862874421316666 0.07373145265420522
3880000000.0 -0.09095749360423148 -0.016664812743777048
3900000000.0 0.00756478499483148 -0.10229029950891677
3920000000.0 -0.05740705680710252 0.08889638895331427
3940000000.0 0.10442322522276756 -0.010244771535303237
3960000000.0 -0.10170237732702467 -0.01494320820764847
3980000000.0 0.09187115898444957 -0.028506238834110572
4000000000.0 -0.060256866889675055 -0.05382555736217555
