!Created with skrf (http://scikit-rf.org).
# Hz S RI R 50.0 
!freq ReS11 ImS11
400000000.0 0.7375346875826908 -0.38919294572115637
420000000.0 -0.7636043333163494 -0.17433455151760216
440000000.0 0.48754421486634564 -0.600477307217213
460000000.0 0.13966401221799524 0.7386442566842283
480000000.0 -0.48384855942410304 -0.5264594879494954
500000000.0 0.5279447554110842 0.3427513360889101
520000000.0 0.5012596369808188 -0.05772734826450445
540000000.0 -0.3166286055568993 -0.24471212489394564
560000000.0 -0.08341767624252887 -0.3434460671670518
580000000.0 -0.3557950494805664 -0.16914085413370708
600000000.0 0.3681987190507016 -0.12801208529480956
620000000.0 -0.3663366510099216 0.1551266858479029
640000000.0 -0.29332324176910307 0.2722282176184156
660000000.0 -0.1274162197680518 -0.40949661628416156
680000000.0 -0.3842586185791432 -0.17538825332361221
700000000.0 0.12925220581286045 -0.37197268905350916
720000000.0 0.28613249057410023 0.225413436785406
740000000.0 0.30920249391221966 0.17487355361317675
760000000.0 -0.17398051298916734 -0.2483174636992889
780000000.0 0.0994494913193359 0.24921854471845958
800000000.0 -0.10715031385318975 0.22789980409054994
820000000.0 -0.1800226146007786 -0.16773758844685316
840000000.0 0.013955738210468336 -0.2320814686027573
860000000.0 -0.16012305408355618 0.09103715608874346
880000000.0 -0.15655751945204777 0.043610012199638545
900000000.0 0.1359512615790144 0.006873608592254754
920000000.0 -0.007501609932655229 -0.10901339201089816
940000000.0 0.025513595821466905 -0.09124790441553694
960000000.0 0.038298356944729155 0.03604309311279155
980000000.0 0.02477642295538979 0.0126753532580463
1000000000.0 -0.02188014723359055 0.004896373155027492
1020000000.0 0.027887124045812853 0.006591002175414872
1040000000.0 -0.06642273034354562 0.005387700989231814
1060000000.0 0.10982892504365793 0.014787147129266605
1080000000.0 -0.060678439988265845 0.1487408558213182
1100000000.0 0.15179388814416753 -0.12406463848779574
1120000000.0 0.218965277332732 -0.034040409446184874
1140000000.0 0.0016680781117937547 0.24923192413333853
1160000000.0 0.043884537211533625 -0.25979093683132365
1180000000.0 -0.2769341502761397 0.054657261647327114
1200000000.0 0.29511752593573837 -0.10411874064578186
1220000000.0 0.23874028449075338 -0.2275913217907191
1240000000.0 -0.02656312760570893 0.345274983722775
1260000000.0 0.34805862202006504 -0.10645347730869266
1280000000.0 -0.07826103757975271 -0.35180026010714915
1300000000.0 -0.08376919713165593 -0.35208923242943263
1320000000.0 0.3194643135957367 0.17625458345791475
1340000000.0 -0.38071702473102953 -0.010902509522036197
1360000000.0 -0.32438090137290576 -0.21428213493258802
1380000000.0 0.38386421698305456 -0.07842353102123253
1400000000.0 -0.37876976625852365 0.06795772704127079
1420000000.0 -0.04306903765484082 0.38375891944939916
1440000000.0 0.06982016081013234 -0.3718232784982716
1460000000.0 -0.17251340969318696 0.32584976799995735
1480000000.0 0.21525477089200748 0.2628610190031518
1500000000.0 0.28413792152893697 -0.13238249824462733
1520000000.0 -0.023509108060660203 -0.2888785259429176
1540000000.0 -0.0017509273556643836 -0.2606799760181657
1560000000.0 -0.24052080431554096 0.02214633130118386
1580000000.0 -0.18007735193834828 -0.10637216258089968
1600000000.0 0.1723326045449641 -0.04993863565760565
1620000000.0 -0.1484290809526604 0.004826387698431435
1640000000.0 0.018155190433507214 -0.12619425031126857
1660000000.0 0.0666995007632973 -0.07457062492256093
1680000000.0 0.053597566370168166 -0.05006322903522611
1700000000.0 -0.002296147387256737 -0.062040894625690624
1720000000.0 0.011273169510491442 0.057215098964639804
1740000000.0 0.05512323972478746 -0.03651235065124148
1760000000.0 -0.06741453879653814 0.020142386180797306
1780000000.0 0.012099650587366683 0.09065837722097377
1800000000.0 -0.03938999679328297 -0.1200221440759131
1820000000.0 0.10460668712124223 -0.120049238883504
1840000000.0 0.18322681259373913 0.026618996594657225
1860000000.0 0.048341154510732634 0.2102265469854505
1880000000.0 0.24175394321570667 0.018828420053160405
1900000000.0 0.13104798221022315 -0.22597779863138637
1920000000.0 -0.2652923596826531 0.08613355157483686
1940000000.0 0.2612056865995916 0.13752253300269748
1960000000.0 -0.2994177633031431 0.03192639611052456
1980000000.0 0.11100742390100081 -0.2891711185411169
2000000000.0 0.3159493558798297 -0.007532950440145321
2020000000.0 0.3043146310944108 0.08340054294717994
2040000000.0 0.23030445457929163 0.2117482812952286
2060000000.0 -0.027981211089285855 0.3096166661416235
2080000000.0 -0.26042113411187623 0.16568482831800035
2100000000.0 0.27712148002881803 0.13287645930053574
2120000000.0 -0.30494988627381614 0.02436611290211429
2140000000.0 0.2716193585235231 -0.13710881006324463
2160000000.0 -0.09611058985727519 -0.28090338279905025
2180000000.0 -0.28960583321043604 0.05634385255031262
2200000000.0 -0.035736070882354504 0.2910854352303314
2220000000.0 0.08002789412192254 0.27240483886462213
2240000000.0 -0.074337163851651 0.26485831248407665
2260000000.0 -0.2536642406095841 0.08234456386753033
2280000000.0 -0.02885548664252244 -0.25130150139499013
2300000000.0 -0.027642722447086238 0.24029837155423026
2320000000.0 -0.2385849374096039 0.011828107020974976
2340000000.0 0.058551194419533804 -0.2212887726761009
2360000000.0 -0.21983917740330408 0.02466991993214987
2380000000.0 0.18555955995987639 0.14063490042546503
2400000000.0 -0.20505273567206342 0.13515086629552783
2420000000.0 -0.1226559848602765 0.24241107785779548
2440000000.0 0.2650116219935895 0.13642978237948075
2460000000.0 -0.2973053214871509 -0.14843257524386383
2480000000.0 0.08313894429903745 0.3587666550900882
2500000000.0 -0.3928840943093914 0.10405562187053391
2520000000.0 0.03252674641739141 -0.44434193495979774
2540000000.0 0.3859843010410023 0.28976895200120933
2560000000.0 -0.4395863042871156 0.2765294528472721
2580000000.0 0.0996484720720489 -0.541951434195062
2600000000.0 0.2841165964231053 0.5050994812219752
2620000000.0 -0.5258137925946289 -0.2991435761555181
2640000000.0 0.6170617823917902 -0.09678501030340675
2660000000.0 -0.2091828107480339 0.604310355499549
2680000000.0 -0.5328310932887043 -0.3718556689545329
2700000000.0 0.1531522915124011 -0.6419865348782013
2720000000.0 0.5236698456805335 -0.4127525231719123
2740000000.0 0.5594614965542685 -0.3711333472452259
2760000000.0 0.6184361174837871 -0.2654011809865069
2780000000.0 0.1535352518823448 0.6521586035766612
2800000000.0 -0.09206439916778411 0.6558231045160966
2820000000.0 -0.4721916008891982 0.45183200757287606
2840000000.0 -0.5264974673438827 -0.36475583812583906
2860000000.0 0.6274797358362127 0.02095763656188366
2880000000.0 -0.6080280833299351 0.08189169557060984
2900000000.0 0.5289870190680706 0.27173971136605907
2920000000.0 0.14808819524625955 -0.5549526178472546
2940000000.0 -0.523040083568102 -0.17674467974625582
2960000000.0 -0.28223476678245024 0.44519665913937345
2980000000.0 0.20014607653027267 0.46388549291690434
3000000000.0 0.4431546303717524 -0.1955987513210953
3020000000.0 -0.3895553288100665 -0.2451983901375506
3040000000.0 0.316657697543904 0.2949430593588869
3060000000.0 -0.1857143146336876 -0.35661727736675986
3080000000.0 -0.042763936297983016 0.370796656714738
3100000000.0 0.3043137129565707 -0.18247081881245322
3120000000.0 0.05513487804984218 -0.3421339158274323
3140000000.0 0.16579111235448352 0.2958109805895869
3160000000.0 -0.050721345653688424 -0.326482275064342
3180000000.0 -0.10912987640892224 0.31035727828607024
3200000000.0 0.25710199513675974 -0.19849178982443783
3220000000.0 -0.2686048457072624 -0.160359411928716
3240000000.0 -0.299577371335501 -0.01162746697553068
3260000000.0 -0.28200261644761787 -0.04785024064326308
3280000000.0 0.017211302781216263 -0.2708810685642175
3300000000.0 0.2506066251743231 0.03764629642898058
3320000000.0 0.1920029467429855 0.1358185952659439
3340000000.0 -0.19219110306446635 0.07462002530974234
3360000000.0 0.04511916055246132 0.17357646371334892
3380000000.0 0.13645132952020217 -0.08270594723747761
3400000000.0 -0.08596800377712044 -0.11418329800147003
3420000000.0 -0.10022069071101417 0.07961264787640399
3440000000.0 0.004782363843602702 -0.11610611287765522
3460000000.0 -0.056489058081807896 -0.08375657424756652
3480000000.0 -0.0654993223014727 -0.06286187864706838
3500000000.0 0.07447250813729663 -0.030444601734868144
3520000000.0 0.06483836394555556 0.022823395194656607
3540000000.0 0.0616529068002327 -0.03803954256373102
3560000000.0 -0.03780878634718397 -0.07085458779124283
3580000000.0 0.09098093776253387 0.018071080799636072
3600000000.0 -0.06811836996847107 0.07089081403653767
3620000000.0 0.10162780558999132 -0.03977983087297725
3640000000.0 -0.04232475349042474 -0.10109779980944585
3660000000.0 -0.04257786567109033 0.09743330292318815
3680000000.0 -0.0926685113977357 -0.057431215810797895
3700000000.0 -0.09959043888417728 0.045920189052644236
3720000000.0 -0.054669212162219885 0.0865435473114233
3740000000.0 -0.0013009392620947336 0.09164132590575627
3760000000.0 -0.07363906585207697 -0.00806202869943347
3780000000.0 0.036097974043630264 0.03977816729617956
3800000000.0 -0.04168961771888857 0.011167235361160653
3820000000.0 -0.006026553063973845 0.04349886524079664
3840000000.0 0.04752959839158016 -0.0370698841479424
3860000000.0 0.06998436155027095 0.026262883957467915
3880000000.0 -0.06465141769795577 0.05054424338183548
3900000000.0 -0.05730990500152685 -0.08054327347616146
3920000000.0 0.11229320908756889 -0.012357511729327843
3940000000.0 0.09029731976077687 -0.07495529795501776
3960000000.0 -0.05272178072269214 -0.09563627248646621
3980000000.0 -0.06731816782322692 -0.06707373005266222
4000000000.0 0.06313556052862758 0.027123421276988403
