!Created with skrf (http://scikit-rf.org).
# Hz S RI R 50.0 
!freq ReS11 ImS11
400000000.0 -0.7259518283548636 -0.45443364940675074
420000000.0 0.6944990866348487 -0.32976224646405633
440000000.0 0.6928867466082754 -0.24366270518884567
460000000.0 0.5573252741232004 0.23187922431629288
480000000.0 0.015403624030666408 0.6410484187549772
500000000.0 -0.4165776243510445 -0.31931033826306554
520000000.0 0.35295405095570453 -0.2941843594488227
540000000.0 -0.41539384068369894 0.17855650407530604
560000000.0 -0.38508951753241444 -0.23151199917018533
580000000.0 0.07760504188898741 0.39152273958535966
600000000.0 0.2167597309401886 0.28315648661566356
620000000.0 -0.3057167710597544 0.19451733545118302
640000000.0 -0.08126101607811104 -0.3406594330898671
660000000.0 0.25514338909690765 -0.2229951140558164
680000000.0 0.20152524524463558 -0.26115567698602016
700000000.0 0.10487974843286454 0.3079095281906025
720000000.0 0.32789969904276 -0.10782661598907696
740000000.0 -0.1266738269089113 0.3092310815156443
760000000.0 -0.26557927942981585 -0.1675891411650309
780000000.0 0.22612945414400695 -0.18610841114649343
800000000.0 -0.09465234965348256 -0.24623529751891832
820000000.0 -0.013855724519393766 -0.24251010524670458
840000000.0 0.2088009868966936 0.07260373414629653
860000000.0 -0.19939202198681052 -0.05573427603656292
880000000.0 0.008787123541779327 0.18801120397797114
900000000.0 -0.15819495640122588 -0.03951055776031336
920000000.0 -0.1318058977504974 0.07629250146708105
940000000.0 0.09508307021937278 -0.1108498989317106
960000000.0 -0.056562570268099494 -0.08939633900339108
980000000.0 -0.014421957619737285 0.08500548176187582
1000000000.0 0.04343567344049049 -0.03816629580173439
1020000000.0 -0.039701661419755396 0.04168693318180114
1040000000.0 0.07161688086187923 -0.018509283310049505
1060000000.0 0.11479773020093993 0.033942452655754365
1080000000.0 0.14256279316189102 0.07497435162800702
1100000000.0 -0.05458298198445951 0.18349778482094142
1120000000.0 -0.15726031767731685 0.16706936988809432
1140000000.0 -0.14330259584344815 0.2097009587554954
1160000000.0 0.23187903662466816 0.16003168977087787
1180000000.0 0.3005599841700976 -0.07871197227179005
1200000000.0 0.25641221438927286 0.19765182635642947
1220000000.0 -0.060056886291542565 0.32511426020503226
1240000000.0 -0.15085832584887054 0.29381086521270394
1260000000.0 -0.0853658385673444 -0.3105709895879514
1280000000.0 0.3093649809592475 0.15143955196369177
1300000000.0 0.1866140030726755 -0.3057410934073578
1320000000.0 0.3501532013188985 0.049840752831489546
1340000000.0 0.07370456582695382 -0.35860957034033325
1360000000.0 0.10523079353055337 -0.37435729681031454
1380000000.0 0.346363941619096 -0.16156028024647034
1400000000.0 -0.2571343780290374 -0.2818454838360839
1420000000.0 0.2875480145949267 0.24535303709018574
1440000000.0 0.36495359216280165 0.0452879173328985
1460000000.0 0.32445048134894533 -0.15797695748931384
1480000000.0 -0.23389036097419838 -0.26945885625656213
1500000000.0 0.028350087686467237 0.33196704453247594
1520000000.0 0.22213672056504993 -0.22558926671625362
1540000000.0 -0.023997510282156676 0.28139890837394793
1560000000.0 -0.24058502232915702 0.022672079023522227
1580000000.0 -0.20094234416502893 0.04230903463780226
1600000000.0 -0.09159347142030816 -0.15105532126188886
1620000000.0 -0.10292774515653975 0.1087628463319762
1640000000.0 0.11177123298924242 -0.06336665050178708
1660000000.0 0.0015234942297041617 0.10567603427689744
1680000000.0 0.07753903180085453 -0.03821676909067657
1700000000.0 -0.007566448792544731 -0.06592353364603044
1720000000.0 -0.007682100575291 0.05039716716274845
1740000000.0 0.040801232963832375 0.015591028414295235
1760000000.0 0.06147740490964036 -0.0035028611588747774
1780000000.0 -0.006887515951694696 0.09459081034021304
1800000000.0 -0.008969029568979657 -0.11747080167168987
1820000000.0 0.1378159364827868 0.06078443753838356
1840000000.0 -0.13619096447506238 0.1285047365699347
1860000000.0 0.20040453017237422 0.0676605840754813
1880000000.0 0.2023805819543251 0.13012737106658834
1900000000.0 0.2311643694936344 -0.11829941206002192
1920000000.0 -0.16598312661244424 -0.22798436428474522
1940000000.0 0.25427195568793187 0.1608221215020413
1960000000.0 -0.2744353069492925 0.1362320572799037
1980000000.0 -0.1479653751869471 -0.2748061167528254
2000000000.0 0.3095096515169094 -0.011165436883339581
2020000000.0 0.18828672290276635 0.24871232146131517
2040000000.0 0.14086841105745834 0.2798586102503913
2060000000.0 0.06519555590873082 0.305398707577494
2080000000.0 -0.05853528878436288 0.30175619424343125
2100000000.0 0.2959408645736635 0.07382439670247752
2120000000.0 -0.2813104629976374 0.12245972011831854
2140000000.0 0.1295479041548023 -0.28320387826688187
2160000000.0 -0.056653230805142486 0.29787091652017855
2180000000.0 0.22143083778167846 -0.19303126496797007
2200000000.0 0.2050744223039714 -0.1890548004190029
2220000000.0 0.18088345474198705 0.20295645793917397
2240000000.0 -0.2039374787802077 0.17553097515701332
2260000000.0 -0.2094241788046612 -0.15282615564815438
2280000000.0 0.22929102859102596 -0.09792480801451406
2300000000.0 0.0806745478545751 0.23076077318972774
2320000000.0 -0.22813829566909194 0.032475304292856416
2340000000.0 0.22133617499995797 -0.014183984712092116
2360000000.0 -0.14871003788030113 -0.16023540689600935
2380000000.0 0.1249751377025498 0.1857787613731814
2400000000.0 -0.19139278037139948 -0.1423458306336074
2420000000.0 -0.1611863474843737 -0.21327661706154832
2440000000.0 -0.02425223381461381 0.2962891035559017
2460000000.0 -0.21454384270444582 -0.25287129301491895
2480000000.0 0.016259385679560364 0.36408779803646996
2500000000.0 -0.26072513306038264 -0.2984482375015701
2520000000.0 0.3597130100722189 -0.24396778001884625
2540000000.0 -0.1992628071838385 0.4299452750245718
2560000000.0 -0.2642636645210592 -0.4360698006104532
2580000000.0 0.5268080976411945 0.13854338259179128
2600000000.0 -0.5264106626866262 0.22812852886718055
2620000000.0 0.4095391912234777 -0.4377164076951086
2640000000.0 -0.045913390649265716 0.6169725807225533
2660000000.0 -0.4584693235544501 -0.44051376950671983
2680000000.0 0.5744952762721492 -0.3024620453830594
2700000000.0 0.45149738108792903 0.48272606633105025
2720000000.0 0.14042956791018685 0.6548041244729331
2740000000.0 0.09725392010097561 0.6696517386043136
2760000000.0 0.03061546075666014 0.6807199825858966
2780000000.0 -0.6808946158365241 -0.01131683287679154
2800000000.0 -0.6736878710340707 -0.054573768509244676
2820000000.0 -0.5404721603086727 -0.3902775086386579
2840000000.0 0.14307565524951432 -0.6401112349500048
2860000000.0 0.36175654368628807 0.53050146538151
2880000000.0 -0.49517621341519824 -0.3862495830149857
2900000000.0 0.18360135228837365 0.5813656927778035
2920000000.0 0.4266893100135159 -0.4031398465261919
2940000000.0 -0.408545210078324 -0.3890671662428523
2960000000.0 -0.3984881875220039 0.36283116497077467
2980000000.0 0.129751683216172 0.4993259720343073
3000000000.0 0.42336004029127294 -0.24997456093117232
3020000000.0 -0.4148942948150422 -0.21267013826878275
3040000000.0 0.26407820224688555 0.34713243351623435
3060000000.0 -0.1653046243646507 -0.37598848291473574
3080000000.0 0.016413692392861404 0.3898408398165547
3100000000.0 0.11179313599635221 -0.3522636614979812
3120000000.0 -0.22194344745141198 -0.27916058842055175
3140000000.0 0.30183567887294016 0.17933277121092306
3160000000.0 -0.16090415362105442 -0.3034721613329665
3180000000.0 0.1021634408915452 0.32518084008013237
3200000000.0 -0.011530649602305166 -0.3346305201469005
3220000000.0 -0.2865282231213699 0.14841592011692173
3240000000.0 -0.04286645094761736 0.30107276902990704
3260000000.0 -0.18007914580288825 0.2229206226797233
3280000000.0 -0.20487317896543084 -0.1783205993094659
3300000000.0 0.2541676887133777 0.006745962231178114
3320000000.0 0.17086844094825834 0.16352205150389632
3340000000.0 -0.15864261281855402 0.14441527236961044
3360000000.0 0.06092554006206963 -0.17767280166079982
3380000000.0 -0.137517424559478 0.08215942171517995
3400000000.0 -0.06581026247973558 0.12673812889881944
3420000000.0 0.08219254557204572 0.09895115018552433
3440000000.0 0.057070083800161535 -0.10611447168357588
3460000000.0 0.05743334081243478 -0.09924346455562548
3480000000.0 0.021395789136891642 -0.09867923938161474
3500000000.0 -0.06835710084578135 -0.05767680266363281
3520000000.0 0.0754086895104733 -0.021578475749028957
3540000000.0 -0.07264165174090925 -0.030549083529349402
3560000000.0 0.058015289916641434 0.05474189108827783
3580000000.0 0.06721383236764311 -0.05554955261948507
3600000000.0 0.02834929706013236 -0.0947518334178862
3620000000.0 0.03468248540112493 0.10169895658038831
3640000000.0 -0.006912543154771722 0.1132312044186096
3660000000.0 0.06635161484589752 0.0933445947780174
3680000000.0 0.08069454705014716 -0.0760234278743414
3700000000.0 0.024692065256783323 -0.09889497496085936
3720000000.0 -0.08533044249642795 0.04189271644969074
3740000000.0 -0.07685846687605778 -0.03298603359028318
3760000000.0 -0.05151427509892894 0.055319259622997025
3780000000.0 -0.03499709136605895 0.05539524659177547
3800000000.0 0.04017356079124961 -0.02238520409136135
3820000000.0 -0.02929375805658665 0.02438489729371288
3840000000.0 0.029432573138787072 0.0375027630881238
3860000000.0 0.05175586362549994 0.050713641454125775
3880000000.0 -0.06487965250141549 -0.05844134581533674
3900000000.0 -0.0935005310885226 0.03278782430340236
3920000000.0 -0.024079210803864878 0.0985777313756075
3940000000.0 0.05337353209994861 -0.08673388646244515
3960000000.0 -0.0999692711284049 -0.007568261541059094
3980000000.0 0.07884775642314615 0.050477481639128616
4000000000.0 -0.08455494296239259 0.00894013699755025
