!Created with skrf (http://scikit-rf.org).
# Hz S RI R 50.0 
!freq ReS11 ImS11
400000000.0 -0.7347512902175813 -0.4425746591603888
420000000.0 0.7307704206182327 -0.23742385671194596
440000000.0 0.6174950489005344 -0.39917448415472984
460000000.0 0.5564071959281883 0.22882810926110211
480000000.0 0.22992762407249537 0.5956704518688576
500000000.0 -0.3489115838723701 -0.39636515766279723
520000000.0 -0.002469667642586732 -0.4599958735995773
540000000.0 -0.4198486470797428 0.18360076131730663
560000000.0 -0.3758317728694747 0.23366384400753945
580000000.0 -0.20477605564912596 0.334284546066716
600000000.0 -0.022613844131292277 0.3590107895143951
620000000.0 -0.12538811513024295 0.3471179358049405
640000000.0 -0.34495063693370553 -0.06780655527551839
660000000.0 0.17423719635755583 -0.2815514883381757
680000000.0 0.0878676962747143 -0.32391969528259584
700000000.0 -0.16865321033975134 0.2747808629938062
720000000.0 0.30800000442815306 -0.15416455930287531
740000000.0 -0.32218868863715006 0.09421031016994297
760000000.0 -0.1818283398070322 -0.26083795778204455
780000000.0 0.06228516483032392 -0.2873167394299498
800000000.0 -0.2325757272653083 -0.1096398000562349
820000000.0 0.031902944022829054 -0.24051608742928912
840000000.0 0.15895456723745446 0.15654589439154332
860000000.0 -0.07682971579809207 -0.19465745906313828
880000000.0 0.029183254368230167 0.18394161042998453
900000000.0 -0.1630450539989013 0.005250396545597514
920000000.0 -0.10523238745103099 0.10998970115873126
940000000.0 0.10395855189337933 -0.09462439825521357
960000000.0 -0.06213721052814149 -0.08182765619750035
980000000.0 -0.08709356120741076 0.02065777767100398
1000000000.0 0.047443468314042364 -0.030286485173197226
1020000000.0 -0.04973061598254439 -0.028010367772314127
1040000000.0 0.04193192271493963 -0.0600292950344287
1060000000.0 0.08642594593328162 0.09134177680823581
1080000000.0 0.021997213236538447 -0.158544833649788
1100000000.0 -0.0492144497699481 0.1808560411533016
1120000000.0 -0.22133689673857998 -0.0462001855774394
1140000000.0 -0.2598206989298649 0.027975677868344883
1160000000.0 0.11546331525271664 -0.2577507538060511
1180000000.0 0.29942510396168315 -0.07159104004375726
1200000000.0 0.25294322868985114 0.19789562519790205
1220000000.0 -0.11247740975423119 0.31197100569638775
1240000000.0 -0.18134534777060224 0.2752426214744639
1260000000.0 -0.042199496571039344 -0.32353570907346146
1280000000.0 0.34230990882175655 0.020724888753199878
1300000000.0 0.22683082284630335 -0.2732636598547716
1320000000.0 0.29010658770970377 0.20737772776997165
1340000000.0 -0.07098508474644445 -0.3569813954656806
1360000000.0 0.16586285466005432 -0.34832444294919973
1380000000.0 0.3762258850088988 -0.07237165135697829
1400000000.0 -0.3163113515815958 -0.21364273673397163
1420000000.0 0.28644116238223905 0.24497590887891516
1440000000.0 0.35930188473729635 0.07951892853400822
1460000000.0 0.25558108711910016 -0.25229640926952035
1480000000.0 -0.21346029143598222 -0.28582945329072673
1500000000.0 -0.039431380763839265 0.33316339959412905
1520000000.0 0.1103516654973855 -0.2959722845793146
1540000000.0 -0.05418103132069161 0.27623026331955114
1560000000.0 -0.2384937347760206 -0.05719943866894758
1580000000.0 -0.1778174632575479 0.10392555548677115
1600000000.0 -0.15525311966064662 -0.07844052617163534
1620000000.0 -0.14651350667188662 -0.015643333291162822
1640000000.0 0.12469155710368791 -0.03290091679133906
1660000000.0 -0.008283459065295581 0.1058555556383198
1680000000.0 -0.0008665476516102823 -0.0873004316467401
1700000000.0 -0.06538351227489918 0.006434666457399801
1720000000.0 -0.0014595334091224146 0.048916107675862894
1740000000.0 -0.034120017025741474 0.028122692765272746
1760000000.0 -0.058044079076428105 0.021097676096461623
1780000000.0 0.023755438144462685 0.08927194945925068
1800000000.0 0.04838573506740948 -0.10906132112781486
1820000000.0 0.15232947168352878 0.0015447072328184635
1840000000.0 0.020149642397104546 0.1851545041443108
1860000000.0 0.09945247382865699 0.18404482686695942
1880000000.0 0.1791408306255117 0.16487467887355087
1900000000.0 0.17476766927681203 -0.19365386462230175
1920000000.0 -0.20091538665487446 -0.19769102811727188
1940000000.0 0.19694046351093733 0.22776832518984716
1960000000.0 -0.2563210006944783 0.16753120987454512
1980000000.0 -0.13765515861285382 -0.27988262278774595
2000000000.0 0.30676990497889267 0.044069048267044185
2020000000.0 0.23065249164048318 0.2088882199895095
2040000000.0 0.07273959865049139 0.30462545026618
2060000000.0 0.05248030451263171 0.30703762655729233
2080000000.0 -0.0353691571793646 0.3058319478012101
2100000000.0 0.29350383564055477 0.07975634389673193
2120000000.0 -0.2753626182269172 0.13490358127181426
2140000000.0 0.11637388917951165 -0.2893869829783213
2160000000.0 -0.02507449057623388 0.3038792986707534
2180000000.0 0.24314191122979142 -0.16578477158644928
2200000000.0 0.17566022117264066 -0.21523136572173068
2220000000.0 0.2339517176959141 0.13493085755687734
2240000000.0 -0.2368707756731435 0.12754801053524892
2260000000.0 -0.13029745322284908 -0.22594236289866515
2280000000.0 0.22370807718867863 -0.11438216344758942
2300000000.0 0.1572686434260046 0.18747192333968232
2320000000.0 -0.2112180973115154 0.08693067877528222
2340000000.0 0.21479134266920505 0.050881225430639464
2360000000.0 -0.09110582163798053 -0.1981130147056035
2380000000.0 0.07723039634050802 0.21080350399895334
2400000000.0 -0.1434009216523058 -0.1916688304330761
2420000000.0 -0.2193094482632971 -0.15461401282675577
2440000000.0 0.06149658981412485 0.2898658868396789
2460000000.0 -0.2672017677234288 -0.19234501178967492
2480000000.0 -0.023359851746391085 0.3627572260668917
2500000000.0 -0.24235034158546176 -0.3136046330298363
2520000000.0 0.38110847640821727 -0.21043687358798735
2540000000.0 -0.20469764024383053 0.42815040782016944
2560000000.0 -0.2659087214223186 -0.436662938183415
2580000000.0 0.5321709450548906 0.11820934791550543
2600000000.0 -0.5249928731242451 0.22996816587595822
2620000000.0 0.4035414147388507 -0.44219164704946773
2640000000.0 -0.06978299277562335 0.6141177510255676
2660000000.0 -0.42214266525230537 -0.47562087005022047
2680000000.0 0.5530207810414127 -0.33993278915467035
2700000000.0 0.49096384913628854 0.4432995471059547
2720000000.0 0.13929821286524172 0.6547507930167664
2740000000.0 -0.05179644639544142 0.6748162215396453
2760000000.0 0.04262948691465864 0.6807799461677467
2780000000.0 -0.6804642060127186 0.03215534956921077
2800000000.0 -0.6717800777385963 -0.07409473152584875
2820000000.0 -0.5076497352967814 -0.4321809524533323
2840000000.0 0.26347878522050117 -0.6013439719681628
2860000000.0 0.3511784265056541 0.5374296334129005
2880000000.0 -0.4786755556223461 -0.40546763180017537
2900000000.0 0.18274523315097715 0.5810329131545319
2920000000.0 0.41987149877434715 -0.4109374256852451
2940000000.0 -0.4319613028295681 -0.3622196910894683
2960000000.0 -0.3921249548877664 0.3688942551857763
2980000000.0 0.2142135520550973 0.46976812029147613
3000000000.0 0.43466217030101767 -0.22945850687821676
3020000000.0 -0.4044796026011177 -0.23099143928521498
3040000000.0 0.2946721478785654 0.32366350707689084
3060000000.0 -0.06543593668146037 -0.4054765370115599
3080000000.0 -0.06694936098635922 0.38390573844009895
3100000000.0 0.08857465993776573 -0.35888473776138413
3120000000.0 -0.2247775995804382 -0.277255320157794
3140000000.0 0.26127459639961387 0.23348429172041799
3160000000.0 -0.14596523502637795 -0.31015276690381927
3180000000.0 0.0981666594599703 0.32699029552745756
3200000000.0 -0.010753748121686686 -0.33570752690911193
3220000000.0 -0.2302226840127418 0.22415912186950865
3240000000.0 -0.06814746393545895 0.2963181294985083
3260000000.0 -0.18271248426014788 0.2210388039569187
3280000000.0 -0.20544221361793968 -0.1736818820799916
3300000000.0 0.2521812424361527 0.027475590688339064
3320000000.0 0.10624760469920837 0.21486216950441644
3340000000.0 -0.13054292658033295 0.16946351974784066
3360000000.0 0.04400076908486545 -0.18301300245374008
3380000000.0 -0.14663535047518966 0.06800947064322757
3400000000.0 0.0064355737617563516 0.14150648580346284
3420000000.0 -0.0016878502035153923 0.127775209693639
3440000000.0 0.07058492968663341 -0.09949651621381919
3460000000.0 -0.04322564529164741 -0.10664837159362436
3480000000.0 0.07301245645189068 -0.07081899279591239
3500000000.0 -0.06613022618241751 -0.063237769071121
3520000000.0 -0.018082034596992314 -0.07652377600450666
3540000000.0 -0.07194955941271962 -0.03058049458482047
3560000000.0 -0.002981485181522505 0.08022016438650506
3580000000.0 0.06520891213704626 -0.05711085856333413
3600000000.0 0.04481985300970225 -0.08728595690635865
3620000000.0 -0.08319456798615603 0.06616112895779704
3640000000.0 0.009173123951458034 0.11424911925767275
3660000000.0 0.08071492268320454 -0.07994018726540111
3680000000.0 0.030861134904097937 -0.10479393483566933
3700000000.0 -0.08202304030864663 -0.05986111661758086
3720000000.0 -0.05642394499439262 0.07508547319207641
3740000000.0 -0.010872164916188745 -0.08381523970216158
3760000000.0 -0.01845501340399367 0.07584976393094903
3780000000.0 0.04438492521044965 0.049008782076674966
3800000000.0 0.03569759056932788 -0.03207854680111136
3820000000.0 0.011842522630366021 -0.03723811655522519
3840000000.0 0.025643479771200267 0.04079860810525662
3860000000.0 0.07503443217465104 0.002722503582027366
3880000000.0 -0.05575062125841688 0.06941587047045374
3900000000.0 -0.09714146315211543 0.01982180479194364
3920000000.0 -0.08058336698493818 0.06375382188953613
3940000000.0 0.0611727196193098 -0.08276554805241282
3960000000.0 -0.06535071159031758 -0.07496162325844757
3980000000.0 -0.028075666967232717 0.0898432244385017
4000000000.0 0.03416825525557048 -0.07791989183331924
