!Created with skrf (http://scikit-rf.org).
# Hz S RI R 50.0 
!freq ReS11 ImS11
400000000.0 -0.7517735320883808 -0.4139668954949347
420000000.0 0.7376556055282207 -0.2143170292165791
440000000.0 0.5951368836270021 -0.4339217617655975
460000000.0 0.5624503532325311 0.20534874268412903
480000000.0 0.1113199993657167 0.6304790736177238
500000000.0 -0.4615837769853606 -0.2588165945191456
520000000.0 0.12422608723180152 -0.44819073204762866
540000000.0 -0.30740180198994393 0.3396583325540597
560000000.0 -0.40833085452396384 0.1747451287030579
580000000.0 -0.27622250918490315 0.274088669344828
600000000.0 -0.013218191974263872 0.35994104213905387
620000000.0 -0.18569520778757467 0.3193151888863962
640000000.0 -0.303509528113926 -0.18347955293184606
660000000.0 0.10366227832480415 -0.31882506125131677
680000000.0 -0.03807165740246329 -0.331623114948237
700000000.0 0.0085006268866529 0.31882288325958336
720000000.0 0.34281809449269635 0.025807975634518494
740000000.0 -0.33542542900916994 0.003223989344771991
760000000.0 -0.21577470329955942 -0.2431160235121893
780000000.0 -0.09410853260127901 -0.278775407311349
800000000.0 -0.23247105118361122 -0.10778011635951774
820000000.0 -0.07848958177135039 -0.23319124314583858
840000000.0 0.11934385487942395 0.18472131137664613
860000000.0 -0.1071829325359444 -0.18065085050152696
880000000.0 -0.1630415384688182 0.08935329901845279
900000000.0 -0.16594033130758298 0.0014880324074454377
920000000.0 -0.0823339232068008 0.12953914768999222
940000000.0 -0.057467243062978575 -0.1296607656251985
960000000.0 -0.09628675751415056 0.01854065776718588
980000000.0 -0.07416574132477495 -0.046437739232581036
1000000000.0 0.05518041079665351 -0.007497667818632508
1020000000.0 0.05511852123844786 0.0047534132037642795
1040000000.0 -0.01785301574321414 0.07466232647169002
1060000000.0 0.11272033692366742 0.052245382962599105
1080000000.0 0.046979405255709435 -0.15566432750238177
1100000000.0 0.0736811305607715 0.1711868275341544
1120000000.0 -0.2082577693967342 -0.08853946076909078
1140000000.0 -0.25019528644218303 0.06944392680099795
1160000000.0 0.257005428322659 -0.12095539079601278
1180000000.0 0.3062111537558775 -0.04303512685387662
1200000000.0 0.2923778295907867 0.13567433732220988
1220000000.0 -0.060102964533102245 0.32413923072078815
1240000000.0 -0.24367297727337736 0.21829776830733288
1260000000.0 -0.01355420725603629 -0.32559694338713774
1280000000.0 0.3383484195647332 0.06954845971778248
1300000000.0 0.1471501835473572 -0.3230844791460367
1320000000.0 0.3396154773090883 0.1068481540003588
1340000000.0 -0.09061233193595654 -0.352107133322841
1360000000.0 0.24367979217537508 -0.2963968053481958
1380000000.0 0.3781539143307701 -0.06646966462787318
1400000000.0 -0.31937086306463824 -0.2135211502529065
1420000000.0 0.37018690218360656 0.07144784254564619
1440000000.0 0.32775083121850523 0.16517425017946652
1460000000.0 0.3080497917890059 -0.18530472260452474
1480000000.0 -0.2155472962960347 -0.2840008625307609
1500000000.0 0.06064972235705405 0.3305702312490453
1520000000.0 0.09583906289337693 -0.29994801661565806
1540000000.0 -0.12019880036199922 0.252874410507485
1560000000.0 -0.2358858551402672 -0.0671654159829483
1580000000.0 -0.1561341153944915 0.13677364803641007
1600000000.0 -0.17151086279596436 -0.03229428832579461
1620000000.0 -0.14598556193691745 0.013530519899316187
1640000000.0 0.12448414818407423 -0.030281879691028322
1660000000.0 -0.06948848013119366 0.08098048934613701
1680000000.0 0.02452013121424179 -0.08465136844789867
1700000000.0 -0.06193451277551999 -0.025515760013376746
1720000000.0 0.04803311585388357 0.011662703896578296
1740000000.0 -0.029687622039117696 0.03079526135140851
1760000000.0 0.05205563024239058 -0.03256498447407285
1780000000.0 0.040409796941804695 0.08557102131234018
1800000000.0 -0.07676149814663281 -0.09219147031752872
1820000000.0 0.14944840260003073 0.012404727056814646
1840000000.0 -0.09400899639891204 0.15910083392395874
1860000000.0 0.09438984109364738 0.18841988871674817
1880000000.0 0.21453801474957954 0.11559130936465421
1900000000.0 0.1795369336862323 -0.18744252309888512
1920000000.0 -0.19852472204859475 -0.19972088150751097
1940000000.0 0.19812474623978396 0.2258959103571897
1960000000.0 -0.2809418571846608 0.12245086414586841
1980000000.0 -0.11730402811668673 -0.2896291356539115
2000000000.0 0.31124389033377997 -0.006336533524531599
2020000000.0 0.24119109377349113 0.19567746455087717
2040000000.0 0.081875951638158 0.30202888556162505
2060000000.0 -0.002092056506573212 0.3105341644336297
2080000000.0 -0.13833352400109156 0.2750903953121972
2100000000.0 0.30064991105866995 0.04909698918554509
2120000000.0 -0.25069552437911014 0.1763481344002822
2140000000.0 0.1062598918868637 -0.29186173448847635
2160000000.0 -0.08206957675484068 0.2922374029536961
2180000000.0 0.25446353914174524 -0.1488112308861439
2200000000.0 0.18816977507083196 -0.20727631157893786
2220000000.0 0.26961936591399904 0.019740954048295185
2240000000.0 -0.20455494876318553 0.17305413848483733
2260000000.0 -0.07178137844543148 -0.2496976753579451
2280000000.0 0.24772421012871415 -0.04667534253871476
2300000000.0 0.16125111539315973 0.18572600620353433
2320000000.0 -0.20939358029074379 0.09108806593850065
2340000000.0 0.21165223250066806 0.06439179262536178
2360000000.0 -0.13628417568890872 -0.17029589980029125
2380000000.0 0.07418544974709781 0.21095360635662208
2400000000.0 -0.08639858942529484 -0.22193009652290638
2420000000.0 -0.14235702661548139 -0.22850928691112898
2440000000.0 0.04124219686590854 0.2947342114887535
2460000000.0 -0.2863467564368281 -0.16229662573502446
2480000000.0 -0.00319798219789648 0.36373764561028415
2500000000.0 -0.2635089457011248 -0.2957761195279192
2520000000.0 0.3940531692368684 -0.18316698492291353
2540000000.0 -0.21358267357985072 0.42359147486170035
2560000000.0 -0.24658224837946233 -0.44778964815320554
2580000000.0 0.5281041013324128 0.13805686741227496
2600000000.0 -0.5166560229475067 0.2486082233507191
2620000000.0 0.378467077991471 -0.4636286809652738
2640000000.0 -0.1438011810011251 0.6015172961386934
2660000000.0 -0.38509562050215973 -0.5061020593143205
2680000000.0 0.5697562034734872 -0.31075769430871675
2700000000.0 0.46398117250387005 0.4713611016947743
2720000000.0 0.12930798109119 0.6567979488117942
2740000000.0 0.052950403842905884 0.6747063353486731
2760000000.0 0.09091060868251748 0.676530173230564
2780000000.0 -0.6802546803948883 -0.03308245332665252
2800000000.0 -0.6710466024269341 -0.07883337231026147
2820000000.0 -0.5094767112400708 -0.4298038204035143
2840000000.0 0.1544147029442554 -0.6376096927769621
2860000000.0 0.39495482571555574 0.505949468086919
2880000000.0 -0.4874291886181576 -0.3944509596287132
2900000000.0 0.16692067604742516 0.585954207172567
2920000000.0 0.4511190908763413 -0.37594159573174274
2940000000.0 -0.42919329980082127 -0.36568423256668325
2960000000.0 -0.408020360085154 0.35141886101644726
2980000000.0 0.19561087936646357 0.47888977773107066
3000000000.0 0.4468301199590188 -0.20536674316503092
3020000000.0 -0.3947629578664914 -0.24806944827837918
3040000000.0 0.19465857971123315 0.392619171960063
3060000000.0 -0.07332606458320383 -0.404214923717616
3080000000.0 -0.1536442576695636 0.3581103594140533
3100000000.0 0.06677744009167663 -0.3638727803924017
3120000000.0 -0.23832331612183597 -0.26487524290101994
3140000000.0 0.25952636307053695 0.2351304886189908
3160000000.0 -0.12406169781894796 -0.3190612553863403
3180000000.0 0.09370240959276885 0.3284284995843011
3200000000.0 -0.04932077405950239 -0.3308313048598329
3220000000.0 -0.2879006517196156 0.1423628356144814
3240000000.0 -0.07113139261835104 0.2954923465479203
3260000000.0 -0.14889388139823279 0.24670255178170103
3280000000.0 -0.2430882239844194 -0.11623106308823153
3300000000.0 0.24375206689853976 0.07085417023223228
3320000000.0 0.08809519001808024 0.22205849625827778
3340000000.0 -0.1498750639724819 0.15314489489199928
3360000000.0 0.058282482652611454 -0.1795215159255215
3380000000.0 -0.1542737231881267 0.04912633030929868
3400000000.0 -0.013639844536495175 0.1411768248311723
3420000000.0 0.014921442047713418 0.12787278822352935
3440000000.0 0.043255094253186 -0.11351046225195786
3460000000.0 -0.02187047127121944 -0.1123647555391503
3480000000.0 0.05254758701619934 -0.08748013180792648
3500000000.0 -0.03278744128554075 -0.08394181014696767
3520000000.0 0.012116529342914364 -0.07790612489852812
3540000000.0 -0.019272880117076396 -0.07753812952877331
3560000000.0 0.04153388730843824 0.0697879716053398
3580000000.0 0.009248716510099458 -0.08765857045688506
3600000000.0 -0.035162037871787226 -0.09069220066317657
3620000000.0 -0.07116855857521989 0.07871790125438209
3640000000.0 -0.0753668973467707 0.08401044943454675
3660000000.0 0.1128069513404221 0.01870499292183562
3680000000.0 0.09183935072936456 -0.06225095162970198
3700000000.0 -0.06877844096862845 -0.0747727506206444
3720000000.0 -0.05219835482317051 0.07723054465706243
3740000000.0 -0.016631645065409165 -0.08177184283843511
3760000000.0 0.0014271491129129123 0.07769724825879024
3780000000.0 0.052775204578705985 0.03767732770452727
3800000000.0 0.044907736613848975 0.015559267894763836
3820000000.0 -0.007925537682177552 -0.0391158860411017
3840000000.0 0.04436440443494455 0.014220705589717237
3860000000.0 0.07048931149040438 0.022041944685370497
3880000000.0 -0.07953812227621189 0.03881702705880075
3900000000.0 -0.09751616203113662 0.017260130340618778
3920000000.0 -0.02333247672757828 0.10018735696310063
3940000000.0 0.019510970055424428 -0.10116950846742859
3960000000.0 -0.09104879900464052 -0.0418590464756724
3980000000.0 0.049841309256785614 0.08114622360319358
4000000000.0 -0.048047153592395656 -0.0707151384304607
