!Created with skrf (http://scikit-rf.org).
# Hz S RI R 50.0 
!freq ReS11 ImS11
400000000.0 -0.7674034954136755 -0.38034299427440665
420000000.0 0.7104379380110337 -0.2970562240446554
440000000.0 0.697487492331293 -0.23364863226603275
460000000.0 0.5991697624625132 0.034578474635023206
480000000.0 0.21396980408584232 0.6012276528455384
500000000.0 -0.38589828472937165 -0.35589978886033496
520000000.0 0.12495016518511412 -0.43858095422728977
540000000.0 -0.45610593709853364 0.04474015448060834
560000000.0 -0.4031883014648092 -0.2069687386477301
580000000.0 0.38497664949763016 0.07340517667238046
600000000.0 -0.17433824002029927 0.3049017113900401
620000000.0 -0.349859044872772 0.11436933721387334
640000000.0 -0.2819516242283414 -0.20324880544634472
660000000.0 0.336708948069788 -0.02588132941874257
680000000.0 0.14889154683630393 -0.3035062314796511
700000000.0 0.32192083554548284 0.011505350624721697
720000000.0 0.3306174042033579 -0.08061861332767238
740000000.0 -0.3260734374353315 0.05307531062240191
760000000.0 -0.018101127360730034 -0.32160710392970476
780000000.0 0.12356336261772378 -0.2731195706412174
800000000.0 -0.25183241193644695 -0.07502674169599134
820000000.0 -0.1753125509718915 -0.16876141008548762
840000000.0 0.20913940488973934 0.043788060852006656
860000000.0 0.1579168550209591 0.132668699008644
880000000.0 -0.054390511223672416 0.18402590676606706
900000000.0 0.0273895564652457 0.16222612733510544
920000000.0 -0.13595118450783206 0.05771835262646923
940000000.0 0.11578258629850112 0.08789504341500612
960000000.0 -0.09384439827591007 0.048799827486761344
980000000.0 0.00957820641442672 0.0855633839223816
1000000000.0 -0.028816958205110203 -0.05209943869027519
1020000000.0 -0.03614725505293879 0.043134810978731675
1040000000.0 -0.002515217718321096 -0.06987390237217815
1060000000.0 -0.12056846719758488 0.015119261853046803
1080000000.0 0.1057720315775219 -0.12802051203647805
1100000000.0 0.10953291301646959 0.15272424987741287
1120000000.0 -0.21830465533275867 0.06773265930380176
1140000000.0 -0.2260882160331019 0.12631002077636574
1160000000.0 0.2138044430800812 -0.1837364138234381
1180000000.0 0.3067897937985537 0.039837088233534525
1200000000.0 0.2640654326418977 0.18864607881786483
1220000000.0 0.13772825449483875 0.300019790618628
1240000000.0 -0.24527587336256806 0.216945979784748
1260000000.0 0.014629501679760907 -0.3258330884488058
1280000000.0 0.34280032631650986 -0.036010299006065234
1300000000.0 0.23611000515194353 -0.26335862941796534
1320000000.0 0.30134467432300016 0.19203449338660722
1340000000.0 -0.2113987611730194 -0.2980321036209949
1360000000.0 0.26446314234793356 -0.2783104875758647
1380000000.0 0.3819142645973924 -0.03298216829793478
1400000000.0 -0.36158830832563665 -0.124414559608178
1420000000.0 0.22183496764875385 0.304940026991778
1440000000.0 0.3451100941949313 0.1303397926042647
1460000000.0 0.25540595823165685 -0.25566145833430054
1480000000.0 -0.3276510932979206 -0.1322988181046299
1500000000.0 -0.09960071464933096 0.31934323151313665
1520000000.0 0.11719646943836885 -0.29460680014498764
1540000000.0 -0.19724060722234735 0.20160160805441696
1560000000.0 -0.24460201123568978 -0.00669308200783052
1580000000.0 -0.08861640616778635 0.18651153923442715
1600000000.0 -0.15566313446055163 -0.07579685963309193
1620000000.0 -0.14620298036802173 -0.005430596271973149
1640000000.0 0.12961120221159636 -0.0015015757443271054
1660000000.0 -0.0016119934311363635 0.10650270540672169
1680000000.0 0.02059623791767054 -0.08447956990814463
1700000000.0 -0.06394418178018565 -0.01412953289545576
1720000000.0 0.004521147520067975 0.05107099245452102
1740000000.0 0.012986083153627495 0.04253348526437928
1760000000.0 0.048498444413138914 -0.03434371156960066
1780000000.0 -0.06092197061371059 0.07166641278764849
1800000000.0 -0.06939420102330819 -0.09883270293916
1820000000.0 0.14867495992750968 -0.02698599025075334
1840000000.0 -0.06267730253579962 0.17394353907352578
1860000000.0 0.15216806402322092 0.145225944014245
1880000000.0 0.17982615139271743 0.16275651753991588
1900000000.0 0.20841854531009393 -0.15762982833745537
1920000000.0 -0.2449157722454559 -0.14031281388786718
1940000000.0 0.2110838774813815 0.21314536968532222
1960000000.0 -0.29242819109792273 0.08995086777980744
1980000000.0 -0.14778186034828403 -0.2758045320236924
2000000000.0 0.3109046807757991 0.013057381640964483
2020000000.0 0.23287775363850605 0.20573568277911825
2040000000.0 0.11293228520307833 0.2911176489348086
2060000000.0 -0.02206164440327711 0.31014943576385373
2080000000.0 -0.10525273606087505 0.2896853423329864
2100000000.0 0.302940127603462 -0.03960022992943595
2120000000.0 -0.22066228458555398 0.2107134793316564
2140000000.0 0.19362826311323814 -0.24229431293230738
2160000000.0 -0.14461007113793609 0.2686380722465479
2180000000.0 0.2039814405766591 -0.21414857278929827
2200000000.0 0.14717204985337035 -0.23760603934325783
2220000000.0 0.26695492751061106 0.03877614406788574
2240000000.0 -0.2551661775174727 0.08070210861088843
2260000000.0 -0.11858680050690171 -0.23394075460768685
2280000000.0 0.21130765976639235 -0.13421936692129016
2300000000.0 0.14589858565632033 0.19597332227576503
2320000000.0 -0.22912109371571343 -0.013736974911810458
2340000000.0 0.22012117447195462 0.026349595683680373
2360000000.0 -0.18038650528656855 -0.1212520503982866
2380000000.0 0.05769188000711521 0.21611065939048066
2400000000.0 -0.10852217998838226 -0.21199014380972425
2420000000.0 -0.186119147858621 -0.19260833073040334
2440000000.0 0.0591149263874785 0.2915268225341912
2460000000.0 -0.22083590843323558 -0.24526848783273703
2480000000.0 0.07083616321870852 0.35732504839572854
2500000000.0 -0.3259584669330956 -0.22486399758965292
2520000000.0 0.36634617084968485 -0.2344111421035157
2540000000.0 -0.23854233121578186 0.40980767949536917
2560000000.0 -0.23811137348305528 -0.45152941031005256
2580000000.0 0.515839564518684 0.17710125638879984
2600000000.0 -0.5259712884163371 0.2290090584578727
2620000000.0 0.4021187788442077 -0.44393163411644576
2640000000.0 -0.044520902003670995 0.6161111909278425
2660000000.0 -0.41717827446933176 -0.4793826507461564
2680000000.0 0.5918048400323546 -0.2664261671418063
2700000000.0 0.4491861627359782 0.4852976826230901
2720000000.0 0.08836616870161686 0.6643195693515654
2740000000.0 0.001687615587499965 0.6769895166360388
2760000000.0 0.04834584142288406 0.6807787971169403
2780000000.0 -0.6752720930566449 -0.08770812609437337
2800000000.0 -0.6719665021053616 -0.07305333455056565
2820000000.0 -0.5252119412485342 -0.4106434305039198
2840000000.0 0.19498827004075184 -0.6266713542402701
2860000000.0 0.3658825708170838 0.5281891826601759
2880000000.0 -0.48349350600373764 -0.4007368514126832
2900000000.0 0.14962992099467823 0.590783727521294
2920000000.0 0.4567169363887888 -0.3688395571975399
2940000000.0 -0.38027077275796795 -0.4161360355612725
2960000000.0 -0.4367868859975366 0.31677779755895347
2980000000.0 0.21953919717711137 0.46771295230208415
3000000000.0 0.38570766668182366 -0.3049676169874644
3020000000.0 -0.41747389984920685 -0.2080449949622229
3040000000.0 0.26096519853664074 0.3509670843055392
3060000000.0 -0.1481671630922426 -0.38370076195527814
3080000000.0 -0.13094769033794512 0.3669094798824535
3100000000.0 0.1015178366139802 -0.3557319695693399
3120000000.0 -0.2000785102434024 -0.29457547819935764
3140000000.0 0.26486583404779573 0.22977350511106293
3160000000.0 -0.12793567840781997 -0.3185210437457003
3180000000.0 0.16476461426231367 0.2991205462074321
3200000000.0 -0.012729511088983353 -0.3334024256331476
3220000000.0 -0.3051620277975951 0.10116942734739245
3240000000.0 -0.07056333764637636 0.2977734719061544
3260000000.0 -0.09807534709003818 0.26976552904567536
3280000000.0 -0.1768494292210944 -0.20318031386183547
3300000000.0 0.25404676559879436 0.022280834558014308
3320000000.0 0.10688151378726543 0.21291141692309473
3340000000.0 -0.16499921292099862 0.1372089075339095
3360000000.0 -0.019059379929565027 -0.18710148337206325
3380000000.0 -0.15643127507412577 0.03484371390087052
3400000000.0 -0.067495362920061 0.1255377796945141
3420000000.0 0.044301089158585785 0.12243611843222021
3440000000.0 -0.053597059355136374 -0.10898103357099945
3460000000.0 -0.07984842406942491 -0.08040120996813542
3480000000.0 0.08678027676739575 -0.050188339668435784
3500000000.0 0.02984940479149651 -0.08675111850351436
3520000000.0 0.07193220300718406 -0.03561378335826839
3540000000.0 -0.07614865327166197 -0.02383444850766673
3560000000.0 0.043371156632727434 0.06848269905424306
3580000000.0 0.04230726547670981 -0.0750781469227623
3600000000.0 0.0687839947649306 -0.0691217999408858
3620000000.0 -0.07135703119444349 0.08050404476094587
3640000000.0 0.06646029088342408 0.09053932883574052
3660000000.0 0.1126658665593099 0.01117238266875063
3680000000.0 0.083007378026464 -0.07167575963536563
3700000000.0 -0.04234069911824254 -0.09322252828569169
3720000000.0 -0.0016913132744839083 0.09471404571948415
3740000000.0 -0.07748662203941997 -0.033255717902917044
3760000000.0 0.05150763504169321 0.05604268236564227
3780000000.0 0.04095470425753604 0.05116645320123552
3800000000.0 0.043883093875041544 0.01996872171371057
3820000000.0 -0.03129132947715579 -0.024977145460489836
3840000000.0 0.04713137663321915 0.0006472013939821882
3860000000.0 0.07360614939685614 -0.012024558327605857
3880000000.0 -0.08634978353140485 0.020764587275714345
3900000000.0 -0.09243837842530576 0.037039567616034434
3920000000.0 -0.06949534222077652 0.0767696525754157
3940000000.0 0.02159985800802056 -0.10084696890205673
3960000000.0 -0.0517838283603165 -0.0855658668238956
3980000000.0 0.02727611890247967 0.0906907513764941
4000000000.0 0.0314471325441268 -0.07814506180071405
