!Created with skrf (http://scikit-rf.org).
# Hz S RI R 50.0 
!freq ReS11 ImS11
400000000.0 -0.7317061398699559 -0.4466362028251938
420000000.0 0.7361493940473068 -0.2210375323975073
440000000.0 0.6523215463074895 -0.344424094756403
460000000.0 0.5941606673878497 0.05333517366135335
480000000.0 0.11716774511722787 0.6259689566089972
500000000.0 -0.3966305563577984 -0.34909938275017677
520000000.0 0.3064610778117459 -0.34553533813984577
540000000.0 -0.4552166621723747 0.062116424798949736
560000000.0 -0.42164840435355383 0.16178782986538212
580000000.0 0.2774496315387963 0.26913451004504824
600000000.0 -0.025935067929244698 0.3512696562165803
620000000.0 -0.367707958128617 0.0077984364281211945
640000000.0 -0.20851451221500986 -0.28434094984378405
660000000.0 0.24916944628318477 -0.22837516450408465
680000000.0 0.21278132034667305 -0.26312279086946766
700000000.0 0.24977891234710986 0.20984500943234918
720000000.0 0.25711974262097875 -0.22713335420088013
740000000.0 -0.2265382360364413 0.23836209726394428
760000000.0 0.2328906809796883 -0.21185350630892053
780000000.0 0.29151798300449067 -0.07779006127058657
800000000.0 -0.2121538314387855 0.15915454026611053
820000000.0 -0.22372854018897326 -0.08412826745478995
840000000.0 0.10820554471031334 0.19136592936089206
860000000.0 0.18664148144755238 -0.09070551709902905
880000000.0 0.16334295250334888 0.09455677812716443
900000000.0 -0.160106400707963 -0.015295174113766408
920000000.0 -0.1501711920286098 0.020687933670804143
940000000.0 0.13472514836277424 -0.051290851831556024
960000000.0 -0.018621601938213536 0.10691446939344605
980000000.0 -0.00881321337942822 0.08679264298544839
1000000000.0 -0.010751203610918568 0.05663487103256323
1020000000.0 0.050770259657225175 0.01511385777907441
1040000000.0 0.011941919122880486 0.06916756184720817
1060000000.0 -0.12273238698291825 0.0004738209935202387
1080000000.0 0.13624974043415744 -0.0949227122480429
1100000000.0 0.04167595730891294 0.18323991070972612
1120000000.0 -0.2036750912406506 0.09764567272852001
1140000000.0 -0.2503718588747235 0.06637755114988407
1160000000.0 0.24179327502976078 -0.14893633676762927
1180000000.0 0.3092189824977033 -0.017420896395506768
1200000000.0 0.2958122828200803 0.1290236238386063
1220000000.0 -0.03355911553923386 0.325610463505711
1240000000.0 -0.3036130898251629 0.12530168440074593
1260000000.0 0.010183537470311909 -0.32813349883216725
1280000000.0 0.3379900852839927 -0.06966279765455473
1300000000.0 0.14277417234619333 -0.3233081071530465
1320000000.0 0.3149288818187488 0.16423972286459956
1340000000.0 -0.0047392135831999275 -0.3653468457050931
1360000000.0 0.22945916515915793 -0.3098511048657962
1380000000.0 0.3467132800337267 -0.16431096989154587
1400000000.0 -0.33431699644203977 -0.18584238436072487
1420000000.0 0.3181646487564822 0.20079867984138197
1440000000.0 0.32175333587407134 0.1783617023496778
1460000000.0 0.26831697318442427 -0.2424305017446526
1480000000.0 -0.3149418666862359 -0.16320009053016146
1500000000.0 -0.014561938166245713 0.334298881185465
1520000000.0 0.14418525242572264 -0.279170751597458
1540000000.0 -0.21186862749158664 0.18680316632002164
1560000000.0 -0.24619882694446532 -0.01342698180275558
1580000000.0 -0.0685364688901398 0.1944453148918277
1600000000.0 -0.1511524157344158 -0.08221584025729647
1620000000.0 -0.14611324174453522 -0.01925750358438783
1640000000.0 0.11515395692348358 -0.05816697599797374
1660000000.0 -0.017948630343300544 0.1049757270291899
1680000000.0 0.06518940058182089 -0.05585298404461615
1700000000.0 -0.049752243915676835 -0.04401487535544944
1720000000.0 0.0402519482630877 0.029274087834616228
1740000000.0 -0.007836091475249395 0.04345460290613199
1760000000.0 0.05940888793324489 -0.003556614312894601
1780000000.0 -0.013031421205631392 0.09350236368604257
1800000000.0 -0.0740052171617116 -0.09576053042146748
1820000000.0 0.12044048204875983 -0.08958913861845837
1840000000.0 -0.08922188175557293 0.16200159781517706
1860000000.0 0.1123501046223708 0.1789991973217295
1880000000.0 0.2113552203736876 0.12115549952985435
1900000000.0 0.20292507988213854 -0.16454112268172222
1920000000.0 -0.2391068934942777 -0.14893563171918053
1940000000.0 0.1838953706063909 0.23790826104586027
1960000000.0 -0.291459980527795 0.09504850139494464
1980000000.0 -0.1324880702167707 -0.2827965383513131
2000000000.0 0.3103676499917686 0.0017736155201266194
2020000000.0 0.2206411810258863 0.2187331323209711
2040000000.0 0.09530050480477871 0.29684826152575505
2060000000.0 0.0013658723827098004 0.31140324708894895
2080000000.0 -0.05886819418668586 0.3031523881435353
2100000000.0 0.30484469798184244 0.005693584945968391
2120000000.0 -0.23682217292005592 0.19155353863204405
2140000000.0 0.15587560121120103 -0.26833412407559776
2160000000.0 -0.12477188353581811 0.2783480633054267
2180000000.0 0.24408236334398484 -0.1671115105267171
2200000000.0 0.0775031365731661 -0.2693662534255287
2220000000.0 0.2418397053727325 0.11832079666626992
2240000000.0 -0.25539215127402304 0.08082788892139398
2260000000.0 -0.09530033937469523 -0.24289651428994743
2280000000.0 0.2094386856259931 -0.1382156600015238
2300000000.0 0.1478328196268571 0.19491982684370185
2320000000.0 -0.22648714840109418 0.025345423640496325
2340000000.0 0.19962660902627538 0.09670483103087078
2360000000.0 -0.18148357960998254 -0.12148643696205146
2380000000.0 0.14908731890186136 0.1659410865598457
2400000000.0 -0.1422017509305442 -0.19064840483932824
2420000000.0 -0.14108868060458385 -0.22736711345154428
2440000000.0 0.037019114548034575 0.29540617138847014
2460000000.0 -0.2624576180263088 -0.20059670389097112
2480000000.0 0.013379064272898943 0.3635780398241751
2500000000.0 -0.29502538668191663 -0.2648518347617585
2520000000.0 0.37133444997288434 -0.22789739148765942
2540000000.0 -0.18227081986436222 0.43788686114945363
2560000000.0 -0.23054251782827528 -0.4551437352494625
2580000000.0 0.5198486560758842 0.16425512288596666
2600000000.0 -0.532097737988068 0.21386636920257732
2620000000.0 0.3973023046808537 -0.44783467703436636
2640000000.0 -0.09591267904208595 0.610700709924815
2660000000.0 -0.45703657577958173 -0.4413596445877988
2680000000.0 0.5586623677430341 -0.33046258126332007
2700000000.0 0.4857644620475211 0.4486980630520446
2720000000.0 0.1325511974679317 0.6561320304318276
2740000000.0 0.013719544680552651 0.6768468519686056
2760000000.0 0.06596345975358568 0.6790873012605946
2780000000.0 -0.6811805688364188 0.012412642129504442
2800000000.0 -0.6696426338239928 -0.09144335002690533
2820000000.0 -0.4988199469312273 -0.442382652343946
2840000000.0 0.15022808642183805 -0.6386351572778232
2860000000.0 0.4021573283926682 0.5006173948396387
2880000000.0 -0.45272251815422 -0.4343356306239791
2900000000.0 0.1913153143753683 0.5787708439773354
2920000000.0 0.4548054899156255 -0.37250658921615964
2940000000.0 -0.46064336568970937 -0.3249977830218433
2960000000.0 -0.409597745959475 0.34932171715732585
2980000000.0 0.16961228040169748 0.48843335962944595
3000000000.0 0.43445696300726466 -0.22801911738046912
3020000000.0 -0.3732456008741849 -0.2801569976013966
3040000000.0 0.13794544470827205 0.41601314697997005
3060000000.0 -0.15663057000345665 -0.379508775225934
3080000000.0 -0.0981849171900338 0.3763257651129842
3100000000.0 0.10174467096546896 -0.3547676603150291
3120000000.0 -0.13327770529103664 -0.3300778083754677
3140000000.0 0.25914372240097183 0.23740639191992374
3160000000.0 -0.17076242500511976 -0.29785584958879463
3180000000.0 0.13699165998419702 0.3131693928264313
3200000000.0 -0.05541367594682527 -0.3300195790334282
3220000000.0 -0.25816841368103405 0.192689069494173
3240000000.0 -0.09043408026971286 0.2904597423600729
3260000000.0 -0.18214848724322966 0.21915744214615582
3280000000.0 -0.09810653693176868 -0.2535534468076482
3300000000.0 0.2557312602921531 -0.0015260924790508703
3320000000.0 0.2015579583157816 0.12796204095363536
3340000000.0 -0.08496870174015236 0.1952844592285445
3360000000.0 0.13141750152832063 -0.13238713688233725
3380000000.0 -0.15356024955440117 -0.0470804815189548
3400000000.0 -0.0675195032168425 0.12715945636023326
3420000000.0 0.11533980849543725 0.059800615033179454
3440000000.0 -0.059021691590885605 -0.1042555558657135
3460000000.0 0.05417648167935459 -0.09870523751418737
3480000000.0 0.09211269486134542 0.04441132075798875
3500000000.0 -0.044071123549404234 -0.08254307559060328
3520000000.0 -0.052923295445513635 -0.05920716576201592
3540000000.0 -0.07825897992877229 -0.010721140374403245
3560000000.0 0.013961627113294467 0.0775573702758897
3580000000.0 0.08098523705730194 0.028258735874062968
3600000000.0 0.09870561356976111 0.0035894590208672573
3620000000.0 -0.06308053893200201 0.08915812502669225
3640000000.0 0.11242282385699082 0.021282809518577635
3660000000.0 0.06525159109143017 -0.09131827878758954
3680000000.0 0.06585048704413873 -0.08610951665067254
3700000000.0 0.04488955821967813 -0.09046306023703327
3720000000.0 -0.05684088837553521 0.07686173388454767
3740000000.0 -0.08599414914797322 -0.001242156114057314
3760000000.0 0.03488275626518962 0.06867212332573289
3780000000.0 0.05821631123091973 0.029281820309931123
3800000000.0 0.04627334587865339 0.01385046785025952
3820000000.0 -0.01249182002760764 -0.038264582794267
3840000000.0 0.046382180840514785 0.009024018824072659
3860000000.0 0.07168645201193036 -0.018269614751919808
3880000000.0 -0.08815673809649324 0.009481061011351117
3900000000.0 -0.09986905164095376 -0.005058293419223614
3920000000.0 -0.03621527024380239 0.09786583848350484
3940000000.0 -0.04542817195236116 -0.0925386270446993
3960000000.0 0.010784579628813627 -0.09874406897316161
3980000000.0 -0.04783042026258268 0.08149122093999239
4000000000.0 0.01259839886604352 -0.08392559324379743
