!Created with skrf (http://scikit-rf.org).
# Hz S RI R 50.0 
!freq ReS11 ImS11
400000000.0 -0.7006964255145023 -0.493034162619783
420000000.0 0.6849310674268374 -0.3485773001950634
440000000.0 0.7022760533390919 -0.21690391414458812
460000000.0 0.5553188070065481 0.23702695110066754
480000000.0 -0.005222436917425236 0.640897167525257
500000000.0 -0.4272802818756746 -0.30505068533247615
520000000.0 0.34984950187431835 -0.29780274299932075
540000000.0 -0.42137992298249627 0.16331672443291134
560000000.0 -0.3808204574695426 -0.23876748559850358
580000000.0 0.06250520788569904 0.3944896116616942
600000000.0 0.21329122626091607 0.2858433527623991
620000000.0 -0.3057266583160518 0.1948880023902415
640000000.0 -0.10638703002621133 -0.33361493681465304
660000000.0 0.2816002948801763 -0.18902772026619732
680000000.0 0.22130856666318752 -0.24460806496529364
700000000.0 0.13302446802978113 0.29695402394249915
720000000.0 0.3387885219567941 -0.06589735396667214
740000000.0 -0.13826445552064842 0.3041355999359757
760000000.0 -0.2628409331638554 -0.1717059009466682
780000000.0 0.25037104367088125 -0.15154961554607807
800000000.0 -0.0901754248063141 -0.24777408200829273
820000000.0 -0.02587653573649393 -0.24125659438941888
840000000.0 0.21375002879190053 0.05463458820526297
860000000.0 -0.20081625871765707 -0.04988815374104915
880000000.0 0.008657338969278405 0.18817178361307454
900000000.0 -0.15549852800654135 -0.04951412542805242
920000000.0 -0.1407946698447349 0.057166201991032096
940000000.0 0.09388504051863662 -0.11170194094227294
960000000.0 -0.06865917831128182 -0.08076863983378807
980000000.0 0.010600197753280588 0.08564878290102518
1000000000.0 0.04478092880269243 -0.03668972223156959
1020000000.0 -0.03287758340266644 0.04720217311726147
1040000000.0 0.0702274690183255 -0.02275236453721513
1060000000.0 0.11753280618305638 0.02280706551256194
1080000000.0 0.14131481449275596 0.07795092133392138
1100000000.0 -0.05076407152353475 0.18472503595949505
1120000000.0 -0.1518276675827782 0.1721710609286784
1140000000.0 -0.14115827109666573 0.21095245772557472
1160000000.0 0.22989128192803593 0.16292958686347453
1180000000.0 0.297606657466724 -0.08873163981541787
1200000000.0 0.26077991353839225 0.1915603803071046
1220000000.0 -0.06136355538880203 0.32494326140956975
1240000000.0 -0.14368385794376995 0.29735764803447723
1260000000.0 -0.08033869951386044 -0.31191937683178667
1280000000.0 0.30778015004581816 0.15438756251189492
1300000000.0 0.20332140302383284 -0.295072291053982
1320000000.0 0.348824294952723 0.059781927902243834
1340000000.0 0.06032127652432316 -0.36069568487738524
1360000000.0 0.09263971597678097 -0.3776276815662792
1380000000.0 0.35700773148814385 -0.13567129015545895
1400000000.0 -0.23465058715093295 -0.3007335708292094
1420000000.0 0.2654540354175971 0.26902583702633576
1440000000.0 0.3637884546969913 0.05344497809164995
1460000000.0 0.30970513611380635 -0.18539764161090308
1480000000.0 -0.32614802914191 -0.14221003448036032
1500000000.0 0.02149142080270606 0.3323510831986063
1520000000.0 0.23131196970069548 -0.21624231622732934
1540000000.0 -0.022010453061853237 0.28158275309059827
1560000000.0 -0.2400365601664493 0.026910408269710587
1580000000.0 -0.19978701254206763 0.0472326487643613
1600000000.0 -0.08947343623618015 -0.1527633947517226
1620000000.0 -0.11656533978833815 0.09377315827259967
1640000000.0 0.1156078001741927 -0.05605566933702082
1660000000.0 0.019812199605826974 0.10342735211650865
1680000000.0 0.07855369379403043 -0.03607635285840683
1700000000.0 -0.012245465684950904 -0.06549764182919562
1720000000.0 -0.0048483690802912155 0.050597841300563204
1740000000.0 0.0403987011366951 0.016132074906612212
1760000000.0 0.053771021865120304 -0.029731407060885857
1780000000.0 0.0023859736798777674 0.09490657870359608
1800000000.0 -0.017238346283414554 -0.11660747676261839
1820000000.0 0.13862954613552178 0.05841140946364047
1840000000.0 -0.14045582044889407 0.12374533770172005
1860000000.0 0.1958619789442696 0.07939711694971045
1880000000.0 0.20160575883246432 0.1319118825012831
1900000000.0 0.22903752507882766 -0.12272582746808777
1920000000.0 -0.14584645443630434 -0.24138654403136423
1940000000.0 0.2490043148162603 0.16887318943542182
1960000000.0 -0.27392462503120485 0.13680800949509392
1980000000.0 -0.14364252260080174 -0.276778768770966
2000000000.0 0.30928948403145795 -0.015425924918350415
2020000000.0 0.20340477489162398 0.23677212713660614
2040000000.0 0.11332502553405455 0.29232592449995165
2060000000.0 0.0838175869306498 0.30073705114055377
2080000000.0 -0.05963059935272854 0.30164218182166136
2100000000.0 0.29713330689357365 0.06839580943770822
2120000000.0 -0.2942850613644794 0.08615027145131526
2140000000.0 0.11977601483855309 -0.2873935602272198
2160000000.0 -0.049072671417480666 0.29919509988175613
2180000000.0 0.22960577023549972 -0.18323745452808846
2200000000.0 0.20695193131836462 -0.18679167797668136
2220000000.0 0.17139567407641967 0.21086552265943778
2240000000.0 -0.20166407678872267 0.17820449317664497
2260000000.0 -0.20988685859337386 -0.15180824706303073
2280000000.0 0.22366585551309476 -0.10939235495979331
2300000000.0 0.09234466043240216 0.2260919042750913
2320000000.0 -0.22633470329659583 0.04251107300824226
2340000000.0 0.2217703840995025 -0.009278425684658911
2360000000.0 -0.15422109516250512 -0.154645787831297
2380000000.0 0.1390258263461841 0.17532895738920923
2400000000.0 -0.20773063088489968 -0.1170251712617237
2420000000.0 -0.16079210029212448 -0.21366181391294706
2440000000.0 -0.01474419546186507 0.29682998962490936
2460000000.0 -0.20519809169280456 -0.2604537725932265
2480000000.0 0.002375814492811857 0.36452018114999557
2500000000.0 -0.30760471022356034 -0.2508052110118674
2520000000.0 0.3411344263026034 -0.27028918775409505
2540000000.0 -0.22248195529984147 0.41816939339850545
2560000000.0 -0.2760772878406646 -0.42869790218504134
2580000000.0 0.5172911444161187 0.17030182545824335
2600000000.0 -0.5170191238413013 0.2479539858015613
2620000000.0 0.3823882869351316 -0.46116783367624864
2640000000.0 -0.054166913319172144 0.6164442334285198
2660000000.0 -0.45936342252399365 -0.4397094100632358
2680000000.0 0.554900926026907 -0.3367370701456008
2700000000.0 0.45789792546502506 0.47659407068179094
2720000000.0 0.14106620792837668 0.6548159790111376
2740000000.0 -0.021960276046990926 0.676209593282832
2760000000.0 0.05189308672924801 0.67969945535631
2780000000.0 -0.6809916282256889 -0.011115553424600827
2800000000.0 -0.6740216511702414 -0.05087441770553982
2820000000.0 -0.5468923792787442 -0.3809800361817097
2840000000.0 0.1305482104476478 -0.6426227016627547
2860000000.0 0.34361679268416573 0.5424447316244337
2880000000.0 -0.4904086953262738 -0.3925498218051379
2900000000.0 0.175303658899752 0.5840033755226887
2920000000.0 0.4437611600193485 -0.38455877734973265
2940000000.0 -0.41332209352610916 -0.3838646175344573
2960000000.0 -0.410069965665527 0.3498198733643917
2980000000.0 0.1311290912368615 0.4984410073554298
3000000000.0 0.4301298891443961 -0.23882117104557615
3020000000.0 -0.42009154688800243 -0.20121523267178357
3040000000.0 0.21292216331709027 0.3809143089798182
3060000000.0 -0.16981084171590521 -0.37433221515281256
3080000000.0 -0.0015860758779992236 0.3903250891371738
3100000000.0 0.03956084052923519 -0.36744108097545497
3120000000.0 -0.2609396600974599 -0.24313294536000904
3140000000.0 0.2939561194893086 0.19186441902872875
3160000000.0 -0.16722208470468136 -0.3001749830736271
3180000000.0 0.09582064181913538 0.32729859764897873
3200000000.0 -0.013215024021458011 -0.3349877089282595
3220000000.0 -0.2760618157517002 0.1659407605448419
3240000000.0 -0.05740943611496662 0.29916106522962804
3260000000.0 -0.20024518580695602 0.2053996352060607
3280000000.0 -0.22228583458757922 -0.154104123040911
3300000000.0 0.25222307226955165 0.035559608707016924
3320000000.0 0.15773769139357355 0.17674861883252424
3340000000.0 -0.1441027467260197 0.1582569781847012
3360000000.0 0.025642714321536208 -0.18568241469450292
3380000000.0 -0.1492058804065653 0.057938503642852905
3400000000.0 -0.017479712750320557 0.1417307899905509
3420000000.0 0.08004431714249399 0.1008574884388395
3440000000.0 0.04948676081055417 -0.11010537944142527
3460000000.0 0.03317249902943829 -0.10980943208403093
3480000000.0 0.01338711385414765 -0.10013565706031699
3500000000.0 -0.06872524663994564 -0.05714283018897046
3520000000.0 0.07706741412988265 -0.014569843508705323
3540000000.0 -0.07343326650686482 -0.028834104079520403
3560000000.0 0.04917357472080811 0.0628377427829029
3580000000.0 0.06738475394025938 -0.05580617360260087
3600000000.0 0.039563734510427634 -0.09056279221291012
3620000000.0 0.044377442290823646 0.09740902383602373
3640000000.0 0.016146579196102875 0.11171245964915559
3660000000.0 0.09111461806772829 0.06910954934142409
3680000000.0 0.0709718935839779 -0.0850962813931612
3700000000.0 0.015913335695716093 -0.10098982058819189
3720000000.0 -0.08250277593443407 0.04782131320115699
3740000000.0 -0.07342453605456387 -0.04040829496269845
3760000000.0 -0.06436731096443517 0.0397102321004888
3780000000.0 -0.010904474501114658 0.06517124055771495
3800000000.0 0.03064465972660557 -0.03459565811447596
3820000000.0 -0.0049393016470677285 0.038087337300015796
3840000000.0 0.007659072393598303 0.04730113557214718
3860000000.0 0.06895376623679414 0.022907237345718805
3880000000.0 -0.07047664141796407 -0.05230653956917221
3900000000.0 -0.09333890584531665 0.03442010303534155
3920000000.0 -0.04098746281179031 0.09310495597076884
3940000000.0 0.0263902697152492 -0.0986523283043576
3960000000.0 -0.08370468998623708 -0.05480698545602221
3980000000.0 0.05217102805794419 0.07691914120779357
4000000000.0 -0.0776190787955156 -0.031409010580444215
