!Created with skrf (http://scikit-rf.org).
# Hz S RI R 50.0 
!freq ReS11 ImS11
400000000.0 -0.6989796836711781 -0.49652595636165303
420000000.0 0.68437857198819 -0.3459047146547655
440000000.0 0.7082977908387644 -0.19510980299267466
460000000.0 0.5772750745115901 0.17333731493080065
480000000.0 0.08321944730264853 0.6362972752684988
500000000.0 -0.4410644475680146 -0.28374077820112226
520000000.0 0.33911543822821105 -0.31159708536224334
540000000.0 -0.4251518002112685 0.15082471658603905
560000000.0 -0.33052700150809516 -0.30561112820812886
580000000.0 0.09990976688173038 0.38755449225192884
600000000.0 0.19153380188557267 0.29970251789341334
620000000.0 -0.3164875877050326 0.18022990415662185
640000000.0 -0.054813053272574415 -0.3471284807483651
660000000.0 0.2589019361458059 -0.22037055617384002
680000000.0 0.11457733207141459 -0.30879275540413054
700000000.0 0.10734346336456316 0.3048626070893941
720000000.0 0.3440564744932484 0.022900552716338382
740000000.0 -0.06301537109404089 0.3277603853096271
760000000.0 -0.1426067759131374 -0.27902528168188606
780000000.0 0.2567308607029651 -0.15021931654177229
800000000.0 -0.23309213466037043 -0.12668586504887705
820000000.0 -0.09473568950224373 -0.22197946893465864
840000000.0 0.21840393333382568 0.021785627072687754
860000000.0 -0.09215375031609464 -0.18226246324773898
880000000.0 -0.08657304895143936 0.1678285277722093
900000000.0 -0.13173846038401266 -0.09769554572246182
920000000.0 -0.10929889033876822 0.10976033186998528
940000000.0 -0.04352354755968238 -0.13878743492982035
960000000.0 -0.10268017967799199 0.012677099264611112
980000000.0 -0.048726060901893395 0.0683426246490505
1000000000.0 0.051379460223658184 0.026713603910719027
1020000000.0 -0.05306071810763241 0.020415579891406608
1040000000.0 0.07299279686394168 -0.00924956479067629
1060000000.0 0.11718544400163433 0.026364034105344217
1080000000.0 0.16050591305396875 0.006495409849418582
1100000000.0 -0.07874089912015529 0.17519440307612721
1120000000.0 -0.12816152034032996 0.19082614997519798
1140000000.0 -0.11270225990801287 0.22800004996809678
1160000000.0 0.2401966487845302 0.14777564347410257
1180000000.0 0.3007087500207677 -0.0818152593144807
1200000000.0 0.28141653293028496 0.15906317930186073
1220000000.0 -0.09327957621223469 0.3168000998873101
1240000000.0 -0.19927247064284645 0.2631643000260724
1260000000.0 -0.11165298551557361 -0.3030273155976432
1280000000.0 0.3153792739085896 0.13897600098119103
1300000000.0 0.2060753627951071 -0.2923299121520444
1320000000.0 0.35093251530724096 0.04444889728246322
1340000000.0 -0.012374333875407527 -0.36550324246556415
1360000000.0 0.09347503268139182 -0.37577144375638194
1380000000.0 0.3746456590737012 -0.07436693695755484
1400000000.0 -0.2422898606997546 -0.2957543943912268
1420000000.0 0.2596706721816417 0.2759583482440904
1440000000.0 0.36832396237086434 -0.005566093021268136
1460000000.0 0.2738369201653189 -0.23452919884511333
1480000000.0 -0.307503998653603 -0.17519420373112066
1500000000.0 -0.07311832985032032 0.3252181997467361
1520000000.0 0.2577819281128689 -0.18576639636512635
1540000000.0 -0.034058403667096296 0.2819935328028359
1560000000.0 -0.2352106017873919 0.06105651251451423
1580000000.0 -0.15800530059931187 0.12922067646629748
1600000000.0 -0.07953880103216134 -0.15558772075551516
1620000000.0 -0.14463153395344405 0.034456775678573644
1640000000.0 0.1280735020176565 -0.01606089253844876
1660000000.0 -0.00465224854063164 0.105279034916888
1680000000.0 0.0687014558987268 -0.052404307427357605
1700000000.0 -0.038184314636454934 -0.05409996930691974
1720000000.0 0.04948020202091593 0.009202712674480765
1740000000.0 0.018689482240156693 0.037793694405188656
1760000000.0 0.04729662330873916 0.03947482902841414
1780000000.0 0.0386448206278805 0.08803580262103043
1800000000.0 -0.1149152434444191 -0.025537696524982115
1820000000.0 0.14867374074632864 0.02329855784794041
1840000000.0 -0.13777854633710662 0.1265949563287833
1860000000.0 0.19272867666251817 0.0857181367144579
1880000000.0 0.20808134749780918 0.12399791386339316
1900000000.0 0.21750377523128536 -0.14209451162358513
1920000000.0 -0.19688296419013188 -0.2022723077244573
1940000000.0 0.22601911961498156 0.198629146703716
1960000000.0 -0.2863843392995329 0.10885324509791945
1980000000.0 -0.14867676440705338 -0.2747811341041645
2000000000.0 0.31002623790942146 -0.008812105935835346
2020000000.0 0.1862621799641603 0.24895609128727875
2040000000.0 0.10575091672215395 0.29437187460205844
2060000000.0 0.0029329280490075155 0.31216162261745634
2080000000.0 -0.0849995700421146 0.29566088937605045
2100000000.0 0.3035877528894149 -0.02135818168578011
2120000000.0 -0.2593308713303575 0.16210549118054265
2140000000.0 0.15690781100481 -0.26933325015567683
2160000000.0 -0.06383327808764497 0.29807996261387915
2180000000.0 0.18879473339951588 -0.22730150518083225
2200000000.0 0.1388908217058009 -0.24232138656391516
2220000000.0 0.2366136475766294 0.13026600123714155
2240000000.0 -0.2295226238188944 0.1405310264838536
2260000000.0 -0.12937215202452165 -0.22589013901838956
2280000000.0 0.24997672031615495 -0.017916369853336302
2300000000.0 0.11408751935227947 0.21711015285516724
2320000000.0 -0.2167643857233154 0.07316410341412471
2340000000.0 0.21979389615088804 0.02087784612052889
2360000000.0 -0.1207577611166958 -0.17993579018496694
2380000000.0 0.0765282717121844 0.21056103092209189
2400000000.0 -0.1646272299326451 -0.17256845474644564
2420000000.0 -0.1824546957893252 -0.19518783376255278
2440000000.0 0.03746069132427401 0.29513682053036205
2460000000.0 -0.28244523899894347 -0.171221468483307
2480000000.0 0.08897850323629773 0.3527612105240184
2500000000.0 -0.31138972004420906 -0.2457478619502748
2520000000.0 0.36397868943534173 -0.23867578451536
2540000000.0 -0.21794470547671402 0.4211423826381415
2560000000.0 -0.23346670112900272 -0.45451438887496587
2580000000.0 0.5200119000766406 0.16411824819469242
2600000000.0 -0.5247763362034447 0.23106957299598982
2620000000.0 0.43698821805817734 -0.40938787071768495
2640000000.0 -0.09546373267682079 0.6103558272213894
2660000000.0 -0.4368389125994948 -0.4613803553399873
2680000000.0 0.6058494649289561 -0.23283700320172926
2700000000.0 0.4509335470423329 0.4834930644881468
2720000000.0 0.13425699486904366 0.6562888186999525
2740000000.0 0.033645630820537405 0.6759106945730574
2760000000.0 0.04927753692984853 0.6804049560810426
2780000000.0 -0.6797887141017906 -0.0444201324882062
2800000000.0 -0.6728684418071395 -0.06695714257624932
2820000000.0 -0.528506452238505 -0.40648418784684054
2840000000.0 0.18327449255533748 -0.6299141985642984
2860000000.0 0.3286530600231187 0.5521910604332915
2880000000.0 -0.4657626612112744 -0.4212793237947627
2900000000.0 0.14681849236680655 0.5916160376845021
2920000000.0 0.45073434749922725 -0.37557932218185885
2940000000.0 -0.4036257423724557 -0.39381470465187424
2960000000.0 -0.4055440453337018 0.3550170498209714
2980000000.0 0.15913126514815876 0.4909034177149976
3000000000.0 0.4201290580020585 -0.2564901559474466
3020000000.0 -0.4175190484316626 -0.2079091952307427
3040000000.0 0.15286104374035636 0.40900520007509217
3060000000.0 -0.09457385088053377 -0.40047118681188903
3080000000.0 -0.05202391359972565 0.3869563291000116
3100000000.0 0.06672619316171866 -0.3635972032512453
3120000000.0 -0.13150201005769824 -0.33064159771566387
3140000000.0 0.2687467658071133 0.22510603555795722
3160000000.0 -0.1274553599849767 -0.31816100413150744
3180000000.0 0.07715053664700997 0.33247068195038576
3200000000.0 0.001312233366991342 -0.3347727599796615
3220000000.0 -0.2914633752849036 0.1391634598440843
3240000000.0 -0.013733183937523812 0.3040528209076311
3260000000.0 -0.17596178313139682 0.2255511482212435
3280000000.0 -0.16202229538342824 -0.21732023508986434
3300000000.0 0.2501237516509021 0.045029556667455554
3320000000.0 0.1231866798783571 0.20295822430996857
3340000000.0 -0.1384801322175441 0.16372062784082114
3360000000.0 0.050126067636385684 -0.18054486926925298
3380000000.0 -0.15810145560390437 0.02701179960348841
3400000000.0 -0.09062277913342999 0.11130708303976021
3420000000.0 0.11010690343679679 0.06825238657084387
3440000000.0 -0.011501960714981692 -0.1200827055662098
3460000000.0 -0.01221584771639505 -0.11389181609510461
3480000000.0 0.03772369950952914 -0.09440691261444183
3500000000.0 -0.003031538643254695 -0.09051127036973333
3520000000.0 0.07605292266122038 -0.025466879403217273
3540000000.0 -0.07815059312007441 -0.018143410223254105
3560000000.0 0.05244874882473104 0.061383738038442756
3580000000.0 0.08399817637717766 -0.02012528095514381
3600000000.0 0.07572030124898914 -0.0624984597485127
3620000000.0 -0.010667819564920565 0.10586359428244652
3640000000.0 -0.03180027159076073 0.10717695632958649
3660000000.0 0.11485639087812763 0.002088686498464164
3680000000.0 0.015814494366377364 -0.10854602549930213
3700000000.0 -0.06352629405038927 -0.07903963985743036
3720000000.0 -0.03923950640779989 0.08581226483261721
3740000000.0 -0.08454862899451689 -0.0005059706214340566
3760000000.0 0.03681425284481885 0.06688920167917257
3780000000.0 0.043968719298650406 0.04963174685018875
3800000000.0 0.04196732915263947 -0.022269459018201133
3820000000.0 0.03223503533775076 -0.02350994602406538
3840000000.0 0.028432661918820518 -0.038627629223885795
3860000000.0 0.07228569113769896 -0.0096653296563913
3880000000.0 -0.06729167431510714 -0.057973136285868594
3900000000.0 -0.0975710528844002 -0.024888376299285326
3920000000.0 -0.0003804510656739381 0.10304543029194488
3940000000.0 0.05393703864543555 -0.08690774213928676
3960000000.0 -0.02184971885241881 -0.09804118498453328
3980000000.0 0.002338983150720705 0.09419673397965432
4000000000.0 0.04623222892448751 -0.07118922960542251
