!Created with skrf (http://scikit-rf.org).
# Hz S RI R 50.0 
!freq ReS11 ImS11
400000000.0 0.6542618316891678 -0.638796256449928
420000000.0 0.8599587512872033 -0.1372554141296378
440000000.0 0.48738260590952487 0.6731636243965903
460000000.0 -0.46162911030691683 -0.6465413084167102
480000000.0 -0.00026666420115181174 -0.77852004540865
500000000.0 -0.615255274474826 0.47204429022633565
520000000.0 0.6823566876190607 0.23289705236221994
540000000.0 -0.12287798770848396 -0.6791148645728312
560000000.0 -0.33093187100133864 0.5593776633917182
580000000.0 -0.4899496676872734 0.267512847783717
600000000.0 -0.32272953773034835 0.4790109332531322
620000000.0 -0.004983423736255619 0.5621546675882005
640000000.0 0.029114791189452576 -0.5430224476675837
660000000.0 -0.3793891612474821 -0.3597157420872751
680000000.0 -0.4581364579250103 0.16469183112512487
700000000.0 0.31715795531775065 -0.352513849566266
720000000.0 0.26740441756377115 0.3958982453011764
740000000.0 -0.44841868981832766 -0.11330119332295391
760000000.0 -0.4519004833470896 0.00663154660160043
780000000.0 -0.3909404849084571 -0.18928478756140502
800000000.0 -0.39028689385260856 -0.008892063394421234
820000000.0 -0.23462819105477842 0.2432071351341318
840000000.0 0.014285469705622375 -0.31695111474116894
860000000.0 0.18652000513374722 -0.20710289838892507
880000000.0 -0.25378665474485457 0.04302070959996467
900000000.0 0.15004567539980362 -0.1938542619372449
920000000.0 0.11295386554424874 0.1937067997918967
940000000.0 0.1422444662229973 -0.13963183738243823
960000000.0 0.09153165384715986 -0.1164021032796253
980000000.0 -0.10468626665373285 -0.027163912896380437
1000000000.0 -0.06146985154409638 -0.04805583554740581
1020000000.0 -0.07752279645051605 0.00025524606541319194
1040000000.0 0.06392776123300459 -0.07473838891273457
1060000000.0 -0.08092192182790464 -0.10796249793106281
1080000000.0 -0.18038342924090106 -0.037280335061114625
1100000000.0 -0.0369084788152598 0.21847670685622672
1120000000.0 0.20853483634110723 -0.1680742083970131
1140000000.0 -0.25598358050582665 -0.12151355590687296
1160000000.0 0.2871268328546946 0.0936921496333324
1180000000.0 0.245298817259246 0.22066568185811017
1200000000.0 -0.16263880641429113 0.3107477807330679
1220000000.0 -0.33575626535046843 0.11351361071851895
1240000000.0 -0.27786722064550595 -0.2259291765626017
1260000000.0 -0.2873304720765874 -0.2090088740554005
1280000000.0 0.3648723407341154 0.017852567841378054
1300000000.0 -0.024559882214968735 -0.38117147277501084
1320000000.0 0.3496618997556306 -0.12161962244444696
1340000000.0 -0.3759900053283553 0.04798541467719179
1360000000.0 0.00023453719256886612 -0.3816949567588168
1380000000.0 -0.19509123304961137 0.3303323378224485
1400000000.0 0.20630244380245966 -0.33288445865006067
1420000000.0 -0.38344224265708515 -0.029824766111888747
1440000000.0 -0.06867117085821925 -0.36903182923433403
1460000000.0 -0.1389450242624345 -0.3502885191089197
1480000000.0 -0.3769818176826954 -0.010776873776471367
1500000000.0 -0.37031049036325236 0.07341481671701275
1520000000.0 0.3174771217119341 -0.2014017182674121
1540000000.0 -0.13190772632371367 0.33638200216111835
1560000000.0 -0.3346592757889991 -0.01589508272052414
1580000000.0 -0.17784518852918213 0.23840926601157944
1600000000.0 -0.25009928859988373 0.053840863662124434
1620000000.0 -0.19809395920234898 -0.07699462603419921
1640000000.0 0.12272945511644545 0.13257383513523285
1660000000.0 0.03847205490302028 0.14497395754051184
1680000000.0 0.1040862066934524 0.052798479587375095
1700000000.0 -0.09420425859032773 -0.008698515212242491
1720000000.0 0.0731439667054367 -0.04031450556561196
1740000000.0 0.04955157775668872 0.044585287343358565
1760000000.0 -0.009937784794402394 0.09206211846460283
1780000000.0 -0.007845185336194343 0.10125306402251778
1800000000.0 0.12391095590264968 -0.019706787069034618
1820000000.0 0.1491783264995729 0.051363646730575314
1840000000.0 0.18538706674914165 0.016321252442193197
1860000000.0 0.13393697820241868 -0.16370601356625492
1880000000.0 -0.19944266275638306 -0.14654995149726494
1900000000.0 -0.2645093179212612 -0.03739748690850998
1920000000.0 0.23995293446921398 0.1678899492889823
1940000000.0 -0.1574758954858447 -0.25870877688190724
1960000000.0 0.2956374518393725 0.09974789230897206
1980000000.0 -0.3059341811328586 0.07923175344898448
2000000000.0 -0.07285327033184534 -0.31538298269970916
2020000000.0 -0.09145098626247102 -0.30706536873274015
2040000000.0 0.2846446351620811 -0.14640809497928026
2060000000.0 0.29016201354886223 0.1415093496897265
2080000000.0 0.3124283734728227 0.06825359622416782
2100000000.0 -0.04885963708705523 -0.3104371833740912
2120000000.0 -0.21684486018311455 0.22537686631090595
2140000000.0 0.12864863451723899 -0.2839215632387575
2160000000.0 -0.3098249330267761 0.01389237279943787
2180000000.0 -0.014818665096785014 0.30609459955367396
2200000000.0 0.1895569050499259 0.22797930962653362
2220000000.0 0.005623131814802557 0.28469544457985085
2240000000.0 -0.19940807804507582 -0.1925418824856032
2260000000.0 0.06407899920525051 0.2672580665596321
2280000000.0 0.04930791798465036 0.2695129451473934
2300000000.0 -0.2597921823033025 -0.08599982964928214
2320000000.0 -0.27238902850995034 0.007152390482535811
2340000000.0 -0.22275386309665768 -0.13293072816770138
2360000000.0 0.16759483402655692 -0.19225418680122205
2380000000.0 0.10141859302550742 0.23812704982805083
2400000000.0 0.12416059727896797 0.23482897569734087
2420000000.0 -0.19126126222462886 0.2154058772125195
2440000000.0 0.3111331993278858 0.0021698498791309496
2460000000.0 -0.1852073873150495 -0.2868792361679971
2480000000.0 -0.1672767319078967 0.33038788720596624
2500000000.0 0.22653244513223242 -0.3341370301207604
2520000000.0 -0.05770157752232897 0.4424649421900423
2540000000.0 -0.2574253781314687 -0.40494277393269046
2560000000.0 0.48401976954666204 0.17935422960706143
2580000000.0 -0.5464444950566041 0.040477418621776104
2600000000.0 0.5005540826678574 -0.284787823196113
2620000000.0 -0.4156225507506488 0.42778515200631795
2640000000.0 0.32477547811877494 -0.527424888537487
2660000000.0 0.25352295943918834 0.5830905143707592
2680000000.0 -0.6370276750655784 0.1075304174888856
2700000000.0 -0.18614643340623757 -0.6294921029774553
2720000000.0 0.24760653291836662 -0.6163070928419087
2740000000.0 0.3318105205105038 -0.5792591867058816
2760000000.0 0.4635272812671813 -0.4818371673999082
2780000000.0 0.3882337897688887 0.5411822444664767
2800000000.0 0.226749436742707 0.6174987631566458
2820000000.0 -0.2254551983378005 0.6063881783049441
2840000000.0 -0.6181854899501957 -0.12898803251484153
2860000000.0 0.5842401205370958 -0.20000522979304136
2880000000.0 -0.5090243810636421 0.31521548829413215
2900000000.0 0.4723761110586115 0.3280568940112893
2920000000.0 0.3387947079594637 -0.4396088920947793
2940000000.0 -0.22464689260115206 -0.47656094887904404
2960000000.0 -0.2261138146013818 -0.4460353912085951
2980000000.0 -0.3477947559972665 -0.32553287667503655
3000000000.0 -0.3775755264161363 -0.2567459489478905
3020000000.0 -0.43093848154852843 -0.03916861968655212
3040000000.0 -0.24764529733446353 0.34102980944304384
3060000000.0 0.38964420462085964 -0.09612738414942652
3080000000.0 -0.1819754208803636 -0.34265339685187346
3100000000.0 0.018167344732525126 0.3761134297417794
3120000000.0 0.33042396987976974 -0.1742763684513213
3140000000.0 -0.15757254781052604 0.3281758834868081
3160000000.0 0.16515207927828468 -0.3252696964305663
3180000000.0 0.1700908216932623 0.3198503499494199
3200000000.0 0.013585097241596395 -0.3550081717170863
3220000000.0 -0.2262434003459972 0.26311414703345587
3240000000.0 -0.17919960833802198 0.28802854281866996
3260000000.0 0.3096497374035439 0.09345033099138103
3280000000.0 -0.03217413014649599 0.30312446705598634
3300000000.0 0.14771233232799616 0.2499862053693709
3320000000.0 -0.0836524426632579 0.24975313924877326
3340000000.0 -0.017438188625581684 -0.2341885189270696
3360000000.0 0.02857861860720188 0.20966232420147154
3380000000.0 -0.1808202509629664 -0.0650289556265417
3400000000.0 0.1306247370512989 0.10806999093686324
3420000000.0 0.025235172400951633 0.15335642675029829
3440000000.0 0.12020365260897678 0.06525734794509629
3460000000.0 -0.08894408328607263 0.06598654589007046
3480000000.0 0.0982091392128516 0.037561893939442786
3500000000.0 -0.1033979412468458 -0.011108087838375897
3520000000.0 0.0891360020444271 0.01771512962926711
3540000000.0 0.09070003530960383 -0.04130092410607358
3560000000.0 -0.10318451826258938 -0.014811337731952267
3580000000.0 0.10582295838579768 -0.018475727695618768
3600000000.0 0.10881374111639198 0.018242720001316957
3620000000.0 -0.02390924734545813 0.12324794199726928
3640000000.0 0.07026286789383611 0.10996967974971132
3660000000.0 -0.06715931086797729 0.12522608323540727
3680000000.0 0.13191456743657765 0.0610806257203626
3700000000.0 -0.05429190288756777 0.12131973596474334
3720000000.0 0.08327515031254341 -0.08523845894770961
3740000000.0 -0.08615128926670287 -0.05362216899862524
3760000000.0 -0.08049174262639783 0.010307032696800545
3780000000.0 0.004223128043974858 -0.06298067640330887
3800000000.0 -0.03252765053786927 -0.016475697431216376
3820000000.0 0.005028088328951524 0.000440379905125308
3840000000.0 0.008700265810967635 -0.037855458166574645
3860000000.0 -0.06386117733336319 0.0331811088652282
3880000000.0 -0.024751063623236542 -0.08956689618363796
3900000000.0 0.042551729245681076 -0.10302139901520148
3920000000.0 0.000416732298582277 -0.12491869857769437
3940000000.0 -0.06535248704539705 -0.11579507590772015
3960000000.0 -0.07955262998282803 -0.10827071462372474
3980000000.0 -0.06641221824412373 0.11286254578114367
4000000000.0 -0.02839943453977183 0.10299762911625583
