!Created with skrf (http://scikit-rf.org).
# Hz S RI R 50.0 
!freq ReS11 ImS11
400000000.0 0.6912348036913306 -0.5993288661253009
420000000.0 0.8595876714762458 -0.13810435126526124
440000000.0 0.4795897174980559 0.6787733057905764
460000000.0 -0.46446487925089086 -0.6441262339142939
480000000.0 0.017476858052100565 -0.7781195917849579
500000000.0 -0.6251876397998213 0.45854531972419205
520000000.0 0.6647556026976031 0.2782140074214493
540000000.0 -0.1383818340975763 -0.6756617915748451
560000000.0 -0.3245203734639313 0.5630428675207277
580000000.0 -0.4980444570003412 0.2513795268095119
600000000.0 -0.3171837595914026 0.48276144711590857
620000000.0 0.02306392743019175 0.5619463789444347
640000000.0 0.030114488913775463 -0.5429085293597639
660000000.0 -0.39038342890363537 -0.3481997220411882
680000000.0 -0.4595674159561575 0.1588410015160878
700000000.0 0.3566321030070744 -0.3124282044865698
720000000.0 0.305953385084805 0.3674352999904253
740000000.0 -0.4524464733244947 -0.095297393923492
760000000.0 -0.4414636473082022 -0.10058549340466742
780000000.0 -0.3916738939372053 -0.18784070363549243
800000000.0 -0.38803104994788556 -0.04064903006788201
820000000.0 -0.25232798611643564 0.22506833190913667
840000000.0 0.005917963676234094 -0.3171369420739198
860000000.0 0.19419727030230885 -0.20052954995885294
880000000.0 -0.25429762136665696 0.029470947504181385
900000000.0 0.17684459790985735 -0.16892369348983335
920000000.0 0.1253994306170807 0.1873500309170821
940000000.0 0.14796760598043276 -0.1337381029769424
960000000.0 0.05196386628236759 -0.13878412807328866
980000000.0 -0.05392997496652231 -0.09224612266791835
1000000000.0 0.01920806494732365 -0.07613267685580963
1020000000.0 -0.05965037243204848 0.05215237256193993
1040000000.0 0.03927615150366587 -0.08882483017329595
1060000000.0 -0.09575970403827004 0.09470983489775354
1080000000.0 -0.17659228353471024 0.051643786794956625
1100000000.0 -0.08865795401841792 0.20366456141537667
1120000000.0 0.23524225554717254 -0.1279383580647389
1140000000.0 -0.25422689983121877 -0.12418543787106925
1160000000.0 0.28804891144891515 0.09118568822089358
1180000000.0 0.26843236276192284 0.19163025764639274
1200000000.0 -0.187426854435628 0.2959595982968676
1220000000.0 -0.3305455720008668 0.1301869439141678
1240000000.0 -0.29323687664123715 -0.2046038470378085
1260000000.0 -0.27734249234577585 -0.22181851296067556
1280000000.0 0.363842880294212 0.026847348526454855
1300000000.0 0.004501733702570511 -0.38261856095167257
1320000000.0 0.3497951473739611 -0.12230296734678393
1340000000.0 -0.3734819054432343 0.058569373254745934
1360000000.0 -0.021540943792383537 -0.3812656351584446
1380000000.0 -0.23002822839668083 0.30746781893488395
1400000000.0 0.19136794444836844 -0.34206405204553286
1420000000.0 -0.38347554484330526 -0.027795239955033624
1440000000.0 -0.06545740095890017 -0.36940421113592514
1460000000.0 -0.10408992209734816 -0.36238613371081374
1480000000.0 -0.37601068856650327 -0.018223693887424293
1500000000.0 -0.3644761295905463 0.10008440947657324
1520000000.0 0.3132212751602893 -0.20612667090691847
1540000000.0 -0.1559044334238458 0.3264864411239361
1560000000.0 -0.3355676888128853 0.004382204582560543
1580000000.0 -0.15839801521316166 0.2515281535561338
1600000000.0 -0.24120945587986367 0.0843632281212778
1620000000.0 -0.1811760057111982 -0.11181832727660944
1640000000.0 0.11376746351418085 0.1407581019221578
1660000000.0 0.029518743733472554 0.1475625066477782
1680000000.0 0.11735958628187941 0.009788754934805582
1700000000.0 -0.08981522472488522 -0.03168381284998553
1720000000.0 0.072314108126743 0.04275054618050147
1740000000.0 0.06194611247972903 0.025063959142001352
1760000000.0 0.003979417319065284 0.09154859472903376
1780000000.0 -0.0464104813404723 0.09056391848164799
1800000000.0 0.12304429223146697 -0.029520404489537574
1820000000.0 0.156809355922089 0.018012308656349393
1840000000.0 0.18542978258084325 0.01571700882616793
1860000000.0 0.15162459200933173 -0.14810548722548442
1880000000.0 -0.19078733148504431 -0.15843128785862456
1900000000.0 -0.2666832405750607 -0.01461536161484273
1920000000.0 0.26656004663156363 0.12196640244736395
1940000000.0 -0.14211849875928054 -0.26640838762339925
1960000000.0 0.28048931478279016 0.13710571444822553
1980000000.0 -0.2978295969157551 0.1094103016390839
2000000000.0 -0.11593569792669717 -0.3015401255267533
2020000000.0 -0.10967892075826963 -0.30067218154206554
2040000000.0 0.314222552495386 -0.06277542948407258
2060000000.0 0.270004317161575 0.17822709180721844
2080000000.0 0.3192967614312858 0.025649976288551854
2100000000.0 -0.10566667739811066 -0.2955972991276772
2120000000.0 -0.20012406382077047 0.2397902884105131
2140000000.0 0.1790197883697607 -0.25510277975716145
2160000000.0 -0.3105215193941283 0.012854102538424573
2180000000.0 -0.004703739269423272 0.3069258260789689
2200000000.0 0.2278942730464834 0.1890779189898268
2220000000.0 -0.02363681768734908 0.2832685093793837
2240000000.0 -0.16394138586226847 -0.2241683564243491
2260000000.0 0.1111348619429114 0.25192411062219605
2280000000.0 0.029949663045226 0.27161500125741594
2300000000.0 -0.256346653487963 -0.09543728110313728
2320000000.0 -0.2720526129360831 -0.013098831110133036
2340000000.0 -0.2310125809073249 -0.11993819677116635
2360000000.0 0.11164807365132844 -0.22889551628471144
2380000000.0 0.1354849218060972 0.22083835166654509
2400000000.0 0.08280341443843273 0.2526777542818535
2420000000.0 -0.2572921173051672 0.12990414750018064
2440000000.0 0.30434186996025586 -0.06960151487244176
2460000000.0 -0.18288834307124213 -0.2879254815835959
2480000000.0 -0.19389915735271937 0.315326977137754
2500000000.0 0.2337367999989576 -0.3293387312263761
2520000000.0 -0.04817442431201239 0.4439878831432369
2540000000.0 -0.2703882878000118 -0.3964237965780431
2560000000.0 0.4801289681062768 0.189273016355543
2580000000.0 -0.546473016817357 0.03638953429450404
2600000000.0 0.4927022279332747 -0.2982804311183793
2620000000.0 -0.43002341575232744 0.4134795735180729
2640000000.0 0.2756053199420012 -0.5543628381041705
2660000000.0 0.24558263935766247 0.5869606044948887
2680000000.0 -0.6377052132447766 0.10317706370101172
2700000000.0 -0.22528347171899094 -0.6166698353681954
2720000000.0 0.29334878560789046 -0.596078109847277
2740000000.0 0.3454219841464308 -0.5716170740806586
2760000000.0 0.4832906714040419 -0.4624894086301084
2780000000.0 0.31516288703677214 0.5861886195537562
2800000000.0 0.23663255918997847 0.613757093641189
2820000000.0 -0.2148233071829375 0.610134744613978
2840000000.0 -0.6200440025280243 -0.12204224844295683
2860000000.0 0.5700344016880149 -0.23788337009702643
2880000000.0 -0.49916585252762247 0.3301883182861138
2900000000.0 0.46879073518184944 0.3329662263788989
2920000000.0 0.3430188450245887 -0.43569943889082857
2940000000.0 -0.20973489952676427 -0.48415801248213625
2960000000.0 -0.23938325439730898 -0.43935332355329965
2980000000.0 -0.3488877320173833 -0.32351416973979863
3000000000.0 -0.3591339550094406 -0.28259291055387475
3020000000.0 -0.4310935380644522 -0.034730349755366055
3040000000.0 -0.22286703752318235 0.35745375916179584
3060000000.0 0.3844547765195573 -0.11441647467814546
3080000000.0 -0.18347411071854855 -0.3419568207167689
3100000000.0 -0.08711316831037387 0.3665436893127564
3120000000.0 0.2906083736447404 -0.23539087876535406
3140000000.0 -0.11995149115001491 0.3429395304484506
3160000000.0 0.16122381875342137 -0.3278976682876539
3180000000.0 0.1762504356712176 0.3161502070910595
3200000000.0 0.01115781577542763 -0.35457428274905206
3220000000.0 -0.2241558807321406 0.2660355397284103
3240000000.0 -0.15264146894746078 0.30237294365543627
3260000000.0 0.31787463524632104 0.059671756234797174
3280000000.0 -0.04871273138173249 0.30255978979133685
3300000000.0 0.17166117726864577 0.23297322104466334
3320000000.0 -0.06252632549750688 0.2554786550498699
3340000000.0 0.01558893946546419 -0.23440504262649534
3360000000.0 -0.04493127152681756 0.20798288492509773
3380000000.0 -0.1884464704335345 -0.036732841399944365
3400000000.0 0.14265130639902399 0.09072973831856249
3420000000.0 -0.03760698556371367 0.15056280895754573
3440000000.0 0.09373210295855708 0.10059128338667336
3460000000.0 -0.03755453092986311 0.10436396064318686
3480000000.0 0.08927497847806194 0.05297993337521312
3500000000.0 -0.10283421102521294 -0.014405649753944467
3520000000.0 0.05713331450061192 0.0720378815997388
3540000000.0 0.04343619859496837 -0.09059448274585254
3560000000.0 -0.09108515847548486 0.04896177483225681
3580000000.0 0.10675660767109554 0.004114217612756159
3600000000.0 0.11004170488641613 -0.006104337931485817
3620000000.0 -0.0180674450664235 0.12469226282430199
3640000000.0 0.11464193496956601 0.06401190902424306
3660000000.0 -0.0622298141192525 0.12610079229125337
3680000000.0 0.0830845624870207 0.11964029972624131
3700000000.0 -0.06360607496753515 0.11774677507775835
3720000000.0 0.031231479419223777 -0.11564627218607598
3740000000.0 -0.08333058367855473 -0.056645827972661954
3760000000.0 -0.0809106279957328 -0.010985527076697862
3780000000.0 -0.004593790375650283 -0.06400525069929344
3800000000.0 -0.033912323375669545 0.012818298197849042
3820000000.0 0.005901228035688301 0.0010711468386493408
3840000000.0 -0.003629555786740785 -0.03854699406779623
3860000000.0 -0.04117583528778345 0.059273079663027375
3880000000.0 -0.026522563770418756 -0.0895765137177486
3900000000.0 0.024574384999358483 -0.10919215454689025
3920000000.0 0.017467010167811853 -0.12388389164423208
3940000000.0 -0.022599028109837896 -0.1317068899992331
3960000000.0 -0.09913818146425835 -0.09016407818481395
3980000000.0 -0.07347651551856478 0.1076742724730579
4000000000.0 -0.07527984259245676 0.07502475622155788
