!Created with skrf (http://scikit-rf.org).
# Hz S RI R 50.0 
!freq ReS11 ImS11
400000000.0 0.6775165654417631 -0.6142862176639892
420000000.0 0.8575518486973109 -0.15081055788677852
440000000.0 0.4579891980158032 0.6936368460862921
460000000.0 -0.42403239945626986 -0.6716249463224307
480000000.0 0.020743233593318516 -0.7785696831829126
500000000.0 -0.617823948534937 0.4683863226910617
520000000.0 0.6797338870034243 0.23967492663701812
540000000.0 -0.12911084318532723 -0.6776523995725782
560000000.0 -0.36443419499762936 0.5390558010146677
580000000.0 -0.48588110163818765 0.2749594684816764
600000000.0 -0.3345527878357661 0.47023083677246313
620000000.0 0.05661420450069271 0.5589973876970861
640000000.0 -0.041840359990605556 -0.5433688926835194
660000000.0 -0.35827802303290773 -0.37989847316018693
680000000.0 -0.4615321814887326 0.15404569892237144
700000000.0 0.3100792097997898 -0.35770812016765047
720000000.0 0.3117221458359923 0.36109276000463786
740000000.0 -0.450970142410743 -0.10391845571437196
760000000.0 -0.45252825659868906 -0.006867042110554872
780000000.0 -0.3829531471248687 -0.20539317945794808
800000000.0 -0.38830129566127186 -0.027829274588011137
820000000.0 -0.23684624260417877 0.24098512575656203
840000000.0 0.04311362237134284 -0.3151863057206323
860000000.0 0.2001395289833035 -0.19471072771606487
880000000.0 -0.24939541462200182 0.058789238002624936
900000000.0 0.16506686402974993 -0.17988396343087654
920000000.0 0.07403132431842843 0.2114002437757784
940000000.0 0.11192997583589721 -0.16469214994941953
960000000.0 0.08599688843537791 -0.12087818377405744
980000000.0 -0.10580859711127612 -0.019333043973047963
1000000000.0 -0.013118185790706055 -0.07669227576143021
1020000000.0 -0.07159383202149276 0.02965076848544651
1040000000.0 0.0719382018526776 -0.06541627168293979
1060000000.0 -0.08668613506741356 0.10428849103780168
1080000000.0 -0.18267572290733447 -0.027912573021254435
1100000000.0 -0.004618840359353275 0.22071028214764749
1120000000.0 0.2122558661674711 -0.16312805865310603
1140000000.0 -0.2451596193358471 -0.14317002627250647
1160000000.0 0.29626918513255157 0.0581040733770231
1180000000.0 0.26631135029172137 0.19486669747543198
1200000000.0 -0.15824367701849357 0.3133008550143642
1220000000.0 -0.33370449416492054 0.11908117572678598
1240000000.0 -0.2677511718074545 -0.23821205979170712
1260000000.0 -0.2921728728399557 -0.20257331374833978
1280000000.0 0.36446334632718247 0.020653943434560538
1300000000.0 -0.06076166479416458 -0.37661995857090586
1320000000.0 0.3619520620796403 -0.08091487600250677
1340000000.0 -0.3695276381017227 0.08214086611056798
1360000000.0 -0.010836047020317558 -0.3808449167598201
1380000000.0 -0.18438302681566832 0.33673437012053964
1400000000.0 0.2416908721611971 -0.30801173015990074
1420000000.0 -0.3695961270345506 -0.1076249501213147
1440000000.0 -0.10480610314767926 -0.36029171137838506
1460000000.0 -0.11885517639337435 -0.3569783908955841
1480000000.0 -0.37697856921975975 0.0068499357759157055
1500000000.0 -0.3693383873601134 0.07853238797392631
1520000000.0 0.31823671528347613 -0.19928106063205228
1540000000.0 -0.13221974558620078 0.33682628643001067
1560000000.0 -0.3350443492865497 -0.006708223410143475
1580000000.0 -0.19637455872839849 0.22305384802116587
1600000000.0 -0.24144212470835152 0.08261746339800458
1620000000.0 -0.1896129730538829 -0.09631589259342886
1640000000.0 0.13892316365181742 0.11562537316220056
1660000000.0 0.037190195254310346 0.14534637400917005
1680000000.0 0.10591622948037464 0.04917247909736924
1700000000.0 -0.0927717704326023 -0.019793822804914353
1720000000.0 0.07762717713615667 -0.031000849888690715
1740000000.0 0.006739474886006806 0.06590813399263826
1760000000.0 0.0012003945087510452 0.09269843959611454
1780000000.0 0.018825216929502453 0.0995059077858895
1800000000.0 0.12502284890020612 0.0026265376258650256
1820000000.0 0.1448992979284989 0.06305243895512389
1840000000.0 0.18560455120992322 -0.007836258016162214
1860000000.0 0.1331672708399507 -0.1644403307271155
1880000000.0 -0.20159150835810902 -0.1444816731632211
1900000000.0 -0.2608152427208613 -0.05726328649081655
1920000000.0 0.2551538587117195 0.14418800616547656
1940000000.0 -0.14542811611432813 -0.26602154357335933
1960000000.0 0.2964611041491575 0.09666501528506108
1980000000.0 -0.3067761751980578 0.07337119809742665
2000000000.0 -0.10271201706194373 -0.3068545360256056
2020000000.0 -0.11689699141773591 -0.29860692549371903
2040000000.0 0.29205068495658476 -0.1312687589217465
2060000000.0 0.28857461337764406 0.14518699135908286
2080000000.0 0.30581538050681506 0.09384869930103729
2100000000.0 -0.05677293360179245 -0.3089435057654543
2120000000.0 -0.2322762978344592 0.2098541006636286
2140000000.0 0.14482328552222995 -0.27605799027527184
2160000000.0 -0.31003201477513714 -0.010185990042506513
2180000000.0 -0.036275981843223865 0.30441688836539926
2200000000.0 0.195755516933747 0.22277090187909676
2220000000.0 0.030974839498339166 0.28343775861650117
2240000000.0 -0.19075369845133772 -0.20042817862191567
2260000000.0 0.07719899629089312 0.2635556481066732
2280000000.0 0.0302838575827075 0.27252715711149034
2300000000.0 -0.2623304786922133 -0.0781150421075173
2320000000.0 -0.2709699659660454 0.027277161240207296
2340000000.0 -0.22285980152316645 -0.13234751450635368
2360000000.0 0.1710421659475599 -0.18979634923437144
2380000000.0 0.13877716676635118 0.21818823657166708
2400000000.0 0.0893784734521565 0.2504088261804912
2420000000.0 -0.2078652889626811 0.1989406493788568
2440000000.0 0.3115173672658461 0.005881399623348279
2460000000.0 -0.18866560213012099 -0.2844758533681751
2480000000.0 -0.2038224064664614 0.309119721766868
2500000000.0 0.20271206806903905 -0.3493439532848598
2520000000.0 -0.04319704187841727 0.4438229094136215
2540000000.0 -0.23087981090491108 -0.42059152194644633
2560000000.0 0.4865700716158616 0.1723259941569375
2580000000.0 -0.5469080249334649 0.0301073309532638
2600000000.0 0.47962047484773224 -0.31860946811723423
2620000000.0 -0.466075585074181 0.373274201113676
2640000000.0 0.3171300194635371 -0.532091397926062
2660000000.0 0.2517184094231556 0.5837976026757762
2680000000.0 -0.6462634048989289 0.014654059775943957
2700000000.0 -0.15882401608672606 -0.6369954872599666
2720000000.0 0.26816666201676287 -0.6078643007931501
2740000000.0 0.3562738300384651 -0.5643177015194585
2760000000.0 0.45119316658594716 -0.4935147132919294
2780000000.0 0.36886560316084427 0.554785762911311
2800000000.0 0.2417205687884465 0.6119548717802304
2820000000.0 -0.2008878316073344 0.6150372759922772
2840000000.0 -0.623337536004284 -0.10358281707883679
2860000000.0 0.5776540686888326 -0.21873327797855843
2880000000.0 -0.5170335158174095 0.3018554703847379
2900000000.0 0.4579619222171774 0.3484922891765618
2920000000.0 0.35427622734705355 -0.4271114656322665
2940000000.0 -0.17935364710680457 -0.49579867408001255
2960000000.0 -0.1864601162234986 -0.46431024448194713
2980000000.0 -0.35739582239629925 -0.315045174047724
3000000000.0 -0.3520614005002375 -0.2914034557586862
3020000000.0 -0.42738193000194025 -0.06257630507010721
3040000000.0 -0.2522847047321668 0.33732596243628316
3060000000.0 0.38860747943471174 -0.09791898972039242
3080000000.0 -0.17436767539266237 -0.346646758067768
3100000000.0 0.011359096564124257 0.376919546376057
3120000000.0 0.2566869707155257 -0.2725378557633963
3140000000.0 -0.17273291783113853 0.3199721013441999
3160000000.0 0.1561339701425547 -0.3301639251417442
3180000000.0 0.13001450832032918 0.33718452657544745
3200000000.0 0.01524652578704187 -0.3544720051939547
3220000000.0 -0.23152796210396875 0.2584018111027653
3240000000.0 -0.13239965920944252 0.31100188703514864
3260000000.0 0.31158567880335053 0.08545433093726976
3280000000.0 -0.028029900776505984 0.3034034384083276
3300000000.0 0.15979712731052004 0.24273421796293806
3320000000.0 -0.07410801553215152 0.2525029119218924
3340000000.0 -0.018284576314732032 -0.23416987139432235
3360000000.0 -0.01492441159064413 0.21166975552619294
3380000000.0 -0.18301065879092154 -0.05923596035988531
3400000000.0 0.1294576546374994 0.10961433182744242
3420000000.0 0.02840032824026552 0.1525184867362416
3440000000.0 0.07394460592572061 0.11505006935634786
3460000000.0 -0.08676198647965339 0.06818459427615832
3480000000.0 0.09694886520900046 0.03980641435326515
3500000000.0 -0.10380288537817349 -0.006881991606078698
3520000000.0 0.08234047630024088 0.038233657750951194
3540000000.0 0.08463814521603702 -0.05289806239900541
3560000000.0 -0.09851142745215538 0.03176201497149434
3580000000.0 0.10692823888485077 0.009424179472812513
3600000000.0 0.1093739901698057 -0.020259935976873998
3620000000.0 -0.02065752430013512 0.12400628219934645
3640000000.0 0.07280372647858831 0.10807427860269926
3660000000.0 -0.08297881105649084 0.11596389782269212
3680000000.0 0.1334560778462961 0.058184332843574965
3700000000.0 -0.06547429185674251 0.11552422168829526
3720000000.0 0.07252921453636213 -0.09486524483131238
3740000000.0 -0.08463716538177271 -0.05643349700803773
3760000000.0 -0.07987168919739455 0.01260243206572878
3780000000.0 -0.010397548184720891 -0.06237311432537541
3800000000.0 -0.036380671298613484 0.003588792040499775
3820000000.0 0.004258247169213906 0.0036815678208617646
3840000000.0 -0.02288206617345994 -0.030912192721134386
3860000000.0 -0.06382002111925542 0.032549723617688736
3880000000.0 0.0102184993997289 -0.09381458246547371
3900000000.0 0.021066511578739032 -0.10894174964263656
3920000000.0 -0.0006101317100973307 -0.1252182675768181
3940000000.0 0.025421653810120674 -0.1302028844994298
3960000000.0 -0.08679805036695738 -0.1023538455227244
3980000000.0 -0.04975382754144817 0.12001560830030629
4000000000.0 -0.0409885697279524 0.09720475443866149
