!Created with skrf (http://scikit-rf.org).
# Hz S RI R 50.0 
!freq ReS11 ImS11
400000000.0 0.7032241949431103 -0.5854350482244473
420000000.0 0.8626887277349675 -0.11776931036123396
440000000.0 0.462712402222759 0.690688069685018
460000000.0 -0.4367743306725496 -0.6638801139368276
480000000.0 -0.0049964846915107695 -0.7783550030494335
500000000.0 -0.6284217178957382 0.4542843117349295
520000000.0 0.6495844659260593 0.3106744517822379
540000000.0 -0.09840656390847849 -0.6836270949871939
560000000.0 -0.281983814280741 0.5854954577064364
580000000.0 -0.4743582307741051 0.29240320532924896
600000000.0 -0.35100253387064667 0.45823061993435227
620000000.0 0.001141532914879507 0.5631489473932311
640000000.0 0.02146209890390602 -0.5436254265911724
660000000.0 -0.3853642064972911 -0.3533815704324511
680000000.0 -0.45736011200031285 0.16453142015282993
700000000.0 0.34884118497218786 -0.3211671011950217
720000000.0 0.30962731901054136 0.3654795656939659
740000000.0 -0.4503100039705512 -0.10375663366657663
760000000.0 -0.4525650762601032 0.01544257406200428
780000000.0 -0.38203205463772855 -0.20502368948672092
800000000.0 -0.3893821309118698 -0.031628025386757984
820000000.0 -0.19495645132861691 0.2761717430907034
840000000.0 0.04108326202339016 -0.3153332025322685
860000000.0 0.20914944819497888 -0.18466746730954192
880000000.0 -0.24837870283971378 0.06210899380245492
900000000.0 0.17502636741608316 -0.17081184832753607
920000000.0 0.09574733030863126 0.2037716283835223
940000000.0 0.16346340415578803 -0.11284943665856965
960000000.0 0.04403529861541539 -0.14166065975781197
980000000.0 -0.09660092831921646 -0.04738378197135337
1000000000.0 0.000407964676365599 -0.0784472886529899
1020000000.0 -0.06206262196699434 0.04745940173567873
1040000000.0 0.05556720926600296 -0.08030353041349017
1060000000.0 -0.08257933979364655 0.10720813934679305
1080000000.0 -0.16579391017696296 -0.07932159183241726
1100000000.0 -0.022614115356128357 0.22055648046660906
1120000000.0 0.2050440871819137 -0.17116645564280783
1140000000.0 -0.2502525562081951 -0.13348103092664243
1160000000.0 0.29622840577204285 0.058490738081443894
1180000000.0 0.2730743125372261 0.18509760700634753
1200000000.0 -0.16975036522203207 0.3069174265016679
1220000000.0 -0.3287806411157107 0.13123841960063307
1240000000.0 -0.24566743576303235 -0.2604307038340087
1260000000.0 -0.29716164414849383 -0.19512227129543327
1280000000.0 0.36457894336183244 -0.004857553214725939
1300000000.0 -0.0019336528445569206 -0.3819919668115196
1320000000.0 0.35859371368453563 -0.09435009850187846
1340000000.0 -0.36848472360968537 0.08823277725313108
1360000000.0 -0.011072403935895566 -0.3812153354381212
1380000000.0 -0.23647695957508463 0.3020391494006301
1400000000.0 0.21975868872761903 -0.3244393317989574
1420000000.0 -0.36776786459232047 -0.1143781057443722
1440000000.0 -0.11037413151887608 -0.35856939007971544
1460000000.0 -0.11910764647901848 -0.3566544083219829
1480000000.0 -0.37591834005843333 -0.028049942151239533
1500000000.0 -0.36548452247204116 0.09584672494725438
1520000000.0 0.3162183338560199 -0.2016147513502387
1540000000.0 -0.11979751193047952 0.34120590639344595
1560000000.0 -0.33498852421669106 -0.003464721601072681
1580000000.0 -0.19625243684662647 0.22338152492596333
1600000000.0 -0.23365161673540374 0.1044570636448768
1620000000.0 -0.19894109622095826 -0.07596295334004771
1640000000.0 0.10133604688803338 0.14983234663812844
1660000000.0 0.02816950009034632 0.1477995283007702
1680000000.0 0.11455375309882472 0.02991316988631723
1700000000.0 -0.09369928740373426 0.017352990543946005
1720000000.0 0.08144851488749791 0.017335364013543235
1740000000.0 0.01477477020734304 0.06532438112814823
1760000000.0 0.003974661755651126 0.09246086237620141
1780000000.0 0.01209090000436429 0.10050409915786888
1800000000.0 0.12358877810892527 0.020239217585257673
1820000000.0 0.15047300537246253 0.05150025094915542
1840000000.0 0.18206003709993804 -0.03635094157248308
1860000000.0 0.13945378109574635 -0.1582319085717307
1880000000.0 -0.16267646129315783 -0.1866392369539736
1900000000.0 -0.260287699964946 -0.061081723233423375
1920000000.0 0.2731072043648572 0.1063921312071271
1940000000.0 -0.17739449722881706 -0.244639760105846
1960000000.0 0.28229088131458535 0.13152532501292954
1980000000.0 -0.3114607246169373 0.05389535299738666
2000000000.0 -0.13809688017988653 -0.2934806180162879
2020000000.0 -0.12359888903804248 -0.29592629484411526
2040000000.0 0.29578378380437353 -0.11968564592796538
2060000000.0 0.2500578692567453 0.20547669015272754
2080000000.0 0.30674149536296347 0.09475478180623197
2100000000.0 -0.07858601484103585 -0.3040721247961074
2120000000.0 -0.2073131442761083 0.2338898446837643
2140000000.0 0.17646101539174355 -0.2567174131013775
2160000000.0 -0.3099392156500285 -0.015867239633530275
2180000000.0 -0.03401839284631736 0.30513896196989204
2200000000.0 0.24504492709196377 0.1666151293489709
2220000000.0 -0.010245146612484475 0.2840873755196296
2240000000.0 -0.18218132446588467 -0.21006456113444957
2260000000.0 0.08761609570280897 0.26092266025723804
2280000000.0 0.01612307040142252 0.2732205451018591
2300000000.0 -0.2581001257703754 -0.09126219615691944
2320000000.0 -0.2722119138648267 0.010370253182200058
2340000000.0 -0.2173330221062394 -0.14226955018547185
2360000000.0 0.165874401392881 -0.19388217153246926
2380000000.0 0.12971616164291186 0.22407932726275956
2400000000.0 0.09336086699165323 0.2481018605500608
2420000000.0 -0.21463839029162105 0.1919722987357814
2440000000.0 0.3116170389349472 0.0005484551668101948
2460000000.0 -0.20125836865781593 -0.27586396068037744
2480000000.0 -0.16837449243740568 0.3298120604410141
2500000000.0 0.2028449359598659 -0.34975582789585447
2520000000.0 -0.09795484872829106 0.43454074224960004
2540000000.0 -0.22710662972511125 -0.42272106821807137
2560000000.0 0.4897859829756358 0.16349799453503627
2580000000.0 -0.5465427662154 0.03323983340444623
2600000000.0 0.4816444954560345 -0.31594070493376264
2620000000.0 -0.45355596860808395 0.3881522816389872
2640000000.0 0.2535877852231033 -0.5647999173705721
2660000000.0 0.23267280117021716 0.5919915798000325
2680000000.0 -0.6457674545984864 0.02856375786889894
2700000000.0 -0.12056151820562552 -0.645459065847555
2720000000.0 0.2851175412067042 -0.6003597854057764
2740000000.0 0.39245136365989935 -0.5399398965001618
2760000000.0 0.4660963061979739 -0.4794857632306763
2780000000.0 0.3620965885192798 0.5588846051613429
2800000000.0 0.2295407227485185 0.6167204803460952
2820000000.0 -0.21983688109983573 0.6083654769158663
2840000000.0 -0.6193376007652996 -0.12505913377431493
2860000000.0 0.5756132716105794 -0.22273415829530518
2880000000.0 -0.5154945334219528 0.3040192494936515
2900000000.0 0.4782545550029178 0.319849582656516
2920000000.0 0.35488239792435217 -0.4260402872066575
2940000000.0 -0.17795129653715527 -0.49642945944743855
2960000000.0 -0.21345756851531578 -0.4526281531390311
2980000000.0 -0.3503182714533331 -0.32361611867647855
3000000000.0 -0.35827357740113425 -0.2827104858709102
3020000000.0 -0.4292523110574316 -0.05578137425846712
3040000000.0 -0.28437696682676045 0.31128927777668186
3060000000.0 0.3971375881262273 -0.054720182930297595
3080000000.0 -0.16397721126141043 -0.35185165531753304
3100000000.0 0.014120018157391483 0.3764553806997471
3120000000.0 0.31713392249796013 -0.19904876661546664
3140000000.0 -0.13347292037141914 0.33776284158954023
3160000000.0 0.16494688269549093 -0.3255035913463376
3180000000.0 0.12662385067283938 0.3393098302288591
3200000000.0 0.004536002164558503 -0.3547014540998598
3220000000.0 -0.21656411750730556 0.27116886799285556
3240000000.0 -0.167351224803163 0.2947742326251362
3260000000.0 0.3094911697065514 0.09387317986613877
3280000000.0 -0.024273979186682147 0.30421924844849635
3300000000.0 0.21217405643160347 0.19756775300493476
3320000000.0 -0.07829119525420593 0.2513148987838845
3340000000.0 0.01579938208374855 -0.23440227672002334
3360000000.0 -0.039547978905327935 0.20937853355353397
3380000000.0 -0.18999990010376258 -0.03119462014270754
3400000000.0 0.13781966652969255 0.09850756518028458
3420000000.0 0.01683896752656352 0.15438496018544146
3440000000.0 0.06354460928155767 0.12134352299127395
3460000000.0 -0.09189520416319345 0.06278225732035012
3480000000.0 0.10459643182682717 -0.003212345436694823
3500000000.0 -0.10288426409894377 0.006550669754438378
3520000000.0 0.06378411198880819 0.06516243374311266
3540000000.0 0.08059709579906281 -0.06003951925628841
3560000000.0 -0.09570440167293295 0.041304279653425355
3580000000.0 0.10032422548259814 -0.03559787868131721
3600000000.0 0.10962526951318503 0.018958626752838756
3620000000.0 -0.03383146276583894 0.12215146948283985
3640000000.0 0.09363749108263207 0.09150195333578784
3660000000.0 -0.07928094875085415 0.1171671125666086
3680000000.0 0.13797712024308315 0.044535524856923796
3700000000.0 -0.11600933219776866 0.066077429175648
3720000000.0 0.033124974583299965 -0.11504501326610883
3740000000.0 -0.07423568017935135 -0.06924354995482387
3760000000.0 -0.0642956499331421 0.050163730745952956
3780000000.0 0.044893932197669385 -0.04421258054515262
3800000000.0 -0.01368054107830115 -0.0346280496746194
3820000000.0 0.004544245023572831 0.001440784127697477
3840000000.0 -0.03857765871281197 -0.005763785504159461
3860000000.0 -0.07196560039243327 -0.002879816934602507
3880000000.0 -0.031662449294987065 -0.08869878635991789
3900000000.0 0.048160800813244635 -0.09998929779861067
3920000000.0 0.020513319908927238 -0.12372822144508903
3940000000.0 -0.010040433300540103 -0.13256008634986435
3960000000.0 -0.1042098559793828 -0.08481136567997381
3980000000.0 -0.08134287947941524 0.10216266723219884
4000000000.0 -0.044590221230678954 0.09624331704619755
