!Created with skrf (http://scikit-rf.org).
# Hz S RI R 50.0 
!freq ReS11 ImS11
400000000.0 0.6557562648677414 -0.6373734006141883
420000000.0 0.8627938409310256 -0.11708439189491518
440000000.0 0.4934636367543411 0.6686401190934895
460000000.0 -0.4345197772161216 -0.6650430460558597
480000000.0 0.019792551919599218 -0.7783992416289178
500000000.0 -0.6261091852494626 0.4576789368422756
520000000.0 0.6837082464621502 0.2283569927520543
540000000.0 -0.08685172498110097 -0.6846993817781537
560000000.0 -0.34181235548478045 0.5528244776580146
580000000.0 -0.47892911405292804 0.28682231545110976
600000000.0 -0.3311149976913563 0.47325598693332793
620000000.0 -0.007032006819874694 0.5616981864404029
640000000.0 0.04313602042643251 -0.5420830104667803
660000000.0 -0.40372814877344104 -0.33154396563473887
680000000.0 -0.4600751781947151 0.1575566391114294
700000000.0 0.32941159933450104 -0.34107069286935315
720000000.0 0.313333779841053 0.3601896526017061
740000000.0 -0.45283489925450227 -0.0934869350905885
760000000.0 -0.4520148812761378 0.007130691309244881
780000000.0 -0.38543678960782557 -0.20042567507666484
800000000.0 -0.3901933557796956 -0.009126199592779867
820000000.0 -0.2367516110184462 0.24084279315069787
840000000.0 0.034461041673332055 -0.3156000771574502
860000000.0 0.17957617837477957 -0.2128575929401249
880000000.0 -0.25119875376859907 0.0536598289896991
900000000.0 0.13285930290433542 -0.2053150430991041
920000000.0 0.10484410662777574 0.19818689283451554
940000000.0 0.15953367208250263 -0.11959527623732513
960000000.0 0.0752615937601971 -0.12745703942088654
980000000.0 -0.10594358553627074 -0.022526305217085697
1000000000.0 -0.05880991055496923 -0.05155251230406764
1020000000.0 -0.06775687672856365 -0.03764526837939915
1040000000.0 0.0632671306147624 -0.07550784726045431
1060000000.0 -0.09070883386344768 -0.09993459046893392
1080000000.0 -0.1836189947902351 -0.01584742650322553
1100000000.0 -0.03478165470711278 0.21915676133467268
1120000000.0 0.19035762032780473 -0.1884836966015283
1140000000.0 -0.24974193938138647 -0.1340853752434052
1160000000.0 0.2954707516471686 0.06397690506735682
1180000000.0 0.2524329437116363 0.21246118570041575
1200000000.0 -0.16886091435923295 0.30753054873903135
1220000000.0 -0.33087497961189954 0.12730322691158436
1240000000.0 -0.2828654823233093 -0.21938006941247037
1260000000.0 -0.28691510642578316 -0.20967328945641223
1280000000.0 0.3646489158853754 0.019012925361043032
1300000000.0 -0.05924093156719308 -0.3773208489592875
1320000000.0 0.3578820891586415 -0.09510427511865194
1340000000.0 -0.3748986882678661 0.0543919549440617
1360000000.0 -0.023647277277834687 -0.38077112042369066
1380000000.0 -0.19083823904800312 0.3330340120503125
1400000000.0 0.19403663050096248 -0.3402740937533282
1420000000.0 -0.37735077017763924 -0.0740362119949123
1440000000.0 -0.0758140759258234 -0.36767036127455194
1460000000.0 -0.13176335279545803 -0.35303610510092265
1480000000.0 -0.3765627777226774 0.0008199531084148392
1500000000.0 -0.37035986679161337 0.0721167153571903
1520000000.0 0.3166276119346079 -0.20250797078067365
1540000000.0 -0.12264460099992455 0.33993433673891843
1560000000.0 -0.3347731420067264 -0.010962490616960453
1580000000.0 -0.1544305425828958 0.2536370815565442
1600000000.0 -0.24908310660623645 0.05771681909958528
1620000000.0 -0.19204221445980973 -0.09188923839766798
1640000000.0 0.1301657407987612 0.12508329393095002
1660000000.0 0.04334974163146541 0.14368754458084332
1680000000.0 0.11259951809516723 0.03290506711908665
1700000000.0 -0.09517286903522928 0.005704835580518063
1720000000.0 0.07384132470262453 -0.03917067859696752
1740000000.0 0.028901549107220533 0.060082914045903116
1760000000.0 -0.03858030304427303 0.08425328770915926
1780000000.0 0.0026257878845658057 0.10154075696516082
1800000000.0 0.11668189134261467 -0.04542859422573183
1820000000.0 0.14711680307900302 0.057492265614000615
1840000000.0 0.1862510203084325 0.007903813713301127
1860000000.0 0.14706475723807916 -0.15178208158342318
1880000000.0 -0.20550525270403283 -0.1382430321516579
1900000000.0 -0.2629051411945629 -0.046161130810788584
1920000000.0 0.23251806227825808 0.17856707773569602
1940000000.0 -0.16359162414863002 -0.25472201717555387
1960000000.0 0.29661866038746865 0.09638510399415838
1980000000.0 -0.3050536077271031 0.08178191571185685
2000000000.0 -0.09540098874055235 -0.308867597468167
2020000000.0 -0.07604476007493938 -0.3115470674792056
2040000000.0 0.2879631152133891 -0.14023766836863377
2060000000.0 0.2879537249750762 0.14600377067093137
2080000000.0 0.30830549585174766 0.08472371220506085
2100000000.0 -0.05156147385087542 -0.3098953778116309
2120000000.0 -0.22358590952364868 0.21886141922851246
2140000000.0 0.12825209662363632 -0.2842294151466571
2160000000.0 -0.31001715700424864 0.009834938528614412
2180000000.0 0.0011824713432578564 0.30639324605491186
2200000000.0 0.19189604989775014 0.22632391366203827
2220000000.0 0.034266920126959186 0.28325010390833477
2240000000.0 -0.19624692112532552 -0.19574947194985
2260000000.0 0.055504614906729526 0.269191177911256
2280000000.0 0.038820127599360287 0.2712245721972173
2300000000.0 -0.2566424066489932 -0.09533926828246743
2320000000.0 -0.27256982631024723 0.0034576719875965404
2340000000.0 -0.2299045795858435 -0.11976472865946823
2360000000.0 0.1643257383460489 -0.19489902343600596
2380000000.0 0.09530680733144861 0.24079049360390703
2400000000.0 0.11640423115440236 0.23890363249276095
2420000000.0 -0.1952316762313562 0.2118613280908026
2440000000.0 0.3093168788110308 -0.03616925383270709
2460000000.0 -0.2062401037717492 -0.27221059314818546
2480000000.0 -0.1533559050568807 0.3375496718214516
2500000000.0 0.2537485437130046 -0.31369986739970085
2520000000.0 -0.05776894970981782 0.44246561514991023
2540000000.0 -0.25667654622523567 -0.40553995905882856
2560000000.0 0.47909393543169726 0.19201389284497525
2580000000.0 -0.5456340837009744 0.0465661975717156
2600000000.0 0.4822919870086723 -0.31469206247769455
2620000000.0 -0.41681348224104453 0.4267364097401662
2640000000.0 0.2885161754698889 -0.547958629861186
2660000000.0 0.25960665253557014 0.580324030085104
2680000000.0 -0.6425410289989298 0.06988422020445366
2700000000.0 -0.2048687646609415 -0.6235858969229842
2720000000.0 0.23030414834792376 -0.6229917603926675
2740000000.0 0.3119307886374686 -0.5901549487331375
2760000000.0 0.5078128802064837 -0.43443530077938936
2780000000.0 0.3754149795037449 0.5501761545720478
2800000000.0 0.22564534824549903 0.618038325721252
2820000000.0 -0.23349835793423043 0.6035105550115437
2840000000.0 -0.6141997736719118 -0.14789594598888628
2860000000.0 0.5811447176335145 -0.20922634572344312
2880000000.0 -0.5131293741068735 0.3084447605851151
2900000000.0 0.4624974111488879 0.3420146826762445
2920000000.0 0.32872624627523916 -0.4467030995488478
2940000000.0 -0.19468537945773634 -0.4897887152181999
2960000000.0 -0.2002407516559963 -0.45864611616730466
2980000000.0 -0.3677470056967075 -0.30270929681002645
3000000000.0 -0.3779470358590593 -0.2571082585949525
3020000000.0 -0.42801123181492096 -0.0647559933642398
3040000000.0 -0.21888050824522456 0.3603986410432906
3060000000.0 0.38987511063641883 -0.0941545924952012
3080000000.0 -0.17782716990007083 -0.34499245688024444
3100000000.0 0.014358897633009795 0.37638385131475716
3120000000.0 0.32472704809162295 -0.1851522628440982
3140000000.0 -0.14366737431563947 0.3343701209382452
3160000000.0 0.16727054685324763 -0.3242848310434703
3180000000.0 0.1640730940978425 0.3232358828481455
3200000000.0 0.012875381052596554 -0.3549208979181623
3220000000.0 -0.2317753053594038 0.25821045791136715
3240000000.0 -0.16770805829495047 0.2947920619228926
3260000000.0 0.3124264239059929 0.08536073032664852
3280000000.0 -0.034793794238459894 0.3029511355511236
3300000000.0 0.16828833217603728 0.23677499067965743
3320000000.0 -0.07580898224687287 0.25258812302381833
3340000000.0 -0.014255477385867977 -0.23469640945559803
3360000000.0 0.004099714730173712 0.21194472281533505
3380000000.0 -0.1807593591126763 -0.06503146414395344
3400000000.0 0.12336979480046827 0.11614416642106194
3420000000.0 0.03218638840363395 0.15203226544390433
3440000000.0 0.10364106026869786 0.08875771245370143
3460000000.0 -0.09733120287930855 0.05330449445634782
3480000000.0 0.09104249685859207 0.0522713244709557
3500000000.0 -0.10242411973285284 -0.01738846302230118
3520000000.0 0.08760544664832569 0.02292291839069605
3540000000.0 0.09246505573004556 -0.03657084847108706
3560000000.0 -0.10444776454500151 0.0007071592849363924
3580000000.0 0.10424118296385762 -0.02657586163983905
3600000000.0 0.10935238729035195 0.016379716967126753
3620000000.0 -0.030629710548141686 0.12186611445779462
3640000000.0 0.04647988767504599 0.12237826078141621
3660000000.0 -0.05056809693216734 0.13260740041115765
3680000000.0 0.13743281951581945 0.04830416867788251
3700000000.0 -0.07649981257468219 0.10908189352811894
3720000000.0 0.08224047485541933 -0.086601891568607
3740000000.0 -0.0791444997986693 -0.06356036814681684
3760000000.0 -0.07978455982943602 0.016325331886867668
3780000000.0 0.02837992971077759 -0.056357761674916726
3800000000.0 -0.03485417847171063 -0.01080292272031352
3820000000.0 -0.0006570575878350457 0.005321713800684859
3840000000.0 -0.008220846619173938 -0.037650461950888815
3860000000.0 -0.052921930147558846 0.049029477694795646
3880000000.0 -0.004310794785603381 -0.09341831179913106
3900000000.0 0.045456448836498846 -0.10193803003801452
3920000000.0 -0.002683423997985683 -0.12512677411570125
3940000000.0 -0.008823141569705562 -0.13280608458001703
3960000000.0 -0.09793443393606725 -0.09206535333714486
3980000000.0 -0.054104895592056425 0.11937502117695267
4000000000.0 -0.028342180374358233 0.10325351450288126
