!Created with skrf (http://scikit-rf.org).
# Hz S RI R 50.0 
!freq ReS11 ImS11
400000000.0 0.7116988079497134 -0.5753204482832336
420000000.0 0.8612530662054166 -0.1274328509654352
440000000.0 0.49290470847090045 0.6688860473416895
460000000.0 -0.43973217614834786 -0.6619542726536053
480000000.0 0.018293155057219245 -0.7783532492428992
500000000.0 -0.6001855167617348 0.49095634078346423
520000000.0 0.6822650799515134 0.23018885888739934
540000000.0 -0.11763047189593469 -0.6810497361076926
560000000.0 -0.31220848540365376 0.5711876847244638
580000000.0 -0.45538931993957865 0.3235166473586439
600000000.0 -0.3479984149958413 0.46017725953627936
620000000.0 0.0921917492910397 0.5555545115654082
640000000.0 -0.03166258154843043 -0.5443386988612103
660000000.0 -0.38443634907511226 -0.35405562108414873
680000000.0 -0.47086318982941 0.12175198049622336
700000000.0 0.3104869080196566 -0.35885855810173567
720000000.0 0.26949527321153 0.39374743276282737
740000000.0 -0.4514008559043821 -0.10036185616956654
760000000.0 -0.45180680737178114 -0.008337518562114688
780000000.0 -0.39990755182824794 -0.17040317273730216
800000000.0 -0.3893847815384121 -0.03958650995860561
820000000.0 -0.28307141811427755 0.1842776599006489
840000000.0 0.021435522463014688 -0.31658746266854576
860000000.0 0.1385243070870888 -0.24153715406952278
880000000.0 -0.2561118889085659 -0.019116638830882833
900000000.0 0.12052356367217051 -0.21237245853268058
920000000.0 0.13364287914696782 0.1802589802208335
940000000.0 0.08730187094027779 -0.18069090464856338
960000000.0 0.07262346282439955 -0.12750935280442993
980000000.0 -0.07967704848729783 -0.07251121828165799
1000000000.0 0.050047029980897426 -0.061240513039523645
1020000000.0 0.01880073951233805 0.07738964424017536
1040000000.0 0.022038352974188484 -0.09308281974119807
1060000000.0 -0.13457199362774877 -0.004348428015917855
1080000000.0 -0.18275637025420588 -0.02699299772342355
1100000000.0 0.006059385525014425 0.22172643105805034
1120000000.0 0.17004954118636098 -0.20730114193403795
1140000000.0 -0.26656169238667216 -0.09506297205472282
1160000000.0 0.2436117233027602 0.17875708025643575
1180000000.0 0.2872946365089465 0.16241237902757497
1200000000.0 -0.14633736907454586 0.31851105183204337
1220000000.0 -0.3224274081242478 0.14754430072739264
1240000000.0 -0.2445404052620139 -0.26090417483346184
1260000000.0 -0.2664680515316781 -0.23623598784110644
1280000000.0 0.3659512064250245 0.0066186447165980785
1300000000.0 -0.06915632462198538 -0.37488046214320503
1320000000.0 0.35313941107796704 -0.10813736420518953
1340000000.0 -0.3775338022258409 0.031009511518658633
1360000000.0 -0.076586879038486 -0.37512184290953154
1380000000.0 -0.19723876764203904 0.32880331611482644
1400000000.0 0.20504923859662977 -0.3325165582978264
1420000000.0 -0.3779054859117127 -0.07479841958915755
1440000000.0 -0.10310268030740065 -0.3620675084995124
1460000000.0 -0.1612955469738229 -0.34006602923106577
1480000000.0 -0.369681280116326 -0.06592749409549413
1500000000.0 -0.3777551066279628 -0.015254810332833515
1520000000.0 0.28679047922583145 -0.24413464284386557
1540000000.0 -0.11715021565948584 0.3406134056065599
1560000000.0 -0.33181752637781586 -0.041721631232454696
1580000000.0 -0.16695215013297704 0.24588658918005177
1600000000.0 -0.24947391345715283 0.05739919512347423
1620000000.0 -0.19587796313783393 -0.0836069438746738
1640000000.0 0.11561554567236451 0.13818784458728683
1660000000.0 0.0589026748958126 0.1374552944747584
1680000000.0 0.08286781414153756 0.08387812908506197
1700000000.0 -0.09408299634639378 0.01916613075192298
1720000000.0 0.04619143300828044 -0.06853148385681512
1740000000.0 -0.03357645454406983 0.05622095715215625
1760000000.0 0.03880160781772401 0.08482890210132107
1780000000.0 0.03608897384644901 0.09461567146567296
1800000000.0 0.12369450232335248 -0.01675226229337888
1820000000.0 0.12887773995878318 0.09127180660965425
1840000000.0 0.18632406399599002 -0.014841378714304349
1860000000.0 0.10577169511484981 -0.18313872418545885
1880000000.0 -0.19424314816403793 -0.15260708473821724
1900000000.0 -0.24822852067966183 -0.09788867862347148
1920000000.0 0.26015873088612906 0.13685153546984813
1940000000.0 -0.16039668900266918 -0.25628233328622835
1960000000.0 0.295966158094177 0.0958414575266948
1980000000.0 -0.3015738375186668 0.09490530835123216
2000000000.0 -0.06863694372385375 -0.31562859636193963
2020000000.0 -0.11900211229227198 -0.29819008266945524
2040000000.0 0.2912360761807524 -0.13324182450146715
2060000000.0 0.26952295096519285 0.17743185403961828
2080000000.0 0.2970953463646536 0.1174563258599309
2100000000.0 -0.03078238986211804 -0.31276676340201326
2120000000.0 -0.20276245166965995 0.23888898816518192
2140000000.0 0.11696495741559113 -0.28823185637752025
2160000000.0 -0.30936274485153425 -0.019892176432013627
2180000000.0 -0.02107668361495675 0.30582179045047
2200000000.0 0.16607441499521844 0.24531803125474
2220000000.0 0.001294651291404803 0.28495420562583
2240000000.0 -0.2236191205625766 -0.16413457959066963
2260000000.0 0.05494571997484354 0.26863461633429797
2280000000.0 -0.01652111548930438 0.27295823524662755
2300000000.0 -0.2670817965974136 -0.06321985707254198
2320000000.0 -0.2711735357420248 0.02926774799572714
2340000000.0 -0.21444411925179618 -0.14564010323116816
2360000000.0 0.20230538869005518 -0.15519555134035876
2380000000.0 0.1100210542916965 0.23523631990904986
2400000000.0 0.15004185251681296 0.21957913382082422
2420000000.0 -0.221437503531621 0.18430505927574012
2440000000.0 0.31085241525057955 -0.009663265465074348
2460000000.0 -0.19191051713985316 -0.28211702195175165
2480000000.0 -0.15875033266771252 0.3351035957282377
2500000000.0 0.2272112264065342 -0.33356356871126425
2520000000.0 -0.06263781151092428 0.4414342285921759
2540000000.0 -0.2286418086149252 -0.4215456727280857
2560000000.0 0.49185559160229886 0.156729482881318
2580000000.0 -0.5450365788619896 0.0517610719638429
2600000000.0 0.48450984079930837 -0.3115315772155959
2620000000.0 -0.43583777583224126 0.407314941132336
2640000000.0 0.28596245120914904 -0.5494506551702284
2660000000.0 0.25102090328084375 0.5842737253989776
2680000000.0 -0.6417816987373551 0.0720538683992565
2700000000.0 -0.20106736685704993 -0.6248651961467319
2720000000.0 0.23813973130047175 -0.6196991184880893
2740000000.0 0.43393327127424886 -0.5070508092290735
2760000000.0 0.46779897165756595 -0.47739173261082596
2780000000.0 0.39218586214039464 0.537977556185474
2800000000.0 0.23264819884311172 0.6159585625210129
2820000000.0 -0.20086396807148058 0.6149771994598336
2840000000.0 -0.6184730012764162 -0.12928820689394724
2860000000.0 0.5716668564017063 -0.23417843672394933
2880000000.0 -0.5195410401077155 0.29803803606424756
2900000000.0 0.45595270045633846 0.3506852803433805
2920000000.0 0.3596794406084317 -0.42234438471941715
2940000000.0 -0.17335226979374457 -0.49815997620755564
2960000000.0 -0.24655237810363523 -0.4343445201536783
2980000000.0 -0.3476276195520832 -0.3250650862058982
3000000000.0 -0.3878709852031927 -0.24227693154527818
3020000000.0 -0.4299089088694091 -0.04946079982905764
3040000000.0 -0.29335275418479384 0.30321880049293776
3060000000.0 0.3743581676411857 -0.1446240914994729
3080000000.0 -0.19402267674626839 -0.33608548714046244
3100000000.0 0.02918509408796835 0.3762554426876218
3120000000.0 0.3177736748348309 -0.19710342904765843
3140000000.0 -0.11158946157905233 0.3467341204868515
3160000000.0 0.1713242446232008 -0.32260206103517947
3180000000.0 0.13815263882414155 0.3340884168947695
3200000000.0 0.04567571040608137 -0.3518768895521765
3220000000.0 -0.23912394668394443 0.25203528960034066
3240000000.0 -0.16232904664338593 0.29684611404712163
3260000000.0 0.3147530476159226 0.07153353323547929
3280000000.0 -0.07289938560179855 0.2974311259057218
3300000000.0 0.164044482850639 0.23962065807898617
3320000000.0 -0.061119667822567315 0.25520025740242336
3340000000.0 -0.03280608448557821 -0.23283191207865256
3360000000.0 -0.05117616735925149 0.20657927996766076
3380000000.0 -0.19112442128691018 -0.020815831385913367
3400000000.0 0.12710927428475785 0.11321169354945879
3420000000.0 -0.0213427777383181 0.15344108023263148
3440000000.0 0.09353979376592408 0.10061685394581511
3460000000.0 -0.09765081142470848 0.05182266995983725
3480000000.0 0.07653686760243432 0.07101143427129318
3500000000.0 -0.10296896610978189 0.01492556659425692
3520000000.0 0.07081944817031974 0.056433177508844155
3540000000.0 0.07411923248124001 -0.06664848680001115
3560000000.0 -0.09783756586282259 0.03441766894767902
3580000000.0 0.10548799162654485 0.021704994394214663
3600000000.0 0.10717770521601429 -0.027487496120240047
3620000000.0 -0.014346259368971468 0.12440326447159739
3640000000.0 0.088935558747295 0.09551315037540434
3660000000.0 -0.058354970997556245 0.1297935576354117
3680000000.0 0.11774314648680989 0.08553392765784396
3700000000.0 -0.07550634212636655 0.110242674723499
3720000000.0 0.08266710202878567 -0.08600132409411756
3740000000.0 -0.0488773608983992 -0.08878766984793462
3760000000.0 -0.07413347901881862 -0.033742471041512546
3780000000.0 -0.015339286595176343 -0.06110934223425675
3800000000.0 -0.004707970938585457 -0.0348248599632543
3820000000.0 0.0031263820135849964 0.003090881414387312
3840000000.0 -0.0008746423286631077 -0.03859692962957484
3860000000.0 -0.06977666331544914 0.01902617070640288
3880000000.0 -0.028942414251293326 -0.08947821995158001
3900000000.0 0.045356919285484965 -0.10150607352739591
3920000000.0 0.03286701650206423 -0.12131277026119776
3940000000.0 -0.08757688376876697 -0.09966453699109669
3960000000.0 -0.11798400164522697 -0.06398585359879826
3980000000.0 -0.04105760904976783 0.12451532600247171
4000000000.0 0.021004257058428927 0.10475976696196397
