!Created with skrf (http://scikit-rf.org).
# Hz S RI R 50.0 
!freq ReS11 ImS11
400000000.0 0.04287405478161727 -0.43173395594257036
420000000.0 -0.2003980451982706 -0.18479925326053864
440000000.0 -0.02545768914570216 0.030686696994387728
460000000.0 -0.08101810114570256 0.09342034805055911
480000000.0 -0.08367452800656884 -0.12754568181712364
500000000.0 -0.13455399146733146 0.2855926310508875
520000000.0 -0.22855330540948 0.2638786418936302
540000000.0 -0.12765733979039912 0.4417884910888509
560000000.0 -0.4420149064858164 -0.18388790371590516
580000000.0 -0.10351502656823411 -0.43634418603284525
600000000.0 -0.3867103567492204 -0.20134522299092625
620000000.0 0.00021245472229170425 -0.39973628039253184
640000000.0 0.21082909170097525 -0.23258648397431989
660000000.0 0.22378320024616344 -0.19755358070311763
680000000.0 -0.23285569348660104 0.11520056238000224
700000000.0 -0.020902527731745592 0.23005171248209405
720000000.0 -0.1385375762959597 -0.16121798131235396
740000000.0 -0.19318734425940007 -0.05567938052616768
760000000.0 0.14516943178878736 -0.09715731761573834
780000000.0 -0.14164619978897014 0.043257260063379564
800000000.0 -0.001353245014183418 -0.15229958197484084
820000000.0 0.023311479059407284 0.1589444369961119
840000000.0 0.18376860438653134 0.0015613729349995577
860000000.0 -0.10441943921943393 -0.17051409631572267
880000000.0 0.1690715739739989 -0.10337504726506926
900000000.0 0.01558796633539314 0.21266569773398597
920000000.0 -0.1357764510328781 -0.18619283981093795
940000000.0 0.1716519893753935 0.15331787598254673
960000000.0 -0.04167575029218702 -0.22789390694490128
980000000.0 -0.22355854385912494 -0.06584500463122028
1000000000.0 0.18085677437042297 0.1496845756272524
1020000000.0 -0.1337846871710153 0.1823324902437653
1040000000.0 0.21824215285197673 0.045841764665671664
1060000000.0 0.15373108444218817 -0.10256278108383066
1080000000.0 -0.06313766525734836 -0.20573264483069426
1100000000.0 -0.1725294861055213 0.05118649210094225
1120000000.0 0.1894161760682219 -0.02241676367211976
1140000000.0 0.18079529201629477 -0.03701688583153277
1160000000.0 0.03249514476785436 -0.17362598869648696
1180000000.0 0.057663761047773814 -0.14700536303022776
1200000000.0 -0.11858935377119277 0.07688893464375754
1220000000.0 -0.12478627489495982 -0.0069013518298690546
1240000000.0 -0.11518180297651015 0.031386415499616856
1260000000.0 -0.08980620159187354 0.060675588307254336
1280000000.0 -0.07704010817743082 -0.07506419661112995
1300000000.0 0.031853233105566245 0.11212639522142892
1320000000.0 0.11395881925418191 0.06679521538466017
1340000000.0 -0.1396854507073868 -0.03164514259551798
1360000000.0 -0.15403025874325096 0.040530665345871054
1380000000.0 0.16221044637380386 0.075564657554761
1400000000.0 -0.006801147964961075 0.18653751485796974
1420000000.0 0.19187203874339243 0.00708779467244745
1440000000.0 0.005736864526470166 0.1907199853895661
1460000000.0 -0.02494159521696988 0.1877747759481836
1480000000.0 -0.1388012879604043 -0.11153977691618613
1500000000.0 -0.011619514745335022 0.16153888913283623
1520000000.0 0.1047517925822603 0.10916887333769891
1540000000.0 0.13733309408530595 0.005796092798469077
1560000000.0 -0.06779045675574216 -0.11111471052141952
1600000000.0 0.07621093026820602 0.08305683826837029
1620000000.0 -0.10735115770872637 -0.026380697799125795
1640000000.0 0.11288091760625862 -0.011954598252066484
1580000000.0 -0.10916673170592495 0.04911063452167745
1660000000.0 -0.10263085214869842 0.05355019448142281
1680000000.0 -0.08521588730557872 -0.08636577492808875
1700000000.0 0.10707247538817727 -0.08796060967378812
1720000000.0 -0.0030151530254196287 0.14804761242588768
1740000000.0 -0.026846799683710596 -0.16112941042393286
1760000000.0 0.10711641013509865 -0.14393212474049796
1780000000.0 0.11863284011476072 0.16034208981587897
1800000000.0 0.08151159627568705 0.20601660881570008
1820000000.0 -0.2037604471866453 -0.12981374036918772
1840000000.0 0.05801360591727075 -0.25037862671295136
1860000000.0 0.19411083684304298 0.18736634826875212
1880000000.0 -0.2069748452945446 0.1838280591777943
1900000000.0 -0.25142789001833765 -0.12598630465194008
1920000000.0 -0.147057827346489 -0.24722242050697543
1940000000.0 -0.12166025584754281 -0.26100764172489876
1960000000.0 -0.2774803275113317 -0.02149432054118254
1980000000.0 -0.1540332773975241 0.21810249587923286
2000000000.0 0.09338361630937411 0.2353672622599482
2020000000.0 0.1655290830923453 -0.17507709874660063
2040000000.0 -0.20551854661161914 -0.09505932673916519
2060000000.0 0.13045875966690662 0.17089350938771058
2080000000.0 0.19867868524757418 -0.02837899708615344
2100000000.0 0.15874790975292202 -0.11206865157494912
2120000000.0 0.07269662260187162 0.17427250059103558
2140000000.0 -0.054845812775229624 0.17241634107636164
2160000000.0 -0.17463501712081872 0.04327553313826021
2180000000.0 0.06533084960797127 -0.16376868546664286
2200000000.0 -0.08051983368427136 0.15321962191322308
2220000000.0 0.1353685896798015 0.10403155312000027
2240000000.0 0.056980268177816325 -0.1605398406705465
2260000000.0 -0.0671311015781366 -0.15539162205875304
2280000000.0 -0.13025630636861618 -0.10465646120632419
2300000000.0 -0.16528334195875846 0.005471287809887809
2320000000.0 -0.08799818897733384 0.14138903804416755
2340000000.0 0.16664727675644003 0.018954556424313162
2360000000.0 -0.1654400891545245 -0.001097103432635706
2380000000.0 0.14152523543837311 -0.08027127506545552
2400000000.0 0.15823650117708046 -0.0019398302910812668
2420000000.0 -0.0009410331966941846 -0.15038349448578203
2440000000.0 -0.11368430585083154 0.0864283540773575
2460000000.0 -0.11134391947601242 -0.07702179344489933
2480000000.0 -0.11237629935237366 -0.05989719840106007
2500000000.0 -0.10949311279069404 0.04482110387915942
2520000000.0 -0.11740849212946 0.02203467999803649
2540000000.0 0.11703047598774373 -0.024262216993751407
2560000000.0 0.10094650020108688 -0.0703786172792597
2580000000.0 0.11928785206152392 0.04408120970948113
2600000000.0 -0.13087597193733622 -0.022294344135226237
2620000000.0 0.07607423943670902 -0.11444935042314916
2640000000.0 -0.1317847813732993 0.038895273729916746
2660000000.0 0.12953438072268253 -0.03193465094760822
2680000000.0 -0.12331709326874567 0.010289094648806897
2700000000.0 0.07773550978666041 -0.08237283026393966
2720000000.0 0.061651187123353726 0.08111298908780117
2740000000.0 0.06188850589969676 0.06552306537952794
2760000000.0 -0.08243791757087927 0.008973886268527792
2780000000.0 0.051881394627448695 -0.061799354771899496
2800000000.0 -0.07034038663235996 -0.04294769144331454
2820000000.0 -0.08875842561515959 -0.004873287428511182
2840000000.0 -0.021824575865168606 -0.09570055304023574
2860000000.0 -0.09985074995890418 0.04465943192406604
2880000000.0 -0.05125001557116127 -0.10938001859332633
2900000000.0 0.05350988703354981 0.1196397367390648
2920000000.0 0.08346085322013756 -0.1167512891815005
2940000000.0 -0.13050075641777129 -0.08135647683033213
2980000000.0 0.16797297432133573 0.04251295904933826
3000000000.0 -0.1145299311101351 -0.14043273617359273
2960000000.0 -0.10349668952357169 0.12756289332454673
3040000000.0 -0.14260564960438765 -0.12690938933961807
3020000000.0 0.13079545314150257 0.1325383917836328
3060000000.0 0.09436833468750022 -0.1665540760668949
3080000000.0 0.12574272764471636 -0.14521108444490066
3100000000.0 0.15693943220100806 -0.10947945119279431
3120000000.0 -0.024324713997474535 -0.1882853612438506
3140000000.0 -0.16442551191634494 0.08997730780181067
3180000000.0 -0.013467920251238349 -0.18882441222647073
3200000000.0 -0.08595300171971623 -0.17101383307813722
3220000000.0 -0.14086492940859352 0.13607681071217612
3160000000.0 0.11930662248494989 0.14406280500242277
3240000000.0 0.06204867187427075 0.19130871835109173
3260000000.0 0.05668470794438738 0.20007516028788577
3280000000.0 -0.06313198421906659 0.2042240273662638
3320000000.0 0.18280001953863287 -0.13355041127508172
3300000000.0 -0.1998040806489909 -0.0921017586803829
3340000000.0 -0.14756875020001076 0.1778899450953576
3360000000.0 0.1947398245284056 -0.13454713148451616
3380000000.0 -0.23170628421790626 -0.06934747501790511
3400000000.0 0.10143923479756294 0.22349169205628291
3420000000.0 -0.012965760732378068 -0.24917238048193419
3440000000.0 -0.16354677797714232 0.19023839754057545
3460000000.0 0.242435188011449 -0.06373753126838207
3480000000.0 -0.24403175667433424 -0.050691933042034946
3500000000.0 0.2101405492611555 0.13079268620160645
3520000000.0 -0.20967897618017978 -0.12542370003679018
3540000000.0 0.22551671221380237 -0.08607109369755087
3560000000.0 0.11443139813285426 0.20564211788129053
3580000000.0 -0.10543623611364608 0.20398566846048782
3600000000.0 -0.09291033387279646 0.20548748943567877
3620000000.0 -0.22099021529322757 -0.01425613156292689
3640000000.0 -0.07415176998101408 0.2087728219351501
3660000000.0 0.22414618007660414 0.007913135759251273
3680000000.0 -0.08408628967844235 -0.21304958805272267
3700000000.0 -0.23319180518063104 0.051884537969415556
3720000000.0 -0.14599008566518665 0.20579997381400378
3740000000.0 -0.21544362669430503 0.15742500088233405
3760000000.0 -0.20840943051943026 0.1873075318775661
3780000000.0 -0.28232001088470515 -0.08364260901828637
3800000000.0 0.13556907527886625 -0.2720332264512444
3820000000.0 0.03747834200933988 0.30632715296857765
3840000000.0 0.05162163371193233 -0.308240517505282
3860000000.0 -0.19997775853214 0.2386120153236998
3880000000.0 0.2751922407225199 -0.13524154400533597
3900000000.0 -0.29405435069210406 -0.04793271901633669
3920000000.0 0.22882446999263023 0.16387870652900882
3940000000.0 -0.22875278183213535 -0.12384699585530684
3960000000.0 0.2203252981460114 0.08094745367535201
3980000000.0 -0.07561843348634818 0.1940423685486739
4000000000.0 0.014191972669426069 0.1784425802098654
