!Created with skrf (http://scikit-rf.org).
# Hz S RI R 50.0 
!freq ReS11 ImS11
400000000.0 0.9107081321648847 -0.14831886565340752
420000000.0 -0.8798680377665783 -0.1456720902360392
440000000.0 -0.581259547103856 0.6262250885931208
460000000.0 -0.6610077528529047 0.4307666843358881
480000000.0 -0.11877633294287765 -0.7456149844160632
500000000.0 -0.7687172352141148 0.06919442288254761
520000000.0 -0.48873156850008087 -0.5876396555940938
540000000.0 -0.7119796629440345 0.09349978560790792
560000000.0 -0.5208719114066102 -0.44545925498115874
580000000.0 0.5989395285594946 -0.038862116494067823
600000000.0 -0.13370608163944506 0.5833219387418968
620000000.0 -0.47462610033348857 -0.39035145750982286
640000000.0 -0.46327571045558946 0.40963082356842395
660000000.0 0.46413139491765376 0.36962568464416634
680000000.0 -0.46147536540674905 0.3447535577035116
700000000.0 0.16850956876003823 0.5246875605035112
720000000.0 -0.46056907744637315 0.329695672067179
740000000.0 0.09036703645030829 0.5613271808009064
760000000.0 0.4213746442291897 -0.3549529638804687
780000000.0 0.07633589385819153 -0.5067653907377374
800000000.0 -0.44664107106872786 -0.1635849433518828
820000000.0 0.1565243897518757 0.3856450902779181
840000000.0 0.2793939075149261 0.2325744250166269
860000000.0 0.14404668979741553 -0.28795181529980834
880000000.0 0.2611993303086201 -0.0019031171816420354
900000000.0 0.18535668192399915 0.08603733513227292
920000000.0 -0.0877442210752159 0.10197455966557678
940000000.0 0.05386495256340812 0.09002244426444335
960000000.0 0.09794069562918582 0.02768559493920245
980000000.0 -0.10699336357077155 -0.034687196667709565
1000000000.0 0.12206896965922638 0.028050353772294347
1020000000.0 -0.06561816585397336 -0.12120937755062576
1040000000.0 -0.08297876089970685 0.10689311078193311
1060000000.0 -0.06887005038587331 0.1418426688480986
1080000000.0 -0.09059024297105532 -0.16488478364222853
1100000000.0 -0.10561780714528528 -0.19691183416477548
1120000000.0 -0.20925233592920237 0.1090564796518971
1140000000.0 0.09806762502387192 0.225409815017809
1160000000.0 -0.09160916886095857 0.2536371218475393
1180000000.0 -0.30318721058768505 -0.02199531952391812
1200000000.0 0.2323816933187818 -0.2374289669155003
1220000000.0 0.1232956807444751 0.33684167611575044
1240000000.0 0.3846033546751278 0.05492683507044506
1260000000.0 -0.41531289930812326 -0.07245099739883593
1280000000.0 0.35485355045500155 0.27739435392347933
1300000000.0 -0.45547960693577916 -0.05768765619668387
1320000000.0 0.13769799619038797 0.4357243447240264
1340000000.0 -0.07218433636592854 0.4493752121932973
1360000000.0 -0.4171616472969691 0.1747003747236021
1380000000.0 -0.4447524051768608 -0.0791721676039041
1400000000.0 -0.44301595582395165 -0.1380933889321687
1420000000.0 -0.2829988376574106 0.3620174349308133
1440000000.0 0.37588212094273954 -0.270428860891475
1460000000.0 -0.3095335370082367 0.300650319870631
1480000000.0 0.3835857996027175 0.124516705778873
1500000000.0 -0.054247739665657685 -0.3721728145714971
1520000000.0 -0.04620047384312238 0.34857354173014454
1540000000.0 0.27592513535499014 0.17175558393172777
1560000000.0 0.06343642872829994 0.28687801643428856
1580000000.0 0.22072297676510888 0.1356491044519798
1600000000.0 0.0036678547243560833 0.2217507576408691
1620000000.0 -0.07166772377418312 0.16895427205378755
1640000000.0 0.1385526626794359 -0.07330853867427146
1660000000.0 0.003693525247378627 -0.12181192378956955
1680000000.0 -0.03870372791417487 0.07555919001774866
1700000000.0 0.04891513230731848 -0.029091803634560896
1720000000.0 0.013226289009143402 0.03183725513360806
1740000000.0 0.027097001266830623 0.01148608890069187
1760000000.0 0.019156774764475627 0.04970523124546755
1780000000.0 0.055027430725111584 -0.05687146780692224
1800000000.0 -0.012846048977435484 -0.11571823155105201
1820000000.0 -0.0808639941942961 0.11816130704092648
1840000000.0 -0.15139750432691396 0.07950952985394934
1860000000.0 -0.18726411579716742 -0.09522632910405286
1880000000.0 0.25192997599761147 0.04741080111833324
1900000000.0 -0.28089901805621054 -0.06099504666560031
1920000000.0 -0.0071071299388760206 0.31674946056006215
1940000000.0 0.34602580909664327 0.005077299764560367
1960000000.0 0.21255283678920867 -0.30848421240993407
1980000000.0 -0.29598735508406715 -0.2719662292369984
2000000000.0 -0.12960899536083673 0.40309975190237224
2020000000.0 0.34673709836442096 0.2658360694070221
2040000000.0 0.27905726382943263 -0.34723133743323575
2060000000.0 -0.2921467073967932 -0.3415434853467409
2080000000.0 -0.435381170850788 0.09723568300506555
2100000000.0 -0.1816380483832891 0.39836886205200234
2120000000.0 0.06351862270969458 0.4241662994120824
2140000000.0 -0.41252488762575035 0.005055999913455141
2160000000.0 -0.4005520750705839 -0.031288343126819156
2180000000.0 -0.3256966391654581 0.20664353406621172
2200000000.0 -0.34256434532640245 0.14207123900358
2220000000.0 0.1473372032565519 -0.33348436567264633
2240000000.0 -0.2144024092143274 -0.30583169671164817
2260000000.0 -0.32346658957547425 -0.19814057239841815
2280000000.0 -0.3893934391660276 -0.009474363447785414
2300000000.0 0.28213039027486914 0.2925076218260294
2320000000.0 0.09204551573299631 -0.41668316923575804
2340000000.0 -0.4328792199481354 0.14078919572517232
2360000000.0 0.47583503644080943 0.12921550252981956
2380000000.0 -0.4794497077607341 0.2391865916715256
2400000000.0 0.39573009465044756 -0.4190760845333645
2420000000.0 -0.2731341794698272 0.5544864455253065
2440000000.0 -0.08241165664393188 -0.6545164233665651
2460000000.0 0.4684075524166224 0.5100873478009511
2480000000.0 -0.6149271053630384 -0.37215993525792834
2500000000.0 0.5678409408469943 0.4692787856544924
2520000000.0 -0.3595850895999215 -0.655017011710202
2540000000.0 -0.02577847763545781 0.7501095972372124
2560000000.0 0.6416563399976769 -0.38533283341486824
2580000000.0 -0.6500814099649358 -0.348415071413498
2600000000.0 0.004406014516135324 0.7200475338756285
2620000000.0 0.6029383681077662 -0.3496763111270139
2640000000.0 0.35449332763524677 -0.5659328714584827
2660000000.0 -0.6257275045781955 0.07704927815304383
2680000000.0 0.4426277690762621 0.3893023043517602
2700000000.0 -0.10997514678277988 -0.5349579248033334
2720000000.0 -0.02894314971656311 0.5023353271661041
2740000000.0 0.24847123204893662 -0.383857225404983
2760000000.0 -0.1278554797980279 0.3934427279302627
2780000000.0 -0.03253834304806057 -0.37592017233348957
2800000000.0 0.28333089635108827 0.18817473542424962
2820000000.0 -0.28990275680923416 -0.10555185084148963
2840000000.0 0.28546238039460453 0.026714462147321975
2860000000.0 -0.23850666585576927 -0.13521095873675298
2880000000.0 0.25266727649825316 -0.06636441972087709
2900000000.0 -0.07049707596216977 -0.24398693525541015
2920000000.0 -0.15214172491455344 0.20204247054859642
2940000000.0 -0.23467005276457328 0.09128071033268008
2960000000.0 -0.2019926030084849 0.15116383509094858
2980000000.0 0.24390594886619166 -0.08847157787483231
3000000000.0 0.2058199613573413 0.17970568945370372
3020000000.0 -0.03345053928809713 0.2814260078963515
3040000000.0 -0.12390333426556716 -0.26372353946405114
3060000000.0 0.29981061745279547 0.015897867996836307
3080000000.0 -0.12562583336078045 0.2849626229756754
3100000000.0 -0.08659279346466424 -0.30387724940641614
3120000000.0 0.17450438845109656 -0.26777387892317267
3140000000.0 0.30184852388217737 0.1033965727934862
3160000000.0 -0.03558883207975283 0.30673482449755557
3180000000.0 0.05935248094133274 -0.2929386861026684
3200000000.0 0.008618133232462645 -0.28377197082151284
3220000000.0 0.19512481503318888 -0.16083292589799605
3240000000.0 0.019201159993290983 0.23200165168359588
3260000000.0 0.02133207320851406 0.20449657753251868
3280000000.0 0.10642087490868893 0.13618087156835973
3300000000.0 0.07792150958680152 0.11716397817730559
3320000000.0 0.10216504187574528 0.03141420174164938
3340000000.0 -0.018074159592509437 0.07278228107771025
3360000000.0 0.054163719150759126 -0.026185444248166483
3380000000.0 0.04350602111354411 0.005950292669210455
3400000000.0 -0.029627395437148592 -0.022956804912054467
3420000000.0 -0.006177723730072287 0.03705639637797288
3440000000.0 -0.044612308906378476 -0.012641492101196401
3460000000.0 0.053620574551706865 -0.013209188061396178
3480000000.0 -0.060787278163206726 0.025751012329563047
3500000000.0 -0.04936609137372993 -0.04885300327923654
3520000000.0 0.059689628942627485 -0.06247945302493467
3540000000.0 0.07269639186106246 -0.0760180867009888
3560000000.0 0.09348561047803926 -0.06939184824299592
3580000000.0 -0.026185289334052883 0.12863189893945443
3600000000.0 -0.14766084722449424 -0.009045792949703917
3620000000.0 -0.06764140605630725 -0.14600316816752096
3640000000.0 -0.042213751984497776 -0.1731717821301989
3660000000.0 0.05293270453456936 -0.1906062203641001
3680000000.0 0.12197900846502509 0.1719493307887183
3700000000.0 -0.15033173856049353 -0.1456152252700014
3720000000.0 -0.2001133921616664 -0.04399144639341264
3740000000.0 -0.17576897290662685 0.08880414328440195
3760000000.0 -0.08725284688341446 -0.17177814236148198
3780000000.0 -0.16821334825329878 -0.06023074020767378
3800000000.0 -0.02182122047248502 -0.16041265014369863
3820000000.0 -0.1018022881884356 0.09916063920058257
3840000000.0 -0.12252751736882256 0.004803031138422918
3860000000.0 -0.04918301717035429 0.09300175020932346
3880000000.0 -0.09997412555706071 -0.036019008012063265
3900000000.0 -0.0014372933089434182 0.11315573667197072
3920000000.0 0.0304715798479244 0.11432934403499638
3940000000.0 0.03293080832130268 0.12265839905932689
3960000000.0 0.11642663292533359 0.06667631366271537
3980000000.0 0.14441918336734325 -0.03233215139312191
4000000000.0 -0.14394957749975218 -0.005059073310236323
