!Created with skrf (http://scikit-rf.org).
# Hz S RI R 50.0 
!freq ReS11 ImS11
400000000.0 0.8783701842754513 0.23172399278414757
420000000.0 -0.06151689693211594 0.8722729324840108
440000000.0 0.33365524401899815 0.7846708382331923
460000000.0 -0.7972883271075457 0.18908892361532603
480000000.0 0.6303705775972016 0.4651058275277571
500000000.0 0.533889221359141 -0.5177718942674201
520000000.0 -0.7094564141186783 0.028409776364818992
540000000.0 0.6458540104456502 -0.0928071545840301
560000000.0 0.5880825004859154 -0.13007924420187153
580000000.0 0.14379384659057623 0.5349330318313111
600000000.0 -0.11343336999312777 -0.5311609729183095
620000000.0 0.509446862252332 -0.17735371034624423
640000000.0 -0.5008511932007352 -0.17461851307490364
660000000.0 0.36911627947781783 -0.33239845258501727
680000000.0 0.43043741765823046 0.183717860998151
700000000.0 -0.45090898314267613 0.1269222663098918
720000000.0 -0.3326675991400806 0.3125216764717809
740000000.0 -0.10577430731664891 -0.4227375541357556
760000000.0 0.3066325478835653 0.2903352101926481
780000000.0 0.3012773260526429 0.2880224800489385
800000000.0 0.338249164023227 0.14398126196889977
820000000.0 0.3075969187051558 0.015704296424322996
840000000.0 0.01497887744393973 0.28337629715948076
860000000.0 -0.09782260118078753 -0.24305557328320326
880000000.0 -0.06425502242257627 0.21697785253962437
900000000.0 -0.0643248454462579 -0.20778349850873198
920000000.0 0.20117023914858853 -0.0002465908207312566
940000000.0 0.029548708957870356 -0.1707921393110069
960000000.0 -0.11521279159008407 0.02795175348487412
980000000.0 0.06091558163560184 -0.032234199655029605
1000000000.0 0.05251795734061115 -0.019095287354953076
1020000000.0 -0.030996804674935534 -0.032182335723281344
1040000000.0 -0.018028708870878003 0.07766769692487535
1060000000.0 0.10836650583767504 -0.07433297542567589
1080000000.0 0.05311207222259777 0.16790254490539108
1100000000.0 -0.2132586478062037 -0.06095236428347723
1120000000.0 0.19049115184202836 -0.15474963363028077
1140000000.0 0.11607072988146758 0.2328369429070468
1160000000.0 0.23131051586082363 -0.174391078764925
1180000000.0 0.2006772791592399 0.24226143559317553
1200000000.0 -0.07073692036707663 0.3298107604042939
1220000000.0 -0.28228580133524694 -0.2025131582795952
1240000000.0 -0.0998638096254732 -0.3479495348099123
1260000000.0 -0.17826652877601085 -0.3140815928108554
1280000000.0 -0.1682433656282853 -0.3378815532121748
1300000000.0 -0.33497212236323654 0.1636263674893386
1320000000.0 -0.15750081288080237 -0.34170013115656694
1340000000.0 0.21813728039714742 0.29890756031089794
1360000000.0 -0.029236898179168833 -0.3755511269932838
1380000000.0 0.38409948623696294 0.09754044700285289
1400000000.0 -0.13843696280997042 0.35909269851448844
1420000000.0 -0.25848272046289383 0.26719661732615047
1440000000.0 -0.29153233044237614 0.22454609329395503
1460000000.0 -0.3297915939032213 0.1589334204474853
1480000000.0 -0.13182851130341505 -0.345911637081759
1500000000.0 -0.35096495116958887 0.1439593478409649
1520000000.0 -0.23637650528147414 -0.2905395927462574
1540000000.0 0.3237589327856571 0.14067060527771133
1560000000.0 0.21154020559220743 0.24790819778958964
1580000000.0 -0.2405821187200758 0.14119445237740083
1600000000.0 0.103431425418872 -0.2225060383423994
1620000000.0 0.018297962575437293 -0.21417182711797125
1640000000.0 0.1173833603803486 0.12909921690272824
1660000000.0 -0.07148730608551354 0.13369183112697378
1680000000.0 -0.10762279586797074 0.050840937883398524
1700000000.0 -0.09268799068586722 0.04168074121283629
1720000000.0 0.033524309944192816 -0.06731984591713797
1740000000.0 0.050214845098737595 -0.061693684734919534
1760000000.0 0.047408455845230076 0.06987417195946163
1780000000.0 -0.07943797284112485 0.06286043692925723
1800000000.0 -0.0784482606037275 -0.09707760310456172
1820000000.0 0.055306644164160486 0.14334846417355893
1840000000.0 0.08394899757429554 0.1549591210057489
1860000000.0 -0.2053754682998687 -0.06023634428791736
1880000000.0 -0.2284424508310527 0.05569055069581199
1900000000.0 -0.21174041024995338 0.15553303341942515
1920000000.0 0.27645052478040505 0.06241498061412528
1940000000.0 -0.17417426351178258 -0.2438632783431346
1960000000.0 0.14738635946582962 0.2607146132363644
1980000000.0 -0.1945214492629519 -0.23589436994522356
2000000000.0 0.2865923988698249 -0.13196530014573934
2020000000.0 0.28037657718556513 0.145732024346613
2040000000.0 0.20187601534891483 0.25035071556885524
2060000000.0 0.24208758776513017 0.20845398908683546
2080000000.0 -0.1258690959076948 0.2925352196116992
2100000000.0 0.18435229611533072 -0.254532289441972
2120000000.0 -0.2862653807455209 0.12463460281095191
2140000000.0 0.3012264815446006 0.09274495045015833
2160000000.0 -0.30917467127207915 0.061330328103397655
2180000000.0 0.11960373903580769 0.2860546086964745
2200000000.0 0.20761700240629397 0.21485255276071635
2220000000.0 -0.1311835608847865 0.2589795597781454
2240000000.0 -0.22228309018790915 -0.18851782446921653
2260000000.0 0.2565685466354218 -0.12436193196130105
2280000000.0 0.18460191802750947 0.2167796797596644
2300000000.0 0.25041683640179385 -0.12971293848734225
2320000000.0 0.14071024543441865 -0.23285870692662933
2340000000.0 0.0703709587540472 0.2448554232572885
2360000000.0 -0.1964114293255445 0.15233999417291585
2380000000.0 0.14609356371745905 -0.19797831237608093
2400000000.0 -0.0163111900453329 0.2592117052796539
2420000000.0 -0.104291215974594 0.2591660364351984
2440000000.0 0.28669872759709214 0.11845669954362921
2460000000.0 -0.3325822990151146 -0.0845018256115831
2480000000.0 -0.24574973231850342 0.28053077820661787
2500000000.0 0.030041083076387382 -0.41051773042720463
2520000000.0 0.29852853196876433 0.34019523673864904
2540000000.0 -0.46988117234193166 0.14494268856410525
2560000000.0 0.2957241369841596 -0.4323061618415428
2580000000.0 -0.15424265957180272 0.5336163393413779
2600000000.0 -0.15253977666712734 -0.5630112518601331
2620000000.0 0.3680982896778248 0.48183262274040184
2640000000.0 -0.6042696630122426 -0.15955044084840675
2660000000.0 0.5296295257331401 -0.3603283469029533
2680000000.0 0.2916003736758247 0.5798793862752615
2700000000.0 -0.4441315725397708 0.48319927558236536
2720000000.0 -0.6337962440610944 0.19388103147540642
2740000000.0 -0.6442733056376642 0.16101944139373464
2760000000.0 -0.657201054272188 0.10235446698081796
2780000000.0 0.019811589428987572 -0.6567660763670431
2800000000.0 0.33884071136854194 -0.5529291622358765
2820000000.0 0.6040110859306916 -0.19769021761793268
2840000000.0 0.15322476269024457 0.6015537494960811
2860000000.0 -0.2918550257227228 -0.5283004811387505
2880000000.0 0.05154488427862516 0.5839807444045229
2900000000.0 0.5387650105945316 -0.1674799884200903
2920000000.0 0.05368012911768824 -0.5387311589108366
2940000000.0 -0.32572544745088 -0.4023395726962267
2960000000.0 -0.2647246240902849 -0.4167826401946135
2980000000.0 -0.33920140772195684 -0.3296403008544625
3000000000.0 -0.4522028937982155 -0.02242536457223998
3020000000.0 -0.34464811595710376 0.26308952033293204
3040000000.0 0.2689480983447654 0.31784277282377266
3060000000.0 -0.059556318617328664 -0.39394634243554616
3080000000.0 -0.2905557621178463 0.24911598600534815
3100000000.0 0.26279932203644024 -0.2689995047156742
3120000000.0 -0.3664061762872656 0.0015649510712125356
3140000000.0 0.3118492725244679 0.18250297958592307
3160000000.0 -0.3576829540369448 0.06245390770852332
3180000000.0 0.2881950811182711 -0.21471511948371783
3200000000.0 -0.35032771260074536 0.03926080410808964
3220000000.0 -0.007346985595210577 0.34245643349804084
3240000000.0 0.29192486432900805 0.16503124654827567
3260000000.0 0.3169997182701583 -0.03415603129133481
3280000000.0 0.2588730006959582 0.15477351973430203
3300000000.0 0.23715941288304052 0.15376592661204386
3320000000.0 -0.02899715903642811 0.2559183559035388
3340000000.0 -0.21153268350328203 -0.07949322721937195
3360000000.0 -0.010661158752394238 0.2046943274831538
3380000000.0 -0.09972912185981689 -0.1538894887366007
3400000000.0 0.05083819494084934 0.15479706163712414
3420000000.0 -0.0014916114020492187 0.1485574171818248
3440000000.0 0.11128549825645637 -0.06709745412219767
3460000000.0 -0.08178151330482093 0.06751404573442958
3480000000.0 -0.03853256731037576 -0.09091748944491213
3500000000.0 -0.09441694531547161 0.02507343000849843
3520000000.0 0.029661256988034748 -0.093159034635492
3540000000.0 0.06778520002967008 0.07143345981716544
3560000000.0 0.07328111522972268 -0.0792695579209836
3580000000.0 0.10344518475636937 0.027396815393471437
3600000000.0 -0.04954940096380829 -0.10195147191645831
3620000000.0 -0.12402773990680516 0.008208571603186849
3640000000.0 -0.11218837394936615 -0.06441428812091848
3660000000.0 0.09834727462246338 -0.09302597110158091
3680000000.0 0.13828186956347133 -0.017680806268908115
3700000000.0 -0.01980734484723922 -0.12473841340153774
3720000000.0 0.06179349163191217 -0.09060070826786427
3740000000.0 -0.09561482459080364 -0.0063948189069523076
3760000000.0 0.07211334458113823 -0.022186779012219052
3780000000.0 -0.056860741178271904 0.002069561992194917
3800000000.0 -0.024620356527158643 0.020747627903458132
3820000000.0 0.0015467285585380154 0.0005522092976910284
3840000000.0 0.017629849148118888 -0.03657392184722045
3860000000.0 -0.06991417835685491 -0.0024644857766189217
3880000000.0 0.08807984846427842 -0.02918615118598632
3900000000.0 0.01785165043838671 0.11180100134312414
3920000000.0 -0.06474318474549695 -0.1018365623645369
3940000000.0 -0.13220457728294063 -0.02273407739367798
3960000000.0 0.09597015575324153 0.09094576740301442
3980000000.0 0.00905450866099899 -0.12624038937061896
4000000000.0 0.08871801762250939 0.055126308113675256
