!Created with skrf (http://scikit-rf.org).
# Hz S RI R 50.0 
!freq ReS11 ImS11
400000000.0 0.8898974101498172 0.1807759482607697
420000000.0 -0.04392964033635811 0.8735279915855692
440000000.0 0.3184292394675554 0.7915753937804647
460000000.0 -0.8013493110829354 0.16646493699142093
480000000.0 0.6704128848783624 0.406723435766528
500000000.0 0.588709418066875 -0.453826206954178
520000000.0 -0.7080777737514643 0.05622927338140598
540000000.0 0.6400050413690864 -0.12860158196123672
560000000.0 0.5931171600454836 -0.10068302196851998
580000000.0 0.10927092376426213 0.5445536788862099
600000000.0 -0.2237138544657498 -0.4920479609809437
620000000.0 0.5409958139633851 -0.02520595676530595
640000000.0 -0.528471923956695 -0.04383211491270566
660000000.0 0.419485379997103 -0.2664875959450369
680000000.0 0.4175930245510092 0.2107164422817831
700000000.0 -0.44752628882782863 0.14162780880804343
720000000.0 -0.3464990417341615 0.2940410881276917
740000000.0 -0.062230555049946276 -0.4334862173996309
760000000.0 0.30759391197912217 0.2878124052198823
780000000.0 0.30420447318355653 0.2852897268510302
800000000.0 0.3223339923900424 0.17602614605639474
820000000.0 0.3059242769329557 0.02918310063772476
840000000.0 0.022928230967254774 0.28222828163863894
860000000.0 -0.09124375826303922 -0.24686954947936718
880000000.0 -0.07257517373186487 0.21280108275253987
900000000.0 -0.1274214643392153 -0.17691574066522808
920000000.0 0.17591078770919288 0.09587264165621479
940000000.0 -0.031015031882553147 -0.17124208235039426
960000000.0 -0.11358499577510367 0.02853296553164912
980000000.0 0.06935412826329208 -0.006047805894984947
1000000000.0 0.051181422235266845 0.023427794000672447
1020000000.0 -0.04380744988815805 0.007154762006172022
1040000000.0 -0.04128895651976512 0.06910934893122007
1060000000.0 0.12218302235562849 -0.04999405354881823
1080000000.0 0.0771231602541059 0.1589920279270548
1100000000.0 -0.20564928359805962 -0.08107853903883186
1120000000.0 0.17416775905721277 -0.17407957056040477
1140000000.0 0.08535884259186075 0.24514610354925503
1160000000.0 0.22668945279295613 -0.17942986215832055
1180000000.0 0.1882509120715362 0.25243138688655914
1200000000.0 -0.0013002320941007644 0.3359186972839805
1220000000.0 -0.2503100160595479 -0.2420023190714796
1240000000.0 -0.14480937026215757 -0.3331708476358618
1260000000.0 -0.1781928748291663 -0.31279850053642294
1280000000.0 -0.1581616062380887 -0.3435684414122691
1300000000.0 -0.3378519696520853 0.15812097430451313
1320000000.0 -0.13565387144637067 -0.35142820009812104
1340000000.0 0.2132473372557545 0.3027272995649409
1360000000.0 0.004914758655558364 -0.3757632090344701
1380000000.0 0.38185327070572755 0.1062378435311597
1400000000.0 -0.10777943054570933 0.3685892008191965
1420000000.0 -0.23174662056438677 0.29105068194536154
1440000000.0 -0.32187702479041774 0.17567441144199533
1460000000.0 -0.3317326880117516 0.15607637376534653
1480000000.0 -0.14595329366049992 -0.33961417572844843
1500000000.0 -0.3430746021381412 0.16266073812908854
1520000000.0 -0.28267427376462784 -0.2453416781853184
1540000000.0 0.29510322858574617 0.19476493470452472
1560000000.0 0.22697519886875192 0.23391397067203004
1580000000.0 -0.24113761597421812 0.14035982581691214
1600000000.0 0.07060036534369875 -0.23463889338482943
1620000000.0 0.059974373171686475 -0.20610180833781705
1640000000.0 0.11811047125755567 0.1283928709190256
1660000000.0 -0.044721201866092346 0.14470269762871335
1680000000.0 -0.10120519908149204 0.061867896786745986
1700000000.0 -0.07844217310815393 0.06615588889104368
1720000000.0 0.04233845556068919 -0.06179153375449485
1740000000.0 0.033124793839253534 -0.0726603220886038
1760000000.0 0.07700533721727704 0.03338537945471591
1780000000.0 -0.09841363256114946 0.025069277355106386
1800000000.0 -0.10304040093555274 -0.0701244507948552
1820000000.0 0.049438316418468416 0.14580932587439704
1840000000.0 0.09417511253902854 0.14872540532832448
1860000000.0 -0.21189899263118706 -0.034081361062591665
1880000000.0 -0.23011862207851463 0.047860345072894314
1900000000.0 -0.19214438854201166 0.1789483143827588
1920000000.0 0.2674668819831258 0.09520844731813215
1940000000.0 -0.1560221439876245 -0.25603259508880716
1960000000.0 0.14480153303398025 0.2615224561134241
1980000000.0 -0.15607430200906655 -0.26327681930213637
2000000000.0 0.27787014166186075 -0.14804731252693798
2020000000.0 0.2773571374016139 0.15187844706067952
2040000000.0 0.24623958600644616 0.2060311046006439
2060000000.0 0.2290612230678796 0.22341226969991385
2080000000.0 -0.1637651230046454 0.2726061534578549
2100000000.0 0.18003244375370994 -0.25834020431163385
2120000000.0 -0.2781736920568089 0.14120160570751378
2140000000.0 0.3085326985810122 0.06521329706320352
2160000000.0 -0.3059644752641462 0.07556658623734921
2180000000.0 0.09958338197259188 0.2939043641128712
2200000000.0 0.21038645140036386 0.21240533386702387
2220000000.0 -0.14825499358779046 0.24930922857888876
2240000000.0 -0.22477188853327698 -0.18622643633018265
2260000000.0 0.26634646078466234 -0.10178104296014721
2280000000.0 0.20276691198870347 0.1998056061055317
2300000000.0 0.2580382523816978 -0.1129904250584731
2320000000.0 0.13995978924361427 -0.2333926294411791
2340000000.0 0.0955460038715336 0.23624479752003116
2360000000.0 -0.1824704389025555 0.16912803916693728
2380000000.0 0.169489623073691 -0.17854618208202644
2400000000.0 0.029785452841655614 0.258417170236048
2420000000.0 -0.10421761420574312 0.2596234890399893
2440000000.0 0.29080310761926276 0.10870833385554315
2460000000.0 -0.33400029310237794 -0.07886148173604678
2480000000.0 -0.21390269156890623 0.30535029108129197
2500000000.0 0.09169583400713438 -0.4011027282234055
2520000000.0 0.2693737104263293 0.3632457813812393
2540000000.0 -0.4670581164438934 0.15330361108513635
2560000000.0 0.30338373896084314 -0.4268325871439739
2580000000.0 -0.12433662774654992 0.5410979232436718
2600000000.0 -0.16779189611066522 -0.559000398025636
2620000000.0 0.3788847496455571 0.4732739229514894
2640000000.0 -0.600610843263832 -0.17240412937327723
2660000000.0 0.5372470045533652 -0.349594054119162
2680000000.0 0.33486919599515225 0.5560979565776989
2700000000.0 -0.4295781037713577 0.4963010491908562
2720000000.0 -0.6227232656020899 0.22742890369320656
2740000000.0 -0.6640050871744625 0.012442037559155164
2760000000.0 -0.6635661096082766 -0.021662962694033033
2780000000.0 0.05300288887011608 -0.6550413599868768
2800000000.0 0.30000489593425067 -0.5748611127802975
2820000000.0 0.6047343476446794 -0.19503119129961285
2840000000.0 0.14600796274707883 0.603142380366634
2860000000.0 -0.26870510841316086 -0.5401341619801305
2880000000.0 0.06399335603336909 0.5825336524749305
2900000000.0 0.5390239594784262 -0.16842296085446495
2920000000.0 0.07809165693737098 -0.5360222970729053
2940000000.0 -0.3345711161075765 -0.3952262836946306
2960000000.0 -0.2856435388118141 -0.4022887928074575
2980000000.0 -0.3333335307843174 -0.3349091497417943
3000000000.0 -0.44850770430365294 -0.06546685205928982
3020000000.0 -0.3384579567003805 0.2706201025666581
3040000000.0 0.36819451836700295 0.19204897951503885
3060000000.0 0.06506255892428205 -0.3928555030313985
3080000000.0 -0.26799674607491414 0.27376045299371365
3100000000.0 0.2572021731836055 -0.27362659888509044
3120000000.0 -0.3606968079499163 0.06968109790649311
3140000000.0 0.30927278256584095 0.18701349811667242
3160000000.0 -0.3562505959706341 0.06805931361414869
3180000000.0 0.3131957685319968 -0.17746039623082221
3200000000.0 -0.35105032816628234 0.03344069987669879
3220000000.0 0.0019338157979233606 0.34171400378975975
3240000000.0 0.2892663749599782 0.17174166030403215
3260000000.0 0.31738640328218265 -0.031387408887240946
3280000000.0 0.24534114863510853 0.1747019729135839
3300000000.0 0.21181890589702976 0.18687417000407444
3320000000.0 -0.006273354865677011 0.2568844476155588
3340000000.0 -0.21229402084596524 -0.07573705716135158
3360000000.0 0.009945992406027056 0.20505755567156583
3380000000.0 -0.1482011240789433 -0.10676768438807303
3400000000.0 0.05569032954979703 0.1533250517287347
3420000000.0 0.030722122161765612 0.14583480880679056
3440000000.0 0.11120502828798391 -0.0688264170372997
3460000000.0 -0.09036747676831586 0.054270552099417564
3480000000.0 -0.008286525449977279 -0.09856073606166617
3500000000.0 -0.09746697506139616 0.0006649766026987185
3520000000.0 0.05613892906394841 -0.0806963317106325
3540000000.0 0.05396729897427079 0.08188249338155774
3560000000.0 0.0841235876243301 -0.06662071101390411
3580000000.0 0.10019332414083153 0.03485537020260407
3600000000.0 -0.06597416550356248 -0.09251091542097474
3620000000.0 -0.11449077558723084 0.04709897112688035
3640000000.0 -0.1182814576934194 -0.0504368421315139
3660000000.0 0.08611929986584735 -0.10440961460779248
3680000000.0 0.12986883002585475 -0.05208487763002584
3700000000.0 -0.011306075453462376 -0.12545152479542004
3720000000.0 0.05595518529027373 -0.09457361001615704
3740000000.0 -0.08230314925474062 -0.04931922401510703
3760000000.0 0.07370790050904616 -0.018059001338480936
3780000000.0 -0.057057480353262746 -0.002921552119270852
3800000000.0 -0.029707396341074086 0.01266401965062165
3820000000.0 0.001616399022296135 0.0006264820420433152
3840000000.0 -0.008857079549283942 -0.0399585844344953
3860000000.0 -0.06926700672808128 -0.0007562300720506965
3880000000.0 0.09276326648452318 -0.006662538155842663
3900000000.0 0.04041733840920544 0.10603098168431982
3920000000.0 -0.10526579945976086 -0.05719935265894989
3940000000.0 -0.13455118429797155 0.0064724592907162305
3960000000.0 0.1151612847238303 0.06676654989813516
3980000000.0 -0.017333107339371427 -0.12646557384971618
4000000000.0 0.10482123103734045 -0.009669679683755025
