!Created with skrf (http://scikit-rf.org).
# Hz S RI R 50.0 
!freq ReS11 ImS11
400000000.0 -0.7157658904923739 0.4113930105256256
420000000.0 0.5510822122181604 -0.5048081836223216
440000000.0 0.5801542316288826 0.4177219510102988
460000000.0 -0.4350010205121071 0.521126453505428
480000000.0 0.4633583955695185 0.356513685639473
500000000.0 -0.21412261169409716 -0.4220324633259596
520000000.0 -0.3514657168638041 -0.17817537828057367
540000000.0 0.3269213022552343 0.3418766415543487
560000000.0 0.0009921499409283184 -0.47334657784815753
580000000.0 0.4169495146113734 0.07052130188700766
600000000.0 -0.3374790365833223 -0.1431150696300612
620000000.0 -0.12798291789016458 -0.3385575597547108
640000000.0 0.3616520919939715 -0.04859560346268987
660000000.0 0.038726633544068634 0.348597651039131
680000000.0 0.33249707521998123 0.06809472294527141
700000000.0 -0.28111734627360757 0.1819309290756848
720000000.0 0.3406328956220685 -0.08229440403921857
740000000.0 0.2918029809644254 0.12199495964163125
760000000.0 -0.2697479167409955 -0.16062171073140816
780000000.0 -0.28597968652737293 0.056881170434628904
800000000.0 0.18329431802392826 -0.16410898071175412
820000000.0 -0.21680600615409473 0.001804668381140928
840000000.0 0.0046248189472859426 -0.21279669805157808
860000000.0 -0.1769025667359369 0.03983111002023006
880000000.0 0.15057098014474155 0.11006690619095041
900000000.0 -0.11883550748462361 -0.10756321147889003
920000000.0 0.15007885681419592 0.004686791131735048
940000000.0 0.13258334512690031 0.020932426619196073
960000000.0 0.05856161146713411 0.09409069918498535
980000000.0 0.018936068895900982 -0.06690279805614054
1000000000.0 0.008367228364597714 -0.03685344758850263
1020000000.0 -0.045376473751585523 -0.008671029049611664
1040000000.0 0.00398878799900341 -0.07659990283073842
1060000000.0 -0.0006245646868275066 0.11357727236069114
1080000000.0 0.12254572791108964 0.09847490728385871
1100000000.0 0.12669218616426875 -0.1262017947958338
1120000000.0 -0.18118754445971894 0.10869818361343704
1140000000.0 0.09811349776991093 -0.23169920242234956
1160000000.0 0.2847623143093389 -0.010419909414953306
1180000000.0 0.30827367939927103 -0.025713162372910728
1200000000.0 0.3097138175714361 0.09156983016628104
1220000000.0 0.3240036269370098 -0.002519936622555641
1240000000.0 -0.23603068267435479 0.22943785860139723
1260000000.0 -0.33624614973834893 0.014777049372570327
1280000000.0 -0.3333391007496872 -0.060210087450450804
1300000000.0 0.22065839773360757 -0.2703820495204896
1320000000.0 0.1749927927194168 -0.3137254653652177
1340000000.0 -0.1278790082837749 0.34242021693725533
1360000000.0 -0.3545918497122631 -0.13102570961075594
1380000000.0 0.17745941500383866 -0.33288532903516993
1400000000.0 -0.28261245573094773 0.24625783225961628
1420000000.0 0.3103883697024922 0.2015426857653791
1440000000.0 0.36494846257121294 -0.00969045076397555
1460000000.0 0.23340341785710564 -0.2733312017958464
1480000000.0 0.055987614991902725 -0.3452885101193013
1500000000.0 -0.1144477176376257 0.31908863952650385
1520000000.0 0.2913339527792802 -0.11285899522026595
1540000000.0 -0.23764482995593864 0.1458363311252032
1560000000.0 0.03774376838900151 0.23787202958834092
1580000000.0 0.13451785616189602 -0.16649107475944624
1600000000.0 -0.045147225700296965 0.17439658360269084
1620000000.0 0.13150675555630523 -0.08834063678007333
1640000000.0 0.04912474987942157 -0.12238562792408399
1660000000.0 -0.058629403559623185 -0.07550928934974778
1680000000.0 -0.004592359557834486 -0.08863377483873036
1700000000.0 0.015753440300384388 0.07536110872737743
1720000000.0 0.032898497242546544 -0.040702839442495475
1740000000.0 0.004412470884796129 -0.04922427086734551
1760000000.0 0.004680230537737413 -0.06660753153778849
1780000000.0 -0.09453068850630808 0.02169609919430132
1800000000.0 0.03360240922665076 -0.12281055026820396
1820000000.0 0.15498895960532008 -0.030353045955207218
1840000000.0 0.119031708170453 0.1566147760359933
1860000000.0 0.1711671964871447 -0.14608041132121913
1880000000.0 0.20511702455798791 -0.12948139325054844
1900000000.0 0.23330314669538957 -0.13326375850889485
1920000000.0 -0.25845970592515277 -0.1357761095027572
1940000000.0 0.27591879485262366 0.1312130140040876
1960000000.0 -0.3135238866242094 0.0070734713726907355
1980000000.0 -0.1255770823744679 -0.28708848833749206
2000000000.0 0.3108037709058088 0.04935116535472952
2020000000.0 0.2699761283501011 0.15128600131501443
2040000000.0 0.007778763806904534 0.3109884768080032
2060000000.0 -0.06408015642873709 0.30130361048466875
2080000000.0 -0.3005898920755287 0.02914196104290533
2100000000.0 0.22101108387520865 0.2120575131054043
2120000000.0 -0.29892870271611205 0.07500870594868601
2140000000.0 -0.04093956638202885 -0.29805283911793856
2160000000.0 -0.13864006114339317 0.26426741122190395
2180000000.0 0.2333199282564725 0.1709065971017791
2200000000.0 0.2631146458772858 -0.10116264861584974
2220000000.0 0.15251480735059292 0.22739095993737685
2240000000.0 0.151948829341974 0.226982756622621
2260000000.0 -0.1611055206206297 0.19838293495053008
2280000000.0 0.013333950874601264 -0.24545130213865818
2300000000.0 0.20852713557183253 0.12444451369359805
2320000000.0 -0.01145650226653261 0.22943804487347352
2340000000.0 0.21509253914429405 -0.06236196745396833
2360000000.0 -0.15486237147699783 0.1582846434096589
2380000000.0 0.20434004430860433 -0.10677781262978474
2400000000.0 0.1911754341248265 0.16513889342259847
2420000000.0 0.22238186122561437 -0.16788078560465508
2440000000.0 -0.2160119013182121 0.21745383175270322
2460000000.0 0.0781155337672764 -0.328203472115076
2480000000.0 -0.3674943719891895 0.05278383029272014
2500000000.0 -0.12122160125432854 -0.3928110540128557
2520000000.0 0.43620994142250996 -0.09408409283011945
2540000000.0 -0.11709924590819674 0.4641910820651074
2560000000.0 -0.251030615035426 -0.44837555112762506
2580000000.0 0.5029047383578042 0.212581595367284
2600000000.0 -0.5399011774603971 0.1922010866569439
2620000000.0 0.3324782512830849 -0.49311280473794356
2640000000.0 0.0589481520787912 0.609767569003371
2660000000.0 -0.5970211100351562 -0.1901535799757284
2680000000.0 0.21700137837412026 -0.5967870562358469
2700000000.0 0.6381963438123708 -0.07270161611371431
2720000000.0 0.6143525288389503 0.19694381166539468
2740000000.0 0.5361025830641194 0.36053111415293787
2760000000.0 0.5103384821807256 0.3928931481243951
2780000000.0 -0.5891104775495318 0.24014032274880096
2800000000.0 -0.6022879534135269 -0.17926896985577565
2820000000.0 -0.09910993821702675 -0.6078541139879594
2840000000.0 0.5612817494710148 0.21968967552008584
2860000000.0 -0.5736041056228708 -0.14586895409639422
2880000000.0 0.5039740410173935 0.28085694799080835
2900000000.0 0.1112012168740773 -0.5486165574605054
2920000000.0 -0.5238530619146233 -0.1317063038069413
2940000000.0 -0.34498130037680463 0.3840471749774429
2960000000.0 -0.03493546818751612 0.4926206037136779
2980000000.0 0.40446402859763775 0.24590098756891965
3000000000.0 0.22975732716054315 -0.38754294917558246
3020000000.0 -0.42279164434023037 -0.04531306022185204
3040000000.0 0.06367088846639798 0.3951876931445989
3060000000.0 -0.04927704801798516 -0.3732703352106415
3080000000.0 -0.007960057774418685 0.35114201984611887
3100000000.0 0.18769458983541354 -0.2764078344271252
3120000000.0 -0.13075739077412257 -0.298961858407691
3140000000.0 0.2036137421471144 0.24240025956486255
3160000000.0 -0.005569811180161619 -0.3144567695424162
3180000000.0 -0.08368170311951627 0.3038544522766295
3200000000.0 0.03020373118253756 -0.304713899057224
3220000000.0 -0.28970779794268353 -0.052739352043132716
3240000000.0 -0.2777410903729629 -0.013156634348813237
3260000000.0 -0.14067039557283242 -0.22334536830142054
3280000000.0 0.13783404583618578 -0.20528496773696214
3300000000.0 0.06473353342060638 0.22176699259953864
3320000000.0 -0.20919269009251446 0.03704711447861142
3340000000.0 0.08410185724866863 -0.17463102807410724
3360000000.0 -0.1226228406675316 0.1178132672502163
3380000000.0 0.02723403723335848 -0.14157579841078852
3400000000.0 0.11772823040084499 0.033305899561443295
3420000000.0 0.1081473450165551 0.026574290540079173
3440000000.0 0.053410954149262724 -0.08730298077437755
3460000000.0 0.0037140648123386174 -0.09773206377352235
3480000000.0 0.04597688051507349 -0.07385988659870561
3500000000.0 -0.07168524730139242 0.017267658361273603
3520000000.0 -0.06641080794904045 -0.013538275980338835
3540000000.0 -0.052363100514268235 0.03571377042274977
3560000000.0 0.02489081425219194 0.05972115597958947
3580000000.0 0.06833790254687937 -0.02795268479405603
3600000000.0 -0.07827387313937613 0.02943649158685831
3620000000.0 0.05677973101075126 0.07797633743148794
3640000000.0 0.1025074271617702 0.02120858081315331
3660000000.0 -0.0599371625913234 -0.08547699167583868
3680000000.0 -0.020104108459277868 -0.09896603889947257
3700000000.0 -0.0696521244931973 -0.06495742974020637
3720000000.0 0.07975978107799707 0.033310389812476665
3740000000.0 -0.02843970090300423 -0.07083052732098102
3760000000.0 -0.026195802613376878 -0.06546456057634062
3780000000.0 0.05735337404043561 0.01918927438434023
3800000000.0 0.04614557664799836 0.007564884800445026
3820000000.0 0.015147156742480499 -0.033258623016094724
3840000000.0 -0.03573024182079756 -0.04208341909765964
3860000000.0 -0.06355291007260588 -0.03948016746041006
3880000000.0 -0.09211173263292578 -0.029961069566385654
3900000000.0 -0.061392871845394124 -0.0828581859933843
3920000000.0 -0.07036880443107742 0.07861083459489672
3940000000.0 0.10174597753295606 -0.03507965292106141
3960000000.0 -0.10001728280483244 -0.0378850702354982
3980000000.0 0.01424381394551762 0.09445781331094036
4000000000.0 0.07883840212264197 -0.028073389810519874
