!Created with skrf (http://scikit-rf.org).
# Hz S RI R 50.0 
!freq ReS11 ImS11
400000000.0 -0.6694267648853316 -0.5050595608387836
420000000.0 0.6032627768315948 0.5013279045099833
440000000.0 0.08547660473393952 0.7481983488728312
460000000.0 -0.6252241051759813 0.29994905664144916
480000000.0 -0.3395975515511365 -0.49225663646431367
500000000.0 0.5206103810069931 -0.011492661893983097
520000000.0 -0.01770226181878 0.4054735434457522
540000000.0 0.2458226551411638 0.38645826683188916
560000000.0 0.3316616323436364 -0.3472007885713831
580000000.0 0.42023790380273673 -0.085653624978272
600000000.0 0.20709831347835556 0.3354254178382683
620000000.0 0.361366254871337 -0.03573795465267401
640000000.0 -0.2255842851030791 -0.274233039447601
660000000.0 0.24731966018925206 0.2537176072918059
680000000.0 0.3474873833832599 0.023944078135681963
700000000.0 0.23328526056590457 0.26364826615623715
720000000.0 0.26079292757386097 -0.22811855954481663
740000000.0 -0.1646873705140471 -0.28510674881071385
760000000.0 0.2813944315064073 -0.12320730251091765
780000000.0 -0.27099280089659455 0.019326496767554865
800000000.0 -0.05712401072744837 0.23557645969641
820000000.0 -0.20800156313822382 0.04048855496982606
840000000.0 -0.19629290403646876 0.018229844500666132
860000000.0 0.1728643512498018 -0.06354746985720594
880000000.0 -0.056375969784015545 -0.18290068291149977
900000000.0 0.055806798691183615 -0.14620570381466025
920000000.0 -0.09954735716856385 0.09951348922827889
940000000.0 -0.12348183980001776 -0.04206314595489901
960000000.0 -0.10671009215150719 0.011733180583968194
980000000.0 0.06504062462716532 -0.010080361660583985
1000000000.0 0.033261596104381265 0.014665858062396727
1020000000.0 0.040476046169725964 0.00679212218007376
1040000000.0 -0.05561516871505898 0.04337773375738578
1060000000.0 -0.11255137207217682 0.024792740232217787
1080000000.0 0.07383101458030102 -0.13416319453308725
1100000000.0 0.06542469253460788 -0.181022454330021
1120000000.0 0.21978160230605706 -0.07188667031364948
1140000000.0 0.27200027376484115 -0.010900751053674626
1160000000.0 0.19521304688579097 -0.2175488642547057
1180000000.0 0.20251400408308456 0.2508886725403469
1200000000.0 0.32980137627284273 0.054565029667651706
1220000000.0 0.12554132219070716 0.3138788177664285
1240000000.0 -0.16057165675441298 0.2978690076966605
1260000000.0 -0.301995343972532 0.1464263503439881
1280000000.0 0.0836981804060579 -0.3370555589497625
1300000000.0 0.005861588193172308 -0.3592056887642989
1320000000.0 0.2928620966563564 -0.20207749170036157
1340000000.0 -0.10314533866677207 0.3579455285633727
1360000000.0 -0.3395435030323551 -0.1783277508042249
1380000000.0 0.03157713221499792 -0.3803771821646719
1400000000.0 -0.07379046042791683 0.36869498974877246
1420000000.0 0.2692662869485979 0.24139939978804265
1440000000.0 0.31974460304596364 -0.15493388119450235
1460000000.0 0.34943694881120274 -0.05096143731440359
1480000000.0 0.21078655780664188 -0.26611136139607566
1500000000.0 -0.33385084896482237 0.0074849003582587136
1520000000.0 0.21187348975552828 -0.2311057618525543
1540000000.0 -0.08283007988869726 -0.26481089602028607
1560000000.0 0.0118139051605558 0.25088661706818277
1580000000.0 -0.08504789966675139 0.19638345037243277
1600000000.0 0.1449355184680143 0.09791795327788592
1620000000.0 -0.046675323946570015 -0.14366281878303588
1640000000.0 0.10718658611296773 0.07523643614593442
1660000000.0 0.046272294714238556 0.0964160512996879
1680000000.0 -0.0811079260300609 0.02879076027422499
1700000000.0 0.0026303118947424617 -0.0708228593249722
1720000000.0 0.053104312953500835 -0.00021767716376713142
1740000000.0 -0.050730648569160375 -0.001607530919656306
1760000000.0 -0.048682036113797435 0.032805176420361716
1780000000.0 0.010133011829141074 0.08064994124021001
1800000000.0 0.018454514489884347 0.12029807706782038
1820000000.0 0.10998671676955041 0.1201446908341053
1840000000.0 0.1315438880691005 0.13272471612069056
1860000000.0 0.13448959096126095 0.1774615421272959
1880000000.0 0.24195121313570836 -0.0033029087498100086
1900000000.0 0.15268814404155187 -0.21625696632083177
1920000000.0 -0.17524673365780075 -0.22722250852648207
1940000000.0 0.05162791484312971 0.2998574525103094
1960000000.0 -0.25702560509821687 -0.18284215629882763
1980000000.0 -0.13337305792238777 -0.2920891229893032
2000000000.0 -0.0714659247413154 -0.3091731316476113
2020000000.0 0.3130255727666108 0.03661942626642575
2040000000.0 0.30078536658808946 -0.08038382406328878
2060000000.0 0.26384359507928834 0.15487984236000157
2080000000.0 -0.3005068762017389 0.06392068385383035
2100000000.0 0.2807159656868588 -0.13878968401658395
2120000000.0 0.003408828706539606 0.3101586002975728
2140000000.0 -0.26842146839035264 -0.14935601948226254
2160000000.0 0.06431724940370614 0.29594658710908583
2180000000.0 0.2906712607840384 -0.040068917250061196
2200000000.0 0.21648637754134378 0.1882678805667366
2220000000.0 0.1544230103279307 0.23544264869717257
2240000000.0 -0.1066749414193273 0.25360737376807335
2260000000.0 -0.23146657040223564 -0.13467390052397657
2280000000.0 -0.008569671098279377 -0.2558005013044908
2300000000.0 0.23804535708727814 0.04864731153773003
2320000000.0 -0.2283363366687011 0.06208398107867473
2340000000.0 0.22178454464759118 -0.04414869774255426
2360000000.0 -0.2212412719526399 -0.04561366216896583
2380000000.0 0.20704675095443303 0.11141566798563093
2400000000.0 0.12284168081165892 0.2198877877361634
2420000000.0 0.1351231029688276 0.24363676051147184
2440000000.0 -0.17463856074780476 -0.26091537631372863
2460000000.0 0.309739513662854 0.14609030072667048
2480000000.0 -0.0014772794095776825 -0.37534452847107513
2500000000.0 0.40300464332361996 0.09145621323962759
2520000000.0 -0.2625266527706747 0.36975569010486725
2540000000.0 -0.18093231185743236 -0.4536052246733585
2560000000.0 0.46476049502384337 0.23925401369290072
2580000000.0 -0.543650108766929 0.11231071586690743
2600000000.0 0.4908608409063069 -0.31557740628124886
2620000000.0 -0.1941786543056535 0.5749881025640632
2640000000.0 -0.2362309892469043 -0.5790614422287418
2660000000.0 0.6369922935830112 0.06890719463338192
2680000000.0 -0.07339154573242335 0.6456369430544985
2700000000.0 -0.5890681698298762 0.29544426841553545
2720000000.0 -0.6487703778137488 0.14011256723572424
2740000000.0 -0.6639551689264627 0.04587709114005124
2760000000.0 -0.6672438369765227 -0.00043172166747619436
2780000000.0 0.07808217054930401 -0.6561635895709461
2800000000.0 0.3341824930152136 -0.5593049277156967
2820000000.0 0.6311376063415587 -0.11638412059571047
2840000000.0 0.15027146500722277 0.6112492135732573
2860000000.0 -0.37101799407354585 -0.49106087742086846
2880000000.0 0.22746877063098062 0.5561519298172176
2900000000.0 0.24205779026474125 -0.5286515293686164
2920000000.0 -0.4789389303806087 -0.2880528959557776
2940000000.0 -0.399467972083393 0.35727823185291524
2960000000.0 0.06158453952935197 0.5073558977641369
2980000000.0 0.4635203446040237 0.15559378620851433
3000000000.0 0.14019344082981477 -0.4455855265941317
3020000000.0 -0.4364301757893527 0.047699473235531524
3040000000.0 0.34446197520204425 0.23283953790614165
3060000000.0 -0.21865253922635827 -0.32453640962359986
3080000000.0 0.02085147745781889 0.36893170826553395
3100000000.0 -0.26344943352308775 -0.23341081108726872
3120000000.0 -0.3230518903644129 -0.1140801942635505
3140000000.0 0.3363661759103085 0.006385672115998021
3160000000.0 -0.2718281042011943 -0.19105089415877277
3180000000.0 0.3202083048399699 0.08735738782915463
3200000000.0 -0.09977164677458294 -0.307355065579565
3220000000.0 -0.044568212505483734 0.3100278781061827
3240000000.0 0.08728676387988166 0.27864032365849156
3260000000.0 -0.21444353568588492 0.17202751773657937
3280000000.0 -0.06147172211230394 -0.2453226186060918
3300000000.0 0.10561182438549338 0.21554091726687785
3320000000.0 -0.21160988508602097 -0.066457721514838
3340000000.0 0.18428908342763348 -0.09128316331888167
3360000000.0 0.16335455128299625 0.08383240897381064
3380000000.0 -0.005836506383739627 -0.15386789783582697
3400000000.0 -0.05186910406697441 -0.12366082599922527
3420000000.0 -0.06492640266824042 0.10338433913596831
3440000000.0 -0.013763280244855602 -0.11106364221289303
3460000000.0 -0.0265856266818206 0.0992064454522335
3480000000.0 -0.018813496086260904 -0.09077953867863009
3500000000.0 0.06014256316895692 -0.0479304178835833
3520000000.0 0.07059112286845294 -0.013297780209842682
3540000000.0 0.03741140487661852 0.05189496890625419
3560000000.0 -0.04337361601372607 0.05490582733886011
3580000000.0 0.07560108936322138 -0.018678016487646127
3600000000.0 0.08354461931388593 -0.035562135979130126
3620000000.0 -0.0955808601664718 0.04171395280913188
3640000000.0 0.06321122965452351 0.09215354669199731
3660000000.0 0.1128693421131071 0.014326673520061022
3680000000.0 0.044192161902894746 -0.0982281402685609
3700000000.0 -0.06436595053259428 -0.08292200821063689
3720000000.0 0.09164397374569663 -0.01630234259833543
3740000000.0 0.02977454304231098 0.07960342587748424
3760000000.0 0.05188051586161402 0.05234443169497595
3780000000.0 -0.041462443577902644 0.05154216612944274
3800000000.0 -0.003712309492711468 0.04627304682683046
3820000000.0 -0.03787645211916321 -0.0064815829856881045
3840000000.0 0.051075705487579635 0.02271084840465054
3860000000.0 -0.049507288345688016 -0.05699682380942813
3880000000.0 0.08284797178847393 -0.03892287104755778
3900000000.0 0.08745696930314363 0.05434042783745405
3920000000.0 0.09882818187919352 -0.030245843408512517
3940000000.0 -0.10071287734969342 0.03139695817308001
3960000000.0 -0.058364120624835356 0.08304434967928974
3980000000.0 0.09029854940653073 -0.03415052074049702
4000000000.0 -0.07728922463996306 -0.031792512191783896
