!Created with skrf (http://scikit-rf.org).
# Hz S RI R 50.0 
!freq ReS11 ImS11
400000000.0 -0.5102440594325206 -0.6572450160591572
420000000.0 0.0978229987940048 0.7825346485855582
440000000.0 -0.17782097250199355 0.7425268345061148
460000000.0 -0.6992784741872964 0.10004816202035129
480000000.0 -0.34607055979013607 0.49904809279754453
500000000.0 0.5171600723308197 -0.09103078940254392
520000000.0 0.3804625132595759 -0.10371426374646779
540000000.0 0.20962173608604334 0.4088933441323527
560000000.0 0.1230193582600175 -0.4538115985537804
580000000.0 0.15624670025784956 0.4047558663339316
600000000.0 0.2952913350098147 0.25884738901061904
620000000.0 0.2620639334123024 -0.26170091678391527
640000000.0 -0.35478805890741905 0.007958292221389157
660000000.0 0.13953870454260603 0.3294090886464783
680000000.0 0.3100823056373482 0.15515409866428856
700000000.0 0.33876415445577585 -0.0998265955871947
720000000.0 -0.08349864841421771 -0.33213326289737366
740000000.0 -0.2513589367005407 -0.20618820583044148
760000000.0 0.22637131145567857 -0.1987043471228223
780000000.0 -0.1912895624706059 -0.1919559122286404
800000000.0 0.0036069215232306558 0.24887530559646762
820000000.0 -0.07915614566891357 0.20558284456202108
840000000.0 0.009031246492209303 0.1957024882339255
860000000.0 -0.1385060322779832 0.11828247348333731
880000000.0 0.14690364030403472 -0.10205401995602675
900000000.0 -0.15384565561631272 -0.0006032452343371048
920000000.0 -0.12006450280924058 0.07492335477071632
940000000.0 0.027421979429151467 -0.13527075382958872
960000000.0 -0.043691535131568884 -0.0972090411801353
980000000.0 0.06608128302920915 0.007946932871402832
1000000000.0 6.181729126045718e-05 0.04029700426056347
1020000000.0 0.02925794286244346 -0.01488993733130778
1040000000.0 0.009895697028017571 0.07166811777447794
1060000000.0 0.11386552788885705 -0.01846288414166122
1080000000.0 0.14739256801512524 -0.020288640319724948
1100000000.0 0.13956253610935554 -0.12950800632580572
1120000000.0 0.18454931336457225 -0.13537948978713124
1140000000.0 0.19369457985802718 -0.18367211666718575
1160000000.0 0.2743318744125672 -0.09990945167588962
1180000000.0 -0.029548795827483737 0.3177751493858414
1200000000.0 0.11816416285329441 0.31497945913594944
1220000000.0 0.09472630183578627 0.33106358787192774
1240000000.0 -0.0042381740642519075 0.33970386722290963
1260000000.0 -0.2968740328986446 0.1633983269194221
1280000000.0 -0.2478157359856126 -0.24080893106999052
1300000000.0 0.15425157767984804 -0.3197663334393571
1320000000.0 0.3489809548041226 -0.07055048405578812
1340000000.0 -0.20125211864038978 0.31342104218992345
1360000000.0 -0.3044423063630493 -0.23136836227015098
1380000000.0 0.006647024958365237 -0.38138612591963
1400000000.0 -0.2679664373083645 0.26292603158476446
1420000000.0 0.12193762310832293 0.3432651411044796
1440000000.0 0.3388622010145733 0.12646369440909155
1460000000.0 0.2071663212057451 -0.2928442280412559
1480000000.0 -0.20002739752364787 -0.27690574341565916
1500000000.0 -0.22767552142226738 0.24108256340872378
1520000000.0 0.20974653348135597 -0.23202354360076446
1540000000.0 -0.27559666381245695 0.04074385648702394
1560000000.0 0.22785802416087975 0.08196736671578554
1580000000.0 -0.20748371303565 0.010677957342189771
1600000000.0 -0.1378289425750911 0.10230019335329346
1620000000.0 0.1418530950209003 -0.057244897446359654
1640000000.0 0.12622143731800423 -0.04384383826856639
1660000000.0 -0.050279450323136736 0.08888285222515628
1680000000.0 -0.0819762862256979 0.02709167287441836
1700000000.0 0.06786826613784507 0.03242714887477599
1720000000.0 -0.029184502953165714 0.044956251271445175
1740000000.0 0.01718792709666337 -0.04550997369424475
1760000000.0 -0.016544770881403232 0.055543518336041924
1780000000.0 0.08034177177048268 0.030096667096860385
1800000000.0 0.11272464692424143 -0.04415103817496669
1820000000.0 0.12495003984324374 0.09613448222312017
1840000000.0 0.06504572398445789 0.1745619752307627
1860000000.0 -0.021055928478864186 0.22177098538577997
1880000000.0 0.2451397367875588 -0.016060444462639392
1900000000.0 -0.039618500698208166 -0.2621759354917435
1920000000.0 -0.21764034840015242 -0.18629369151800285
1940000000.0 0.07803856053999801 0.29144557708537416
1960000000.0 -0.30760009575747366 -0.05878216629923974
1980000000.0 -0.05429571046830534 -0.3133118084330903
2000000000.0 0.07129597574015642 -0.30975477600237145
2020000000.0 0.30643766230237907 0.07356357525387869
2040000000.0 0.30768525232011623 0.05947578647481847
2060000000.0 0.2707012416465599 0.14759366491688528
2080000000.0 -0.2813326267549143 0.12283642166071376
2100000000.0 0.3071465230369993 -0.06194506528011721
2120000000.0 -0.018039399489844125 0.31234518312711557
2140000000.0 -0.2521430255169091 -0.17675189009170827
2160000000.0 0.0871022290820988 0.28787724780528784
2180000000.0 0.2593028379784079 0.13668228947082434
2200000000.0 0.2723603345822542 0.09415869695920695
2220000000.0 0.12060873769383239 0.2540496659169915
2240000000.0 -0.09388865107908506 0.2571158784334125
2260000000.0 -0.24564428395599688 -0.10583532480537898
2280000000.0 0.020786509044766973 -0.2525384951926109
2300000000.0 0.23677446139899502 0.05940372298359694
2320000000.0 -0.23533122012882443 0.017990663400313765
2340000000.0 0.21113273818660958 -0.08510138943411823
2360000000.0 -0.2243627905191386 0.03965369934021701
2380000000.0 0.23239566870694392 0.04236877451496508
2400000000.0 0.10920830817033766 0.22773166722425095
2420000000.0 0.1396665950870919 0.2409395717196793
2440000000.0 -0.09434368183539835 -0.2965533289481886
2460000000.0 0.25181474644608154 0.2332914896523667
2480000000.0 -0.038303227226104374 -0.3739369427150312
2500000000.0 0.3878804367276938 0.139990817126375
2520000000.0 -0.2684965905455006 0.36299446427718
2540000000.0 -0.10497714575272701 -0.47678622689021327
2560000000.0 0.45787278704420803 0.2520031937804153
2580000000.0 -0.5537176966853093 0.04737420679971622
2600000000.0 0.4539745261480877 -0.3686130028066759
2620000000.0 -0.11415679528730797 0.5974816824717889
2640000000.0 -0.31610405783931467 -0.5394736059134301
2660000000.0 0.6388325582049258 0.045362939177309596
2680000000.0 -0.06946974582051749 0.6449885778257168
2700000000.0 -0.6224572617305945 0.2138600417691344
2720000000.0 -0.6597160480884826 0.06539181173761403
2740000000.0 -0.66409133349993 -0.03476447899817867
2760000000.0 -0.6658773937329704 -6.675858675225925e-05
2780000000.0 0.03702276146392644 -0.6590934458440529
2800000000.0 0.32256676185328476 -0.5657466290554786
2820000000.0 0.635977182858935 -0.0787405959652791
2840000000.0 0.09131189853777251 0.622036872421107
2860000000.0 -0.3191626967637366 -0.525753667070155
2880000000.0 0.16340785806577654 0.5777355382798407
2900000000.0 0.29642541472089 -0.501055194429536
2920000000.0 -0.44711175717757995 -0.33402311840450155
2940000000.0 -0.402858788152112 0.35410226793367494
2960000000.0 0.008122755104273278 0.5119824678088819
2980000000.0 0.4442639839839552 0.20875091004872673
3000000000.0 -0.04739026418644481 -0.46418506874707927
3020000000.0 -0.4122458992766309 0.15012381832162722
3040000000.0 0.37961645647766207 0.1683024163854121
3060000000.0 -0.31996302617751776 -0.22499296395745116
3080000000.0 0.08913386442112697 0.35879566568378946
3100000000.0 -0.2077390716002123 -0.28433207784689724
3120000000.0 -0.32012967876367243 0.12097890015163786
3140000000.0 0.3328024169873749 -0.027408497409335316
3160000000.0 -0.29632430266881654 -0.14733821315307086
3180000000.0 0.24389573026131622 0.22105458098537784
3200000000.0 0.06862766624006635 -0.3138241371545966
3220000000.0 -0.2600295273782969 0.17741385183542704
3240000000.0 -0.08846457651755478 0.27989406072124096
3260000000.0 -0.26017794589817034 0.09271101407445925
3280000000.0 0.004487023169844867 -0.2568098320525771
3300000000.0 0.21842471182043804 0.1088306183712811
3320000000.0 -0.19020347449517644 0.11317512571291888
3340000000.0 -0.027304775755753376 -0.2032498708412207
3360000000.0 0.10783694658415607 -0.1441434133975102
3380000000.0 -0.1489710247523914 -0.015780579342906904
3400000000.0 -0.09820570320984091 -0.08441036466266329
3420000000.0 -0.045292418692254054 0.10868411390425388
3440000000.0 0.10676962136131224 -0.02178596710903068
3460000000.0 -0.08502491966661994 0.06154126990209488
3480000000.0 0.08256837780295075 -0.0494440517374285
3500000000.0 0.08110697563072036 -0.006425092662348388
3520000000.0 0.07777011370054064 -0.011696603514890255
3540000000.0 0.04096856669110991 -0.058241925694241255
3560000000.0 0.02005184930625096 0.07212364766408472
3580000000.0 0.07846026784486722 -0.017773085434378774
3600000000.0 0.06801424535295868 -0.062589993055732
3620000000.0 -0.10337345214416808 0.009682542178832439
3640000000.0 0.01950271503783947 0.10953539007206645
3660000000.0 0.06255739952042273 0.08916926672035491
3680000000.0 0.09604231581828052 0.039016025728295683
3700000000.0 0.09647994586092552 0.029422323464883958
3720000000.0 -0.08598569220778605 -0.02672937846707747
3740000000.0 -0.021315668588010726 -0.07977163312905856
3760000000.0 0.07360693212449249 -0.0014952209781758073
3780000000.0 0.05570018538562609 -0.03798213592859592
3800000000.0 -0.03586559103806796 -0.0299759061580664
3820000000.0 -0.031898523720509976 -0.019491822342389456
3840000000.0 -0.05292671418208326 -0.008388328308099742
3860000000.0 -0.061789213788169844 0.03786145117802339
3880000000.0 -0.03280780869616747 -0.08305955368057946
3900000000.0 -0.0772157353760762 -0.06727473982682813
3920000000.0 -0.006770584118564038 0.10387352709586074
3940000000.0 0.08426272242500782 -0.061230305803542495
3960000000.0 -0.10165698057483749 0.0040857809354826035
3980000000.0 0.09095551614190887 -0.03386278993083001
4000000000.0 -0.07122546998666153 0.04332980449003131
