!Created with skrf (http://scikit-rf.org).
# Hz S RI R 50.0 
!freq ReS11 ImS11
400000000.0 -0.4784159892456613 -0.6923961059269454
420000000.0 0.6564304017546974 0.44368420071122305
440000000.0 0.24960070797675146 0.7101134737942347
460000000.0 -0.45200237274814686 -0.5235357545893434
480000000.0 -0.5939583075598466 -0.16545419766964614
500000000.0 0.24635502544548188 -0.47166854755438137
520000000.0 0.24723098012863004 -0.30174012032196224
540000000.0 0.39332721905409107 0.235834844790958
560000000.0 -0.30752407213267163 -0.3534986379327686
580000000.0 0.39292658851161105 -0.1221858760997627
600000000.0 -0.3902048618289176 -0.03986783300803297
620000000.0 0.3191540357104859 -0.20107294656920363
640000000.0 -0.11055658965548956 -0.34534283402466076
660000000.0 0.2925062182928947 0.20480103010274134
680000000.0 0.33149627441454993 0.09479444012432799
700000000.0 0.337087447536312 0.11162780886517965
720000000.0 -0.11262142655420798 -0.3214136321525102
740000000.0 -0.041935555498700185 -0.31449091195485684
760000000.0 0.25641505926641034 -0.16620512893517275
780000000.0 -0.09973822719606339 -0.24336615773471126
800000000.0 -0.1753176630614795 -0.17989433600133434
820000000.0 -0.213532240093257 0.057817644249823226
840000000.0 0.13440402132803228 0.14267777883709815
860000000.0 -0.1786404617309585 -0.02630049720078743
880000000.0 0.0789606471317783 0.17165399881957755
900000000.0 -0.11896575807137551 -0.10180108992309449
920000000.0 0.03325566044420228 0.14245091609005905
940000000.0 -0.08101589774667012 -0.1123089806754235
960000000.0 -0.0776748924671805 0.08081850307472284
980000000.0 0.0542882735460112 0.013339708082932255
1000000000.0 -0.018097795270043533 -0.03419617500743885
1020000000.0 0.00950449657431633 0.03410318297224704
1040000000.0 0.016878516591106237 0.07407552040442121
1060000000.0 -0.11247149018292188 -0.049140110864148344
1080000000.0 -0.14639835322799233 0.05545491784418806
1100000000.0 0.10865704504439887 -0.15707876468064336
1120000000.0 0.2311506558065366 0.01722919959405839
1140000000.0 0.14435423413651088 -0.2287002863204385
1160000000.0 0.1978958046852055 -0.21132024262709243
1180000000.0 -0.013303345731251007 0.3194941163423649
1200000000.0 0.11694076948154597 0.3161835378106416
1220000000.0 -0.038091928443722396 0.343271428008209
1240000000.0 0.06792912556243538 0.3362122193352573
1260000000.0 -0.025908062292951138 0.33975857468106935
1280000000.0 -0.2923544964711951 -0.1764671313010581
1300000000.0 0.26400671443247203 -0.23683519414789378
1320000000.0 0.27060534112705303 -0.2358926405167875
1340000000.0 -0.04720610917181689 0.3641434106530089
1360000000.0 -0.07373218959125327 -0.37066177840966463
1380000000.0 0.21950603326526932 -0.312198080971454
1400000000.0 -0.24510935686959825 0.28591089767283995
1420000000.0 0.21039405277718073 0.3006930181541211
1440000000.0 0.35698916325091273 -0.023290713498089043
1460000000.0 0.25462913239851065 -0.24399981272268384
1480000000.0 0.07733199502141007 -0.3350395574824202
1500000000.0 -0.11097379053350889 0.31524294614713383
1520000000.0 0.28980646501757396 -0.10667030737222322
1540000000.0 -0.16187372421781593 -0.22779594845496323
1560000000.0 0.18707011375080368 0.16560398304004625
1580000000.0 -0.0954670624799273 0.1862974891987957
1600000000.0 0.059112605702194405 0.15774287218937977
1620000000.0 0.1375606357413583 -0.06407884869390991
1640000000.0 -0.031483046157826586 0.12951587286777616
1660000000.0 -0.10307381587084204 0.032758871914297286
1680000000.0 -0.027055624848446258 0.08715206068072816
1700000000.0 0.009749819444245656 -0.07470382403330135
1720000000.0 -0.0177434452422386 -0.05160866506767984
1740000000.0 -0.044212465783187604 -0.003363493556529739
1760000000.0 -0.057963067238260974 -0.013043881565421989
1780000000.0 -0.06976743029754258 0.05051975072033966
1800000000.0 0.12023489088828045 0.020954474540194692
1820000000.0 0.06437275179883122 0.14304982070287817
1840000000.0 0.03592137808409273 0.1852514890268854
1860000000.0 0.13245764941028215 0.17863176947952752
1880000000.0 0.23110291925226864 0.07810123593207204
1900000000.0 0.06706132153224804 -0.25785585832139296
1920000000.0 -0.1858187619067942 -0.22053727757924335
1940000000.0 0.06471473359078281 0.29513521283109834
1960000000.0 -0.3133704172509234 -0.04302190457577254
1980000000.0 -0.19423738898747578 -0.2544911485483699
2000000000.0 -0.15726466822502463 -0.27466265834437303
2020000000.0 0.30545929902655355 0.0565273034109574
2040000000.0 0.2834242473119545 0.13085501523325896
2060000000.0 0.16427331408428136 0.26104607022074267
2080000000.0 -0.30608966653232256 0.023432339561777617
2100000000.0 0.2950502251621751 -0.11092533270802395
2120000000.0 0.04825324234960872 0.3070674295052069
2140000000.0 -0.2592077579756492 -0.1627497876934321
2160000000.0 0.003946493718025708 0.2990325717110504
2180000000.0 0.28215633963009046 0.07860353010175697
2200000000.0 0.2046126671942432 0.20246830726531045
2220000000.0 0.16437729204570453 0.22999248264198102
2240000000.0 0.004715520210585428 0.27516093611981846
2260000000.0 -0.25768321972011415 -0.07027322191164964
2280000000.0 -0.036682480525668214 -0.24984998115255846
2300000000.0 0.1392936870375817 0.19958167179578815
2320000000.0 -0.20550460983843066 -0.11830784394656407
2340000000.0 0.22870793915831536 -0.02802543030351746
2360000000.0 -0.20985791703446804 0.0919247191100833
2380000000.0 0.23300406198607443 -0.023264822477518717
2400000000.0 0.06087165899016742 0.2416147453336468
2420000000.0 0.03398319580336499 0.27507522710747834
2440000000.0 0.0646171346761421 -0.3067693895768928
2460000000.0 0.3127991325154973 0.14566517739309656
2480000000.0 -0.15180487294706058 -0.34387034082766493
2500000000.0 0.4027162847841447 0.08629368032766395
2520000000.0 -0.2907402051796361 0.34369142559368654
2540000000.0 -0.07396362698006255 -0.4819488614736681
2560000000.0 0.39436056280125265 0.3441988568894352
2580000000.0 -0.5563112187523096 0.010077953077682542
2600000000.0 0.4643499354269677 -0.3568970288560764
2620000000.0 -0.11538785642099736 0.5968332581488766
2640000000.0 -0.33016699532607446 -0.5298232087319827
2660000000.0 0.6393036997002255 0.005207657618650789
2680000000.0 -0.07063972929562128 0.6452760098200034
2700000000.0 -0.5597212950291415 0.3462850945493956
2720000000.0 -0.6537503149324918 0.11135079130899292
2740000000.0 -0.6658179538007799 -0.01476191852530531
2760000000.0 -0.6651947718553448 -0.04651127888138884
2780000000.0 0.09220476077489571 -0.6546988591575719
2800000000.0 0.3102135681327941 -0.5731485039975022
2820000000.0 0.636851377346018 -0.07876863080576096
2840000000.0 0.06831297932678729 0.6256675874442424
2860000000.0 -0.30611865729120125 -0.5326249745270997
2880000000.0 0.1547536076688272 0.5802420131354911
2900000000.0 0.3172134832498801 -0.4884230397693279
2920000000.0 -0.49993289382380124 -0.2505296099216639
2940000000.0 -0.380748089899276 0.3746104186336955
2960000000.0 -0.09213096622295448 0.5032131020410802
2980000000.0 0.4481539530272294 0.20385209408122063
3000000000.0 0.0340327974145886 -0.4668959084114556
3020000000.0 -0.3816006490801607 0.22212217885245708
3040000000.0 0.40839974901034554 0.07826422218125952
3060000000.0 -0.3013173954741319 -0.24550064927309923
3080000000.0 -0.05036394011195912 0.36469577631830974
3100000000.0 -0.17070793867665357 -0.3109071951595174
3120000000.0 -0.3335608820923293 -0.0684268327558857
3140000000.0 0.3310453546173785 -0.05597836273981186
3160000000.0 -0.2963383079513035 -0.14471348824508382
3180000000.0 0.21342969622983515 0.24894519059446713
3200000000.0 0.03489475641246087 -0.3191590271693391
3220000000.0 -0.28125242519761506 0.13999575926649194
3240000000.0 0.0026960309607248923 0.2942376842429155
3260000000.0 -0.24713677397627973 0.11751441892297648
3280000000.0 0.012672924264754894 -0.2574729904754723
3300000000.0 0.14624163900576417 0.1970243483438899
3320000000.0 -0.16670443952156594 0.15114991482524065
3340000000.0 -0.09086875955206002 -0.18432568249670325
3360000000.0 0.019770535429435947 -0.18045456972558507
3380000000.0 -0.12152972305127996 0.08253904187447265
3400000000.0 0.03784668742323673 -0.12320774385873827
3420000000.0 -0.09900169013399694 -0.0645104834509438
3440000000.0 0.10316662886333944 -0.04090556369884737
3460000000.0 -0.10331671810767569 0.012161752349390466
3480000000.0 0.09757475476962703 -0.004351029461467907
3500000000.0 -0.03242973418977376 -0.07146968763062472
3520000000.0 0.040746731083350404 0.061203255346580054
3540000000.0 -0.017377508366838986 0.06538497021895186
3560000000.0 -0.04096538551416314 -0.06054088410577498
3580000000.0 0.08103508132834751 -0.021628763084192343
3600000000.0 0.07864328442384222 -0.050146149933216845
3620000000.0 -0.05198689445556177 0.09227226607459514
3640000000.0 0.10960345451349267 0.01244212622081435
3660000000.0 0.1014088928683525 -0.04123734793085109
3680000000.0 0.013836583999953985 -0.10328099906900517
3700000000.0 0.09695778568678963 0.020821490331368875
3720000000.0 -0.08879103111472277 0.02132146625385985
3740000000.0 -0.013001879735476916 -0.08529112002504678
3760000000.0 0.07078050185252814 0.03206651077215017
3780000000.0 -0.030953979805560045 0.057665131378664324
3800000000.0 -0.044907275381197286 0.008910840272335956
3820000000.0 0.02710258722838897 -0.02762541783541415
3840000000.0 0.023742127111342895 -0.0512096554923962
3860000000.0 -0.07017286746222683 -0.018921751657010013
3880000000.0 0.07480323646537253 0.04265636992301019
3900000000.0 -0.09849595004423792 0.019947471179876025
3920000000.0 -0.0845063610095551 0.06450975408400443
3940000000.0 0.017976798166737563 -0.10619719948169266
3960000000.0 0.05181851829471367 0.09324108882566833
3980000000.0 0.023376729074769 -0.09373436549199886
4000000000.0 -0.04884002004553774 0.06539421232567283
