!Created with skrf (http://scikit-rf.org).
# Hz S RI R 50.0 
!freq ReS11 ImS11
400000000.0 -0.5074884978954164 -0.6589069019667579
420000000.0 0.0774039464845901 0.7830231624840654
440000000.0 -0.2785076135030428 0.7105456952441099
460000000.0 -0.6911975430072108 -0.1392605574811097
480000000.0 -0.397823093846099 0.461707982366867
500000000.0 0.48785559893118763 -0.2054773217173823
520000000.0 -0.2981378094155414 -0.2540159735558383
540000000.0 -0.3319893848994303 0.29546393559963935
560000000.0 0.23232009335005685 -0.4203488505440102
580000000.0 0.2968152698759275 0.31133476820715733
600000000.0 -0.1294673024632053 0.3732051631184738
620000000.0 0.37406601510782966 -0.026733337379357593
640000000.0 -0.26032056825455313 0.2617347951555119
660000000.0 0.35673351957491084 -0.01899564530567675
680000000.0 0.32829679669620637 -0.07596854305047557
700000000.0 0.3080602064808086 0.1590022873633508
720000000.0 0.29575925702016337 -0.17772074879086075
740000000.0 -0.18377470983168895 -0.2685277921537388
760000000.0 0.258210193291882 -0.15920568141594257
780000000.0 -0.12332380520405091 -0.24365825060784269
800000000.0 0.04331608577729441 0.24676571864186295
820000000.0 0.20673249313951855 0.06468867161510097
840000000.0 0.11491297944447368 0.16008887566787344
860000000.0 -0.14509301719137838 -0.10338244544052808
880000000.0 0.1457750784002193 -0.10352212647678721
900000000.0 0.1452564306006542 -0.04629973971508752
920000000.0 -0.020609443571328434 -0.1480387121297243
940000000.0 -0.11796228665539576 0.07745351540738277
960000000.0 0.10516799253896505 -0.010705466677735457
980000000.0 -0.058599327200503655 -0.00047326173575477817
1000000000.0 -0.012782070900520599 0.03528605461321298
1020000000.0 0.015587236440857414 0.022600478574194022
1040000000.0 0.013675627443252673 0.0650926351663979
1060000000.0 -0.016992053457616573 -0.11824140419048366
1080000000.0 0.12201600544446103 0.08968008825351013
1100000000.0 -0.172680966772197 -0.09448482476332427
1120000000.0 0.15510626092074006 -0.1564700571968989
1140000000.0 0.16098078587585665 0.21190144189021873
1160000000.0 0.2939165977398077 0.015277854191804401
1180000000.0 0.22666342986578633 0.2281430430310319
1200000000.0 0.2801022962744068 0.17539964923027138
1220000000.0 -0.1472665349347749 0.3072930551963591
1240000000.0 -0.1475990740724401 0.3105429961880605
1260000000.0 -0.23500752863850125 0.24578460435523183
1280000000.0 -0.23744395383226888 -0.25274066780460475
1300000000.0 0.12118233351423703 -0.3305201814076141
1320000000.0 0.34929363386648216 -0.08397050052863389
1340000000.0 -0.07792827336525625 0.3612019193019834
1360000000.0 -0.18289832561086578 -0.3331576042070274
1380000000.0 0.1746077534128443 -0.342147257635536
1400000000.0 -0.1781368435715296 0.330893434957702
1420000000.0 0.1128359613422287 0.3464689703115348
1440000000.0 0.34697326163597175 -0.09430252174645097
1460000000.0 0.3295146843302111 -0.13276245313221033
1480000000.0 0.06263852514038552 -0.3383101122547887
1500000000.0 -0.0333125723066211 0.33504240259584317
1520000000.0 0.01866459921578363 -0.31038148803759963
1540000000.0 -0.2653540916718786 -0.07360629990866165
1560000000.0 0.1837949061396233 0.1585082389246866
1580000000.0 -0.2083298502865728 0.01601748907619347
1600000000.0 -0.12776208965355057 0.11594017077845441
1620000000.0 0.09251943831565379 -0.12145142401653403
1640000000.0 0.11018145778923807 0.07451689012428933
1660000000.0 -0.06048606224193845 0.08618922288451666
1680000000.0 0.011819971104143245 0.08557818333007025
1700000000.0 -0.0194362721432258 0.06814246230873944
1720000000.0 -0.02016283488273779 -0.052263523133202
1740000000.0 -0.038121036280737125 0.03201714890640882
1760000000.0 -0.054438397558834 0.01119761772616731
1780000000.0 -0.00043476738017519674 0.08518470804361608
1800000000.0 0.11980092034827967 0.022331794784183942
1820000000.0 0.14666201204976 0.05761430840044649
1840000000.0 0.08634474225952438 0.16471271185483216
1860000000.0 -0.030227555916823877 0.21916112283539574
1880000000.0 0.24475755156391493 0.014057031340381684
1900000000.0 -0.007186541120496573 -0.2676064465866483
1920000000.0 -0.2687416687881906 -0.0963726674490643
1940000000.0 0.11036457787247439 0.27859478409554994
1960000000.0 -0.25904624255003644 -0.1754973727215821
1980000000.0 -0.04243819726682732 -0.3164011284059212
2000000000.0 -0.05015380097091833 -0.31432565043858995
2020000000.0 0.2964417485739942 0.1075939133147764
2040000000.0 0.3121396722463948 -0.009259340204283368
2060000000.0 0.25766876210476053 0.16818965065366914
2080000000.0 -0.2967324418645764 0.07692349034824275
2100000000.0 0.31142300359070646 -0.04446552573149685
2120000000.0 0.05728913437585946 0.3070196769477526
2140000000.0 -0.24033808903962786 -0.1914963309657392
2160000000.0 0.035252828686146785 0.29840944149038146
2180000000.0 0.28070790346803365 0.08487102284644196
2200000000.0 0.27886648262889524 0.07124575200817329
2220000000.0 0.1390667516557091 0.2430919990484237
2240000000.0 -0.1551238101216127 0.22642143777852652
2260000000.0 -0.23639295102114802 -0.12187930924081004
2280000000.0 0.04813813390653362 -0.2510646406078294
2300000000.0 0.23704583460419468 0.058034419413547346
2320000000.0 -0.19531720166994226 0.1311947254730392
2340000000.0 0.22137847394404972 0.04148575635309468
2360000000.0 -0.22471870082421028 -0.04651698998385283
2380000000.0 0.2354368905885751 0.027004288580791107
2400000000.0 0.18999040713210372 0.16730991386066743
2420000000.0 0.13420958709778333 0.2430367950423473
2440000000.0 -0.06991076566182508 -0.30283642507854486
2460000000.0 0.24223136507996304 0.24231525526849698
2480000000.0 0.03990959961067564 -0.37328293157234055
2500000000.0 0.3637968556044268 0.19640911709067313
2520000000.0 -0.2634259692979418 0.36716529173217316
2540000000.0 -0.13605993147648224 -0.46866918348535286
2560000000.0 0.46721831063432206 0.2325226011082275
2580000000.0 -0.5549212205539633 -0.023500353566872453
2600000000.0 0.46300784142720436 -0.3567063235091947
2620000000.0 -0.16630951827140775 0.5847534767588215
2640000000.0 -0.31276505354252043 -0.5418484233584212
2660000000.0 0.6375229349698422 0.06005892324471864
2680000000.0 -0.11118535529619392 0.6393240412210565
2700000000.0 -0.6124198945715205 0.24081064805799277
2720000000.0 -0.660554417024087 0.05169802352202237
2740000000.0 -0.6607444783526569 0.07608987918480724
2760000000.0 -0.663538439850638 0.055602103664751816
2780000000.0 0.01758638255730174 -0.6594929390952575
2800000000.0 0.323920939235731 -0.5649061897339924
2820000000.0 0.6341145417423433 -0.09214261992648494
2840000000.0 0.08498944030884019 0.6232581853444792
2860000000.0 -0.2986304331149862 -0.5377009479482392
2880000000.0 0.1787947330535061 0.5737398203761374
2900000000.0 0.306656246268943 -0.49429331699977885
2920000000.0 -0.44443111049249984 -0.3385089227859506
2940000000.0 -0.41658458605185744 0.3378768208030959
2960000000.0 -0.011700115271265027 0.5116979741732558
2980000000.0 0.4267058253827523 0.2423904419882337
3000000000.0 -0.008464171635436694 -0.4671722565199283
3020000000.0 -0.364144414599299 0.2462125083463467
3040000000.0 0.3971390267744458 0.117787169706927
3060000000.0 -0.32530842645453467 -0.2142607718654313
3080000000.0 0.060052713668464965 0.3651652569844855
3100000000.0 -0.2277121991132567 -0.26827222570459747
3120000000.0 -0.34055453770708827 0.0319301861982179
3140000000.0 0.315681494974431 -0.11533423169755222
3160000000.0 -0.30789500103719225 -0.11879245805357368
3180000000.0 0.21896058256977127 0.24496283341212113
3200000000.0 0.102827796539736 -0.3045664110798731
3220000000.0 -0.2590524983809889 0.17887525845295935
3240000000.0 -0.12253062332120765 0.2676878762304444
3260000000.0 -0.2535646393997842 0.1079467322016086
3280000000.0 0.004518581652935843 -0.256738152512386
3300000000.0 0.20001801552785037 0.1387779630346717
3320000000.0 -0.207373031446645 0.07864795711826111
3340000000.0 -0.05539852292235593 -0.19691148036650305
3360000000.0 0.11738950504221335 -0.13495014052451348
3380000000.0 -0.1408340510177783 -0.05093177459012935
3400000000.0 -0.11947619639186718 -0.05071072684522068
3420000000.0 -0.0717575541119935 0.09427995437542139
3440000000.0 0.07706960237431182 -0.07649545392239075
3460000000.0 -0.08807244210174026 0.05558531244459497
3480000000.0 0.09172271179267716 -0.028863375506883015
3500000000.0 0.055455513300566 -0.06076604904101586
3520000000.0 0.03078376871057714 -0.07170891345924976
3540000000.0 0.068292926297581 0.01670339307951621
3560000000.0 -0.010932926111645234 0.07376757202232276
3580000000.0 0.06783902202183008 -0.04783594086343493
3600000000.0 0.04450305753993753 -0.0819490978112831
3620000000.0 -0.10329183639233168 0.010095426432838802
3640000000.0 -0.03502383150018934 0.10450838390522708
3660000000.0 -0.07205905385201433 0.08321093622580068
3680000000.0 0.09445434673924438 0.044332192163819374
3700000000.0 0.08725862050452342 0.04777812576327638
3720000000.0 -0.0748136571181867 -0.047497433614039346
3740000000.0 0.03006475767834076 -0.07796767577215842
3760000000.0 0.06469862297793307 -0.0331593618824699
3780000000.0 0.03462948078512775 0.0555302530842562
3800000000.0 0.01803728144127847 -0.04272879626822276
3820000000.0 0.004905730439992671 -0.036760669964988474
3840000000.0 -0.042200951340318836 -0.03310649725463401
3860000000.0 -0.06760010153222151 -0.02261692737054835
3880000000.0 0.03430047310014983 -0.08361336580398891
3900000000.0 -0.03449394267175247 -0.09577062196802504
3920000000.0 -0.036672408581479216 0.09655763987500257
3940000000.0 0.08418008629323895 -0.060229139280735804
3960000000.0 -0.08089707650710898 -0.05859902976615881
3980000000.0 0.09549333220404292 0.008529061958605673
4000000000.0 -0.07128171823833898 -0.039064254645454245
