!Created with skrf (http://scikit-rf.org).
# Hz S RI R 50.0 
!freq ReS11 ImS11
400000000.0 -0.3224846061075435 -0.7772829070095515
420000000.0 0.6452399885055597 0.45997516249794507
440000000.0 0.2630916445971369 0.7043518744591958
460000000.0 -0.6935661448734936 -0.07144226659894308
480000000.0 -0.5817969181402107 -0.17107943731849723
500000000.0 0.4982606299829609 0.15228686250517118
520000000.0 -0.33500781340111996 -0.22017501654668134
540000000.0 0.4447790214184739 -0.0011999076479902848
560000000.0 0.34158823229584523 -0.33025642548149303
580000000.0 0.3490660553556488 0.24685722728567397
600000000.0 0.2170615684292045 0.33408539725988007
620000000.0 0.006934786316796242 -0.37486035692616676
640000000.0 -0.3319146678468705 -0.11486876521106512
660000000.0 0.15711405676307794 0.3150551734510228
680000000.0 0.34218535757304047 0.027390609203014192
700000000.0 0.2427802424710794 0.261025391130776
720000000.0 0.12135833094704744 -0.32283246627771667
740000000.0 -0.22125707710094716 -0.23899279434834683
760000000.0 0.30036029116550356 0.020620719035144085
780000000.0 -0.24773739851335405 -0.10552363707274652
800000000.0 -0.05332597812862785 0.24505162699174998
820000000.0 -0.02160868983474806 0.21180024484029364
840000000.0 -0.17562222621121243 -0.0767378328789211
860000000.0 0.1063116245969799 -0.14754674873656257
880000000.0 0.1401413392705319 -0.12842719882664683
900000000.0 0.06516883619820514 0.14137949618705178
920000000.0 -0.06783897921191273 0.12297082879941931
940000000.0 0.09518403756208493 -0.09727497341306698
960000000.0 -0.11316060823992721 -0.014045309564578718
980000000.0 0.042204257918818364 0.049680542118916086
1000000000.0 -0.0009563080587392127 0.041163369358731106
1020000000.0 -0.022695934839004533 -0.028806435073645695
1040000000.0 0.0207690987857281 0.0737828017903157
1060000000.0 0.03767059736031323 0.11345282567237436
1080000000.0 -0.05712704871933921 -0.14288692062489428
1100000000.0 0.10252647742477493 -0.1604872182966033
1120000000.0 0.21617759718251298 -0.08191007362935063
1140000000.0 0.23895897770637411 -0.13223268714779035
1160000000.0 0.1644471671065245 -0.2430522248844389
1180000000.0 0.15063647319630366 0.27799358777241373
1200000000.0 0.027907751901056703 0.3362901552017344
1220000000.0 -0.06820960497983658 0.33925064800319454
1240000000.0 0.2709570971485792 0.21521530089164828
1260000000.0 -0.027828508808277166 0.331489722994784
1280000000.0 -0.007790782410975201 -0.34013679764194216
1300000000.0 0.3038276973490216 -0.18791738484506593
1320000000.0 0.2980745909168131 -0.20715976368281847
1340000000.0 0.29101577994091077 0.22665324731187547
1360000000.0 -0.2755825019279886 -0.2519413008276002
1380000000.0 0.2619450470477292 -0.27321662393465235
1400000000.0 -0.3450549382357214 0.15516887520314945
1420000000.0 0.25385031469773806 0.26472100989968533
1440000000.0 0.3466461700302493 -0.09632896150292054
1460000000.0 0.29056894123785043 -0.20322326049106768
1480000000.0 0.14816581037050036 -0.31071778586423315
1500000000.0 -0.05895766213314257 0.32903400160807844
1520000000.0 0.15088964244324915 -0.2700616586620761
1540000000.0 -0.16246224001440263 -0.22307075107499932
1560000000.0 0.06874870690766004 0.2377850595610093
1580000000.0 -0.172872247482456 0.11820116593451846
1600000000.0 -0.06355712273607099 0.16080402669535238
1620000000.0 0.02987820194250157 -0.14948686719975782
1640000000.0 -0.05370655450086245 0.12111122083560551
1660000000.0 -0.0009702157841510967 0.10881491136829
1680000000.0 0.018813223087756722 0.08666164841957447
1700000000.0 -0.03413803708728858 -0.06720122332055321
1720000000.0 0.05211742577625032 0.013138959669325804
1740000000.0 0.04537260032705027 -0.014276977305055972
1760000000.0 -0.05593620789457236 0.014709385781076396
1780000000.0 -0.057492351883292096 0.06193432662100769
1800000000.0 0.06966894343885281 0.09848307235345768
1820000000.0 0.05996635077661739 0.1474139085081551
1840000000.0 -0.09762351968461377 0.16028089871307372
1860000000.0 0.07809503389114884 0.2101166680891042
1880000000.0 0.24556517504367995 -0.02073178463668087
1900000000.0 0.013663147354619272 -0.26616604341678496
1920000000.0 -0.24194164977908023 -0.15552875177163195
1940000000.0 0.12717967744495368 0.27418293352851564
1960000000.0 -0.3040432993327853 -0.08293961602483041
1980000000.0 -0.17155226440679158 -0.2696213613299318
2000000000.0 -0.08249007986573427 -0.3062410833467882
2020000000.0 0.3122350818432007 -0.017895700277684803
2040000000.0 0.30726586499814956 0.05085771968681185
2060000000.0 0.22711914377812162 0.2078526197084476
2080000000.0 -0.28928276376391504 0.10237941936197478
2100000000.0 0.2888025559647961 -0.12096782901746497
2120000000.0 -0.06673022317174382 0.3040787425340989
2140000000.0 -0.2138282914967584 -0.22247859220809701
2160000000.0 0.15948954292418493 0.2560284950832067
2180000000.0 0.282114434247424 0.07519740285968914
2200000000.0 0.2736899937420978 0.08462894364380853
2220000000.0 0.01778792767827171 0.2800358263943886
2240000000.0 -0.05190285476211166 0.27162613864124396
2260000000.0 -0.247014897794283 -0.10418670178796234
2280000000.0 -0.09779406986467945 -0.23343060573947325
2300000000.0 0.22602741708318014 0.08701528294712947
2320000000.0 -0.2268243276566249 -0.06830492956792693
2340000000.0 0.2276474144056951 -0.009965336786780231
2360000000.0 -0.22729314538063233 0.028095312542372606
2380000000.0 0.2315558477929708 0.04086477018839471
2400000000.0 0.054533804111864405 0.24446448329137876
2420000000.0 0.13625842878603914 0.2428338019117786
2440000000.0 -0.1423054450492194 -0.278567641653482
2460000000.0 0.3074817675973085 0.15207605067392385
2480000000.0 -0.06651899974661052 -0.3692145991350738
2500000000.0 0.3952531549075712 0.12060502233338441
2520000000.0 -0.252338751574189 0.3752568670947493
2540000000.0 -0.1365542869580751 -0.4690397050481649
2560000000.0 0.4631420874219672 0.24585586122602857
2580000000.0 -0.552307677191732 0.062105696372171254
2600000000.0 0.4327287058359309 -0.3930480079692215
2620000000.0 -0.1317978706124656 0.5923816017791206
2640000000.0 -0.31752303854823194 -0.537716281247873
2660000000.0 0.6393397810608797 0.017247997580027947
2680000000.0 -0.04418411786743032 0.6484893148032506
2700000000.0 -0.546185564808386 0.36766114017549945
2720000000.0 -0.6339713996545181 0.19346236571459902
2740000000.0 -0.6480768639994566 0.1526614643510272
2760000000.0 -0.6651283722255594 0.04458644363356322
2780000000.0 0.009875763200325767 -0.660552672125987
2800000000.0 0.29585877116949827 -0.5806823785394548
2820000000.0 0.6274209175962201 -0.13418023542119817
2840000000.0 0.07765116016324317 0.6247814235475857
2860000000.0 -0.32679050536508736 -0.520529367292717
2880000000.0 0.19983675105100646 0.5669406047125904
2900000000.0 0.25951709044404453 -0.5196251181899709
2920000000.0 -0.4467942194349835 -0.33379098851021155
2940000000.0 -0.38833557447174166 0.3697411940166059
2960000000.0 0.06212406101809051 0.509503401577344
2980000000.0 0.47348545877775705 0.12831016370902618
3000000000.0 0.021252816709002715 -0.466542343188078
3020000000.0 -0.3848341083009056 0.21249619318087853
3040000000.0 0.34782726404421577 0.22750315545330071
3060000000.0 -0.2984314907031962 -0.2529255432621342
3080000000.0 0.03500369429774988 0.36821654212448984
3100000000.0 -0.21783975130858552 -0.27735885803522653
3120000000.0 -0.3377134889864447 -0.05540876909840811
3140000000.0 0.3060487392904442 -0.1345009271601378
3160000000.0 -0.28357795923683377 -0.16586544104177972
3180000000.0 0.19867343326839684 0.26121980621051005
3200000000.0 0.08816372879154503 -0.30782433960827227
3220000000.0 -0.2839347342406564 0.13723768957116386
3240000000.0 -0.026858543724356077 0.2935402176371591
3260000000.0 -0.17204500791396068 0.2164300951865526
3280000000.0 -0.05875208509909239 -0.24901094494713724
3300000000.0 0.16260831430815115 0.18213142207422953
3320000000.0 -0.19709959556984613 0.1084421767326828
3340000000.0 -0.09648440361490226 -0.18373129991248913
3360000000.0 0.018462599415057578 -0.18119752436992714
3380000000.0 -0.14368313805147162 0.04244403146126289
3400000000.0 -0.06612909873654829 -0.11027740691886262
3420000000.0 -0.11773101711148708 -0.01443374792298412
3440000000.0 0.09702560854857645 0.05377504278763814
3460000000.0 -0.10502129654818264 0.013766877627390175
3480000000.0 0.09038681412570337 0.03281676976516827
3500000000.0 0.07085413787305415 -0.03457396257367137
3520000000.0 0.014249626613540048 0.07287775566544612
3540000000.0 -0.03945282462250264 0.056303204015886295
3560000000.0 -0.05303384356004075 -0.052696076183869574
3580000000.0 0.012567153056976163 -0.08098125193254609
3600000000.0 0.03640880967809474 -0.08329074648341613
3620000000.0 0.04437259146395724 0.09315460612563331
3640000000.0 0.07089786928852448 0.08492313965689062
3660000000.0 0.08940530270831676 0.06295890013061624
3680000000.0 0.06286388365921654 -0.08538863842856369
3700000000.0 0.09219776599615613 -0.04496260163951305
3720000000.0 0.035313061987895085 0.08472975684450053
3740000000.0 -0.07220847723824153 0.042982358888525474
3760000000.0 -0.0732822047351907 -0.017545351341791658
3780000000.0 -0.02374152720580314 -0.06404346162967141
3800000000.0 -0.015637363980658892 0.046619239325594114
3820000000.0 0.008307766707263037 0.0384042070459397
3840000000.0 0.05279877518218853 0.017052168987658777
3860000000.0 0.002322189599880362 -0.07352269580234665
3880000000.0 -0.04581589465786565 0.07599442037983495
3900000000.0 -0.10303566267569599 -0.018080109611334216
3920000000.0 0.08679346166487045 0.06285190641653651
3940000000.0 -0.10670643776692465 0.01651693389563276
3960000000.0 -0.09162876435554503 0.04920559900634726
3980000000.0 0.09075849662604996 0.03993461567299061
4000000000.0 -0.08502739549612472 -0.012586838103342901
