!Created with skrf (http://scikit-rf.org).
# Hz S RI R 50.0 
!freq ReS11 ImS11
400000000.0 -0.6724766778020609 -0.490250566461742
420000000.0 -0.023104725215330843 0.7841202911544928
440000000.0 -0.0812394871754635 0.7566425822493786
460000000.0 -0.6901390033835554 -0.11536724265547643
480000000.0 -0.5318411068861005 0.2951092599931385
500000000.0 0.5081767177312231 0.14794288605529818
520000000.0 0.1284588763427646 -0.3763190067174644
540000000.0 0.1919973695760918 0.4078942754760897
560000000.0 0.18508728451930961 -0.43767089395275444
580000000.0 0.4253022296828951 0.08811844975162068
600000000.0 0.3668451703528812 0.14039343654868094
620000000.0 0.35441540855605147 -0.08341008181055815
640000000.0 -0.3221181571736162 0.16229605869598718
660000000.0 -0.08912056903124413 0.34610795813432205
680000000.0 0.3455127159106907 0.016827306610748567
700000000.0 0.35026386641416063 0.00440418351065556
720000000.0 0.22000514685159772 -0.2676518092028422
740000000.0 -0.24686978483981925 -0.22193868859704421
760000000.0 -0.18703528747483922 -0.24049017199557085
780000000.0 -0.255651207959289 -0.07234963628272012
800000000.0 -0.202270061715906 0.14274491697702427
820000000.0 -0.16128794192103477 0.14670353120692203
840000000.0 -0.19198915056979135 0.053328675092014194
860000000.0 -0.1605984695470343 -0.09379162527742745
880000000.0 -0.02008839764248616 -0.18552422690905004
900000000.0 0.114997071289131 0.0990465070427904
920000000.0 0.08220330381193817 0.11098697851963876
940000000.0 -0.01577584945432504 0.12899776629110143
960000000.0 0.09314706517373982 0.05227502867996726
980000000.0 -0.061638412592859744 -0.030197017612147686
1000000000.0 0.009004642331703885 0.04381148541242703
1020000000.0 0.03313042012373747 0.0036577707575415463
1040000000.0 0.052528465324717735 -0.046964142039128236
1060000000.0 -0.1158684663397249 0.009432011820039906
1080000000.0 0.14082390551346288 0.06220962428529605
1100000000.0 -0.19706182554869 -0.009416315062077818
1120000000.0 -0.040133606128750145 -0.2147489807892289
1140000000.0 0.10865869445776687 0.23495149067975726
1160000000.0 0.21947507578116726 0.19928589345374148
1180000000.0 0.05328569935727454 0.32117357966094523
1200000000.0 0.30811422808127054 0.13256305874042726
1220000000.0 0.1323380696426872 0.31579593850695076
1240000000.0 0.05494343867521951 0.33567138016543885
1260000000.0 -0.30391039481352466 0.14756386507643993
1280000000.0 -0.16879979831643713 -0.3021829779342003
1300000000.0 0.18417615701129197 -0.3028084558812232
1320000000.0 0.3531682529007887 -0.07680697213890927
1340000000.0 -0.038055640266147855 0.36745186866098795
1360000000.0 -0.286165434344725 -0.25090521587935527
1380000000.0 0.18480776560367154 -0.3328079452037576
1400000000.0 -0.2930710559520919 0.237371087007306
1420000000.0 0.24294814414510843 0.27311198189033975
1440000000.0 0.3310109064468164 -0.1367588781531741
1460000000.0 0.3233391912452256 -0.14223766030080093
1480000000.0 0.165016748448307 -0.3026165719175724
1500000000.0 -0.040899387675630915 0.334895811238905
1520000000.0 -0.0012397120520916997 -0.31080600273132886
1540000000.0 -0.2616030058817274 -0.08702652613448816
1560000000.0 0.18643301414561378 0.1565145731251078
1580000000.0 -0.19467318947268425 0.07487566056286166
1600000000.0 -0.12290172039691039 0.12008599706620621
1620000000.0 0.10764669331822518 -0.10632771888826816
1640000000.0 0.08375894068784409 0.10195484234523382
1660000000.0 -0.0888679260979016 0.06044094463379562
1680000000.0 -0.03211317406912744 0.08169678981868865
1700000000.0 0.06751162682224733 -0.023508918946886368
1720000000.0 -0.05095483456233741 0.014158846531279622
1740000000.0 0.010686022231700149 -0.048120198903577105
1760000000.0 0.012771482493941054 0.05730301904652182
1780000000.0 0.06436894389611153 0.05561175073997672
1800000000.0 0.11089198136318433 -0.04883958836981771
1820000000.0 0.08525718467868708 0.131408232961835
1840000000.0 0.055904372609637584 0.1799859527613696
1860000000.0 0.09806382979495033 0.1973670812490033
1880000000.0 0.23109877265587261 0.07797707277193426
1900000000.0 0.06280348646101205 -0.2611983247506307
1920000000.0 -0.28184513572777276 -0.047691552085098725
1940000000.0 0.10217105992884898 0.2830464315611699
1960000000.0 -0.27149531555688305 -0.15526695378305186
1980000000.0 -0.08182624763960122 -0.30865273542577937
2000000000.0 -0.04442189157302146 -0.31397562968280124
2020000000.0 0.2774114012291984 0.14735821673624389
2040000000.0 0.3050493080055293 0.06931159203788771
2060000000.0 0.26141440102729896 0.16579446457440292
2080000000.0 -0.287074444871979 0.10735252536201062
2100000000.0 0.29218941535088494 -0.11409081413085496
2120000000.0 -0.09090220919149743 0.2980228457542294
2140000000.0 -0.24004140869210508 -0.19357298748229687
2160000000.0 0.09340099310955387 0.28605117257281865
2180000000.0 0.2765292640406439 0.09398785593070288
2200000000.0 0.2357320355460169 0.16515557098668676
2220000000.0 0.11059932192738685 0.2594442140181095
2240000000.0 0.003998236665438926 0.2741792794606078
2260000000.0 -0.24329639637782463 -0.10346097235843547
2280000000.0 0.11616965984773925 -0.22535950138916172
2300000000.0 0.19659364373278154 0.14544113846104423
2320000000.0 -0.21942528065847863 0.09005313536949242
2340000000.0 0.1929558312610051 -0.1193339708506124
2360000000.0 -0.2246745409777184 0.03600561785760605
2380000000.0 0.22106561507536612 0.08293152997813225
2400000000.0 0.14020495057652715 0.2098241228728439
2420000000.0 0.11541624084550728 0.25369765695488594
2440000000.0 -0.016662374997285824 -0.3114005797077593
2460000000.0 0.23262824150989506 0.25397314020493683
2480000000.0 -0.1019861690740828 -0.36227342459720546
2500000000.0 0.39125042646493946 0.12741711976557743
2520000000.0 -0.30411889808441783 0.33260740496521907
2540000000.0 -0.10244401427086125 -0.47756189792155657
2560000000.0 0.44937857681375903 0.2659101216873359
2580000000.0 -0.5559914200038684 -0.00011482119955392603
2600000000.0 0.45600115086788584 -0.3663136582726437
2620000000.0 -0.18237709280738096 0.5799508735472179
2640000000.0 -0.31994781622732354 -0.5373083894579308
2660000000.0 0.6382010350306161 0.050581231876816415
2680000000.0 -0.1408976635121941 0.6337531889872099
2700000000.0 -0.6144020808088074 0.23571512024757318
2720000000.0 -0.6602598672539427 0.05709422205859452
2740000000.0 -0.6611516342069856 -0.06781466291555363
2760000000.0 -0.6656265115490018 0.003538180404613173
2780000000.0 0.11762980016055136 -0.649268935666208
2800000000.0 0.3356236749632874 -0.5582037699832931
2820000000.0 0.6343775377413483 -0.09032979075748306
2840000000.0 0.10889554729199798 0.6195728909905606
2860000000.0 -0.37025467977105914 -0.491623953993258
2880000000.0 0.18820446029775725 0.5701650752134486
2900000000.0 0.29856979280394524 -0.49884091742065967
2920000000.0 -0.45448904734340967 -0.32458230140364625
2940000000.0 -0.43578764341615545 0.3130254209937759
2960000000.0 -0.05115800878619001 0.5098627887637576
2980000000.0 0.456697154673252 0.17581254767394003
3000000000.0 0.0054434006780551426 -0.4653403530549765
3020000000.0 -0.3990785591125463 0.18428274314990772
3040000000.0 0.3920483955238687 0.13649167558517206
3060000000.0 -0.32970537087883534 -0.2085816237393845
3080000000.0 0.061256707588910476 0.36379231015631014
3100000000.0 -0.2430276966193912 -0.2547072545125327
3120000000.0 -0.33687365969927474 0.05921209046547421
3140000000.0 0.32848547110355125 -0.06653952222902344
3160000000.0 -0.3102411343597051 -0.1168106915626372
3180000000.0 0.2522060781676012 0.2108192422990045
3200000000.0 0.09456118474084897 -0.3062243748314557
3220000000.0 -0.292035387348203 0.11665769590700067
3240000000.0 -0.10517135864008122 0.27679360486887405
3260000000.0 -0.2527364926967451 0.11033732886134395
3280000000.0 0.009119705217298607 -0.25574591104743316
3300000000.0 0.20973057721946625 0.12304634839269854
3320000000.0 -0.20519944782326802 0.082275739099694
3340000000.0 -0.034928211463836456 -0.20164818073544105
3360000000.0 0.08800412606328713 -0.15603749730530422
3380000000.0 -0.15021053772131482 0.003555869027220477
3400000000.0 -0.12853781054638563 0.007676202518722447
3420000000.0 -0.06875568812436071 0.09510818997616939
3440000000.0 0.10425285054493148 -0.03153647318596711
3460000000.0 -0.08998215089797393 0.05308521674537418
3480000000.0 0.07670369042151735 -0.06070225189421076
3500000000.0 0.04062945902949852 -0.07055909183621838
3520000000.0 0.07657817772790862 -0.012600116933509467
3540000000.0 0.0674959890256509 0.02277713797179618
3560000000.0 0.014879085669228007 0.07448971830409812
3580000000.0 0.018485447087822886 -0.08015062776150873
3600000000.0 0.06299013924869382 -0.06612009238338613
3620000000.0 -0.06716722971308393 -0.07893812131817772
3640000000.0 -0.08874097483819102 0.06631935325872866
3660000000.0 -0.0007156098424302716 0.11075850560087538
3680000000.0 0.1030938474999628 -0.020192501097532862
3700000000.0 0.09691859297470189 0.015749126493959115
3720000000.0 -0.04021777692413911 -0.07897777494678794
3740000000.0 0.04894906466944475 -0.06687194639159906
3760000000.0 0.0731413264570426 0.008614496587922502
3780000000.0 0.05201943727175114 0.042475892607265364
3800000000.0 -0.03603332859003706 -0.029405792394579116
3820000000.0 0.03630565880017766 -0.004128294334542972
3840000000.0 -0.014666508366696744 -0.052516434161340005
3860000000.0 -0.06712975977938133 -0.024866127639031056
3880000000.0 0.06076306734639837 -0.06737668156230657
3900000000.0 -0.004334182019432838 -0.10224507624568308
3920000000.0 -0.020426712411329512 0.10229402799009077
3940000000.0 0.06090067252099618 -0.08187316327605128
3960000000.0 -0.024391032355274463 -0.09688031248893247
3980000000.0 0.0937123609992723 0.025579733164541464
4000000000.0 -0.0826001280341339 -0.007327785338910162
