!Created with skrf (http://scikit-rf.org).
# Hz S RI R 50.0 
!freq ReS11 ImS11
400000000.0 -0.6808391169538983 -0.47907011946790284
420000000.0 0.03127709973731452 0.7866314000446382
440000000.0 -0.09133452102473999 0.7580199186216661
460000000.0 -0.7013153276283713 -0.033056687655528785
480000000.0 -0.40224429209045576 0.45577059562506844
500000000.0 0.5259802575423964 0.018853925614636894
520000000.0 0.3122113243984472 -0.2508165637876308
540000000.0 0.36562683100995436 0.26726688649296937
560000000.0 0.23917446335251005 -0.40650910700205234
580000000.0 0.22263791226354687 0.37264604076202035
600000000.0 0.2539243474850947 0.3030931607871499
620000000.0 0.3635894777859183 -0.05766618761739088
640000000.0 -0.33145313070535226 -0.15374858908498773
660000000.0 0.36202649465543674 -0.0016629942672505324
680000000.0 0.15271345786023438 -0.3025344060249016
700000000.0 0.24404380652619145 0.2404778508403359
720000000.0 0.31089257186546243 0.15268829427581831
740000000.0 0.027095712582897558 -0.3349184140117554
760000000.0 -0.3028487560954978 0.03500508983700161
780000000.0 -0.23369094920391983 -0.12271259432756006
800000000.0 -0.23996192942029365 0.050812568363903486
820000000.0 -0.21136747335147688 0.06122365755683409
840000000.0 0.12852308433201295 0.1553721437213635
860000000.0 -0.004950565633830423 0.18096551289737256
880000000.0 0.17374203554011153 -0.04293929098064572
900000000.0 -0.14467555630636253 0.05367904732863346
920000000.0 -0.049018419149879464 0.13298677074606818
940000000.0 0.11231774031812145 -0.07694777186849307
960000000.0 0.05930458712423876 -0.08997856498126126
980000000.0 0.0586909827810678 0.03852782262727135
1000000000.0 0.03830668963981767 -0.0008719708404010469
1020000000.0 0.004366100404034187 0.028252467705812138
1040000000.0 -0.05805828951837339 -0.039147055859581566
1060000000.0 -0.09456183365208823 0.06971546025622626
1080000000.0 0.1285685890127069 -0.08282682289498883
1100000000.0 -0.06568202048483639 -0.17854251101210303
1120000000.0 0.2178163093246932 -0.058273582421313815
1140000000.0 0.2652250146424438 0.014386763436964775
1160000000.0 0.28964752819890616 -0.046320457732497516
1180000000.0 -0.04373947233827615 0.3164376744478285
1200000000.0 0.25070826449786426 0.22159894758994625
1220000000.0 0.017445221529867085 0.34296805360252525
1240000000.0 -0.08091307223350974 0.33039813910786137
1260000000.0 -0.30464811426928934 0.15032677348297643
1280000000.0 -0.29331360130120954 -0.18357637722158449
1300000000.0 0.11361530765742564 -0.3327345172004206
1320000000.0 0.34218996862517365 0.1080439758318534
1340000000.0 -0.11318097761750857 0.3570536025312567
1360000000.0 -0.3125583669788774 -0.21764340771778912
1380000000.0 -0.04155455591453437 -0.3787016728709153
1400000000.0 -0.3232986047807536 0.18658653872927689
1420000000.0 0.05683526118496307 0.3616038243031158
1440000000.0 0.36177336843277036 0.017260338550247153
1460000000.0 0.14176251111626167 -0.32669060378514014
1480000000.0 -0.14770045332971798 -0.3101953441026166
1500000000.0 -0.13384630341080125 0.30315345482521533
1520000000.0 0.2115579219316294 -0.22974059544535322
1540000000.0 -0.2554140147117074 -0.11082845293817518
1560000000.0 0.2410961831668686 0.03702008035121373
1580000000.0 -0.18077066085550617 0.10208065436416792
1600000000.0 -0.1498466910056113 0.08440902292794059
1620000000.0 0.14499599494719673 -0.04429528389285632
1640000000.0 0.12034164612482674 0.059187531180778345
1660000000.0 -0.009998147607154482 0.10579500392067995
1680000000.0 -0.013291502768970878 0.0829726560591272
1700000000.0 -0.005351155895278798 0.07198956858193951
1720000000.0 -0.05323787877083749 0.012273950490705638
1740000000.0 -0.005200864396807053 -0.04978461252150138
1760000000.0 0.02992693675639852 0.048300665296560116
1780000000.0 0.056829947993196316 0.061751982311405544
1800000000.0 0.08513878952419475 0.08841013452969779
1820000000.0 0.15952631755343988 0.0044951949923970275
1840000000.0 0.08992267031390005 0.1618455602929831
1860000000.0 -0.04133677521903499 0.2167749898559805
1880000000.0 0.2446727863834897 0.02063840206451187
1900000000.0 0.034422609003294156 -0.26440180783991746
1920000000.0 -0.2668136094191393 -0.10326669375924032
1940000000.0 0.12200669064021409 0.2752506128550351
1960000000.0 -0.29226254878341656 -0.11122132724857618
1980000000.0 -0.0321706682355383 -0.31695381501064873
2000000000.0 -0.008461322680430261 -0.3174646965951813
2020000000.0 0.29096180232921964 0.12087961885500988
2040000000.0 0.31354668570415306 -0.0056399620019417975
2060000000.0 0.25742710348580505 0.17037993112889727
2080000000.0 -0.28028125983081864 0.12451805293087527
2100000000.0 0.29801647377097645 -0.09314441712485837
2120000000.0 -0.08453988636148407 0.3010924681294504
2140000000.0 -0.210958814573502 -0.2249675561220286
2160000000.0 0.06787576222479802 0.29284683738158507
2180000000.0 0.28669844995350674 0.055772711794800825
2200000000.0 0.27453334616115954 0.0838235293184614
2220000000.0 0.010049061165528214 0.28023037778129595
2240000000.0 -0.07294866158072155 0.2666808818030591
2260000000.0 -0.26490921456824584 -0.01598640057108247
2280000000.0 0.06820568357946007 -0.24356659627232513
2300000000.0 0.2204591199873598 0.10541914207034112
2320000000.0 -0.22712159158881165 0.06594946128709965
2340000000.0 0.22339065347833975 -0.038109376831987785
2360000000.0 -0.22031351539148358 0.06559999035158211
2380000000.0 0.23523675439525177 0.005646193430413715
2400000000.0 0.07669505475906814 0.2404953213165469
2420000000.0 0.13391334457108345 0.24525086937744367
2440000000.0 -0.02670569160267727 -0.310225527219971
2460000000.0 0.2423522002882355 0.24429378929015724
2480000000.0 -0.04654333022307434 -0.3724610268244594
2500000000.0 0.36459508612392894 0.1913306136062179
2520000000.0 -0.32485640630341345 0.3126300375832475
2540000000.0 -0.1069449640994611 -0.476468601499575
2560000000.0 0.4569895533800617 0.25300224243018565
2580000000.0 -0.5541246910593093 0.04366896716119784
2600000000.0 0.44048188976713387 -0.3840817414868092
2620000000.0 -0.11296973891767499 0.5971900278022712
2640000000.0 -0.3080120274183966 -0.5441307786503554
2660000000.0 0.635992217752685 0.07661033534335286
2680000000.0 -0.10149081713098786 0.6413990021979771
2700000000.0 -0.615520490518835 0.23299189452456587
2720000000.0 -0.6592644440686954 0.0676135789906412
2740000000.0 -0.6596083832905347 -0.08380368878576033
2760000000.0 -0.6658940923821403 0.00012853802729951303
2780000000.0 0.044301413121230496 -0.658186376563225
2800000000.0 0.3388189996843143 -0.5561144324805289
2820000000.0 0.6364760340483367 -0.07614514994167818
2840000000.0 0.10985655591895081 0.619653058915883
2860000000.0 -0.3740915727552633 -0.4888908836825593
2880000000.0 0.1932349160501968 0.5681962233425956
2900000000.0 0.33643832780688915 -0.47337088256294274
2920000000.0 -0.4332490743435291 -0.352797486959186
2940000000.0 -0.4247887056151864 0.3285392340184944
2960000000.0 0.03971729421461127 0.5114512880396822
2980000000.0 0.46489042829233995 0.15275236915604629
3000000000.0 0.013489716894295395 -0.46425920084464223
3020000000.0 -0.419643827895371 0.13161156528553636
3040000000.0 0.3601114393698572 0.20694928118781086
3060000000.0 -0.33380386968176795 -0.20489458348209558
3080000000.0 0.17337951067088472 0.3261178555909213
3100000000.0 -0.23862525862874756 -0.2568842863612263
3120000000.0 -0.3405665809578502 -0.03064613847917658
3140000000.0 0.3326259978222312 -0.05186733768309426
3160000000.0 -0.318701829380244 -0.08966699904758532
3180000000.0 0.21242704411863336 0.25071500036963074
3200000000.0 0.07414773141019655 -0.3121330259162879
3220000000.0 -0.25602711126532623 0.1805848757248687
3240000000.0 -0.18560485566093823 0.2293003111675479
3260000000.0 -0.25155142391902996 0.11619334785742884
3280000000.0 -0.0623086045655184 -0.24752222035224142
3300000000.0 0.1842813324793608 0.15810178904318312
3320000000.0 -0.19590581876477314 0.10346229639312467
3340000000.0 -0.060980074865853766 -0.19596843393661212
3360000000.0 0.11714950157391205 -0.13556639708405627
3380000000.0 -0.13032564458551757 -0.07363717430023858
3400000000.0 -0.12961986777754922 -0.00019728130894136755
3420000000.0 -0.03529729750116197 0.1120460228937475
3440000000.0 0.1047386733533185 -0.029807223915384113
3460000000.0 -0.08051840130299714 0.0674620279466734
3480000000.0 0.09670154151813733 0.0072221859674106515
3500000000.0 0.024520272523513135 -0.07941236812556714
3520000000.0 0.06370427679646425 -0.042760562312254405
3540000000.0 0.06758068932654629 -0.020712327968382398
3560000000.0 -0.019958574580220628 0.07303696519974419
3580000000.0 0.06600650406353799 -0.04976640251652431
3600000000.0 0.0454657071054947 -0.07959122165816294
3620000000.0 -0.09798319535773475 -0.03295224561544638
3640000000.0 -0.08393481969992683 0.07429751513160149
3660000000.0 -0.027594105265785426 0.10592556383699533
3680000000.0 0.10303408406758217 0.012483608126903216
3700000000.0 0.07845831542214783 0.06097648038372317
3720000000.0 -0.047237083186641445 -0.0758290682352593
3740000000.0 0.01590601841560449 -0.08210913148667046
3760000000.0 0.045620845266840425 -0.05676095502545479
3780000000.0 0.033743712940133064 0.05648372061106259
3800000000.0 -0.018844371306841547 -0.04220028570991211
3820000000.0 0.015744402810699613 -0.03392823294868529
3840000000.0 -0.03869145954968913 -0.03576601534567716
3860000000.0 -0.07033763800224592 0.018166248057794043
3880000000.0 0.03799209272284865 -0.08121566712406506
3900000000.0 0.050765606049961796 -0.08753106530742054
3920000000.0 -0.011354108459245475 0.10346334393013723
3940000000.0 0.09642278065158426 -0.03515886120842541
3960000000.0 -0.08649192683685569 -0.04937205552940784
3980000000.0 0.08362499636130695 0.04717877814514365
4000000000.0 -0.0820293733829246 0.00943638814718768
