!Created with skrf (http://scikit-rf.org).
# Hz S RI R 50.0 
!freq ReS11 ImS11
400000000.0 -0.4249074029032012 -0.7259733334055958
420000000.0 0.6207601123756638 0.49026121886727475
440000000.0 0.22602736280506863 0.719440162407539
460000000.0 -0.6754464496379585 -0.16334738755961306
480000000.0 -0.5870146015162218 -0.17113560180266868
500000000.0 0.4535010688146795 -0.26031624899768696
520000000.0 0.06092667480113175 -0.38875496263299003
540000000.0 0.4448842743777383 0.11317267330288944
560000000.0 -0.024700348447558796 -0.471906446714697
580000000.0 0.42205549932319997 0.02912016987387406
600000000.0 -0.1001592009484283 0.3792378765431266
620000000.0 0.34620695517346833 -0.14365288389956213
640000000.0 -0.3327668406850424 -0.1418948795656116
660000000.0 0.2609712024855052 0.23921781562794658
680000000.0 0.2923899971313659 0.1741108293991182
700000000.0 0.2706274620042314 0.2326389742143888
720000000.0 0.0622316244683405 -0.3378488103824804
740000000.0 -0.19705237331538442 -0.2532701792194095
760000000.0 0.27284308498367854 -0.13498520932933014
780000000.0 -0.21067875096311414 -0.1683414678548836
800000000.0 -0.2088780414875694 0.13851897103060587
820000000.0 -0.2040572987387855 0.06541173177014036
840000000.0 0.03046347332658978 0.19090570580973298
860000000.0 -0.04626614039359831 -0.17507745229193244
880000000.0 0.1286196129559942 0.13942827297888685
900000000.0 -0.06547453700753232 0.1410709756186533
920000000.0 0.06792069180462831 0.12627034747927976
940000000.0 0.10195553221924 -0.09625369988339598
960000000.0 0.01911316345810168 0.10743605348899404
980000000.0 -0.051091517202758494 -0.028128509576160924
1000000000.0 0.02896603753293322 0.033994105124020575
1020000000.0 0.010258182621026339 -0.036909544901305685
1040000000.0 0.06691867823409979 0.03969216118225558
1060000000.0 0.0625296137057929 0.10630382551228677
1080000000.0 -0.15103802246635278 -0.01593674964801489
1100000000.0 0.09890777433428019 -0.16323384444237252
1120000000.0 0.21043200083963604 0.0962774810138578
1140000000.0 0.12107240450007856 -0.24543183244259234
1160000000.0 0.24508440384847605 -0.15537406285584535
1180000000.0 0.04008545357772771 0.3163729262747001
1200000000.0 0.20860882515523493 0.2649457987213275
1220000000.0 -0.04943650260768574 0.3405354170492384
1240000000.0 0.10728890093522252 0.3263204127890954
1260000000.0 -0.027234290782742494 0.3359628396299666
1280000000.0 -0.15171497450037585 -0.30584983499554314
1300000000.0 0.30641140305074516 -0.17862017650260384
1320000000.0 0.2965979915965364 -0.208937223346867
1340000000.0 0.27435233778152274 0.2452098578278578
1360000000.0 -0.13786438367627704 -0.34925562774619356
1380000000.0 0.18112084607800802 -0.3369141225200654
1400000000.0 -0.2873603166187959 0.24141449313115093
1420000000.0 0.22500360173875086 0.2886426283414292
1440000000.0 0.3418513603011473 -0.10749447294027373
1460000000.0 0.3210162611395344 -0.15158207012380176
1480000000.0 0.0345055325609163 -0.3430487234017191
1500000000.0 -0.11223253708845453 0.316534187412587
1520000000.0 0.16891681114799326 -0.25902414834461673
1540000000.0 -0.20915551512521552 -0.17978872867563964
1560000000.0 -0.010864346166714889 0.24621531189579537
1580000000.0 -0.195677199019068 0.07966353429545363
1600000000.0 -0.08335508553457023 0.1518622262309838
1620000000.0 0.08830032748323881 -0.12542999076816944
1640000000.0 0.007700648148633318 0.1336172886015739
1660000000.0 0.06301177902576524 0.08573687370655518
1680000000.0 0.022720031302593466 0.08521346807944506
1700000000.0 0.06111273211665159 -0.0414419146820965
1720000000.0 0.02897393667202225 0.04655743504926056
1740000000.0 -0.04274835187071577 0.02019981962363113
1760000000.0 -0.054225287581501885 -0.014875377667623091
1780000000.0 -0.07393776276068048 0.04220958925497419
1800000000.0 0.04612980063614441 0.11310906726546305
1820000000.0 0.07142046748079059 0.14148621039727025
1840000000.0 -0.02801660670058551 0.18685125915939327
1860000000.0 0.11319031067507396 0.19169082995627815
1880000000.0 0.23679032123375526 0.06076690985125978
1900000000.0 0.042404648648584946 -0.2639432266664604
1920000000.0 -0.2421386858442696 -0.15466627718116194
1940000000.0 0.04191731645814745 0.2992270258776842
1960000000.0 -0.3094052590780924 -0.05869155829773355
1980000000.0 -0.1785269423090928 -0.26412936578326257
2000000000.0 -0.11848552021061134 -0.2937155294760421
2020000000.0 0.30936605986777543 0.04589443143999165
2040000000.0 0.31029334459039903 0.04344771479502239
2060000000.0 0.2391021713489332 0.19319286610200345
2080000000.0 -0.30178602124163606 0.05044255994866016
2100000000.0 0.28015938165716553 -0.1421004202506789
2120000000.0 -0.001184943795253686 0.31171807817063596
2140000000.0 -0.24194269299070897 -0.1890240624082518
2160000000.0 0.018198153149032573 0.2997620366788168
2180000000.0 0.29174068358188643 0.02690458200682329
2200000000.0 0.2534605468622231 0.1337656240820026
2220000000.0 0.05621940241153448 0.2760203281954166
2240000000.0 -0.04541290853942098 0.2712491070822047
2260000000.0 -0.2322416997262564 -0.13284871121793757
2280000000.0 0.0066676447871514 -0.25454423962665307
2300000000.0 0.23473771350360217 0.06346829302490407
2320000000.0 -0.2315452429803914 -0.04534002917504561
2340000000.0 0.22719721225721956 0.013254345958342427
2360000000.0 -0.2259798744673577 0.03709122212795217
2380000000.0 0.22313587116942124 0.07541977847916995
2400000000.0 0.09595127169851109 0.23208897814800708
2420000000.0 0.13122922398547485 0.24486934545453254
2440000000.0 -0.11250277907686614 -0.29161734276978307
2460000000.0 0.3214493397585726 0.1198438464451649
2480000000.0 -0.031542434525910275 -0.374012087854065
2500000000.0 0.3878438154769185 0.14162935341151117
2520000000.0 -0.2776140916332929 0.356803058922661
2540000000.0 -0.13800423392998734 -0.46956530649914
2560000000.0 0.4645316612237397 0.24129121237035628
2580000000.0 -0.5549189287649771 0.03466163138651325
2600000000.0 0.43316407909332727 -0.3928977147617717
2620000000.0 -0.1129909231843804 0.5967381203831122
2640000000.0 -0.3267427440243105 -0.5322010106570952
2660000000.0 0.6389738855905527 -0.014440935859834076
2680000000.0 -0.05396454159621887 0.6471143434151011
2700000000.0 -0.5467624408853117 0.3663413160241958
2720000000.0 -0.6366773432891463 0.18497361058496617
2740000000.0 -0.6657423066397498 0.007620697157280339
2760000000.0 -0.6653772704076615 0.044578936441986974
2780000000.0 0.07934453116771421 -0.6566662552019921
2800000000.0 0.2684910885808626 -0.5940517798058745
2820000000.0 0.6326735571278265 -0.10747925940636377
2840000000.0 0.07939939570601298 0.6245413545171569
2860000000.0 -0.35061008130089855 -0.5051304161811097
2880000000.0 0.15251073735603787 0.5803481316757695
2900000000.0 0.29863432972395054 -0.4990714046667318
2920000000.0 -0.4804489002687123 -0.2847898459750423
2940000000.0 -0.38563820986491293 0.37019366192920705
2960000000.0 -0.002178330583196481 0.5119194801740939
2980000000.0 0.4858740929122147 0.07656807402813341
3000000000.0 0.006034668405682067 -0.4658355644314797
3020000000.0 -0.41506474602142035 0.1509945448142194
3040000000.0 0.36885711049685976 0.19375888446746456
3060000000.0 -0.3466210219282506 -0.18051933764315556
3080000000.0 -0.03222460499345819 0.3683542425814847
3100000000.0 -0.23140166990616187 -0.26693379882439194
3120000000.0 -0.3402795575339883 -0.023378470103404263
3140000000.0 0.332518071669505 0.02846600737817172
3160000000.0 -0.25286660299437386 -0.2115861301074626
3180000000.0 0.2278192759827941 0.23617010703224095
3200000000.0 0.05631158776181349 -0.31523913975092027
3220000000.0 -0.2470383003692808 0.19289174110474716
3240000000.0 -0.02826286530959458 0.292823886221749
3260000000.0 -0.2507029791496707 0.11597843407593539
3280000000.0 -0.06033478215101654 -0.250174030617955
3300000000.0 0.22775432053451286 0.09011256316403045
3320000000.0 -0.13570157958024187 0.17814786127252014
3340000000.0 -0.08648107925606276 -0.18679851939774722
3360000000.0 0.04217095850965582 -0.17646658321979147
3380000000.0 -0.13748297126607786 -0.061193160336245854
3400000000.0 -0.08811824056007526 -0.09611117202390893
3420000000.0 -0.10632901172343728 0.05260030972485998
3440000000.0 0.10870200835616384 0.018487180953874038
3460000000.0 -0.08759176386311374 -0.056475516010091424
3480000000.0 0.017207019383590563 0.09479028762030518
3500000000.0 0.07953533721061148 0.003320072301617756
3520000000.0 0.025026086474968515 0.07093412610759002
3540000000.0 -0.00029141191713931777 0.06887202462362056
3560000000.0 -0.05397429015044722 0.05002460911883087
3580000000.0 0.07546879600819367 -0.028439767189732137
3600000000.0 0.08415251011322902 -0.03680270032150081
3620000000.0 0.029590539914402855 0.09876351862038929
3640000000.0 0.08928021711958506 0.06358818565170786
3660000000.0 0.1084155263037503 0.009149379504891243
3680000000.0 0.05052539908612048 -0.09407229079613312
3700000000.0 0.02903530557561579 -0.09767259303152531
3720000000.0 -0.013414571986763806 0.09020652328511171
3740000000.0 -0.08515827104300877 -0.0022513608164032254
3760000000.0 -0.07178901694111041 0.023514927195728542
3780000000.0 -0.021103600996413212 -0.0645384297795459
3800000000.0 -0.04852442915241734 0.002951379024306861
3820000000.0 0.030449824119281984 0.026483524593099467
3840000000.0 0.04953913934388587 -0.023151066522967504
3860000000.0 -0.011592525680891022 -0.07114509223523713
3880000000.0 -0.08098206072537899 0.03841340295564662
3900000000.0 -0.10398435284515858 0.01355112853952422
3920000000.0 0.09431321744437902 0.0522928587770783
3940000000.0 -0.087280997659771 -0.061853920656233644
3960000000.0 -0.09425430063373429 0.046059070887228555
3980000000.0 0.09533258375800169 -0.026963423187663635
4000000000.0 -0.06132966932603777 -0.057712945773169384
