!Created with skrf (http://scikit-rf.org).
# Hz S RI R 50.0 
!freq ReS11 ImS11
400000000.0 -0.3669456328920014 -0.756650878865031
420000000.0 0.6702294987448894 0.42043778814228006
440000000.0 0.2560672128423093 0.7095791378677466
460000000.0 -0.6618947925067565 -0.20752876050506971
480000000.0 -0.5895415634854597 -0.16191511413129075
500000000.0 0.5180112003480447 -0.07315594483672228
520000000.0 -0.015349077056895009 -0.394580772877727
540000000.0 0.3652749557029171 0.2710715558251848
560000000.0 -0.05114494585039086 -0.4720979996003019
580000000.0 0.41865103626469213 -0.06948654605867027
600000000.0 -0.34004122538247766 0.19608654435599762
620000000.0 0.23035527412491272 -0.2955404378054042
640000000.0 -0.23451466120803383 -0.27633786886654066
660000000.0 0.3343399925551476 0.11615010542344961
680000000.0 0.25394601374716186 0.22779412308524052
700000000.0 0.229221364369735 0.2712096327481764
720000000.0 0.10896972871429911 -0.329120966961879
740000000.0 -0.25274836557153885 -0.19697234115600837
760000000.0 0.30412123640943134 0.000765296876707424
780000000.0 -0.20485698867954544 -0.17239327763250967
800000000.0 -0.24701495655472375 0.046798975179153664
820000000.0 -0.18403896837950515 0.11027406669326857
840000000.0 -0.034037526737507054 0.19114027968674
860000000.0 0.013119968257682408 -0.17966091865633305
880000000.0 0.12307131195672111 0.14327834854609056
900000000.0 -0.08771192166064944 0.13176413107652668
920000000.0 -0.02398725108852166 0.1400633555387309
940000000.0 0.0012578338791547482 -0.14075925247497256
960000000.0 -0.013148671335214936 0.10644736714723933
980000000.0 -0.04689005829900487 -0.0382816403373175
1000000000.0 -0.016495834159682317 -0.041659723015411036
1020000000.0 0.03202930095108953 0.01761554167007575
1040000000.0 0.07601757679938297 0.016709489054146386
1060000000.0 0.026834840140910633 0.12100225754841346
1080000000.0 -0.14921565613901303 0.01989635208250173
1100000000.0 0.15408490354495522 -0.11049228731989147
1120000000.0 0.23116135952532624 0.002935660669982538
1140000000.0 0.2133160687188462 -0.17038632243003154
1160000000.0 0.17332966629742164 -0.23341515324954523
1180000000.0 -0.031640571274905244 0.31778384117484176
1200000000.0 0.16359735657329322 0.2936295465999612
1220000000.0 -0.07820302479333784 0.33527214370691966
1240000000.0 0.12644542228114852 0.3192084165717077
1260000000.0 -0.07552855521634314 0.327890851411506
1280000000.0 -0.23334562238166504 -0.249101818389123
1300000000.0 0.3271422459235673 -0.1398105515492438
1320000000.0 0.27273832653988944 -0.2397828215579165
1340000000.0 0.21726504298270147 0.29675405601844634
1360000000.0 -0.19622372155381765 -0.3216928593949046
1380000000.0 0.21478876222645757 -0.3156668108993376
1400000000.0 -0.295448106029965 0.23373001066046722
1420000000.0 0.23082484766882425 0.2828231994842005
1440000000.0 0.3576785057735065 -0.022332865669958367
1460000000.0 0.26592245598210107 -0.23420997116348913
1480000000.0 0.06348073620072944 -0.3385768279447612
1500000000.0 -0.09757469428264934 0.321240341752884
1520000000.0 0.07358477682375783 -0.30037422056312657
1540000000.0 -0.1417023920835588 -0.2358841634340159
1560000000.0 -0.007294385273951058 0.24700064368925229
1580000000.0 -0.1615261730981801 0.13553133475738754
1600000000.0 -0.07539763587681039 0.15460603015110239
1620000000.0 0.12617252342366944 -0.08845265434530442
1640000000.0 0.10706791150102064 0.0793501029044796
1660000000.0 -0.014268768609427607 0.10610865444483188
1680000000.0 0.022868809124001854 0.08506584434398927
1700000000.0 0.07354017862059711 0.006254446879885752
1720000000.0 0.03210801192719008 0.045098403885802094
1740000000.0 -0.04179229443132573 -0.02227576964566332
1760000000.0 -0.05631871932936417 -0.0007208282943761631
1780000000.0 -0.08382142160467787 0.010215999246995565
1800000000.0 0.03509511114897048 0.11679942806148244
1820000000.0 0.03359264689643278 0.15519060288471057
1840000000.0 -0.03154167303798973 0.18614378963560047
1860000000.0 0.09131580997633644 0.2033210731939419
1880000000.0 0.23974269952170935 0.05215621396131617
1900000000.0 0.06131715007797958 -0.2595299938116765
1920000000.0 -0.2510828478142799 -0.1396678930378555
1940000000.0 0.10071281818753715 0.28448787041024276
1960000000.0 -0.3032669424963455 -0.08556515677343651
1980000000.0 -0.18820346495401394 -0.25802675650297924
2000000000.0 -0.1137875028456858 -0.29527635067746
2020000000.0 0.30838546706568154 0.053804846274401616
2040000000.0 0.29613664443062193 0.09913020374590581
2060000000.0 0.23712175138439107 0.19556768232248595
2080000000.0 -0.30517034773605756 0.022142105652789477
2100000000.0 0.2949092877963919 -0.10758221813864645
2120000000.0 -0.02812446374209719 0.31041455935645296
2140000000.0 -0.22242552022381215 -0.21182405382592948
2160000000.0 0.06542460945922987 0.29312978160074826
2180000000.0 0.28436274531828504 0.07179394133596154
2200000000.0 0.2568944556349045 0.12700866280510154
2220000000.0 0.06022546988624057 0.2748506822746841
2240000000.0 -0.07102098062634173 0.26586121204433766
2260000000.0 -0.24242910340790397 -0.11294379928578835
2280000000.0 -0.008458614345604737 -0.25429581516662186
2300000000.0 0.22991837621864009 0.07946103059477727
2320000000.0 -0.23395218335349371 -0.033272542561315406
2340000000.0 0.22411051653410324 -0.03539138623231335
2360000000.0 -0.22659246270100017 0.03342678648315411
2380000000.0 0.23377355904619318 0.02889700015804584
2400000000.0 0.071827048512548 0.24089102338420532
2420000000.0 0.14673975132139663 0.2364901228760064
2440000000.0 -0.11943878353496659 -0.28885254286276213
2460000000.0 0.28513149984473396 0.18988926453132257
2480000000.0 -0.02675793918520749 -0.3742474487555536
2500000000.0 0.3589259687474834 0.20463564255286543
2520000000.0 -0.26094403748094286 0.36808727291331456
2540000000.0 -0.06808796132351012 -0.48356880593985085
2560000000.0 0.45678269226516793 0.25525625209196934
2580000000.0 -0.5532097629071691 0.05243300181368365
2600000000.0 0.45347387854759014 -0.36891882300409007
2620000000.0 -0.17432921813894603 0.5815612755554181
2640000000.0 -0.33180710657200563 -0.5292747990976457
2660000000.0 0.6395059396353268 0.01704930972389699
2680000000.0 -0.015550559870596973 0.6492408900246349
2700000000.0 -0.5621227258821678 0.3433185542584556
2720000000.0 -0.6515019287222049 0.1241568200763012
2740000000.0 -0.6648624744424874 -0.03821953804243462
2760000000.0 -0.6663849772689828 -0.01464250424280274
2780000000.0 0.049337775264806906 -0.6590067099034742
2800000000.0 0.29899521655399214 -0.578812364634548
2820000000.0 0.633937217887097 -0.09847874171175597
2840000000.0 0.0784678185076933 0.6244009608381673
2860000000.0 -0.29986433109156807 -0.5363766560696348
2880000000.0 0.14968976344931104 0.5812365795414581
2900000000.0 0.31106471768773264 -0.4923431364509478
2920000000.0 -0.481918285446183 -0.2851464132445665
2940000000.0 -0.4272310650642413 0.3220267213749047
2960000000.0 -0.01028443497627719 0.512407141398954
2980000000.0 0.4788179989808865 0.11388823117985386
3000000000.0 0.039891738380685625 -0.4645331498403853
3020000000.0 -0.42542339411770114 0.11850336373176866
3040000000.0 0.36211629072716267 0.20589842554644447
3060000000.0 -0.3510854002278164 -0.17115771807057997
3080000000.0 0.005428517434912489 0.36913040895159976
3100000000.0 -0.1786439772858643 -0.3042649804942913
3120000000.0 -0.33616016058193654 -0.05733163194745046
3140000000.0 0.331117618406818 -0.04162408198674081
3160000000.0 -0.2621114345814814 -0.19992469100275528
3180000000.0 0.22510550559100737 0.23937185391241228
3200000000.0 0.03532382927212464 -0.3186802374460049
3220000000.0 -0.2599731193218549 0.17684891711442527
3240000000.0 -0.053119574203532645 0.28963305902572856
3260000000.0 -0.244050466933524 0.12838007011332908
3280000000.0 0.007032036881302392 -0.25792857845995926
3300000000.0 0.22221638261184756 0.1040595337026805
3320000000.0 -0.1799873293393937 0.1321529293934727
3340000000.0 -0.08302792978864472 -0.1885319665019132
3360000000.0 0.10140544669595603 -0.14997396416710976
3380000000.0 -0.14962272956782632 0.01174656760458982
3400000000.0 -0.06434895625820689 -0.1136549352733511
3420000000.0 -0.11277527820600249 0.03679879181009064
3440000000.0 0.10641523635032361 -0.02841156710204035
3460000000.0 -0.08242065340074055 -0.06266886332203592
3480000000.0 0.021838385386656344 0.0948466799399747
3500000000.0 0.0777479713397737 -0.01651146510397871
3520000000.0 0.01411081329154397 0.0737175060076414
3540000000.0 0.0002131617728844403 0.06922643904354718
3560000000.0 -0.06816874003827361 0.027472273876296402
3580000000.0 0.07617974189612535 -0.027447922103637286
3600000000.0 0.07449717680501314 -0.053429999295190156
3620000000.0 0.0438086878832669 0.09419636754340936
3640000000.0 0.08921672380205459 0.0632528651427275
3660000000.0 0.10785151037528705 0.02095226531609543
3680000000.0 0.03413410972859377 -0.10115048784805039
3700000000.0 0.029530305025687088 -0.09725635413818083
3720000000.0 -0.07079571168797107 0.057536278151504944
3740000000.0 -0.08277349107778095 0.021493704920563763
3760000000.0 -0.050283974823647194 0.05658024523244584
3780000000.0 -0.047481577159514954 -0.048690032609803195
3800000000.0 -0.044643432589805986 -0.021263095322229066
3820000000.0 0.03887987551175092 0.00891760437887688
3840000000.0 0.054729921720178654 0.007020038617263168
3860000000.0 0.0296302098097841 -0.06530645966505656
3880000000.0 -0.05485929035388765 0.07125301324773016
3900000000.0 -0.09970856521118061 0.03151860636457043
3920000000.0 0.08650091288014104 0.06353418381233054
3940000000.0 -0.09511026346349359 -0.04972750419710638
3960000000.0 -0.07070011273028269 0.07714200781937375
3980000000.0 0.09852243565398208 -0.006072944001992987
4000000000.0 -0.08486813107480565 -0.003716450495956797
