!Created with skrf (http://scikit-rf.org).
# Hz S RI R 50.0 
!freq ReS11 ImS11
400000000.0 -0.4708929014364314 -0.6902342874963074
420000000.0 0.18035163418834194 0.7659175527049393
440000000.0 -0.19200255786915255 0.7395964403566979
460000000.0 -0.6852052100684316 0.15144823586171968
480000000.0 -0.47888425982627963 0.3802636608034277
500000000.0 0.4184810090180341 -0.3197878453892017
520000000.0 0.36066109669696683 -0.17037908861217704
540000000.0 0.2999730083846279 0.33527740467596046
560000000.0 0.3190701281309926 -0.35455054089258625
580000000.0 0.38332401199627764 0.20754142300642464
600000000.0 -0.21942222271493692 0.322361984232331
620000000.0 0.3116981776961693 -0.20757939289027483
640000000.0 -0.3614123809969114 0.04163393796341883
660000000.0 0.2151050676836707 0.2790176295631785
680000000.0 0.2630446830174864 0.22633263222167044
700000000.0 0.34840558231121715 -0.040614542107447804
720000000.0 0.13942350324180255 -0.3156591867342798
740000000.0 -0.23024959759309543 -0.22621791743009592
760000000.0 0.2346343686800473 -0.19746410708869855
780000000.0 -0.19395087608573564 -0.18567507021491225
800000000.0 -0.17778084051604845 0.18173627032364095
820000000.0 -0.13326481565891074 0.17246270232029706
840000000.0 0.1785034008962967 0.08173674319110362
860000000.0 -0.163953035784486 0.06813868123958505
880000000.0 0.18620270686575763 0.030602814627199017
900000000.0 -0.0009811674441260628 0.14981274258053096
920000000.0 -0.08619009036645002 0.10905940401499245
940000000.0 0.10796396256449531 -0.08993502346322206
960000000.0 -0.03918770311837748 0.10287708488462473
980000000.0 -0.03662689562766669 0.04619755781272621
1000000000.0 -0.032105158515292304 -0.024774022708534526
1020000000.0 -0.03680393005601218 -0.0033681580692156428
1040000000.0 0.010432863942746864 0.07156962321364778
1060000000.0 -0.00929052384717508 0.11790923735571326
1080000000.0 -0.1486531300111827 0.03280251231369674
1100000000.0 0.15921962321158772 -0.0918427946345599
1120000000.0 0.17212781279931696 0.1516686736388846
1140000000.0 0.15857120214506393 -0.22005068535455732
1160000000.0 0.2542715607120954 -0.13842618610360136
1180000000.0 -0.03854363642467572 0.31651010841258764
1200000000.0 0.09123441134843455 0.3229160940965398
1220000000.0 0.004667014294190124 0.34361302761411183
1240000000.0 -0.04047499889016651 0.34060503597992225
1260000000.0 -0.10722829027013225 0.3215415791500283
1280000000.0 -0.2588793701940256 -0.21539200414161153
1300000000.0 0.3487171994248218 -0.07740118820403684
1320000000.0 0.31750006378457063 -0.17786374674980573
1340000000.0 0.05783911695237294 0.36435795246632735
1360000000.0 -0.2310773993660325 -0.30020395954078977
1380000000.0 0.13410784612120494 -0.35790417243277134
1400000000.0 -0.26493814763003465 0.26753815532042496
1420000000.0 0.1496067848712175 0.3328069678319337
1440000000.0 0.35535531557258454 -0.06676758017018009
1460000000.0 0.27220633128798083 -0.22693270523208628
1480000000.0 0.029414822649858046 -0.34480308046684155
1500000000.0 0.01049628112130776 0.3359824959410513
1520000000.0 0.1541710321732105 -0.2680248282070877
1540000000.0 -0.2439128329111865 -0.12928753414894228
1560000000.0 0.15543787530976494 0.19026632902856908
1580000000.0 -0.20087615783554874 0.060267657918686386
1600000000.0 0.005043632710731732 0.16860877559028173
1620000000.0 0.15336912421888524 -0.007700572485575773
1640000000.0 0.13200275493142122 0.014012499179716057
1660000000.0 -0.10430280213289872 0.005780259880798951
1680000000.0 -0.0057349562677943165 0.08669558592926054
1700000000.0 0.03901712065156126 0.0620121247704774
1720000000.0 -0.023221437522692276 0.0503431405097949
1740000000.0 0.034576691754465476 -0.03425614644282216
1760000000.0 0.05870802862593937 0.008632411351348169
1780000000.0 0.03761588727304824 0.07916717810369417
1800000000.0 0.03198847492297322 -0.11510094293343683
1820000000.0 0.022841780778193387 0.15516640036309978
1840000000.0 0.12111284926584741 0.14563133983506277
1860000000.0 0.0008502003128130659 0.2206260336659043
1880000000.0 0.242856573103531 0.041092751885413635
1900000000.0 0.05291153534278877 -0.2607866259024326
1920000000.0 -0.23071502640923036 -0.16807876281943981
1940000000.0 0.0627991114089066 0.2938331582070643
1960000000.0 -0.2881255699682642 -0.12453153815946022
1980000000.0 -0.05328708102335642 -0.314135431825928
2000000000.0 0.03234787932388595 -0.3154501060900556
2020000000.0 0.30576307111655376 0.07392877503443192
2040000000.0 0.3052641207248768 0.06956165362414445
2060000000.0 0.28705633816223497 0.11408512626778686
2080000000.0 -0.2867392652140457 0.10958305984765321
2100000000.0 0.2850563340041731 -0.13322317427154418
2120000000.0 0.06384678112313892 0.30535293835488614
2140000000.0 -0.19522308354963533 -0.23815340434458218
2160000000.0 0.06714462170679872 0.2935241369919238
2180000000.0 0.2805724127747428 0.08849859017943308
2200000000.0 0.26908118212197973 0.10140441191812664
2220000000.0 0.04929284005528081 0.2762348499695273
2240000000.0 -0.09582382562537298 0.25752823369475336
2260000000.0 -0.2639530745614552 -0.031505062455650885
2280000000.0 0.07996245638068192 -0.24096558268772877
2300000000.0 0.23039967704677 0.08194649193415549
2320000000.0 -0.2302329664959582 0.050087869822148426
2340000000.0 0.22083035837801107 -0.0555866311367644
2360000000.0 -0.22387986334636847 0.04249512544264514
2380000000.0 0.23579914001375443 -0.008909166835743321
2400000000.0 0.07805958912938041 0.2402511391372482
2420000000.0 0.17075130949761477 0.21914572628622841
2440000000.0 -0.07978004611715023 -0.3018664481289531
2460000000.0 0.2651064943861472 0.21862259049751717
2480000000.0 -0.059406222200659276 -0.3716551679409569
2500000000.0 0.36429342879909843 0.19251302470192197
2520000000.0 -0.2620959936090748 0.36807172414339323
2540000000.0 -0.1367225549010883 -0.4685552204414632
2560000000.0 0.45459603364818946 0.2577767845788533
2580000000.0 -0.5532274523417826 0.05346058839568769
2600000000.0 0.4503782642784655 -0.37293879106130995
2620000000.0 -0.12685515338309872 0.5943618994941129
2640000000.0 -0.30709359514165424 -0.5450345257980277
2660000000.0 0.6387780064920855 0.04452071853873108
2680000000.0 -0.13122368754834635 0.6364472262750531
2700000000.0 -0.5960096556041887 0.28007466739583814
2720000000.0 -0.657529530523356 0.08372295195792999
2740000000.0 -0.6565594924193465 0.10693863044584584
2760000000.0 -0.6640984712100161 -0.049088799148660156
2780000000.0 0.004985680534105915 -0.659991449425552
2800000000.0 0.2896749574864319 -0.5829615499745344
2820000000.0 0.6333929842626244 -0.09656095131334734
2840000000.0 0.10914965573988494 0.619246043000115
2860000000.0 -0.31852369060446123 -0.5257783015220875
2880000000.0 0.17940168805581613 0.5730130735067999
2900000000.0 0.29930108603885774 -0.4989890868225995
2920000000.0 -0.4726723580484717 -0.2990836707078891
2940000000.0 -0.39820420622553737 0.358842319993106
2960000000.0 -0.05085145755819154 0.5095435660948265
2980000000.0 0.47241180889929246 0.13501023834173995
3000000000.0 -0.02266712962146505 -0.4658663781147959
3020000000.0 -0.41880442333592366 0.13705056483532835
3040000000.0 0.3802073437863844 0.16945304706372263
3060000000.0 -0.35741421340966567 -0.1570189480091931
3080000000.0 -0.0493092362306658 0.36593444707097894
3100000000.0 -0.25147957914743585 -0.24814219171314836
3120000000.0 -0.33654578176437916 0.05709790437017568
3140000000.0 0.3349425888687336 0.0041136865844839015
3160000000.0 -0.31218158070169666 -0.10694666553058622
3180000000.0 0.2463034140514732 0.21799521875557806
3200000000.0 0.06963448550392502 -0.31260034846009616
3220000000.0 -0.2759507352543439 0.1508534375306955
3240000000.0 0.011071013151118731 0.29518462186723915
3260000000.0 -0.2506323010806562 0.11406750708208198
3280000000.0 -0.03957325480846668 -0.25481917992607017
3300000000.0 0.22022333811670627 0.10384120361508277
3320000000.0 -0.18973555041027595 0.11673036506541419
3340000000.0 -0.05001600911893602 -0.199716857522708
3360000000.0 0.15404336230860827 -0.09530284972252871
3380000000.0 -0.14659740483029088 -0.029782965080023177
3400000000.0 -0.11319751107124952 -0.06587541483874049
3420000000.0 -0.10749758850595417 0.050141737510968565
3440000000.0 0.10620208732146896 -0.032596599178842084
3460000000.0 -0.09915125420108054 -0.027129208264813638
3480000000.0 -0.002821002814046099 0.09747683715264398
3500000000.0 -0.044890929735337926 -0.06835011421087743
3520000000.0 0.02204697149186022 0.07174483918883166
3540000000.0 0.061511303211398395 0.034555122337332045
3560000000.0 0.046596982592180314 0.05584975447524088
3580000000.0 0.056261770037386825 -0.05798394502785531
3600000000.0 0.03087201503410853 -0.0860406707632019
3620000000.0 -0.021405000451325817 0.10118309754679063
3640000000.0 0.0801263274299319 0.07517842340617793
3660000000.0 0.05021358163203997 0.09731113668693675
3680000000.0 0.0038075175990007763 -0.10587796301685987
3700000000.0 0.07579632668332766 -0.06524507252910547
3720000000.0 -0.05216290666188685 0.07541515954078055
3740000000.0 0.003728840916733542 -0.08436216025244542
3760000000.0 -0.0664422467498797 -0.03513034946730087
3780000000.0 0.01792649352874248 -0.06651152233509824
3800000000.0 -0.02256451655999461 0.04325219845320397
3820000000.0 -0.03757348502309972 -0.006549199227001515
3840000000.0 0.04895672283826811 -0.021454395918560725
3860000000.0 0.0354090169571691 0.0631637276816692
3880000000.0 -0.089402411554783 -0.010510518643617878
3900000000.0 -0.06608455341131354 -0.07886057101143931
3920000000.0 0.09208627380405489 0.05242025690362035
3940000000.0 0.009045040319315056 -0.10442203079032157
3960000000.0 -0.10115539446335259 -0.019289562164156858
3980000000.0 0.07309660337187932 -0.06475078234204824
4000000000.0 -0.08229065567064368 0.012379958135557022
