!Created with skrf (http://scikit-rf.org).
# Hz S RI R 50.0 
!freq ReS11 ImS11
400000000.0 -0.45598729874006466 -0.6976691424504886
420000000.0 0.13302929471288918 0.7782534790557178
440000000.0 -0.15693110270494162 0.7471589406629305
460000000.0 -0.6858210248624163 0.15907103995835553
480000000.0 -0.5229229360620379 0.313217002685659
500000000.0 0.4708747876609497 -0.23420478047122878
520000000.0 0.32844375140841714 -0.20826180966115473
540000000.0 -0.005123150004177743 0.4652027549964507
560000000.0 -0.09737985784977968 -0.464338013031155
580000000.0 0.41325080183867113 0.12460353029240911
600000000.0 0.2393041214524863 0.31046840203519416
620000000.0 0.3668361005151754 -0.02766849848319433
640000000.0 -0.3405211952108705 -0.1282399684917937
660000000.0 0.2571032373597455 0.2504369315579635
680000000.0 0.2954345977619472 -0.176769630798546
700000000.0 0.3001983336212901 -0.17620652922947969
720000000.0 0.25742718872915654 -0.22928582079534018
740000000.0 -0.24325439303932483 -0.21696845188517855
760000000.0 0.19728750002783108 -0.2309905063133956
780000000.0 -0.12819646513544206 -0.2389537647538002
800000000.0 0.004758920458305879 0.25221463569563657
820000000.0 0.13876971699553955 0.16739943115882486
840000000.0 -0.1683726900694832 0.09138200561633804
860000000.0 -0.11918413845166209 -0.13779280315277487
880000000.0 0.14570968713801297 -0.11783800090191608
900000000.0 0.02659136886000373 0.15033751130328096
920000000.0 -0.07237613263271192 0.11544851968645586
940000000.0 -0.047583326095522994 0.12895919223040975
960000000.0 -0.1119293315817428 0.005069161331432732
980000000.0 -0.018386829518434428 0.06365346563392037
1000000000.0 0.022897527582992034 0.026250493860156546
1020000000.0 -0.004128574867721623 0.02872702284647471
1040000000.0 0.04610831388766636 -0.05641618895345188
1060000000.0 0.018690743279474176 0.12017884618829953
1080000000.0 0.024586679761244547 -0.14658016762155157
1100000000.0 0.12803809203377234 -0.14138928656131824
1120000000.0 0.15574436716797138 -0.16434909854841234
1140000000.0 0.20705883983435402 -0.1683781847052673
1160000000.0 0.2870130570266837 0.047820033692364726
1180000000.0 -0.05260185857702126 0.3159752446844882
1200000000.0 0.24674670340499782 0.22778648813720953
1220000000.0 0.025984311985803046 0.3428094186511405
1240000000.0 -0.056382764209188925 0.33628199231079975
1260000000.0 -0.24056249238926594 0.23887514518530054
1280000000.0 -0.2087441264848748 -0.2713476878266094
1300000000.0 0.2658355625597961 -0.23371293866799464
1320000000.0 0.353338626013216 -0.0754538840652778
1340000000.0 0.014224012241785324 0.37089259720383755
1360000000.0 -0.3365583356101501 -0.17654642441003665
1380000000.0 0.1648295991610997 -0.34330027865070734
1400000000.0 -0.35361291533059885 0.12497249502360795
1420000000.0 0.258940769512813 0.26080441087205536
1440000000.0 0.3548453386780541 -0.052798367870365195
1460000000.0 0.27802091705061827 -0.22230306230078145
1480000000.0 -0.08151241246373356 -0.3337239252496493
1500000000.0 -0.13372234115373907 0.3057772006251587
1520000000.0 0.1254343143647474 -0.2855109122217201
1540000000.0 -0.2757098646132897 -0.019353035881109766
1560000000.0 0.16510401565452124 0.17965925052999612
1580000000.0 -0.20439845685609112 0.043829623799931355
1600000000.0 -0.08410235151952467 0.15025434195250592
1620000000.0 0.10576425439720516 -0.10729704171162756
1640000000.0 0.08218788777766249 0.10501051465931746
1660000000.0 -0.042118968767073446 0.09732667091658843
1680000000.0 -0.032332344037987217 0.07849607620663665
1700000000.0 0.05660432514602877 0.04597648056094512
1720000000.0 -0.05337897739042026 0.0012899493390950507
1740000000.0 -0.03280130887182951 -0.03703229892795344
1760000000.0 0.02267134969008858 0.052288840857576444
1780000000.0 0.07772004457391052 0.03718445323954686
1800000000.0 0.12150759531215595 0.004024184063398269
1820000000.0 0.14142991859465537 0.0717473009935971
1840000000.0 0.06805463231726926 0.17319646855010104
1860000000.0 -0.021785183712923067 0.22066161534458317
1880000000.0 0.2426947049768 0.03351159409795632
1900000000.0 -0.03975641342570585 -0.2636277136492121
1920000000.0 -0.2633469952742386 -0.11349976569042833
1940000000.0 0.07255687938739909 0.29163725928151774
1960000000.0 -0.2803678323567933 -0.1402141906602969
1980000000.0 -0.07359234836269866 -0.3103903133622561
2000000000.0 0.06029866151749436 -0.3121797742629865
2020000000.0 0.30342054649027334 0.08688018731886957
2040000000.0 0.31177246934620234 0.010681774039241808
2060000000.0 0.24320139785997413 0.18934438799064285
2080000000.0 -0.27251432652988533 0.14365032527669272
2100000000.0 0.2670108922258455 -0.16361743245075477
2120000000.0 -0.04006863016753583 0.3092279040367736
2140000000.0 -0.21016379975952468 -0.225490174549964
2160000000.0 0.08159086235773937 0.2896389691893506
2180000000.0 0.26069623590342433 0.132612532544192
2200000000.0 0.2466386084026798 0.14910390607527177
2220000000.0 0.12695480847327276 0.2494120212694093
2240000000.0 -0.10673774298066789 0.2530620451477949
2260000000.0 -0.2559930469956488 -0.07569426771660494
2280000000.0 0.05318255664667481 -0.2479316297233464
2300000000.0 0.20267920273162143 0.13465211582600567
2320000000.0 -0.2298111585570858 0.05816696653248672
2340000000.0 0.19285516604716654 -0.11684534680516226
2360000000.0 -0.22717302140437684 -0.02198481122271247
2380000000.0 0.22889567303204353 0.057600529176815685
2400000000.0 0.18820258153453537 0.1687489821037428
2420000000.0 0.11342902616500908 0.2543102544706525
2440000000.0 -0.03015463054543662 -0.3100377051907108
2460000000.0 0.2846277990671927 0.19366691309790712
2480000000.0 -0.04218556730477024 -0.3733279930873134
2500000000.0 0.37260773448497475 0.1773065788390613
2520000000.0 -0.3136841979276729 0.32459980331507016
2540000000.0 -0.14316758297867233 -0.4667830753442364
2560000000.0 0.435347070399692 0.2880980889773046
2580000000.0 -0.5545600677595186 0.045220742010374855
2600000000.0 0.4401685297149065 -0.3843886571671934
2620000000.0 -0.12546370318128514 0.5948240693009906
2640000000.0 -0.29744767212644563 -0.5497283027712705
2660000000.0 0.637035556537675 0.06586137771687313
2680000000.0 -0.12992101372910517 0.6365179919005486
2700000000.0 -0.6118581662058418 0.2429497656838116
2720000000.0 -0.6624525782100734 0.03078756182946207
2740000000.0 -0.6623637548318901 -0.060924716311767026
2760000000.0 -0.6634384300354962 -0.05236520351482803
2780000000.0 0.0942327707911959 -0.6532448788929847
2800000000.0 0.3335800221905516 -0.5596200400365224
2820000000.0 0.6334878317383369 -0.09847255222279881
2840000000.0 0.13310718618548012 0.6141288827621596
2860000000.0 -0.2900469576875765 -0.5412938439209698
2880000000.0 0.15976752304547742 0.5792898573095998
2900000000.0 0.31604360327247244 -0.4891055882916186
2920000000.0 -0.45735243493847466 -0.32202689879242247
2940000000.0 -0.40829007047444227 0.3479904828565055
2960000000.0 0.0345632999637548 0.5100071675458255
2980000000.0 0.413111521417365 0.26672054686323016
3000000000.0 -0.015388033947823017 -0.4677103117790101
3020000000.0 -0.36955499332552216 0.23816907927467731
3040000000.0 0.3172415418164641 0.2662586275399561
3060000000.0 -0.302204039486825 -0.24847163212780943
3080000000.0 0.11549952513087623 0.351227794374469
3100000000.0 -0.2654605743256674 -0.2307995080009408
3120000000.0 -0.3360485719990421 0.06593701359978293
3140000000.0 0.3164563341434827 -0.10772641822382738
3160000000.0 -0.28539957572549574 -0.16549862936581092
3180000000.0 0.2131327997449105 0.25137040463446825
3200000000.0 0.04901940186686094 -0.31770398626907304
3220000000.0 -0.22606463887770803 0.21787469414151853
3240000000.0 -0.11645444260749842 0.26897386225456943
3260000000.0 -0.25892089143507707 0.0991074460946346
3280000000.0 -0.0849469452387597 -0.23995627961646454
3300000000.0 0.19009193620974818 0.15206469928637376
3320000000.0 -0.19295369179202895 0.11037491770564356
3340000000.0 -0.07332443544578246 -0.19122339640881514
3360000000.0 0.1400355223420869 -0.11168429083991814
3380000000.0 -0.13178554937336226 -0.07204935091103992
3400000000.0 -0.12659772230011868 -0.029500589014236186
3420000000.0 -0.023981900577540367 0.1145524499416121
3440000000.0 0.10187585251863691 -0.036615326013529556
3460000000.0 -0.09304349049021264 0.04856614332010808
3480000000.0 0.07869774311876229 -0.05626865977717186
3500000000.0 0.06788603599141155 -0.04577549784343905
3520000000.0 0.030342661334352025 -0.0730091512094789
3540000000.0 0.06894392159785695 -0.013756138104256124
3560000000.0 -0.06284882552925661 0.04127817362493148
3580000000.0 0.07243987035276354 -0.03945381547968955
3600000000.0 0.027727131335438648 -0.08746509497260678
3620000000.0 -0.10113199530392769 -0.018802844540899716
3640000000.0 -0.07951111081416602 0.07807476128303786
3660000000.0 0.02616066048801608 0.10630233485438173
3680000000.0 0.09966871396095085 0.029992841641389156
3700000000.0 0.0940821508882861 0.03222053233995348
3720000000.0 -0.08261998319023864 -0.03303161146264482
3740000000.0 0.05441574015781083 -0.06305741789165949
3760000000.0 0.05108379064200387 -0.051891904088896504
3780000000.0 0.06608347569916713 -0.012097670683661792
3800000000.0 -0.027025206790846062 -0.03783434733273387
3820000000.0 -0.008510968115290882 -0.03660914317835705
3840000000.0 -0.0419503445518758 -0.03267463532295484
3860000000.0 -0.06981681436107019 0.02177741077276371
3880000000.0 -0.052447362257323805 -0.07286287318806808
3900000000.0 -0.03218429573876593 -0.09627281174734573
3920000000.0 -0.08709462275462594 0.05889392637214848
3940000000.0 0.038003307432839736 -0.0971854981424322
3960000000.0 -0.09898903049061059 0.012384444947850529
3980000000.0 0.0895090216096828 0.03585616454671349
4000000000.0 -0.07719281561670768 0.03194360098912035
