!Created with skrf (http://scikit-rf.org).
# Hz S RI R 50.0 
!freq ReS11 ImS11
400000000.0 -0.6039289860592837 -0.5847051483710249
420000000.0 0.4329551159866669 0.6590631831259534
440000000.0 0.21662118103272987 0.7216200171637623
460000000.0 -0.6359786625476999 -0.2822448673382021
480000000.0 -0.5796973333646669 0.19823424616097768
500000000.0 0.3832861486455771 -0.3494396020117701
520000000.0 0.12988074687646498 -0.3687382506029747
540000000.0 0.4559291667520016 -0.06828835700223133
560000000.0 -0.09792933839291248 -0.46884225045185174
580000000.0 0.42248835095815446 0.05396547453473753
600000000.0 0.07374975029335475 0.38182685358086044
620000000.0 0.050914862727544224 -0.3623743755404264
640000000.0 -0.12469602999144752 -0.334378538504883
660000000.0 -0.1888029218307314 0.2993319851144948
680000000.0 0.3192050430168111 -0.13858000107482585
700000000.0 0.3484283238577719 0.009405343646002694
720000000.0 -0.04997894180829467 -0.3360845836558775
740000000.0 0.05103034837073815 -0.3148192927006105
760000000.0 0.20765741009214245 0.2275948171777481
780000000.0 -0.27324847926259893 -0.027943445249424857
800000000.0 0.20797995098124034 0.13843742643103607
820000000.0 -0.1059591798292589 0.18730525770097384
840000000.0 -0.18543427629688858 0.04443976743867926
860000000.0 -0.010844652506960054 -0.18185905791850338
880000000.0 0.15066606738241708 0.10724669315418756
900000000.0 -0.14230044542365092 -0.07697714550408943
920000000.0 0.11905242513743776 0.08731739381108902
940000000.0 -0.09571243810710518 0.09328646224320566
960000000.0 -0.09786996285174396 -0.019659989166975107
980000000.0 0.05621828838373157 -0.016672671111711456
1000000000.0 -0.007033724200728021 -0.04694891620102341
1020000000.0 -0.03183544831904256 0.02259170239616456
1040000000.0 -0.03714417859231321 -0.06979941941549006
1060000000.0 -0.021812919456316842 0.11804948624099036
1080000000.0 -0.1440098373093275 -0.0578836713672202
1100000000.0 0.07475207925199741 -0.1753487768238931
1120000000.0 0.11096449393626968 -0.19816137443091078
1140000000.0 0.26005582407210504 0.06686976770909187
1160000000.0 0.21351112271662914 -0.2031485279166656
1180000000.0 0.19616182782324312 0.2545939493499405
1200000000.0 0.23253889386331297 0.24312856147230183
1220000000.0 0.06831344455765137 0.3378342649524665
1240000000.0 0.04166562158305349 0.337581034824672
1260000000.0 -0.14493358285044583 0.3052195547099576
1280000000.0 -0.16800806082545533 -0.29877111325466543
1300000000.0 0.23052702396769384 -0.2720929797845636
1320000000.0 0.23437787679613695 -0.2732336945705091
1340000000.0 0.041806396571624216 0.36436436109081516
1360000000.0 -0.3307116139067792 -0.18428917737281722
1380000000.0 0.2483689555337027 -0.2863783354026992
1400000000.0 -0.3537603428967121 0.12498590317419996
1420000000.0 0.24787883380601286 0.27286741363956685
1440000000.0 0.32915122112499406 -0.13833489196433155
1460000000.0 0.30397125092810834 -0.18230056614551543
1480000000.0 0.041972759122069825 -0.33988840616749927
1500000000.0 -0.24935008319213176 0.2262536405153528
1520000000.0 0.13747902106455437 -0.27979898918205903
1540000000.0 -0.25343094696908014 -0.11019755843390433
1560000000.0 0.13098952543266518 0.20501341511740598
1580000000.0 -0.20131684290083482 0.058477303132110504
1600000000.0 -0.17377966191731078 0.002648286959199807
1620000000.0 0.1110264539572438 -0.10683396442064283
1640000000.0 0.12858244016937942 0.04506794515197104
1660000000.0 0.08189000656512253 0.06659242483914898
1680000000.0 -0.08341020488499411 0.014367095380412103
1700000000.0 -0.06092252029383035 0.046284101245882434
1720000000.0 0.01179009555594412 0.0549053951140348
1740000000.0 -0.013388380816649682 -0.0463970434077301
1760000000.0 0.048157923632588626 -0.02176616384898846
1780000000.0 0.0059722928626100395 -0.08676728727205278
1800000000.0 0.115763766640574 -0.04877662794946921
1820000000.0 0.15705207830651535 0.008329232788401858
1840000000.0 -0.02692460109968926 0.18243592771370482
1860000000.0 -0.07920648676787868 0.208265521113179
1880000000.0 0.23639921689488994 0.06757794070389755
1900000000.0 -0.05792616035127699 -0.26203860879509094
1920000000.0 -0.28315114190140395 -0.046288291139491
1940000000.0 0.04464662085150559 0.2982083335656877
1960000000.0 -0.29433097868365216 -0.11221024707377668
1980000000.0 -0.15608663471352235 -0.27905380014702325
2000000000.0 -0.04117779378662049 -0.3145698004686577
2020000000.0 0.3130140873541459 0.013622407687766815
2040000000.0 0.3105618498186103 0.0025370882243465538
2060000000.0 0.1996953169877145 0.23184071495924063
2080000000.0 -0.30672756500848636 0.025482530386824378
2100000000.0 0.278536162476195 -0.14419511742432395
2120000000.0 0.02035623548772581 0.3109927872170604
2140000000.0 -0.2427977246185424 -0.18880900895938332
2160000000.0 0.07046643828062714 0.29127606559716496
2180000000.0 0.2713782461150822 0.11205838471903963
2200000000.0 0.2759294144404362 0.08608868781255602
2220000000.0 0.169939529335753 0.22343972751256272
2240000000.0 -0.09696500890640529 0.25899822963667585
2260000000.0 -0.26165621092397195 -0.05435886858766511
2280000000.0 0.04209079410120793 -0.2509915087102727
2300000000.0 0.22422224668321383 0.0957433880683642
2320000000.0 -0.2335584564048339 0.03612212756334455
2340000000.0 0.21358762659378194 -0.07530659921937405
2360000000.0 -0.22203333780341636 -0.056335935668153286
2380000000.0 0.23517260678910606 -0.02274110334120442
2400000000.0 0.14483744399182386 0.20518503759067722
2420000000.0 0.16782025759066005 0.22198822142285934
2440000000.0 -0.14153469505256827 -0.27673104732629356
2460000000.0 0.30454251058419896 0.15885797777326882
2480000000.0 -0.04852834608306403 -0.37110413177828994
2500000000.0 0.4062382856215807 0.08029342558627497
2520000000.0 -0.20410519141323458 0.4027384497820611
2540000000.0 -0.05993206861595455 -0.4848904519091279
2560000000.0 0.4479778304648724 0.2697898287472801
2580000000.0 -0.5556713807080592 0.031205962544229308
2600000000.0 0.4374423716910775 -0.3879255115873825
2620000000.0 -0.15491365287224312 0.5882982291894711
2640000000.0 -0.25473221031583865 -0.5704328018879684
2660000000.0 0.6367675784808878 0.06563946308352606
2680000000.0 -0.10352458579920834 0.6404566489017169
2700000000.0 -0.5964300965205035 0.278437648293048
2720000000.0 -0.6619584597242049 0.04006337725983312
2740000000.0 -0.6651662169683554 0.01468237669383602
2760000000.0 -0.6659255399711272 0.03659251506113254
2780000000.0 0.047999210013531184 -0.6590422288375434
2800000000.0 0.3307750626380506 -0.5616032509184349
2820000000.0 0.6309034409654909 -0.11887005999068999
2840000000.0 0.07993198978512239 0.6242199491806707
2860000000.0 -0.25322167730341527 -0.5605800712503715
2880000000.0 0.19276058450781464 0.5705549653619965
2900000000.0 0.27166325524953217 -0.5152351078606586
2920000000.0 -0.4374037129454425 -0.34848448948933375
2940000000.0 -0.4174397556250599 0.3376221135756774
2960000000.0 0.023683980870184678 0.5114952244930233
2980000000.0 0.4508591514526229 0.19269806091861635
3000000000.0 0.018075895220601025 -0.46786566457275136
3020000000.0 -0.41773497034263407 0.14065150835411389
3040000000.0 0.36495525162636777 0.19874233105338932
3060000000.0 -0.29715845331383645 -0.25284990311892436
3080000000.0 0.09093991338854406 0.3588035395670168
3100000000.0 -0.2610611361485715 -0.23644458722027928
3120000000.0 -0.3401226469294935 -0.03466033955882182
3140000000.0 0.3252856452081631 -0.07646121128697121
3160000000.0 -0.244057913871408 -0.22292764989796102
3180000000.0 0.20439480804870422 0.25667813175487836
3200000000.0 0.06390604531077253 -0.31550315220094194
3220000000.0 -0.2480380771038183 0.192000106349903
3240000000.0 -0.13836430486626802 0.25998768930516863
3260000000.0 -0.25395445304541836 0.10755579966518741
3280000000.0 -0.015563205816734432 -0.2568439291318796
3300000000.0 0.17794810457805138 0.1666837135997468
3320000000.0 -0.182442143174438 0.12946349495728193
3340000000.0 -0.07848888282254378 -0.1914023319966318
3360000000.0 0.10742260643249643 -0.14471476246303144
3380000000.0 -0.1459214395255667 -0.040817046073803445
3400000000.0 -0.08837290918054667 -0.09432141811009886
3420000000.0 -0.10117889940060416 -0.06268385833667042
3440000000.0 0.10619483229091713 -0.02950972152966413
3460000000.0 -0.10230639182829303 0.019683341675750286
3480000000.0 0.040492960440338566 0.08422652629058354
3500000000.0 0.027418298452523925 0.07616505653378211
3520000000.0 0.07334390401971709 -0.010981082611801012
3540000000.0 -0.045087107942680005 0.0509569718359882
3560000000.0 0.009272389475833195 0.07384245987157585
3580000000.0 -0.07939955495207134 0.015910150118965738
3600000000.0 0.025951168173577947 -0.0879652035107194
3620000000.0 0.04529110350462058 0.09429964393364045
3640000000.0 0.11147346958690577 -0.010564981884743892
3660000000.0 0.10010249350656093 0.04986069065741629
3680000000.0 -0.0931294884078013 -0.0522559126862496
3700000000.0 0.040999110734849596 -0.09254944620618609
3720000000.0 -0.022106177667028187 0.09008614074457351
3740000000.0 -0.04880014295549297 0.07031547454651567
3760000000.0 -0.055629010240117294 0.05093939953449729
3780000000.0 -0.06803691460216661 0.0076578154865811566
3800000000.0 -0.04778347507751266 0.004141169130455003
3820000000.0 0.04028784802576871 -0.001185244961608182
3840000000.0 -0.022090851693952047 -0.04819958069619525
3860000000.0 -0.03399121216005283 -0.06483682887551763
3880000000.0 -0.03970775184266207 0.07972865413132783
3900000000.0 -0.09281764600338331 0.046182824958257755
3920000000.0 0.0962400777831165 0.04541599911277545
3940000000.0 -0.1061715759924084 -0.01115228675621065
3960000000.0 -0.002298326625977911 0.10371414092039766
3980000000.0 0.05201858692340944 -0.08284763614816218
4000000000.0 -0.07293594357637004 0.04202816080771217
