!Created with skrf (http://scikit-rf.org).
# Hz S RI R 50.0 
!freq ReS11 ImS11
400000000.0 -0.5308058210317667 -0.6528819710439675
420000000.0 0.6091730553591332 0.5064920003548177
440000000.0 0.2616980919225935 0.7102531097558256
460000000.0 -0.6822817321147961 -0.13727656132940755
480000000.0 -0.6072431310095301 -0.0693236130319582
500000000.0 0.3553401816007971 -0.3822680931552077
520000000.0 0.20603397066789322 -0.3349857003452025
540000000.0 -0.29841404222160184 0.3371800585305779
560000000.0 0.015179068382556704 -0.4803482397280273
580000000.0 0.417280474380103 -0.1008004996509215
600000000.0 -0.24484532262751346 0.3165467714096086
620000000.0 0.36853249137438837 -0.02178521575410497
640000000.0 -0.356607428151295 -0.08711343155334779
660000000.0 0.31217776967076466 0.18391966368958984
680000000.0 0.17290159871032876 -0.2910445935133449
700000000.0 0.15580769217709492 0.310185298667987
720000000.0 0.019321380117060017 -0.3428896168571048
740000000.0 -0.09700301204809701 -0.3063203369090563
760000000.0 0.25835493213442934 0.15590227713297783
780000000.0 0.0741598008021275 -0.26213932805897694
800000000.0 -0.043420689469785494 0.25012382089913815
820000000.0 -0.2173046532358414 0.03374100249424747
840000000.0 0.11055616715635748 0.1666639385679765
860000000.0 -0.11960936788458937 0.13161266783042883
880000000.0 0.09770376968490589 0.1577323274342678
900000000.0 0.03270412459153001 0.14961328444209487
920000000.0 -0.13300461014959486 0.04161414681313452
940000000.0 -0.14101880915939413 -0.018059471521861485
960000000.0 -0.11533851287436624 0.0025454731506761043
980000000.0 0.06610681001505954 0.0015030783286674786
1000000000.0 0.0025946955905924644 -0.051012527805803995
1020000000.0 -0.013416597992560956 -0.04063340468663165
1040000000.0 -0.058845937248277434 0.054136701137973066
1060000000.0 0.07208553190365889 -0.09852278891222616
1080000000.0 -0.1335610867804123 0.06340154413708708
1100000000.0 0.18861850937373761 -0.028998508008164343
1120000000.0 0.22575820872914126 0.03401675161379383
1140000000.0 0.27019126252555953 -0.03723352592400338
1160000000.0 0.22554633573417984 -0.1855818802882353
1180000000.0 0.09170815291248206 0.305174111931039
1200000000.0 0.23955393768905503 0.23699234086386253
1220000000.0 -0.028617723483099197 0.34536540389892456
1240000000.0 0.18319573560345978 0.2905400338483755
1260000000.0 0.01245191937468628 0.33556220171006584
1280000000.0 -0.16821008978599258 -0.29267666445010654
1300000000.0 0.28338295481782916 -0.213860755405016
1320000000.0 0.3623334496498046 0.0040186322922054225
1340000000.0 0.08074331661196522 0.3619748836599582
1360000000.0 -0.22052840984873048 -0.3093418272742603
1380000000.0 0.15446352042075379 -0.3488450099853019
1400000000.0 -0.29239464450830766 0.23470418254567105
1420000000.0 0.2459011021806706 0.2684720807056901
1440000000.0 0.34580198062960354 0.09144888090864799
1460000000.0 0.3492106421833023 -0.05658780280651296
1480000000.0 -0.02389859838105746 -0.3439697037369831
1500000000.0 -0.017153991333048603 0.33513508993724767
1520000000.0 0.2095556903866839 -0.2277417238876238
1540000000.0 -0.21663912796759585 -0.17299204986176966
1560000000.0 0.16331474468459142 0.18343219072032668
1580000000.0 -0.15176736760352136 0.14315820662484002
1600000000.0 -0.0448794846750068 0.1675470863408718
1620000000.0 0.14540322492240776 -0.046671770332369564
1640000000.0 -0.014508201449655998 0.13324403353143066
1660000000.0 -0.03397089517383235 0.10444676268764395
1680000000.0 0.08946492746123816 -0.00022095954346751032
1700000000.0 0.05687857307835288 -0.04405869016302259
1720000000.0 0.01156771417241074 0.05350529350877313
1740000000.0 0.04403302181821765 -0.014968739590200852
1760000000.0 -0.057137757824668484 0.010501836245670882
1780000000.0 0.06032878789312841 0.059415360670966796
1800000000.0 0.10851899386559279 0.048447650150376366
1820000000.0 0.009126138832476078 0.15812976296462558
1840000000.0 -0.06104819332755072 0.17745306515881343
1860000000.0 0.0914778875805728 0.20268008409636604
1880000000.0 0.24366426552492487 0.022746785737732648
1900000000.0 0.02294312196463641 -0.26596149797551255
1920000000.0 -0.2707771787841603 -0.0993891226146065
1940000000.0 0.10938546071739819 0.2807033640399222
1960000000.0 -0.3119797620832822 -0.037782639718468056
1980000000.0 -0.08623433562338159 -0.30676312727549215
2000000000.0 -0.07787510354855057 -0.3077516173155144
2020000000.0 0.2975711063958202 0.09937426368116024
2040000000.0 0.31253849406925005 0.01667389015869338
2060000000.0 0.23140780941728004 0.2010085159929139
2080000000.0 -0.29665819363929363 0.07719228675419437
2100000000.0 0.2870960452757044 -0.12588035594284677
2120000000.0 0.02580506924734968 0.30904787088315566
2140000000.0 -0.2220261115532956 -0.212778915943525
2160000000.0 0.04249096583533079 0.29800481128532513
2180000000.0 0.2840245441790733 0.07222379946163271
2200000000.0 0.27728924526872223 0.07721448632748895
2220000000.0 0.14657134536620312 0.24046781970182113
2240000000.0 -0.023567002773958 0.2735607368499538
2260000000.0 -0.2079281872576033 -0.16736579890744546
2280000000.0 -0.024095714535508912 -0.25370913532531847
2300000000.0 0.1655312841465509 0.17676407759262913
2320000000.0 -0.23565174955676257 -0.03786586810448672
2340000000.0 0.22239519601701793 -0.04964829392311784
2360000000.0 -0.22445771703273537 0.040408114331887006
2380000000.0 0.2105486625664895 0.10416490889515223
2400000000.0 0.12543818770182846 0.21941948669983113
2420000000.0 0.1829782119375466 0.20880627306293212
2440000000.0 -0.10858212233811143 -0.2920282628121868
2460000000.0 0.30096616727592107 0.16503746952544784
2480000000.0 -0.018331750220180135 -0.37449788176119425
2500000000.0 0.3742880158044082 0.17383790434713906
2520000000.0 -0.2961419198437385 0.3425837118548992
2540000000.0 -0.1548326687104041 -0.46365561480291817
2560000000.0 0.4565086644133916 0.2551459873350426
2580000000.0 -0.5538746941407545 0.040668413821777855
2600000000.0 0.44704010045476444 -0.37766731889949634
2620000000.0 -0.15338516392905424 0.5876259400279467
2640000000.0 -0.33035584403527196 -0.5303100899823179
2660000000.0 0.6390164240862461 -0.0043320080793172655
2680000000.0 -0.016043675382149927 0.6489651135496662
2700000000.0 -0.5596503698679036 0.34642857407312944
2720000000.0 -0.6507542441500334 0.12813356247078392
2740000000.0 -0.6656065758668964 0.018920822619242283
2760000000.0 -0.6669202790113152 -0.003960797033943967
2780000000.0 0.04941813118626379 -0.6593765627142911
2800000000.0 0.2522144139884222 -0.6010797200260789
2820000000.0 0.6282926637325467 -0.12819149877701505
2840000000.0 0.10513661664141032 0.6199100362433244
2860000000.0 -0.32333414229501084 -0.5225480596411588
2880000000.0 0.14429265465024108 0.582354084699853
2900000000.0 0.3576596121853188 -0.45965819767357613
2920000000.0 -0.49246447805285365 -0.2641572897382391
2940000000.0 -0.41322775261795813 0.3418243375411545
2960000000.0 0.007382856357634538 0.5120452070624444
2980000000.0 0.4860020739448385 0.07415213142583339
3000000000.0 0.003894707455551994 -0.465225948824332
3020000000.0 -0.430848641294954 0.08662544182397398
3040000000.0 0.3831491502766204 0.16208402700041866
3060000000.0 -0.3195163519184935 -0.22466709743529534
3080000000.0 0.04946170141574518 0.36714277630761827
3100000000.0 -0.21896497326257794 -0.27711465647530975
3120000000.0 -0.32238922573379836 0.11086245044943796
3140000000.0 0.3308643187460291 -0.031023251317836127
3160000000.0 -0.2641947374560079 -0.19829651915434438
3180000000.0 0.19023770124309367 0.26846370484916354
3200000000.0 0.09318984714886981 -0.3100317320622162
3220000000.0 -0.24050490089849735 0.20295379141865116
3240000000.0 -0.04485578774346315 0.28963339095341084
3260000000.0 -0.2389132130089786 0.13630386466284594
3280000000.0 0.09868035602099504 -0.23763202955878193
3300000000.0 0.20613615521933812 0.13170053435683168
3320000000.0 -0.17586671957191657 0.1366527420357211
3340000000.0 -0.05287821442762254 -0.1983327911508778
3360000000.0 0.05889873952888673 -0.16982983455960948
3380000000.0 -0.14827625294899527 0.01299702061975208
3400000000.0 -0.1125837884346232 -0.06420835191710472
3420000000.0 -0.08980391928305041 0.07484681171210276
3440000000.0 0.09362089500143131 -0.055858094891330944
3460000000.0 -0.08117754399515158 0.06268340722150058
3480000000.0 0.07010409397595661 0.06469920764086054
3500000000.0 0.057767172429580266 -0.056427019254395326
3520000000.0 0.06314405966720656 0.04270406713810134
3540000000.0 0.057656301803888504 0.03826422097515103
3560000000.0 -0.0725340934456724 0.018450125221661565
3580000000.0 0.08171400011818929 0.003547946521581392
3600000000.0 0.06685582278791909 -0.0636013205448691
3620000000.0 -0.036016356321974766 0.09636132196979055
3640000000.0 0.038882149078567685 0.10252603931479037
3660000000.0 0.06961201269760155 0.08397951725923046
3680000000.0 0.05690847058426956 -0.08937166219921465
3700000000.0 0.06428114723774375 -0.07756664673160725
3720000000.0 -0.056441637421325956 0.07176655250159462
3740000000.0 -0.0846045478846147 -0.0032619724984898125
3760000000.0 -0.058395422823711574 0.04546076137153426
3780000000.0 -0.030919421428532767 -0.05945607085913597
3800000000.0 -0.042592126465160154 -0.02267665271168288
3820000000.0 0.03939361256152042 0.0019486154793874264
3840000000.0 0.02379640625069364 0.048578266961644995
3860000000.0 -0.021598026705730623 -0.06818964138908978
3880000000.0 -0.06271363852921 0.062155913744319106
3900000000.0 -0.09734390108252866 0.03227600232772813
3920000000.0 0.04115023146925139 0.0977466955825627
3940000000.0 -0.10363895969394776 -0.031630355340905074
3960000000.0 -0.0023694870261128163 0.10324666428240607
3980000000.0 0.06039924044480261 -0.07639948078700777
4000000000.0 -0.08078402514619455 0.021143973022477877
