!Created with skrf (http://scikit-rf.org).
# Hz S RI R 50.0 
!freq ReS11 ImS11
400000000.0 -0.5949088698212407 -0.5869173889330758
420000000.0 0.4617985887803847 0.6389429633367504
440000000.0 -0.0033344376838222974 0.7624668814048593
460000000.0 -0.6952712801291697 0.01924576070828137
480000000.0 -0.48385050066589047 0.3716745827207904
500000000.0 0.5254249966355197 0.03869210874483909
520000000.0 0.2361920717501484 -0.31874177105383755
540000000.0 0.3503412425036792 0.2973789574539205
560000000.0 -0.4164084240147209 -0.22219055065364707
580000000.0 0.2842098622277413 0.3287703874511198
600000000.0 0.27017917757867277 0.2857070746721263
620000000.0 0.33413932379705885 -0.16294310057163625
640000000.0 -0.34632195297392937 0.11179955699672386
660000000.0 0.2139934186316209 0.2826482202922586
680000000.0 0.33370715429157666 0.05914516323316135
700000000.0 7.968012483292143e-05 0.35933952553084875
720000000.0 -0.14962440095476792 -0.3101403792137756
740000000.0 -0.14970266107465396 -0.28903770607888407
760000000.0 -0.0036588319755544016 -0.30486949905232547
780000000.0 0.048525322852838976 -0.26420614385548796
800000000.0 -0.17854867336855096 0.18167289387739247
820000000.0 -0.03601572964887714 0.2145863048867727
840000000.0 -0.0561951751364999 0.18659793838229785
860000000.0 -0.015537226919591448 0.1788864481734202
880000000.0 0.0704686945010678 0.1669018344073756
900000000.0 -0.15151039018138274 0.029696223377216228
920000000.0 -0.13709246330649655 0.03448283757839439
940000000.0 0.08747764177868636 -0.11537553771535664
960000000.0 0.10823013885925876 0.004868284481043788
980000000.0 0.030415751007899363 0.04696698653009733
1000000000.0 -0.03337129885499487 -0.024815328879926678
1020000000.0 0.02209237527743158 -0.02907186591870076
1040000000.0 -0.005478812806998883 0.07397676980755132
1060000000.0 0.04419084018038276 0.10753109984235826
1080000000.0 -0.018763845762427907 -0.14852366015058782
1100000000.0 0.08385880527085991 -0.17143994710760416
1120000000.0 0.22057698439825546 -0.06341581748764182
1140000000.0 0.1593388101902344 -0.21847230959667646
1160000000.0 0.24875750137692232 -0.14672636641280573
1180000000.0 -0.07137206536333683 0.31070359716595375
1200000000.0 0.014013392539569926 0.33529979324788045
1220000000.0 -0.12555769651599183 0.3227106616576157
1240000000.0 0.10365286140424645 0.32867675528147927
1260000000.0 0.010530863347832733 0.33561799518306673
1280000000.0 -0.18618418125303474 -0.28254674328079055
1300000000.0 0.3322650075918322 -0.12333426073512252
1320000000.0 0.35417504986359 0.08100068156963268
1340000000.0 0.16347395013329635 0.33313929058503644
1360000000.0 -0.13616527235752657 -0.35422662328753196
1380000000.0 0.09664350861264068 -0.37089028368143667
1400000000.0 -0.21724187020783678 0.3060814276697181
1420000000.0 0.2503704283222894 0.2634917079095075
1440000000.0 0.35289184058879564 0.06692945482304302
1460000000.0 0.34324902672616403 -0.08806999268687027
1480000000.0 -0.041888952116266795 -0.3439238167256398
1500000000.0 0.07542273501878802 0.32957392165249777
1520000000.0 -0.011956312473241741 -0.3099464690101014
1540000000.0 -0.2704879058930204 -0.04674349707164545
1560000000.0 0.1960548712295089 0.1437769033000026
1580000000.0 -0.19882819922620337 0.05961230195373432
1600000000.0 -0.16994022936569006 0.012814028876358274
1620000000.0 0.14830871748230098 0.04255626106547799
1640000000.0 0.11188024734376094 0.0725251271490329
1660000000.0 0.04733449191751249 0.095901676099618
1680000000.0 0.0840213755632446 -0.016180998698133574
1700000000.0 0.06795809213408112 0.01929188690673228
1720000000.0 0.007239028557278744 -0.05397237931579333
1740000000.0 0.021492917916771714 -0.04519665649060216
1760000000.0 0.056370542888592876 0.022269337384568537
1780000000.0 0.03811632108147827 -0.07577185991784192
1800000000.0 0.07455089769772318 -0.09137484787072092
1820000000.0 0.06431389824426567 0.14315399785815106
1840000000.0 -0.07698209201886065 0.1713452809760189
1860000000.0 0.030897582293961046 0.220200497925589
1880000000.0 0.2416291214860578 0.0349499305021656
1900000000.0 -0.011576382292836118 -0.2672268502621056
1920000000.0 -0.2738043456183248 -0.08885147351775284
1940000000.0 0.1589301911931526 0.25477897604489985
1960000000.0 -0.3006916047885376 -0.08354248423794661
1980000000.0 -0.048413808031723876 -0.313014713316603
2000000000.0 0.04502618490671937 -0.3128716499600048
2020000000.0 0.1892650586029532 0.251711342656138
2040000000.0 0.3076259930759173 0.075679570410653
2060000000.0 0.28138756055817254 0.1286751536127287
2080000000.0 -0.2609499205634958 0.1620318303960968
2100000000.0 0.23840503599966692 -0.20406984679460657
2120000000.0 0.03153449574383606 0.30796596934800535
2140000000.0 -0.2047305431986045 -0.22977970388887922
2160000000.0 0.003155096135091857 0.3015286399484797
2180000000.0 0.2837123757739107 0.07551867911439984
2200000000.0 0.23546612563612984 0.16444210481309898
2220000000.0 0.07164244563464271 0.27325491026867815
2240000000.0 -0.027413384313836858 0.2738411175025872
2260000000.0 -0.25901286629770265 -0.06370608860874073
2280000000.0 -0.029563795710103234 -0.25126496929615716
2300000000.0 0.20156721656972293 0.1337716668063969
2320000000.0 -0.22322818152437338 -0.08262519190859767
2340000000.0 0.21676242501500648 -0.0723070339568458
2360000000.0 -0.1776964335327132 0.14391364674386523
2380000000.0 0.2320909566306271 0.037428412398086024
2400000000.0 0.1344406985357336 0.2139860732266137
2420000000.0 0.17540214409084048 0.2152061138387
2440000000.0 -0.006601074424433012 -0.31214499545718405
2460000000.0 0.2606363720898805 0.2234761521857039
2480000000.0 -0.029210773165454815 -0.3744633748860735
2500000000.0 0.3778540822848843 0.16529418182283154
2520000000.0 -0.26762974407765167 0.36405884543729033
2540000000.0 -0.1509211247585269 -0.46432199207757413
2560000000.0 0.45568642021101974 0.25556778680573544
2580000000.0 -0.554127666372636 0.037601575052705775
2600000000.0 0.45325424089416555 -0.37045444478252476
2620000000.0 -0.15071773152252393 0.5891603153740987
2640000000.0 -0.31666874266637796 -0.5389927642824216
2660000000.0 0.6371287835567566 0.06670467138871686
2680000000.0 -0.051823839787369215 0.6471687611917311
2700000000.0 -0.5966884649838242 0.2773677228533895
2720000000.0 -0.6584894783539623 0.0741132038437634
2740000000.0 -0.6618658815709533 -0.06414723857836352
2760000000.0 -0.6655286637860004 -0.02665729424095232
2780000000.0 0.10180843592763131 -0.6521785398802099
2800000000.0 0.31308253587656965 -0.5707597186522242
2820000000.0 0.6368682534059361 -0.06938160442367694
2840000000.0 0.09225826511538379 0.6223031692587742
2860000000.0 -0.35267176155250124 -0.5040430666005501
2880000000.0 0.1826984325151116 0.5711973930468052
2900000000.0 0.32797318055579544 -0.48114587300877104
2920000000.0 -0.4639058070407421 -0.3119338743947774
2940000000.0 -0.40349733487012085 0.3528589471192389
2960000000.0 0.008463164711012577 0.5113364008089699
2980000000.0 0.43897556686230527 0.21868643200947355
3000000000.0 0.019981716355732766 -0.46602172293048383
3020000000.0 -0.4129747649907122 0.1549294600414239
3040000000.0 0.4051045960444857 0.09696623068961564
3060000000.0 -0.37900882856699347 -0.09048910762858182
3080000000.0 0.05079756049980017 0.3654315281558299
3100000000.0 -0.26894910020717816 -0.22623142725961162
3120000000.0 -0.33789325745968524 -0.04913704150807115
3140000000.0 0.3362782172724373 -0.008454187725604209
3160000000.0 -0.2989624560005213 -0.140484944795629
3180000000.0 0.2559932494384107 0.2066544778494434
3200000000.0 0.09867539573562409 -0.3052270093812472
3220000000.0 -0.2374599542208273 0.2066813112173024
3240000000.0 -0.07533769076805305 0.28411829756952256
3260000000.0 -0.229200443752313 0.15277083934271354
3280000000.0 0.005383408219459642 -0.25591220436204204
3300000000.0 0.17003842916136727 0.17594657256333307
3320000000.0 -0.17619784289056967 0.1360148321893578
3340000000.0 -0.08288684030780925 -0.18719997220678083
3360000000.0 0.07754161463640885 -0.1631033015514346
3380000000.0 -0.14649469653729974 -0.03203066400195218
3400000000.0 -0.11616629522853848 -0.06023517900997609
3420000000.0 -0.04495256124409998 0.10995158864578865
3440000000.0 0.08298999000240828 -0.07032922747724489
3460000000.0 -0.1022350621121318 -0.01590565334204617
3480000000.0 0.06363590966039757 0.07367664926882839
3500000000.0 0.06268957756816457 -0.05344603348680692
3520000000.0 0.07615100248820891 -0.01152488565673409
3540000000.0 0.06869375959467039 0.009419279252302973
3560000000.0 0.0043541096484722595 0.07404259943200375
3580000000.0 0.0010083764494821061 -0.08038413871177279
3600000000.0 0.07030559191076531 -0.057581760882149474
3620000000.0 -0.04969123579174158 0.09002733555830156
3640000000.0 -0.010188986770905191 0.10924866268862932
3660000000.0 0.06958552303310298 0.08484226252407358
3680000000.0 0.08726246971683789 -0.058846488599254655
3700000000.0 0.07918740036684961 -0.061849226425537945
3720000000.0 -0.08068718045934213 -0.03785246818714265
3740000000.0 -0.074963712390617 -0.04030417550422346
3760000000.0 -0.030619007468610272 -0.06691939211744653
3780000000.0 0.06694697372263712 0.013519735001787209
3800000000.0 -0.0441664094480911 -0.01700456657621835
3820000000.0 -0.03581312328734204 -0.01133153061740717
3840000000.0 -0.000526119924776661 0.05310458335526341
3860000000.0 0.043262732461970675 0.05727408413487458
3880000000.0 -0.06967864663186141 -0.05634781904167433
3900000000.0 -0.06600805997902782 -0.07863750907621644
3920000000.0 -0.01635441786928672 0.10311516611062257
3940000000.0 -0.00782362422842379 -0.10473073166761872
3960000000.0 -0.10064532109631355 0.004558863051013227
3980000000.0 0.0886572976440053 -0.042138544963087034
4000000000.0 -0.035238827060032445 0.07607875800663129
