!Created with skrf (http://scikit-rf.org).
# Hz S RI R 50.0 
!freq ReS11 ImS11
400000000.0 0.27361188112305534 -0.8740217288887506
420000000.0 0.40854865410912644 -0.7697870443410023
440000000.0 0.22577669137687784 -0.7996955100280899
460000000.0 -0.023600075354248427 0.7691192323858289
480000000.0 0.27847455233892954 -0.6817900910404251
500000000.0 -0.7132231618833454 0.21158563961426716
520000000.0 -0.6027449900795196 0.36750649714478506
540000000.0 0.5594218513777514 -0.3952258944764195
560000000.0 -0.6395145086821765 0.04162995097535268
580000000.0 0.18261570097104016 -0.514273665140932
600000000.0 -0.2579219575772092 -0.5187477119501953
620000000.0 -0.5457607295517849 0.05114694690818057
640000000.0 -0.4936762432183834 0.13131902604668283
660000000.0 0.12063181884373626 -0.5100650017876902
680000000.0 -0.49336151301581804 -0.18589434240556296
700000000.0 -0.4313438140256165 -0.33073978671873294
720000000.0 0.052827776427662745 0.5419814029342203
740000000.0 0.4584430197038317 -0.22458146102825474
760000000.0 0.24088373312057426 0.4127671784227178
780000000.0 -0.10921585469769997 0.4463077101991625
800000000.0 -0.3044962384629224 0.28961361196118307
820000000.0 -0.3603469839951523 0.07115056757525173
840000000.0 0.08215352647506932 -0.3029191466780351
860000000.0 -0.016026567048264707 0.28137022668336203
880000000.0 -0.11160533572317141 0.22697056466218166
900000000.0 -0.24031117064821667 -0.03247364247368755
920000000.0 -0.16810313769135243 0.15630974232682313
940000000.0 0.0849135331707843 0.19274877602323134
960000000.0 -0.1741092060893608 0.05834836506460584
980000000.0 -0.0758326927678383 0.10681196376685757
1000000000.0 0.09054145205686087 0.02782203434059768
1020000000.0 0.030702416951374108 -0.09152082771181144
1040000000.0 -0.034663429000924555 -0.12375804820426077
1060000000.0 0.14740862613062244 -0.06709454090091142
1080000000.0 0.17541001173393417 0.04219064894875597
1100000000.0 -0.190591606139549 -0.14141371785573484
1120000000.0 0.24322792393175746 -0.11446640832733247
1140000000.0 -0.2588420090401076 -0.14868697276963527
1160000000.0 0.27432844657012334 -0.15428659522245666
1180000000.0 0.3007281119479593 0.14601440974102103
1200000000.0 -0.36185367293748016 -0.001667128663321438
1220000000.0 -0.364159423193108 -0.027568408479955547
1240000000.0 -0.24650644846814104 0.2742211771864753
1260000000.0 -0.35616078385693944 -0.11049376707231184
1280000000.0 -0.3725774661157256 0.011625142431423334
1300000000.0 -0.3197366503609576 0.2019549466458677
1320000000.0 -0.21865335706116948 -0.28928858495021975
1340000000.0 0.028278994157554367 0.3568806321393669
1360000000.0 0.36602044262981215 0.05201957526101219
1380000000.0 -0.2827663459370776 0.26439036220742856
1400000000.0 0.2312089603910201 -0.301360704680782
1420000000.0 0.1013106921749356 -0.3680401448596697
1440000000.0 -0.022442494175759747 -0.3709200888897915
1460000000.0 0.2984014169621862 -0.2230497343034785
1480000000.0 0.21659178601210916 -0.3114988349815609
1500000000.0 -0.2633166789905472 -0.2768062839089624
1520000000.0 0.02199712889198876 0.38630627182665744
1540000000.0 -0.2202000190737911 0.30546224416887763
1560000000.0 0.17658172024724092 0.3073787455987359
1580000000.0 0.18748823917922774 0.23481093631298847
1600000000.0 0.2475620550548309 -0.060858546809518826
1620000000.0 -0.014239571692218083 0.20988092684995208
1640000000.0 0.16555537475276594 -0.024553066403036866
1660000000.0 0.1447677948852768 -0.023775321198860406
1680000000.0 0.11973591702105187 -0.04433193801818619
1700000000.0 0.10121396977999153 0.03046066163420384
1720000000.0 -0.06998584582912405 0.055530707468859755
1740000000.0 0.04863914485610524 -0.04900257977092461
1760000000.0 -0.06494240985286612 0.04637439417525161
1780000000.0 -0.045619694644894855 0.08662997467851287
1800000000.0 -0.04215769678831823 0.10656512989734011
1820000000.0 0.13229689088113544 0.05925794285099669
1840000000.0 0.18391977572629986 -0.03339485465115376
1860000000.0 -0.004551351001651911 -0.22114513036182298
1880000000.0 -0.21752870487314702 -0.11572489253061355
1900000000.0 -0.23898191761083062 -0.12278556389302543
1920000000.0 0.2892943047817457 0.04751956445399087
1940000000.0 -0.29780956554663607 0.04096940817551257
1960000000.0 0.24790465547374188 0.17501525887964872
1980000000.0 -0.3092306599201195 -0.07526282133946442
2000000000.0 -0.08161904942894788 -0.31072595459585495
2020000000.0 -0.15210596316298963 -0.2827306081749724
2040000000.0 0.31437342246673133 -0.03819335641649922
2060000000.0 0.23304002182497613 0.2153857796218115
2080000000.0 0.09107559550885257 0.3012541599383993
2100000000.0 0.30118933070145354 0.08115230034933704
2120000000.0 -0.3200560563801487 0.008057249809406438
2140000000.0 0.2406175405601954 -0.20356898560963424
2160000000.0 -0.268410687451591 -0.15523689662393023
2180000000.0 -0.21700053963802263 0.22559412285761482
2200000000.0 0.2828636019243012 -0.10969536517135087
2220000000.0 0.2750609465451577 -0.08260828039497567
2240000000.0 -0.2526513118998615 0.10566093522809727
2260000000.0 0.2656619890191751 -0.049906452804285246
2280000000.0 -0.05948888660347672 0.2634882362167132
2300000000.0 -0.25880418362120466 0.08209439633608276
2320000000.0 -0.26743138855937204 -0.010992161435324409
2340000000.0 -0.2584013315608789 -0.005249357419888862
2360000000.0 0.23997049765578454 -0.082998333255682
2380000000.0 0.018901838039351297 0.25881779400692273
2400000000.0 0.1518778543439155 0.22446244806076732
2420000000.0 -0.09671481998103147 0.26550007869438064
2440000000.0 0.3052599356992985 0.052063426005806344
2460000000.0 -0.1380033631928619 -0.3037313121623628
2480000000.0 -0.3614995342920246 -0.028557270664108163
2500000000.0 0.40140889523597373 -0.01647570927517229
2520000000.0 -0.3629383025156464 0.2460822015098946
2540000000.0 0.236195600714212 -0.416638602700315
2560000000.0 0.0870027795243414 0.5056022242349391
2580000000.0 -0.38589287146861617 -0.3889148995085078
2600000000.0 0.5457552284054 0.1815760308670996
2620000000.0 -0.5964021210132526 -0.061248115149819655
2640000000.0 0.5747753808813703 -0.23601596275730974
2660000000.0 -0.2300671539760034 0.5954748025477187
2680000000.0 -0.5284480640890609 -0.3787486893138807
2700000000.0 0.23269297219328716 -0.6193540360032017
2720000000.0 0.5881157235742364 -0.3180209229738756
2740000000.0 0.6663127459083136 -0.10954585792942086
2760000000.0 0.6636816121950792 -0.13473930016041313
2780000000.0 0.10620736951465015 0.6657412514781215
2800000000.0 0.020971872992365772 0.6656229832218311
2820000000.0 -0.32853879275255016 0.564866047269812
2840000000.0 -0.5986316735709513 -0.22113904236911772
2860000000.0 0.5636270838437016 -0.2619118173007455
2880000000.0 -0.5985576809619219 0.05143356994821505
2900000000.0 0.41712603405643706 0.39958077670701203
2920000000.0 0.5511225162629498 -0.07158458450211821
2940000000.0 0.12649448418605577 -0.5226624068366509
2960000000.0 -0.23582252743807022 -0.45222295748516317
2980000000.0 -0.37114928374457135 -0.3165896607348113
3000000000.0 -0.4439031898838475 -0.1526541578338351
3020000000.0 -0.12038164642496897 0.4317304852868021
3040000000.0 0.2789061771927341 0.3214194218249524
3060000000.0 0.032372371642532344 -0.4068803135110195
3080000000.0 0.003556999570834597 0.39398980955693125
3100000000.0 0.17291909865299518 -0.3296401134363599
3120000000.0 -0.16032903688867464 -0.3300824928977159
3140000000.0 0.28438934839353025 0.21944655133708516
3160000000.0 -0.30619572591628386 -0.18877990748971532
3180000000.0 0.12725885636333256 0.33330788453821075
3200000000.0 -0.22844739474774714 -0.2754610375048118
3220000000.0 -0.2820089217267933 0.19801237000814395
3240000000.0 0.12015548331351718 0.31376953513611855
3260000000.0 0.2572292589372404 0.20051895645879256
3280000000.0 0.2957942165614751 -0.08139294150692697
3300000000.0 0.1309304506802115 0.2596537077181275
3320000000.0 0.10841675983249657 0.24041960062256507
3340000000.0 -0.22798914254962463 -0.06815939304137202
3360000000.0 0.20649595326779413 -0.013586781328900989
3380000000.0 -0.15661050217406328 -0.10786634540369627
3400000000.0 0.1457338650108428 -0.08191729675920564
3420000000.0 0.13118129467082096 0.07926198958647025
3440000000.0 -0.05478481693508015 0.12010038811006972
3460000000.0 -0.10667075534097549 -0.029483144685568494
3480000000.0 -0.06647219012590116 0.07996056992890949
3500000000.0 0.09591351536583358 -0.011357967836015708
3520000000.0 -0.012488101136279607 -0.09774064068446775
3540000000.0 -0.07971158849899639 -0.05334933432151462
3560000000.0 0.09824870832144356 -0.03981040937558167
3580000000.0 0.09679331342752569 0.05059521225348741
3600000000.0 -0.030102320286753716 0.11166338476418042
3620000000.0 0.0842563199666382 0.09730018839331347
3640000000.0 0.07420645059879977 -0.11484446920481706
3660000000.0 -0.03533232660799593 0.13855292098723232
3680000000.0 0.13784396976846458 0.06319244535575419
3700000000.0 0.03465362007371538 0.13431839566832768
3720000000.0 -0.11663713421557821 -0.02750036770444783
3740000000.0 -0.0694006234249113 -0.07194530081563075
3760000000.0 -0.0599856201664941 0.058603136897966764
3780000000.0 -0.0506010517203482 0.03266435432428561
3800000000.0 -0.030417214783368635 -0.012582164932616638
3820000000.0 0.0017191003653357147 -0.0022997034351633634
3840000000.0 -0.02934930231855769 0.02727095869092371
3860000000.0 -0.0442679236740396 0.05173943758592977
3880000000.0 0.09312657855269593 -0.009270526674832965
3900000000.0 0.0983813932357107 0.053830876435296535
3920000000.0 -0.09041465252745473 0.08149347378200052
3940000000.0 0.1176240850996224 0.05598949849049242
3960000000.0 -0.10563215235621505 0.07729016764627944
3980000000.0 -0.0006732462396253421 0.12508974016044602
4000000000.0 -0.05395964765128922 -0.08263620028937606
