!Created with skrf (http://scikit-rf.org).
# Hz S RI R 50.0 
!freq ReS11 ImS11
400000000.0 0.29596327396505384 -0.8672229262367601
420000000.0 0.36140406101502853 -0.7927988523511126
440000000.0 0.2333638387349421 -0.7967989602119694
460000000.0 0.007241758123491352 0.7682823672113663
480000000.0 0.43953077746189584 -0.5917711222878832
500000000.0 -0.6768869018995104 0.3119166961277479
520000000.0 -0.6240727514941615 0.327224555071585
540000000.0 0.530122815803427 -0.4327991544958871
560000000.0 -0.6420749374831989 0.0016777332554732411
580000000.0 0.290373541329381 -0.4602634927874542
600000000.0 0.0962178380693395 -0.5755575882726913
620000000.0 -0.36525226025677293 0.41432121958393714
640000000.0 -0.4779680917401808 0.1717203315055997
660000000.0 0.25551646981435105 -0.4518519207916965
680000000.0 -0.3196715710498946 -0.4247546014024095
700000000.0 -0.5429006488368661 0.00575272776604374
720000000.0 -0.22438843561333296 0.4999064504428571
740000000.0 0.3748143870433786 -0.34373713258352206
760000000.0 0.15749037454849582 0.45084840641233503
780000000.0 -0.09065943511483324 0.4505154195229698
800000000.0 -0.2688847548612777 0.3200022070020665
820000000.0 -0.3681234208188741 -0.04244439593659184
840000000.0 -0.24570934347214088 -0.19068775411541072
860000000.0 -0.15690527525460857 0.23448663545971352
880000000.0 -0.21510491155632272 0.13553021543232552
900000000.0 -0.22533239165605595 0.1029235919050534
920000000.0 0.047482930093124855 0.22101768319233747
940000000.0 0.05656572337484841 0.20194770202185072
960000000.0 -0.17298549796651427 -0.04986889992298393
980000000.0 -0.12790253337168278 -0.028069385748342373
1000000000.0 -0.09292241251053833 0.03445925576813026
1020000000.0 -0.044261137790750374 0.08923781847346202
1040000000.0 -0.12458572805459106 -0.02414304775192537
1060000000.0 0.15253106268549946 0.05356187851248145
1080000000.0 0.18008947798929995 0.004439421351468988
1100000000.0 -0.14741227863361944 -0.18389063007991424
1120000000.0 0.24688139184463048 -0.1106939640165638
1140000000.0 -0.2683280940221834 -0.13082582855050412
1160000000.0 0.23185396684849655 -0.21450255121221182
1180000000.0 0.30098423761564425 0.14313392486064816
1200000000.0 -0.35971574649236154 -0.021429590358457092
1220000000.0 -0.3612057889938248 -0.06361175907110128
1240000000.0 -0.27756575865733174 0.24320658695095732
1260000000.0 -0.3478640724436354 -0.12801000831768283
1280000000.0 -0.37339476868663457 0.02880009721486727
1300000000.0 -0.3565056250799412 0.12319827579952654
1320000000.0 -0.2289688399159923 -0.28113569224315715
1340000000.0 0.15813182108347615 0.3214568926239346
1360000000.0 0.34495864642648705 0.13092711797013887
1380000000.0 -0.2776750657091538 0.27139235947178203
1400000000.0 0.302838232508037 -0.22753347434462676
1420000000.0 0.11190732587010836 -0.36536010508343986
1440000000.0 -0.13946189896895492 -0.34520166269052155
1460000000.0 0.28316061703695444 -0.24009795037893777
1480000000.0 0.2190419992817945 -0.3109736173673809
1500000000.0 -0.33179082744418886 -0.18399882638674175
1520000000.0 -0.22808368939740137 0.312996422931123
1540000000.0 -0.006917420808553835 0.3805865632868313
1560000000.0 0.26103274454512376 0.23585751752931405
1580000000.0 0.07659556212724503 0.28917514363603314
1600000000.0 0.2506330397815143 0.05257802188430663
1620000000.0 -0.017775962251722264 0.21107239301554387
1640000000.0 0.12703211958697677 -0.10959338316975954
1660000000.0 0.137716300723871 -0.04935086191677937
1680000000.0 0.12131426132185133 0.02665341859157598
1700000000.0 0.0008740302320094821 0.10846718797735888
1720000000.0 0.08910210935836076 -0.024454560982136248
1740000000.0 0.06022942281697438 -0.025535419686480734
1760000000.0 -0.06009592707538175 -0.055316206660600865
1780000000.0 0.017717822947295497 0.09687856000169479
1800000000.0 0.04416338166108943 0.10608154167145072
1820000000.0 0.05152673407280251 0.13289857135917346
1840000000.0 0.15005303757961824 0.11443216751819461
1860000000.0 -0.14705114983700512 -0.1670982935226806
1880000000.0 -0.18316978588676558 -0.15984325578017028
1900000000.0 -0.18249912176184616 -0.19734361948034615
1920000000.0 0.2937780642211069 0.020675609383483937
1940000000.0 -0.26692299304280404 0.13323328968547357
1960000000.0 0.17777833257932987 0.24468878131487765
1980000000.0 -0.319439645024006 -0.007098214701130107
2000000000.0 -0.1685649143314293 -0.2718790359400099
2020000000.0 -0.12247902942819795 -0.29601167205135265
2040000000.0 0.31785047264258215 0.024993019653024747
2060000000.0 0.30011317076940874 0.1034243841789147
2080000000.0 0.02992361965601138 0.31083047741972336
2100000000.0 0.26577168423058245 0.16628193643345
2120000000.0 -0.31856854447612776 0.043479875832402454
2140000000.0 0.2531711571792338 -0.18380152191653862
2160000000.0 -0.22865564082343098 -0.20924933242831284
2180000000.0 -0.20143640413471606 0.2410208388325281
2200000000.0 0.2456311820474133 -0.17574596420844393
2220000000.0 0.2842934293164292 -0.04174006705346442
2240000000.0 -0.2413516326653863 0.13161560192868454
2260000000.0 0.25859095776107843 -0.07405910533036889
2280000000.0 -0.04987050974133966 0.2659155353855998
2300000000.0 -0.26520590143658074 0.06113117703337247
2320000000.0 -0.2671711081891057 0.02531083208420773
2340000000.0 -0.2558959326980834 0.028944351350638182
2360000000.0 0.2545716040377557 -0.028150538112792244
2380000000.0 0.09063429530475171 0.2423197687827478
2400000000.0 0.11496502057042565 0.24426420931418935
2420000000.0 -0.09753615832647174 0.2669640752337319
2440000000.0 0.30904758214943134 0.02143166607369888
2460000000.0 -0.10287690930986268 -0.3162295450227374
2480000000.0 -0.3601226864972181 -0.04212122097181377
2500000000.0 0.3964080199694797 0.06312680266100458
2520000000.0 -0.35872983169211525 0.25238807305852823
2540000000.0 0.2073681917322416 -0.4319831913956289
2560000000.0 0.07284158968167972 0.5077242829327304
2580000000.0 -0.37135852522750445 -0.40338179000719787
2600000000.0 0.5326331008963384 0.21653959831497865
2620000000.0 -0.593523795304071 -0.08630659396600314
2640000000.0 0.5768261003365708 -0.23106232228421017
2660000000.0 -0.2642564124746599 0.5814724202297261
2680000000.0 -0.5030916152299554 -0.4114922613591061
2700000000.0 0.25178620046819716 -0.6115843415999582
2720000000.0 0.6034919875217818 -0.28860297527619916
2740000000.0 0.6626844534980778 -0.12632449708151447
2760000000.0 0.6615685704560417 -0.14538952621572765
2780000000.0 0.09968271481218972 0.6670473890478832
2800000000.0 0.023497830246691283 0.6656562944139249
2820000000.0 -0.32214838592086753 0.5684530298597527
2840000000.0 -0.5872415269717328 -0.24977630453744123
2860000000.0 0.589712821133765 -0.19424156306084447
2880000000.0 -0.600435312980161 0.029647589172512697
2900000000.0 0.38466943367344925 0.4309728345849919
2920000000.0 0.556088650547881 -0.0025474837307794492
2940000000.0 0.14484308844932064 -0.5184724466174268
2960000000.0 -0.2479527397576831 -0.4449034540502825
2980000000.0 -0.3373666040315842 -0.35292941352400625
3000000000.0 -0.44630490493688096 -0.1447467015261357
3020000000.0 -0.12861050240471802 0.42971280742710005
3040000000.0 0.2752926518115242 0.32376273457543886
3060000000.0 -0.05177834553755291 -0.40421058149716466
3080000000.0 0.013327352922945401 0.3946039616370295
3100000000.0 0.19442559526410663 -0.3183217411568035
3120000000.0 -0.30091812672392504 -0.21192324670737553
3140000000.0 0.28410713012848965 0.21894077412585417
3160000000.0 -0.21876525905587635 -0.2845650341636672
3180000000.0 0.08241135633670049 0.34716371397025314
3200000000.0 -0.2485761507739032 -0.25782653264990435
3220000000.0 -0.30785996093788226 0.15347972302704754
3240000000.0 0.10871261021583715 0.3177342097531615
3260000000.0 0.2631850272982069 0.19221576189964945
3280000000.0 0.28786431801899326 -0.10430919740712924
3300000000.0 0.08776325756149103 0.27679815730462276
3320000000.0 0.08286859445709624 0.2514788721003035
3340000000.0 -0.2348459923216839 0.044440641840537705
3360000000.0 0.17908452635402536 -0.10192718542276784
3380000000.0 -0.10510212500331956 -0.15732423740314289
3400000000.0 0.16331820899958957 -0.04179214454887086
3420000000.0 0.14605640482530788 0.04916554512596854
3440000000.0 -0.06666255664563296 0.11308325929291396
3460000000.0 -0.10792363830216704 -0.029433135667627473
3480000000.0 -0.04939374580445637 0.09199499797571184
3500000000.0 0.07474729993816777 0.05967923626206138
3520000000.0 0.04392415765271368 -0.08892541260020106
3540000000.0 -0.08291437369497587 -0.05012239215777116
3560000000.0 0.050816720202206504 -0.09189429058750148
3580000000.0 0.057683096355912664 0.091129091582855
3600000000.0 -0.03266451806992689 0.1129689290485626
3620000000.0 0.1108102361134065 0.06529577026034966
3640000000.0 0.10632365036852715 -0.08759437756634181
3660000000.0 -0.05026902772614769 0.13535605222280206
3680000000.0 0.1502828567959778 0.014712825126178749
3700000000.0 0.017019819859899723 0.1366374316924768
3720000000.0 -0.11932211679776619 -0.013416458925079262
3740000000.0 -0.08637613558722336 -0.05348086618396166
3760000000.0 -0.009279069829191475 0.08094905936274155
3780000000.0 -0.055180882008111456 0.025167559090023148
3800000000.0 -0.024451004251200777 0.023205835260922337
3820000000.0 0.0027793497781337414 0.0003631502432699473
3840000000.0 -0.009206796686421074 0.03847395319165066
3860000000.0 -0.025785620493367137 0.06188427248644929
3880000000.0 0.08900139499726958 -0.02891667168071444
3900000000.0 0.10081834376504252 0.04877431911922294
3920000000.0 -0.12075587920257959 0.011569218740461466
3940000000.0 0.10396234663001652 0.07940292237384523
3960000000.0 -0.11504445930796546 0.06407357318008623
3980000000.0 0.036229860472042845 0.11919982357278101
4000000000.0 -0.039461357492744674 -0.08878635071709605
