!Created with skrf (http://scikit-rf.org).
# Hz S RI R 50.0 
!freq ReS11 ImS11
400000000.0 0.2636442280241707 -0.8770524365754913
420000000.0 0.40065389226298764 -0.7737358967240986
440000000.0 0.26581783027938644 -0.7873754209053077
460000000.0 -0.007447242486032819 0.7697868218547634
480000000.0 0.28248434183758275 -0.6802232572416068
500000000.0 -0.7217381323686706 0.1811235104761148
520000000.0 -0.6247765052326794 0.3282414006364499
540000000.0 0.5412720016940222 -0.4205721044162794
560000000.0 -0.634921386268341 0.08089528758989796
580000000.0 0.20009773077269966 -0.507614720154228
600000000.0 -0.2176514417523548 -0.537186456235513
620000000.0 -0.5385566869421651 0.10292018643285655
640000000.0 -0.4920553288384236 0.13720004509255507
660000000.0 0.08384412110064478 -0.5174158122978023
680000000.0 -0.4944268634887714 -0.1807439410032265
700000000.0 -0.41210949038491385 -0.35402837233340656
720000000.0 0.05667677745797264 0.5419379560561739
740000000.0 0.46720206918661344 -0.2058059899598791
760000000.0 0.28479944278299407 0.3835501860070016
780000000.0 -0.12337291903454367 0.44190277586401394
800000000.0 -0.29490234439463286 0.2993335408906026
820000000.0 -0.36035835736265925 0.07153594070642688
840000000.0 0.08240287362348563 -0.30331236829730696
860000000.0 -0.017726078418615482 0.28159579228447723
880000000.0 -0.13223647155658033 0.21567205987685756
900000000.0 -0.24080303991039448 -0.03161196628592708
920000000.0 -0.17448922206520928 0.14959163903216866
940000000.0 0.09178144107375481 0.18966839939729033
960000000.0 -0.17893996412484536 0.04286558048701409
980000000.0 -0.07608855182634039 0.10591342837232702
1000000000.0 0.08956818483555028 0.031224314757345353
1020000000.0 0.042595672515922826 -0.08657568151793679
1040000000.0 -0.02934960862246178 -0.1257774851535361
1060000000.0 0.15031655817071113 -0.061329926342935964
1080000000.0 0.1771453711312832 0.03315972121622129
1100000000.0 -0.1808554578948223 -0.15300912957431162
1120000000.0 0.2411650472596073 -0.11886313663387608
1140000000.0 -0.2676713650674377 -0.13253944938892145
1160000000.0 0.27171740299144564 -0.1595621872893667
1180000000.0 0.3073706357254566 0.13066614739001528
1200000000.0 -0.36177411858650355 0.0012949420659594559
1220000000.0 -0.3648705580962715 -0.026200272590345283
1240000000.0 -0.24383849734683785 0.2767223259263613
1260000000.0 -0.35628319748469756 -0.11024580612389628
1280000000.0 -0.37259138273277376 0.007035659998621771
1300000000.0 -0.3227500548238125 0.19694785609929935
1320000000.0 -0.21737823053202343 -0.290278647093454
1340000000.0 0.002870309501864155 0.35808196625007876
1360000000.0 0.36885771596658434 0.02628569423205016
1380000000.0 -0.2722903994706985 0.27515918894856956
1400000000.0 0.24223400804452788 -0.2927129167429723
1420000000.0 0.05112574914881519 -0.37836215289764336
1440000000.0 -0.05647323905430386 -0.3674501321726873
1460000000.0 0.29922470969102927 -0.22173798896080185
1480000000.0 0.23060580995462523 -0.30162005753183785
1500000000.0 -0.2644883392298005 -0.27622322669501126
1520000000.0 0.027993124382713584 0.38610053156783747
1540000000.0 -0.21737716429666315 0.30730205624521845
1560000000.0 0.16148404346105572 0.3156070644626918
1580000000.0 0.1792160440963109 0.24100799232285422
1600000000.0 0.2465627962105435 -0.06447081071668305
1620000000.0 -0.026409343166067127 0.2086916451889379
1640000000.0 0.16414824736869305 -0.03178235830042307
1660000000.0 0.14281337091643997 -0.03239030718002676
1680000000.0 0.11575723134489982 -0.05280092862126117
1700000000.0 0.09579113942418306 0.04361303482486263
1720000000.0 -0.058311374576948655 0.06813480148070498
1740000000.0 0.05703564896304753 -0.03889175128227712
1760000000.0 -0.06100296709620668 0.05168482325998506
1780000000.0 -0.04421335648655052 0.0872257903054648
1800000000.0 -0.04562909742145965 0.10507577569829368
1820000000.0 0.12378600657472986 0.07556510599983482
1840000000.0 0.18300652175395407 -0.03963908312589969
1860000000.0 -0.03128073311991367 -0.2190191056201676
1880000000.0 -0.19707375751788267 -0.1467054848604153
1900000000.0 -0.23939960990849068 -0.12212234119149505
1920000000.0 0.2845805270281401 0.0692245245525749
1940000000.0 -0.29614954482459516 0.052082851884819856
1960000000.0 0.24886329038509009 0.17349971784350626
1980000000.0 -0.3072730268661321 -0.0832305074282143
2000000000.0 -0.05577447771903663 -0.31641864701238914
2020000000.0 -0.17082331402972656 -0.27194795947727085
2040000000.0 0.31297213408019176 -0.047457077038018027
2060000000.0 0.2681294703251175 0.16939930805603196
2080000000.0 0.10270051303417088 0.2975552875785203
2100000000.0 0.2919536090279881 0.10949820851149684
2120000000.0 -0.31883764965594164 -0.03150857070186215
2140000000.0 0.273831078441333 -0.1550947883374931
2160000000.0 -0.2668011711315426 -0.1579743631121295
2180000000.0 -0.1930357910359407 0.24647169816543174
2200000000.0 0.2787353615716238 -0.11948777582887582
2220000000.0 0.2712598095002995 -0.09366200452712117
2240000000.0 -0.2633146607690015 0.07547286672906842
2260000000.0 0.26272258778882884 -0.06413658238179733
2280000000.0 -0.04050068024951288 0.26734225518006616
2300000000.0 -0.2525945329164078 0.09926315742839117
2320000000.0 -0.26718622724096974 -0.01573420785969685
2340000000.0 -0.2583248903828043 -0.007388008006948588
2360000000.0 0.24064970170509317 -0.08272677736962013
2380000000.0 0.042950893921221804 0.25611022608362854
2400000000.0 0.1547535260365622 0.2217038729464847
2420000000.0 -0.09026252317187133 0.2679789281315796
2440000000.0 0.30531741380936694 0.05227654777184758
2460000000.0 -0.14878974582573312 -0.2987036990255874
2480000000.0 -0.3626279646138576 -0.0009783301760983793
2500000000.0 0.40087968873451574 -0.02906148429641269
2520000000.0 -0.35063953620597 0.26366127832606207
2540000000.0 0.21766480525119147 -0.4267164823518359
2560000000.0 0.04794790977658343 0.5108042834529679
2580000000.0 -0.39949505847840916 -0.37466674499670133
2600000000.0 0.5193556374385371 0.24827519844126514
2620000000.0 -0.5974873329713377 -0.055245256064798055
2640000000.0 0.5748246829282997 -0.23600370871254012
2660000000.0 -0.2597230934582175 0.5834741140875848
2680000000.0 -0.4953889725932091 -0.4209859753745921
2700000000.0 0.2486267304194315 -0.6133332741175321
2720000000.0 0.6170027986335642 -0.2581283995328429
2740000000.0 0.6500683373394558 -0.18232858049876913
2760000000.0 0.6588933967546786 -0.156461464300161
2780000000.0 0.07289707897757074 0.6702440510514305
2800000000.0 -0.00861643376712956 0.6656837846256468
2820000000.0 -0.32820260291010234 0.5649614234279362
2840000000.0 -0.6030929373310502 -0.2084372025760452
2860000000.0 0.5874436266226826 -0.20188435507245012
2880000000.0 -0.6003617224929344 0.024682203659138088
2900000000.0 0.40825822352853347 0.40927383330708916
2920000000.0 0.555740156728803 -0.03179138234090109
2940000000.0 0.13913891407389192 -0.5198157798035413
2960000000.0 -0.2635076932980543 -0.4357643469047147
2980000000.0 -0.33925725492564085 -0.3496202388410595
3000000000.0 -0.4346804032324241 -0.1759035571473454
3020000000.0 -0.142741242663459 0.42524965088147665
3040000000.0 0.3172809266909548 0.28410361738540546
3060000000.0 -0.04572510873678134 -0.405730530682712
3080000000.0 0.00045070037681292245 0.3940732619835928
3100000000.0 0.15213059399319118 -0.33913940163869055
3120000000.0 -0.16300508160313215 -0.32889829987606145
3140000000.0 0.26954276903932073 0.23750973594895494
3160000000.0 -0.29711814545895116 -0.2036101574051265
3180000000.0 0.13055571240264216 0.3325623338951375
3200000000.0 -0.24081933225882343 -0.2652810792619549
3220000000.0 -0.30576787936187994 0.16074037007616698
3240000000.0 0.13846755144982065 0.3052286696315361
3260000000.0 0.2535484180457074 0.20384532616333687
3280000000.0 0.30050269923177125 -0.06430111753355043
3300000000.0 0.11603218829045099 0.26643609934436613
3320000000.0 0.13152547759762995 0.22930041192097922
3340000000.0 -0.23593610802382756 -0.034990471119859125
3360000000.0 0.2050529015073384 -0.026285736095723836
3380000000.0 -0.15012869591986977 -0.11635415164415638
3400000000.0 0.15676786158707723 -0.05853631198966513
3420000000.0 0.13410284685491802 0.07420169020910876
3440000000.0 -0.06547056939099838 0.11499320003504745
3460000000.0 -0.11135772518705302 -0.00808542059348245
3480000000.0 -0.04633247252630633 0.0929323083712065
3500000000.0 0.09589352071624857 -0.011425653835734254
3520000000.0 -0.02890029610258596 -0.09395537839518553
3540000000.0 -0.07839056522274217 -0.055066946373619946
3560000000.0 0.09513654684670392 -0.045922273542158235
3580000000.0 0.08576397701738973 0.06770512558121966
3600000000.0 -0.020102828905617584 0.11407665263740886
3620000000.0 0.07396917258315716 0.10604939041443098
3640000000.0 0.09557885677354425 -0.09919763406173401
3660000000.0 -0.053833471715634865 0.13271281263788648
3680000000.0 0.14588347723101447 0.041320649791149335
3700000000.0 0.028321723090847628 0.13555881826249974
3720000000.0 -0.1194253455082894 -0.011789126774374104
3740000000.0 -0.06613663616694829 -0.07515420163840947
3760000000.0 -0.0630598853208068 0.05492103603373089
3780000000.0 -0.024634837322658167 0.05569186953671911
3800000000.0 -0.03186476946158712 0.007355948174492374
3820000000.0 0.0008761810793417359 0.0032907542201470004
3840000000.0 -0.02590522894835557 0.030754577498206325
3860000000.0 -0.019747858580125174 0.06439057466876401
3880000000.0 0.09307374134097704 0.0059352332152002914
3900000000.0 0.08985824966573339 0.06666020418380578
3920000000.0 -0.10451122155805521 0.0623480799990119
3940000000.0 0.13029050111441107 -0.004040461735285648
3960000000.0 -0.09789424912945871 0.08724640135605279
3980000000.0 -0.02175650030933382 0.1231200227829774
4000000000.0 -0.07250645198945614 -0.06651990047307363
