!Created with skrf (http://scikit-rf.org).
# Hz S RI R 50.0 
!freq ReS11 ImS11
400000000.0 -0.7294541786413519 0.3876211374973221
420000000.0 0.257157099968677 -0.7363177660500074
440000000.0 0.6218969252488975 -0.3885092258739993
460000000.0 0.1725259055348245 -0.6432777612995578
480000000.0 -0.3347011660629768 -0.4109730225354339
500000000.0 -0.40321990351587406 -0.11969073316790638
520000000.0 -0.20562246834635609 0.39220836438448364
540000000.0 0.36998126072474535 -0.3083046720248674
560000000.0 0.3671469870331011 -0.29231771241300386
580000000.0 0.11399066797555436 0.39880299962288424
600000000.0 -0.3265044293245097 -0.22684817984339464
620000000.0 -0.33566894400135083 0.13621836635906945
640000000.0 0.2421514767607809 0.2569085295009345
660000000.0 0.2341693228570896 0.2591537204044039
680000000.0 -0.3306703668690103 -0.10404055309048141
700000000.0 -0.3329660383279002 0.14820799080462188
720000000.0 0.3536713537680343 0.010238319448023055
740000000.0 0.32396744294141044 0.050226188299255015
760000000.0 -0.2286626386281039 -0.2071460757432095
780000000.0 0.00765705347461775 -0.30798091485287366
800000000.0 0.25361908606525707 -0.08353807555586908
820000000.0 -0.16273045603135458 0.15378986227975389
840000000.0 0.1580300617606012 -0.13865790702521621
860000000.0 0.08570983176338617 0.1775384049590855
880000000.0 -0.1732228242498506 -0.0930979206280888
900000000.0 -0.04214711520052528 0.15505672218061975
920000000.0 0.09307836611441964 0.11787510131421315
940000000.0 0.004825677050265409 0.13427021047203763
960000000.0 -0.09730620077303709 0.04200229609648323
980000000.0 -0.024593077485318682 0.05833739356334719
1000000000.0 -0.011709899074951919 -0.0361288052738649
1020000000.0 0.050046458546111214 -0.011016580416079665
1040000000.0 0.06285076175625484 -0.05490008408564744
1060000000.0 0.10650723788948364 0.021020074632788207
1080000000.0 -0.12566927006849973 -0.09890741990798313
1100000000.0 -0.07753579075260769 -0.16653378866821253
1120000000.0 -0.17314490807824826 -0.13398494787810689
1140000000.0 -0.04979727836880227 -0.25080916213558635
1160000000.0 0.2612058639761847 0.109329631322217
1180000000.0 0.3074394669110678 -0.005111203369817777
1200000000.0 -0.1648043118730642 0.272056989882587
1220000000.0 -0.13653706407099153 0.30488266358445776
1240000000.0 -0.2166879461243987 0.2547504688520674
1260000000.0 -0.3370293937923417 -0.03590612116044406
1280000000.0 -0.3182926158451891 -0.1251743261286519
1300000000.0 0.2311904872286199 -0.2628027147374536
1320000000.0 0.24215692848482334 0.2738392460586994
1340000000.0 -0.11031902569292103 0.357911092442504
1360000000.0 -0.27382295191860967 -0.27125876175450686
1380000000.0 0.30795866693270474 -0.2173608291298228
1400000000.0 -0.026416120289503013 -0.3789131876928845
1420000000.0 0.012695197994953831 0.37735106304436167
1440000000.0 0.22838652622484376 0.286661173893631
1460000000.0 0.22049632050514303 -0.286909299664912
1480000000.0 -0.08312395645784988 -0.3359994902774384
1500000000.0 -0.1865659878484601 0.2794222336426802
1520000000.0 -0.026442321150268417 -0.3082438595734454
1540000000.0 -0.2358300566087393 -0.14119908894200117
1560000000.0 0.243123135976428 0.037219386031147265
1580000000.0 -0.1549991337717135 -0.13924238729343685
1600000000.0 0.1692443631976185 0.06983573170759555
1620000000.0 -0.10683343361292318 -0.11607944283910436
1640000000.0 0.022068520289408214 -0.12892313841982087
1660000000.0 0.10874910531991486 -0.002103186264922501
1680000000.0 -0.06316722332842857 0.06374743313782975
1700000000.0 0.04594770867406932 -0.0573741255305433
1720000000.0 0.021779804435839996 0.04371311351709546
1740000000.0 -0.050482164091142555 0.017344289312522104
1760000000.0 0.017803828349386087 0.058968481490995095
1780000000.0 -0.049259084971871626 -0.07778763453869948
1800000000.0 -0.12367807865116694 0.01776346386349038
1820000000.0 0.0914390064200404 0.1309926970128487
1840000000.0 0.03490027176206693 0.18775746136471372
1860000000.0 -0.027967964595222695 0.21442319385642716
1880000000.0 -0.010484594258559094 0.24086641816525922
1900000000.0 0.2534717235329825 -0.0850053441978037
1920000000.0 -0.27158035202601327 -0.0901164730215844
1940000000.0 -0.0896602826574507 0.2834342534531433
1960000000.0 -0.3112446935547271 -0.029804014669864345
1980000000.0 -0.032306058643205134 -0.31341294126338454
2000000000.0 0.29241702766354577 -0.10910362454504148
2020000000.0 0.24863082644799048 0.1921622034198234
2040000000.0 0.08865449341176339 0.30225856708477394
2060000000.0 -0.06464975947304975 0.3023832298131948
2080000000.0 -0.28831384980709024 -0.11385690885288056
2100000000.0 0.3076511701326763 0.0016230313681954052
2120000000.0 -0.30359145698922985 -0.0479850737769837
2140000000.0 0.17632317566516434 -0.24744569040661987
2160000000.0 -0.1953017798167013 0.22569592515446482
2180000000.0 0.1900915760705659 0.21974452576436043
2200000000.0 0.2408412425163158 0.15008960283167622
2220000000.0 0.2723239377694741 0.03818954003016448
2240000000.0 0.11143927754904316 0.24529546204899463
2260000000.0 -0.16440511500690694 0.20065979181818952
2280000000.0 -0.21985793046522967 -0.11872852268875828
2300000000.0 0.17135241922520833 -0.16681182405337178
2320000000.0 -0.1367176038844121 0.183698680854245
2340000000.0 0.10693525677968822 -0.19564570878698284
2360000000.0 -0.08005646308839845 0.20670860583350567
2380000000.0 0.1456252705858609 -0.17736568051444235
2400000000.0 -0.13313409500456957 0.20610496857068678
2420000000.0 0.07656679178557359 0.26395327203442814
2440000000.0 0.07784476818082925 -0.2928773330850457
2460000000.0 -0.0923574025414782 0.3257037335383153
2480000000.0 0.36415007421627266 -0.07148464380240695
2500000000.0 0.1541028119961371 0.38014393670377905
2520000000.0 -0.43496989039736844 -0.09287081705596813
2540000000.0 0.19566822420826774 -0.44095455223770635
2560000000.0 0.23786935875578366 0.45913027835502235
2580000000.0 -0.5148819808377089 -0.18845663306881957
2600000000.0 0.5391369979456857 -0.20623988584849307
2620000000.0 -0.30050182387959773 0.5211059494239195
2640000000.0 -0.040320127574203585 -0.6195150710520889
2660000000.0 0.5292632391834476 0.3564870345361625
2680000000.0 -0.4563678554565292 0.4624508986062266
2700000000.0 -0.5628477715089816 -0.34397913147504056
2720000000.0 -0.15869677068205595 -0.6476153045770114
2740000000.0 -0.10377365908586857 -0.6628269101526459
2760000000.0 0.022319622214735595 -0.6714621053193567
2780000000.0 0.6339565132331538 0.20790060250750478
2800000000.0 0.4959250202593699 0.43407702617852995
2820000000.0 0.08950508691690787 0.6404814580374039
2840000000.0 -0.6073781858654412 0.182541510267381
2860000000.0 0.2939157809604914 -0.547056488532375
2880000000.0 -0.32764108415832366 0.5079930417926749
2900000000.0 0.5796183458582649 -0.08878294116237904
2920000000.0 -0.37575193890705727 -0.4240284963823695
2940000000.0 -0.4800075640387995 0.25022186240753375
2960000000.0 -0.16420742133914612 0.49239148316038395
2980000000.0 0.420048050715649 0.26208562944111014
3000000000.0 0.2835951121677789 -0.378539244564821
3020000000.0 -0.4478711934132461 -0.030924306598790842
3040000000.0 0.379357849648107 0.18582713077424237
3060000000.0 -0.05469897232000049 -0.3928334623578991
3080000000.0 -0.08719673936262229 0.36270190188810414
3100000000.0 0.06942948684263818 -0.34388645093530457
3120000000.0 -0.06799189187401096 -0.33090348042495643
3140000000.0 0.12457008603670368 0.30873961238879344
3160000000.0 -0.11669284354110117 -0.30515105593901476
3180000000.0 0.003928666266610531 0.3231505358105794
3200000000.0 -0.04636844279030552 -0.3148618904403243
3220000000.0 -0.29817702627790815 0.07169568164452914
3240000000.0 -0.19024025999301603 0.22545144535280637
3260000000.0 -0.14046384633051567 0.23881579852564264
3280000000.0 -0.17681098148659186 -0.19623582634938022
3300000000.0 0.13181607554773817 -0.2095757646430223
3320000000.0 0.12828625276348257 0.18753917837493644
3340000000.0 -0.20416914896688645 0.04613635936500284
3360000000.0 -0.03300415070170798 -0.17977680263564813
3380000000.0 -0.11404054882025479 0.10674850064678772
3400000000.0 0.07922946825979223 0.10289048084422639
3420000000.0 -0.11917040789310371 0.0017665210965012899
3440000000.0 0.07933397883662878 -0.07705649365211752
3460000000.0 0.09985030752577537 -0.016479522097867107
3480000000.0 -0.08742208931963162 -0.020912151348963254
3500000000.0 0.04859751205222907 0.06489815609582836
3520000000.0 0.07147078145179978 0.0008693657843024514
3540000000.0 -0.06782458630696091 0.0001068592629151418
3560000000.0 0.04702380947883278 -0.05263015400805396
3580000000.0 -0.0016859523471341098 -0.07792501415507563
3600000000.0 -0.039858374678191845 -0.08216740149193776
3620000000.0 0.07634573600421565 0.06807262596033385
3640000000.0 -0.013286432495582739 0.10778070014836004
3660000000.0 0.05341318063072795 0.10101109127653939
3680000000.0 -0.06010636353452079 -0.09233881146306919
3700000000.0 -0.07409515835167309 -0.07054344022528403
3720000000.0 0.0550264092677229 -0.0750524520988239
3740000000.0 -0.07146867384524681 -0.04252050744817488
3760000000.0 -0.03479748114993297 -0.06826276891390785
3780000000.0 0.05216910070132516 0.044555592127044144
3800000000.0 -0.005066619947602099 0.04460740136118263
3820000000.0 0.014995300956334237 -0.03807022309833253
3840000000.0 -0.0340045863247239 0.03593948349571665
3860000000.0 0.07216817310320274 -0.021729358388520883
3880000000.0 -0.0659172240751119 0.06224428881316524
3900000000.0 0.05089668142975554 -0.0912940109375981
3920000000.0 -0.025207240854886216 0.1041434047066859
3940000000.0 0.1053343582316652 0.015965272425858785
3960000000.0 0.03312838200667775 -0.09989956857126212
3980000000.0 0.0059480998867966275 0.0978358258657335
4000000000.0 -0.01092759184771329 0.08363775286020042
