!Created with skrf (http://scikit-rf.org).
# Hz S RI R 50.0 
!freq ReS11 ImS11
400000000.0 -0.7487450334471434 0.37229084198561024
420000000.0 -0.03293604880460873 -0.7859918540587292
440000000.0 -0.662652710113392 -0.31489991304261505
460000000.0 -0.5576639378086339 -0.3321984709090253
480000000.0 0.3327681600523995 -0.3862022847439243
500000000.0 0.09157908358551052 -0.4145540789086026
520000000.0 -0.19156072484396597 0.4126385454069149
540000000.0 0.09350656865997677 -0.46611695585319246
560000000.0 0.44254109822649074 -0.12349983858548814
580000000.0 0.29156785155757764 0.2870420666179497
600000000.0 0.11914410966518367 -0.3667255865717082
620000000.0 -0.31900953983885405 -0.16896987543078118
640000000.0 0.17079779300641615 0.3082213248350052
660000000.0 -0.2378340297667296 0.2699551391327746
680000000.0 -0.2717928743950223 0.21647149759021211
700000000.0 -0.28844398449404807 0.23217098516555346
720000000.0 0.33532478480733924 -0.11160969325987032
740000000.0 -0.007580557197870773 0.33097336962536644
760000000.0 -0.31302147486769816 -0.04170859032378684
780000000.0 -0.2513840752435507 -0.17572008926341184
800000000.0 0.18642791533466632 -0.18220430356452091
820000000.0 -0.011986700238380318 0.2302193898714241
840000000.0 -0.07150336752505779 -0.19986076502402314
860000000.0 0.18420974606576748 -0.06977378942704607
880000000.0 -0.16202286032827198 -0.10328720746331706
900000000.0 0.015394770176244642 0.15983465463006682
920000000.0 -0.15227163256979462 -4.700269053652615e-06
940000000.0 0.048813518056117604 -0.12634556425942825
960000000.0 0.020846341506257533 0.09545759313920232
980000000.0 0.0068890677024862745 0.060898025780603486
1000000000.0 -0.029838109071729325 -0.027186479228436426
1020000000.0 0.04258039850455646 0.0009699846793978257
1040000000.0 0.020842296310373872 0.08183586626022592
1060000000.0 -0.015617144770907875 -0.11040642079225638
1080000000.0 -0.15478969539158152 -0.006225473301158066
1100000000.0 0.1774087996618535 0.051972472247643446
1120000000.0 -0.2027657423693296 -0.0856634862125128
1140000000.0 -0.23589020795539548 0.0875635633912433
1160000000.0 0.21104999507192504 0.1841126695709845
1180000000.0 0.21534408837569302 0.22508927554715213
1200000000.0 0.05724394828050259 0.31623845472557566
1220000000.0 -0.13805452147949088 0.304729534722996
1240000000.0 -0.2211200341136788 0.24953617341961168
1260000000.0 -0.32779262037217943 0.08019423009411737
1280000000.0 -0.20085667328911483 -0.2772138380459953
1300000000.0 0.24673670921429616 -0.2532423641813608
1320000000.0 0.36314857585752136 -0.0640811637420257
1340000000.0 -0.07921376753335378 0.3656167258602457
1360000000.0 -0.33362175337104977 -0.18570003776322558
1380000000.0 0.3749023030118991 0.04546591275461869
1400000000.0 -0.028076519623119297 -0.37957906391933643
1420000000.0 0.019385405051196215 0.37819180522600904
1440000000.0 0.22842342079507125 0.2845877826533125
1460000000.0 0.3271396446525271 -0.15348687020028018
1480000000.0 -0.1645757929459264 -0.3065969625500332
1500000000.0 -0.027778484080346517 0.33372561656407296
1520000000.0 0.12306055481736533 -0.28226746938568364
1540000000.0 -0.2566037759730491 -0.09807263337246742
1560000000.0 0.2425329083058065 0.05113093604795838
1580000000.0 -0.19810826984965046 -0.07044098680929531
1600000000.0 0.1815615404635948 -0.0006200244959631206
1620000000.0 -0.12048017413725118 -0.09896704261428084
1640000000.0 0.02548700364604124 -0.12840910719331913
1660000000.0 0.03023817372925348 -0.10472895318889956
1680000000.0 -0.08787155349721065 0.000230900568701288
1700000000.0 0.049722284216222365 0.05296768257946955
1720000000.0 0.01968791005216054 -0.046937079118377543
1740000000.0 0.05005913966504196 0.011122052987805688
1760000000.0 0.02723352271490634 -0.054335660574762426
1780000000.0 -0.0189705440280931 -0.093358603914312
1800000000.0 -0.01833758791355848 0.12255886588635628
1820000000.0 0.0027565420024598507 0.15981328244673526
1840000000.0 -0.016861377336812464 0.18913053832861715
1860000000.0 -0.060080823178864706 0.20925495755915194
1880000000.0 0.07907058706843836 0.2257711942453893
1900000000.0 0.2617786270388677 -0.0357520406372771
1920000000.0 -0.1737427062596731 -0.22826403227731207
1940000000.0 0.058155417085312085 0.2928852260833231
1960000000.0 -0.30552114016879434 0.05681981063268971
1980000000.0 -0.0317758766807633 -0.310976923831498
2000000000.0 0.3110713552743856 -0.035292222115033176
2020000000.0 0.3123243830561986 0.054665052890703794
2040000000.0 0.23164051618130962 0.21231587723206655
2060000000.0 -0.01289671310299537 0.3071375047775475
2080000000.0 -0.2915562639172747 -0.10873492668554241
2100000000.0 0.30205707437017576 0.07236312161438156
2120000000.0 -0.2934959734109902 0.09366797191009126
2140000000.0 0.05920759710398741 -0.29749991274974164
2160000000.0 -0.24706918217938106 0.16263388926946287
2180000000.0 0.11606229147404347 0.268328797030474
2200000000.0 0.27652641869523525 -0.06866143236359794
2220000000.0 0.25921928392678606 -0.07989155300724418
2240000000.0 0.07093667370459537 0.2591107723294432
2260000000.0 -0.09692858025251047 0.2418462891295692
2280000000.0 -0.21321029155370658 0.12923616923241515
2300000000.0 0.07528030992696773 -0.22515210308903205
2320000000.0 -0.02778396748005912 0.22716746613601538
2340000000.0 -0.026767861283888913 -0.22124244995886058
2360000000.0 0.0009930627688097794 0.2223284596268955
2380000000.0 0.07797147771272078 -0.21860671545541804
2400000000.0 -0.09389457496381591 0.22641162663555284
2420000000.0 0.07689025215750143 0.2636242991134613
2440000000.0 0.032770113767755446 -0.3036404627707316
2460000000.0 -0.11444060077593582 0.318382495899807
2480000000.0 0.3042837422321428 -0.21211935937995516
2500000000.0 0.11290078016410919 0.3917389575529927
2520000000.0 -0.44466356293888387 -0.01098025073012772
2540000000.0 0.08230011874094992 -0.4754619033143684
2560000000.0 0.3184173157521175 0.405427424500582
2580000000.0 -0.5313020238670925 -0.1396188758696103
2600000000.0 0.4841715549523951 -0.3161632927092227
2620000000.0 -0.2666517755467213 0.5413356780993078
2640000000.0 -0.1390486104178367 -0.6064302711744531
2660000000.0 0.5291689002042361 0.35840785834342737
2680000000.0 -0.526060158880906 0.3847862094992772
2700000000.0 -0.553440075114978 -0.3599225197440762
2720000000.0 -0.15053075362823165 -0.6503906294444567
2740000000.0 -0.09130441078706017 -0.6656427334727868
2760000000.0 0.011392908847144341 -0.6719989020269921
2780000000.0 0.611829621444631 0.2668925147513975
2800000000.0 0.5182769715032327 0.4086246027337541
2820000000.0 0.0667032315677844 0.6440500411884501
2840000000.0 -0.6091369912613471 0.17964747514440937
2860000000.0 0.2938748142819229 -0.5485937602650136
2880000000.0 -0.3123834086675054 0.5191498842182573
2900000000.0 0.5677856292942931 -0.14844428088990058
2920000000.0 -0.3974088303262047 -0.4053117644550361
2940000000.0 -0.48481898280657076 0.24094451104356948
2960000000.0 -0.044637084840286806 0.5179629800281228
2980000000.0 0.48065688273258356 0.12078689902772291
3000000000.0 0.2211669643538323 -0.41908232353596436
3020000000.0 -0.4427604362435334 -0.07821024330719947
3040000000.0 0.3517050312607609 0.23960126522382544
3060000000.0 -0.1133373874629767 -0.38127361718426017
3080000000.0 -0.04345798825995599 0.37117093879793744
3100000000.0 -0.05352803237615444 -0.34852049005682895
3120000000.0 -0.2588365183873029 -0.22125859842918855
3140000000.0 0.22622201134153658 0.24455082692379393
3160000000.0 -0.17834062439818468 -0.27228640732461795
3180000000.0 0.14779629091407356 0.28815258254788206
3200000000.0 -0.22526718161579468 -0.2253089005837363
3220000000.0 -0.1449854993399898 0.26779799613009353
3240000000.0 0.03768598328727095 0.2902232076632711
3260000000.0 0.007299033939020532 0.27765556310307193
3280000000.0 -0.25960944390067886 0.03390290300856328
3300000000.0 0.050447152553809216 -0.2438765418155681
3320000000.0 0.22159315485205947 0.05357936311162238
3340000000.0 -0.1683974976115041 0.1253778278627238
3360000000.0 -0.1738600169501843 -0.06610138681377314
3380000000.0 0.045517706040377956 0.14964296948752823
3400000000.0 0.07884025864363847 0.10515666828404933
3420000000.0 -0.11291279710977585 -0.044145407342145795
3440000000.0 0.08633322292574508 -0.07302224078894062
3460000000.0 0.08802190938008048 -0.05290158614068428
3480000000.0 -0.06716448705152381 0.059968620718690885
3500000000.0 -0.05155168273193603 0.06411494587521431
3520000000.0 0.00609662788301355 -0.07209986163327681
3540000000.0 -0.04879277105795173 0.04621498341523501
3560000000.0 -0.06637009984673208 -0.021634668426824936
3580000000.0 -0.07153480215495127 -0.033710088707346625
3600000000.0 -0.0024893213885672865 0.09169878517152284
3620000000.0 -0.030788447824423158 -0.09846263290268718
3640000000.0 0.10193814430288374 0.04620313233445604
3660000000.0 0.11659195106803692 -0.022813361032317528
3680000000.0 -0.11011601460404462 -0.034968518503377045
3700000000.0 -0.10648691071679468 0.004044855920942736
3720000000.0 0.05971656964056423 -0.07505843590300706
3740000000.0 0.025153581409928242 -0.08440119530510151
3760000000.0 -0.03427757050357719 -0.07225855163020936
3780000000.0 0.03368645710528586 0.0621680918848235
3800000000.0 -0.032913570683599735 -0.0329079666928092
3820000000.0 -0.023533588865987186 -0.0348128052952876
3840000000.0 0.01789801397078491 0.048436493701164485
3860000000.0 0.07459113316409552 -0.015817094627839614
3880000000.0 -0.0573524014654431 0.07158625042685353
3900000000.0 0.08833296591496773 -0.055429130608096455
3920000000.0 -0.10729185011784695 -0.009497046929610498
3940000000.0 0.025684737863122028 0.10364485986267451
3960000000.0 0.0662064065340851 -0.08053752487485669
3980000000.0 -0.0954739693918766 0.011120658714293784
4000000000.0 -0.05199657902871398 0.06736092363241235
