!Created with skrf (http://scikit-rf.org).
# Hz S RI R 50.0 
!freq ReS11 ImS11
400000000.0 -0.7683949888881703 0.33858305131046673
420000000.0 -0.13821269839787945 -0.7791928334777302
440000000.0 -0.6835759278292491 -0.2718919752138543
460000000.0 -0.32405894749235115 -0.5550224219375561
480000000.0 0.5254833468453745 0.029560173129786118
500000000.0 -0.3135117404625706 -0.2859342700316466
520000000.0 -0.19656379164531348 0.39397854246429326
540000000.0 0.3821942379969515 0.30036822196061597
560000000.0 0.3574721632794101 -0.30868588049399165
580000000.0 0.23119378920598613 -0.3634456517334455
600000000.0 0.013238332513935374 0.37108969201177333
620000000.0 -0.04968170993284904 -0.3564264481379776
640000000.0 0.21795422460861558 -0.27780659045541956
660000000.0 -0.05852920885793833 0.330146681487548
680000000.0 -0.13786428499245415 0.32176276209514204
700000000.0 -0.016295440108195346 0.3473231048020875
720000000.0 -0.2920736419284498 0.18327185116254907
740000000.0 -0.08641498260393712 0.316171977251615
760000000.0 -0.2887180147039828 -0.12379853195716217
780000000.0 0.29967642552382007 0.004177529273117437
800000000.0 -0.2510638597855772 -0.10243598423393643
820000000.0 0.10303577930187796 0.21964740909877947
840000000.0 -0.08442451559622853 -0.2011897922161011
860000000.0 0.1912824440326451 -0.06093135724283661
880000000.0 -0.12573390389983716 -0.15439093096696915
900000000.0 0.15434350634057512 -0.0723978254355547
920000000.0 -0.14831810534577 -0.005234729149113291
940000000.0 -0.1106697203356136 -0.0610192404555003
960000000.0 0.030158034548987727 0.09478924602527745
980000000.0 -0.05570292579583245 -0.03384429863005641
1000000000.0 -0.02946522699072509 0.013834186848731497
1020000000.0 0.04319915138652017 -0.008871894966522903
1040000000.0 -0.06319586308866718 0.047266120906989305
1060000000.0 0.015641549056339205 0.10672218194233996
1080000000.0 -0.09340068939299428 0.12331356852584902
1100000000.0 0.13793055163518692 -0.11957485204058951
1120000000.0 0.09858801375677802 -0.19662216200508786
1140000000.0 -0.13020017082224128 -0.22069905519036617
1160000000.0 0.2611971135490247 -0.10772711181327829
1180000000.0 0.19011138439512199 0.24433867341516508
1200000000.0 0.05793640647431379 0.3154407918771545
1220000000.0 0.04840680435275248 0.33043285984453813
1240000000.0 -0.31285173104361463 0.12128744007819284
1260000000.0 -0.27685307590478253 0.1859467183429103
1280000000.0 -0.2716157485384762 -0.20886646303842643
1300000000.0 0.3209647929838248 -0.14238104368707735
1320000000.0 0.362230466585854 -0.07885244712478713
1340000000.0 -0.1381145088842933 0.34300742414768376
1360000000.0 -0.0929430589000907 -0.3698263036992462
1380000000.0 0.3797320534758508 0.048542953074135586
1400000000.0 -0.28379510498832655 -0.25266665062975524
1420000000.0 -0.16613304359708617 0.33945830589868287
1440000000.0 0.29787162904826375 0.2175938782335495
1460000000.0 0.2676545395091166 -0.2411328669924134
1480000000.0 -0.05322850439826505 -0.34455436864592737
1500000000.0 0.014702368133065165 0.3355272615975378
1520000000.0 0.21552087367165224 -0.22122898191426923
1540000000.0 -0.2742355158551042 -0.0352473806275367
1560000000.0 0.24683951024796508 0.026344829139625756
1580000000.0 -0.2085467763974003 0.022030279174432593
1600000000.0 0.17496797811789322 0.03907721672971346
1620000000.0 -0.04143369453929135 -0.15033448117622925
1640000000.0 -0.057927113302824816 -0.1213409404151076
1660000000.0 0.05755714072186041 -0.08912249140839894
1680000000.0 -0.0884177552978744 -0.021578877381810604
1700000000.0 -0.057818343917584496 -0.04450668422164757
1720000000.0 0.04542672022521682 -0.009822409636093885
1740000000.0 -0.018797676794804336 0.04660517216548006
1760000000.0 0.015640094825575986 0.060832999529579705
1780000000.0 -0.07318847670806959 -0.0672396643621876
1800000000.0 0.12303327127228071 0.0031271854524576323
1820000000.0 -0.00840445992171773 0.15773436280447442
1840000000.0 0.09925657810270155 0.1623580655621304
1860000000.0 -0.09542622853598053 0.19268415133543698
1880000000.0 -0.013270227887585478 0.23978979665438263
1900000000.0 0.26613337550098787 -0.024036165364994252
1920000000.0 -0.282594058934767 -0.041194611026246566
1940000000.0 -0.03213756835901071 0.2937928616494166
1960000000.0 -0.2994405056256082 -0.08131888202258482
1980000000.0 -0.08361991998958734 -0.3034867821457543
2000000000.0 0.30154672167778535 -0.08003888120639016
2020000000.0 0.15983919497814192 0.2706207697736781
2040000000.0 0.05450000193409604 0.31194081122629724
2060000000.0 0.06260930861242604 0.30378155271162355
2080000000.0 -0.28892728907898163 0.11276703306763729
2100000000.0 0.2926144346650275 -0.09864556310479444
2120000000.0 -0.2612441208985287 0.1596877914942395
2140000000.0 0.12002241657614329 -0.27716085045572153
2160000000.0 -0.2530699223105759 0.15878134394270285
2180000000.0 0.11722327664416073 0.2680120468058376
2200000000.0 0.2513021261076396 -0.13573568427496568
2220000000.0 0.2711784291452261 0.029571324378361723
2240000000.0 0.08671595552871096 0.2580833531115111
2260000000.0 0.12029589188853404 0.23067032412396873
2280000000.0 -0.2317055592067949 0.08925742543733908
2300000000.0 0.09865123665764955 -0.21697282381586136
2320000000.0 0.12922149151396278 0.18728206901246225
2340000000.0 0.015812813355796256 -0.21862995841496016
2360000000.0 -0.15302241672083433 0.15728128372037622
2380000000.0 0.1553149068192847 -0.1706233904216604
2400000000.0 -0.12568737947601022 0.21217009773521853
2420000000.0 0.041478992620810805 0.2714228513087899
2440000000.0 0.08369799699670526 -0.29460062484118316
2460000000.0 -0.01283977429741394 0.3388741200719107
2480000000.0 0.27556167173814883 -0.24887665366747352
2500000000.0 0.10555454162378775 0.39345084705172456
2520000000.0 -0.42819671037906964 -0.12235457749671017
2540000000.0 0.04870508490929073 -0.48063299155692313
2560000000.0 0.36392029131087844 0.36830347430450044
2580000000.0 -0.5481917339719204 -0.017292564100525362
2600000000.0 0.49931247557197533 -0.2900259027148277
2620000000.0 -0.3047076514392134 0.5194511914040282
2640000000.0 -0.03148069128922374 -0.6214743294939606
2660000000.0 0.5306890112423887 0.3556942415325075
2680000000.0 -0.4514529472114147 0.4690197360916827
2700000000.0 -0.5878823919807072 -0.3010599008372938
2720000000.0 -0.21906448247036134 -0.6296646835371724
2740000000.0 -0.007466361528625874 -0.6706391489496435
2760000000.0 0.08076590344514721 -0.6664504516628537
2780000000.0 0.6358871677322833 0.20184172465776976
2800000000.0 0.5257638965503578 0.39692776798376267
2820000000.0 0.014560316048811068 0.6463607996145596
2840000000.0 -0.6276876445182488 0.0948631820856808
2860000000.0 0.37241978533706704 -0.4979265075033209
2880000000.0 -0.40501508276752474 0.4492821288680041
2900000000.0 0.5880562162663984 -0.041978662576837814
2920000000.0 -0.37352363502899893 -0.4292970485075003
2940000000.0 -0.4506667969456613 0.2989616535354212
2960000000.0 -0.10935962195387433 0.5087401434955483
2980000000.0 0.4795405214836583 0.13021706684326292
3000000000.0 0.18041821688547724 -0.43675197376949343
3020000000.0 -0.4442359777500247 -0.07115032632157854
3040000000.0 0.40341370232766943 0.12979336153239227
3060000000.0 -0.2317644091290787 -0.32027745473641145
3080000000.0 0.05555207377567948 0.36727862497202685
3100000000.0 0.005767251868787933 -0.3512649739112901
3120000000.0 -0.20125104816258266 -0.2722144610035758
3140000000.0 0.08244856723797847 0.3227813211564325
3160000000.0 -0.09304014895618291 -0.31713465427675686
3180000000.0 0.23512804013730904 0.22668498200707496
3200000000.0 -0.13921864813017917 -0.28755989283764954
3220000000.0 -0.15586729991688145 0.26529476172960853
3240000000.0 0.04087449924241754 0.29217305912170594
3260000000.0 0.01447311996372435 0.2763471563328294
3280000000.0 -0.26148521890664583 -0.028663135769378706
3300000000.0 -0.06612375968000757 -0.2378570519038847
3320000000.0 0.22585901327477195 -0.025330972015049705
3340000000.0 -0.07214096092704256 0.19467827453529704
3360000000.0 -0.10397424656522013 -0.14813119061546914
3380000000.0 -0.11674623281135114 0.10300985456275312
3400000000.0 0.07924888276530719 0.10557891837131302
3420000000.0 -0.12107014422220354 -0.006673767148124697
3440000000.0 0.059790021826140266 -0.09564409751411639
3460000000.0 0.0711895019556083 -0.07548519072955663
3480000000.0 -0.00019534401348821325 0.09268132129695679
3500000000.0 0.08243904314823625 -0.016039911644186458
3520000000.0 -0.07259101631128902 -0.00019078836423013502
3540000000.0 0.04169017603373086 0.05535242167367099
3560000000.0 -0.06843387061139707 0.015075699399124207
3580000000.0 -0.07396678486118045 -0.02740694683942155
3600000000.0 -0.0294618272753556 0.08485864408142592
3620000000.0 0.053306383088363815 -0.08614073389177637
3640000000.0 0.07252536454321909 0.07979819732076232
3660000000.0 0.07231195122407744 0.08793100859799999
3680000000.0 -0.006533443733217038 -0.11254372212996118
3700000000.0 -0.05063557424289948 -0.09507450811955619
3720000000.0 0.041054199390786056 -0.08629828741993195
3740000000.0 -0.023105719995589573 -0.08415379486657343
3760000000.0 -0.033881921360215256 0.07264784869675026
3780000000.0 0.06666251557026912 0.017556531117180314
3800000000.0 -0.012250133618641404 0.04591850445790034
3820000000.0 0.033642232427407145 -0.022126740809584215
3840000000.0 -0.037630140186465065 0.030004314413014745
3860000000.0 0.0015245130297979138 0.07367685247080698
3880000000.0 -0.05466243394098445 -0.07423920929481312
3900000000.0 0.05298321017692437 -0.09175172619632568
3920000000.0 -0.04293178165398541 0.09740337007703263
3940000000.0 0.08678128605485885 -0.06305648650165928
3960000000.0 0.07815639554274087 -0.06634696800720806
3980000000.0 -0.06865470734828306 0.06866143615993434
4000000000.0 0.07885843283692782 -0.02855122301651368
