!Created with skrf (http://scikit-rf.org).
# Hz S RI R 50.0 
!freq ReS11 ImS11
400000000.0 -0.8310836402549464 0.12039545746474326
420000000.0 0.08204702541562446 -0.7835236333677368
440000000.0 -0.49279732593337217 -0.544633350152301
460000000.0 -0.43416698766102063 -0.47332817371427516
480000000.0 0.19083658034541892 0.4834948111654131
500000000.0 0.43530716107904405 0.05927227834915837
520000000.0 0.01597142577343705 0.46661984160328196
540000000.0 -0.4665298918339158 -0.16399178029075986
560000000.0 -0.04482229823794978 -0.45689835023177133
580000000.0 -0.14022722941802973 0.3975317687812243
600000000.0 -0.24975454051050028 -0.28301306763443496
620000000.0 0.2831304948098299 0.25441204827466074
640000000.0 0.37493966836555204 0.0746422206242246
660000000.0 0.3651881910516504 0.01702101327519807
680000000.0 0.21136271355669475 -0.29568557471524964
700000000.0 -0.10968463170946634 -0.33886899318556124
720000000.0 0.338383066838386 -0.04573786119308278
740000000.0 0.3235339091000542 0.07393409564313595
760000000.0 0.31744159676764416 0.027067616696707705
780000000.0 0.008566742579180381 0.28715043995316564
800000000.0 0.11918316925815728 -0.22191406659478344
820000000.0 -0.004996093504185901 0.2183109722038662
840000000.0 0.010993207228228816 -0.2012821651296446
860000000.0 -0.1802319460561072 -0.0011590152872238385
880000000.0 -0.05484522127869847 0.18094929293179118
900000000.0 0.1536801311910805 -0.04669898254597737
920000000.0 0.1404769216940393 -0.057965417212961064
940000000.0 0.06315629402765312 -0.12034112817135494
960000000.0 -0.04187105052008815 0.10207706658264747
980000000.0 0.030524898266837575 0.07078159322394653
1000000000.0 0.030810275188558136 -0.031619921794518696
1020000000.0 -0.033785383024985814 0.03791104813800019
1040000000.0 0.0793961040078403 -0.018768064834700334
1060000000.0 0.11684589264625558 0.01895409881755575
1080000000.0 -0.09566172396669043 0.13003077596821694
1100000000.0 0.11844575635208943 -0.1449421175616594
1120000000.0 0.08086971881950869 -0.20942818324961224
1140000000.0 -0.2314176090700661 -0.11846466499820923
1160000000.0 0.1588908136128786 -0.2337326950509088
1180000000.0 0.2972755093396202 0.0931127562260307
1200000000.0 0.26357031329619585 0.18758852975244958
1220000000.0 0.2082241380525647 0.25933481835408695
1240000000.0 -0.1937651034541285 0.2708005717580049
1260000000.0 -0.2903865597060335 0.15887751021140095
1280000000.0 -0.24356518282907286 -0.2353215927058823
1300000000.0 0.3407305627532738 0.07719143190220851
1320000000.0 0.24716551714513826 0.2748628356663291
1340000000.0 -0.18134241344437457 0.32659459862286566
1360000000.0 0.10053231982518769 -0.3685866295720424
1380000000.0 0.3710467264418681 0.09706666989333529
1400000000.0 -0.19682492346277602 -0.33043455658557064
1420000000.0 0.030330882454763515 0.3789981318134034
1440000000.0 0.3205233845458376 0.18934668361308682
1460000000.0 0.13412008255859503 -0.3355806546727236
1480000000.0 -0.2523820508811679 -0.2407241977657194
1500000000.0 0.17177464075445928 0.2850724519913416
1520000000.0 0.11905766730788099 -0.2800207129021345
1540000000.0 -0.2622758610833518 -0.06979035744840763
1560000000.0 0.22899188837496673 0.0799947501760182
1580000000.0 -0.12135879243298844 -0.16443371498204565
1600000000.0 -0.11028576904019263 0.14109859836491825
1620000000.0 0.1553057498678974 -0.03668965786011062
1640000000.0 0.06671154526921702 -0.1184484738894997
1660000000.0 0.0727020321853188 0.08188579353641945
1680000000.0 -0.07968275178924585 -0.052777461426440374
1700000000.0 0.0025262202808535657 -0.07503776922089975
1720000000.0 -0.04893558237827362 -0.01662944148380571
1740000000.0 0.03597742986592677 0.03247205976995838
1760000000.0 -0.02125440334214981 0.053275389752612604
1780000000.0 0.04216962773076982 -0.0860861269474147
1800000000.0 0.0170916084003021 0.12278101744284665
1820000000.0 -0.06669418306064942 0.14639674529556979
1840000000.0 0.16343479128962246 0.09513337499953649
1860000000.0 -0.12396090136794954 0.17255518449138277
1880000000.0 -0.15614147568966 0.17835106713520674
1900000000.0 0.12215135855031477 0.23647254498074116
1920000000.0 -0.051634952065628154 -0.28433402628057436
1940000000.0 -0.05715875612355073 0.29716971882624016
1960000000.0 -0.3151247030422545 0.015604211563568268
1980000000.0 -0.22766449797362964 -0.22400394795139125
2000000000.0 0.04817046749401127 -0.3097056235046663
2020000000.0 0.29426227602006555 0.10317250476630892
2040000000.0 0.14991811506014108 0.27627109249461135
2060000000.0 -0.01994925558731763 0.3076340879159243
2080000000.0 -0.30605257067722264 0.04786000869361461
2100000000.0 0.27989177616734595 -0.1362151318368247
2120000000.0 -0.17580607203995224 0.2519656554744672
2140000000.0 -0.016022723608100056 -0.3002205046223123
2160000000.0 -0.1759246437571535 0.23765245536857665
2180000000.0 0.08799774142888804 0.27444176568637496
2200000000.0 0.27994460785940584 0.044405002386846214
2220000000.0 0.2246231596027132 0.15641878754602814
2240000000.0 0.02472254927305322 0.27076515035060167
2260000000.0 0.06961800440112054 0.25114443413468224
2280000000.0 -0.2374998006392082 0.0711839773529203
2300000000.0 0.19539751186185292 -0.1386848735011292
2320000000.0 0.014988047386982097 0.23015797727429904
2340000000.0 -0.043294543284399994 -0.2177673973143709
2360000000.0 -0.0105944536534435 0.22279870948663338
2380000000.0 0.08272785386965395 -0.2141403588255437
2400000000.0 -0.07592270542028579 0.23354746516342362
2420000000.0 0.06259688244446669 0.2663075654429057
2440000000.0 0.05869821353990213 -0.298683171240448
2460000000.0 -0.05964403186265769 0.33177238640586115
2480000000.0 0.30596041976659977 -0.21050328631797155
2500000000.0 0.20080367099277632 0.3541920588004878
2520000000.0 -0.4364345656070093 -0.08490694899379456
2540000000.0 0.07684836687929714 -0.47683577707134056
2560000000.0 0.31855721810125665 0.40829771346227356
2580000000.0 -0.5412582755221107 -0.09048341730978442
2600000000.0 0.5127681602148261 -0.2664852708531508
2620000000.0 -0.28688588156184797 0.5298397514581374
2640000000.0 -0.06628934294367564 -0.618281221535697
2660000000.0 0.5201284628326792 0.3705030508499899
2680000000.0 -0.5100493261758261 0.4031718831665321
2700000000.0 -0.5154503768260275 -0.41357619046124666
2720000000.0 -0.05027403335059605 -0.6651028584711304
2740000000.0 -0.09158423967056646 -0.6647550426531615
2760000000.0 0.06327369124352904 -0.6689001111378328
2780000000.0 0.6315288201088477 0.216581189457438
2800000000.0 0.477801002912415 0.4547596151366305
2820000000.0 0.037201866926881225 0.6467868592554713
2840000000.0 -0.6253384070668468 0.11131199919686177
2860000000.0 0.3572156867689474 -0.5093591467231637
2880000000.0 -0.37799984262430514 0.4713936682572286
2900000000.0 0.5854394886974523 -0.06128801067080554
2920000000.0 -0.3358372862604897 -0.45923032945506687
2940000000.0 -0.4759763933808971 0.25944279791217356
2960000000.0 -0.006222347939121982 0.5208425277444926
2980000000.0 0.49651953772288127 -0.02374841877486769
3000000000.0 0.14880404425121746 -0.44584372874175804
3020000000.0 -0.4200295251364665 -0.153148774932184
3040000000.0 0.39859793892195383 0.1392893658895
3060000000.0 -0.2142377173089167 -0.33014074847977326
3080000000.0 -0.1546170142698651 0.3386843271006433
3100000000.0 0.026064210051583377 -0.35353598309241047
3120000000.0 -0.22093126367339866 -0.2586158941401894
3140000000.0 0.150276347124734 0.2975624148088388
3160000000.0 -0.16337664458980564 -0.2855477057198215
3180000000.0 0.2036748360168552 0.2539545834196836
3200000000.0 -0.05057639791090016 -0.31521134840905507
3220000000.0 -0.1840844532063084 0.24727940833649087
3240000000.0 -0.016976645997382 0.2963013325006459
3260000000.0 0.12479400368995075 0.24880492590775902
3280000000.0 -0.25579871213302624 0.05207131308730409
3300000000.0 -0.013939181565039753 -0.24641150293631367
3320000000.0 0.21249907152562478 0.08464499554417007
3340000000.0 0.015417219012900558 0.20935689229142598
3360000000.0 -0.18062028930281485 -0.023103761564284828
3380000000.0 -0.07082309027367018 0.13757210192274558
3400000000.0 0.10295253604121236 0.07940613651982358
3420000000.0 -0.10901134347633618 -0.050625566061811594
3440000000.0 0.11102442129898497 -0.013544561298224246
3460000000.0 0.09067654601005959 0.050038865630127195
3480000000.0 -0.06796454844769613 0.06245704802385893
3500000000.0 0.00014970817277055733 0.0809624551246052
3520000000.0 0.05327314239814793 -0.05013144095782543
3540000000.0 -0.06832933421864713 0.017491453773505014
3560000000.0 -0.07124166236886663 -0.015867723931341983
3580000000.0 -0.03720955559474049 0.07224108100906905
3600000000.0 0.07291952566598467 0.05593985521793273
3620000000.0 -0.05227769694014001 -0.08701415422655624
3640000000.0 0.08654151075445604 0.06515734977395858
3660000000.0 0.05248896300365327 0.10204841396061805
3680000000.0 -0.03973570518700821 -0.10525936806662671
3700000000.0 -0.06877095643272861 -0.08155843386082472
3720000000.0 0.06691378185962109 -0.0690686852794171
3740000000.0 -0.056260367890927324 -0.06494504694644443
3760000000.0 -0.07235528146919108 -0.032804529748013636
3780000000.0 0.048307061010158386 0.050832547241861537
3800000000.0 -0.024373137826346654 0.04128634642777846
3820000000.0 -0.0245529953876023 0.03264919673289012
3840000000.0 0.032355525639637756 0.035509294242297235
3860000000.0 0.03900303415147358 0.06256665128152196
3880000000.0 0.002265387442907432 -0.09046726490566451
3900000000.0 0.08132616043224267 -0.0664440440061323
3920000000.0 -0.029409966341200376 0.10262303198051538
3940000000.0 0.10710605109989776 -0.00396989894306563
3960000000.0 -0.07723408879377296 -0.06809939818335702
3980000000.0 0.05346080781045028 0.08170627713348644
4000000000.0 0.08172739720361522 -0.000572329183263076
