!Created with skrf (http://scikit-rf.org).
# Hz S RI R 50.0 
!freq ReS11 ImS11
400000000.0 -0.274567291846444 0.6845793510008455
420000000.0 0.688756034678658 -0.12252622920441968
440000000.0 -0.581928823868767 -0.285994988048713
460000000.0 0.47487809656049496 -0.3992907433968582
480000000.0 0.6119311923029785 0.01399249218667722
500000000.0 0.5256915854175233 -0.18062075241187076
520000000.0 0.41103099231329243 0.2430334233010438
540000000.0 0.1287008780483946 -0.3817257091301129
560000000.0 0.01794712677598258 -0.3696081012914036
580000000.0 -0.22903575708866936 -0.26130093903486856
600000000.0 -0.3101182432184392 -0.15396969793134968
620000000.0 0.034659459324829604 -0.33797312480922237
640000000.0 -0.27621321899802853 -0.16933574561580253
660000000.0 -0.11756629205203058 0.3007873008001513
680000000.0 0.28124401149285544 -0.1447769210790423
700000000.0 0.2152962030809535 0.22638352252199526
720000000.0 0.06651296116424411 -0.2991833860276239
740000000.0 -0.16461431661140527 -0.2736097254040136
760000000.0 0.23429700102439638 -0.2195135255063464
780000000.0 -0.20462064777958755 0.23061355531324443
800000000.0 0.06319129813433191 -0.2589660567861417
820000000.0 -0.24223096206426498 -0.06960080601949083
840000000.0 0.02317343275958868 0.24859406823151423
860000000.0 -0.22830815754771505 -0.06645903066738543
880000000.0 -0.1356722147386299 -0.1960379168934182
900000000.0 -0.09710191092711812 0.18903831933214424
920000000.0 0.15447647623842195 0.08476534438543384
940000000.0 -0.137306229576455 0.06859043573279938
960000000.0 -0.129863230460838 0.008580766304182445
980000000.0 -0.023404465358258002 -0.11289218638187931
1000000000.0 0.0941043233188072 -0.00840287909154644
1020000000.0 -0.09865525863502615 -0.015057389508405702
1040000000.0 -0.06364858011471894 0.07207359250423641
1060000000.0 0.04145883603671203 0.11321895463543258
1080000000.0 -0.028576765455815563 0.13399982323213785
1100000000.0 0.05632358724309535 -0.14782295882346172
1120000000.0 0.19271862883030555 0.07266336379664755
1140000000.0 0.02186297836134297 0.24473788792438597
1160000000.0 -0.22209047050704167 -0.18190260357510762
1180000000.0 -0.1706401166337159 0.2657162294044038
1200000000.0 0.2726049956078387 -0.1593618289744478
1220000000.0 0.24211195268894137 0.2072714026723795
1240000000.0 -0.007298298699517303 0.30974413373705184
1260000000.0 0.1939741832721458 -0.24835725011328116
1280000000.0 -0.11540301787881513 -0.31801157551973075
1300000000.0 -0.13384067306844927 -0.3176329982458602
1320000000.0 -0.04785356291583742 -0.35244352995888595
1340000000.0 0.22038964576295397 -0.29420208166138495
1360000000.0 0.34292433920945203 -0.13707635258040649
1380000000.0 0.16849931250345057 0.32503106084919026
1400000000.0 -0.1983749644117867 -0.30805395793835416
1420000000.0 0.15999452992965607 0.324488772244799
1440000000.0 0.3332981504764562 -0.06694665873890228
1460000000.0 0.31526780464946835 -0.10951527175104657
1480000000.0 -0.18113623415821384 -0.26433603588221305
1500000000.0 -0.1689231891210163 -0.25872091865142244
1520000000.0 0.12298057503404694 0.26708560527328695
1540000000.0 -0.1841149727710852 -0.1963895381502984
1560000000.0 0.18850870409061313 0.14571311280300314
1580000000.0 -0.19111005936219425 0.10352092752681918
1600000000.0 -0.18638727487325452 0.06674667998506266
1620000000.0 0.15072936917117902 -0.09849128263864841
1640000000.0 0.11924863486271464 0.1134312124760494
1660000000.0 -0.12696443140060804 -0.04597726720466018
1680000000.0 0.11752180220343926 -0.012387934515708554
1700000000.0 -0.03979523950460846 0.09110920270890141
1720000000.0 0.006151048924067409 -0.06797893656148289
1740000000.0 -0.02956422699418278 0.03382620241824331
1760000000.0 0.012040750125899887 0.00857360212107967
1780000000.0 0.031121771527324475 0.020859634907231264
1800000000.0 0.043311991454186564 -0.05422003880039203
1820000000.0 0.03851604034829166 0.09241122730542586
1840000000.0 -0.016287438997151623 -0.12477993723527565
1860000000.0 0.0636306664097641 0.1393599080455556
1880000000.0 -0.09011332815089818 -0.13960157710355933
1900000000.0 0.085110353321342 0.13810278948348576
1920000000.0 -0.1128643660232738 -0.11005121785110143
1940000000.0 0.014364758361692917 0.169172417452614
1960000000.0 -0.0863980610751244 -0.14144732645496239
1980000000.0 -0.14764529906702864 -0.10852147808823925
2000000000.0 -0.12802555895400855 -0.14935224275440176
2020000000.0 0.13474567641695961 -0.15083725377020973
2040000000.0 -0.1962698760609754 -0.0830771902877548
2060000000.0 0.18577780798100116 -0.10692786721037847
2080000000.0 0.15812437882413244 0.15865864589448925
2100000000.0 0.21442031241698437 0.04173838596722007
2120000000.0 0.12410632145140117 -0.17881578135947684
2140000000.0 -0.1286436984527422 -0.17467801856509652
2160000000.0 -0.09275196751311274 -0.18540086877406722
2180000000.0 0.18457817299910453 0.051668654159525186
2200000000.0 -0.16225068623812325 0.07707802650836375
2220000000.0 -0.11752058153721857 0.12178680780285535
2240000000.0 -0.14489696520211845 0.04629034828923511
2260000000.0 -0.12754773605392453 -0.044652096759031826
2280000000.0 0.07090139736638117 0.09035921663463573
2300000000.0 -0.06261337188054623 -0.0901956226711004
2320000000.0 -0.07042701131457148 0.06087934360155462
2340000000.0 0.041378717051688246 0.06703839874393966
2360000000.0 -0.06227217916182186 0.038569567323351976
2380000000.0 0.04904209799596948 -0.015417170946818763
2400000000.0 0.028073853432699154 0.030224541843263935
2420000000.0 0.02305624481377342 -0.012260679691936349
2440000000.0 0.0021933145476220276 0.007655830690018345
2460000000.0 0.01066567961896012 0.0040788812708015335
2480000000.0 -0.018494508275009765 0.0028793916874413792
2500000000.0 -0.003801421176763827 -0.03920169462447699
2520000000.0 0.06455038505832951 -0.0023890313995234024
2540000000.0 -0.0014666974430498528 0.08563333868668671
2560000000.0 -0.042460333502577 0.10093055934212769
2580000000.0 -0.09711808544195236 -0.0879710919881842
2600000000.0 0.15611085381913906 0.021906294708679448
2620000000.0 0.13169764469002507 0.11129055371002833
2640000000.0 0.1270643901607479 0.1332969163665552
2660000000.0 0.053821005609208 -0.1876243887925327
2680000000.0 -0.19256073717293185 0.04073067172760663
2700000000.0 0.013114748730362759 0.20056844294628162
2720000000.0 0.14306472238001314 -0.14371923456989563
2740000000.0 0.19309541958407841 0.06558361811546373
2760000000.0 0.1388681447441672 0.14989423793977716
2780000000.0 0.04531692542757041 -0.1924484247387844
2800000000.0 -0.1367176085315099 0.1401555405138372
2820000000.0 -0.15997297997232393 -0.10678027164276489
2840000000.0 -0.16937902478191072 -0.10003366893621028
2860000000.0 -0.20080652728871823 -0.004661361432118016
2880000000.0 0.15177334803680434 -0.13690032798218282
2900000000.0 -0.19373473129135077 -0.07120050834717304
2920000000.0 -0.2087984922173176 -0.03934374338026313
2940000000.0 -0.21174909046139223 0.051893102607834994
2960000000.0 -0.18565641543023068 -0.11488834365240583
2980000000.0 -0.21411190960724683 0.0005424203954504025
3000000000.0 -0.013502196046841141 -0.20602742446566527
3020000000.0 0.07739379086287282 -0.17691299085000234
3040000000.0 0.07953795607651458 -0.1554988758312813
3060000000.0 0.11471752722466802 0.10043818524462216
3080000000.0 0.07932873996750042 -0.09928805379616791
3100000000.0 -0.07229366963077367 -0.08074404075864508
3120000000.0 0.0871361119860918 0.027844220813697532
3140000000.0 -0.03940872798178532 0.07340251204906081
3160000000.0 -0.002292115242015497 -0.08496757341018224
3180000000.0 -0.08192919614801382 0.04702642612234832
3200000000.0 0.09693487841301118 0.044019625074471706
3220000000.0 -0.09713497385849552 -0.0765606824883616
3240000000.0 0.025152538955087494 0.14149887753203555
3260000000.0 -0.15671708572924947 -0.03934736526316188
3280000000.0 0.10659780709067121 -0.1440831150967564
3300000000.0 -0.18915464906717147 -0.032360699068998806
3320000000.0 -0.1422578479658874 0.14212606399814803
3340000000.0 -0.1549700163140563 -0.13881932289962065
3360000000.0 0.0841342589768052 0.20235512172094175
3380000000.0 -0.22877422303860614 -0.015432564456402472
3400000000.0 0.1567801883261177 0.17937155924006443
3420000000.0 -0.24417408317006675 -0.05173273612968218
3440000000.0 -0.25076785981388416 -0.06883991839539595
3460000000.0 -0.22293372537015613 -0.1370292169838331
3480000000.0 -0.25541101745402467 0.031451135293700826
3500000000.0 -0.21961843714026993 0.119149554593877
3520000000.0 0.13296921866426126 0.1955115658118236
3540000000.0 0.0021123056692936687 -0.21634924320775684
3560000000.0 -0.17908009480907364 -0.06964689839693132
3580000000.0 0.011274924291773986 0.17412348705661146
3600000000.0 -0.059692655454945 0.14338213024770824
3620000000.0 -0.14098384394003544 0.037915572601125665
3640000000.0 -0.14289762911941226 -0.003567948277572682
3660000000.0 -0.1288607278867503 -0.07729238262567223
3680000000.0 -0.05365395890699488 -0.15039596800337246
3700000000.0 -0.06944946383788657 -0.16280251017618608
3720000000.0 -0.00879934918175147 -0.19584066125595107
3740000000.0 0.1691598122614406 0.12581951256748708
3760000000.0 -0.16409862603465714 0.15699482018674019
3780000000.0 0.045253423917917174 -0.2369647469098266
3800000000.0 -0.21506712936179992 -0.13041922593817287
3820000000.0 -0.09036531283365211 0.24846082952915235
3840000000.0 0.19122686218262983 0.19571002299568244
3860000000.0 0.2160984438551576 -0.1792035347417151
3880000000.0 -0.28866355020745477 -0.013524464359946874
3900000000.0 0.2456638147927324 -0.1584266626723606
3920000000.0 -0.018141128162538395 0.2853236402106437
3940000000.0 -0.1722831798590581 0.2146358327446452
3960000000.0 0.10890319012173412 0.23094229776237915
3980000000.0 -0.10547541526597787 -0.20459293330070286
4000000000.0 0.02556540445343432 -0.20095860427403042
