!Created with skrf (http://scikit-rf.org).
# Hz S RI R 50.0 
!freq ReS11 ImS11
400000000.0 -0.31232838833244975 0.6675096631461315
420000000.0 0.6981339833642339 -0.03917342886447528
440000000.0 -0.49398186626219664 -0.4221163545792714
460000000.0 0.5306711266084996 -0.32921744750465937
480000000.0 0.6134480482452837 -0.04068999081948424
500000000.0 0.502294192853163 -0.24260600253320594
520000000.0 0.4468150978347946 0.17280549788943492
540000000.0 0.0321186827148582 -0.4018135208606414
560000000.0 -0.05149782666036127 -0.3662054716911211
580000000.0 -0.27493255846522857 -0.2121132076150652
600000000.0 -0.31144005829103744 -0.15095995345169036
620000000.0 0.017679653010221955 -0.338402469790891
640000000.0 -0.2646265482161854 -0.18674798637159531
660000000.0 -0.12658057390372607 0.2964937252221317
680000000.0 0.28367487863406304 -0.13871286179601464
700000000.0 0.17847852764974514 0.2558680066280271
720000000.0 0.10550785644951412 -0.28710993938516
740000000.0 -0.13447087269880909 -0.2898485041816429
760000000.0 0.23942935741772473 -0.21347043000008234
780000000.0 -0.17006359918037192 0.2572706897954184
800000000.0 0.026306837706482088 -0.26451643319869683
820000000.0 -0.24752428025118237 -0.04306104109766271
840000000.0 0.026120981249864082 0.24805513430221493
860000000.0 -0.23275072783982936 -0.04943959024601636
880000000.0 -0.18780990389670885 -0.14721769830166961
900000000.0 -0.015236065609618788 0.2121128472992157
920000000.0 0.17538338106265608 -0.019593281872635135
940000000.0 -0.04781534340797957 0.14581184159873914
960000000.0 -0.07232511255480004 0.10863635487294089
980000000.0 -0.10309713228992844 -0.05244432142945019
1000000000.0 -0.004723226553258354 -0.09507020733605656
1020000000.0 -0.02556764877749135 0.09736724086054371
1040000000.0 0.022477146807582546 0.09478920112700795
1060000000.0 0.10236137743008457 0.06638611558899311
1080000000.0 0.009451840848229453 0.13824970020866864
1100000000.0 0.02266891513784213 -0.15813447086306628
1120000000.0 0.20633800473337088 0.02119774281784317
1140000000.0 0.07953776189011746 0.23415258905691375
1160000000.0 -0.2650731273336221 -0.11350937824963217
1180000000.0 -0.0806944736657662 0.3060978310879958
1200000000.0 0.2232745290121923 -0.22303865074069282
1220000000.0 0.27993777635397193 0.15124173451181258
1240000000.0 0.035203379379374844 0.30684836180090125
1260000000.0 0.16062416208720118 -0.2703265946114837
1280000000.0 -0.1314744046719393 -0.3103386508025397
1300000000.0 -0.13437113663754147 -0.3159746345176764
1320000000.0 0.03635245887618078 -0.35314080220429817
1340000000.0 0.2537303027743375 -0.26479394839741127
1360000000.0 0.3527406294747552 -0.10710265147281235
1380000000.0 0.0726450824239175 0.3585589648500035
1400000000.0 -0.14294935275574114 -0.3370726211295403
1420000000.0 0.11752926512412572 0.3415304862911848
1440000000.0 0.33819683752890806 0.024631219083980697
1460000000.0 0.327481081988989 -0.06257547193411302
1480000000.0 -0.003634324133617164 -0.321331220222675
1500000000.0 -0.07913853526036818 -0.29839672549814267
1520000000.0 0.04458296997258787 0.2903353424066059
1540000000.0 -0.12204447665602723 -0.2395686918426954
1560000000.0 0.1380886329656656 0.1936154442663802
1580000000.0 -0.21646723861508438 0.006568019572562637
1600000000.0 -0.18467851944497163 -0.07052936835836832
1620000000.0 0.16648881544716224 0.06834125110264473
1640000000.0 -0.07911319308449485 0.14384125426293898
1660000000.0 0.08331386841239685 -0.10671517404592275
1680000000.0 0.021592237610910645 0.11636436745128358
1700000000.0 -0.0705224539269277 -0.07071181831572135
1720000000.0 0.05351815065261584 0.04465225316093194
1740000000.0 0.00897163335966118 -0.04518854420175849
1760000000.0 0.0054905276234130836 0.01238643627653806
1780000000.0 0.03568945319937201 0.0017800756924470566
1800000000.0 0.034414206185642664 -0.05833127072074285
1820000000.0 0.005865171470515933 0.09875819503605647
1840000000.0 0.04266542823188336 -0.11809471505995922
1860000000.0 0.015280561330410286 0.15296459579317795
1880000000.0 -0.0664976440905552 -0.15373618661794652
1900000000.0 0.058651125940194754 0.1529677908064856
1920000000.0 -0.14088072707347896 -0.07503899345614287
1940000000.0 0.1150275558925132 0.12652129937258408
1960000000.0 -0.16031079560389205 -0.043476634242643
1980000000.0 -0.1828425559864443 0.00029649613625558455
2000000000.0 -0.176667055271979 -0.0834835466425282
2020000000.0 0.11265974058884741 -0.16631655713770546
2040000000.0 -0.18938049144751404 -0.09486521896522465
2060000000.0 0.20136708544127002 -0.06991964990216562
2080000000.0 0.10396310703410316 0.19725493720994747
2100000000.0 0.18758503810354157 0.11103708777982513
2120000000.0 0.17278277150881016 -0.1333743820111781
2140000000.0 -0.06007729796434652 -0.2092465611785049
2160000000.0 0.00376614104186453 -0.2091871596009584
2180000000.0 0.15833033242614492 0.11340643826806718
2200000000.0 -0.17839663453704616 0.03759752498114966
2220000000.0 -0.11072415728099085 0.13198907000653373
2240000000.0 -0.12724178565606806 0.08871288053516993
2260000000.0 -0.13395875791899903 0.03249507796952273
2280000000.0 0.10652926353324842 -0.04835855526965345
2300000000.0 -0.09256502550593673 0.060530972753978736
2320000000.0 0.075669830903189 0.05398953478517829
2340000000.0 0.05487546112583363 -0.05493225755939571
2360000000.0 0.03705178626940592 0.0613027561191394
2380000000.0 -0.008165199996936625 -0.04954529176379234
2400000000.0 0.017586503976767535 -0.03629973330346578
2420000000.0 -0.013418003839654231 -0.02167188025233559
2440000000.0 -0.006620210524286162 -0.0037937482047849685
2460000000.0 0.0019764122510324907 0.010892220562640675
2480000000.0 -0.01411415119130831 -0.012088601367563597
2500000000.0 -0.03361674428442859 -0.01946617456380075
2520000000.0 0.031148026323569847 -0.05538874504310922
2540000000.0 0.05494984273308579 0.06373589908453622
2560000000.0 -0.003065513129948654 0.10727609746914438
2580000000.0 -0.10313694574037673 -0.07706070073445107
2600000000.0 0.1488837912980201 0.04462689604700213
2620000000.0 0.09024981495355752 0.144383624136967
2640000000.0 0.04448249933989716 0.17665824420179488
2660000000.0 0.1506854439953517 -0.12217421980752588
2680000000.0 -0.17338188169124433 -0.09190759098127106
2700000000.0 -0.10870712383624678 0.169148887306386
2720000000.0 0.19911493279354633 -0.044022541393568794
2740000000.0 0.1708525260668152 0.11395699982055757
2760000000.0 0.14604675773408232 0.14442280516935663
2780000000.0 0.042827166769259364 -0.1940164210799171
2800000000.0 -0.13043537098459243 0.14658456918289967
2820000000.0 -0.18139883027907935 -0.06554514073836214
2840000000.0 -0.19678484241192903 0.01057478063534946
2860000000.0 -0.17087559903808072 0.10479755721669172
2880000000.0 0.09425291495513907 -0.17958638948951855
2900000000.0 -0.19880147036030332 -0.04751952562829108
2920000000.0 -0.2055424968434804 -0.04506912676735202
2940000000.0 -0.21529834473952372 -0.018298520241343458
2960000000.0 -0.11551081988813414 -0.18358281911061755
2980000000.0 -0.18653242502555925 -0.10366150566596992
3000000000.0 0.11472616430918792 -0.17266329416741
3020000000.0 0.1634501606887367 -0.1057333085617106
3040000000.0 0.11219762785931346 -0.13552787782868833
3060000000.0 0.12587270473059164 0.08819133484544125
3080000000.0 0.058398971239610076 -0.11420506182117132
3100000000.0 -0.10873469457288673 -0.011500336286448106
3120000000.0 0.07663738695697532 -0.049206092809729374
3140000000.0 -0.011690343972329518 0.08117889271408356
3160000000.0 0.04243750429331285 -0.07167746844722328
3180000000.0 -0.08985684621385431 0.023307271896120484
3200000000.0 0.014818838478098059 0.10381900434790528
3220000000.0 0.044756292696259255 -0.11473286934904767
3240000000.0 -0.09563945052608754 0.10741767136330035
3260000000.0 -0.10188113012515274 -0.1271263391918862
3280000000.0 0.16329961725900272 -0.07673246672941664
3300000000.0 -0.17585335891629927 -0.08093013248431659
3320000000.0 -0.14842470848990222 0.1382762584395014
3340000000.0 -0.18564350167327376 -0.09749087974112172
3360000000.0 0.15309141818892846 0.15844068773091424
3380000000.0 -0.21832735839057188 0.07107646191698648
3400000000.0 0.20472484086758994 0.11947305978604808
3420000000.0 -0.2458307555471271 -0.03371665049123931
3440000000.0 -0.22261636706050275 -0.1325289416715368
3460000000.0 -0.14246671159879123 -0.21782085875264184
3480000000.0 -0.21500485591535098 -0.14014556711785509
3500000000.0 -0.24981962351673914 0.01144094613207926
3520000000.0 0.010290375884499256 0.23704698166494753
3540000000.0 0.06265740828449261 -0.20865694310327063
3560000000.0 -0.1742368698746034 -0.08472708622190774
3580000000.0 0.014078742378116661 0.17526533068223388
3600000000.0 0.027213149339803115 0.15442587372377414
3620000000.0 -0.06613053542450775 0.130917300726073
3640000000.0 -0.09491487215783877 0.10615621148756274
3660000000.0 -0.1457067994953404 0.030860289935736192
3680000000.0 -0.08393413353516888 -0.1339521052430786
3700000000.0 -0.04643589296718502 -0.1688211482820107
3720000000.0 0.05772774601600865 -0.18543253353681635
3740000000.0 0.09758319946081766 0.186185906912782
3760000000.0 -0.21847803475989366 0.06297316080420108
3780000000.0 0.12335813087218381 -0.20795134807510698
3800000000.0 -0.1776217206250452 -0.17983704809287807
3820000000.0 -0.13363977984707306 0.23000096327189787
3840000000.0 0.23480675593327222 0.1431978934790917
3860000000.0 0.17661558944305206 -0.21854318192810626
3880000000.0 -0.2819391955111573 0.061416088890901714
3900000000.0 0.2296808792218533 -0.17894666961610387
3920000000.0 0.0025322906841198805 0.28520704974617855
3940000000.0 -0.20144295129090528 0.1864514623769916
3960000000.0 0.02651398913293768 0.25365100134993906
3980000000.0 0.009351173682131394 -0.2302996546843477
4000000000.0 0.17024157398035392 -0.10997896132338407
