!Created with skrf (http://scikit-rf.org).
# Hz S RI R 50.0 
!freq ReS11 ImS11
400000000.0 0.39625010872013894 -0.35183020117985386
420000000.0 -0.22534774759673318 -0.28174231044181564
440000000.0 0.0499924427777506 -0.19238781795469895
460000000.0 -0.0033279356435092964 0.20688723630007613
480000000.0 -0.18142564521991209 -0.24242662556186034
500000000.0 -0.3207361330618113 0.07446338313833685
520000000.0 0.10948191773740991 0.3277407809711065
540000000.0 -0.2705050198613677 0.2750509011917195
560000000.0 0.3301417319752103 -0.28258474542113404
580000000.0 -0.4544712517481752 -0.16902406476756626
600000000.0 0.030834149101399467 0.4902685757068711
620000000.0 0.40786386173592254 0.24567042637861833
640000000.0 -0.06441327859870906 0.4255635028125625
660000000.0 -0.35186770822528984 0.15318701095298515
680000000.0 0.35895447878684406 -0.13804436020708355
700000000.0 -0.2674601203105888 0.24230232149464961
720000000.0 -0.2185945440549058 0.21156522147864415
740000000.0 -0.1450475871854888 -0.16618702865707705
760000000.0 -0.14337197582349281 0.06542109018352234
780000000.0 -0.1067047807176625 -0.011673018087152305
800000000.0 -0.011057496632697164 0.014906797573240819
820000000.0 -0.08778832210971445 -0.01997151509131637
840000000.0 0.0469974913860077 -0.13930109700644003
860000000.0 0.1852711755539744 -0.016726278282947746
880000000.0 -0.06090422340564021 -0.18620375653821272
900000000.0 0.12191030474514833 -0.137709781981188
920000000.0 -0.0837765662052695 -0.190771202297889
940000000.0 0.04512551245768197 -0.2279140068630121
960000000.0 0.06539745423679441 0.23200186126436964
980000000.0 0.11126359660916652 0.2368504137334916
1000000000.0 0.2473058760379974 0.13096058107306235
1020000000.0 -0.0887728067995558 -0.2707037805099042
1040000000.0 0.2581424860302134 -0.1359717304349084
1060000000.0 0.23219345143215378 0.15317097273219224
1080000000.0 0.1937053802793562 -0.1768776274943698
1100000000.0 -0.10917416383078944 -0.22248493865200109
1120000000.0 -0.11114868873612874 0.216691510212684
1140000000.0 0.023948647425225317 -0.22911573221202783
1160000000.0 0.10677697421333586 0.19774138682455325
1180000000.0 -0.11581634971254234 -0.17060252775285037
1200000000.0 0.058755776624612475 0.17569127062402992
1220000000.0 -0.002677499709047624 0.16634541842714576
1240000000.0 -0.14188622045628166 0.015180631584265719
1260000000.0 0.11729047442204836 -0.04908726631646776
1280000000.0 0.09464407918105575 0.06860144130168688
1300000000.0 0.07226416577858108 -0.09437441377711127
1320000000.0 0.018178772180006627 0.12970622989258868
1340000000.0 -0.06821401447185992 -0.13633704200793123
1360000000.0 0.0877453464504185 -0.1593856606855257
1380000000.0 0.20161605921028294 0.024430030110807046
1400000000.0 -0.18943884693679963 -0.10032042458145693
1420000000.0 -0.21725512623282872 0.04779538974092541
1440000000.0 -0.22260810052618912 0.055152542214346324
1460000000.0 -0.20039436386197468 0.12220033450976539
1480000000.0 0.2009583603556437 0.09748954701091735
1500000000.0 0.12806765855715882 0.15967429699559382
1520000000.0 -0.012771467092286964 -0.18693399537161787
1540000000.0 0.16327290418287124 0.053244262609591
1560000000.0 0.12764336563587328 -0.08515569369042995
1580000000.0 0.05454056067694388 0.13340601936715146
1600000000.0 -0.0670755753436377 -0.11830218839357218
1620000000.0 0.006187691340713309 -0.1335088388368832
1640000000.0 0.11389527863665506 0.06535802708070258
1660000000.0 -0.02597712340973277 0.1347694581596145
1680000000.0 0.11034219124250383 -0.09504198968343977
1700000000.0 0.09313132279216794 -0.11115949857466617
1720000000.0 -0.14191627705138904 -0.02231492128594269
1740000000.0 -0.13141557107122176 0.07202191119688567
1760000000.0 0.13315076513104318 0.10033326550458194
1780000000.0 0.0342905914998169 0.18131943108990486
1800000000.0 -0.18208852054937402 -0.06907820119086627
1820000000.0 -0.16650680617377672 0.12070013957164144
1840000000.0 -0.1715483200170565 0.13608206661404457
1860000000.0 0.23924800538959637 0.0038917502584421087
1880000000.0 -0.15615562151586612 0.19673646483898527
1900000000.0 -0.12874498602567433 -0.22878251039884256
1920000000.0 -0.13323892753072117 -0.2280537487322358
1940000000.0 0.15820999212805295 -0.20637671823531165
1960000000.0 0.02238776486120603 0.25569679538918666
1980000000.0 0.22548130295313407 0.1344319333153827
2000000000.0 -0.25156502448508916 -0.05359919022032815
2020000000.0 0.15121767301860345 0.19242427021675865
2040000000.0 -0.10341899135151106 -0.21138613428316588
2060000000.0 0.2170104154904175 -0.05148627889905953
2080000000.0 -0.09603097809227776 0.19192593410807554
2100000000.0 0.19870288663169447 0.012371915537572992
2120000000.0 0.05277388002558225 -0.17433239334457976
2140000000.0 0.14951892487914364 -0.08083559603645801
2160000000.0 -0.14481478285939098 0.07061788656807114
2180000000.0 0.11999624367728921 0.10256207441891801
2200000000.0 -0.13964344119344202 -0.06874701181804757
2220000000.0 0.12719573961676112 0.08312507830569948
2240000000.0 -0.06844455963119267 0.1329908300558524
2260000000.0 -0.11710470426906534 0.09517041069154625
2280000000.0 0.027168534126684414 0.1444864193717245
2300000000.0 0.1427575698345589 0.019464686873244947
2320000000.0 -0.03707317627880603 0.13565915105270598
2340000000.0 -0.11595041094595196 0.08207842459339186
2360000000.0 0.1306435149418479 0.060335101223842974
2380000000.0 -0.13732114751099947 -0.03217103904578722
2400000000.0 0.0780910921827859 -0.11436264958999436
2420000000.0 -0.09785907995089961 -0.08588217050163416
2440000000.0 -0.057975372334080746 -0.10495915671164156
2460000000.0 0.017350369757792805 0.11081477716585066
2480000000.0 0.03453960521335447 -0.099404530749796
2500000000.0 0.06315481643573022 -0.08114796690982345
2520000000.0 -0.08411937663571092 0.06189844446926284
2540000000.0 -0.10751430991213363 0.01260337311128913
2560000000.0 -0.10523880813282485 0.04140692863591823
2580000000.0 -0.1185772466340199 -0.021387520282953265
2600000000.0 0.05000078710030509 -0.11980416503549408
2620000000.0 -0.0850304936745609 0.10665031136491943
2640000000.0 0.1259478095862969 -0.06658194454745177
2660000000.0 -0.14434321932452146 0.012915161580263745
2680000000.0 0.14224857366714938 0.009729020955828798
2700000000.0 0.08730506581437442 0.10667932764911293
2720000000.0 -0.08915368733805909 0.09202901901271708
2740000000.0 -0.06784573684127038 0.10146827428779572
2760000000.0 0.09435874947981689 -0.07129607683802998
2780000000.0 0.06260924566409792 0.1017811494764772
2800000000.0 -0.1125415235375715 0.056021747524592144
2820000000.0 0.11035732330034992 0.07240826719311852
2840000000.0 0.1078610974893962 0.09357110145483219
2860000000.0 -0.08628540216339961 0.12782448333596336
2880000000.0 0.15461318765109666 -0.047297367455953046
2900000000.0 0.13460698994151923 0.10306065602215728
2920000000.0 -0.08589218012207639 0.15158921693325392
2940000000.0 0.1341093940116707 -0.11677584269431454
2960000000.0 -0.1719055437566937 0.06451538465696778
2980000000.0 0.16593499700666905 -0.07801916965399507
3000000000.0 -0.16845382054213942 -0.06881462027607586
3020000000.0 0.05228957933573248 0.17311252911493102
3040000000.0 -0.06730340331500283 -0.16748254769870408
3060000000.0 0.17910469492495262 0.007292029207411019
3080000000.0 0.08604958502490302 0.15260605330316465
3100000000.0 -0.10528886066547043 0.13301888362495679
3120000000.0 -0.10043968908367024 0.13430327151495952
3140000000.0 0.12129201363730105 0.11524026274509476
3160000000.0 0.14780876284386826 -0.07974012278501202
3180000000.0 -0.11780126211889061 -0.12651993586460084
3200000000.0 0.01764756111675084 -0.17826601611091236
3220000000.0 -0.1599577538399404 -0.0977142648743812
3240000000.0 -0.1807079765810123 -0.08323116052190872
3260000000.0 -0.18710392239116966 -0.09706783744580177
3280000000.0 -0.08875058999510044 -0.20226897818863107
3300000000.0 0.1847988808951596 -0.1376648744969112
3320000000.0 0.13186931400124857 0.197887910655774
3340000000.0 -0.24262062142331728 -0.026800343071467003
3360000000.0 0.22651490080029232 -0.10174745122932628
3380000000.0 -0.22703007653398694 0.10612933843777349
3400000000.0 0.24546140194838806 -0.04347488446745258
3420000000.0 -0.2457872121848803 -0.03699477903908483
3440000000.0 0.22221542745157685 0.11015559580676389
3460000000.0 -0.13382402573311955 -0.20632514951052733
3480000000.0 0.004820192209659063 0.24256880652568796
3500000000.0 -0.09024999159821706 -0.22240794675486242
3520000000.0 0.18623850519646704 0.1443881718441903
3540000000.0 -0.18645879759859924 0.13490475385890877
3560000000.0 -0.17535153409079102 -0.13832590709762577
3580000000.0 0.013639608464535607 -0.21737259937184608
3600000000.0 -0.07070075251963705 -0.203109613542998
3620000000.0 0.0698323857661717 -0.1990816735303633
3640000000.0 -0.16186982305673459 -0.13266755515951378
3660000000.0 -0.12569680288630228 0.16868458407791953
3680000000.0 0.1659694508507112 0.13725734148328592
3700000000.0 0.20921455248148527 -0.07608373998059655
3720000000.0 0.2215891680137162 -0.07156366137916761
3740000000.0 0.15710343762435033 0.18659074307306386
3760000000.0 0.009815135766661194 0.2565419620249051
3780000000.0 -0.253592258265182 -0.09658624124513043
3800000000.0 0.27866409668519315 -0.035291929131066414
3820000000.0 -0.28277131806375516 0.04700043945801259
3840000000.0 0.2274391402396766 0.18128892362921542
3860000000.0 -0.08587657038481027 -0.2796653229297447
3880000000.0 -0.18968084492313833 0.22196806863613555
3900000000.0 0.28463961354440237 0.05200701909607317
3920000000.0 -0.21634968939451116 -0.17691037560161144
3940000000.0 0.1811276918115102 0.19452532742976208
3960000000.0 -0.2429607679790813 0.03919294706142766
3980000000.0 -0.18419626292987945 -0.11775329171664495
4000000000.0 -0.17644886532788132 -0.06668594936099081
