!Created with skrf (http://scikit-rf.org).
# Hz S RI R 50.0 
!freq ReS11 ImS11
400000000.0 -0.031548076440340925 0.5052021060105686
420000000.0 0.2842299191256323 -0.2911401485356702
440000000.0 -0.20680960183913646 0.2753062272985471
460000000.0 0.2646896674159284 0.12990269940121227
480000000.0 0.14589757209954532 0.1251994494523153
500000000.0 0.14134041307833214 -0.020497511904595863
520000000.0 0.01431341946903771 -0.1626981864769481
540000000.0 0.004172913124852832 -0.2127695670749043
560000000.0 0.23833704505370218 -0.14597200368693428
580000000.0 -0.3196447222381183 -0.020464994956537676
600000000.0 0.25969363316848043 -0.15600450474221103
620000000.0 0.01986429375658553 0.28141839173300587
640000000.0 -0.17252231138874055 0.217988966386741
660000000.0 0.2070882943482295 -0.205809470279549
680000000.0 0.17418187739603191 -0.24331183545698656
700000000.0 -0.17427971570578288 0.1840196704994675
720000000.0 -0.005524337326108278 0.2347529719626572
740000000.0 0.22464434504258213 0.0026297594952996604
760000000.0 -0.10823253213259357 -0.17699230955684145
780000000.0 -0.16941335200003918 0.07113787701843277
800000000.0 -0.1406361132599159 -0.09977102772714558
820000000.0 -0.060632113808148216 0.14807674416352304
840000000.0 0.078114880349097 -0.09824605560079558
860000000.0 -0.0892033634619019 -0.0648687657860544
880000000.0 -0.09634229254819689 0.05943240064450878
900000000.0 0.08838135345965 0.08498758589704467
920000000.0 0.09263367389506616 0.0409846900383414
940000000.0 -0.013932838055757192 -0.10790454536609921
960000000.0 -0.04594208941156906 -0.09004143374508278
980000000.0 0.08589616005912955 -0.06015356497679203
1000000000.0 -0.09229109953821801 0.09076793809002094
1020000000.0 -0.12183283326706407 0.040360203487498615
1040000000.0 0.03500962034239744 0.1613692617555047
1060000000.0 -0.16035762555410177 0.058202010153448114
1080000000.0 0.09956587763792442 0.1755371720718344
1100000000.0 0.11102572390749209 0.20577114819531808
1120000000.0 0.05907274909429379 0.24151753584895322
1140000000.0 -0.2306718400828356 0.13685300154067137
1160000000.0 -0.15590375288290304 -0.2280528440372019
1180000000.0 0.09808702629434363 -0.2626795093020243
1200000000.0 0.20123567892511815 -0.20306768451732513
1220000000.0 -0.025029159427963205 -0.27849737131572716
1240000000.0 -0.13076943607657965 -0.23503912375707162
1260000000.0 -0.2552872217645038 0.0301924219117541
1280000000.0 -0.17352278890941067 -0.16118784455834928
1300000000.0 0.1639958484611258 0.1569607620731824
1320000000.0 0.1088096252703382 0.18560998220305336
1340000000.0 0.21151568551928346 0.036295726720828876
1360000000.0 0.08768208331827496 -0.1968443187329912
1380000000.0 0.19320510276221337 -0.09251244613014947
1400000000.0 0.16377728649024373 -0.12975424993767345
1420000000.0 -0.19538603518827172 0.03130802579183599
1440000000.0 0.18473709154467235 -0.05155357961963117
1460000000.0 -9.78091075394445e-05 -0.1895487046485105
1480000000.0 0.07304610893344345 0.16802162280947514
1500000000.0 -0.08410161412146033 -0.14302927183771494
1520000000.0 0.12593800044897932 -0.08824527698094102
1540000000.0 0.14385109058070975 -0.017944885839203412
1560000000.0 -0.13290581846615082 0.046681012293256975
1580000000.0 0.1052430369255956 0.09782515525332246
1600000000.0 -0.12448541151342044 0.06409975684644284
1620000000.0 -0.015287141311198595 -0.1393404771784689
1640000000.0 0.05671601750751776 -0.12720820292780713
1660000000.0 -0.04028923923865304 -0.13747268399834053
1680000000.0 -0.03621354204713376 0.13687256223710773
1700000000.0 -0.05197754184673205 0.14197284659940299
1720000000.0 0.09522240024580385 0.13444947836666338
1740000000.0 0.06904006458449774 0.1580381829876982
1760000000.0 0.12569458036499848 -0.1443632775350201
1780000000.0 -0.10417369859295136 0.17989366459259498
1800000000.0 0.09742711209889603 -0.19925531161918666
1820000000.0 -0.13909229795533481 0.18082973393364615
1840000000.0 0.21949613134757703 -0.06857275212089138
1860000000.0 0.14935116817814076 -0.1659587830411064
1880000000.0 0.1486523441800057 -0.1559418205984876
1900000000.0 0.12433907669313973 -0.16887359309946304
1920000000.0 -0.1998537431844281 -0.005439185527636375
1940000000.0 -0.042141873727144744 0.1800383482506709
1960000000.0 0.13249680879119952 -0.1074754993583032
1980000000.0 -0.027582871052570804 0.15318174496910741
2000000000.0 -0.1307934688083198 0.048524630862072336
2020000000.0 0.0030575746045982725 -0.1240236054304742
2040000000.0 0.1111818223489361 0.014285044960634596
2060000000.0 -0.022658917991607807 0.10017250527531169
2080000000.0 0.06377358411399228 0.07068621232614399
2100000000.0 0.08920068447709789 0.028090618813302253
2120000000.0 -0.04495322307597792 -0.07870748593314536
2140000000.0 -0.029294817503958136 -0.07979719523563338
2160000000.0 0.06958740320264373 0.04303494143450303
2180000000.0 -0.05974090469653776 -0.04649488279827676
2200000000.0 0.06731384553278738 -0.023056205339278008
2220000000.0 0.04744674819421311 0.05122851564579162
2240000000.0 0.023429393592523065 0.06350791559493535
2260000000.0 0.013357859125942936 0.06972784575006763
2280000000.0 0.004312647625604868 -0.07666844553218014
2300000000.0 0.07916448077766393 -0.029661446016853575
2320000000.0 -0.0005354790767675216 -0.09327296625844891
2340000000.0 0.08285943944370178 0.05946076197253971
2360000000.0 0.08761514600847996 0.060402734822601646
2380000000.0 0.10085726754527394 -0.04656019338185056
2400000000.0 -0.11336985483860111 -0.006571242238774349
2420000000.0 -0.10412364983007198 -0.05253353661975642
2440000000.0 -0.11814221084211353 0.008015578360267034
2460000000.0 0.021506047637069717 0.12389487324973832
2480000000.0 -0.12380092277852808 -0.04604337139489526
2500000000.0 -0.1293167981119498 0.04938264474962629
2520000000.0 -0.14035502852795143 0.04836065547332505
2540000000.0 -0.12328792517458402 0.10563227149829679
2560000000.0 -0.13924212710927114 -0.10123597412976078
2580000000.0 0.08790308183881872 0.1587904289990634
2600000000.0 -0.048128718226449256 -0.18278631274131982
2620000000.0 -0.11479911144331131 0.15225494646073878
2640000000.0 0.012887191940339465 0.19156140625069587
2660000000.0 0.18920820478923261 -0.013989854537999705
2680000000.0 -0.03463372901113399 -0.17940448274481274
2700000000.0 -0.08916915004434402 0.14983355801495274
2720000000.0 0.0414659135248071 -0.15794706537978936
2740000000.0 -0.13470456509926362 0.07036750830585292
2760000000.0 0.0314089964975316 -0.14112701641868933
2780000000.0 0.12481840979050253 0.056146036664721066
2800000000.0 0.06015447822358527 0.11703244263581947
2820000000.0 0.11630052303830214 -0.05168163334396927
2840000000.0 -0.10936583594724415 -0.06389920198698565
2860000000.0 -0.09922046374617818 -0.08084861273078171
2880000000.0 0.11406808688560212 -0.06950380231612957
2900000000.0 -0.07208624290759855 0.12394496864524383
2920000000.0 0.08390036144664817 -0.1261293143282382
2940000000.0 -0.15826009511522005 0.02838059645448293
2960000000.0 0.09478799459673141 0.1405236003596181
2980000000.0 0.11073739192943804 -0.1389266615188027
3000000000.0 -0.18081366111583802 -0.04400761891231975
3020000000.0 0.19356636582611472 0.013665754926065242
3040000000.0 -0.1847324299942625 0.07313261517749554
3060000000.0 -0.05060889664015426 -0.19606432471678417
3080000000.0 0.12953661311490736 -0.15799706867726745
3100000000.0 0.04138869409936034 -0.195852031182108
3120000000.0 -0.1750124930353999 -0.08942061346160833
3140000000.0 0.11791573216624393 0.1504630887324115
3160000000.0 -0.08478440074472758 -0.1660531484896181
3180000000.0 0.18529840664103597 0.007188938060089938
3200000000.0 -0.12754782711652005 -0.13195487482528676
3220000000.0 0.1848515231998434 -0.023440383528306588
3240000000.0 -0.18816089258937232 0.02682420851279055
3260000000.0 0.08853661622496752 0.17464916776448886
3280000000.0 0.19401228149891783 0.05454968631731327
3300000000.0 0.19177432554681365 0.08037068006262961
3320000000.0 0.11135087967898862 0.179991631322622
3340000000.0 -0.21422734876097654 0.013299788890364466
3360000000.0 0.13779974405664744 -0.16573944127767518
3380000000.0 -0.13174470919579911 0.16984035135969547
3400000000.0 0.1514615903820317 -0.1469307213975296
3420000000.0 -0.18722012970855026 0.08191191682930928
3440000000.0 0.17593002537749988 0.08793383468202513
3460000000.0 0.09660137274401978 -0.1628858366061565
3480000000.0 -0.17160515343871316 -0.05926447343828136
3500000000.0 0.04566410389580524 0.16872386984536933
3520000000.0 0.1065450951916411 -0.129552534428324
3540000000.0 -0.07579389278251239 0.14080948736856388
3560000000.0 -0.0611696636502976 -0.14067109317248475
3580000000.0 0.08783354145166601 -0.11890251818235874
3600000000.0 0.008443991551243219 -0.14561946842511383
3620000000.0 0.021971311507919918 -0.14279495917907883
3640000000.0 -0.11925879063395646 0.08668349670189184
3660000000.0 0.0958862663335416 -0.12194874262356813
3680000000.0 -0.09106101735913648 0.14056900598153332
3700000000.0 0.180265478372427 0.03514631160878889
3720000000.0 0.1355932158454869 -0.15037937090402978
3740000000.0 0.2161947180309322 -0.05529928988378036
3760000000.0 0.24139168045254608 -0.03355109567952348
3780000000.0 0.12213803310203429 0.23212872970060125
3800000000.0 -0.26123949645042166 -0.0861388302404496
3820000000.0 0.28138483958543187 -0.032259422703822496
3840000000.0 -0.28574139243743135 -0.00849482766421446
3860000000.0 0.27152799293333885 0.08369429252435356
3880000000.0 -0.2308653176283957 -0.15447061497404624
3900000000.0 0.22205040679037144 0.14948651239802235
3920000000.0 -0.23949218751080137 -0.06928584066873997
3940000000.0 0.15270691842516967 -0.16851318162208756
3960000000.0 0.20027521689278607 0.00898014566546082
3980000000.0 0.16294266997066462 -0.06313723581794485
4000000000.0 -0.09867879727253949 0.10936009007003626
