!Created with skrf (http://scikit-rf.org).
# Hz S RI R 50.0 
!freq ReS11 ImS11
400000000.0 -0.16105409956322783 0.47961893302429626
420000000.0 0.35782624817754816 -0.2005529275587978
440000000.0 0.006143794556846752 0.34515485658554124
460000000.0 0.2961706585723283 0.026818540776722927
480000000.0 0.15590392437099998 0.11425128829013322
500000000.0 0.14192804122214864 -0.01642596422759912
520000000.0 0.03767282234939553 -0.1561233634622577
540000000.0 0.19226738139990765 -0.09599953610548242
560000000.0 0.2518430414959711 -0.12437539499339063
580000000.0 -0.3036119507133821 -0.0965248484354802
600000000.0 0.2942024348169114 0.09413004431453248
620000000.0 0.2367599194713202 0.16015661861464567
640000000.0 0.14251660018135315 0.23347989511847347
660000000.0 0.28436290102306233 0.037525484497750144
680000000.0 0.29387393766162745 -0.04491675428812212
700000000.0 -0.24203257703982062 0.08129870850712259
720000000.0 0.07637419560130088 0.22312168010201527
740000000.0 0.22566424138711916 -0.009746209285632496
760000000.0 -0.18840805446361947 -0.0904315580000008
780000000.0 -0.058065704449777066 0.1716649516509385
800000000.0 -0.09438882659628876 -0.141903912012991
820000000.0 -0.14616808094350667 -0.06722792540638599
840000000.0 0.12263097649667337 -0.02835145917365409
860000000.0 -0.11056041927084946 0.022474438373020992
880000000.0 -0.04243800720985435 0.10635121375126173
900000000.0 0.09838801767515074 0.07012135443842232
920000000.0 0.09997054703242496 0.01814849667103247
940000000.0 -0.024349048688036702 -0.10497023086302461
960000000.0 -0.06471034706473917 -0.07894813244352825
980000000.0 0.08772111412429984 -0.06048895604799253
1000000000.0 -0.03334017770828788 0.12418548178188026
1020000000.0 -0.11410615326898396 -0.06012474288126475
1040000000.0 -0.12694106142945102 0.10609511757588953
1060000000.0 -0.15601015661197698 0.06745142679125823
1080000000.0 0.14325707135226642 0.14037731505072704
1100000000.0 0.14127647721768694 0.18408191636314977
1120000000.0 -0.019173584360358088 0.2458963300586683
1140000000.0 -0.20709518906262794 0.16862307478093716
1160000000.0 -0.18391411089923976 -0.20765696109407988
1180000000.0 -0.02778556703415417 -0.27928282597093695
1200000000.0 0.13386314548502062 -0.25079220777495187
1220000000.0 0.040993970705832744 -0.27801330158602366
1240000000.0 -0.12237842758717282 -0.24077926028941457
1260000000.0 -0.2576346995894653 -0.013104257325539895
1280000000.0 -0.15474235118889398 -0.1807829524529373
1300000000.0 0.1882599762604741 0.12485261899014517
1320000000.0 -0.008900836314635254 0.2148792103048306
1340000000.0 0.20918161099246133 0.04823148849176595
1360000000.0 0.17157946059452242 -0.1289344739647439
1380000000.0 0.19926228016824327 -0.07880840900330384
1400000000.0 0.15587584101612653 -0.1363365740125162
1420000000.0 -0.1940178962173681 -0.0373198987762708
1440000000.0 0.17120286691499706 -0.08572362197176092
1460000000.0 -0.04066075766532288 -0.1846038149374846
1480000000.0 0.15923406268799467 0.08857593257148184
1500000000.0 -0.12422180413022622 -0.10875843722792682
1520000000.0 0.1303394982304191 -0.08208671852265957
1540000000.0 0.12626498720114204 -0.07234073394327246
1560000000.0 -0.11962440818754917 0.07283086767969442
1580000000.0 0.0871009905354669 0.11405456497451773
1600000000.0 -0.0987626748798835 0.10181442124678518
1620000000.0 -0.0634570240330366 -0.12547344046631914
1640000000.0 0.08101933058790398 -0.11366492603084848
1660000000.0 0.022142527005571705 -0.1423020692981232
1680000000.0 -0.0563493531489982 0.13111082587923414
1700000000.0 -0.10182977009381107 0.11226385796555177
1720000000.0 0.1463409105806808 0.07488468666801625
1740000000.0 0.06207182756931308 0.15989152889526978
1760000000.0 0.17706439189739742 -0.073787063296106
1780000000.0 -0.13913849132859663 0.15457622549293387
1800000000.0 0.11535730304503165 -0.19038777342334998
1820000000.0 -0.08844492601050015 0.2102669215107005
1840000000.0 0.21867504751247582 -0.07014722797504472
1860000000.0 0.16805234622531456 -0.14585069964767824
1880000000.0 0.17669638229027995 -0.12272425449496847
1900000000.0 0.12114320923708136 -0.1712185587615056
1920000000.0 -0.19834144062839415 0.026019244403274445
1940000000.0 -0.01733541166882049 0.18329149045387058
1960000000.0 0.11025176048525234 -0.1296160023548131
1980000000.0 -0.020499090621401424 0.15440691694035935
2000000000.0 -0.12488460320765148 0.0636640394746254
2020000000.0 -0.018588225305990476 -0.12317421414159647
2040000000.0 0.1121114041271088 0.014334545240711349
2060000000.0 -0.010050781902349114 0.10252347478074787
2080000000.0 0.024100328038589754 0.09272765028477832
2100000000.0 0.08071087913904763 0.047507643766215274
2120000000.0 0.05810825671241589 -0.06826657907132141
2140000000.0 0.034709262945940615 -0.0768875381528315
2160000000.0 0.0721677063266812 0.037725770773419785
2180000000.0 -0.05377631878184607 -0.05138910695802122
2200000000.0 0.034537328411479225 -0.06001635407682528
2220000000.0 0.039863690154318586 0.056098983698617516
2240000000.0 0.06371215831652871 0.021490643945308686
2260000000.0 0.06979290769874123 0.007329878225356682
2280000000.0 -0.05096817517630093 -0.05676239264655626
2300000000.0 0.038525856345278844 -0.07473009317959917
2320000000.0 -0.04172627291055865 -0.08352178200210564
2340000000.0 0.10296354826967771 -0.001701173677880123
2360000000.0 0.09885120140973068 0.040400374260224706
2380000000.0 0.11029989967641858 -0.017035892321345624
2400000000.0 -0.11405881550142552 0.007309527398746603
2420000000.0 -0.06977674279395076 -0.09434984508282486
2440000000.0 -0.11135607981142895 -0.042147856778564086
2460000000.0 -0.009081763996410343 0.12558129118627157
2480000000.0 -0.10727219763751802 -0.07692460110167987
2500000000.0 -0.1366394822495361 -0.011037853298998975
2520000000.0 -0.13471004221958832 0.06131207839273015
2540000000.0 -0.10826607546736552 0.12065034973979571
2560000000.0 -0.1535001279289088 -0.07722045127963247
2580000000.0 0.12501888006879375 0.1316234012144204
2600000000.0 -0.05577126089449684 -0.18083613650884314
2620000000.0 -0.10171517978720727 0.1619093829829276
2640000000.0 0.022535794606057154 0.1910921289996389
2660000000.0 0.18982939054039116 -0.001822934698018853
2680000000.0 -0.028273187039745993 -0.18114901596515084
2700000000.0 -0.06939875747847658 0.16013357831777986
2720000000.0 0.07452585376865642 -0.14513621431736512
2740000000.0 -0.1473959185271748 0.03782921944246692
2760000000.0 0.02192888229122952 -0.14215401390059162
2780000000.0 0.13176133035490364 0.03677233199975774
2800000000.0 0.05103531474261276 0.12107825807276973
2820000000.0 0.11370759461054 -0.05688923125800152
2840000000.0 -0.12059595048860453 -0.038419608314733934
2860000000.0 -0.10129194023940775 -0.07822294192553257
2880000000.0 0.11895096401043136 -0.06064225886987544
2900000000.0 -0.08168925800631396 0.11806199701143948
2920000000.0 0.10207262549862418 -0.11202681269771923
2940000000.0 -0.16008434106465888 0.017344474670848726
2960000000.0 0.09737121203981002 0.13921277157768117
2980000000.0 0.14181607376132543 -0.10674274298292058
3000000000.0 -0.18557082850165407 0.004361542675163346
3020000000.0 0.19346477087964523 -0.013793178981404407
3040000000.0 -0.17303450794164035 0.09769242757356728
3060000000.0 -0.07524236393246621 -0.18762661568053293
3080000000.0 0.13074857942364784 -0.15715816645577882
3100000000.0 -0.007881976596231252 -0.2000572499414955
3120000000.0 -0.17149773554256317 -0.09689347464913749
3140000000.0 0.11323674908786512 0.1549949963743071
3160000000.0 -0.10157825407524591 -0.15691601166482474
3180000000.0 0.1810470440145794 0.04061010474664057
3200000000.0 -0.14254830663514478 0.1166675677190579
3220000000.0 0.1851389144601883 0.027774630870398154
3240000000.0 -0.18630275680869918 -0.03859816607490587
3260000000.0 0.025171847681390976 0.19370472139243866
3280000000.0 0.15717345224655344 0.12482259375238379
3300000000.0 0.15119152631247273 0.14135328225671176
3320000000.0 0.04263050057307514 0.20687639694177187
3340000000.0 -0.21302302277916066 -0.01731692648303547
3360000000.0 0.16601632930148283 -0.13659894105391732
3380000000.0 -0.16006103574206895 0.14134288756452798
3400000000.0 0.16797003978684996 -0.12595383220641815
3420000000.0 -0.19576217252897435 0.05653540357651799
3440000000.0 0.1694692157970673 0.09823295395756679
3460000000.0 0.0830311021199057 -0.16915045415801058
3480000000.0 -0.17271155563452767 -0.0534220942438323
3500000000.0 0.03192313232636841 0.17200283610217101
3520000000.0 0.12637704525226853 -0.10910380927204706
3540000000.0 -0.12332648649144423 0.10074021987987582
3560000000.0 -0.05451833929457654 -0.1424780784391366
3580000000.0 0.10851824341599695 -0.09902473565472947
3600000000.0 0.031852827721959194 -0.1408385344698971
3620000000.0 0.0032707798674140214 -0.14318967193440407
3640000000.0 -0.07590212854049434 0.12520916477092595
3660000000.0 0.04033187398241201 -0.14950167662604041
3680000000.0 -0.05647582610643363 0.15749551516295232
3700000000.0 0.1831164877107438 -0.017619258895410304
3720000000.0 0.12148248344018722 -0.1642769624817499
3740000000.0 0.21878200295164177 -0.049768288714986744
3760000000.0 0.24510094798756196 0.011186914362259588
3780000000.0 0.0660364327667204 0.25491550038088545
3800000000.0 -0.22403035604465454 -0.16173296900622322
3820000000.0 0.2796917079396319 0.05281667202298965
3840000000.0 -0.24402961243604762 -0.15124147256102113
3860000000.0 0.21829906509462252 0.1820935340888791
3880000000.0 -0.13935936927251927 -0.24041606529211873
3900000000.0 0.16014776451568088 0.21429613981900963
3920000000.0 -0.22178672382964415 -0.11334039939131202
3940000000.0 0.16326587387421312 -0.15880336980092144
3960000000.0 0.17715893387664508 0.09267904633774829
3980000000.0 0.16989507564475692 -0.03869201904631535
4000000000.0 -0.07664579739557985 0.1254706383305407
