!Created with skrf (http://scikit-rf.org).
# Hz S RI R 50.0 
!freq ReS11 ImS11
400000000.0 -0.606699378225613 -0.5665077428140067
420000000.0 -0.8175077622273808 0.17139407839257284
440000000.0 -0.25239671977573774 0.739457942297905
460000000.0 -0.6030050039737848 0.4055438532734221
480000000.0 -0.12500320311335963 -0.6491717454464094
500000000.0 0.5999742333286524 0.1859085918669168
520000000.0 0.49892810428583934 -0.27887663295888976
540000000.0 0.08596757428616254 0.4857280647589108
560000000.0 -0.43851272663905344 0.12131865471550934
580000000.0 -0.3689097959209618 0.13103395788095162
600000000.0 0.2608410010857584 0.2489282287324416
620000000.0 0.286309684131945 0.21468922120737882
640000000.0 -0.30464952731266903 -0.254510107407786
660000000.0 0.40972180672868413 0.1486054043733127
680000000.0 -0.07733535329057106 -0.44538201013433387
700000000.0 0.09924843443975719 -0.4322516982668641
720000000.0 -0.4180469719455357 0.07090369654607037
740000000.0 -0.31578885887721997 0.21297548628129093
760000000.0 0.33766519821895075 -0.12853810136216623
780000000.0 0.14993787389565352 -0.29843648046068316
800000000.0 0.04598791359972113 -0.2898036792955005
820000000.0 -0.22777451065744952 -0.10256914474236047
840000000.0 -0.19004624913992021 -0.06795085601737842
860000000.0 -0.0758309455561559 0.14119534938882525
880000000.0 0.11578057329317266 -0.03760546617502717
900000000.0 0.08034990205564554 0.02900999055384677
920000000.0 0.05316410736369964 0.01975084422505416
940000000.0 -0.03572233516334621 -0.02881815251396776
960000000.0 0.03993663360830546 -0.04085310901560819
980000000.0 -0.07431621839927431 -0.0027480766869432565
1000000000.0 0.024959334704644932 -0.08041594392503576
1020000000.0 0.03495571959049599 0.09250505017814811
1040000000.0 0.1101178330444029 0.04621269472439719
1060000000.0 -0.13156417334367201 0.05061580181704751
1080000000.0 0.1349006712580149 0.12349934572879294
1100000000.0 -0.13780672701670454 -0.1569941989478194
1120000000.0 -0.05574947084369277 -0.23924173273073454
1140000000.0 -0.2641815138859201 -0.08496851134298491
1160000000.0 0.17851449445259956 0.24410088402280347
1180000000.0 0.31468471621980326 0.07579670601900819
1200000000.0 -0.32821138320379983 -0.06674816501323654
1220000000.0 -0.22419462554352515 0.28051752371000704
1240000000.0 0.3815509911224776 0.04473649819747464
1260000000.0 -0.18065665163430514 -0.36015721888982033
1280000000.0 -0.2304470991700024 0.34082102309883083
1300000000.0 0.04692331673505391 0.4142113865135398
1320000000.0 0.38916432918104615 0.15369391804408417
1340000000.0 0.40991684618831103 0.07115624546840815
1360000000.0 0.3799433678959358 -0.15085776964400616
1380000000.0 0.395108362205737 0.0024304491635177223
1400000000.0 0.30722030353869767 -0.23284318726801034
1420000000.0 0.10189440661822713 -0.3539240675178107
1440000000.0 -0.33626808409257114 0.10339684513198305
1460000000.0 0.3184722217272838 -0.0068202974721506045
1480000000.0 -0.10503655047606371 -0.26735301925268085
1500000000.0 0.13144562631746182 0.21509113451956607
1520000000.0 0.19190525626803126 -0.1024616003023567
1540000000.0 -0.0001820692872494233 0.17785608107904438
1560000000.0 0.13694342501297266 0.02270424452030137
1580000000.0 0.04798945432942837 -0.09892231647797088
1600000000.0 -0.07595350275714018 -0.027034233345047527
1620000000.0 -0.05735571005347486 -0.013298033162536388
1640000000.0 -0.0348619452688327 0.00965453486602919
1660000000.0 -0.010546484595027546 0.008564976305280981
1680000000.0 0.013351925312266021 0.0032362644545581203
1700000000.0 0.01623948240057782 -0.03428687115311849
1720000000.0 -0.04057338137915098 0.03760849762510196
1740000000.0 -0.07112680862330283 -0.011861607745032842
1760000000.0 -0.06153651711089378 0.0695565096471438
1780000000.0 -0.1055566526039577 0.05404442256118161
1800000000.0 -0.03845662664409566 -0.14727394629820756
1820000000.0 0.12610814320035776 0.13305232320057264
1840000000.0 -0.11337256976307065 -0.18670861629497762
1860000000.0 0.2566735938973566 -0.029295152477893358
1880000000.0 0.05898004399454868 0.2900232243778705
1900000000.0 -0.3273331069279277 0.001208049673164316
1920000000.0 0.35177726619129085 -0.01940758279725042
1940000000.0 -0.290648969501683 -0.23820469226493846
1960000000.0 0.06333232146589918 0.39243980835472875
1980000000.0 0.30148201514042927 -0.28054075628613695
2000000000.0 -0.2543527020344032 -0.33510637288399553
2020000000.0 -0.3899527493337773 0.17541516151199937
2040000000.0 0.1167224916085679 0.4129876754245383
2060000000.0 0.3979134436042309 -0.14670561797661677
2080000000.0 0.050241364691224644 -0.4085733756983846
2100000000.0 -0.13436935311478457 -0.3756126544498836
2120000000.0 -0.32730929672683595 -0.20471642815828034
2140000000.0 -0.3667721104208138 -0.05379993508467228
2160000000.0 -0.004623760005514862 -0.35213582719860154
2180000000.0 0.09700593248067267 -0.31994240925074596
2200000000.0 0.25540656094045283 -0.19932174772558114
2220000000.0 0.23925598964745642 -0.21463191002218993
2240000000.0 -0.15548830237132247 -0.2893075180142933
2260000000.0 -0.119198900064204 0.31163166518845314
2280000000.0 0.3423195907107837 0.016021839801584923
2300000000.0 -0.04698368708919306 -0.36062473150005614
2320000000.0 -0.12214427002423363 0.3781455766397482
2340000000.0 -0.1663378625639632 -0.40800414332349344
2360000000.0 0.4460115397014749 -0.19910426578897927
2380000000.0 0.2929898101811213 0.4522060497297202
2400000000.0 -0.37806862240546507 0.45125317710347385
2420000000.0 -0.615978954067612 -0.15530699042635146
2440000000.0 -0.09893545942279929 -0.6679702144519412
2460000000.0 0.6429989547284034 -0.28893977264614473
2480000000.0 -0.09127054803885343 0.7196922303991024
2500000000.0 -0.26322545762275157 -0.6872230059414549
2520000000.0 0.2635169431273126 0.6908037075659603
2540000000.0 -0.016260947757705486 -0.7337944954389306
2560000000.0 -0.5235235389912918 0.5004571718890146
2580000000.0 0.6866774920369034 0.16586785888585254
2600000000.0 -0.3856274847473775 -0.5611011750080991
2620000000.0 -0.6477970199599044 -0.04309838720895342
2640000000.0 0.5059838628824529 0.3475971542585691
2660000000.0 -0.2479119882339828 -0.5208803301363671
2680000000.0 0.05964612219597899 0.536890551015389
2700000000.0 0.04069146075652547 -0.49976051174611996
2720000000.0 -0.2746684604672245 0.37519337540807823
2740000000.0 0.4287829998390752 -0.06937588289913146
2760000000.0 -0.2974053114028922 -0.28336917228649383
2780000000.0 0.1504555531215459 0.36593202959564497
2800000000.0 -0.052790345609753445 -0.3805801825549731
2820000000.0 0.2334465162308528 0.2956689781653946
2840000000.0 -0.057996785929053135 -0.36733584153201365
2860000000.0 -0.2542759163510717 0.27247400591235854
2880000000.0 0.33552495377226993 0.17004218836588333
2900000000.0 0.170132988261878 -0.3418606867393703
2920000000.0 -0.29968412006580814 -0.24032417961949906
2940000000.0 -0.3811536047418481 -0.010569707172322416
2960000000.0 -0.2557884761184255 -0.2735526212698949
2980000000.0 0.35005049364344887 -0.1375971865764
3000000000.0 0.1766313860920074 0.3403135251787352
3020000000.0 -0.322646377452049 0.20455348673154172
3040000000.0 -0.17712278895863318 -0.33015531166856515
3060000000.0 0.25705167785561583 0.25579482121610103
3080000000.0 -0.18980390154066376 -0.29684721727421115
3100000000.0 -0.00823535888699056 0.3426940155610398
3120000000.0 0.16509602468388967 -0.2906270352716686
3140000000.0 0.05347867908364437 0.31716540297962875
3160000000.0 -0.22185616785101486 -0.2032433385389064
3180000000.0 -0.2209793089955681 0.15997535708671004
3200000000.0 0.17202518651249982 0.1669469429588855
3220000000.0 0.17553866056560963 0.11451350053970527
3240000000.0 0.10703079196210098 0.15005275325420173
3260000000.0 -0.09012413504200256 0.1344605462855774
3280000000.0 0.10291863256196587 -0.0947460311238571
3300000000.0 0.08740763760440168 -0.09302466272784897
3320000000.0 -0.10415919528516594 -0.06388375024996983
3340000000.0 0.0021587051563644022 -0.11766977961741838
3360000000.0 -0.07326765356333265 -0.07857849923411404
3380000000.0 -0.029432131423031947 0.08045399210944902
3400000000.0 -0.02960732892086348 0.0677969907992564
3420000000.0 -0.07016437669478551 0.0041925433184314366
3440000000.0 -0.05559810747952748 -0.05370748114664204
3460000000.0 -0.07636379167398417 -0.03289760255773801
3480000000.0 0.009141944368096296 -0.08768158186323394
3500000000.0 0.018874685009699667 0.08986348224211732
3520000000.0 0.10375560605865466 -0.034264739209003775
3540000000.0 -0.10459997804317128 -0.05057162966417358
3560000000.0 0.02525971082400876 -0.11682748770061467
3580000000.0 0.12137133816337375 -0.024271110451777315
3600000000.0 -0.0703528290246486 0.105778560724856
3620000000.0 0.13556859957505565 -0.0072703762888534345
3640000000.0 -0.0513088650731155 0.17121988335111774
3660000000.0 0.14189971112841065 -0.1816580054517157
3680000000.0 0.2047906227902217 -0.16437523404128074
3700000000.0 -0.0010851889696099396 0.2741042583418891
3720000000.0 0.27750398174426133 -0.05228251866350867
3740000000.0 -0.26029310732756294 0.09981874220535614
3760000000.0 -0.1987036208466389 -0.1924051524521129
3780000000.0 -0.28089350076673886 0.04390751298807361
3800000000.0 -0.27733482492171774 -0.11299558941599562
3820000000.0 -0.253668946248281 0.15329526872884167
3840000000.0 0.26531170387043257 -0.10415655577465244
3860000000.0 0.18198699057827428 -0.2014363917677253
3880000000.0 -0.019842177181194916 0.26176857803021863
3900000000.0 -0.20802892642837612 0.16060860398979976
3920000000.0 -0.2383141998550388 -0.1401775949918629
3940000000.0 -0.01191387636148162 -0.28542196900396855
3960000000.0 -0.12951127309460744 0.2683340308999342
3980000000.0 0.2757192313237625 0.04266706162390384
4000000000.0 0.23264261157278252 -0.02980983503649219
