!Created with skrf (http://scikit-rf.org).
# Hz S RI R 50.0 
!freq ReS11 ImS11
400000000.0 -0.6604690721660812 -0.5195120502601904
420000000.0 -0.8083713551620729 0.220165086320567
440000000.0 -0.26091361415842756 0.7413973402296494
460000000.0 -0.5664827227312967 0.44987132073298913
480000000.0 0.2969690877286002 -0.5967788753167241
500000000.0 0.261154482362937 -0.5835354135745958
520000000.0 -0.11009528347153862 -0.5476058266365252
540000000.0 -0.19208172031276333 0.4339223175528759
560000000.0 -0.3687952581090601 0.2616733389507658
580000000.0 -0.171149137209615 0.3548572561220573
600000000.0 0.3571439265611621 0.04803125549110049
620000000.0 0.06403538520858158 0.3547174384205949
640000000.0 -0.15243608204028158 -0.37649815932242225
660000000.0 0.3457297801261821 0.2789605751848194
680000000.0 -0.03761501547793434 -0.45481127158946616
700000000.0 0.451899121594203 -0.041019141768595974
720000000.0 -0.36956883588736333 0.23504539332874905
740000000.0 -0.07765385763780924 0.3792571424083844
760000000.0 0.1642464116219256 -0.3148020800630502
780000000.0 0.28116508201633617 -0.16738809116384196
800000000.0 0.2678116965075076 0.11571356485603114
820000000.0 -0.22081733210660784 -0.11109933727069349
840000000.0 0.1956266717835659 -0.02598234228557041
860000000.0 0.09974310934543887 0.13113370538318792
880000000.0 -0.11266765600901332 -0.00912067082004598
900000000.0 0.07909823731320087 0.030599191648057678
920000000.0 -0.025839990720707674 0.04519250227046542
940000000.0 0.022691749555340517 0.02644876035906674
960000000.0 -0.022713164860997743 -0.04773219009272582
980000000.0 -0.00015214311796493042 -0.06511517752073986
1000000000.0 -0.009533143494536883 0.07728388547837252
1020000000.0 0.04723315841704627 -0.08896985393409566
1040000000.0 -0.04854929206614408 -0.108962466039917
1060000000.0 -0.06808333701356976 -0.13405145019248485
1080000000.0 -0.16443211051291964 0.07207999228207784
1100000000.0 0.14606752298730385 0.15353249065800373
1120000000.0 0.03002571511811778 -0.24749581374193869
1140000000.0 -0.27287658976113055 0.005343631395071498
1160000000.0 0.25907486790387346 0.12612715096326954
1180000000.0 0.10371363608736871 0.28417650092169683
1200000000.0 0.30839003560397577 -0.07992605722035111
1220000000.0 0.01783021552520732 -0.3480111226568236
1240000000.0 -0.1836200216246332 0.32724926273897226
1260000000.0 0.33366082608552905 -0.20967874415581134
1280000000.0 -0.3114240117525585 -0.253678482543396
1300000000.0 -0.4043421118735464 -0.04025753478584424
1320000000.0 -0.31434420467721563 0.2683489004748346
1340000000.0 -0.03476897298554328 0.4120093152513477
1360000000.0 0.3462918911452375 0.20288170781957116
1380000000.0 0.07350768319544446 0.38212166749067233
1400000000.0 0.36325188541849707 0.11439944748975983
1420000000.0 0.13165968756426735 -0.33894212194393364
1440000000.0 -0.33641164078869124 0.05961680321943067
1460000000.0 0.2861604889001156 0.126940660805648
1480000000.0 -0.25917038727210795 -0.10861893379893524
1500000000.0 0.24251590504692472 -0.010799837681064644
1520000000.0 0.034986253039819885 -0.20626672704387936
1540000000.0 0.17415741184930233 -0.024647398570251687
1560000000.0 0.12289609817160807 -0.07247744668758117
1580000000.0 -0.060227659193963855 -0.08937846294554258
1600000000.0 -0.06909383477497025 -0.009623457949283322
1620000000.0 0.04035189354370882 -0.01864004710287685
1640000000.0 0.017467037437863382 0.01573513958481543
1660000000.0 0.0023656842748065233 -0.0015914451055430057
1680000000.0 0.012467382169576645 -0.00984303336010263
1700000000.0 -0.030776878590056983 0.00020869524371103554
1720000000.0 -0.03819822890421912 -0.004513824520021387
1740000000.0 -0.0542514771596065 -0.0014449485009345937
1760000000.0 0.009459408851598556 0.07564100379056712
1780000000.0 0.09814123187197327 -0.025776169767492047
1800000000.0 -0.03176403914133131 0.1296881245628799
1820000000.0 -0.06800624059603123 -0.14804735138437933
1840000000.0 -0.1835820623490981 0.0665596231429464
1860000000.0 0.17178760548672525 -0.16329353645323824
1880000000.0 -0.00628703123542086 0.27978504697385137
1900000000.0 -0.31236762470810486 -0.05207566293820374
1920000000.0 0.3305713772792569 -0.10487611814024161
1940000000.0 -0.37434668004608357 -0.01592212477588701
1960000000.0 0.3936608896303473 0.035085693722459864
1980000000.0 -0.18701692389098037 -0.36180971971517234
2000000000.0 -0.3879446559555595 0.1491244213802647
2020000000.0 -0.2486359825080045 0.3401793811537979
2040000000.0 0.07387199975032627 0.42209618408336014
2060000000.0 0.41482605957257096 -0.10454976871311582
2080000000.0 0.21224726946034014 -0.36195617190736384
2100000000.0 -0.12201361718438156 -0.3904887870998178
2120000000.0 -0.22824592126462576 -0.3235227582440842
2140000000.0 -0.3415609136630094 -0.17431915802807568
2160000000.0 0.10802537666692913 -0.34791033252985726
2180000000.0 0.3202693215746303 -0.1368494135788653
2200000000.0 0.30765766146805046 0.14433594616117995
2220000000.0 0.16748751876541557 0.2927532515892901
2240000000.0 0.323282727252259 0.11661181707150517
2260000000.0 0.2582970457385322 -0.2333548069346062
2280000000.0 -0.05632347355136472 -0.35385504337187873
2300000000.0 -0.3752275003921571 -0.04352565872214651
2320000000.0 0.14689687678946126 0.3824501898882286
2340000000.0 -0.2542807226032037 -0.37165240375506914
2360000000.0 0.48332378671643855 0.10399049836054289
2380000000.0 -0.2510261065065983 0.4827619697844209
2400000000.0 -0.5202373381378163 -0.2829055457423313
2420000000.0 0.20904317616234674 -0.6008483259329598
2440000000.0 0.6332728195293335 0.22858834254436153
2460000000.0 -0.4658043025489765 0.5253206166750995
2480000000.0 -0.015732711288376597 -0.7231794632337502
2500000000.0 0.15930771732214216 0.7182694412996856
2520000000.0 -0.08175382849753605 -0.7347494128295545
2540000000.0 -0.20441243609235868 0.7074098213361804
2560000000.0 0.5321237110601309 -0.4942966898418357
2580000000.0 -0.7071564430175354 -0.04317781567198096
2600000000.0 0.49452110544586636 0.4692020778641716
2620000000.0 -0.07413971247306658 -0.646438758261101
2640000000.0 -0.41946931537215937 -0.4482912057945472
2660000000.0 -0.006832649043139169 0.574137497781013
2680000000.0 0.21729867801553096 -0.4868183916893527
2700000000.0 -0.3542600260043236 0.3408755837537211
2720000000.0 0.35996540097013213 -0.27043089854027547
2740000000.0 -0.39132341885984573 0.1305792369283646
2760000000.0 0.36801474337041107 -0.10779673664137696
2780000000.0 -0.3014056077300261 0.19708491893452318
2800000000.0 0.19159651975147107 -0.2871005402139868
2820000000.0 0.20722844241037336 0.26543188324421124
2840000000.0 -0.3292459703554454 -0.015559625421285729
2860000000.0 0.31298531040461175 -0.09596250059634912
2880000000.0 -0.32658258103429055 0.010428676163879417
2900000000.0 -0.006894485441892571 0.33228799401705816
2920000000.0 0.2471079131802818 -0.23565058199577918
2940000000.0 -0.32578773255095905 -0.11569304886091213
2960000000.0 -0.20096420723657205 0.2808895184698224
2980000000.0 -0.2497142895689202 0.23273574573428224
3000000000.0 -0.30245188078405916 -0.15953994818729234
3020000000.0 0.029460073809825724 -0.3384329621670823
3040000000.0 0.27013404952668774 0.20062636353821406
3060000000.0 -0.3000114845455672 0.14227308511400952
3080000000.0 0.19775680736395576 -0.257639656542957
3100000000.0 0.0754884355251649 0.30721083971905894
3120000000.0 -0.20856225123409394 -0.22141447712819953
3140000000.0 0.27763091388967864 -0.09269626838005542
3160000000.0 -0.27667099743616225 0.0012993390201756706
3180000000.0 -0.2221411180611991 -0.1275439123191677
3200000000.0 -0.18603079710783946 -0.13197024826152137
3220000000.0 -0.1220059718564312 -0.15361709732063566
3240000000.0 -0.029210200987261015 -0.16012764143838495
3260000000.0 0.11788647573583962 -0.05119201092953005
3280000000.0 0.045405080580611254 0.08617987846211288
3300000000.0 -0.06775400185044261 -0.02550558340417047
3320000000.0 -0.038979905366686884 0.03565190440873755
3340000000.0 -0.009105902059968168 -0.03714892555710218
3360000000.0 -0.016993565254390438 0.026277328781388668
3380000000.0 -0.010779414908376415 -0.03088477348938685
3400000000.0 -0.02646262636233442 -0.02883245615641844
3420000000.0 0.013984225280812584 0.04723933762539853
3440000000.0 0.03796731549350222 -0.04555874691794821
3460000000.0 -0.01964549392374216 0.07084407083063901
3480000000.0 0.02759664985971735 0.08573937991761175
3500000000.0 0.043266728643381 0.09706207087873288
3520000000.0 0.09468472647876051 0.07913613668910846
3540000000.0 -0.05206159341610184 -0.12870314969908372
3560000000.0 -0.13418480701966645 0.05772042102998925
3580000000.0 -0.13759209852092227 0.06648528046802284
3600000000.0 -0.15888703530109452 -0.02541718539942559
3620000000.0 -0.1565475641425318 -0.05898569700058872
3640000000.0 -0.1620500431691574 -0.062053242877996524
3660000000.0 -0.17473264444166473 -0.02089657578658553
3680000000.0 -0.15478331518401342 -0.07509730484456338
3700000000.0 -0.132216284649469 -0.10112244862825658
3720000000.0 0.05563721375190665 -0.14886293588281643
3740000000.0 0.10766270990924696 0.10140192906427399
3760000000.0 0.04970590443681986 0.12572594791915662
3780000000.0 -0.09289619089102283 -0.08082059862242132
3800000000.0 0.11850466418460807 -0.007304605233144265
3820000000.0 0.0073784354288384665 0.11804071337516908
3840000000.0 -0.11335032467952437 -0.031705848361635876
3860000000.0 0.053023293904592525 -0.11270248679893986
3880000000.0 -0.039864516720337716 -0.1281518955118366
3900000000.0 0.05445482553574878 0.12932570189062678
3920000000.0 -0.08930645956209121 0.11097771458754
3940000000.0 -0.10661326746089533 -0.09418125142348138
3960000000.0 -0.07060690039853752 -0.12227221732403384
3980000000.0 -0.13041124734487203 -0.03081708015065661
4000000000.0 -0.11703212346267372 0.029613740861741306
