!Created with skrf (http://scikit-rf.org).
# Hz S RI R 50.0 
!freq ReS11 ImS11
400000000.0 -0.82577704104068 0.23282281818368894
420000000.0 0.17389613045666358 0.8231717366230712
440000000.0 0.6387731086309585 0.45858720382104606
460000000.0 0.3362268578577242 0.6397092487845737
480000000.0 -0.4661999274486256 0.46142913515607537
500000000.0 -0.5311609384487173 0.27783308145580793
520000000.0 0.5090030955755588 -0.10500481893806893
540000000.0 0.22690487736286907 -0.40740361432138666
560000000.0 0.4220435412401406 0.12331724416515454
580000000.0 0.3743980508854367 -0.1384112006943178
600000000.0 -0.051454064681361336 0.35644028667627836
620000000.0 -0.36380515963010385 0.017741674576020553
640000000.0 -0.13447191709074877 -0.3840879086535666
660000000.0 0.3769616606591628 0.23750330214594328
680000000.0 -0.45011128126724576 -0.05794611043223756
700000000.0 0.31962475153747966 -0.30501940761805263
720000000.0 -0.32508618888864543 0.2764575071036528
740000000.0 -0.16203027381806778 0.3497617109376354
760000000.0 -0.10770518830972789 -0.33155885504782234
780000000.0 -0.18787857742308672 0.25146161811054063
800000000.0 -0.28391928496677576 0.11560786383388753
820000000.0 -0.2564354051527066 -0.07652648111502906
840000000.0 0.12739603832885882 0.16525947372876718
860000000.0 -0.15446500029281757 0.04285953155778263
880000000.0 -0.05630897397469316 -0.09407462012882381
900000000.0 0.07761111631062294 0.004215085107089116
920000000.0 -0.03912508890805017 -0.032577194209090776
940000000.0 0.024935803748352706 -0.04366172670604144
960000000.0 0.06022943380867803 -0.0004928068468344532
980000000.0 -0.07601013522227956 0.006970392048708438
1000000000.0 -0.03757846210868183 -0.07767868191126855
1020000000.0 0.07679483346427807 0.053691336812063443
1040000000.0 -0.07660390618388732 -0.07698633356434277
1060000000.0 -0.11904393744698678 0.08495041187361796
1080000000.0 0.15054172091087872 0.08484894442558312
1100000000.0 0.19886627914964394 -0.0302679921458432
1120000000.0 0.17556654243371997 0.1693492118465348
1140000000.0 0.13126101377666127 -0.2556450499035487
1160000000.0 0.3092344150535846 -0.020183403612362004
1180000000.0 0.25011223605671845 -0.19530043971683667
1200000000.0 -0.2733135468013825 -0.19031368568503682
1220000000.0 -0.15629437746242297 0.32293224309900337
1240000000.0 0.3514880144169894 0.14305280235204948
1260000000.0 -0.10048848817407922 -0.3884734478690312
1280000000.0 -0.3838073774014395 0.14703190488973975
1300000000.0 0.0012991551667451287 0.42043413340022184
1320000000.0 0.41801157525288674 -0.030341216926917106
1340000000.0 0.37174057952957357 -0.1763134461007299
1360000000.0 0.39718738371970574 -0.06541029815923234
1380000000.0 0.36891552888919943 0.14173799952281516
1400000000.0 0.22949165789860487 -0.30907816179217645
1420000000.0 -0.3004728235824039 -0.20388221197615702
1440000000.0 -0.2927187396879064 0.16961820478512143
1460000000.0 0.029791458258890742 0.3095945381952869
1480000000.0 0.21967202840039285 -0.18395230577795008
1500000000.0 0.008588717099352909 0.25263385672635386
1520000000.0 0.18225537170215247 -0.11797335392711489
1540000000.0 -0.08345111235199469 0.15842227407361417
1560000000.0 -0.029658463806896698 -0.13718993951357228
1580000000.0 -0.10108327125135626 0.039178338536231115
1600000000.0 -0.06011205715404693 -0.05286483219516091
1620000000.0 0.059039181917738534 -0.024744937614667634
1640000000.0 0.020224888899458986 -0.0327258707760191
1660000000.0 -0.0003989552921918834 -0.006895450093448809
1680000000.0 -0.021886177883691002 -0.012419024993245882
1700000000.0 -0.045875458543439204 0.001085382025022348
1720000000.0 0.052472348745884516 -0.025379676577550636
1740000000.0 -0.002038323766947547 -0.0691047294518637
1760000000.0 -0.07016668651750117 -0.03640229106453032
1780000000.0 0.007327702106193387 -0.10476768784648387
1800000000.0 -0.041453945260316746 0.14258679807786045
1820000000.0 -0.08640384789434065 0.16671801022170452
1840000000.0 -0.18835905130251368 0.12135531477138613
1860000000.0 -0.1901732446771685 -0.17143762400903445
1880000000.0 0.2869545810169224 0.023641968004192927
1900000000.0 -0.2640328180300373 -0.17932203555312282
1920000000.0 0.3159143023115436 0.16092282719133708
1940000000.0 -0.3800117731595552 -0.0201623057459221
1960000000.0 0.38469049552552376 0.08882977603848272
1980000000.0 0.17331554036826585 -0.36378782892339956
2000000000.0 -0.07107229446400307 -0.4099040732962632
2020000000.0 -0.37923820166634187 -0.20210457097006645
2040000000.0 0.14805054080862198 0.4109993391108518
2060000000.0 0.26358803742512144 -0.3345178708124558
2080000000.0 0.033868040378902335 -0.409624020960567
2100000000.0 0.0119761330483509 -0.39927728498722115
2120000000.0 -0.17661636257170743 -0.3470346202460086
2140000000.0 -0.3654414449862739 -0.07108233027852144
2160000000.0 -0.017220341771773874 -0.35150499985738315
2180000000.0 0.16882574608864617 -0.2872782679602201
2200000000.0 0.3207578687075011 -0.030706232904607618
2220000000.0 0.27771767931937863 0.1606379213355175
2240000000.0 0.2340062076167529 -0.22907317862633036
2260000000.0 -0.15516314312535082 -0.2928666889455529
2280000000.0 -0.3347438816621436 0.08514324412543597
2300000000.0 0.349809886125098 0.10648642330242607
2320000000.0 -0.3356785870541402 -0.20686152907207578
2340000000.0 0.4334761596413841 -0.01045821525357456
2360000000.0 -0.1865727733498285 0.43965003277760517
2380000000.0 -0.4855045246567083 -0.20487922466325262
2400000000.0 0.11654024600331117 -0.5641060168255423
2420000000.0 0.6130225926278217 -0.102511365658955
2440000000.0 0.26229245257820283 0.6044238361688261
2460000000.0 -0.666315613802287 0.1646586695192105
2480000000.0 0.3009123814444683 -0.6391198918414023
2500000000.0 -0.08754012320250407 0.7116798931825248
2520000000.0 0.07800876984994062 -0.7167948832234298
2540000000.0 -0.37828280233174005 0.6086266002452094
2560000000.0 0.6123074665249477 -0.3516566473221229
2580000000.0 -0.6623119279922949 -0.18835620627421928
2600000000.0 0.3926894514254789 0.535090285392228
2620000000.0 0.6060727529326476 0.18710109725252855
2640000000.0 -0.428029631153645 -0.41972917107402813
2660000000.0 0.10075718435174559 0.5526461760610607
2680000000.0 0.10395861569543448 -0.5127806934941918
2700000000.0 -0.2584223653963956 0.41066666494187826
2720000000.0 0.33445962864853707 -0.29866528358361466
2740000000.0 -0.40165406738271753 0.1092320122957625
2760000000.0 0.3795661347950602 -0.09692574411622962
2780000000.0 -0.3475445141784109 0.13251028409864937
2800000000.0 0.30583619625294967 -0.19119604300873566
2820000000.0 -0.12539024145482067 0.32940365796591026
2840000000.0 0.11355355103574073 -0.3288963537151998
2860000000.0 -0.3171947433916517 0.1373567977787692
2880000000.0 0.22425388897463114 0.2694878719083491
2900000000.0 0.24490639759986121 -0.2607996919049531
2920000000.0 -0.328473699914405 -0.16395137619535763
2940000000.0 -0.12017581477390664 0.3499608840832068
2960000000.0 0.08309997074195981 0.35423387538725953
2980000000.0 -0.35713852438782506 0.04600148400510915
3000000000.0 0.12841699871183399 -0.3397309711522133
3020000000.0 0.2955284766289861 0.2171444182076842
3040000000.0 -0.18059196381113687 0.3165962718932949
3060000000.0 -0.21330057337975772 -0.28982802381203376
3080000000.0 0.3457867973601741 0.025433193834759754
3100000000.0 -0.31981378717627856 -0.0895980124331486
3120000000.0 0.18867300648679677 0.25929486282324904
3140000000.0 -0.2540321475969523 -0.18042353224737626
3160000000.0 0.056693801754776355 0.2919443779992054
3180000000.0 -0.1007831994217651 0.2561899640602458
3200000000.0 -0.23468522855081433 0.05831022917993524
3220000000.0 0.16188978743868948 -0.12032938097390405
3240000000.0 0.16971987509952874 -0.019577613581291186
3260000000.0 0.14470926984521007 -0.004798349640554864
3280000000.0 0.12110224461642267 0.021196892663185207
3300000000.0 -0.052566217433795935 -0.09106034226317376
3320000000.0 0.08110263016415933 0.003907714944624579
3340000000.0 -0.04715128997613087 -0.030953863484166167
3360000000.0 -0.036612837597648544 0.006143858735949078
3380000000.0 -0.030272940758014757 -0.000678374583954525
3400000000.0 -0.022677877881858762 0.015780429718754967
3420000000.0 -0.026039862427744875 -0.007574029876805852
3440000000.0 0.027984064710956578 0.019830312073238078
3460000000.0 0.03435053719878846 -0.029001343483801744
3480000000.0 -0.04778997993901695 -0.02648961108062292
3500000000.0 0.024202137956187367 0.05924378880130336
3520000000.0 -0.062141207319819786 0.0483779669870809
3540000000.0 -0.04051901354824431 0.08760572651009234
3560000000.0 0.09335403965701931 -0.06572988019390429
3580000000.0 -0.09920260042823979 0.07438649364390623
3600000000.0 0.019251798006463303 0.12718402721790475
3620000000.0 -0.13398152271894623 -0.0021159044757553666
3640000000.0 0.0901378156472334 -0.10940853248568969
3660000000.0 0.027964873084658264 0.1480299823376502
3680000000.0 -0.14142997987033135 0.0708992047437262
3700000000.0 -0.12928851906932232 0.09403220572756035
3720000000.0 -0.14468721172427224 -0.058857820540739944
3740000000.0 0.14743412043304308 0.014890100991809475
3760000000.0 -0.14479837450323915 -0.012769514456914507
3780000000.0 0.12749277747400434 -0.08292579502449678
3800000000.0 0.06299437539600383 -0.1472496453362941
3820000000.0 -0.059571775291694 0.15746649502653826
3840000000.0 0.14363202411934428 -0.09275876575780638
3860000000.0 -0.1268744776563195 -0.12360778355263508
3880000000.0 0.037121267560172345 0.1842815056905768
3900000000.0 -0.19946752903741155 0.005011008698749164
3920000000.0 -0.11959535416126113 0.16997467509492384
3940000000.0 0.17223292392195672 0.11580895063607122
3960000000.0 0.1646548881841866 -0.11031143253747694
3980000000.0 0.16520726603975996 -0.08326533706024652
4000000000.0 0.1394200820258369 -0.10239768582679687
