!Created with skrf (http://scikit-rf.org).
# Hz S RI R 50.0 
!freq ReS11 ImS11
400000000.0 -0.5860518991647153 -0.5906663526577742
420000000.0 -0.7678462798722148 0.33125497500736417
440000000.0 -0.08195011609506773 0.776320841365498
460000000.0 -0.5848845551778443 0.421713809554555
480000000.0 0.20636813182360625 -0.6312981874330534
500000000.0 0.5223308084506926 -0.3548094734642561
520000000.0 0.5518619719925133 0.09154444309525692
540000000.0 -0.44942817623001 0.21928136812979776
560000000.0 -0.4567474162836087 -0.023134130534064334
580000000.0 -0.3988967857731442 0.03786888170977023
600000000.0 0.29842513175296376 0.21036983441167031
620000000.0 0.2982887102453103 0.2086581428903424
640000000.0 -0.3347992585674554 -0.22263329903525658
660000000.0 0.41888968618132594 -0.139762289055399
680000000.0 -0.39498350357662004 0.22104061587459428
700000000.0 -0.019391924267560954 -0.4286560218625422
720000000.0 -0.39562488253822936 -0.13229257173764844
740000000.0 -0.1453760992033305 -0.3610097412694093
760000000.0 0.10373891828426726 -0.3509352969283535
780000000.0 -0.01624451949357585 -0.32908825449230544
800000000.0 0.18063114645272063 -0.24348839003573747
820000000.0 0.2149646109843477 -0.1213244834220956
840000000.0 -0.1273497044788817 -0.1346956921488332
860000000.0 -0.1455145426372072 -0.04208464761029204
880000000.0 0.10800594967429562 0.03505974461069565
900000000.0 -0.01758909795887336 0.09353895032326717
920000000.0 -0.06537258679578012 -0.00010838243538230369
940000000.0 -0.01631146819311902 -0.042165882012628206
960000000.0 -0.032349351299047514 -0.04470160208369263
980000000.0 0.01506898754775847 -0.058800149899560825
1000000000.0 -0.03468497844031163 0.07109220144638281
1020000000.0 -0.0969376122950175 0.007798451453586099
1040000000.0 0.07617477886875254 0.09267999346913476
1060000000.0 -0.1129131554387423 -0.101381335222858
1080000000.0 0.1822516487887417 0.026981015243247513
1100000000.0 -0.004026105660708577 -0.2087009362789518
1120000000.0 0.020625707714902578 -0.24239233008720704
1140000000.0 0.23067128833908404 -0.15924031812049974
1160000000.0 -0.07069028816700054 0.30968380523120376
1180000000.0 0.08511513810692986 -0.3240260407908033
1200000000.0 0.0906781289031286 0.3262243264747063
1220000000.0 0.30094979383373305 0.18912341086091475
1240000000.0 0.3452107202053856 -0.15850791144228246
1260000000.0 -0.32477226599871534 -0.23075156423815874
1280000000.0 -0.182853299130065 0.3641003507749328
1300000000.0 0.15224633290904185 0.3810648564555175
1320000000.0 0.27103715426857267 0.30955033253628783
1340000000.0 0.09565345035022674 0.3993207093883202
1360000000.0 0.24947067165835565 0.3245334638086068
1380000000.0 0.22915422127153162 0.32901097023360154
1400000000.0 0.3905635327244474 0.050939583576541256
1420000000.0 0.04597987090226403 -0.37497607223427987
1440000000.0 -0.17849415834310456 0.31325705453023606
1460000000.0 -0.1030588395654492 -0.3050593797888986
1480000000.0 -0.25280639072638694 0.1281266266236732
1500000000.0 0.24228197529249376 -0.040843932743472464
1520000000.0 0.12897620202564136 -0.1618835845847055
1540000000.0 -0.1603365713262769 0.042709692287933566
1560000000.0 0.005680424158741311 -0.13271033379823194
1580000000.0 -0.08049685134247316 0.08188180805274356
1600000000.0 -0.07238388829576874 0.041592969173271266
1620000000.0 0.03964077214719495 0.04028491536790274
1640000000.0 -0.02236775093672221 0.02094586278238299
1660000000.0 -0.0025073787396137776 -0.011265505725553229
1680000000.0 -0.01685786353211101 -0.014335557662617099
1700000000.0 -0.009621676132825507 0.03241051741756208
1720000000.0 -0.0064504179333636546 -0.04210418545391231
1740000000.0 -0.05531825715708316 0.02178575407342576
1760000000.0 -0.08734548355291318 -0.016013365618196974
1780000000.0 0.12153351688109158 0.016790250987538648
1800000000.0 0.07313617613210213 -0.13985632049291657
1820000000.0 0.1269593793664018 -0.134787056565487
1840000000.0 -0.20825629673791698 -0.04811120596738356
1860000000.0 0.24082393206531696 0.0853508452365347
1880000000.0 -0.1952597738476398 0.22112842647645944
1900000000.0 -0.17901901734217396 -0.28019649498002736
1920000000.0 0.3340672040837927 -0.1348810511996096
1940000000.0 -0.373227014461229 0.06741832718917072
1960000000.0 0.3527373922271766 0.17939816726358138
1980000000.0 0.19675957656710577 -0.3543234647959085
2000000000.0 -0.23972208897074213 -0.34125542487776256
2020000000.0 -0.40015768031439364 0.13505080609694833
2040000000.0 0.016564638529746593 0.4238873102804439
2060000000.0 0.40546028877118234 0.10421673652095154
2080000000.0 0.32776977215573977 -0.24716111205395666
2100000000.0 0.0015876856317427876 -0.3993711742274354
2120000000.0 -0.21542306764292707 -0.31749188053273897
2140000000.0 -0.34941853818646534 -0.1241490848676462
2160000000.0 -0.136622487662033 -0.3228174119804952
2180000000.0 -0.04932827632578045 -0.3274162399576943
2200000000.0 0.10892296290149105 -0.29974180758065155
2220000000.0 0.21190330563464618 -0.23640636390081907
2240000000.0 -0.2516872855625394 -0.20587672347964409
2260000000.0 -0.23133561283371099 0.23111790180150535
2280000000.0 0.22843577743594434 0.24849587756755373
2300000000.0 0.23683741976934436 -0.2638137611187746
2320000000.0 -0.3882256260387255 -0.02221402405014296
2340000000.0 0.36834133413279746 -0.23226295059072716
2360000000.0 0.355865279256774 0.3237176372015111
2380000000.0 -0.10017642088726092 0.5238233791962477
2400000000.0 -0.5616010523104181 0.162882249865622
2420000000.0 -0.33899918075650076 -0.532338038038768
2440000000.0 0.5655181461335638 -0.3614232167340629
2460000000.0 0.08191340056352085 0.6972981364235189
2480000000.0 -0.5803140681614267 -0.43196398230218164
2500000000.0 0.6985319629228544 0.2325747618760175
2520000000.0 -0.6805298614367908 -0.29332860836327346
2540000000.0 0.6200303262298195 0.3991722923152927
2560000000.0 -0.5944393288274205 -0.41829738319577875
2580000000.0 0.21407036504645655 0.6758037601169908
2600000000.0 0.26394401274238805 -0.6318096229594484
2620000000.0 -0.11188797410515958 -0.6449042763122784
2640000000.0 -0.23127681354164553 0.578881925910882
2660000000.0 0.5799145166179419 -0.10366214665812147
2680000000.0 -0.5391939999583475 -0.13152268401274617
2700000000.0 0.4935757343184682 0.14418429618501546
2720000000.0 -0.4546742369140507 -0.13719672442240347
2740000000.0 0.3486720062165092 0.2678120293520939
2760000000.0 -0.10927301926876021 -0.3988930031142148
2780000000.0 -0.05639021318808988 0.39383479735968263
2800000000.0 0.2503981127035865 -0.2953316521076342
2820000000.0 -0.23238275268040515 0.3054951068888392
2840000000.0 0.29441196736961067 -0.23382367381812486
2860000000.0 -0.37418462124881985 -0.024518196052914686
2880000000.0 0.22978020893290216 0.2960690498905902
2900000000.0 0.3060320637431225 -0.21988616458917107
2920000000.0 -0.18703557761524353 -0.3300719966072963
2940000000.0 -0.27231529235275 -0.26178222773419246
2960000000.0 -0.09851128318310105 -0.3625932377733916
2980000000.0 0.367347288449911 -0.08659729598940555
3000000000.0 0.22514632492077244 0.3076738078337824
3020000000.0 -0.2629107801032751 0.2750632293443629
3040000000.0 -0.18228217185143214 -0.32866488416612727
3060000000.0 0.3166496561725702 0.18297578742245107
3080000000.0 -0.3180224180191495 -0.15695195097417147
3100000000.0 0.21765732130565757 0.2650404630247631
3120000000.0 -0.2494535823987934 -0.21678696322831906
3140000000.0 0.15519647789047983 0.2735984301375624
3160000000.0 -0.15943416761410797 -0.24760454699532516
3180000000.0 -0.2658244807043452 0.052450048238313424
3200000000.0 0.24082227651359328 0.041178287693543855
3220000000.0 -0.021024305923073073 -0.21063061022110857
3240000000.0 0.031151316418904073 -0.17650845138264037
3260000000.0 -0.06859686552033398 0.13894914196968935
3280000000.0 0.12139506235715138 0.05828687461646978
3300000000.0 -0.12423089225902932 -0.007723732122157193
3320000000.0 0.09673463720513044 0.0214780759928136
3340000000.0 -0.0826424665156135 -0.017401063114960147
3360000000.0 -0.06338697090094132 -0.05339280600908107
3380000000.0 -0.059132838425099574 0.05559210501680664
3400000000.0 0.06814631987732518 -0.047579955549175545
3420000000.0 -0.025360826917428265 -0.06887632642290578
3440000000.0 0.030389464291461114 0.05641061846251276
3460000000.0 -0.04028473180144417 0.0425250835273338
3480000000.0 0.004334561501839384 -0.052803698336931985
3500000000.0 0.050507138276419596 0.023702306086868134
3520000000.0 0.07323107862573801 0.0147689347498027
3540000000.0 0.05649919411032944 -0.06238697116084466
3560000000.0 -0.0832675688925526 0.050065888002889414
3580000000.0 -0.11582785159487342 0.04781649128246299
3600000000.0 0.02628728244784732 -0.14509539015790607
3620000000.0 -0.05220487013143405 0.15835081618962585
3640000000.0 -0.08067821407333536 -0.1741380878462953
3660000000.0 0.19321844906314778 0.08876273542446547
3680000000.0 0.17833254764982806 0.12830988663703902
3700000000.0 -0.2369148345617962 -0.03946806887758043
3720000000.0 -0.14192058331032006 0.20611490858524645
3740000000.0 0.2136490960885071 -0.1502127632939555
3760000000.0 0.2225741737949723 0.1539751083477849
3780000000.0 0.036999403662166475 0.27538150831233166
3800000000.0 -0.28537680453305736 0.01973288143176092
3820000000.0 -0.22205146200535955 0.19888919637386684
3840000000.0 -0.05789928919668845 0.30059049579870134
3860000000.0 0.1879409412933042 -0.23653197593396535
3880000000.0 -0.11597554092872911 -0.2782125629557286
3900000000.0 -0.22492087339355166 -0.19670384190427814
3920000000.0 -0.0803430323865011 0.27948446607290367
3940000000.0 0.2807573353503888 0.05471137934414866
3960000000.0 -0.11306850666485253 -0.24580219076660778
3980000000.0 -0.06512312454560808 0.2714556168462447
4000000000.0 -0.12025393646647525 -0.22194479823137236
