!Created with skrf (http://scikit-rf.org).
# Hz S RI R 50.0 
!freq ReS11 ImS11
400000000.0 -0.5143847394436466 -0.6475139226817228
420000000.0 -0.8255436204470474 0.1169516394715572
440000000.0 -0.6442592978251005 0.43573080543347203
460000000.0 -0.6985859329337668 -0.20131623659659878
480000000.0 0.2556826748005915 -0.6195185897881913
500000000.0 0.45298586050533757 -0.46505985491545876
520000000.0 0.35506801899898727 -0.4410559222467189
540000000.0 0.0025613724583622363 0.506174986268069
560000000.0 -0.4264963190837577 0.1866086321776609
580000000.0 0.4062487960767323 -0.01658908778518127
600000000.0 -0.3175264415509514 0.15522122983149783
620000000.0 0.2602990769168895 -0.23654413352243095
640000000.0 -0.01922790381063224 0.39217960356553294
660000000.0 -0.015640183032509705 -0.4169674947686542
680000000.0 0.28444546860246683 -0.3207338844924618
700000000.0 0.08904898811780287 0.4191174707553661
720000000.0 0.41671432655311325 0.04610560217457347
740000000.0 0.2868954090222674 0.2803728724825901
760000000.0 0.3597158326851029 0.14412909923279552
780000000.0 -0.2917258939510537 -0.18827637436874592
800000000.0 -0.25603866018784843 -0.15257233602168913
820000000.0 0.1643228385848082 0.1941033990138605
840000000.0 0.1481899426337766 -0.1207556089864007
860000000.0 -0.10262606497877012 -0.09320144713502684
880000000.0 0.09265658603300148 0.011313196298514789
900000000.0 -0.015861335037910165 0.058036774433565884
920000000.0 -0.03240292722280935 -0.014744562715523431
940000000.0 0.011476016965400071 -0.02768541487061439
960000000.0 0.009465720085082103 -0.043191242397544356
980000000.0 0.0563672192163798 -0.04495641094478863
1000000000.0 -0.08651342842361714 0.0020997976036224923
1020000000.0 0.013286074003958762 -0.1107677363979656
1040000000.0 0.13756490936078836 -0.02930808494362134
1060000000.0 -0.024850142701140145 -0.15279506728484485
1080000000.0 0.08958951975714222 -0.17523073083776233
1100000000.0 -0.021178435308165613 -0.22820916298257723
1120000000.0 -0.22670430002914146 -0.11243948074088582
1140000000.0 -0.24142997554065496 -0.14835740058733665
1160000000.0 0.18269200468391036 0.24505342469726418
1180000000.0 0.32199783736833215 -0.06863575778752302
1200000000.0 0.2773643906872081 0.18612048402394157
1220000000.0 0.2854283163470847 0.17972992544245817
1240000000.0 0.3085932702519216 0.17778166148353103
1260000000.0 0.27920275940126316 0.249983385614833
1280000000.0 0.40425011796834415 -0.01850844840853079
1300000000.0 -0.13759290569797922 -0.3940767417588319
1320000000.0 -0.33865310256782144 0.2612962126334317
1340000000.0 0.37367783899605217 0.2019955842840292
1360000000.0 0.26972597576826834 -0.3147517228634574
1380000000.0 -0.09348405190409594 -0.3822542862785226
1400000000.0 -0.19824994995882908 -0.31416228201430274
1420000000.0 -0.17931489925920202 -0.29710798018966655
1440000000.0 -0.25219842373018486 -0.21918532434036683
1460000000.0 0.29097142141835647 0.10463260735602853
1480000000.0 -0.09275539946595769 -0.25945065352455565
1500000000.0 0.188821050638661 0.14727369931157464
1520000000.0 0.15225621536275 0.13595927158989782
1540000000.0 -0.16249744270518007 0.057885250505660166
1560000000.0 0.1169716729039648 0.07772973618111874
1580000000.0 0.11655938615934024 0.0049831091539089345
1600000000.0 0.07876195850851392 -0.016778725378836786
1620000000.0 0.01511904973374151 0.05234823896173902
1640000000.0 0.010519206652441184 0.03270663990631101
1660000000.0 -0.01181517407549562 0.006108131185491716
1680000000.0 -0.0037771571111212773 -0.005781676635001933
1700000000.0 -0.02639088520292531 -0.0005948444834041728
1720000000.0 0.0012787313819205622 -0.04534331611829
1740000000.0 -0.03159950938357019 -0.0552660805649374
1760000000.0 -0.023947267611585013 -0.07657777433940442
1780000000.0 -0.10483077182501922 0.03832529993527289
1800000000.0 -0.14020976072263747 0.04351148132184233
1820000000.0 -0.1566575141152588 -0.07697385377517475
1840000000.0 0.012095523528387178 0.20620725775912016
1860000000.0 -0.18724648629257523 -0.15606590386350835
1880000000.0 0.27315552630327106 0.06582564219812087
1900000000.0 -0.31393513021417757 0.03626512156784499
1920000000.0 0.3464355254460682 0.02147577985253985
1940000000.0 -0.3503606969454984 -0.14154728443552456
1960000000.0 0.39543548000580386 0.07064081744048788
1980000000.0 -0.2521857514739462 -0.3255653977689087
2000000000.0 -0.3255730698256461 0.2663696417192342
2020000000.0 0.043489411564923974 0.41961045592797924
2040000000.0 0.15415293080035206 0.39414792686547956
2060000000.0 0.40151669840963305 0.13975705443467284
2080000000.0 0.36611841075741447 -0.2026304642626546
2100000000.0 0.08976852012166701 -0.39943260945371506
2120000000.0 -0.1599896400107761 -0.3605578098106167
2140000000.0 -0.25144633125069515 -0.28750721700426457
2160000000.0 0.12545779486430442 -0.34101426384118816
2180000000.0 0.27626747063185597 -0.20479905190232353
2200000000.0 0.33171593326709375 -0.034309748856455886
2220000000.0 0.2357658412373779 0.22468308495928446
2240000000.0 0.2009504684665552 0.26360657908535445
2260000000.0 0.34049778903825845 0.009248837687690699
2280000000.0 0.2613060970201397 -0.23769801599468499
2300000000.0 -0.3657638101376066 -0.08965007128705677
2320000000.0 0.247172591996235 0.32597970017291966
2340000000.0 -0.449700905492255 -0.039669283474500557
2360000000.0 0.146032125770101 -0.4725124470379146
2380000000.0 0.5309918679865882 0.10609652459956113
2400000000.0 -0.015180864787224945 0.5861961540409386
2420000000.0 -0.6266002823322253 -0.039401526474433124
2440000000.0 0.08083875331934777 -0.6595637423004798
2460000000.0 0.6203855842456613 0.306012684071109
2480000000.0 -0.6947330840434899 0.15134737263748513
2500000000.0 0.6642194359073574 -0.28237952679228634
2520000000.0 -0.7053142598454788 0.16733272754903206
2540000000.0 0.7128776739684414 0.09731966546761119
2560000000.0 -0.538779729588489 -0.4617468063411306
2580000000.0 0.09936027000523545 0.6824351284588606
2600000000.0 0.449256406897032 -0.4876674798430741
2620000000.0 -0.6274640746962721 0.07538641740632358
2640000000.0 -0.4620865914988164 0.37631753307276417
2660000000.0 0.5457693820250205 0.11842421724983047
2680000000.0 -0.4017736835860629 -0.3309531532666595
2700000000.0 0.33808277846525536 0.3450799091606762
2720000000.0 -0.4069299828300804 -0.18080628621988237
2740000000.0 0.40654786952686206 0.027487891617352583
2760000000.0 -0.32274553082150415 0.19066618271037258
2780000000.0 0.2511245730598374 -0.23796442328380574
2800000000.0 -0.3283931063942654 0.005585775282565944
2820000000.0 0.28631293099181865 0.14961988525734157
2840000000.0 -0.3079323290818638 -0.1021220420494353
2860000000.0 0.3319691647194064 0.00450564771182398
2880000000.0 -0.28277965792630005 0.18483556485813865
2900000000.0 0.3424723112666094 -0.03807074766578283
2920000000.0 -0.3424638226462894 0.07212611295558889
2940000000.0 0.19124646911006937 0.29024542601563996
2960000000.0 0.33662367790839937 0.06722866158306591
2980000000.0 0.18405533402257046 0.282422027310897
3000000000.0 -0.3236844167395902 -0.08396831142442165
3020000000.0 0.3352845823856678 0.02273260766773643
3040000000.0 -0.3094086104287934 0.15009305053475522
3060000000.0 -0.23656330179836718 -0.25534571995350774
3080000000.0 0.14221798280326425 -0.31084295246710725
3100000000.0 0.3298736913847303 -0.014195519851682607
3120000000.0 0.1130419182992854 0.29013524981242395
3140000000.0 -0.27109137837133485 -0.09741217008118722
3160000000.0 -0.0777378310879937 0.25208601270840136
3180000000.0 0.10935906271399325 -0.21369646995590044
3200000000.0 -0.2060431601782057 0.07457851041059627
3220000000.0 0.01881095280737895 -0.19906064116713965
3240000000.0 0.07782612063217542 -0.15887782974237227
3260000000.0 -0.05575232049990863 -0.13795670282231465
3280000000.0 0.009210530387946248 0.11317544920840773
3300000000.0 0.07900987531432756 0.018291829456728383
3320000000.0 -0.04425758645375227 0.02978136921522912
3340000000.0 0.026818599738538222 -0.013307714172052797
3360000000.0 0.011308694168908237 -0.01060087659859507
3380000000.0 0.012625107867246547 0.0036879204954782803
3400000000.0 -0.003812856955573333 -0.02166589171531306
3420000000.0 -0.025863687443953527 -0.025832184324178716
3440000000.0 -0.017521457069075184 -0.0531263495683915
3460000000.0 -0.008526023319693056 -0.0768710015275621
3480000000.0 0.08548130283363564 -0.0405949740979958
3500000000.0 -0.00984455236712221 0.1084743243853439
3520000000.0 0.12083029962874245 0.01644472467693124
3540000000.0 -0.08475728492242632 -0.10139612551027068
3560000000.0 -0.04448820217730575 -0.12937519535515837
3580000000.0 0.09874151003829917 -0.10558159333300803
3600000000.0 0.1468989672082691 0.04114291181935601
3620000000.0 -0.0452056240143058 0.15457425320852447
3640000000.0 -0.1115165552398076 0.1265231522767271
3660000000.0 -0.13462506906274116 0.11033639240418658
3680000000.0 -0.16600343602227693 0.04913507305163649
3700000000.0 -0.07462579861556405 0.15084605558761097
3720000000.0 -0.14025887572297008 0.07249207365970686
3740000000.0 0.09095469783681706 -0.11085268330473919
3760000000.0 -0.12947917422267066 -0.007376323299283339
3780000000.0 0.06799515185772831 0.10643184045407814
3800000000.0 -0.0753381940315159 0.10727795686354431
3820000000.0 0.109742490851907 0.08242930375387675
3840000000.0 0.10841931488914687 -0.08684918907106702
3860000000.0 0.04563165702477369 -0.13146415543729778
3880000000.0 0.036495225213947984 -0.13914524082109733
3900000000.0 -0.09143285455069569 0.12015956941749531
3920000000.0 -0.04461895645989563 -0.14512496540971737
3940000000.0 0.12589755033102096 0.08910961235354076
3960000000.0 0.02190408044314694 0.15442271902617902
3980000000.0 0.08092519050722993 -0.13047576297140234
4000000000.0 -0.13004317760211576 -0.051416049484638425
