!Created with skrf (http://scikit-rf.org).
# Hz S RI R 50.0 
!freq ReS11 ImS11
400000000.0 -0.658310494438546 -0.5289107706873574
420000000.0 -0.6815317145348359 0.4973569225637014
440000000.0 0.2803688104845913 0.7411411676629359
460000000.0 0.1457330904224918 0.7060502215608646
480000000.0 -0.4976829896269133 -0.41388955263417027
500000000.0 0.2584597213450159 -0.5673836464749291
520000000.0 0.5342189004618142 -0.05989524317989992
540000000.0 0.1494948741023811 -0.4613233396423646
560000000.0 0.029267805361932995 -0.4577776222757032
580000000.0 -0.13734716212906775 -0.38360923101623323
600000000.0 0.3445029585629079 -0.12632788542148204
620000000.0 -0.02424855023360139 0.3618786076582256
640000000.0 -0.3917897884109051 -0.1257714072906585
660000000.0 0.3997695921685933 -0.20259904197460682
680000000.0 -0.4430915115716951 -0.1189971797750701
700000000.0 -0.3621614179945142 -0.27038430545373054
720000000.0 0.31194993215460504 0.2731624477965046
740000000.0 -0.3534857147481958 0.10798389596188464
760000000.0 -0.11845501414239878 0.3246834576340306
780000000.0 -0.13915980550872323 0.3044080543952764
800000000.0 0.08375753414343916 0.28840329234300466
820000000.0 -0.04031008563478813 -0.26130770418428767
840000000.0 -0.16359541630568694 -0.12382265477119904
860000000.0 0.059757612125078345 -0.15228123990492623
880000000.0 -0.015038092526682985 -0.10856973820005203
900000000.0 -0.06775777265592509 0.03351520779532609
920000000.0 0.027880813150968898 -0.04380946237522292
940000000.0 0.030903921912736842 -0.01141257548796819
960000000.0 -0.027549213483178778 -0.041089888495225095
980000000.0 -0.008574878588324904 -0.07066276247523434
1000000000.0 0.0869714348207891 -0.033825187186139506
1020000000.0 -0.08484064966999609 -0.07071002180053082
1040000000.0 -0.08230499108399349 -0.11000281727817218
1060000000.0 0.138269829782791 0.07357322325608878
1080000000.0 0.13312995446569703 -0.13430966987248308
1100000000.0 0.12323946499247568 0.1832762870333466
1120000000.0 0.1404460893448938 -0.19173965127796966
1140000000.0 -0.1306772954581675 -0.2170632382873424
1160000000.0 -0.1437505111166626 -0.2527231471906384
1180000000.0 0.04212775174086158 -0.32125958456194775
1200000000.0 0.0924950846290337 -0.3379745844884612
1220000000.0 0.20675665039753505 0.30161506018587575
1240000000.0 -0.06929629735818511 -0.37863475287979553
1260000000.0 -0.3789421123436951 -0.08096209027992844
1280000000.0 -0.328988351186685 -0.2322849805982608
1300000000.0 -0.392668930729709 0.12620242516300048
1320000000.0 -0.28157837766946964 0.3106487262636652
1340000000.0 0.2013378179138646 0.3701987235316752
1360000000.0 0.37515453341926097 0.17190991130086866
1380000000.0 0.3547102323523826 0.19144210118803284
1400000000.0 0.07180380201620871 -0.3873280196853959
1420000000.0 -0.1966115951922729 0.3051090231087268
1440000000.0 0.13525817225417527 0.29875201897679904
1460000000.0 0.26306661542762655 0.14909887151079934
1480000000.0 0.2721579383432203 -0.03723909629233595
1500000000.0 -0.18780524078721975 -0.16347386308175377
1520000000.0 0.010747287638938965 0.2216929410518362
1540000000.0 0.17055149459711583 0.07065321491537849
1560000000.0 -0.11764959301603256 0.07233448284229765
1580000000.0 0.09596458038162986 -0.03557138611289399
1600000000.0 -0.06099934702482629 -0.03967608768546974
1620000000.0 0.052843788257348485 -0.01575834750111798
1640000000.0 -0.0028190854784439136 -0.0366597603324436
1660000000.0 -0.0038131116533594153 0.01581614281531742
1680000000.0 -0.002586027222165333 0.001223527787435477
1700000000.0 -0.0034643916789748835 -0.020545413514242467
1720000000.0 0.0038041518170845974 -0.039625725567652904
1740000000.0 -0.06465480443444198 0.02857060078130049
1760000000.0 0.007153813731066093 0.0947469764645918
1780000000.0 0.007667693424486142 0.1173761927789342
1800000000.0 -0.027725936602017547 -0.14575797382588748
1820000000.0 0.13121794015925514 0.11897964518300035
1840000000.0 0.17681121372371195 -0.12395529476080963
1860000000.0 0.25915189838951347 0.01702009122462845
1880000000.0 0.2656619519746539 0.13649572001268365
1900000000.0 -0.0890340924203433 0.315006159909519
1920000000.0 -0.04280644667499817 -0.34467939949056897
1940000000.0 -0.3413624826091595 0.13257480272650168
1960000000.0 0.06895466811666871 0.38051572222730357
1980000000.0 0.3960024947076362 -0.07922609366597302
2000000000.0 0.031249074010005876 -0.41994880178500316
2020000000.0 -0.4301173731372794 0.029244351385381426
2040000000.0 0.07338865666009206 0.42540251673559065
2060000000.0 0.41678241684556544 -0.08028605813512464
2080000000.0 0.13458614959291054 -0.39530305504876995
2100000000.0 -0.004949597502465693 -0.4056023787240179
2120000000.0 -0.18841745051004208 -0.3445917263647966
2140000000.0 -0.2962042550586989 -0.23686141447365686
2160000000.0 0.1617431857886431 -0.32547557061691845
2180000000.0 0.21988335395181685 -0.264473403140115
2200000000.0 0.07725016652865573 -0.3095305383506983
2220000000.0 0.30618111423534317 0.06857552228655603
2240000000.0 0.3171992506314545 0.0728703126362598
2260000000.0 -0.15026876817190474 -0.30278835915616814
2280000000.0 -0.07620916310521776 0.3419298789507388
2300000000.0 0.3621207916548964 -0.05039439936915111
2320000000.0 0.39060378205675433 -0.05863741325194061
2340000000.0 -0.007848299912737977 0.4394733493326173
2360000000.0 -0.44996952800515755 0.19221538377227693
2380000000.0 -0.4639071250549518 -0.27595573158907616
2400000000.0 -0.2954906027639195 -0.5161669004328088
2420000000.0 0.3953667273393025 -0.5045915806782086
2440000000.0 0.4873808776394118 0.4689399810628787
2460000000.0 -0.6080641152371673 0.36422431637322744
2480000000.0 -0.05177256204902061 -0.731701372033449
2500000000.0 0.26700209788706086 0.6934522415335972
2520000000.0 0.21618978859125393 -0.7064152859653577
2540000000.0 -0.11486636745588602 0.7348302629074128
2560000000.0 0.46273356078073224 -0.5714315293680805
2580000000.0 -0.6322922247863861 0.3412249205488124
2600000000.0 0.6892377275546911 0.04370985099960612
2620000000.0 0.5609840084195429 -0.35197636424095213
2640000000.0 -0.6280496847294536 -0.028745447382123663
2660000000.0 0.49063105595626755 0.32933853422419773
2680000000.0 0.5002385700298881 -0.15984202107771628
2700000000.0 0.4036662907861652 -0.2590686768631192
2720000000.0 0.31293423902737233 -0.3343853414643601
2740000000.0 -0.41095830468736094 0.11618761553609232
2760000000.0 -0.20402287591076937 -0.32166467330680304
2780000000.0 -0.30194521586922834 0.24881771805987396
2800000000.0 0.18891028869428658 -0.33058906713260255
2820000000.0 -0.1745722852674849 0.32118824000923213
2840000000.0 0.26373666477921254 -0.21138794637205938
2860000000.0 -0.18738174101905003 -0.2714507769495721
2880000000.0 0.24422576849219418 0.2528970128749924
2900000000.0 0.36450671354767106 0.012429625273464036
2920000000.0 -0.21156172360041076 -0.2699945785612912
2940000000.0 -0.33949153566431334 -0.14419448568952412
2960000000.0 -0.20134618973183638 0.29005681272618755
2980000000.0 -0.3275867960876288 -0.16178902863268058
3000000000.0 0.33624931381020556 0.15483098019555724
3020000000.0 -0.09261395473421906 0.3570441964099188
3040000000.0 -0.3398808991205997 -0.12137378974801533
3060000000.0 0.1285765830471892 -0.3276481072208609
3080000000.0 0.04050772660187874 -0.324025935243911
3100000000.0 -0.14730214112555245 0.28378793552971304
3120000000.0 -0.07391129290995892 -0.29848235842433757
3140000000.0 0.27241635511609646 -0.11684412972613474
3160000000.0 -0.27689919992131484 0.04046719896523167
3180000000.0 0.23693609905672067 0.09038556406535021
3200000000.0 -0.1295580800227786 -0.1825834363976642
3220000000.0 -0.07741746839371678 0.17395896679487635
3240000000.0 -0.05743045396068191 -0.1583340090902352
3260000000.0 0.09973948480104311 -0.10594842224734966
3280000000.0 0.05583371391007205 -0.10199490207378638
3300000000.0 0.08084396903978722 -0.015900332405501146
3320000000.0 -0.04411148608338026 0.06015552845534105
3340000000.0 -0.06082710054525402 -0.027199877522812697
3360000000.0 0.05758818623563049 -0.018236783420290666
3380000000.0 -0.03083614766399401 0.020376356991786932
3400000000.0 0.03869123603112691 0.03199232480585419
3420000000.0 -0.016122086999226154 0.006702464221854395
3440000000.0 0.023605996325281722 0.01117219290726524
3460000000.0 -0.01776326412921705 -0.04192656197453434
3480000000.0 0.012357213943496821 -0.010125897814946796
3500000000.0 -0.01283616977607501 0.008064466187847154
3520000000.0 0.013867760932078374 -0.02442262710263783
3540000000.0 0.06949675590759302 -0.023454781717821435
3560000000.0 -0.07415865960634621 -0.03741968339467234
3580000000.0 -0.06109629634812292 0.035867919545495536
3600000000.0 -0.052002454706737755 -0.10761041571678201
3620000000.0 -0.07257975459289671 -0.12322932046524615
3640000000.0 -0.11088039242493473 0.015398619246316794
3660000000.0 0.06583527437138313 -0.15968956876522036
3680000000.0 -0.13140515723807872 0.009884839159040601
3700000000.0 -0.02576219102885558 0.15406517707079856
3720000000.0 -0.0560664991982092 -0.1731902131856893
3740000000.0 0.15304170440090237 -0.0030624331068097796
3760000000.0 -0.0626677561710046 0.17480606084647152
3780000000.0 0.09257595741052321 0.12783670301138603
3800000000.0 0.08923158014757944 0.07884050473168051
3820000000.0 -0.0942389853392723 0.08639638692026072
3840000000.0 0.1341336930994238 0.04352687142858725
3860000000.0 -0.05902121348167668 -0.13390856673868848
3880000000.0 0.14913212905492107 0.03758900486158241
3900000000.0 0.21412786997797903 -0.17227942268701596
3920000000.0 0.0584979165266814 -0.2670116288199158
3940000000.0 0.20186359834856027 -0.149692884824552
3960000000.0 0.22434596029275575 -0.2084505110359672
3980000000.0 0.1355568284475328 -0.07892305949272382
4000000000.0 -0.1266893689329173 0.14720299947915144
