!Created with skrf (http://scikit-rf.org).
# Hz S RI R 50.0 
!freq ReS11 ImS11
400000000.0 -0.8083152616812368 0.2966333960065353
420000000.0 0.3149639473191529 0.7817806949968092
440000000.0 0.6713237878711559 0.4085786859494504
460000000.0 0.3793774030390361 0.6129985696826017
480000000.0 -0.4493608972287756 0.47466456357319714
500000000.0 -0.5989655303999468 -0.022921805581019434
520000000.0 0.4604265080910689 -0.24685888600436837
540000000.0 0.11783104301875913 -0.4495991170146938
560000000.0 0.39842514339684026 0.19072856099715463
580000000.0 0.27917654464442515 -0.28007148169723717
600000000.0 -0.22123587905939984 0.2857076556720402
620000000.0 -0.3193532635694599 0.17576566647528363
640000000.0 -0.06388934383488591 -0.40330276408362636
660000000.0 0.40275004219462807 0.1890273965439428
680000000.0 -0.40330862099451253 -0.20847009422187596
700000000.0 0.11308151367677372 -0.4264965357307951
720000000.0 -0.41259595343213956 0.08259367080240052
740000000.0 -0.3875144242542217 0.010699452441393609
760000000.0 -0.11986309458657923 -0.33557404504274274
780000000.0 0.08259376897327085 0.3108789014351553
800000000.0 0.2876990555901206 0.09082007371505606
820000000.0 -0.10729820890093647 -0.23100025424533935
840000000.0 -0.17861615130680622 -0.105044962951426
860000000.0 0.145096079868816 0.07649448667351233
880000000.0 -0.10262783416837193 -0.06754068940993954
900000000.0 -0.028103799361313037 0.08003117175128029
920000000.0 -0.03647956956245706 0.041601195798346834
940000000.0 -0.04008220342932667 0.014435744619747812
960000000.0 -0.045967152037856826 -0.017864339671381322
980000000.0 -0.008832146361541601 -0.06064617424532934
1000000000.0 0.03158268516115384 -0.06991121909363181
1020000000.0 -0.046444815075502396 0.08782613550866661
1040000000.0 0.11229324589303889 -0.042006155189567566
1060000000.0 -0.12756040888828504 0.08120158176223045
1080000000.0 0.14597103903410247 0.10759826830985632
1100000000.0 -0.08393575053599077 -0.19385423187267123
1120000000.0 -0.24281604350701333 -0.01045426195031234
1140000000.0 -0.16048407351342203 -0.21742886510830403
1160000000.0 -0.1292844185228785 0.26867569182775797
1180000000.0 0.09974425065009015 0.3082112708073387
1200000000.0 -0.2794657639964771 -0.19055523493514281
1220000000.0 -0.10240407360781736 0.34647070441306926
1240000000.0 0.37109112749315615 -0.0882260614905972
1260000000.0 -0.15069742563154706 -0.37070807218201945
1280000000.0 -0.3687567276182276 0.18378050797554013
1300000000.0 -0.024593824847497833 0.41746255962078416
1320000000.0 0.3590431993319852 0.22154919866063472
1340000000.0 0.3831111757455783 -0.16514000457580308
1360000000.0 0.33297338304565444 -0.2321662697169695
1380000000.0 0.3615334073220028 -0.15668242959745574
1400000000.0 0.23007795844374163 -0.3024498375411582
1420000000.0 -0.013308874572584447 -0.3611007030841672
1440000000.0 -0.33949601150681896 0.016544233732761822
1460000000.0 -0.027981688423230386 0.31043055487382054
1480000000.0 0.26641512180942534 -0.10862036341671916
1500000000.0 -0.13561933819809213 0.2138640435292537
1520000000.0 0.17398065119610417 -0.1340557841157289
1540000000.0 0.027331145450692155 0.17562292987020095
1560000000.0 0.06490083171766817 -0.12782659040456265
1580000000.0 0.08938739852229259 0.0648831248903315
1600000000.0 -0.023806046398285916 -0.07294998348915137
1620000000.0 -0.052860480287479715 0.0015301398284596503
1640000000.0 -0.00044933204216732897 0.029760083791121036
1660000000.0 0.01049831955733758 -0.0023264438674920813
1680000000.0 0.0031902690208705045 -0.015052313597717411
1700000000.0 -0.025439000909201658 0.025497223020585373
1720000000.0 -0.04639211530433508 -0.028605657222157865
1740000000.0 0.04727775004677133 0.05670351951471967
1760000000.0 0.05079563654260031 -0.07468711877207246
1780000000.0 0.11070204820130168 0.004039220249777165
1800000000.0 -0.0687870526316845 -0.12470631486784343
1820000000.0 -0.13011286752189102 0.11898611879842043
1840000000.0 0.15229598057860066 -0.1574825380399136
1860000000.0 0.22984392442056606 -0.12881520991725637
1880000000.0 0.28814306290218866 -0.07272098582277776
1900000000.0 -0.20406079888269643 0.24870270909629286
1920000000.0 0.33147232385135944 -0.10495752790776436
1940000000.0 -0.33610456959720425 -0.16097481498598917
1960000000.0 0.08322240398880906 0.3823861252851648
1980000000.0 0.3946892931161598 -0.10136309301250601
2000000000.0 -0.10586114320415353 -0.4084298866807232
2020000000.0 -0.4147889379706941 0.1147388163520999
2040000000.0 0.21584393585311748 0.3738635969179749
2060000000.0 0.3917824984719875 -0.16165271330394498
2080000000.0 0.13827714569938646 -0.3868175283190922
2100000000.0 0.005800850392513529 -0.39797523358456244
2120000000.0 -0.16247203637770158 -0.3510950227015438
2140000000.0 -0.3635569560865134 -0.07258686161858237
2160000000.0 0.052283061088468315 -0.34540262782232556
2180000000.0 0.2010083671852692 -0.26469024740958597
2200000000.0 0.23347400130335022 -0.21879763618155343
2220000000.0 0.3134898246603876 0.023671883233623407
2240000000.0 0.3184731072458617 -0.033696625849416434
2260000000.0 0.05688818833212576 -0.3238782605748506
2280000000.0 -0.3345954077330087 0.06640557936764321
2300000000.0 0.28844921807892127 0.22083034837288415
2320000000.0 -0.3128979666208048 -0.23744569450546613
2340000000.0 0.42802257051304293 0.028042253876130623
2360000000.0 -0.34465582916770054 0.32215361753966393
2380000000.0 -0.24972598681701028 -0.45963202954290183
2400000000.0 0.42919682742207216 -0.3824792045902767
2420000000.0 0.5303720709681541 0.3234096966486632
2440000000.0 -0.22713138818606715 0.6192305650514969
2460000000.0 -0.5970615273228393 -0.344127283659716
2480000000.0 0.6515496540487563 -0.28423780174178476
2500000000.0 -0.5291740837353778 0.4924774367630058
2520000000.0 0.4983289311216001 -0.5304120906472257
2540000000.0 -0.576951603704986 0.4395187810794574
2560000000.0 0.6961569555826099 -0.1674781618725303
2580000000.0 -0.5717309964089294 -0.40096469725194117
2600000000.0 0.21865645020578195 0.6378932228925513
2620000000.0 0.5372107947073045 0.35926350383179756
2640000000.0 -0.33427839306507634 -0.5152497942544388
2660000000.0 0.05743307927725787 0.5751150975002289
2680000000.0 0.01787621015063716 -0.5369989341889089
2700000000.0 -0.24225473456951718 0.43304197265624916
2720000000.0 0.37866054268430965 -0.25936317285590943
2740000000.0 -0.4270749418440524 -0.04872489292703365
2760000000.0 0.40340771603490455 -0.05102538248037868
2780000000.0 -0.30859676409155207 0.23137548261113386
2800000000.0 0.1582122897075798 -0.33402320973835337
2820000000.0 -0.23508862370260158 0.2694758461846216
2840000000.0 0.35261267827219145 0.01750646061717856
2860000000.0 -0.2455795082452705 -0.2588206299139498
2880000000.0 0.011274513268300543 0.36207481806437547
2900000000.0 0.3242624208263256 -0.1740496108753413
2920000000.0 -0.2746702706377152 -0.25025401036341954
2940000000.0 -0.32766336703733356 0.17655868742269515
2960000000.0 -0.2678779745005103 0.25331876859359964
2980000000.0 -0.3218817869892986 -0.1750851780807808
3000000000.0 0.2837887071863772 -0.2362802123924019
3020000000.0 0.2609322777455552 0.2643308937754919
3040000000.0 -0.30179342409476 0.20901909556031653
3060000000.0 0.029448869368359734 -0.3580160770991275
3080000000.0 0.018133904334428252 0.34799813819399317
3100000000.0 -0.07099306569937788 -0.33065339088190293
3120000000.0 0.04808540861957537 0.3218190027318111
3140000000.0 -0.0649484411547687 -0.3070801808887623
3160000000.0 -0.14772700616489118 0.259525725275728
3180000000.0 -0.2725596135725124 -0.040077290993179554
3200000000.0 0.08594158509381741 -0.22619285887132012
3220000000.0 -0.15132971364361167 0.13866582829732327
3240000000.0 -0.10256018106238665 0.13814423586012783
3260000000.0 -0.14643454425432886 -0.00032009170758331187
3280000000.0 -0.027464378399991104 -0.12137005619189678
3300000000.0 -0.05450485027578624 -0.08934299667883495
3320000000.0 -0.05597453580546271 -0.05915456022968175
3340000000.0 0.06056345894499738 0.010736117728219906
3360000000.0 0.040066781562139914 -0.023217548187945164
3380000000.0 0.0028772023919875103 -0.03894875994997507
3400000000.0 -0.02972437002183541 -0.016500923971910903
3420000000.0 -0.02039552192874067 0.016907519530162715
3440000000.0 0.019794480780737048 0.01526622374864933
3460000000.0 0.02648558262869512 -0.017039686529410233
3480000000.0 0.023226947998534538 -0.03227831695946672
3500000000.0 -0.04545826380563096 -0.018488840187405885
3520000000.0 -0.002198968915309556 -0.06510234003577799
3540000000.0 -0.07439486753813829 0.034664098122831354
3560000000.0 0.08612214887852586 0.0412389692308927
3580000000.0 -0.0024789682452308233 -0.10651117143911393
3600000000.0 -0.1117286405987134 -0.03076418273885737
3620000000.0 -0.0028848859373880103 -0.12183876851775606
3640000000.0 0.0033960590983180355 0.13022502460291643
3660000000.0 -0.14002760035145773 -0.014902693876897346
3680000000.0 0.004473387642065987 -0.14870147243081322
3700000000.0 0.08984030708775846 -0.1232406080208236
3720000000.0 0.08702128079727499 0.12541846077309887
3740000000.0 -0.0086473040086721 -0.14954342455932473
3760000000.0 0.15198434149451542 -0.019798481165567473
3780000000.0 0.14876268031780662 0.067605144575665
3800000000.0 0.05637644898767089 -0.16627712574259096
3820000000.0 0.004897811411797045 0.18675944156479815
3840000000.0 -0.12464232477630006 -0.14562912990982538
3860000000.0 0.1863435006276168 0.07324232393740845
3880000000.0 -0.10451708934532752 0.18287942627705814
3900000000.0 -0.21951100552024366 -0.017345307931422464
3920000000.0 -0.1934472087281946 0.1173274737192254
3940000000.0 0.018953643872434898 0.22678155797487975
3960000000.0 0.21689502052531964 -0.04447901519592995
3980000000.0 0.053790424138676136 -0.20420485088233215
4000000000.0 -0.17624094489707756 -0.08862417007207862
