!Created with skrf (http://scikit-rf.org).
# Hz S RI R 50.0 
!freq ReS11 ImS11
400000000.0 -0.8404610135616524 0.1953984904204167
420000000.0 0.18657165735516687 0.8226488120805657
440000000.0 0.6133410208733611 0.4926015975807763
460000000.0 0.2603324572168892 0.673854800862007
480000000.0 -0.5349286341563273 0.37718223227719944
500000000.0 -0.5870360525795755 -0.11666658014217357
520000000.0 0.4724191939847471 -0.21998860538530318
540000000.0 0.1476727642847763 -0.439151119152142
560000000.0 0.4064617684931468 0.17388134376409659
580000000.0 0.2556666409025663 -0.30297703905684037
600000000.0 -0.2582312993125437 0.25483475654863136
620000000.0 -0.32601419036299667 0.16374083097273157
640000000.0 -0.042764393396092684 -0.40670998170828243
660000000.0 0.34254622231109677 0.28585659138132175
680000000.0 -0.410288061012464 -0.19409830408776543
700000000.0 0.19131666888089124 -0.39615492700378574
720000000.0 -0.41728449340418816 0.0618734875238234
740000000.0 -0.38752704741929406 0.024627562709781618
760000000.0 -0.10941159232599132 -0.339148247736541
780000000.0 0.12750778314937158 0.2951660985106844
800000000.0 0.28472100734017164 0.09924244528575692
820000000.0 -0.09660906173049584 -0.23684676228360926
840000000.0 -0.187529872915539 -0.09003442276798637
860000000.0 0.1489987932248964 0.07188324712599425
880000000.0 -0.08409089793276212 -0.09053891568928656
900000000.0 -0.045704434415497174 0.07176624862387271
920000000.0 -0.044615965266626194 -0.03249964932500397
940000000.0 -0.01185633392726401 -0.04012776721644716
960000000.0 0.021628994625376482 -0.042513578123924596
980000000.0 -0.00417290473533372 -0.0615567117059768
1000000000.0 -0.0035950463697070577 -0.07610916367778311
1020000000.0 -0.07388145139177703 0.06622079096301678
1040000000.0 0.11311429621088367 -0.038492148471698615
1060000000.0 -0.1208639049993232 0.09049829237942619
1080000000.0 0.12136649238794905 0.13479929974588192
1100000000.0 -0.06737388009568512 -0.2000401573000598
1120000000.0 -0.2330907675310975 -0.06728593845002251
1140000000.0 -0.10462907502127267 -0.24923658906386706
1160000000.0 -0.12350173645071381 0.27184024067136503
1180000000.0 0.049648340166242644 0.3192798472847859
1200000000.0 -0.280955801359503 -0.18747171167815008
1220000000.0 -0.17892160467532936 0.313093307357752
1240000000.0 0.37283620949076335 -0.07874163104037124
1260000000.0 -0.10744358387595272 -0.3841599698340556
1280000000.0 -0.36219370269813195 0.1956951967691543
1300000000.0 0.002901946923431435 0.41725163403711446
1320000000.0 0.3655577731229739 0.20925994297812206
1340000000.0 0.366950567000798 -0.19727483775783405
1360000000.0 0.32600281474354953 -0.2422962937961311
1380000000.0 0.34030995537366937 -0.19871401883875964
1400000000.0 0.18583052238156317 -0.33226307854943854
1420000000.0 -0.04524827134936844 -0.3588057373743511
1440000000.0 -0.3409720493040561 0.004561559607506283
1460000000.0 -0.014135508652903655 0.3128481242611171
1480000000.0 0.2496899429514881 -0.14542484895106164
1500000000.0 -0.14804477869690894 0.20748937904737186
1520000000.0 0.20682650044985842 -0.07937437505512661
1540000000.0 0.016524728889405833 0.17830895432897118
1560000000.0 0.0658133481802258 -0.1279347146023182
1580000000.0 0.08042691357510275 0.07711918135805775
1600000000.0 0.004256643282186326 -0.07713396032868804
1620000000.0 -0.05003796162529001 -0.01944201948801468
1640000000.0 0.027610493981499257 0.010934964338570293
1660000000.0 0.003037393486605872 0.010185189236108217
1680000000.0 -0.014118194002878661 0.0038856203625612547
1700000000.0 -0.01719813605544566 0.03105573204805609
1720000000.0 -0.020423854251071627 -0.0488490649130592
1740000000.0 0.04048276991504607 0.060224158665144745
1760000000.0 0.01518537821293644 -0.08801044253937873
1780000000.0 0.10551809560428108 -0.027655191135001207
1800000000.0 -0.052417374256111794 -0.13024877281948502
1820000000.0 -0.13904855827599594 0.10481382308735808
1840000000.0 0.17748002132203514 -0.12498538672881851
1860000000.0 0.23275099098695642 -0.1217563926366556
1880000000.0 0.28117219068566607 -0.09377688816770291
1900000000.0 -0.17446323056215068 0.2688482394673375
1920000000.0 0.30362691722409346 -0.1670834892417679
1940000000.0 -0.3491369521914799 -0.12808926344935345
1960000000.0 0.0728854977772221 0.3846981156232186
1980000000.0 0.39308448723593553 -0.1106803058266369
2000000000.0 -0.14894105010094266 -0.39526742283312705
2020000000.0 -0.4020236558127451 0.1535480217741939
2040000000.0 0.20913293048100248 0.37761881951902837
2060000000.0 0.39794013323033284 -0.1475348913087437
2080000000.0 0.1360013895958737 -0.38885679939428736
2100000000.0 0.0014925273899219717 -0.3999847031930247
2120000000.0 -0.16930381782894388 -0.34913286067767363
2140000000.0 -0.3685771331547312 -0.04699977989974661
2160000000.0 0.09014929739944763 -0.33897883650467064
2180000000.0 0.22797152428794518 -0.24352203719555923
2200000000.0 0.3010636733051506 -0.10957167671070718
2220000000.0 0.2694538158668762 0.16057251055995742
2240000000.0 0.30548259784859955 0.0964794547198309
2260000000.0 0.15572310783606966 -0.28919962993935533
2280000000.0 -0.32659991565399255 -0.09499562661643307
2300000000.0 0.19716647195238962 0.3025774037357896
2320000000.0 -0.18851416724843306 -0.34134287665247115
2340000000.0 0.3662381765182011 0.21708269275810851
2360000000.0 -0.45325155871691275 0.11779356119380714
2380000000.0 -0.016049810289286266 -0.5195916074879854
2400000000.0 0.5531811102371559 -0.14419851211006118
2420000000.0 0.3711147202774475 0.49471436796206114
2440000000.0 -0.4487908773952368 0.48096785875281345
2460000000.0 -0.38316148434533837 -0.5708652103786045
2480000000.0 0.7054857882622881 0.07204559959879803
2500000000.0 -0.7195402806899932 0.062187513070259645
2520000000.0 0.7270247774673818 -0.00799259102309938
2540000000.0 -0.715110937940794 -0.11615101911003019
2560000000.0 0.5223374348139777 0.4886366788798748
2580000000.0 -0.1093282473533011 -0.6883468026348796
2600000000.0 -0.42191675829872227 0.5235982139742055
2620000000.0 0.10013833924726886 0.6360183686474501
2640000000.0 0.22652923252496984 -0.5674710444461165
2680000000.0 0.36179780680205176 -0.39097270808950946
2700000000.0 -0.4553323222283407 0.18656652194387885
2720000000.0 0.453429726870005 0.03390922517051734
2740000000.0 -0.3528644287914485 -0.2399857796053155
2760000000.0 0.394397631128947 0.08757255705643975
2660000000.0 -0.35328487893643284 0.4522241946889244
2780000000.0 -0.3391027418972638 0.17973064075279302
2800000000.0 0.18298442515884739 -0.31774770684033066
2820000000.0 -0.24963964966822727 0.25188629524423056
2840000000.0 0.3496136370159325 0.028895022061470956
2860000000.0 -0.24802999237061632 -0.2543870002128851
2880000000.0 -0.0014985712546206717 0.3615872620585169
2900000000.0 0.31210600968030494 -0.19362666925121977
2920000000.0 -0.28065514660236546 -0.24186412678281333
2940000000.0 -0.3350169184635465 0.1604535693349645
2960000000.0 -0.318081773184849 0.1841187238258033
2980000000.0 -0.29716688157770654 -0.2123010585408096
3000000000.0 0.30975621586179375 -0.19944582389100965
3020000000.0 0.25543753091951327 0.2674326784612423
3040000000.0 -0.3048326101557528 0.20229218043392827
3060000000.0 -0.022895505436536193 -0.35692105112626854
3080000000.0 0.06080433613980946 0.34117282099172785
3100000000.0 -0.09684869201420561 -0.32174776764614366
3120000000.0 0.10752501827266997 0.30484694410017715
3140000000.0 -0.17015677588697192 -0.26198983648910257
3160000000.0 0.0033539639103464963 0.29744771511021156
3180000000.0 -0.23391034087980597 0.14359465261232926
3200000000.0 -0.15871551327764005 -0.1826604845632365
3220000000.0 0.1429805884042403 0.14570773709084328
3240000000.0 0.16776212242181937 0.038464620680318036
3260000000.0 0.11043619019173999 0.09495366996912341
3280000000.0 0.0808058758209671 0.09256554235382397
3300000000.0 0.0972935587948864 -0.03393517023228196
3320000000.0 -0.0516208772900534 -0.06043111736277391
3340000000.0 -0.031258507140813956 -0.04824291521204343
3360000000.0 -0.0410681685530107 0.0010358454762296257
3380000000.0 0.03249989045186229 -0.004127521565575847
3400000000.0 0.005040229279090358 0.02716865126278112
3420000000.0 0.020686182337454846 -0.012238394400723707
3440000000.0 0.021965110013181372 0.020920166262344168
3460000000.0 0.0017295929465141581 0.040632652602618335
3480000000.0 -0.036155979096031715 -0.0343607498511038
3500000000.0 -0.05655941745190459 0.018155359975622076
3520000000.0 0.02002667367361694 -0.0729777410653159
3540000000.0 -0.08252333307105993 0.04352681820595143
3560000000.0 0.04339807557740662 0.09708017495589258
3580000000.0 0.060573879417586324 -0.10054386308140521
3600000000.0 -0.05747737413558709 -0.11166738640559444
3620000000.0 0.09266542178071889 -0.09081098427154038
3640000000.0 -0.0468375005450171 0.1287958871171288
3660000000.0 -0.1292401677713475 -0.06942420071987297
3680000000.0 0.021407868269232147 -0.1515358912121574
3700000000.0 0.0788117774209025 -0.13229437432241403
3720000000.0 0.09949917763627715 0.11356811883625259
3740000000.0 -0.054369882450020196 -0.13524903277569295
3760000000.0 0.14302524137938807 0.02993160587151632
3780000000.0 -0.062327066799364526 0.13978502497215695
3800000000.0 0.02823363708169681 0.15978941485105957
3820000000.0 0.10725571802127033 -0.13456179656367523
3840000000.0 -0.143149797157579 0.10273323743024636
3860000000.0 0.18297236009347886 0.023567068063187268
3880000000.0 -0.1531734988138674 0.12153272273595535
3900000000.0 -0.1766306290957331 -0.10537773431478037
3920000000.0 -0.20848317664326796 -0.025419762851641305
3940000000.0 -0.15210514588074567 0.14485884928297424
3960000000.0 0.12435213900449134 0.16238396950612724
3980000000.0 0.19452993603276075 -0.00948003402572735
4000000000.0 0.07645695277565902 -0.16514550565718977
