!Created with skrf (http://scikit-rf.org).
# Hz S RI R 50.0 
!freq ReS11 ImS11
400000000.0 -0.8630071269780226 -0.03239079585295333
420000000.0 0.22222852289549772 0.8139201756006154
440000000.0 0.6649674157712344 0.4291593643428708
460000000.0 0.5510118269521754 0.47246664509020997
480000000.0 -0.16479419160684267 0.6289846587623658
500000000.0 -0.46611834119429296 0.3666612633940186
520000000.0 0.27915807634456535 0.4209979189677041
540000000.0 0.43123323897866234 0.1984943672555054
560000000.0 0.14415066485436673 0.4227663149365497
580000000.0 0.4021006104680579 0.04918387253846757
600000000.0 -0.37220319700163107 0.024780536165338003
620000000.0 -0.2697851014931372 0.25240821829066384
640000000.0 -0.22009301507000598 -0.3511772291643103
660000000.0 0.3565138547782458 -0.2696706726378612
680000000.0 -0.3747133955140728 0.26361257314175407
700000000.0 -0.3419292876339604 -0.2784028061699195
720000000.0 0.3078239862276117 0.2830193951698419
740000000.0 0.2388372600233963 0.28096464457599685
760000000.0 0.0694327341328261 0.3222804905387628
780000000.0 -0.21283878086470737 -0.24983611097848443
800000000.0 -0.2419112976861027 -0.18089616819438145
820000000.0 0.15134104322793387 0.2335819266895367
840000000.0 -0.14962530330221568 0.18316240325396982
860000000.0 0.027900155075329305 -0.18865873062661126
880000000.0 -0.03284713290739847 -0.1243654396675214
900000000.0 0.021296229316596547 0.06488484092317409
920000000.0 0.02725108981447937 -0.017723490190799458
940000000.0 0.020461008330140897 -0.0056662866057432355
960000000.0 0.009428539711964619 0.02955524938527056
980000000.0 0.037886034118746616 0.03794106426897834
1000000000.0 -0.04768008151925996 -0.055775365208846024
1020000000.0 -0.04383032038866034 0.08095388092547733
1040000000.0 -0.04525746115856969 -0.11189590250874384
1060000000.0 0.14689671703206553 -0.03579225976911051
1080000000.0 -0.1863475414267836 0.03196958152532418
1100000000.0 0.13276081130474798 -0.17900329820638697
1120000000.0 -0.24622156034334303 -0.08002707204223976
1140000000.0 0.07522241213153309 0.2792567201967138
1160000000.0 -0.2897365949644138 -0.08798776283207725
1180000000.0 -0.025348823889555158 -0.3084730858251794
1200000000.0 -0.2996279145113537 -0.11676448349318143
1220000000.0 -0.34733876370044253 -0.022130678568357855
1240000000.0 -0.12159945376362574 0.35804405877273526
1260000000.0 0.40212209216122763 -0.05057234430466993
1280000000.0 -0.38295147834319276 -0.18309442956281471
1300000000.0 0.20222998122300873 0.3837177380517267
1320000000.0 0.22334898783246862 -0.36415432396493047
1340000000.0 -0.12104273699563246 -0.40168646694195537
1360000000.0 -0.2734209413261546 -0.2930305244943958
1380000000.0 0.2770261338604586 -0.2625494901918436
1400000000.0 0.3333467920126469 0.16703488778120434
1420000000.0 0.364660391955308 0.02872443352534656
1440000000.0 -0.19288428879478567 -0.2933148355005278
1460000000.0 0.006343149560575883 0.32698473518023313
1480000000.0 -0.2647045868170648 -0.1342556201680055
1500000000.0 0.25029635965975844 -0.004733973596610925
1520000000.0 0.20514153587629486 -0.050510069592310684
1540000000.0 -0.09932945352434053 -0.14496673345990818
1560000000.0 -0.11564121885950877 0.08687051967288059
1580000000.0 -0.1156244798697341 -0.0008348863106899371
1600000000.0 -0.019315246921273063 -0.08002025537556645
1620000000.0 0.010505336678339553 0.04826979854147859
1640000000.0 0.02427982707129574 -0.008648161463630528
1660000000.0 0.01252704750646752 -0.001708432832871841
1680000000.0 0.011682754887095614 0.01857646161433798
1700000000.0 0.03131974549121438 0.018036289615772076
1720000000.0 -0.00695477827492023 0.04781150563236263
1740000000.0 -0.05537797850107756 0.04008288483750815
1760000000.0 -0.050768894230416875 0.07778737570637771
1780000000.0 0.0664449455217802 -0.10543934322759947
1800000000.0 -0.08340268617132073 -0.13647222797405287
1820000000.0 0.11511403245045462 -0.14639490693259632
1840000000.0 -0.11967471357342326 0.1819726673512727
1860000000.0 -0.041331973299041244 -0.2498682821378125
1880000000.0 0.16236670797571584 0.23718386408205822
1900000000.0 -0.23740514898342274 -0.21484084862184635
1920000000.0 0.2439128339024301 0.2518859035059743
1940000000.0 -0.17531950036648597 -0.33461467890069846
1960000000.0 -0.004412044748235972 0.3999711182635978
1980000000.0 0.2917568602700975 -0.29473931086242094
2000000000.0 -0.3837469752033014 -0.18097119368926048
2020000000.0 -0.28844584348268193 0.31702624720122996
2040000000.0 0.20946431147955055 0.3756253947261105
2060000000.0 0.41475902480879057 -0.08281291071679187
2080000000.0 0.21660436787834267 -0.35219687924243676
2100000000.0 -0.13444440003548902 -0.3756955587392442
2120000000.0 -0.24839141891037803 -0.29698201331203755
2140000000.0 -0.3603651432026773 -0.08007189006857769
2160000000.0 0.14499432272242127 -0.3224716619944065
2180000000.0 -0.07011437786068349 -0.33146482010702105
2200000000.0 -0.17711655845647983 -0.27282255030258057
2220000000.0 -0.1258562591638019 -0.29011883713881803
2240000000.0 -0.1557163305859355 -0.27651216188172256
2260000000.0 -0.31273765331697245 -0.0949096330988118
2280000000.0 -0.08454344710518645 0.3353466791044874
2300000000.0 0.2858000780614409 -0.23828168503455724
2320000000.0 0.03183024222797331 0.4043593958916944
2340000000.0 -0.4190957045844827 -0.14153158121506865
2360000000.0 0.38079395554850043 -0.2998275338820125
2380000000.0 0.28624433311885134 0.450293866573414
2400000000.0 -0.39788854222527065 0.42821305987594366
2420000000.0 -0.587317267526452 -0.23338057904370177
2440000000.0 0.07581672531864783 -0.6684026462055364
2460000000.0 0.6938084320816685 0.12033072164586961
2480000000.0 -0.4825269744362683 0.5415341810613337
2500000000.0 0.26608869214128167 -0.687369125377227
2520000000.0 -0.2642678124396777 0.6917127830923601
2540000000.0 0.5367118416773959 -0.5004307247841764
2560000000.0 -0.5013883056190607 -0.5076203131145511
2580000000.0 0.5181827800043187 0.4829209651335645
2600000000.0 -0.12335213530648936 -0.6720059505523451
2620000000.0 -0.5551150510786411 -0.3368767182418203
2640000000.0 0.4660840304329416 0.4036105749753858
2660000000.0 -0.008903221226292632 -0.5716609852906321
2680000000.0 -0.2541760405343682 0.4693560209723102
2700000000.0 0.48900016480315345 -0.03237928556596474
2720000000.0 -0.2500406231622716 -0.37823614264364486
2740000000.0 0.017724097991026817 0.42878125924838006
2760000000.0 -0.07756504726921765 -0.40084360713909845
2780000000.0 0.3194808955904194 0.22196115025486476
2800000000.0 -0.3407585986145061 0.14739678005678525
2820000000.0 0.3412132967544749 -0.1101283012316055
2840000000.0 -0.26897074420275 -0.2302319919780487
2860000000.0 -0.24860910963929808 0.2535645539228685
2880000000.0 0.14976324466015425 0.3290694505625641
2900000000.0 0.35954704269316706 -0.09700434212700952
2920000000.0 -0.09853520031138889 -0.36953050097062706
2940000000.0 -0.3251867584988998 0.206609536237834
2960000000.0 -0.15121579169619553 0.3462608333851768
2980000000.0 -0.3718650297980583 0.0265690187567143
3000000000.0 0.12389422889485124 -0.34729431734119576
3020000000.0 0.024710825823406952 0.36458473976269823
3040000000.0 -0.21778983578403413 -0.2924185446068771
3060000000.0 0.35288244856696677 0.07798651225545336
3080000000.0 -0.34154374777087876 0.09365813271594417
3100000000.0 0.3071867552781147 -0.15925427797507308
3120000000.0 0.0703407003327144 0.3315782714150746
3140000000.0 -0.3026157182938338 0.10088706328295226
3160000000.0 0.21366925721834987 0.19887323619659789
3180000000.0 -0.0646621250355585 -0.25309753883279684
3200000000.0 0.18667325302144827 -0.14093560691289567
3220000000.0 0.0006153533902911667 -0.2152007267902838
3240000000.0 -0.10525762475489428 0.1657979174264383
3260000000.0 0.02784605256288524 -0.16602574186435057
3280000000.0 -0.12571601384796777 -0.05035997172402156
3300000000.0 0.10058117383047768 0.03715292037986443
3320000000.0 0.0030670034719942458 0.08931818990304555
3340000000.0 0.012297492758563492 0.08091129957784322
3360000000.0 -0.07764650220867453 -0.008768107683711234
3380000000.0 -0.04546538158769095 -0.06063790676410792
3400000000.0 -0.06573033779313568 -0.009197977747984858
3420000000.0 -0.04850497159302027 -0.01710097718848079
3440000000.0 0.03434870843326632 -0.01563017760317839
3460000000.0 -0.036140701956823236 0.012385011016419084
3480000000.0 0.019093288906165094 0.04095693082079656
3500000000.0 -0.002697178463729764 -0.05740234424590426
3520000000.0 -0.036497856307392516 0.062162521988548
3540000000.0 -0.02844732902146451 0.08183141475886332
3560000000.0 -0.10020722724845976 0.014749783939860529
3580000000.0 0.07637812674691231 0.08863231361134359
3600000000.0 -0.12451590737128207 0.029440565171645307
3620000000.0 -0.016596312398994527 0.13511045355486132
3640000000.0 -0.02367628197726894 0.1388327578658553
3660000000.0 0.014014914513851182 0.165147666703942
3680000000.0 -0.14420338220657714 0.14785944451038735
3700000000.0 -0.2367978181968958 -0.02012128106160116
3720000000.0 0.032739239403059256 0.25676386302810317
3740000000.0 -0.23081795556409002 -0.07969700524860782
3760000000.0 -0.13166976859333054 -0.2074381514667217
3780000000.0 -0.06748022033394996 0.23855130661720914
3800000000.0 -0.20231640107472829 -0.1578608642135461
3820000000.0 -0.02797798048652445 0.2558858618957346
3840000000.0 -0.24423150607846633 0.061050287972627
3860000000.0 -0.25011599353910446 -0.05246737916319162
3880000000.0 -0.0535262822046728 0.26954401466442574
3900000000.0 0.22278329741373418 -0.16488794470349447
3920000000.0 0.2032255828159876 0.16033353664244754
3940000000.0 0.09366772777645233 0.2285354903166054
3960000000.0 -0.2284423810306506 0.07270460926014408
3980000000.0 -0.1441279285466 0.18519506180837972
4000000000.0 -0.02388662853801307 -0.22312148684431415
