!Created with skrf (http://scikit-rf.org).
# Hz S RI R 50.0 
!freq ReS11 ImS11
400000000.0 -0.8117654777441149 -0.2574491119919318
420000000.0 -0.29226711210298684 0.7908748656696653
440000000.0 0.3908211329358185 0.6853692504110044
460000000.0 0.6222410477306163 0.37393258535092244
480000000.0 -0.6439829465543054 0.036581298926093415
500000000.0 -0.07000735305928543 -0.6039757081099336
520000000.0 0.4926497722587857 -0.21162395735163836
540000000.0 -0.1468920127645906 -0.4491403973664554
560000000.0 0.42212310862112007 -0.14946346063254082
580000000.0 0.10934897371771142 -0.3791132300005877
600000000.0 -0.14976841068381413 0.33187236539826714
620000000.0 -0.324370310872245 0.14606235708653334
640000000.0 0.30950266459638415 -0.27062665210919284
660000000.0 0.3683505387181848 0.25823923985838415
680000000.0 -0.4649513370711781 0.008558478037887052
700000000.0 -0.4026489381771917 0.18160525312387374
720000000.0 0.012383735185643804 0.40835818475135255
740000000.0 -0.2796633179165836 -0.23283536299019963
760000000.0 -0.34999156639272294 0.06619638456035784
780000000.0 -0.12511233355045576 0.32427380082795276
800000000.0 0.10792120246369337 -0.29824608594179186
820000000.0 0.2552703268571144 -0.08305204980651867
840000000.0 -0.1306811878858088 0.14879575049386057
860000000.0 -0.139207765042316 0.03629763490620017
880000000.0 -0.034282697201528135 -0.09429436948981593
900000000.0 -0.06840306062834277 0.016388241270203167
920000000.0 -0.0449861920355575 0.022314517438138733
940000000.0 0.016006809107703152 -0.030064125997975713
960000000.0 -0.039665909486242816 -0.031393699358534005
980000000.0 0.0055454865552668625 0.07211244389007505
1000000000.0 -0.014544704725491528 0.09018378772528347
1020000000.0 0.03493817810487452 -0.11167660186732445
1040000000.0 -0.06991750199950554 -0.11203193874350045
1060000000.0 0.16367339769134612 0.024488058168636567
1080000000.0 0.036505366472204544 0.1912157567154467
1100000000.0 0.030576575196086073 -0.21041411681501415
1120000000.0 -0.014309682600413948 -0.2335067878849745
1140000000.0 -0.14870713897926 0.20203544182210836
1160000000.0 -0.2839200088873376 0.011717123203442278
1180000000.0 -0.26841254685763416 -0.16879526701119327
1200000000.0 0.34400056526134654 -0.03686813708568822
1220000000.0 -0.3677041507623336 0.06950705344151752
1240000000.0 0.2580917199339604 -0.3010954654140943
1260000000.0 -0.34221891571383956 0.220062760560932
1280000000.0 0.22081922573833637 0.34404404704799746
1300000000.0 0.3469452995392573 0.21859332046716415
1320000000.0 0.3453740751046651 0.21449075980950133
1340000000.0 0.0396133044208573 0.40674332430414784
1360000000.0 0.07241979824961257 0.40544122900237006
1380000000.0 0.3373403212147822 0.2286360098000504
1400000000.0 0.05611081799774654 -0.39056423459265044
1420000000.0 -0.3604329739381112 0.0870794403743178
1440000000.0 0.18264388438340193 0.29059192372755854
1460000000.0 0.29434321018833953 -0.09094053340765844
1480000000.0 0.05876209045990642 -0.2725153431568558
1500000000.0 -0.21754375350539343 0.11271617369321389
1520000000.0 -0.10001727247614649 0.19328000413421398
1540000000.0 -0.08987275148780487 -0.15705726233150774
1560000000.0 0.021407872582234477 0.14940296494015023
1580000000.0 -0.025751345355276713 0.11846622989818428
1600000000.0 -0.04015331392935744 0.07794794424053643
1620000000.0 -0.04449900573295449 0.030130268612204456
1640000000.0 -0.024455004151333795 -0.009236288195636412
1660000000.0 -0.0030242292748285044 0.008054780161204901
1680000000.0 -0.02120973974027637 -0.0018794076540231855
1700000000.0 0.03288331667535516 0.028300741968147358
1720000000.0 0.0449380086835047 0.03036493228004883
1740000000.0 0.06586948255670083 -0.019646223765119774
1760000000.0 0.022441219988272712 0.0818939751898783
1780000000.0 -0.02690186624339088 -0.10902433485263704
1800000000.0 0.12972863468184892 -0.07420196089290092
1820000000.0 -0.13049998513923403 0.12405748111494465
1840000000.0 0.15894830177725605 -0.1512106989781865
1860000000.0 0.2383798475995775 0.10278867225988643
1880000000.0 0.040818384170563535 0.2948991690771471
1900000000.0 -0.31927356875795126 0.0660115125637417
1920000000.0 0.3275786062285229 -0.1249862456632444
1940000000.0 -0.34714883124210744 -0.1338077537514864
1960000000.0 0.17228450136570897 0.34921817070033795
1980000000.0 0.37229686987765864 -0.1519694139788797
2000000000.0 -0.02838711075787636 -0.41367217519969984
2020000000.0 -0.4033488879744525 -0.1255037328738227
2040000000.0 -0.20277416221646424 0.37880352631346015
2060000000.0 0.42168929761926277 -0.06733464619743298
2080000000.0 -0.10274219052915634 -0.40141821225154134
2100000000.0 -0.3744544794495399 -0.12869172708476906
2120000000.0 -0.3675071351995512 -0.09300722353253087
2140000000.0 -0.3624861338396131 -0.01705746201539692
2160000000.0 0.1387988562547239 -0.314102276991122
2180000000.0 0.23130074537345194 -0.2335084782004584
2200000000.0 0.2688444118300619 -0.16892292825091126
2220000000.0 0.2968480292827025 -0.09935253904409644
2240000000.0 0.17975349860187825 -0.2597286953125527
2260000000.0 -0.2845263446269399 -0.14855393488294072
2280000000.0 -0.16461843910488808 0.28630398292780745
2300000000.0 0.34731440487521725 -0.03325155061701977
2320000000.0 -0.3463666888910795 -0.14886019591117422
2340000000.0 0.4089471201950135 0.07109315067228207
2360000000.0 -0.3835509751236295 0.2542127072944451
2380000000.0 -0.222792163145655 -0.4605803489805722
2400000000.0 0.49653055509064553 -0.2685241227380345
2420000000.0 0.4783953762388159 0.3856878532814526
2440000000.0 -0.28405663424681143 0.5928929119150955
2460000000.0 -0.564638383710463 -0.3959787403076348
2480000000.0 0.6695642628601982 -0.25051214985874587
2500000000.0 -0.5230900281341461 0.509293449991832
2520000000.0 0.4831410060310786 -0.5590956274294285
2540000000.0 -0.5706173855543403 0.4705072084910386
2560000000.0 0.7048806549043029 -0.1980546772252943
2580000000.0 -0.6611948453262062 -0.2779080445019624
2600000000.0 0.44199105569373565 0.5353793893033697
2620000000.0 0.6586738668567632 0.10727870608185679
2640000000.0 -0.5316125457723384 -0.3517597465109084
2660000000.0 0.3350987376949244 0.5008479111050017
2680000000.0 -0.28010563721587056 -0.4920139678094068
2700000000.0 0.2264903190650948 0.47554789472120784
2720000000.0 -0.17233175442078577 -0.4563426352551462
2740000000.0 0.08361260642009812 0.445501003590117
2760000000.0 0.12160726252823811 -0.40605639060840126
2780000000.0 -0.3517992748771044 0.1994975923582105
2800000000.0 0.3947157057241204 -0.014894446276082392
2820000000.0 -0.39054076727813847 0.018511020624103248
2840000000.0 0.3314053738282519 -0.20237214840098194
2860000000.0 -0.3703483012895325 0.10673994629746458
2880000000.0 0.3019149822900891 0.2392650937255427
2900000000.0 0.28799794181053895 -0.25492390543828947
2920000000.0 -0.13146404072687115 -0.3649274585814684
2940000000.0 -0.2746897256398656 -0.27238943067607596
2960000000.0 -0.10816656540632194 -0.3719444596020791
2980000000.0 0.24521950951968996 -0.29990531923266955
3000000000.0 0.3447281255169841 0.17957342082513086
3020000000.0 -0.18943188918696433 0.3363223406974567
3040000000.0 0.014589918878792671 -0.37903081274285444
3060000000.0 0.08945641295827685 0.3645789845822892
3080000000.0 -0.18779624862468738 -0.3148463207301612
3100000000.0 0.23851080190917703 0.2650541799501037
3120000000.0 -0.3383507992750534 -0.05522319262996865
3140000000.0 0.31001667952547357 -0.09997918830048648
3160000000.0 -0.26554207895496 0.1432460700957784
3180000000.0 -0.10471470439251587 0.2548300591016514
3200000000.0 0.24458844585011966 -0.04277636718926168
3220000000.0 -0.06843360260760661 -0.20692055998810494
3240000000.0 -0.08483645095342805 -0.17082803704181554
3260000000.0 0.05259355156319737 -0.1534502001614113
3280000000.0 -0.06624721938008056 0.12077150214844017
3300000000.0 0.10124109816604346 0.0658782414012455
3320000000.0 0.04458439399717379 -0.09786946517582262
3340000000.0 -0.07550141031425757 0.06498736909557165
3360000000.0 -0.05300214975432699 0.07588242934019239
3380000000.0 -0.01134200916156198 0.08397691733967844
3400000000.0 -0.06352667355586318 -0.042611371323515494
3420000000.0 0.05395145096234026 -0.037589148163499154
3440000000.0 -0.04188623476840987 -0.04110870813301981
3460000000.0 -0.0026728708665275996 -0.05717211994853399
3480000000.0 0.04025466729256137 0.04382072046567643
3500000000.0 -0.035926721556756906 -0.05715945080261882
3520000000.0 -0.05476298721070055 0.062160550382512524
3540000000.0 -0.05832963997999652 -0.07893791646007117
3560000000.0 -0.09315979943206142 0.06649603506318913
3580000000.0 -0.11863628815873989 -0.055351109590781114
3600000000.0 0.13878754121644776 -0.05762366926631723
3620000000.0 -0.1618684444841609 0.05606515551259916
3640000000.0 0.18822356766260348 -0.038942284838917735
3660000000.0 -0.14397075043928104 -0.1525315769473021
3680000000.0 -0.2169065584441365 0.06270385984078274
3700000000.0 0.11339151551889978 0.21213110470794308
3720000000.0 0.20779553081357224 -0.1431199673631599
3740000000.0 -0.14954272709270078 -0.212457059688996
3760000000.0 0.05271534241171154 -0.26282959296346814
3780000000.0 0.2215118106062086 -0.16465278176492912
3800000000.0 0.27890317483502836 -0.04354984510050139
3820000000.0 0.22684945377761345 0.17452057378274452
3840000000.0 0.27487334845478656 0.07711766562553352
3860000000.0 0.26605963997175713 0.09136218021722883
3880000000.0 0.20654410368754775 0.18901133942605075
3900000000.0 0.1884486815788742 0.19886961752633453
3920000000.0 0.2574183776992599 0.08187733207551506
3940000000.0 0.2644431531102934 0.01698884249855983
3960000000.0 0.06325236228865042 -0.24974620549732748
3980000000.0 -0.002831318031663489 -0.2500492482718083
4000000000.0 0.08731546679311311 0.2143582419039554
