!Created with skrf (http://scikit-rf.org).
# Hz S RI R 50.0 
!freq ReS11 ImS11
400000000.0 -0.6103541810858035 -0.5505434154592154
420000000.0 -0.8333116338930978 -0.06461748777625495
440000000.0 -0.4087347588361701 0.6653878011597185
460000000.0 -0.7099457953588704 0.1271403775205286
480000000.0 0.36140882919302436 -0.5513929104351974
500000000.0 0.6202662958209081 -0.15695693381190542
520000000.0 0.5603480682912801 0.08181606673476856
540000000.0 -0.47208026796993235 0.18831162487587794
560000000.0 -0.41820002982321086 -0.20435372895773085
580000000.0 0.10741325702317348 0.39057335203723753
600000000.0 0.28944231338464965 -0.22517108413636638
620000000.0 0.12705575982466458 -0.34443189634335075
640000000.0 -0.2604121597655589 0.3065233945126935
660000000.0 0.363688360265419 -0.2370579365610585
680000000.0 -0.21745441726993922 -0.38725226169406773
700000000.0 0.43204974478210467 -0.1035597425638941
720000000.0 -0.3815722886500809 -0.18731283537456306
740000000.0 -0.30346919207321205 -0.24461344092638876
760000000.0 0.07208336049493981 -0.36036875609179453
780000000.0 -0.05478924977803369 -0.3215789524281829
800000000.0 0.12836503402365534 -0.2523152989324863
820000000.0 0.16176467238553774 -0.16909099217093332
840000000.0 -0.18783794793351102 0.03951781714837409
860000000.0 -0.0988834290800486 0.12469935730203448
880000000.0 0.11984425565609284 0.04210379028468722
900000000.0 0.01786003090471929 0.09281050593125066
920000000.0 -0.05171725550245727 0.037763429107309746
940000000.0 0.05295003072466016 -0.0015024725766089513
960000000.0 -0.034292270912638166 -0.04813215917662926
980000000.0 -0.002742238067750185 0.05901004625424266
1000000000.0 0.05428818864869468 0.0455112402193042
1020000000.0 -0.08918866963037925 -0.05703203467485613
1040000000.0 -0.10971844770808212 0.08826142699594548
1060000000.0 -0.028400250511348486 0.16211360718516127
1080000000.0 0.1129280195297613 -0.15779896663475584
1100000000.0 0.17020772993831104 0.12377534665134944
1120000000.0 0.013477646636836232 -0.23103267421379545
1140000000.0 0.14192028191759773 0.23619201657891872
1160000000.0 -0.2844275950934249 0.131275375398897
1180000000.0 0.3229818742587354 0.0782710830918562
1200000000.0 -0.2866241526034479 0.179646507249096
1220000000.0 -0.000892645291608505 0.3536775858376289
1240000000.0 0.3058706258603109 -0.21286787959259035
1260000000.0 0.34895183269826946 -0.1673163598392465
1280000000.0 -0.38489771099009273 -0.15007385254637906
1300000000.0 0.03314475021902885 0.40334181354564824
1320000000.0 -0.18355501220430517 0.35813073367754283
1340000000.0 -0.3158211914795188 0.26264761226884387
1360000000.0 0.1384577854175044 0.3894238915724931
1380000000.0 0.3483342346603188 -0.1933923858712415
1400000000.0 0.319074315413855 -0.20320693072456258
1420000000.0 -0.08671559106419291 -0.3503381192024972
1440000000.0 0.05852796545732077 0.3370516274120449
1460000000.0 0.25555928935939826 -0.16062637943723584
1480000000.0 0.1678190637494697 -0.21901146126395493
1500000000.0 0.16586662276997924 0.17885779354952613
1520000000.0 0.18146989078787107 -0.11498923670640485
1540000000.0 -0.1723865670529101 0.0015599966012295504
1560000000.0 -0.09584815539231314 0.07333489956095637
1580000000.0 0.08612614056820507 0.03903830832822615
1600000000.0 -0.07673787687444965 0.0025198624120539026
1620000000.0 -0.03715055699689572 -0.0539268986123772
1640000000.0 0.02567865247272766 0.04453973495132661
1660000000.0 0.02159356742009323 -0.021787474376130857
1680000000.0 -0.00036718616753598056 -0.02032422335710013
1700000000.0 -0.04126504246027938 -0.017823752575731298
1720000000.0 -0.02745570753201619 0.055824266370291926
1740000000.0 -0.0722347816938842 0.005452610412196231
1760000000.0 0.06745709949243132 0.035638843198844486
1780000000.0 -0.01941242796272399 0.09051411863764697
1800000000.0 -0.07118666175916247 0.11732715452058311
1820000000.0 -0.16605962917297934 -0.07590493637652486
1840000000.0 -0.007850407886870834 -0.22807512911470737
1860000000.0 -0.057840478442259764 0.2589276344604937
1880000000.0 -0.14138349311281515 0.24788089590471132
1900000000.0 0.30411257477374887 0.011670419618435911
1920000000.0 0.3286191886129706 -0.039188416454674475
1940000000.0 0.2259899686222676 -0.2978570154885456
1960000000.0 0.057373940886672026 0.4036119382942083
1980000000.0 -0.1734709212761559 -0.38388537818019747
2000000000.0 -0.11373325021414224 0.4069575496798963
2020000000.0 0.09258098671012685 0.4065420341774124
2040000000.0 -0.23630004571127597 0.35068400645861353
2060000000.0 0.1011410381181123 0.41827244216237897
2080000000.0 0.3945780439724107 -0.1648779321385365
2100000000.0 -0.32399487619365114 -0.2611397273957092
2120000000.0 -0.38476015056127094 0.08115057005776477
2140000000.0 -0.37041618735481174 0.014487342713802653
2160000000.0 0.31792565219770563 -0.15077414173532194
2180000000.0 0.2519807671602801 0.22710375341404102
2200000000.0 0.2090835216625433 0.2685536597389562
2220000000.0 -0.14233071671532 0.30103665040291816
2240000000.0 0.19691673442198862 0.2790649429498353
2260000000.0 0.3293711521441248 -0.10964248113621049
2280000000.0 -0.030628685815662315 -0.35705543075358276
2300000000.0 -0.35593084675463776 0.12750181179418368
2320000000.0 0.3463758722739694 0.22275999393319248
2340000000.0 -0.39067070101044216 -0.2381498177465859
2360000000.0 0.3980640575052034 -0.30408592437965953
2380000000.0 0.45753958305395703 0.28964569095207704
2400000000.0 -0.09071491725221754 0.579025026677516
2420000000.0 -0.5898317526276166 -0.22531696971201776
2440000000.0 0.14061471710459864 -0.6534431772166859
2460000000.0 0.5503884414796312 -0.42035292785405415
2480000000.0 0.06433137943642236 0.70762725393469
2500000000.0 -0.6261085216969526 -0.3550537140915274
2520000000.0 -0.6568348564034212 0.3102961631052435
2540000000.0 0.5432150384215818 0.47946452277762447
2560000000.0 -0.06813815289651558 -0.7115745484811706
2580000000.0 -0.5556876965328842 0.4223526194923303
2600000000.0 0.5532081996220781 -0.36910420813657974
2620000000.0 -0.3996679521204439 -0.48180420586767886
2640000000.0 0.45914456725065145 0.36341604804578514
2660000000.0 -0.5504225604421497 0.01573249486789964
2680000000.0 0.11883332484863186 0.5001915916832846
2700000000.0 0.47632494765471195 0.01775323268093696
2720000000.0 -0.34799607377380637 -0.27000867453252136
2740000000.0 0.2996902392064872 0.2648745801172866
2760000000.0 -0.12511726284806995 -0.34640630137647754
2780000000.0 0.02654818866938871 0.3490052014642509
2800000000.0 -0.2992036164710366 -0.16306106979520493
2820000000.0 -0.22556733062474754 0.2539081024264752
2840000000.0 0.08898421690952611 -0.31165986848480376
2860000000.0 0.03667702210815055 -0.30829917739200025
2880000000.0 -0.23179065425020687 -0.21384159208479891
2900000000.0 -0.2024145205043018 0.2642851598664539
2920000000.0 0.06516286014266685 -0.3454917942094121
2940000000.0 -0.1278904393655501 0.3277093765337874
2960000000.0 0.2683453427192827 0.21442352143631116
2980000000.0 0.08546919658007454 0.33015827034285417
3000000000.0 -0.3078773502681116 -0.15170330836127674
3020000000.0 0.26258629826458313 -0.22591684073656257
3040000000.0 0.17158586116283478 0.3036320449330147
3060000000.0 -0.3020122286641395 0.1703110571228708
3080000000.0 -0.26960129868482463 -0.18252129645018425
3100000000.0 0.16423010383794717 0.2635607841123113
3120000000.0 0.19876161490827482 -0.22795379566470994
3140000000.0 -0.15486499204564041 0.2499057989486685
3160000000.0 0.1380931854107032 -0.25223111559844125
3180000000.0 -0.09511934466957125 -0.24848287889221918
3200000000.0 -0.0857468013625634 0.2066292396119562
3220000000.0 0.04867711600677679 -0.18201265551899642
3240000000.0 0.0737328800771985 0.12973760775370669
3260000000.0 0.12497033423221746 0.026210624259642226
3280000000.0 -0.10701695384500934 0.024999602556671118
3300000000.0 0.023854251249769746 0.08326708369367951
3320000000.0 -0.05422853349845629 0.02293437639100203
3340000000.0 -0.00999755418959068 0.02866615002665522
3360000000.0 0.000545540289395146 0.017476905992884113
3380000000.0 0.012150183485944967 0.012605841248426775
3400000000.0 -0.022776543795116438 0.01593241601916548
3420000000.0 -0.02385861194393537 0.04290372613799345
3440000000.0 -0.035147868098026135 -0.06008381554754269
3460000000.0 0.07133391901313613 -0.03552126506278376
3480000000.0 0.07038301661451274 0.007900520423284683
3500000000.0 -0.05264871404514491 -0.05359546037415348
3520000000.0 0.11636010889864458 -0.01025277607420116
3540000000.0 -0.10534619126864614 -0.08992136171131734
3560000000.0 -0.13572799084072298 -0.06613544190726137
3580000000.0 -0.144811494682549 0.02688897284566497
3600000000.0 -0.06831825255334086 0.13554109478740448
3620000000.0 0.07847310112257315 -0.13880376229554023
3640000000.0 0.028617195147484946 0.16854393622338165
3660000000.0 -0.13230865958487664 0.1176763931199821
3680000000.0 0.02004699758913855 -0.15896252932519314
3700000000.0 0.08660523116421116 0.1284295283774846
3720000000.0 -0.04674125539710488 0.14281483888007315
3740000000.0 -0.14554733187039406 -0.02322747366084143
3760000000.0 0.14230933584045283 -0.018644171669133815
3780000000.0 -0.13246326957008853 0.009683440795806715
3800000000.0 0.11791940127855359 -0.03387881732091479
3820000000.0 -0.12793411648213873 0.017852543824277808
3840000000.0 0.016279720921637514 -0.16190136882082679
3860000000.0 -0.19179427253304765 -0.06619239473194542
3880000000.0 -0.192216389263367 -0.07718494878490562
3900000000.0 -0.0542185405776868 -0.13869681576265402
3920000000.0 -0.04496814459682474 0.14178718693033335
3940000000.0 0.13066197525413037 -0.06270651522175454
3960000000.0 0.11177262803794065 0.10073632264668235
3980000000.0 -0.04114183632544987 -0.15777901159788232
4000000000.0 -0.11574941944203859 0.09351563943570902
