!Created with skrf (http://scikit-rf.org).
# Hz S RI R 50.0 
!freq ReS11 ImS11
400000000.0 -0.860326542225448 0.057030329561317775
420000000.0 0.3694887871847969 0.7606222638430249
440000000.0 0.7242008319224391 0.2964773206174817
460000000.0 0.24202936350416154 0.6747457014017648
480000000.0 -0.6516846851994648 -0.0060929338154329885
500000000.0 -0.5421839860474799 -0.27115306977524756
520000000.0 0.358080168799791 -0.3889309062578261
540000000.0 -0.06292656710092062 -0.45912258497087527
560000000.0 0.4410659453359115 0.03016139432649558
580000000.0 0.1966043635033787 -0.3405408041516199
600000000.0 -0.21153395437974246 0.2883408493069532
620000000.0 -0.3317521225903675 -0.141260790479613
640000000.0 0.05147235713183041 -0.40657987330384604
660000000.0 0.3421076915529551 0.2870197729065457
680000000.0 -0.38860746913994587 -0.2408991706947939
700000000.0 0.0318586479241241 -0.4415184961665025
720000000.0 -0.3643634104939036 0.21517049217911957
740000000.0 -0.2738327818136758 0.2724249666948754
760000000.0 0.05196762473444414 -0.34498910071881334
780000000.0 -0.010588351414458085 0.32538723848357015
800000000.0 0.28168489585796813 0.11212267517044439
820000000.0 -0.2434463549706653 -0.07842031034182374
840000000.0 -0.13735214322765277 -0.1539547640908286
860000000.0 0.15231344157428522 -0.06375851573564695
880000000.0 0.07711215342491588 -0.0922186974930801
900000000.0 -0.04659392220872972 -0.0719993313186989
920000000.0 -0.014111391266010463 0.0516910774670381
940000000.0 -0.03708722053140573 -0.02774890856748078
960000000.0 -0.057617320887558825 -0.0013102161753666363
980000000.0 0.06563167705105039 0.01783825439538282
1000000000.0 0.004803442017813144 -0.07558152309257662
1020000000.0 0.04235239024304751 0.08255965512396378
1040000000.0 0.07396627998102877 -0.08745596425560535
1060000000.0 -0.11463690538590499 -0.08640373050195041
1080000000.0 -0.08397235001966086 0.15691233792398512
1100000000.0 0.18516571876188292 0.10291471834187836
1120000000.0 -0.1911803386539437 -0.1651788395182355
1140000000.0 -0.26702438235302056 0.07468227137677848
1160000000.0 0.24989947524523975 0.16262400623879555
1180000000.0 0.19143752669312117 0.25498078109952244
1200000000.0 -0.11024615279621834 -0.3184507289133124
1220000000.0 -0.21467014139368173 0.2947484055581783
1240000000.0 0.3515589563691192 -0.15554542267771007
1260000000.0 -0.2798881834516971 -0.2849169132481378
1280000000.0 -0.37646226725881604 0.16248350090421887
1300000000.0 -0.027134700318516378 0.4167600551715637
1320000000.0 0.37210412283762184 0.19217074363907316
1340000000.0 0.41328078290320663 0.04434065426805684
1360000000.0 0.37673562146092054 -0.15572781883291179
1380000000.0 0.3955369432696763 0.0083487655518461
1400000000.0 0.23485284263435696 -0.30552984507879044
1420000000.0 -0.29530870212488763 -0.21182617421002536
1440000000.0 -0.33837268951217564 -0.013072433192350331
1460000000.0 -0.04484433644175493 0.3148914011967144
1480000000.0 -0.11968405331032408 -0.26252999874661803
1500000000.0 -0.06275076347860825 0.2424219012919806
1520000000.0 0.21321367388241083 -0.05111869633540489
1540000000.0 -0.132613704210755 0.1193176247447721
1560000000.0 0.1341742975151977 -0.05511198419807942
1580000000.0 -0.03601076137623799 0.10635419184817789
1600000000.0 0.08117614511320011 -0.0034536427825337733
1620000000.0 -0.0018654279629861702 0.05598210695305128
1640000000.0 -0.00011308840232396135 -0.030823138007771877
1660000000.0 -0.005980217815952315 0.00529321889943216
1680000000.0 0.00869508128375367 -0.018013353718153328
1700000000.0 0.005221362214575397 0.03745704298298455
1720000000.0 0.05031932056385842 0.01207645410928671
1740000000.0 0.05347503671580201 0.04637431130677294
1760000000.0 0.08704268964575726 -0.01811667409211433
1780000000.0 0.10801244602299355 -0.017432499026302832
1800000000.0 0.11882816428103495 -0.07619181783345919
1820000000.0 -0.17772347994008342 -0.017765075992048053
1840000000.0 0.15078694305315324 -0.16367399937423302
1860000000.0 0.044395590197547616 -0.2600813290095646
1880000000.0 0.2641133669135389 -0.12853137874044598
1900000000.0 -0.24700462287487054 0.19891557140585264
1920000000.0 0.2740546883589264 0.2109644339755194
1940000000.0 -0.1428362926331294 -0.35018453059972243
1960000000.0 0.217371928992855 0.3359544628341169
1980000000.0 0.07651664654942779 -0.40316320570886005
2000000000.0 -0.33556780718755613 -0.24541037436728538
2020000000.0 -0.42237405123625704 -0.015352554831231905
2040000000.0 -0.21742761802307212 0.3701243724356414
2060000000.0 0.38166601397583866 0.19499673243509844
2080000000.0 0.07655145301271225 -0.4133526902246691
2100000000.0 -0.3529810931664984 -0.19385074365143923
2120000000.0 -0.3756826098521924 -0.07326468140236685
2140000000.0 -0.3203197163905847 -0.17390667457015752
2160000000.0 0.3081178826732694 -0.16809742843110312
2180000000.0 0.2208673454420836 -0.25482147185659915
2200000000.0 0.11248096046600195 -0.30461098893568905
2220000000.0 0.2721251428385283 -0.1611533157343975
2240000000.0 0.26924152887449354 -0.1717165985088468
2260000000.0 -0.014245658230250537 -0.3292584368706181
2280000000.0 -0.28839000662691744 0.18821399583132178
2300000000.0 0.3556403187140961 -0.07744164881841716
2320000000.0 -0.3765236078844974 -0.09712266037827888
2340000000.0 0.4194459477314901 0.08351877967397421
2360000000.0 -0.3190139031923376 0.35399821994151076
2380000000.0 -0.47424146188627564 -0.23233473452626888
2400000000.0 -0.027197981305951538 -0.5762305208930545
2420000000.0 0.5708948290763612 -0.2452371157759051
2440000000.0 0.3000581821333048 0.5880682721880625
2460000000.0 -0.6809035994049673 0.11328719796911194
2480000000.0 0.269303358512751 -0.6581713268078114
2500000000.0 -0.05681287818423137 0.7206278567646461
2520000000.0 0.01725184932187664 -0.7267913318610504
2540000000.0 -0.22742597971731413 0.6876728962455655
2560000000.0 0.5202690926689971 -0.4907832516227978
2580000000.0 -0.696806955383251 0.0221964074376124
2600000000.0 0.5702975652747433 0.35452529781389225
2620000000.0 0.6378201223053942 -0.06980639778245805
2640000000.0 -0.548642201990006 -0.2612844200742312
2660000000.0 0.2983613199102647 0.48747139068851636
2680000000.0 -0.13497526792914114 -0.515839907855435
2700000000.0 -0.03504894333596257 0.49371657547003955
2720000000.0 0.12995523514871773 -0.43781256640937466
2740000000.0 -0.3210523668937465 0.27806113557651224
2760000000.0 0.2984973246026777 -0.26558103826726465
2780000000.0 -0.2530866778122067 0.28321078625068685
2800000000.0 0.18114904940329024 -0.3194753633949851
2820000000.0 -0.14835160197570146 0.3258540211008598
2840000000.0 0.23251072071944714 -0.2688902157718945
2860000000.0 -0.3399142673331193 0.10800500385986819
2880000000.0 0.30873308630323554 0.18569811351165247
2900000000.0 0.1266893963702665 -0.3420588672295679
2920000000.0 -0.31719484499856077 -0.1884749762801245
2940000000.0 -0.3585734111119523 0.10004532613917592
2960000000.0 -0.34223525844799835 0.14136031665422796
2980000000.0 -0.30587735752602596 -0.20693627513728804
3000000000.0 0.22704715025777786 -0.295023433137064
3020000000.0 0.30679340903958974 0.20777231342148111
3040000000.0 -0.2820443118723362 0.2308762868694751
3060000000.0 0.12564883005721175 -0.33479180355972676
3080000000.0 -0.13907018358135206 0.3198895968747051
3100000000.0 0.09899444912647533 -0.3244694814556583
3120000000.0 -0.011310766204269379 0.329815781401225
3140000000.0 -0.2773889746229443 -0.15221957719286844
3160000000.0 0.10769833507792358 0.2740197432398346
3180000000.0 -0.23074151234745677 -0.13619883493956894
3200000000.0 0.2014800420411139 0.12941540933255807
3220000000.0 -0.18089034341440474 -0.10774210071528696
3240000000.0 0.04283603895215471 0.17491525219194617
3260000000.0 0.1059491009141246 0.10483073689785459
3280000000.0 -0.07796120087869951 0.0950126952428543
3300000000.0 -0.09942430774688002 -0.024969001861456605
3320000000.0 -0.033207765314209166 -0.07626580315841047
3340000000.0 0.050986713461868956 -0.043354569767422545
3360000000.0 0.020952312219959822 -0.047304982523783415
3380000000.0 0.028266033241750803 -0.02910864303477319
3400000000.0 -0.024033236279742617 -0.02250658780127229
3420000000.0 0.011741936404161532 -0.02249702076290028
3440000000.0 0.0159497438639184 -0.016883745690017854
3460000000.0 0.00571298411799286 -0.029950739969257976
3480000000.0 0.04018960834717129 0.017667984452114083
3500000000.0 0.048348234735004894 -0.03575137535242664
3520000000.0 0.015986438528318367 -0.07478222838272273
3540000000.0 0.08013281066050294 -0.03852202862266136
3560000000.0 0.010871010041067813 -0.09650945603646445
3580000000.0 0.0892250141170251 0.05897317115249393
3600000000.0 0.08000870427740324 0.0911963112366465
3620000000.0 0.12165076278205417 0.0569425528733242
3640000000.0 0.14155635878045797 -0.01642273510930238
3660000000.0 0.11808723646534157 0.08858287287985366
3680000000.0 -0.1321340350736121 -0.07452158929386948
3700000000.0 0.0834183803931367 -0.1340143037998673
3720000000.0 0.15776623749951751 0.035034855736793935
3740000000.0 -0.05861276649060573 0.14927553783686665
3760000000.0 -0.03438859780507782 0.1564601357817102
3780000000.0 -0.16225920905703256 0.028176433743250223
3800000000.0 -0.12843825344906531 0.11921529489784265
3820000000.0 0.11221461350493937 -0.1490736913239855
3840000000.0 0.02931366954518749 0.19031523455025548
3860000000.0 -0.11195714641246765 -0.16458874607648963
3880000000.0 0.2073074768640022 0.012177378801092488
3900000000.0 0.0012906974749641897 0.21729044331798594
3920000000.0 0.18558505808141876 0.12362630515409907
3940000000.0 0.16382180386964493 -0.15028682188309797
3960000000.0 0.0010812906141999252 -0.21385555452865548
3980000000.0 -0.015717321299168793 -0.204784255236417
4000000000.0 -0.19537630992291916 0.02147718571437719
