!Created with skrf (http://scikit-rf.org).
# Hz S RI R 50.0 
!freq ReS11 ImS11
400000000.0 -0.7675992096668529 0.38460783792357084
420000000.0 0.41717275459418807 0.7269384710325654
440000000.0 0.6768969052724457 0.39346140602962915
460000000.0 0.3238674753506335 0.640766647764364
480000000.0 -0.6427319230210873 0.07833797455175738
500000000.0 -0.5481241221810668 -0.25691896328527153
520000000.0 0.4718761188540021 -0.24253398032283086
540000000.0 -0.27158956848184024 -0.38782524872123264
560000000.0 0.33556437204156714 -0.29104270222859707
580000000.0 -0.03792063000750497 -0.3958881281035458
600000000.0 0.2789223373669292 0.21829070475936077
620000000.0 -0.3420996907204086 0.07762728934995773
640000000.0 0.3989322371178889 -0.037530799326345676
660000000.0 0.09039318753424277 0.4391388971019938
680000000.0 -0.1936459244802964 -0.41587497173100213
700000000.0 0.06721572610876822 -0.44746642188603525
720000000.0 -0.11796723903192222 0.40676175130650905
740000000.0 -0.20769426637940927 0.3264314813951913
760000000.0 -0.2714712458507187 -0.220168258208547
780000000.0 0.3008662004849919 0.10961083640909004
800000000.0 0.286327801525832 0.03378213816353542
820000000.0 0.1852872541353161 0.16213903240567004
840000000.0 0.20004726495313696 0.07660920963985063
860000000.0 0.17314480010080793 -0.03490521255886913
880000000.0 0.1203553171263884 -0.042744157567713305
900000000.0 -0.04760791198126271 -0.06941005470759763
920000000.0 -0.04609808171275399 -0.02734734509134592
940000000.0 0.02630548581845803 0.02734470473108007
960000000.0 0.04116418400567385 0.006271763172213632
980000000.0 -0.03271699256818653 0.051199058621445886
1000000000.0 -0.07432150350970627 -0.0035245877182384744
1020000000.0 0.02819309147572813 0.09885907961691312
1040000000.0 -0.07074875645042795 -0.10565940509565926
1060000000.0 -0.08995870617220326 0.1190727765236756
1080000000.0 0.1592431128057341 0.0896155410244284
1100000000.0 -0.19892195521113792 -0.07640038494991516
1120000000.0 -0.07059727888723953 0.23278838786422776
1140000000.0 -0.2230235829324957 0.14138451414509612
1160000000.0 -0.28099265021488107 0.0632924521650701
1180000000.0 -0.3248382206978784 -0.0235050445658171
1200000000.0 -0.298729242002236 -0.18262569191631473
1220000000.0 0.185033973347573 0.3134413421412974
1240000000.0 0.10362099299656442 -0.3710194246373904
1260000000.0 -0.36951056006937594 0.13523994518717397
1280000000.0 -0.21896464250937173 0.3362671428005737
1300000000.0 -0.17476185862735533 0.3665843707538802
1320000000.0 -0.17268963540989005 0.379087250798729
1340000000.0 0.3157482772904297 0.27730428798300943
1360000000.0 0.4068271597437102 -0.08395339309030954
1380000000.0 -0.08410521687708414 -0.3939286753570899
1400000000.0 -0.36880309260344685 -0.06758586057028697
1420000000.0 -0.26483807047333907 -0.2277832442866025
1440000000.0 -0.01677204610122252 -0.3308731556732832
1460000000.0 -0.3018315470839386 -0.09988856401295751
1480000000.0 0.24628739363636812 -0.16757769018407495
1500000000.0 0.23301508878139301 0.12061916452979511
1520000000.0 -0.15533392097818943 0.1598310106993062
1540000000.0 -0.15497331756294236 -0.06198096214372405
1560000000.0 0.1255954396239098 -0.01433667066686133
1580000000.0 -0.01776555561387492 0.10087335131330925
1600000000.0 -0.06212488078186176 -0.05505185471238756
1620000000.0 -0.0179950843917164 -0.06794638799003616
1640000000.0 0.042124241020485925 -0.019352109638240293
1660000000.0 -0.0024772240537039763 0.013883001688376086
1680000000.0 0.012334749599697992 0.022871431682256794
1700000000.0 -0.02248816466493196 0.04817440620344946
1720000000.0 -0.0458070619058145 -0.045652473447812
1740000000.0 0.07233132461312661 0.01754616878063341
1760000000.0 -0.04009272543194962 0.06439330504808968
1780000000.0 -0.06180868139767446 -0.07115466501880376
1800000000.0 -0.08585098312003875 -0.11383961119655304
1820000000.0 -0.02596631002678071 -0.1840176722480813
1840000000.0 0.06807821117964881 -0.22103924797069768
1860000000.0 -0.25694933635747763 -0.08304469354520522
1880000000.0 -0.051353756614091764 -0.29148683755273863
1900000000.0 0.1834276492705685 0.2590939356929161
1920000000.0 0.3342307600694211 -0.05771423541381598
1940000000.0 0.101760927448165 -0.35931703070707016
1960000000.0 -0.10180110965767261 0.38825516818892525
1980000000.0 0.20686569600384097 -0.3607265560726462
2000000000.0 -0.4123134647297915 0.09839315904955614
2020000000.0 -0.06673547475159122 0.4158743739962838
2040000000.0 -0.09843389636662242 0.4089422722422481
2060000000.0 0.23309554801358653 0.3503598847439639
2080000000.0 0.41984008707466375 0.004606022321183748
2100000000.0 -0.12047628377947298 -0.3962374392636082
2120000000.0 -0.2753807904387909 0.27829298960244886
2140000000.0 -0.2205919065329931 -0.2867619561223264
2160000000.0 0.3088341400773537 -0.14171562954813052
2180000000.0 0.07126043182974535 0.32603094276769745
2200000000.0 0.26232744275444414 0.20572739486943462
2220000000.0 0.2630293150608209 -0.19465358202220912
2240000000.0 -0.120051280457501 -0.301675570073341
2260000000.0 -0.25454681380555316 -0.20358621369831134
2280000000.0 -0.3164038919976993 -0.11910796917895645
2300000000.0 -0.012714001613586315 0.3622756337120683
2320000000.0 -0.06373808585579592 -0.39095379138486086
2340000000.0 0.42840669334901194 0.07937542483308371
2360000000.0 -0.09089124037015364 0.46808525979748933
2380000000.0 -0.4834208775442644 -0.19844836940690802
2400000000.0 0.09597699956882882 -0.5628752194849135
2420000000.0 0.6154523388981492 -0.019232212493931426
2440000000.0 0.0524860810603938 0.6513112661455293
2460000000.0 -0.6694315707891941 -0.12413560548638093
2480000000.0 0.548060489434681 -0.43620399856324293
2500000000.0 -0.5183817159108861 0.4877393699291651
2520000000.0 0.5183625262393344 -0.49335314719109585
2540000000.0 -0.6126121830011375 0.3600214680473938
2560000000.0 0.6970124319320595 -0.06321366772420971
2580000000.0 -0.6050989452939121 -0.31519048780499503
2600000000.0 0.2449788260785867 0.6106678908385696
2620000000.0 0.5378779816097083 0.32443226905218087
2640000000.0 -0.2184373390881843 -0.5524321122808001
2660000000.0 -0.2524426963664744 0.4984680467591311
2680000000.0 0.4059600674190536 -0.32980579796916965
2700000000.0 -0.45744576621449395 0.16611855622279306
2720000000.0 0.427850191615676 -0.14068154488481974
2740000000.0 -0.3897861979308142 0.14852613003090595
2760000000.0 0.31469935447632685 -0.22707801882735737
2780000000.0 -0.3251152726896407 0.16831031740297894
2800000000.0 0.3494792000332305 0.05131098535418713
2820000000.0 -0.32526084819480905 -0.13494030337018947
2840000000.0 0.32310407803892055 -0.1449443545313726
2860000000.0 -0.16926401912139258 0.31196237420028705
2880000000.0 0.07723554734605875 -0.3412414315609192
2900000000.0 -0.2319104278536388 -0.25638085026555957
2920000000.0 -0.29774980540502954 -0.1901658551324193
2940000000.0 -0.36299436506188887 -0.0256079733164955
2960000000.0 -0.2932907486157861 0.22493208659967806
2980000000.0 -0.278362311469149 0.24087278901395762
3000000000.0 -0.3462195566349631 -0.1228306120505507
3020000000.0 0.13467931829926155 -0.3365497783461552
3040000000.0 0.14782639179332824 0.3247954706803701
3060000000.0 -0.22180401824161078 -0.27315091400835345
3080000000.0 0.12715184654532458 0.31967427832622347
3100000000.0 -0.22403898351178922 -0.25586672254429954
3120000000.0 0.2871477380511008 -0.16714376163960498
3140000000.0 0.16567048813033872 0.2673857082168705
3160000000.0 0.16972793138937387 -0.2362614369381057
3180000000.0 0.012256879941847218 0.2654601879828119
3200000000.0 -0.04900418677967158 -0.23390629270464344
3220000000.0 0.10935570120409885 0.18138836434716626
3240000000.0 -0.037287982048962776 -0.18059132381264323
3260000000.0 0.025977205592272446 0.15272800017393304
3280000000.0 0.11573970126942804 -0.04919635745577468
3300000000.0 0.058332389830337984 -0.0788664464543219
3320000000.0 -0.07630915245904747 0.003553213121333469
3340000000.0 -0.06173284095226933 -0.021934326440112163
3360000000.0 0.05275418376544586 -0.005904942362878143
3380000000.0 0.035130286688781584 -0.015329390969158979
3400000000.0 -0.007177760095722677 -0.027427474178744346
3420000000.0 -0.0012314566776688253 0.02513436326421613
3440000000.0 0.021857536910360312 -0.025150901400613768
3460000000.0 -0.04089901084182986 0.021493316746969297
3480000000.0 0.0594736241639616 0.02725094332098236
3500000000.0 -0.057666649170000084 -0.057079552359042815
3520000000.0 0.06410864996616668 -0.06616872614965966
3540000000.0 -0.08686813754038009 -0.056991301607224924
3560000000.0 -0.06551154522600218 0.09246394639448245
3580000000.0 -0.09812531793081149 0.07264036210512731
3600000000.0 -0.09919156970396616 0.09082592912685826
3620000000.0 -0.06951597349593196 0.13124285917667697
3640000000.0 0.006912884008073671 0.15621378728754792
3660000000.0 -0.10089095421354029 0.12188682919873461
3680000000.0 -0.0037005329524876667 -0.15658869368939626
3700000000.0 0.08138643958011327 0.13422698483772003
3720000000.0 -0.15342375024553775 -0.031166528112893752
3740000000.0 -0.029872665933788234 -0.151918778172098
3760000000.0 -0.09651078819528482 0.11561145614254309
3780000000.0 -0.110473069503773 -0.097808021873664
3800000000.0 0.13432852899605485 0.06191978259864713
3820000000.0 0.05576269402412121 0.15028833367445307
3840000000.0 0.006037123004430798 -0.17168168156296051
3860000000.0 0.17746862230755978 0.03389864581311667
3880000000.0 -0.030198756228136666 0.18098060229984692
3900000000.0 0.13587459377252958 -0.12136765084862425
3920000000.0 -0.17240348494971725 0.07586644879205365
3940000000.0 -0.08029961150839256 0.17738385612183571
3960000000.0 0.1930895611573005 0.03765167627705657
3980000000.0 -0.1852609749626234 -0.03958885308773977
4000000000.0 -0.04951212194929087 0.16099593444890903
