!Created with skrf (http://scikit-rf.org).
# Hz S RI R 50.0 
!freq ReS11 ImS11
400000000.0 -0.8016035394916311 -0.27977152191622245
420000000.0 -0.34037554893659216 0.7693519868646034
440000000.0 0.35168645313276903 0.703677048984714
460000000.0 0.11838351955982335 0.7156802471722413
480000000.0 -0.6576587086531339 0.045055063620563475
500000000.0 -0.3317418160745946 -0.5131902404974288
520000000.0 0.4750644444641227 -0.25118362942984473
540000000.0 -0.47503822160782533 -0.032205692318781266
560000000.0 0.32822512274290233 -0.30207774260865916
580000000.0 -0.1347243153947426 -0.371157362741294
600000000.0 0.07989743053582264 0.3458915946626609
620000000.0 -0.3444304812801521 0.10203249909679617
640000000.0 -0.10138152578411316 -0.38991848569362836
660000000.0 0.41948248334959315 0.13301525115821605
680000000.0 -0.2857120599959289 -0.3519323824873049
700000000.0 0.2107331458603228 -0.39149666553460194
720000000.0 -0.16142457735560028 0.3924264157629527
740000000.0 -0.3629490357385723 0.12091973903319582
760000000.0 0.2567020623388117 -0.24720047121786998
780000000.0 0.2693905699749055 -0.19148272250482656
800000000.0 0.008613610849991854 -0.29568822143514584
820000000.0 -0.21809214648016284 0.11094771086464564
840000000.0 0.18328810540087953 -0.057556110525562205
860000000.0 -0.05109057283608343 -0.1555989871684586
880000000.0 -0.11127526990098538 0.055903719275062005
900000000.0 -0.07327733174951662 -0.06008637558540052
920000000.0 -0.0686252114310944 0.007326849306258061
940000000.0 -0.037329771640280555 0.03765847103951829
960000000.0 -0.04308345428023829 -0.0499779691484927
980000000.0 0.0712477337570966 -0.021023697621046646
1000000000.0 -0.05532960077145749 -0.06308640029382634
1020000000.0 -0.08388200607980288 -0.049661216247711075
1040000000.0 -0.11322304701171364 -0.023799393942657777
1060000000.0 0.13677788510446445 0.06357553550993328
1080000000.0 0.09630484111298016 -0.1496414219037741
1100000000.0 -0.20458574788932657 -0.05612374950312875
1120000000.0 -0.06453398020769249 0.2304738071051328
1140000000.0 -0.18755041646971923 -0.1881895086988601
1160000000.0 -0.2091219348746862 0.2130252146211789
1180000000.0 0.04039644494471788 0.32059953199646474
1200000000.0 -0.23665202530126403 -0.24526431371809637
1220000000.0 -0.028630969130732452 0.36069468924420706
1240000000.0 0.38244855977836945 0.03566955705579115
1260000000.0 -0.11828669904585544 -0.3832680432226183
1280000000.0 -0.40794938929429225 0.08274544314068695
1300000000.0 0.2705781370389632 0.32482005617592086
1320000000.0 0.4132315249888044 -0.05807899821291802
1340000000.0 0.41073349145558563 -0.04963717861112467
1360000000.0 0.4009069097746416 0.06009362425841181
1380000000.0 0.38557275371988414 -0.09355119855109909
1400000000.0 0.3271690054929899 -0.19494964094813366
1420000000.0 0.08883290851061873 -0.3577501773757104
1440000000.0 -0.28972131855209865 0.19265991129237212
1460000000.0 0.2922925190751803 0.1230466345094666
1480000000.0 -0.21366627729443793 -0.18890635770996933
1500000000.0 0.1456926149001229 0.20132428791362744
1520000000.0 0.17685443466686857 -0.11678480066073063
1540000000.0 -0.14901527492224506 -0.08433221610554235
1560000000.0 -0.12627133288527853 0.06073260529711002
1580000000.0 0.11169163547619454 0.023521241177019807
1600000000.0 -0.036085549206643065 0.07930576650583113
1620000000.0 -0.032695114010657784 0.05134521349798344
1640000000.0 -0.01737806279661694 0.02786015191657367
1660000000.0 -0.005103992891426558 0.001290005639794406
1680000000.0 0.018341150485183123 0.013817480615696228
1700000000.0 0.03005087881811113 -0.02817454721370685
1720000000.0 -0.006058195885593705 -0.05221927908066071
1740000000.0 -0.04469186015719306 0.052091776917421756
1760000000.0 0.003961910657868816 -0.09160441096561271
1780000000.0 -0.08782975298041905 -0.08358298245639774
1800000000.0 -0.02303553097117884 -0.1549436954085652
1820000000.0 0.18643916401094113 0.01897111345731681
1840000000.0 -0.2150389054684739 0.05304295447296966
1860000000.0 0.08213391636523097 -0.24536441667059403
1880000000.0 0.2606341989339129 0.13808567984891076
1900000000.0 -0.3222816409743203 0.025243753150815246
1920000000.0 0.3397694816771786 0.09329870799758382
1940000000.0 -0.29423178126967237 -0.23858778882368728
1960000000.0 0.2285040409693103 0.3270718519726134
1980000000.0 0.19528263618271807 -0.3610858250530823
2000000000.0 -0.3442185554283898 -0.2419374894905396
2020000000.0 -0.3386821203608778 0.25702115630388267
2040000000.0 0.03219637391927904 0.427490806119096
2060000000.0 0.42543727726590336 0.04040362297594494
2080000000.0 0.0640938111682683 -0.41347425017698586
2100000000.0 -0.3824193148568573 -0.13258160730510155
2120000000.0 -0.3633073271953947 0.1274580991608267
2140000000.0 -0.3658546039333963 0.0321806253906905
2160000000.0 0.15133532474523567 -0.31703857941240854
2180000000.0 0.17818653594381795 -0.28917735724605925
2200000000.0 0.042411237829817275 -0.32876997050301565
2220000000.0 -0.029100628333383255 -0.32501552668322425
2240000000.0 -0.2684774212557255 -0.19111723247550344
2260000000.0 -0.21665429386328589 0.2583454600483751
2280000000.0 0.3193846658640862 0.14384890828109267
2300000000.0 -0.17287361024435 -0.3296923747587134
2320000000.0 0.03691082748853007 0.4011722817543551
2340000000.0 -0.2679214708697181 -0.35767609783643034
2360000000.0 0.39736618517286343 -0.29836825686487767
2380000000.0 0.5049951448350495 0.21358205240671596
2400000000.0 0.06563510752559464 0.592201629625277
2420000000.0 -0.5785465631837405 0.2718980630615737
2440000000.0 -0.3451296142091283 -0.5817288634066425
2460000000.0 0.6745059918234523 -0.2024479807339528
2480000000.0 -0.273604538704532 0.6694172987101038
2500000000.0 0.039644537629683924 -0.7321461998214764
2520000000.0 -0.07906726564064989 0.732511423348951
2540000000.0 0.29811230320305276 -0.6686451649732383
2560000000.0 -0.611547473295951 0.3782921434466223
2580000000.0 0.6904770674484871 0.10993986260344166
2600000000.0 -0.518162505586266 -0.42782282294689455
2620000000.0 -0.6358032730045245 -0.08538414630262184
2640000000.0 0.43515158968262885 0.4238476875515651
2660000000.0 -0.049208141786463884 -0.5678894163443364
2680000000.0 -0.2733344386483895 0.4570075198493563
2700000000.0 0.3795753692088606 -0.31811919581283155
2720000000.0 -0.44505915724339884 0.11438821919178774
2740000000.0 0.40638528983192557 0.13133059122674545
2760000000.0 -0.23043156134141887 -0.3287187399818099
2780000000.0 0.10339008742411136 0.36925976761848306
2800000000.0 0.08104988156971611 -0.36168602355458046
2820000000.0 -0.2204613383803981 0.2909067487866746
2840000000.0 0.25604569907714353 -0.2578769267514891
2860000000.0 -0.356262621743481 0.08675012176894509
2880000000.0 0.3663794594072677 0.031653564058314716
2900000000.0 0.04826592678385474 -0.36399894325387105
2920000000.0 -0.33295233658829976 -0.1593778277011221
2940000000.0 -0.36445718807788663 -0.0536503257106829
2960000000.0 -0.2633860662553147 -0.2597320695036818
2980000000.0 -0.015139135195467373 -0.37003716218774746
3000000000.0 0.3673646283290451 -0.05575914586084029
3020000000.0 0.05209873576193355 0.36409666557678805
3040000000.0 -0.20581343717180361 -0.2965823054471833
3060000000.0 0.28913301085222726 0.20976469523452848
3080000000.0 -0.31955027367574357 -0.1427516628501373
3100000000.0 0.32689599125966096 0.09036841748362841
3120000000.0 -0.3248568236036883 0.009005118539702026
3140000000.0 0.2740453483239185 -0.1428266193805826
3160000000.0 -0.22280816360841446 -0.17846031238039403
3180000000.0 0.14937107960715823 0.2116794081145337
3200000000.0 0.107876003200437 -0.20297513632599926
3220000000.0 -0.1334593112053543 -0.15088034183223573
3240000000.0 -0.17047935847973578 -0.024987285621954496
3260000000.0 0.10902522785189742 -0.0925792327553133
3280000000.0 0.0007955621919026636 -0.1190680111360559
3300000000.0 -0.0021388619212586004 -0.10366069738711572
3320000000.0 -0.04638916294862173 -0.07961561906061795
3340000000.0 -0.08332014351482794 -0.00237078110189605
3360000000.0 0.06076601325139103 -0.043891933799521055
3380000000.0 -0.05245742800678375 0.037966017034202104
3400000000.0 0.042715538564459365 -0.040250825137331254
3420000000.0 0.04089780418519968 -0.03209434566024636
3440000000.0 0.020794943930746244 0.039741817755528125
3460000000.0 -0.012148020560863877 0.035590078527414214
3480000000.0 -0.013946752470739582 -0.028037527736351906
3500000000.0 0.001851904111910418 -0.030078081358713576
3520000000.0 -0.004714363055912633 -0.03697658293980465
3540000000.0 0.002672746471760789 -0.047343331312596354
3560000000.0 0.05756977422410452 0.02074827197899148
3580000000.0 0.008560989433954379 -0.07765026692668321
3600000000.0 0.03161857600583129 0.0917280661990288
3620000000.0 0.10784615492644303 0.04161321170892193
3640000000.0 0.0786350341886759 -0.10749043829087919
3660000000.0 0.026372211646512413 -0.14649472354670082
3680000000.0 0.08260972487771433 -0.14280543840881046
3700000000.0 0.1352399119500082 -0.12125035922104453
3720000000.0 0.0357091073571679 -0.19916308498434843
3740000000.0 -0.19558277320202164 -0.1031433249431122
3760000000.0 -0.10963112178505835 -0.21255005598257645
3780000000.0 0.1252282175027637 -0.22322134265129479
3800000000.0 0.20027699776360167 -0.1818700736473042
3820000000.0 0.2704124154739662 -0.08913458610553344
3840000000.0 0.23750741999552813 -0.17199496054068159
3860000000.0 0.09091736929982717 -0.2839666226997219
3880000000.0 -0.1031337895176948 -0.28468907118607023
3900000000.0 -0.2963813522205945 -0.06269254884490409
3920000000.0 0.05987900108168548 0.2931216039396557
3940000000.0 0.29616295340512416 0.0028535523268887466
3960000000.0 -0.17423163975470957 -0.23400789309760112
3980000000.0 -0.28057876310048624 0.009666696120277578
4000000000.0 0.25169121635815467 -0.07091990296282058
