!Created with skrf (http://scikit-rf.org).
# Hz S RI R 50.0 
!freq ReS11 ImS11
400000000.0 -0.8363322155048538 -0.14191588572272792
420000000.0 -0.09495993699854224 0.8340402115965366
440000000.0 0.2974057018324956 0.7214196474526833
460000000.0 -0.09466894974802637 0.7162947922263199
480000000.0 -0.4114409133454874 -0.5096031671302276
500000000.0 -0.04623236667332694 -0.6203773658927926
520000000.0 -0.052682892481152765 -0.5459434679185587
540000000.0 0.06272079769852515 0.4672754684568134
560000000.0 -0.32145577013283116 -0.2904130293705831
580000000.0 -0.1827286969926358 -0.33763789831221064
600000000.0 -0.013269613167252383 0.35012603478080323
620000000.0 -0.3422103486159986 0.10709522178036217
640000000.0 0.12091734514730576 -0.38521435358749495
660000000.0 0.4343621369181438 0.09602307834141212
680000000.0 -0.443197067124415 -0.086182832408211
700000000.0 0.14354938866978925 -0.41059211866616313
720000000.0 -0.3748552002817785 -0.18967414576903915
740000000.0 -0.39024061336070487 0.0004845027313271826
760000000.0 -0.352471553993523 -0.020482712639465935
780000000.0 0.3125223383486341 -0.004397828363515736
800000000.0 -0.27415749576714715 0.07850784562029602
820000000.0 0.04257947342470862 0.25148443248046704
840000000.0 0.09029897654330704 0.19693681268790816
860000000.0 0.1747240445838995 0.051432326723872
880000000.0 0.1280844793900092 -0.00015878256081770917
900000000.0 0.08238765026500776 0.02005871846810203
920000000.0 -0.028410920359917283 -0.04629047960405416
940000000.0 -0.034278281598396944 0.01348810490295539
960000000.0 -0.04179315996943022 0.03986612288331156
980000000.0 0.061916072802668407 -0.038082397395329474
1000000000.0 0.026272504301195834 -0.07673047712320562
1020000000.0 -0.10424085554169872 0.006451001831539911
1040000000.0 -0.07955771591653718 0.09735920656896764
1060000000.0 0.1460972238605493 0.012037047707864798
1080000000.0 0.16262583302870282 -0.06800770006011603
1100000000.0 -0.06084709018438791 -0.19402395549700988
1120000000.0 0.22279003959813157 -0.0844994728436265
1140000000.0 0.2727957952766829 0.0472685933086994
1160000000.0 -0.26693743687744437 0.16149405611224185
1180000000.0 0.3065675397784694 0.13841929629539107
1200000000.0 0.08248486986260994 0.33010939643406695
1220000000.0 0.22370732168858193 0.2706147746491158
1240000000.0 0.30603458005395817 0.2142202685602027
1260000000.0 0.16832306575412356 -0.36188761562639427
1280000000.0 -0.39644383975964476 0.12546165225579278
1300000000.0 0.2855164598099527 0.30953757924334124
1320000000.0 0.31210009788304344 -0.27620618883370984
1340000000.0 0.17320186743190583 -0.3682863164190101
1360000000.0 0.39242011066645954 -0.02504401087666413
1380000000.0 0.11113669672048593 0.37162825232687424
1400000000.0 0.3485125553512702 0.16958543682190655
1420000000.0 -0.03717163398225006 -0.3682612165936778
1440000000.0 -0.23965034031414847 0.2524197978287564
1460000000.0 0.2153696967724727 0.2293129925351891
1480000000.0 0.16915562043886892 -0.23562778516363578
1500000000.0 -0.06874528520219483 0.24834560063830263
1520000000.0 0.07132301543505142 -0.21091395757889572
1540000000.0 0.16493154039772795 0.06802051159430665
1560000000.0 0.10891823885287916 -0.09013371867198489
1580000000.0 -0.10123488567257267 0.04614219902349574
1600000000.0 -0.07733822222915666 0.008156058260312139
1620000000.0 0.06469843894041508 -0.000764367745855689
1640000000.0 0.029301785243700085 0.025426858087421216
1660000000.0 0.004719828527443463 0.010417341743743801
1680000000.0 -0.008605261155217994 -0.025971894911933815
1700000000.0 -0.045353909362725355 -0.02047550903554983
1720000000.0 -0.04340492474114156 -0.0432338328447168
1740000000.0 -0.07301519368197018 0.02464900764594987
1760000000.0 0.03156266708196193 0.08289686249662143
1780000000.0 0.029304653037302137 -0.1038350818990015
1800000000.0 -0.13318865750778658 -0.04044092215057991
1820000000.0 -0.14784084291830274 0.08974841263368556
1840000000.0 0.03082686056775434 -0.21753072155336495
1860000000.0 -0.08210751780322059 -0.2454390543948049
1880000000.0 0.23949237900369696 -0.16464620653841003
1900000000.0 -0.2681659478301699 0.16266579423144997
1920000000.0 0.19656886557738315 0.285805973581407
1940000000.0 -0.20673798015900538 -0.3149373007386432
1960000000.0 0.20246225567158724 0.34317256662566265
1980000000.0 0.22404892883359184 -0.3413851172061612
2000000000.0 -0.14478513810279042 -0.3933620278068988
2020000000.0 -0.4131505509832457 -0.11551194760964643
2040000000.0 -0.12583969306226156 0.4201269745485989
2060000000.0 0.32084161702815345 -0.29190021611890155
2080000000.0 -0.27809447004057347 -0.3091747272539024
2100000000.0 -0.3182547296008192 -0.2334005892181546
2120000000.0 -0.031024813515985093 -0.378742622205846
2140000000.0 -0.09030872406081901 -0.35976019329659975
2160000000.0 0.2636039928191765 -0.23817929814503305
2180000000.0 0.19112683812466366 -0.27704530941262534
2200000000.0 0.25841712206519823 -0.19308909000681376
2220000000.0 0.27824263469893656 0.1468703799984339
2240000000.0 0.3043486807085169 0.10440542185741743
2260000000.0 0.20027489248844138 -0.26266976373991213
2280000000.0 -0.338692345978273 0.0655812729831472
2300000000.0 0.3527390360412268 0.07430127819883765
2320000000.0 -0.29312003566622 -0.25291526913256657
2340000000.0 0.35867933950353303 0.22978066591098353
2360000000.0 -0.4152245945834677 0.22023014812559008
2380000000.0 -0.1604154001343894 -0.4958379329412012
2400000000.0 0.41373479366591437 -0.39524626652490513
2420000000.0 0.5760288147395414 0.2208659172675434
2440000000.0 -0.13399751244045227 0.6410412153808643
2460000000.0 -0.6144598951302405 -0.30121359213811355
2480000000.0 0.6492575802185936 -0.2759305025487566
2500000000.0 -0.529561510326434 0.4834600843071014
2520000000.0 0.5760310268286667 -0.43399305112972286
2540000000.0 -0.6892412474082871 0.20284220676676504
2560000000.0 0.6873771095886674 0.17266680595160366
2580000000.0 -0.3198877955502417 -0.6127527249813363
2600000000.0 -0.03525045313511021 0.6652904658151431
2620000000.0 0.3414004023604193 0.5386944262977088
2640000000.0 -0.10302730223400025 -0.5949462044278687
2660000000.0 -0.22011520066112913 0.5208457794306978
2680000000.0 0.3864290414358412 -0.3552929475678383
2700000000.0 -0.4697087946784358 0.13088737023545166
2720000000.0 0.44117166665289853 -0.10117066964286604
2740000000.0 -0.4085464700109076 0.10114211951078957
2760000000.0 0.2895740415977458 -0.26783860782624186
2780000000.0 -0.19063953607774842 0.3177186037362622
2800000000.0 0.30324062899843474 -0.1880434057478253
2820000000.0 -0.3056080235342681 0.174305201884716
2840000000.0 0.3122485999463978 -0.16219044492248655
2860000000.0 -0.30932235216973086 0.17599969954211483
2880000000.0 0.3559096863134807 -0.03523762173307077
2900000000.0 0.002145495912891394 -0.3597028629626752
2920000000.0 -0.32362721963149704 -0.16960503470701538
2940000000.0 -0.3481887170904462 0.12217718337538529
2960000000.0 -0.3487294715001938 0.12259253828230768
2980000000.0 -0.3650124360570969 -0.06395538415884877
3000000000.0 -0.04152552709794974 -0.3698533266624212
3020000000.0 0.3510425830794787 -0.11758167914799611
3040000000.0 -0.04256508771761617 0.35945383037725476
3060000000.0 -0.03817317019082462 -0.3529097161325025
3080000000.0 0.029412855140905917 0.3440887501722916
3100000000.0 0.026192402761876326 -0.33738076446939547
3120000000.0 0.17997911013363999 0.2742812784307475
3140000000.0 -0.31501441184648366 -0.02638998964912776
3160000000.0 0.2567802121208792 0.1494733176051439
3180000000.0 -0.12397987529339664 0.2416293230529829
3200000000.0 -0.10755643340637148 -0.21599882572712975
3220000000.0 0.11515043269151848 0.17469836881611908
3240000000.0 0.055547376254526395 -0.1691193196798271
3260000000.0 -0.12791729169807786 -0.07945566961652079
3280000000.0 -0.07614460874560078 0.09797983254080726
3300000000.0 -0.0025343395849614222 0.10146056433869763
3320000000.0 0.060841188128669316 0.05182895412116359
3340000000.0 0.02508119794701022 -0.056952066811884416
3360000000.0 -0.006220840512238379 0.045740812442635864
3380000000.0 0.02480191031341627 -0.025802791298929963
3400000000.0 -0.01232611533253349 0.027080964394100966
3420000000.0 0.011428706452671869 -0.025373093112949108
3440000000.0 -0.030505837714975143 0.016260997182373695
3460000000.0 0.042322162674698495 0.014568547242068068
3480000000.0 0.0550387630918303 -0.010505451195022579
3500000000.0 -0.05643946507783254 -0.046132389999722564
3520000000.0 0.04851951909811611 -0.07725496673716015
3540000000.0 0.06785022651319915 0.07874142196870987
3560000000.0 0.11004877022210742 -0.029675712513838434
3580000000.0 0.10060023317084005 -0.07327719520720301
3600000000.0 0.05923067869811243 -0.12140141329107941
3620000000.0 0.06547903950016351 -0.12910556360800132
3640000000.0 0.11998415287696222 -0.09095313811596707
3660000000.0 0.1257903191028135 0.0931888729585186
3680000000.0 -0.09268657076676443 0.1301774617361646
3700000000.0 -0.149379795370497 0.06011448415121055
3720000000.0 0.06500233065965896 -0.1455954872916819
3740000000.0 0.06032308409165327 0.14314699491522193
3760000000.0 0.033293877090641896 0.1504128754436892
3780000000.0 -0.058110786560545934 0.14250142850067551
3800000000.0 -0.1463576991978827 0.058072644090902126
3820000000.0 -0.0825673946491514 0.1477519974691591
3840000000.0 -0.004710664809050131 -0.17346841794490006
3860000000.0 -0.10628037941241418 0.143406401830492
3880000000.0 0.030187736422742764 -0.18406140968050824
3900000000.0 0.16523109714508205 0.10251593600299827
3920000000.0 0.1544734442951177 0.12606855793149221
3940000000.0 0.20027309787106443 0.0027428063117447515
3960000000.0 -0.0035573393514400594 -0.1951062845164882
3980000000.0 -0.16953233550755395 -0.07154851357995622
4000000000.0 -0.17025132275285187 0.01057642808467352
