!Created with skrf (http://scikit-rf.org).
# Hz S RI R 50.0 
!freq ReS11 ImS11
400000000.0 -0.8388369478888746 0.20483016243139202
420000000.0 0.4285368882268232 0.7217106403052167
440000000.0 0.4696903569002478 0.6225135822744741
460000000.0 -0.06241833306000675 0.7201416536441068
480000000.0 -0.4357276663350295 0.5034351124148099
500000000.0 -0.45735959580110336 0.38340157718602574
520000000.0 0.4105849778595434 -0.3165219571754704
540000000.0 -0.001139286738935799 -0.4634662195131704
560000000.0 0.3370745589588238 0.27414963732719017
580000000.0 0.37703980634121015 -0.08820538477465867
600000000.0 -0.29011403500842253 -0.1959431726745699
620000000.0 0.08727825212545647 -0.34840388113711274
640000000.0 0.4099724339055458 -0.0004920132105333088
660000000.0 0.12857697398612067 0.43398179661553526
680000000.0 -0.38419503014161804 -0.2588686557787817
700000000.0 0.002420487398379346 -0.4504841472963346
720000000.0 0.04204894391470969 0.4259937330498575
740000000.0 -0.08124622065627223 0.37822564373796147
760000000.0 -0.09341481656853755 -0.33966037840075797
780000000.0 0.32488096842170516 0.05815541487714285
800000000.0 -0.15888257061231106 -0.25389031016685215
820000000.0 -0.0969374803733423 0.22473094866761084
840000000.0 -0.11166812257545136 -0.15797377703900525
860000000.0 -0.06964071858446856 -0.13469997434804093
880000000.0 0.09729826785223071 0.06972138231563964
900000000.0 0.026150364206260285 0.0956383526507351
920000000.0 0.053762751916208835 -0.04453629610283921
940000000.0 0.05445666587512568 -0.0010621173005704247
960000000.0 0.047088001688353295 0.04509810830463885
980000000.0 0.02239511328620452 -0.06265421232463496
1000000000.0 0.04089043747807739 0.06278844304821235
1020000000.0 0.0837748345188717 0.031485484128892724
1040000000.0 -0.01707805843171011 0.11035785288103707
1060000000.0 -0.10672153150407959 -0.10236640738153542
1080000000.0 -0.17927371172055573 0.006893630087543882
1100000000.0 0.20576602633992638 0.0772181515985011
1120000000.0 -0.25437511586041955 -0.026619871548118464
1140000000.0 -0.2649682067786453 0.09592217853928277
1160000000.0 0.2275260735968595 -0.20025351032304434
1180000000.0 0.31785508628491393 0.016069114983571227
1200000000.0 -0.27866224059814837 -0.18543227295847986
1220000000.0 -0.3055105344387666 0.18584795929167905
1240000000.0 0.30283345328885986 0.23738231549595604
1260000000.0 -0.1612595358408648 -0.3705270487728823
1280000000.0 -0.28709865375922566 0.29868614001539173
1300000000.0 0.2747957170637243 0.3179353392647179
1320000000.0 0.4159995095087468 0.014201785403119479
1340000000.0 0.4137615411776838 0.002945241148544437
1360000000.0 0.4031731916236228 -0.014652263138187965
1380000000.0 0.3554933558148441 0.173122828857706
1400000000.0 0.3855637613588052 0.029512766131590148
1420000000.0 0.10570406907995493 -0.3592761725072641
1440000000.0 -0.12023615428443302 0.3348060967906078
1460000000.0 0.16196995881068485 -0.2740352443920628
1480000000.0 -0.2624470448635251 -0.10389899939524243
1500000000.0 0.057794470262789714 0.24187721679610716
1520000000.0 0.1883587624553652 0.09742111000454923
1540000000.0 -0.09205373994137232 -0.1531452936954311
1560000000.0 0.12370098897740815 0.08386434434539959
1580000000.0 0.06938022233441475 0.09171798537510814
1600000000.0 0.05809892469238882 0.05531662907499601
1620000000.0 0.019710620815043475 -0.05284579645283678
1640000000.0 0.01859135399785013 0.025532312180012857
1660000000.0 -0.0026900951549169733 0.01125525801786666
1680000000.0 -0.016476080483609972 -0.009426098407521488
1700000000.0 -0.003556718760551735 -0.03280698526158044
1720000000.0 -0.04304149367081623 0.02282200399886816
1740000000.0 -0.06682126955888569 0.01722673500671979
1760000000.0 -0.08472429589728891 0.014644396208462357
1780000000.0 0.0038253812112797035 -0.11318821485134076
1800000000.0 0.14815389341924476 -0.020867465494042083
1820000000.0 -0.00899328522137727 0.1826651809655918
1840000000.0 -0.010049154440015962 -0.21864535417961004
1860000000.0 0.24736178115059565 -0.07425223763493953
1880000000.0 0.11391294929972427 0.27179594251601447
1900000000.0 -0.32332234396951437 0.01364036724340995
1920000000.0 0.34894888564853577 0.013823620066732895
1940000000.0 -0.2360179567624766 -0.2881616501493118
1960000000.0 0.043023470497582185 0.3897305895855704
1980000000.0 0.3966213210350578 -0.09194746014549808
2000000000.0 -0.24123888645823027 -0.34369807283036896
2020000000.0 -0.3765005121192275 0.19200754919170285
2040000000.0 -0.035410828468614784 0.42293518049465717
2060000000.0 0.41027273251598245 0.09549799547033884
2080000000.0 0.21727580332093144 -0.3485640423673112
2100000000.0 -0.07476777045078366 -0.39120918359989887
2120000000.0 -0.2702173504051967 -0.27230377516904763
2140000000.0 -0.36673074408246537 0.0024476121640086726
2160000000.0 -0.015205711259941716 -0.34201576678938195
2180000000.0 0.17468915035023205 -0.2743416361187087
2200000000.0 0.31284891301313517 -0.03163417399785017
2220000000.0 0.30739082076034874 0.0639141629202712
2240000000.0 0.11103235749872721 -0.29811368610337197
2260000000.0 -0.317711419789991 0.010617787176581236
2280000000.0 -0.1250703353678377 0.30018176720679884
2300000000.0 0.2490494327267329 0.23796882733531394
2320000000.0 -0.22135642485073673 -0.3054451676085379
2340000000.0 0.3749685198829716 0.1852125171119704
2360000000.0 -0.3347090008166128 0.32135408936542237
2380000000.0 -0.22999524185754736 -0.45887624689576356
2400000000.0 0.538396123660102 -0.1767270155212135
2420000000.0 0.28708199341563656 0.5454857824150284
2440000000.0 -0.5041507567667494 0.424528250869948
2460000000.0 -0.48605029962371377 -0.4937493143824572
2480000000.0 0.7096815010867065 0.045976666139403155
2500000000.0 -0.5556497011239603 0.4721351749449266
2520000000.0 0.36961431657540117 -0.6395718894910694
2540000000.0 -0.47507260407884705 0.5660789253142634
2560000000.0 0.7318856040846692 -0.021128302301023714
2580000000.0 -0.4185132037650716 -0.5836368611553415
2600000000.0 0.06598030286180777 0.6926147259689738
2620000000.0 0.5475616659147342 0.3824779301651767
2640000000.0 -0.4045324691378278 -0.4917424839213538
2660000000.0 0.32342252324090776 0.5069480594998458
2680000000.0 -0.32676593810026255 -0.46092156029889864
2700000000.0 0.23405480558745242 0.4698024437538858
2720000000.0 -0.12554987535862017 -0.469297546864518
2740000000.0 -0.20986197542666526 0.401735293258765
2760000000.0 0.3444346792574591 -0.25540228769973944
2780000000.0 -0.3737959605576174 0.16983906727489523
2800000000.0 0.34945802164395934 -0.18510178759097104
2820000000.0 -0.29964511929202775 0.247024449049223
2840000000.0 0.3007291678511388 -0.2383538858743523
2860000000.0 -0.3802552894753107 0.06090472928423961
2880000000.0 0.32367791064522405 0.20888994895515087
2900000000.0 0.23664478798155852 -0.3037661428061523
2920000000.0 -0.012710908803206782 -0.38667889031376873
2940000000.0 -0.15197840144921898 -0.3578023718639675
2960000000.0 -0.14535546477904643 -0.3581218742411487
2980000000.0 0.24161743309868966 -0.2995569138211951
3000000000.0 0.33234384038301984 0.1945388123315628
3020000000.0 -0.309137334840542 0.22489551439023414
3040000000.0 0.26749122017507143 -0.2684979093051553
3060000000.0 -0.057190263097877725 0.37462498195760074
3080000000.0 -0.34204586112162244 -0.13866375932175082
3100000000.0 0.30459383684896607 -0.1828182899803996
3120000000.0 -0.2238714167314635 0.2524017076571265
3140000000.0 0.28055074142393216 -0.15512956074913573
3160000000.0 -0.18702687981198976 0.23749515615388817
3180000000.0 0.27076510883077304 -0.07760328784170938
3200000000.0 0.17519018031970732 -0.18517441538367602
3220000000.0 -0.2132458690129612 0.06102208549596569
3240000000.0 -0.18701916010934244 -0.01713010955389286
3260000000.0 0.1062704474116696 -0.12258408676830813
3280000000.0 0.06074505919819726 0.12438351030125469
3300000000.0 -0.06370681193258348 0.10283014248783742
3320000000.0 0.05366424642628047 0.09289104016995901
3340000000.0 0.07819895144608009 0.04952962319288422
3360000000.0 -0.0032709192923668904 -0.08790110192297133
3380000000.0 0.06089624495096263 0.06202483293122141
3400000000.0 -0.07252580158986245 0.037612822169028635
3420000000.0 -0.06808489742788372 -0.018031013446184845
3440000000.0 0.053667999041561054 0.01015399466030384
3460000000.0 -0.044405522456085894 -0.019464180457136857
3480000000.0 -0.051481573266794305 -0.009345271245000912
3500000000.0 0.04554767493499966 -0.04759781737314061
3520000000.0 0.01546749030887305 0.09788830111669033
3540000000.0 -0.0897412505466113 -0.0754135680820244
3560000000.0 -0.09951220805625254 -0.06795551364331812
3580000000.0 -0.12178987386281395 -0.06286337923991511
3600000000.0 -0.0919032124048556 -0.1184753846868589
3620000000.0 -0.06605767415295252 0.1535788998163642
3640000000.0 0.07342259451625426 0.18216146582486242
3660000000.0 0.15114835582932004 -0.1430589026545319
3680000000.0 -0.09898958609358081 0.20746647224201725
3700000000.0 -0.18798496848557983 0.13909230371281378
3720000000.0 -0.17322672990378205 0.18000045294971773
3740000000.0 -0.15986206001697006 0.19843590864519536
3760000000.0 -0.2509384228963696 0.0803960772508836
3780000000.0 -0.04329312201293987 -0.26435536049054736
3800000000.0 -0.1260527586357954 -0.22992484446817407
3820000000.0 -0.007721722032619682 -0.26392180872797133
3840000000.0 0.06575941630127079 -0.25444423504984603
3860000000.0 0.10050172177503632 -0.23562957107025098
3880000000.0 0.15840642730513194 0.19259295339734486
3900000000.0 0.26187641610594925 -0.0313998160700148
3920000000.0 0.03514270810680748 0.26783055816238194
3940000000.0 0.15960160417289881 0.21388145613136686
3960000000.0 0.22117710104131558 -0.14272138159730163
3980000000.0 0.20194619760876625 -0.13220368631174859
4000000000.0 -0.121849974773604 0.1852857039467737
