!Created with skrf (http://scikit-rf.org).
# Hz S RI R 50.0 
!freq ReS11 ImS11
400000000.0 -0.8540172034786289 0.09161689305032567
420000000.0 0.09465274405580991 0.8372207415466892
440000000.0 0.4263924262707542 0.6594853956430278
460000000.0 0.15185125370918967 0.7067755582786833
480000000.0 -0.6574567151461482 0.0738970676342171
500000000.0 -0.5792904699039408 -0.1642350286601029
520000000.0 0.3664772812974733 -0.39026331512678136
540000000.0 -0.4623774379433777 -0.06338950122839639
560000000.0 0.26360421197592615 -0.34591759765033875
580000000.0 0.19549004745035675 -0.33724154812067464
600000000.0 -0.22480911626589112 0.27596139394740626
620000000.0 -0.33965033690075447 -0.12889346176069785
640000000.0 0.20740735618844688 -0.354359723760597
660000000.0 0.3404795501889077 0.2882544312438155
680000000.0 -0.41805645872872366 -0.19233498833774268
700000000.0 -0.3263348221869921 -0.296659995424196
720000000.0 -0.2166435604775826 0.3537099477924626
740000000.0 -0.3301808274228453 -0.1725558604558125
760000000.0 0.0999705853891724 0.3425805939977229
780000000.0 0.1594397811613653 0.29829508357415135
800000000.0 0.04580389647456218 -0.3009620948492027
820000000.0 -0.21893483207731673 0.1296105197538831
840000000.0 -0.06373986254340758 -0.19114723711485182
860000000.0 -0.07726479287394937 0.15010108736637623
880000000.0 -0.06922513276675142 -0.11046334546226874
900000000.0 0.04540775574437533 -0.08485966264461875
920000000.0 -0.058332684835403506 0.0008944297439641608
940000000.0 0.01790982381552164 -0.03283197479620312
960000000.0 -0.011394003192916084 0.04568687399170503
980000000.0 0.05035189735928488 0.02357140661795778
1000000000.0 0.051968697929918165 0.04964210630832444
1020000000.0 0.09588059285853805 -0.018866045056536364
1040000000.0 -0.03462840505451843 0.11808768887046857
1060000000.0 -0.13426664590741674 0.08366399742254968
1080000000.0 0.04752922326420996 -0.18095017613890263
1100000000.0 -0.14363555124414196 0.1585140943808492
1120000000.0 -0.010136303388065662 0.2412487797201546
1140000000.0 -0.2627192992094952 0.03572938317585037
1160000000.0 -0.09912116157132343 0.2754484115853511
1180000000.0 -0.09296349360479282 0.3024497333603142
1200000000.0 0.22468277246373405 -0.2545105506092272
1220000000.0 -0.1143599131371778 0.34817378022477324
1240000000.0 0.3734986940772684 -0.09449635036697393
1260000000.0 -0.3229261739476997 -0.23480682369324007
1280000000.0 -0.33052684507270574 0.2377068178052185
1300000000.0 -0.2495408269941286 0.333213531114515
1320000000.0 0.25134937666004387 0.343265668642608
1340000000.0 0.3591412516406442 -0.22130326860473112
1360000000.0 0.28381601947845075 -0.2952175943421485
1380000000.0 0.26183571556587365 -0.30218214795140225
1400000000.0 -0.2695408147886664 -0.2726441133827721
1420000000.0 -0.33884525324787873 -0.1070171028607818
1440000000.0 -0.3039796461011116 -0.1382994571797258
1460000000.0 -0.2810998913465698 0.13699247073819285
1480000000.0 0.28101342998272566 0.07305362927269946
1500000000.0 -0.21660746683000148 0.14055146499875376
1520000000.0 0.19351096074386717 -0.10826838200931567
1540000000.0 -0.1695279370789828 0.051343431864444865
1560000000.0 0.0875553872401594 0.1163209420123282
1580000000.0 -0.0558458349406926 0.09558344396305453
1600000000.0 -0.02062688476451692 -0.07656182516172425
1620000000.0 0.043635949896739606 -0.04298162757883536
1640000000.0 -0.028286698816804522 -0.02268539465851865
1660000000.0 0.003959374579017105 -0.0046621576789587895
1680000000.0 -0.013009368966995814 0.015228402247350325
1700000000.0 -0.043449379712708916 0.005224642069400094
1720000000.0 -0.060829284473715516 0.01019462705494839
1740000000.0 0.07278688246260326 -0.022254982409847437
1760000000.0 0.07763360456144633 0.04622777946022801
1780000000.0 0.06589865371455472 0.09649283433476578
1800000000.0 -0.12402795092222793 0.08162002458252698
1820000000.0 0.17516533844911458 0.005529152760685563
1840000000.0 0.07789887195648544 -0.1969039110401725
1860000000.0 0.228403001365266 0.12113365906364615
1880000000.0 0.18925648400961878 0.23204175184473494
1900000000.0 -0.22630136397917966 0.23590426386950328
1920000000.0 0.19158806715339416 -0.2932734003285034
1940000000.0 -0.36947271743265414 -0.04130608912583433
1960000000.0 0.18421278713101985 0.3463710836729804
1980000000.0 0.38466710849259733 -0.12852654381757864
2000000000.0 0.08071730527300902 -0.412397316290091
2020000000.0 -0.4103572993983629 -0.1384726017574069
2040000000.0 0.1485275040688717 0.41051093603672234
2060000000.0 0.3690392601641496 -0.21698769809903648
2080000000.0 -0.02621419629113032 -0.4148739700988643
2100000000.0 -0.28632538464273055 -0.278668605440941
2120000000.0 -0.32688737316137967 -0.20261993143985724
2140000000.0 -0.3437469416922691 -0.1321187159382069
2160000000.0 0.22314853034926752 -0.27084484200673026
2180000000.0 0.21176528441459627 -0.2604840630867389
2200000000.0 0.12684922245844543 -0.29951932842444945
2220000000.0 0.18255659028567062 -0.25839731394535376
2240000000.0 0.23668392815406983 -0.2119320599333373
2260000000.0 -0.004819269942567559 -0.32904353633867023
2280000000.0 -0.2453677610583013 0.24419649693196255
2300000000.0 0.32037665227538953 -0.18131631590995095
2320000000.0 -0.27269656809718934 0.2873007189563559
2340000000.0 0.1678324394592264 -0.3991061150713086
2360000000.0 0.24353627093273397 0.41290871527265305
2380000000.0 -0.4194976447265001 0.32878351711647236
2400000000.0 -0.49799027177170285 -0.3053569170974192
2420000000.0 0.06328568649258405 -0.6269387414539171
2440000000.0 0.6682418416790257 -0.003638772069266121
2460000000.0 -0.2150308622796558 0.664143432886342
2480000000.0 -0.3878240814316435 -0.6053366018510952
2500000000.0 0.48904300446505206 0.5428002828138827
2520000000.0 -0.5090578485581415 -0.5297487255871193
2540000000.0 0.3517295356390563 0.640747375449889
2560000000.0 0.03811271366339305 -0.7189045619613035
2580000000.0 -0.4344932510803649 0.5498153754451232
2600000000.0 0.6500453295312467 -0.1816768839339156
2620000000.0 0.40173261055575754 -0.5044855806974011
2640000000.0 -0.5767438338944149 0.20268509028107498
2660000000.0 0.5634205569328642 0.10781144147200901
2680000000.0 -0.4895993558002122 -0.21380804220170488
2700000000.0 0.313104594405362 0.38415128477153787
2720000000.0 -0.1485071436042669 -0.43734404526480813
2740000000.0 0.0423378704123286 0.42831846883314467
2760000000.0 -0.025842550122696366 -0.403575029277392
2780000000.0 0.07061756738697492 0.3777264251490773
2800000000.0 0.07023764917691253 -0.3640083970204296
2820000000.0 -0.1818324596215985 0.31515376198177086
2840000000.0 0.20709033943516592 -0.2988466593849871
2860000000.0 -0.3065914832559676 0.19388880470406802
2880000000.0 0.28078446315632594 0.23121812709370373
2900000000.0 0.3182899847087667 -0.18099007213767027
2920000000.0 0.09646782950866782 -0.35911165773320936
2940000000.0 -0.29924281278560466 -0.22871597124850507
2960000000.0 -0.3505875464343217 -0.12958424043000408
2980000000.0 0.04537564210793137 -0.3685524843647196
3000000000.0 0.37277077595423835 -0.023384039631238935
3020000000.0 -0.019581528207355318 0.3701552275504536
3040000000.0 -0.345887158086596 -0.11487142872773543
3060000000.0 0.3540928191991275 -0.0339383410169579
3080000000.0 -0.34445014946535485 0.046482189796997454
3100000000.0 0.33211925259012354 0.05053554305087034
3120000000.0 -0.32596848592166033 -0.013772562529402167
3140000000.0 0.21330025150598286 -0.22850204338859217
3160000000.0 -0.28774954803909203 -0.054161897370859205
3180000000.0 0.1213547891510162 -0.23846671650386692
3200000000.0 -0.13612959051374238 0.1915270782265901
3220000000.0 0.20215005154949092 0.02901808268187475
3240000000.0 0.16191379022929178 -0.06772747346373324
3260000000.0 0.1474649452569833 -0.015903998207750993
3280000000.0 -0.018914963376501184 0.12059378259524503
3300000000.0 0.09990057289971355 -0.029090935878424592
3320000000.0 -0.0741495769012602 0.04481774044557945
3340000000.0 0.04722293606988834 0.0559257542357718
3360000000.0 -0.051527796832401426 -0.03483902326459934
3380000000.0 0.05203805798589899 0.0004979218577032154
3400000000.0 -0.026545014000518372 -0.0364166838748859
3420000000.0 0.03381353102466194 -0.006459928737912617
3440000000.0 0.019822773768575313 0.015773046074105884
3460000000.0 -0.003731668650854912 0.022632659382338934
3480000000.0 0.027364121000762857 0.00462227369328053
3500000000.0 -0.03907531612345141 0.007715514318533244
3520000000.0 -0.023487107290479592 -0.05133986044203123
3540000000.0 -0.06237313604256627 -0.03136579290687988
3560000000.0 0.06932934794142687 0.039645842804366734
3580000000.0 0.08681650648505485 0.027774701662130974
3600000000.0 0.016948590197012253 0.102870687308018
3620000000.0 -0.06688507154087925 0.0990751211503622
3640000000.0 -0.08981561945804725 0.09824401426996426
3660000000.0 -0.12725778873477595 0.06713372561014182
3680000000.0 -0.02666985112554872 -0.15113008848206821
3700000000.0 0.14621596553534486 -0.07423081191328788
3720000000.0 0.1598101779144828 0.06337497905608139
3740000000.0 -0.023859699064409618 0.17545876237451127
3760000000.0 0.1572249691867525 -0.0952847994480894
3780000000.0 -0.06609042036679225 -0.18226308737009778
3800000000.0 0.02684850362655911 0.20720359333868352
3820000000.0 -0.2114477329772623 0.06839481469335916
3840000000.0 -0.22464868165181737 -0.052902017986851395
3860000000.0 -0.06293604044170373 -0.22609385274104182
3880000000.0 0.19682438499747737 -0.14074879660814452
3900000000.0 0.2440206222167963 0.04279092992718613
3920000000.0 0.1976442077167321 -0.1585129010345713
3940000000.0 -0.2357199655385089 -0.09659695149382651
3960000000.0 0.08880359516673571 0.22923610591390367
3980000000.0 0.2186193099755828 -0.08150619112807955
4000000000.0 0.21398610771490278 -0.03999259869544853
