!Created with skrf (http://scikit-rf.org).
# Hz S RI R 50.0 
!freq ReS11 ImS11
400000000.0 -0.8363284873363964 0.18326702171767784
420000000.0 0.28175961142148914 0.7923702246760804
440000000.0 0.6959943808915576 0.3635636418444192
460000000.0 0.5413704261896773 0.4660383427336516
480000000.0 -0.6403368652852738 -0.10684690812989381
500000000.0 -0.22691085552782692 -0.5561285364644598
520000000.0 0.5377146819359404 -0.008523107324833348
540000000.0 -0.4699870499101946 -0.03908698725250706
560000000.0 0.40853589299372123 -0.17141762455724224
580000000.0 -0.07572008336031416 -0.381129964138878
600000000.0 -0.2477406972306721 0.24762053400995238
620000000.0 0.14630297258184913 -0.32689040068607433
640000000.0 0.13074401271715883 -0.3899632492967159
660000000.0 0.30161886495598944 0.3288062042750572
680000000.0 -0.16992399357181012 -0.4240724433592394
700000000.0 0.07354413373452268 -0.44137213807081693
720000000.0 -0.39136586451428 0.16608283530674017
740000000.0 -0.2243409787418923 0.31982790082654217
760000000.0 -0.1352419703941562 -0.3278520698808472
780000000.0 -0.08594104610568983 -0.32246900666344325
800000000.0 -0.282662567832495 -0.0467091209201733
820000000.0 -0.20974262535756352 -0.10383907512919904
840000000.0 0.08515242774255731 0.1782869676722306
860000000.0 -0.14120687611535349 -0.08614888699074831
880000000.0 0.1249226706274075 0.02467663509932083
900000000.0 0.0309207817182458 0.07909995490258663
920000000.0 0.03213655886086856 -0.051460731214543004
940000000.0 -0.04160912498796894 0.005759931471700027
960000000.0 -0.06495804891857793 0.011700723795604799
980000000.0 0.018713471959355292 0.07267569398492411
1000000000.0 -0.0011337360656079945 0.07961276203358943
1020000000.0 0.033394497671581466 -0.08998952076948127
1040000000.0 -0.07952440240506553 -0.07889221321228863
1060000000.0 0.10290988896305231 -0.10659028277470158
1080000000.0 0.08256301137484338 0.16945236511639558
1100000000.0 -0.09016603123025325 -0.19632884406712423
1120000000.0 -0.24922360883653483 0.04061951957426248
1140000000.0 -0.07742040304251613 0.26502100837120346
1160000000.0 0.23428339485310962 0.17942284214903867
1180000000.0 0.11403202460244365 0.29717150757445937
1200000000.0 -0.09143333239970321 -0.32680326438538043
1220000000.0 -0.016919813409144016 0.3637465804490089
1240000000.0 0.3757805784065152 0.06646970864845192
1260000000.0 -0.14728985224745328 -0.37848339220894106
1280000000.0 0.10237552073179058 0.40150550122940276
1300000000.0 0.295578561878848 0.2843977473731584
1320000000.0 0.3398048958999166 0.23344322897506722
1340000000.0 0.2859463316029686 0.296222540828401
1360000000.0 0.31539788743379366 0.26284492045467167
1380000000.0 0.40125432853217835 0.02620407620282615
1400000000.0 0.1482361371916587 -0.36049049848275977
1420000000.0 -0.2959384742060577 -0.21655342414911186
1440000000.0 -0.3245414261598138 0.113116195711907
1460000000.0 0.2517234956625046 0.19868364797830798
1480000000.0 -0.28549574854569637 -0.03739597383928458
1500000000.0 -0.01752892924640904 0.24518889411954367
1520000000.0 0.19933120528456336 0.09471027055875775
1540000000.0 0.1313659242557204 0.11807004841454134
1560000000.0 0.11489726296096613 0.0749156748001844
1580000000.0 0.0782152135750174 0.07321828252877059
1600000000.0 0.08444322171004809 0.005128463755297105
1620000000.0 -0.04159294695932172 -0.04210863946504463
1640000000.0 -0.01532257185152798 -0.024091128020538227
1660000000.0 0.004092605296743925 0.012599136299369726
1680000000.0 0.024189953572669117 0.005997237511421772
1700000000.0 -0.03122798638088951 0.006909745010317509
1720000000.0 -0.04051245891312193 0.026739005441762657
1740000000.0 -0.03080358448982536 -0.061933732751353464
1760000000.0 -0.02865969312158653 -0.08204576370136954
1780000000.0 0.06053573918504767 0.10091524031134187
1800000000.0 0.09948448830504548 0.12258754685534047
1820000000.0 0.10366958456996275 0.15871387700305406
1840000000.0 -0.2220655480137549 0.017131575899736184
1860000000.0 0.18661127496753274 -0.18078071493378706
1880000000.0 0.29383114827338447 0.03960193063245168
1900000000.0 -0.2895314393563851 0.14051601241204503
1920000000.0 0.31047673404958326 0.15697035102685108
1940000000.0 -0.12236796819569117 -0.35777644581153745
1960000000.0 0.0394019323934278 0.397412875388701
1980000000.0 0.17325888603144926 -0.375997683056079
2000000000.0 -0.4181814967840214 -0.02455592360364644
2020000000.0 -0.3802212160910295 0.18535606401882335
2040000000.0 0.03692364607018013 0.42615097825916665
2060000000.0 0.4218256190450589 -0.04532904252774975
2080000000.0 0.16489767158712534 -0.3782895315628592
2100000000.0 -0.048081201981992824 -0.39860464504586285
2120000000.0 -0.2645480534218298 -0.2859095544015227
2140000000.0 -0.3625955656694368 0.08505607053875677
2160000000.0 -0.08587931667597333 -0.3422484784444867
2180000000.0 0.0013101135699938983 -0.3345165572242562
2200000000.0 0.2429558475457089 -0.21825087616302902
2220000000.0 0.1144966742045172 -0.30445581308140496
2240000000.0 -0.2912875281718139 -0.14684759358072688
2260000000.0 -0.2859457849808971 0.16484904970750927
2280000000.0 0.29068455298189 0.18496681139003357
2300000000.0 -0.07330849038383626 -0.3565045569912531
2320000000.0 -0.14256087552717941 0.36897099926827626
2340000000.0 -0.014578202106730026 -0.43975884386879954
2360000000.0 0.4784822038929088 -0.09789387989348461
2380000000.0 0.3093886561341438 0.4428301516477041
2400000000.0 -0.24740071420969442 0.5363696804492006
2420000000.0 -0.6363236630416116 -0.028396185764964874
2440000000.0 -0.08863056583089493 -0.6690731716663455
2460000000.0 0.702034753293149 0.04991407206327241
2480000000.0 -0.4406477273157608 0.5750354905607136
2500000000.0 0.21368961715311122 -0.7046447726266565
2520000000.0 -0.3103634951729166 0.673031587438383
2540000000.0 0.5972008959354087 -0.4324340768651341
2560000000.0 -0.6954856445362811 0.21000090318751286
2580000000.0 0.5790371617099436 0.3997129202976156
2600000000.0 -0.373907852410459 -0.5700292980467733
2620000000.0 -0.6120945678588084 -0.2243605379083668
2640000000.0 0.42563861237605 0.4473763406980664
2660000000.0 -0.1681345456606015 -0.5540613316069843
2680000000.0 -0.12849727409321302 0.5251299755103728
2700000000.0 0.3977772855730525 -0.30896051299511074
2720000000.0 -0.4669570645724095 0.039746594291876526
2740000000.0 0.3954258649868179 0.18651513490055013
2760000000.0 -0.2849060762864708 -0.29614817379617014
2780000000.0 0.09916992144044026 0.3791119820634451
2800000000.0 0.06289638488350917 -0.37552622329609897
2820000000.0 -0.028018278050466264 0.37632621493344187
2840000000.0 -0.0804068754794889 -0.368723123435519
2860000000.0 -0.02373006884703124 0.3732796354581729
2880000000.0 0.3706702043564156 0.024553201225224263
2900000000.0 0.31825278100437354 -0.19625362903308527
2920000000.0 -0.08919763316694033 -0.3675767475215315
2940000000.0 -0.2812441123102893 -0.25197655787259193
2960000000.0 -0.11814524303079581 -0.3585099052839463
2980000000.0 0.3588146350717002 -0.12139984525600682
3000000000.0 0.21838191924640518 0.3121112548714703
3020000000.0 -0.2173899558052815 0.3051154585314543
3040000000.0 0.12711697371996672 -0.34852759162223923
3060000000.0 0.007343388461262396 0.36685951421778146
3080000000.0 -0.22180584197030803 -0.28354717984897615
3100000000.0 0.28476827626391477 0.19098643494108394
3120000000.0 -0.0022525094155716138 -0.3272911703602379
3140000000.0 0.10119427041310329 0.2970288396311097
3160000000.0 -0.24093512878693174 -0.16164890792956976
3180000000.0 -0.21388772678316287 0.15250094909291145
3200000000.0 0.1605252365822209 0.17271367224280787
3220000000.0 0.2043425310752369 -0.02671653053100837
3240000000.0 -0.01266168296471358 0.1817196214829866
3260000000.0 -0.0769733032194098 0.14354102265232738
3280000000.0 0.06317267501856126 0.12158735399377554
3300000000.0 0.10529736662005143 0.0558368145404779
3320000000.0 0.06514463583426891 0.06845640843053463
3340000000.0 0.05773602370481127 0.06403959436337725
3360000000.0 0.0251231988334797 -0.08189689916565397
3380000000.0 0.00013447657723664907 0.08377517769343114
3400000000.0 -0.010595793744339051 -0.09116278491561286
3420000000.0 -0.021060144937196497 0.08388142059702895
3440000000.0 0.014755569592639683 -0.07470774006026255
3460000000.0 0.06497084698528723 0.007241559051002487
3480000000.0 0.02118389692264462 0.04351749295430556
3500000000.0 0.002358216050351333 0.037168091079959914
3520000000.0 -0.035028070791194625 0.04136908272907728
3540000000.0 -0.04805313174601231 -0.05809693296882204
3560000000.0 0.035922500761140536 0.08186510729182525
3580000000.0 -0.13455433897670313 -0.002404685812092272
3600000000.0 0.10596602673810429 0.1335795151965896
3620000000.0 -0.1603234947860906 0.10685672902551158
3640000000.0 0.20406009762748675 0.02825764808848389
3660000000.0 0.19726732660421484 -0.10118117777375217
3680000000.0 0.19797784978063612 -0.014022503008566755
3700000000.0 0.11922493451833709 0.19813981638623204
3720000000.0 -0.16469524451560505 0.200078499530976
3740000000.0 -0.16055620652323255 -0.2334947842111133
3760000000.0 0.08478981609303685 0.2765740459768103
3780000000.0 -0.09167457100042539 0.2772733866238709
3800000000.0 -0.22160085089370032 -0.17137768710786075
3820000000.0 -0.24333621415646417 -0.18237994492963067
3840000000.0 0.12761200118697102 -0.2903581362577447
3860000000.0 -0.3231666959142201 0.03713493040153142
3880000000.0 0.20737913761798127 -0.24217911719638505
3900000000.0 -0.3061973779654846 -0.053187827218241286
3920000000.0 -0.27402024333507513 -0.014935651146325274
3940000000.0 -0.05145997544898236 0.2586059151547424
3960000000.0 -0.18655412434574398 0.1735112562855045
3980000000.0 0.17732724373050493 0.1788583368541616
4000000000.0 0.09273975752096393 -0.22865785656461493
