!Created with skrf (http://scikit-rf.org).
# Hz S RI R 50.0 
!freq ReS11 ImS11
400000000.0 -0.5034280003878522 -0.6646622646908397
420000000.0 -0.8318566410380906 0.12008937449676253
440000000.0 -0.09847315361568014 0.7816453339631333
460000000.0 -0.3200631589657466 0.6412135237546065
480000000.0 0.34605691478053435 -0.5518585819207444
500000000.0 0.5344215846786726 0.3469514587972095
520000000.0 0.5337533964197364 0.19910117633798344
540000000.0 -0.29264746284599324 0.406791980280335
560000000.0 -0.36736880994250126 -0.2836729671275573
580000000.0 0.10816240031694843 0.3844264184815878
600000000.0 -0.04870501849620427 -0.35245476750447025
620000000.0 0.22847629052199162 0.2710524262928493
640000000.0 -0.25980195503243103 -0.30769910038963194
660000000.0 0.4349541290333873 0.08901920029356608
680000000.0 -0.45204021533088096 0.0037432962356656755
700000000.0 0.2824072084392549 -0.3289708518068368
720000000.0 -0.24668736527991525 -0.34069220541000095
740000000.0 0.09321340291165635 -0.3810438632419075
760000000.0 0.17664246170173076 -0.3308696440559803
780000000.0 -0.17988387789447585 -0.2843160262519115
800000000.0 -0.28450389645577745 -0.05366386504815687
820000000.0 0.014240826276469326 -0.2329316856644211
840000000.0 -0.19175494401797036 0.05889059746153763
860000000.0 -0.10886374044131433 -0.1310965367825972
880000000.0 -0.11881631235261336 0.04043077249793861
900000000.0 0.06539686703357762 0.07470137389673118
920000000.0 -0.03208147869579634 0.05325757442167851
940000000.0 0.021670879787346407 0.03701500101062256
960000000.0 -0.02814272434083898 -0.05465353780456059
980000000.0 0.0013521021709260864 0.06831796897507583
1000000000.0 0.059411601739357334 0.045584515958355054
1020000000.0 -0.080811955162578 -0.04142589668232029
1040000000.0 -0.09516685572196038 -0.04764577869557512
1060000000.0 0.1404035172525238 -0.06069171337890605
1080000000.0 0.038861450776718306 0.17967394815591542
1100000000.0 -0.09171110622129366 -0.19389116609239346
1120000000.0 -0.22144449387051673 -0.0998578707785906
1140000000.0 0.010255192479621917 -0.27139594769618636
1160000000.0 -0.16892329904004258 0.25330238199140276
1180000000.0 0.1412369803238105 0.2935212463784102
1200000000.0 0.01645434416806646 -0.34407569399234134
1220000000.0 0.1046414142873588 0.3555139918004865
1240000000.0 0.12811986234962267 -0.3662403832146666
1260000000.0 -0.37999784768244965 -0.09824977993677171
1280000000.0 -0.40392806988930774 -0.01929868524123995
1300000000.0 -0.25553127968248224 0.32947591415148964
1320000000.0 0.17705075171844387 0.37878178664059337
1340000000.0 0.34811001757591625 0.23466850942371703
1360000000.0 0.3982052904402698 -0.08898023664537005
1380000000.0 0.38023762781145226 0.1002273080268074
1400000000.0 0.38174744098152924 -0.034199528333779684
1420000000.0 0.02919027222376131 -0.3657566922524957
1440000000.0 -0.31796670186530207 -0.1303984397447018
1460000000.0 -0.061059215113461886 0.3163552612218112
1480000000.0 -0.18270303505278038 -0.231953129600015
1500000000.0 0.244773485218577 -0.06290168602397146
1520000000.0 -0.12599671095213397 -0.17626271579871466
1540000000.0 0.16124183325550018 -0.06298597843953162
1560000000.0 0.07861814833234469 -0.10481739119086027
1580000000.0 0.08889482471853326 0.06346098829883055
1600000000.0 0.017146685142395177 0.08206569882493095
1620000000.0 -0.00425852965783327 0.057837423782158386
1640000000.0 0.03113497809113428 -0.008843708304858526
1660000000.0 -0.006046833109160474 -0.004499808971874911
1680000000.0 -0.0020826928231820014 0.01692641706962759
1700000000.0 0.03098291147849448 -0.015664608653450148
1720000000.0 0.02569229192559254 0.04377101780666998
1740000000.0 0.060856120256617754 0.028839586524005163
1760000000.0 0.058913172718114505 0.059060857348002475
1780000000.0 -0.10455522567624456 -0.028177313968600376
1800000000.0 0.06769988494171189 0.12469673563540669
1820000000.0 -0.1593991500761456 0.08107437588058827
1840000000.0 0.2023047503280482 -0.07832597415485229
1860000000.0 0.25691520359918607 -0.02689689447232258
1880000000.0 0.06173980474988178 0.28710995242422604
1900000000.0 -0.3084966191720627 0.09702068029612063
1920000000.0 0.3323916033996233 0.09487804779878051
1940000000.0 0.049253658261905045 -0.3713576911847868
1960000000.0 0.08613444201567329 0.39326281457145845
1980000000.0 -0.08107630819211353 -0.4046182593574545
2000000000.0 -0.4071464644841746 0.07273157912370214
2020000000.0 -0.41340938450646675 0.06273781020915127
2040000000.0 -0.24092931205681076 0.34945646332276115
2060000000.0 0.3907655538799699 0.17399515216940953
2080000000.0 0.01224106869566624 -0.4159642436544384
2100000000.0 -0.2485749964803959 -0.3106124577530132
2120000000.0 -0.11768374665103223 -0.3648458355863299
2140000000.0 -0.3276592120600209 -0.18466992149060887
2160000000.0 -0.16349790763460836 -0.315073784251829
2180000000.0 0.01744444647777497 -0.33537539690954793
2200000000.0 0.18792924070805153 -0.2633324266581422
2220000000.0 0.27824997146891345 -0.15595364168363862
2240000000.0 0.23405000341942941 -0.22769657361456175
2260000000.0 -0.2448931858105733 -0.22763480215428125
2280000000.0 -0.24318893744599504 0.2460212801559231
2300000000.0 0.36493772246117 -0.013460915721580773
2320000000.0 -0.3541156716664735 -0.18137026485515298
2340000000.0 0.4358060960663175 -0.04990684732490214
2360000000.0 -0.19970116168800445 0.44054424904502465
2380000000.0 -0.4966905969480926 -0.20680818485181923
2400000000.0 -0.00757920077003786 -0.5916171376726036
2420000000.0 0.5286035172003877 -0.3599760654735527
2440000000.0 0.6058059373674294 0.3089129587303317
2460000000.0 -0.5326382099801857 0.46883999039845364
2480000000.0 0.09460196543145095 -0.7250976468351786
2500000000.0 0.19837648364940766 0.7173420060061954
2520000000.0 -0.24959211540726195 -0.7061036607671707
2540000000.0 -0.019773785566745906 0.7449925546040411
2560000000.0 0.24490502326545757 -0.69395251297605
2580000000.0 -0.5721145043068913 0.4325682404322535
2600000000.0 0.684808242440089 -0.08882975125219263
2620000000.0 0.3642278385444074 -0.5499624707140345
2640000000.0 -0.5992065181980242 0.17927464185206549
2660000000.0 0.5407144961965737 0.23313335683396738
2680000000.0 -0.42336115154493253 -0.3472911283145634
2700000000.0 0.22844831818418673 0.45355318257874006
2720000000.0 -0.119370320408438 -0.4566693586837194
2740000000.0 -0.13606823141437113 0.4153777749282841
2760000000.0 0.1665986453098867 -0.3752397802271223
2780000000.0 -0.2038341579637179 0.3290835169657353
2800000000.0 0.3499366639248977 -0.12917824911585507
2820000000.0 -0.36486497517076727 0.05900796357035146
2840000000.0 0.3399505088473375 -0.13411783159328172
2860000000.0 -0.35366722301734377 -0.08615167613302724
2880000000.0 0.09463767798521734 0.35284380459746595
2900000000.0 0.3665628899977977 0.03956940409081647
2920000000.0 0.0007110172640195396 -0.37266372675183446
2940000000.0 -0.20956810693273192 -0.30732381467591474
2960000000.0 -0.13185847811411022 -0.3486285349952161
2980000000.0 0.15432854406673277 -0.33757958702803814
3000000000.0 0.37023975153863004 0.038829997632165054
3020000000.0 0.002367789178741524 0.3685826143567451
3040000000.0 -0.24247628610770341 -0.267848872736956
3060000000.0 0.3117178884041221 0.1674991754379693
3080000000.0 -0.31625560209998654 -0.1320061599106878
3100000000.0 0.2442253737268138 0.22573353961569476
3120000000.0 -0.28485660290221726 -0.14745742994427125
3140000000.0 0.29754026182710724 -0.07556586546044208
3160000000.0 -0.22789174846946086 -0.1722977165284763
3180000000.0 0.2562773081006787 -0.031181771309361037
3200000000.0 -0.21874077512594609 0.05356186100791953
3220000000.0 0.07281529895647136 0.1788773306422512
3240000000.0 0.13239432012377791 0.09123824670562866
3260000000.0 -0.014526291784542076 0.13085640538507493
3280000000.0 0.0938349521901852 -0.04621722976633144
3300000000.0 0.00290218652965641 0.084383537316789
3320000000.0 0.03348906210110099 -0.06591524581546253
3340000000.0 -0.03994221305293112 0.05098134009232847
3360000000.0 0.013841149903540075 -0.05465051337282227
3380000000.0 -0.051689645407309595 0.009818281935740903
3400000000.0 0.039839425689974846 -0.02166192348364685
3420000000.0 -0.01820361745489383 0.033336623375393934
3440000000.0 -0.02725402433050824 0.009166305032663162
3460000000.0 0.01364718631713294 0.01863880271381014
3480000000.0 -0.013265091928420444 0.000903961046628978
3500000000.0 -0.007018661608693518 -0.000549451288317708
3520000000.0 0.013362107355245009 -0.0027415526992194653
3540000000.0 0.023974646924478284 0.006008806758827321
3560000000.0 -0.008417536840505679 0.03167317223377425
3580000000.0 0.030888688649391476 -0.0287984626606468
3600000000.0 0.050042891768992445 0.018503442522853228
3620000000.0 0.0590003350854428 0.04016161056585824
3640000000.0 0.05181836277125549 0.07466731839414126
3660000000.0 0.03010258909000809 0.10282472235805841
3680000000.0 0.041423394390875466 -0.11438679472771185
3700000000.0 0.140031243613038 0.017297088972626846
3720000000.0 0.1544373051542125 -0.04504371891754375
3740000000.0 0.11701754884652449 0.1365699842460735
3760000000.0 -0.20696495101135248 0.025216535771239005
3780000000.0 -0.23605517153521396 0.021335964134593443
3800000000.0 -0.14775763907391687 0.21561595278623258
3820000000.0 0.2708754639091971 0.06637323181266018
3840000000.0 0.16801778808918924 -0.24172970555386708
3860000000.0 -0.14864033735725682 -0.2674260025949658
3880000000.0 -0.3154235136463956 0.0216415635233568
3900000000.0 0.02475173548088288 0.3210636649898117
3920000000.0 0.2811727341493205 0.16146323562916773
3940000000.0 -0.2903358010250422 -0.13674361457527764
3960000000.0 0.15759403649127768 0.2725660614596307
3980000000.0 -0.1528187032768781 -0.2596524483493653
4000000000.0 -0.21900983360697052 0.18307444302479717
