!Created with skrf (http://scikit-rf.org).
# Hz S RI R 50.0 
!freq ReS11 ImS11
400000000.0 -0.859796781489727 0.025040908683825414
420000000.0 0.11684754272738913 0.835144212884787
440000000.0 0.5517350746451073 0.5633149685037684
460000000.0 0.44433262892357844 0.5750869171939762
480000000.0 -0.3712377456313222 0.5358391381616598
500000000.0 -0.5730864550410357 -0.16610155093532225
520000000.0 0.5138415489211422 -0.07810635128999768
540000000.0 0.0762983325820198 -0.4574219381505504
560000000.0 0.3234710620943607 0.29474638660100155
580000000.0 0.3758279626902921 0.09805387846734255
600000000.0 0.057163318920636745 -0.35531938812035846
620000000.0 -0.12581797704094053 -0.3474098882655956
640000000.0 0.2973036682396002 -0.28754614100468706
660000000.0 0.0018088438882321173 0.4515809675181842
680000000.0 -0.23180235634717877 -0.41163673453837396
700000000.0 -0.4227967848768485 -0.17860399850056335
720000000.0 0.3437289728768747 -0.24559477382139147
740000000.0 0.24003275509018726 0.2811790412705848
760000000.0 0.28531398038131955 -0.17984547341224882
780000000.0 -0.15402621767737676 0.28991996268357834
800000000.0 0.18986771002649092 -0.23346079064173547
820000000.0 -0.16789204235916216 0.18073410327576853
840000000.0 0.18772711836265327 0.03501570172184061
860000000.0 0.16289157739511995 0.062389652452501665
880000000.0 0.016724245888801736 -0.13672833280389834
900000000.0 0.09839971302443401 0.013698998787046734
920000000.0 0.03887654983464976 -0.03766663423730691
940000000.0 -0.0014831561463101168 0.028847257027535943
960000000.0 -0.013256716914474739 0.04472924972023685
980000000.0 -0.037099181911746944 0.06132751574631682
1000000000.0 -0.034891087844128574 -0.07550750737527087
1020000000.0 -0.09013905279625047 -0.04918930373983922
1040000000.0 -0.12101087603078522 0.024928825032936353
1060000000.0 0.11387793443274088 0.1010550269669938
1080000000.0 -0.004488318914890867 -0.18036859781275877
1100000000.0 -0.03183124730786399 -0.20679300211618626
1120000000.0 -0.23696240946287614 -0.07098784989543475
1140000000.0 -0.2677459557990556 -0.049240217817084535
1160000000.0 -0.11671748757942012 0.2723713259594372
1180000000.0 -0.13875821749616812 0.2950436738652514
1200000000.0 -0.2065813905921218 -0.2761298475878632
1220000000.0 0.04124876712720693 0.3642998400752731
1240000000.0 0.12538670945715152 -0.3637406919909613
1260000000.0 -0.3741442173900564 0.1304757263587744
1280000000.0 -0.2531217511779205 0.3054406414165259
1300000000.0 -0.37697445594287615 0.16168917799032556
1320000000.0 -0.062101231282316684 0.4176745553526915
1340000000.0 0.42129010130208466 0.01935125945828806
1360000000.0 0.34579288491362264 -0.21930341836503714
1380000000.0 0.38344006562103394 -0.10438216610255381
1400000000.0 0.20187061616496438 -0.3319597820616313
1420000000.0 -0.20537524132715884 -0.3043946401752985
1440000000.0 -0.24312812329343844 0.25217705657353756
1460000000.0 0.31505399367968956 0.030986348006210147
1480000000.0 -0.046980571871670235 -0.2852394311073824
1500000000.0 0.2231058055458653 0.1143128152525951
1520000000.0 0.1902809743000881 -0.09294383537079594
1540000000.0 0.020803452602573016 -0.1723045977262125
1560000000.0 -0.1462619820274159 0.001766320108967464
1580000000.0 -0.03991430315833039 -0.10814181964877438
1600000000.0 -0.034787807395508644 0.07116848371348221
1620000000.0 -0.056584770814389146 0.0004048388385989409
1640000000.0 -0.03233402829768114 0.01514830168223742
1660000000.0 0.006851844231551415 0.003035820060209329
1680000000.0 0.024587565508159766 -0.0025237350569868333
1700000000.0 -0.038955744477987476 -0.024244526234888434
1720000000.0 0.01797683645403451 -0.04926056464268288
1740000000.0 0.05987107113052592 0.02306572186966946
1760000000.0 -0.020488064585287596 -0.08052650421426207
1780000000.0 0.08929872233375354 0.06469574197965954
1800000000.0 -0.08481041787757998 0.12192838970358147
1820000000.0 -0.15520018373271247 -0.10661288409683636
1840000000.0 -0.03377937409554882 -0.22478633914343318
1860000000.0 0.09731433834864747 -0.2451001868127299
1880000000.0 0.2778951202523047 -0.10192980617039252
1900000000.0 -0.27515658915499597 0.16483660981235002
1920000000.0 0.34298515502032084 0.05665446044291834
1940000000.0 -0.2809360704940787 -0.24961021033197164
1960000000.0 0.18693018798680525 0.34699553150588064
1980000000.0 0.3550934503879739 -0.2048869954497981
2000000000.0 -0.19206386986105564 -0.3756407953382557
2020000000.0 -0.3089163934262495 0.2997802032347197
2040000000.0 0.30185467072597655 0.3032559126818453
2060000000.0 0.4199965985452174 -0.02029893246793577
2080000000.0 0.3819713359486439 -0.15841733437145994
2100000000.0 0.0861338415127056 -0.3968244755346095
2120000000.0 -0.348993048572305 -0.1805544196111457
2140000000.0 -0.2941876171580081 0.2295698830270868
2160000000.0 -0.027589407140207377 -0.3479422801541992
2180000000.0 0.30782804731142677 -0.12926537914443623
2200000000.0 0.2927771573837495 -0.14804976742407738
2220000000.0 0.1624907265454182 -0.2832394706411189
2240000000.0 -0.31084684440464677 -0.10936890152425854
2260000000.0 -0.004850974322686667 0.3296858326843807
2280000000.0 0.2721871835019235 0.1983669542140593
2300000000.0 0.3244460770024492 -0.15231223962859125
2320000000.0 -0.3938392388156109 0.0051101883900253635
2340000000.0 0.12382042383739715 -0.4197874520495868
2360000000.0 0.4595319883173279 0.1493961173930429
2380000000.0 -0.1459424908031459 0.5105234745828389
2400000000.0 -0.5753554810179655 0.07633317074529367
2420000000.0 -0.12698441495422683 -0.613534279302249
2440000000.0 0.6641344657720252 -0.0666492932499704
2460000000.0 0.06780598436962305 0.6979571031284055
2480000000.0 -0.7001615024249391 -0.18326534034205455
2500000000.0 0.7336347097878785 -0.0449285341138708
2520000000.0 -0.7296947913772569 0.10687918528034283
2540000000.0 0.7276880977273281 -0.11471375964010425
2560000000.0 -0.5625352549269235 -0.4619721461098391
2580000000.0 -0.026699713724486353 0.711406607473738
2600000000.0 0.5347883585600254 -0.43367328036757674
2620000000.0 0.3485504977134392 -0.5615607859381926
2640000000.0 -0.5301492516671759 0.3362946995819208
2660000000.0 0.5187133836158974 -0.27297418889533864
2680000000.0 -0.5175863863589522 0.15843129892760924
2700000000.0 0.49930714035256324 0.005838345257174707
2720000000.0 -0.4520425255832709 -0.11529872969336422
2740000000.0 0.4248243447505185 0.11752814199602195
2760000000.0 -0.40514437764589195 -0.07819002884683914
2780000000.0 0.10859629166493973 0.37485132230963286
2800000000.0 0.2833545783927886 -0.2520196146276819
2820000000.0 -0.36062108978115465 0.10062348201767285
2840000000.0 0.30210524316887694 -0.2210246161422069
2860000000.0 -0.25046396406909105 0.2793265599738413
2880000000.0 0.3767547398487079 -0.004417262720961256
2900000000.0 -0.12595674916648572 -0.3556713045780161
2920000000.0 -0.35635413426832563 -0.12624760946107755
2940000000.0 -0.325455983022639 -0.19288261767094128
2960000000.0 -0.2230127019678422 -0.3007297763787522
2980000000.0 0.30816867204814535 -0.2220648585990363
3000000000.0 0.206007550734125 0.3289755275621021
3020000000.0 -0.378141831029979 0.08302942855063614
3040000000.0 0.062338854139858554 -0.37418754241264096
3060000000.0 0.21705276219639688 0.29626092697682693
3080000000.0 -0.20466681465381348 -0.2923475048780489
3100000000.0 0.10717750086932448 0.33052445677188846
3120000000.0 -0.1373109732849445 -0.3037710921999721
3140000000.0 0.02546037781220691 0.3125904102830539
3160000000.0 0.1380366668760099 -0.25974942089054415
3180000000.0 -0.2396863002305661 -0.13119609595064932
3200000000.0 0.19839109976240166 0.13109508571958128
3220000000.0 0.09935030927565222 -0.18018190008830398
3240000000.0 0.008872759795601665 -0.17656982304810767
3260000000.0 0.04198713468649776 0.1467380748889971
3280000000.0 0.09913206109191398 0.08890932244525636
3300000000.0 0.12087121201631655 -0.034051625200326355
3320000000.0 -0.08975820963218377 0.05342545933904189
3340000000.0 0.007575077135330358 -0.09417131837487779
3360000000.0 -0.007436863619599159 0.08416304805798354
3380000000.0 -0.04652709467641203 -0.06432528370665593
3400000000.0 -0.011351423447439926 0.07954233418419078
3420000000.0 -0.005755283170978844 0.07612950553526908
3440000000.0 -0.05905451113165272 -0.05336976456563216
3460000000.0 0.0056404359389934594 0.08220429141070938
3480000000.0 -0.05079080784612303 0.057234419205987846
3500000000.0 -0.06206142915693031 -0.04177761320187641
3520000000.0 -0.024917863777838643 0.0808666392394026
3540000000.0 0.09272181293509275 -0.03270476917151887
3560000000.0 0.10676043119179467 0.023253477134841875
3580000000.0 -0.06917244574672235 0.11217005715712845
3600000000.0 0.003575885257191959 0.16228121017949024
3620000000.0 -0.049119000519301785 0.18105306912244024
3640000000.0 -0.16460114515149618 -0.1303028165726195
3660000000.0 0.22664533287497682 0.05667405799851661
3680000000.0 -0.043631055525238376 -0.2456702799355189
3700000000.0 -0.06462308803537573 -0.24996389558122803
3720000000.0 -0.25146781751788466 -0.08429598143660513
3740000000.0 -0.19334902226509693 0.13758947450031414
3760000000.0 0.16655922585811925 -0.20795476069162344
3780000000.0 0.2580200888689185 -0.13240360535955537
3800000000.0 0.13394898824895174 0.2677861946294062
3820000000.0 0.16135006586419914 -0.25425928698989
3840000000.0 0.05828299743135658 -0.2866841116932114
3860000000.0 0.27909199702030485 -0.09337768764106517
3880000000.0 0.13940778192114905 -0.2804393860019623
3900000000.0 0.30014539508333743 0.10911664357275172
3920000000.0 -0.31440829117830804 0.10240689497659557
3940000000.0 0.32072258097512485 -0.030077004522510793
3960000000.0 0.028905118142252967 0.29782451065407445
3980000000.0 0.12091801449947329 -0.24496025599051308
4000000000.0 0.18595414295811843 -0.15084561547685513
