!Created with skrf (http://scikit-rf.org).
# Hz S RI R 50.0 
!freq ReS11 ImS11
400000000.0 -0.8351191846209653 0.20620443728958845
420000000.0 0.051987164212436925 0.8399378414395379
440000000.0 0.5284642080320412 0.5836341386768125
460000000.0 0.18631558405305793 0.6990308602119573
480000000.0 -0.39373193248166133 0.5279501562391816
500000000.0 -0.579607449480242 0.1467900830126159
520000000.0 0.5033414217458984 -0.130193536860342
540000000.0 0.09953394019735672 -0.45566319585768006
560000000.0 0.43043956845571496 0.08851618382132516
580000000.0 0.3794454832263012 -0.10156549985341772
600000000.0 -0.3510935580805074 0.08297244955084658
620000000.0 -0.3635456940848625 0.030708332875716077
640000000.0 0.02145531823523294 -0.40782996686784995
660000000.0 0.3994163189090257 0.19477202842004723
680000000.0 -0.35810763323035666 -0.2837316515994063
700000000.0 0.06293232534211424 -0.4457834886542871
720000000.0 0.36216808493132596 0.21695559645988904
740000000.0 -0.3578757301032634 0.0859806379623305
760000000.0 0.26868377500002144 0.23422866218805674
780000000.0 0.23145343782619265 0.2384989481620331
800000000.0 0.29227819784345055 -0.07373636594402823
820000000.0 -0.23681762573319118 -0.09275765629317564
840000000.0 -0.08699518532059461 -0.1883489291695938
860000000.0 0.0675726327144561 -0.15632496679108843
880000000.0 -0.024920222089155633 -0.12081999142748201
920000000.0 0.04506191272104815 -0.024616738904663663
900000000.0 0.03840676601214601 0.08234155727131964
940000000.0 -0.02199910588858406 -0.03326402679069304
960000000.0 -0.04161926765472613 0.029713916130397654
980000000.0 0.03454102167317816 -0.048963131394117655
1000000000.0 0.058651332500953265 0.04794594076429957
1020000000.0 -0.09673554026366586 -0.019090445067386826
1040000000.0 0.09463148732793232 -0.0742774716588562
1060000000.0 0.05303177729515838 0.14607711788346062
1080000000.0 -0.026147356155803974 -0.17890456439038563
1100000000.0 -0.1953734446778921 0.07303430435821742
1120000000.0 -0.2246078773048043 0.07394645938352193
1140000000.0 0.11583459004232359 -0.23794634038708046
1160000000.0 -0.3004239830032247 -0.00779964216348739
1180000000.0 -0.2717012620917031 0.17978081684319666
1200000000.0 -0.19931475417737113 -0.2868457743596324
1220000000.0 0.2572814018745707 0.26515356873665796
1240000000.0 -0.06269548484893268 -0.3765438104353591
1260000000.0 -0.385050577350298 -0.059753374140871666
1280000000.0 -0.3934388544996698 -0.07698064412334125
1300000000.0 -0.4126442537581287 -0.03560763930270064
1320000000.0 -0.019973465030083182 0.4288102887910784
1340000000.0 0.3139216144611363 -0.2925829283684694
1360000000.0 -0.22553966483122087 -0.3413691392966558
1380000000.0 0.054133543389003426 -0.38537177339010253
1400000000.0 0.24402723211273655 -0.28405694371467416
1420000000.0 0.09084879006942854 -0.348448336974024
1440000000.0 -0.18811977288378776 -0.28962682811635915
1460000000.0 -0.02579063277051934 0.32147483367336477
1480000000.0 0.010230519412794799 -0.2963068467405602
1500000000.0 0.23644645455559396 -0.1002025497418392
1520000000.0 -0.02671605911098897 -0.2090259640297936
1540000000.0 -0.09850061459301698 -0.1409917047881947
1560000000.0 -0.14219356830022278 -0.022080452284791798
1580000000.0 0.08164119263667002 -0.08349393242087975
1600000000.0 0.021532571678269486 0.08477912385554325
1620000000.0 -0.0007307937176438944 -0.060549855306407996
1640000000.0 -0.024176351519890907 -0.012757907031885288
1660000000.0 -0.004665033887603368 0.0019824435432218273
1680000000.0 0.02065462890432329 0.01174836415108964
1700000000.0 -0.000981015124402025 0.040251673193472705
1720000000.0 0.005992711310960138 0.05339620542553599
1740000000.0 0.05654694687162977 0.04584953023582642
1760000000.0 0.08863053901475766 0.008854516539397053
1780000000.0 0.09575372299254752 0.058283215403410055
1800000000.0 0.009925406074818828 -0.14115482694094225
1820000000.0 -0.17590541661346154 -0.022783322213251092
1840000000.0 0.12122868697903538 -0.18247512268960472
1860000000.0 0.24969592921908057 -0.08181770471071217
1880000000.0 0.29090574388944207 -0.059704303468064
1900000000.0 -0.24296741524875745 0.21076994846802022
1920000000.0 0.34781832067620655 -0.0003173024053588148
1940000000.0 -0.22783586952129814 -0.2996438862280711
1960000000.0 0.24429100615246266 0.31382180677537597
1980000000.0 0.22495330775008474 -0.33784300121964267
2000000000.0 -0.1661823588436574 -0.3813174386866406
2020000000.0 -0.35590229747961866 -0.23233139815944404
2040000000.0 -0.2538548115038817 0.3542207488487805
2060000000.0 0.41720525791363283 -0.111244556881935
2080000000.0 -0.18754673846780495 -0.3699598325315119
2100000000.0 -0.32582855841216113 -0.22286962476709585
2120000000.0 -0.12860105964855228 -0.3568864314341698
2140000000.0 -0.1023393788513296 -0.3557094424789019
2160000000.0 0.24124162093183427 -0.26077530104229163
2180000000.0 -0.07262573429042819 -0.33038918576068305
2200000000.0 -0.07185345037747255 -0.31268064813001195
2220000000.0 0.29635465277073175 -0.09656566406045163
2240000000.0 0.31972904648014416 0.02649458562748952
2260000000.0 -0.15162839045155252 -0.2970138056162773
2280000000.0 -0.12365906172904363 0.32186210586196085
2300000000.0 0.29520993549961083 -0.2120778278772363
2320000000.0 -0.37636499400584433 0.10826155902366183
2340000000.0 0.2812225123661503 -0.3263621875424042
2360000000.0 0.12770586930629513 0.4587778875358807
2380000000.0 -0.49847452636948314 0.17590986563810848
2400000000.0 -0.3773692609795501 -0.4388330177910064
2420000000.0 0.3374232575267896 -0.5258743225888858
2440000000.0 0.6265727593578526 0.2164257998992428
2460000000.0 -0.44976194745921116 0.5259521140623971
2480000000.0 -0.11735960215681206 -0.7042598080501279
2500000000.0 0.3573369155805105 0.6316095458624557
2520000000.0 -0.3056443040894338 -0.6636000360959066
2540000000.0 0.06839054127075823 0.7250677464090812
2560000000.0 0.36554015227163816 -0.6181872404018269
2580000000.0 -0.6612649854144605 0.23088889540840726
2600000000.0 0.6369487213222939 0.22796415906619646
2620000000.0 0.6122284606606103 -0.2085591098151003
2640000000.0 -0.6061558590190897 -0.09541283238417565
2660000000.0 0.447144622731642 0.36208176798558966
2680000000.0 -0.31827678738979215 -0.43297976618610445
2700000000.0 0.18931188219953052 0.46277928584538675
2720000000.0 -0.18571459785154346 -0.4253358453500021
2740000000.0 0.11851324874605021 0.411854644713553
2760000000.0 0.058233704901520675 -0.39666414576991893
2780000000.0 -0.11637743113901178 0.3647389355231019
2800000000.0 0.17061531852205863 -0.3306765315209448
2820000000.0 0.07723157468404507 0.359157198599938
2840000000.0 -0.13831022017820627 -0.33240004094331355
2860000000.0 -0.17360260584883005 0.31584208009473264
2880000000.0 0.35999906697941325 0.024277255820504516
2900000000.0 0.26578004384723675 -0.25216199517306537
2920000000.0 -0.19139143103273482 -0.32217215602391536
2940000000.0 -0.3789899028568989 -0.0017307519160882467
2960000000.0 -0.31121554690745296 0.21234613813893138
2980000000.0 -0.2919984653825842 -0.2322540586860235
3000000000.0 0.34441630477473617 -0.14610344611336148
3020000000.0 0.06333570252497218 0.36770309230154796
3040000000.0 -0.35215108554994423 -0.10926212281286034
3060000000.0 0.3462094492723452 -0.10612478871605108
3080000000.0 -0.3076587627447678 0.17432506375047466
3100000000.0 0.29429993195095694 -0.17393470406667186
3120000000.0 -0.23461106496362918 0.23422655830835687
3140000000.0 -0.017768010643320422 -0.3174241760613994
3160000000.0 -0.25417568211873726 0.1532016124494855
3180000000.0 0.0743195282465643 -0.26183899163492974
3200000000.0 -0.04631250440884339 0.237631073422676
3220000000.0 0.15553245413318115 -0.14419647503644925
3240000000.0 -0.14797068999520047 -0.10947397823173999
3260000000.0 -0.15445639007000145 -0.004716343871837782
3280000000.0 0.005646436115920313 -0.12644953121373267
3300000000.0 -0.05942767013894923 0.08834332470391802
3320000000.0 -0.015297298290115028 -0.09029727174237784
3340000000.0 0.04628373167877435 -0.06441716131009907
3360000000.0 -0.05896776913574436 -0.02611050604033781
3380000000.0 -0.050364558061604 -0.00449741813976611
3400000000.0 0.0002479446147615507 0.04154972737060627
3420000000.0 -0.022212865411360954 -0.025118503570641024
3440000000.0 -0.03014016321990639 -0.0013674205771478825
3460000000.0 0.022170344430358497 -0.025194933579912333
3480000000.0 -0.041577041487624845 0.006981560104675005
3500000000.0 -0.02720870464124849 0.04810649843579789
3520000000.0 -0.011005046736303144 -0.06845778946499397
3540000000.0 0.07876786190618597 0.01377190005665014
3560000000.0 0.018916862379250325 -0.08922735153177234
3580000000.0 -0.046320642703746244 -0.0922434215959113
3600000000.0 -0.04403394036281022 -0.10845777726798675
3620000000.0 -0.027985036278621835 -0.12826982717942306
3640000000.0 -0.11262452649346862 -0.09123847987739159
3660000000.0 -0.14079754859027502 -0.06366457220504662
3680000000.0 -0.13169079353520596 -0.09340896515682423
3700000000.0 0.1265421761781441 -0.10694730538273468
3720000000.0 0.07411511589186669 0.1552281034426634
3740000000.0 -0.16877407334432024 0.05128374413092086
3760000000.0 0.18000413902040327 0.04093439406138596
3780000000.0 -0.11513009877062574 -0.15101780455634323
3800000000.0 -0.06404467682711397 0.18413372014346494
3820000000.0 0.08736006856860787 -0.18379044211191506
3840000000.0 0.03364118761630305 0.20907082990217596
3860000000.0 -0.21959610941486857 0.03384151657532352
3880000000.0 -0.2293172240914215 -0.03633008440102702
3900000000.0 -0.22141252541699863 -0.07648114849812393
3920000000.0 -0.22236308073642172 -0.0727517653820555
3940000000.0 -0.23277198493522097 0.01564667564719203
3960000000.0 -0.0710234304938437 0.21589425534981113
3980000000.0 0.16099972934697823 0.15020279504373266
4000000000.0 0.18784501371247483 -0.08917529102555652
