!Created with skrf (http://scikit-rf.org).
# Hz S RI R 50.0 
!freq ReS11 ImS11
400000000.0 -0.763088623588067 -0.35745705765710273
420000000.0 -0.46143180034158077 0.7027242870910769
440000000.0 0.5679462806684685 0.5360690640116043
460000000.0 0.10561555491841791 0.7056170797774469
480000000.0 -0.04341829988376461 -0.647805227786741
500000000.0 0.6238235475720153 -0.02692256062929698
520000000.0 0.5640176325146482 0.03713008161328915
540000000.0 0.04762319351715994 0.48958520887233936
560000000.0 -0.45272623281552143 0.002144999552151777
580000000.0 -0.2842811609830309 0.2686224384948333
600000000.0 0.3454665715425413 -0.0732120212096652
620000000.0 0.008279772698850394 0.35025000055230293
640000000.0 -0.057446351243467204 -0.38755711270430243
660000000.0 0.0565063113837401 0.43150789369502174
680000000.0 0.2473759957175526 -0.3764509401362406
700000000.0 0.42782450369918834 0.12374806158685218
720000000.0 -0.22260125954353593 -0.3757253562374876
740000000.0 -0.25958950540137904 0.30950202447157216
760000000.0 -0.30257016393261754 0.20457811146185984
780000000.0 -0.23969016416068095 0.21991458170837097
800000000.0 -0.2596969975334857 -0.09172578720104174
820000000.0 0.2096825909244931 -0.09836760253177951
840000000.0 -0.18918675408072327 0.06140155327950984
860000000.0 0.04771627761205751 -0.16542012263711273
880000000.0 -0.12090192790719109 -0.04676360010185555
900000000.0 -0.06178082543648195 -0.058719312170125486
920000000.0 -0.050545704400305015 -0.021703750344140824
940000000.0 0.03144293294425046 0.024316926782703755
960000000.0 -0.05722873670334112 -0.022023887627835137
980000000.0 0.06977379385649372 0.03488135793241659
1000000000.0 -0.00013892578735273374 0.08686251937889417
1020000000.0 -0.0004661063607175288 -0.10405543503394965
1040000000.0 0.10694788635874687 0.036978932765064754
1060000000.0 -0.028382982332953815 0.1389786650291581
1080000000.0 0.14538035646977585 0.0904863569081027
1100000000.0 0.1979711139157747 0.055405388893019554
1120000000.0 0.20441023172647094 -0.14142067927624466
1140000000.0 -0.22984883006228446 -0.16431174383963232
1160000000.0 0.2646935961348896 0.14967616126352076
1180000000.0 0.22442759858343778 0.23297345120740923
1200000000.0 -0.27338445279427415 -0.20097489259907425
1220000000.0 0.1261840943529957 0.34158429159453696
1240000000.0 0.07260224700329697 -0.3743852357228701
1260000000.0 -0.19705664063509157 -0.3381033679957361
1280000000.0 -0.3615823692589106 -0.1845373425966023
1300000000.0 -0.37387809237094266 0.1941748166708331
1320000000.0 0.3628835795130307 0.22442211260094316
1340000000.0 0.2864715841534473 -0.3066339298871901
1360000000.0 0.09158685591732522 -0.3940511470684216
1380000000.0 0.3493749658561189 -0.1687515924905576
1400000000.0 0.3726447858621117 0.055662632240893135
1420000000.0 0.35535882112672523 -0.09180427872138697
1440000000.0 -0.34552098156217137 -0.08301151069939924
1460000000.0 0.2995155007488898 -0.1282920571402448
1480000000.0 -0.25849577503655957 0.12524301749016664
1500000000.0 0.200495167714172 -0.14461141429289065
1520000000.0 0.06805146021834901 -0.19606784279514092
1540000000.0 -0.0076106369082755325 -0.1691744792433582
1560000000.0 -0.1407307728775775 -0.043388828094860374
1580000000.0 -0.10864135471115201 -0.05024566335631484
1600000000.0 -0.016950865294501367 -0.08664644299766275
1620000000.0 -0.013393115017581083 -0.05588252949967366
1640000000.0 0.02746948177499603 0.002859501136418857
1660000000.0 -0.0045257276216009975 -0.01099856813768068
1680000000.0 0.019818692586082383 -0.005052199394009678
1700000000.0 0.0405291021896501 -0.012981226445296852
1720000000.0 0.03517328233616315 0.0408852492872158
1740000000.0 0.06571912796850836 -0.005744325178618324
1760000000.0 0.03956640790950137 -0.07380659982105484
1780000000.0 0.10923470114191322 0.03554738191902468
1800000000.0 0.09793806355807666 0.11654811080733125
1820000000.0 -0.10043520557662765 0.16271014624905936
1840000000.0 -0.22207453470560246 0.022056148907160563
1860000000.0 0.07234368159782437 -0.24314134873494975
1880000000.0 -0.05644590920375276 0.28075011572484204
1900000000.0 -0.08803714389649815 -0.3065370083465812
1920000000.0 0.17303288549223986 0.30670719119903056
1940000000.0 -0.3204607809974574 -0.19994493996329918
1960000000.0 0.30837259691147234 0.24113420857296633
1980000000.0 0.33270631013262825 -0.22789574042518776
2000000000.0 -0.19634166643601847 -0.368926760767298
2020000000.0 -0.3520718139695584 0.23858738244832664
2040000000.0 0.15698066080288767 0.39441505481643213
2060000000.0 0.4135911580194497 -0.07447121780343227
2080000000.0 0.05608671514113602 -0.4083953554381271
2100000000.0 -0.3535432969024482 -0.1854849046581476
2120000000.0 -0.3812754216610396 -0.018104474293929657
2140000000.0 -0.3645757252573552 -0.00014191188264932395
2160000000.0 0.23627563015888034 -0.2532192415252899
2180000000.0 0.3278372926353192 -0.07391739322217925
2200000000.0 0.16109447131469698 -0.27898928597644157
2220000000.0 0.25686352045028327 -0.1766993739835956
2240000000.0 0.1602234556203641 -0.27302528163905804
2260000000.0 -0.24747652950732 -0.20761289230152133
2280000000.0 -0.10739085325299809 0.31620096241378765
2300000000.0 -0.03987178586775694 0.35134380030769163
2320000000.0 -0.2940152290475358 -0.23994017560456912
2340000000.0 0.2104734946657433 0.35884921210887
2360000000.0 -0.34623019682867623 0.31189004473825915
2380000000.0 -0.3394584786619249 -0.39008400837869095
2400000000.0 0.48298810456422253 -0.2928543739674966
2420000000.0 0.1992877509979112 0.5799396888764375
2440000000.0 -0.594245481686085 0.28333039095002444
2460000000.0 -0.5461930976032279 -0.42908888305269577
2480000000.0 0.4443822660263953 -0.5641256304511623
2500000000.0 -0.7003656808467014 -0.11458148468867829
2520000000.0 -0.07305625839117914 -0.7381386794430755
2540000000.0 -0.19214398389913748 0.7101286472060709
2560000000.0 0.7175410393057002 -0.16554150630280232
2580000000.0 -0.33813661849042087 -0.6422926758544393
2600000000.0 -0.5650127650748592 0.42414323507270535
2620000000.0 -0.20176893681650185 0.649733746252207
2640000000.0 0.23975491435232207 -0.6008415756720283
2660000000.0 0.14284274335184408 0.5881088719150237
2680000000.0 0.43725573924903577 -0.32376942842643924
2700000000.0 0.0484976958626 0.5219746846737834
2720000000.0 -0.14253470482255218 -0.45898355355612874
2740000000.0 0.10325669264242227 0.43352626702560465
2760000000.0 0.16271828065595068 -0.37396654174100064
2780000000.0 -0.27937575805373877 0.29863986250199576
2800000000.0 0.17774701400959125 0.3530421556012824
2820000000.0 -0.13886801784400882 -0.3613829525476902
2840000000.0 0.3207440119193432 0.22011113757104514
2860000000.0 -0.2937752391840622 0.2448432755311644
2880000000.0 0.34734725735798516 -0.16857077394140338
2900000000.0 -0.3589469117652378 -0.1056747361770607
2920000000.0 -0.3680611504019222 -0.11397977302059935
2940000000.0 -0.3681041536469463 -0.12033404891363911
2960000000.0 -0.051866647867779905 -0.37764855220173277
2980000000.0 0.1620411570602575 -0.3498411758877981
3000000000.0 0.27996988158222574 0.2759928864803819
3020000000.0 -0.2948352665267095 0.2580475677428318
3040000000.0 -0.023864893605897223 -0.37868450611406007
3060000000.0 0.14697578889155982 0.3384603170688614
3080000000.0 -0.07070297347111419 -0.3520118979581741
3100000000.0 -0.023277853532442765 0.3555830540868194
3120000000.0 -0.3099777616094848 -0.15788314657881014
3140000000.0 0.18970507773811224 -0.2638111746411956
3160000000.0 -0.2864215520785132 0.0962988213369894
3180000000.0 -0.27092792209746874 0.06046417750549937
3200000000.0 -0.09106573305741245 0.2350872841688086
3220000000.0 0.04662120071197239 -0.20997045439121767
3240000000.0 -0.08314964394196138 0.15726690800498133
3260000000.0 0.02073970616156733 -0.14498191228710083
3280000000.0 0.08780219279058346 -0.10118959896548772
3300000000.0 -0.013421366003987509 -0.13094389589398692
3320000000.0 -0.056184790808822244 0.09406231455019737
3340000000.0 0.11663830406059783 -0.014955238150371378
3360000000.0 0.09382848506497467 -0.007914017531636943
3380000000.0 -0.03133518052409179 -0.05932671961884493
3400000000.0 0.007129093205961381 -0.04332959696012151
3420000000.0 0.02864860202942957 -0.022579460430518755
3440000000.0 -0.012426699402898167 -0.04540270818434792
3460000000.0 0.041988917508558495 -0.0037371408109446182
3480000000.0 0.056830154579520294 0.05951367551522323
3500000000.0 0.05636894615554805 0.06744786431724871
3520000000.0 0.0741449778346758 -0.0634469460093717
3540000000.0 -0.10399621136136449 0.05963075588030462
3560000000.0 -0.08637046405745866 -0.042946050149476944
3580000000.0 0.04214391062278724 -0.04653769130144515
3600000000.0 0.0615319269824771 0.0244019260367951
3620000000.0 -0.06916671838972074 -0.04392231997758673
3640000000.0 -0.07486421256365473 -0.0709977440769052
3660000000.0 -0.09285940166726253 -0.14930238571006527
3680000000.0 -0.17700400171110778 -0.1956655554978982
3700000000.0 -0.04924147766151846 0.2664513587374268
3720000000.0 -0.20455915763117516 -0.1876017415759538
3740000000.0 -0.1548914601410159 -0.1726350140410666
3760000000.0 -0.20939029322490862 -0.06703303801806308
3780000000.0 0.05720325514186772 0.22409132856141828
3800000000.0 -0.21693291504023782 -0.16921588388682235
3820000000.0 -0.30995352186648195 0.028052361700028693
3840000000.0 0.08566079510359663 0.2611505840217666
3860000000.0 0.009084619929466105 0.2652784473450431
3880000000.0 0.11045761838090294 0.21529167693329812
3900000000.0 -0.2121628007588002 0.09769560622266794
3920000000.0 0.27775369500668345 -0.04302270866849468
3940000000.0 0.13701878002640466 -0.26920716670552225
3960000000.0 -0.3015219645287322 0.06765926886670517
3980000000.0 -0.28579979847732384 -0.06374815748030262
4000000000.0 0.07004136498353897 -0.22135636944354703
