!Created with skrf (http://scikit-rf.org).
# Hz S RI R 50.0 
!freq ReS11 ImS11
400000000.0 -0.538899849666715 -0.6144692423035621
420000000.0 -0.8127919390387519 -0.1974601860885497
440000000.0 -0.5461463331540499 0.551088709440932
460000000.0 -0.706786523238106 -0.1509370376145295
480000000.0 0.5853868013712538 -0.30438381537428827
500000000.0 0.6479753648287401 -0.01293267920394459
520000000.0 0.5668182051614524 0.09231356404419357
540000000.0 -0.140909546152199 0.4958618298110258
560000000.0 -0.3346474048685373 0.32190909142107593
580000000.0 0.16554007592957837 0.364107973062123
600000000.0 0.26927848964718015 -0.24375123903855928
620000000.0 0.09952968507791328 -0.3479124334983733
640000000.0 -0.34798666277073703 0.1922004166224043
660000000.0 0.34767148458268526 -0.25517181863540966
680000000.0 0.034028272747505486 -0.4426845435295168
700000000.0 0.43389743783853446 -0.09747154951570326
720000000.0 -0.4188987707761186 -0.08258402498918008
740000000.0 -0.3168686615855529 -0.23051492732904438
760000000.0 -0.05738381957576964 -0.3619193277460728
780000000.0 0.00869376936717261 -0.32963425030576976
800000000.0 0.11039980458218002 -0.26050157457609247
820000000.0 0.2446335194324642 0.02505811116992802
840000000.0 0.15130744505217367 -0.128012094097712
860000000.0 0.14321683344890485 -0.0670553480213843
880000000.0 -0.11516382275196042 0.02876201824391905
900000000.0 0.08123426808208707 -0.007522600222650723
920000000.0 -0.0523136761069208 0.02832831720692845
940000000.0 -0.04257239693334695 0.01801267881369767
960000000.0 0.011935736929005803 0.05843509490735347
980000000.0 -0.07017660694374689 -0.03132584653085081
1000000000.0 -0.08378135765501249 -0.02823065194465061
1020000000.0 -0.049063804815214836 -0.08817199377570875
1040000000.0 -0.030313409411149513 0.11663624018898323
1060000000.0 -0.07538625440728865 -0.124257211520438
1080000000.0 -0.17382089023146696 -0.06736561498630839
1100000000.0 0.17217318507683044 -0.13194384320623792
1120000000.0 -0.13930587348266854 -0.21075159346389458
1140000000.0 -0.2684064914128655 -0.0810725579874028
1160000000.0 0.19039606326551134 0.23427403710024777
1180000000.0 0.061705461177810166 0.3179575534468581
1200000000.0 -0.3264195084795773 -0.10218544554981274
1220000000.0 0.11269737136187664 0.34082323314615476
1240000000.0 0.3204310827051839 -0.19448722047905206
1260000000.0 -0.05801295098079476 -0.3848406633596493
1280000000.0 -0.39527749640921217 -0.08849064021133811
1300000000.0 -0.28636835329584853 0.2916478167879183
1320000000.0 -0.22715922502305816 0.34718246451036466
1340000000.0 0.050259130713844385 0.4135470399295535
1360000000.0 0.33298048676163117 0.240443179241604
1380000000.0 0.3916505126479317 0.07738447182900587
1400000000.0 0.04844269601872067 -0.3847227790942819
1420000000.0 -0.2875805512320473 -0.22202884173468185
1440000000.0 -0.2932971781182589 0.1767710698327178
1460000000.0 0.3076019653768443 0.05694586945628935
1480000000.0 -0.11820149860556373 -0.2585639401775919
1500000000.0 0.24327374822639294 -0.0455929085408203
1520000000.0 -0.0990893013048343 -0.1811563092518058
1540000000.0 0.06928410716401129 0.14911192022995542
1560000000.0 -0.07554683335402562 0.1054136778586614
1580000000.0 0.037126591307904674 0.10478318844760527
1600000000.0 -0.049294584749936636 0.0678500335785362
1620000000.0 0.043454874203097356 -0.04141248896355967
1640000000.0 0.03354315815276569 0.01785219283662461
1660000000.0 -0.00970850204728962 0.013160197389005413
1680000000.0 -0.0011219260534815092 0.005601902287250944
1700000000.0 -0.020678292544153314 -0.018445385784005765
1720000000.0 -0.0023564975693346982 0.04715862066142026
1740000000.0 0.0035705916550426223 0.07030967003849155
1760000000.0 -0.07555284915101186 -0.05079355717753175
1780000000.0 -0.10585001088106806 0.04810899237265149
1800000000.0 -0.06142854680939054 -0.1360253954302683
1820000000.0 0.05162335060843909 -0.17482799420785067
1840000000.0 -0.07559689128972179 0.19749350959865042
1860000000.0 -0.15309709726689819 -0.19943039851841393
1880000000.0 0.28442061533593294 -0.03171421217872841
1900000000.0 -0.3073059016224669 0.09177188709933252
1920000000.0 0.32202046605294915 -0.13670827641621588
1940000000.0 -0.35212010464269805 -0.130630864198032
1960000000.0 0.25349101503455823 0.3062722659178204
1980000000.0 0.1770100411754943 -0.3698092644215481
2000000000.0 -0.37046784362359975 -0.2021161685241605
2020000000.0 -0.30931900371060345 0.29471269215618284
2040000000.0 0.04467570668427556 0.42711162244272854
2060000000.0 0.4157910592947912 0.09825250446317167
2080000000.0 0.29870527549052617 -0.2936436307525577
2100000000.0 -0.10193288090417273 -0.39380082925355836
2120000000.0 -0.2810816522637442 -0.2685920561035958
2140000000.0 -0.21705053729773022 -0.30070418360691237
2160000000.0 0.2619456403026489 -0.2374447089300495
2180000000.0 0.2962562293599393 -0.15836895396522735
2200000000.0 0.32338945462276986 0.05947692257665131
2220000000.0 0.2579010731214244 0.1917042891952913
2240000000.0 0.06999160870465221 0.324415192943922
2260000000.0 0.3402816012972991 -0.028195434816980187
2280000000.0 0.012198471784216743 -0.35384463831610785
2300000000.0 -0.132567584992003 0.3474900302583697
2320000000.0 0.2609782741602113 -0.30323922897961675
2340000000.0 0.05139288945319348 0.43821043423948863
2360000000.0 -0.48639984562827476 0.02032906330583835
2380000000.0 -0.048304839267970655 -0.533794114273224
2400000000.0 0.4949534098920856 -0.31147236162253944
2420000000.0 0.25697329861029256 0.5726473325898838
2440000000.0 -0.5917546784712319 0.30191658342255356
2460000000.0 0.3967138203776039 -0.5656792944546042
2480000000.0 -0.162115247146041 0.6915299740867827
2500000000.0 0.08524769262169604 -0.7152599026551288
2520000000.0 0.2511720299972375 0.6758638147317619
2540000000.0 -0.6353730940023545 -0.33234270191764714
2560000000.0 0.5935591079226792 0.38812234724022715
2580000000.0 -0.007833453889610284 -0.6892855382302769
2600000000.0 -0.30322486770373475 0.5901656664711955
2620000000.0 -0.022005237061522184 0.630558684264759
2640000000.0 0.5045941320144506 -0.31113913004773164
2660000000.0 -0.09054553104593135 -0.5452649080077422
2680000000.0 -0.11575200528675038 0.49980756409979693
2700000000.0 0.3426584163260348 -0.327355764202922
2720000000.0 0.05808138622661867 0.4364129798644718
2740000000.0 -0.41014059979398065 -0.05383692685263939
2760000000.0 0.32901200314835566 0.19509753599503918
2780000000.0 -0.3565863030830876 -0.0388715565433926
2800000000.0 0.31937188327488547 -0.1392152234928223
2820000000.0 -0.33981208939277946 -9.560516346498248e-05
2840000000.0 0.3327279027671275 0.038774367782093956
2860000000.0 -0.3067088646280212 -0.13515230059140682
2880000000.0 0.23127979371741114 0.246707146597324
2900000000.0 0.13028409276326802 -0.3215710486884002
2920000000.0 -0.32989426409667416 -0.13573819614179544
2940000000.0 -0.30906095867646177 0.18580726404939
2960000000.0 -0.12232854955555897 0.3328389894385929
2980000000.0 -0.1466118946872465 0.32492695564651886
3000000000.0 -0.3193471081154918 0.16566839280039353
3020000000.0 -0.043993744244607 -0.3534106723430303
3040000000.0 0.1914224911088575 0.2925237217007982
3060000000.0 -0.20555074657064384 -0.27484999620579026
3080000000.0 0.26684177146874094 0.2035368000984591
3100000000.0 -0.3141927187412913 -0.09521141586752277
3120000000.0 0.10458621300221226 -0.30116009811836825
3140000000.0 0.2971956476187025 0.021309554863749035
3160000000.0 -0.19739215181346847 -0.1956986530467166
3180000000.0 0.16006838917957453 -0.20174499948639404
3200000000.0 0.22222748740388654 0.06948791781345248
3220000000.0 -0.158390170979123 0.12647087644967894
3240000000.0 0.013847494510013145 0.1721462553760459
3260000000.0 0.1100480285198707 -0.08693106601571793
3280000000.0 0.11145658122675577 0.008640437146713306
3300000000.0 0.01990740112295518 0.08440275386074356
3320000000.0 0.034426319570348383 0.05835995208300069
3340000000.0 -0.033260675229066596 0.03508989289119396
3360000000.0 0.02150050010973391 0.024693437030363283
3380000000.0 -0.0066236222349276425 0.022554166028528524
3400000000.0 0.018198750827205786 -0.0036889851367741264
3420000000.0 0.0023681990957601026 -0.022319290988305804
3440000000.0 0.019042040188819446 -0.03486755460900224
3460000000.0 -0.05276196305009185 0.022801549124547044
3480000000.0 -0.03678374301871857 0.06660470789486914
3500000000.0 -0.08725841090026339 -0.03193818047062186
3520000000.0 -0.0044329432263928515 0.10858071112860244
3540000000.0 0.024136917851829753 0.11745411104714329
3560000000.0 0.03282475464989474 0.12172751442307593
3580000000.0 0.13526382797724212 0.01767054566433048
3600000000.0 -0.13070841197356084 0.039723561563087366
3620000000.0 -0.08932708651005407 -0.11028255380035584
3640000000.0 0.12146244992624866 0.09781433142368044
3660000000.0 -0.040692035102382215 -0.161088160883236
3680000000.0 0.025081035194737242 0.16744493196478838
3700000000.0 -0.14391859889342912 0.07663437887008168
3720000000.0 0.07193843076700421 0.13991408908285252
3740000000.0 -0.0019266974865629228 0.15279474045076977
3760000000.0 -0.1431681752763629 0.04390729668110845
3780000000.0 0.004229120152246669 0.14359602755408254
3800000000.0 -0.10173143791303996 0.0974768398421896
3820000000.0 -0.05940660847031438 0.13350798893982566
3840000000.0 -0.13800850246487897 0.02860028769342371
3860000000.0 0.10772181122246223 0.09474121585641465
3880000000.0 0.12988641093725176 -0.07659715299535716
3900000000.0 -0.15480826081410418 -0.02961203558709138
3920000000.0 0.03873805761746489 -0.1759416253164244
3940000000.0 0.03943992969679743 -0.1803279725414013
3960000000.0 -0.07637113622179652 -0.1631354018504521
3980000000.0 -0.13252966952101017 -0.10629445897258079
4000000000.0 -0.14993746439993952 0.021018299928815504
