!Created with skrf (http://scikit-rf.org).
# Hz S RI R 50.0 
!freq ReS11 ImS11
400000000.0 -0.8157226921332934 -0.2478839071009952
420000000.0 -0.2961191492295595 0.7893455692461262
440000000.0 0.38748456011876314 0.687174413179377
460000000.0 0.6048695932806442 0.40095428817896384
480000000.0 -0.6439656583216862 0.04446508282943507
500000000.0 -0.05125496772256457 -0.6060065085402128
520000000.0 0.49942455947410025 -0.19684800369891536
540000000.0 -0.17357222222904098 -0.4403089107734084
560000000.0 0.40967609526564236 -0.18209043264602628
580000000.0 0.10766052117764217 -0.3791158567179787
600000000.0 -0.1096041587832381 0.34698170779342413
620000000.0 -0.32317869924893655 0.14749995636275592
640000000.0 0.291467335024676 -0.2904239870526834
660000000.0 0.38279075335406026 0.23598100692892932
680000000.0 -0.4636550571327853 0.020657904005161497
700000000.0 -0.41295137135599047 0.15504484421699816
720000000.0 0.014724916526570625 0.4089207011101915
740000000.0 -0.30693023355015203 -0.19605641609301686
760000000.0 -0.34580784121430386 0.08445700919786167
780000000.0 -0.13129142747493275 0.32150936832738813
800000000.0 0.10394401886812195 -0.3000807706245416
820000000.0 0.2559862016949664 -0.07907578358600308
840000000.0 -0.1291597055001089 0.15018892804826123
860000000.0 -0.14205320479501826 0.022224719734819612
880000000.0 -0.0076097773608426915 -0.09992262445780652
900000000.0 -0.06998388965336692 -0.0030045567211002128
920000000.0 -0.046011606552606894 0.019432336114123844
940000000.0 -0.013811625372047087 -0.031167917483770374
960000000.0 -0.044723468618339784 -0.023835595388835753
980000000.0 0.026072939397494777 0.0671031795311362
1000000000.0 0.012227834232368675 0.08998562415112323
1020000000.0 0.03728786082912928 -0.11041813333668044
1040000000.0 -0.0851142521229682 -0.10103606447580972
1060000000.0 0.16493289942876865 0.01725753945896805
1080000000.0 0.0399123019421925 0.19079056731156002
1100000000.0 0.0052183991564742 -0.21307004195905685
1120000000.0 -0.02209275745147578 -0.23217072603972055
1140000000.0 -0.1531891216857672 0.19849319755166903
1160000000.0 -0.28399772922117017 -0.001820452912753415
1180000000.0 -0.25487313718065363 -0.1890686789592441
1200000000.0 0.3459317291373896 -0.018482386576883496
1220000000.0 -0.35663075877619205 0.11392899680713374
1240000000.0 0.2503412681645821 -0.3072793639051
1260000000.0 -0.33719947146721607 0.22751830179917726
1280000000.0 0.23512388044122925 0.3343997522098422
1300000000.0 0.33676121803717834 0.2334133137059497
1320000000.0 0.3404748516633624 0.2221469199562536
1340000000.0 0.017495914673344475 0.4082898341114409
1360000000.0 0.0907266976478315 0.4023373204986192
1380000000.0 0.3641763534931786 0.18322575636915706
1400000000.0 0.017295596084736846 -0.39359316374483677
1420000000.0 -0.36086864744540725 0.08198638605769397
1440000000.0 0.0972895232546713 0.3287466530015785
1460000000.0 0.30436605276939627 -0.05571654127645753
1480000000.0 0.005347818587030965 -0.27941553499863625
1500000000.0 -0.20487605642418574 0.1331952551377153
1520000000.0 -0.13099097234520923 0.17363383301489796
1540000000.0 -0.06317755443335249 -0.16956935333547749
1560000000.0 -0.02179882060699608 0.14934965116618887
1580000000.0 -0.05806083834143396 0.10677127824429024
1600000000.0 -0.04289538580899048 0.07682013076764438
1620000000.0 -0.03971574974569335 0.03613517835547557
1640000000.0 -0.02572634787570722 0.004068806166606236
1660000000.0 -0.0029923432902001514 0.007881437186090707
1680000000.0 -0.020074256063852883 0.0092462068190718
1700000000.0 0.04349383039951962 0.0012150031890711271
1720000000.0 0.03650555343981332 0.03976047016326154
1740000000.0 0.06809506623908806 -0.007355196974619873
1760000000.0 0.016859491245448086 0.08341156310182661
1780000000.0 -0.026559317067424204 -0.10913815074699015
1800000000.0 0.12849139195760528 -0.07632662652983531
1820000000.0 -0.13071123031799192 0.12398809335023668
1840000000.0 0.15478978751009143 -0.15606184510297738
1860000000.0 0.2451852945291802 0.08611325083109278
1880000000.0 0.05763367156339861 0.2922219995439541
1900000000.0 -0.31809576542672313 0.07088034745916343
1920000000.0 0.33304320755975264 -0.10997819941449387
1940000000.0 -0.3466847353098108 -0.13633514468922991
1960000000.0 0.16281814980220938 0.3544597756992388
1980000000.0 0.37282641247770976 -0.15126203250518216
2000000000.0 -0.030149225708072564 -0.41357001338472266
2020000000.0 -0.3948727381762675 -0.1493904214619836
2040000000.0 -0.25161291515438267 0.3482572965436373
2060000000.0 0.425268424677953 -0.037620668386056134
2080000000.0 -0.10149205493276527 -0.4013688898468897
2100000000.0 -0.3734486803962668 -0.12977952678753676
2120000000.0 -0.35881679052134224 -0.12096800354043824
2140000000.0 -0.361007739160073 -0.030136313016498547
2160000000.0 0.14520479021745758 -0.3103747767925645
2180000000.0 0.22149792064790522 -0.24160314519778875
2200000000.0 0.25752567390838726 -0.18429620961804324
2220000000.0 0.28788172086096164 -0.12048019194898395
2240000000.0 0.15841413055265957 -0.2733693448468375
2260000000.0 -0.29528579221541534 -0.1264476615005988
2280000000.0 -0.13533843708118254 0.3014562109640961
2300000000.0 0.34367715370619145 -0.06064808757277918
2320000000.0 -0.352875707149057 -0.13336705237131696
2340000000.0 0.412085902420448 0.05077584953532879
2360000000.0 -0.3741522370443674 0.2682506110723569
2380000000.0 -0.23545749407513478 -0.4550465037027623
2400000000.0 0.4780674640207971 -0.30185846664953564
2420000000.0 0.5018326388192571 0.3563424318530086
2440000000.0 -0.18991864178644285 0.630315118900895
2460000000.0 -0.6318993160151662 -0.2786150567133369
2480000000.0 0.6276073797979628 -0.3444740601209052
2500000000.0 -0.4488994377121259 0.5766550994694378
2520000000.0 0.41212249753315666 -0.6145141006156155
2540000000.0 -0.5504092134229489 0.4951987836233424
2560000000.0 0.6910566432646634 -0.2439108319436339
2580000000.0 -0.6763197140369129 -0.24068784022627926
2600000000.0 0.4752946044967371 0.507240891400508
2620000000.0 0.6661318380973199 0.0559936947597735
2640000000.0 -0.5624833296086863 -0.30187814363386806
2660000000.0 0.37526835348806087 0.4727868240584693
2680000000.0 -0.3055329130999849 -0.4782270116694804
2700000000.0 0.22057052165176402 0.4802941628047967
2720000000.0 -0.1652493205676099 -0.4610977753573464
2740000000.0 0.06889195093469941 0.44975401102510393
2760000000.0 0.1379588070684188 -0.4026805285118778
2780000000.0 -0.35137618591546127 0.20363491148754598
2800000000.0 0.39560533805862313 -0.025001502912650797
2820000000.0 -0.3899205887637636 0.03999986512936378
2840000000.0 0.34647072520005556 -0.1782117349503545
2860000000.0 -0.38683485954812474 0.020362517277257682
2880000000.0 0.29062104517362275 0.25518863742074316
2900000000.0 0.3097089332924162 -0.2303409630212054
2920000000.0 -0.08438065678153456 -0.3793038260764546
2940000000.0 -0.2358971335185226 -0.30723121616822546
2960000000.0 -0.03380842798930016 -0.3860753504409137
2980000000.0 0.2878905638236012 -0.2589834350344811
3000000000.0 0.30352728371713467 0.24168245975365024
3020000000.0 -0.2631944627332773 0.28214643986202376
3040000000.0 0.1107403748542272 -0.36278254364579565
3060000000.0 0.004930036768813091 0.3753840104648629
3080000000.0 -0.11458868182666125 -0.34795227417272057
3100000000.0 0.22708060500004953 0.2752438932136112
3120000000.0 -0.31367645898159985 -0.13696617424476665
3140000000.0 0.3227717136386909 -0.03863715533193192
3160000000.0 -0.29109035956548074 0.07693137489213558
3180000000.0 -0.16595517784199842 0.21927236715936577
3200000000.0 0.2391255100945813 0.06854944083879398
3220000000.0 0.04971504824998507 -0.2133510912722446
3240000000.0 0.047854642221023765 -0.1854121601249706
3260000000.0 0.14718730596630916 -0.07121537705055965
3280000000.0 -0.13833847544326405 0.014806602539476346
3300000000.0 0.003273722814224604 0.12123681910414143
3320000000.0 0.10766107623583265 0.016242388691620223
3340000000.0 -0.07874672194287619 -0.0648376727269943
3360000000.0 -0.09041455976215046 -0.03216014541532146
3380000000.0 -0.08602356697571216 0.02106597716099658
3400000000.0 0.0468065878765856 -0.06564518932721332
3420000000.0 0.04149708854167253 0.05709385176941949
3440000000.0 0.05996214986229374 0.021489885709998362
3460000000.0 -0.020057875239605238 0.05875448983906509
3480000000.0 -0.004616636010165133 -0.06430218245442372
3500000000.0 -0.04989414676935548 0.0513540672794676
3520000000.0 0.08751483880576033 0.0027949531906222122
3540000000.0 0.018871327586311493 0.10109573326882768
3560000000.0 0.10126835628400836 -0.06258157922195345
3580000000.0 0.130662800065757 0.03837498338512071
3600000000.0 -0.06861298317118371 0.1413221661272013
3620000000.0 -0.03557744005856468 -0.1757659419922749
3640000000.0 0.05191235235669762 0.19333778951243646
3660000000.0 0.11971517619216807 -0.1813153095699787
3680000000.0 -0.19859290073329722 -0.12347183888289867
3700000000.0 0.050117594608668846 0.2443462965144752
3720000000.0 0.1046620677505891 -0.24049180720168212
3740000000.0 -0.260165544448976 0.07021989012027878
3760000000.0 -0.26374240778556063 0.08401879969020093
3780000000.0 -0.28117231978337004 -0.030275780409119036
3800000000.0 -0.2361302238776135 -0.1637978692305301
3820000000.0 -0.03877933792433487 -0.2870941951658458
3840000000.0 0.007666434688028705 -0.2887177794198157
3860000000.0 0.13567920841923847 -0.24946106636141893
3880000000.0 0.20698334776230848 -0.19055797418389928
3900000000.0 0.20431587416550315 -0.18365494737817203
3920000000.0 0.09434863541899953 -0.25246285893966586
3940000000.0 0.019104294149861034 -0.2622865100093006
3960000000.0 -0.242154743751618 -0.083205730753936
3980000000.0 -0.24745120000211315 0.013559867246830053
4000000000.0 0.22335421894235133 -0.05842266330577928
