!Created with skrf (http://scikit-rf.org).
# Hz S RI R 50.0 
!freq ReS11 ImS11
400000000.0 -0.8432089803364687 0.1688894450373411
420000000.0 0.16373684461899393 0.8251170259767748
440000000.0 0.5061399709686795 0.5985523741992116
460000000.0 0.25180254115194023 0.6766251065217558
480000000.0 -0.6394532092527319 0.1681250403441297
500000000.0 -0.6020449897189987 5.700664952282411e-05
520000000.0 0.30932823287661304 -0.4376379547036636
540000000.0 -0.45859883078837094 -0.09279744392434301
560000000.0 0.32715172227847356 -0.28685836037754286
580000000.0 0.28983954983408833 -0.25927231737940737
600000000.0 -0.27565406122532987 0.22111626594047762
620000000.0 -0.3385173082424018 -0.12228107585056125
640000000.0 0.1225668353676869 -0.3890048421998989
660000000.0 0.39580835860848557 0.2016016485653885
680000000.0 -0.45083270170773776 -0.08838512851231274
700000000.0 -0.3798677399837149 -0.22414506315781052
720000000.0 -0.15012873628247927 0.3873129467386573
740000000.0 -0.33403446255540936 -0.16541873266854099
760000000.0 0.10663952725148942 0.34088983042110027
780000000.0 0.15017357396089281 0.30349026656546374
800000000.0 0.09682528668522529 -0.28872822436166085
820000000.0 -0.2360923926267617 0.09328182057303103
840000000.0 -0.08982856286706066 -0.18002536355972473
860000000.0 -0.0497239791715363 0.16124355112664676
880000000.0 -0.07446334859244483 -0.10555579343169821
900000000.0 -0.007399839083866406 -0.09496722809377196
920000000.0 -0.024008336287674636 0.05293394991531859
940000000.0 0.019976941243320088 -0.0321530784308154
960000000.0 -0.007787527647181715 0.04652041073588777
980000000.0 0.043971148403074624 0.034666854216672836
1000000000.0 0.04541793883825478 0.05610547494707256
1020000000.0 0.09774601082549253 0.008490842603998107
1040000000.0 -0.030027557581001684 0.1193269429157804
1060000000.0 -0.13301877002349935 0.08575903035533754
1080000000.0 0.02567755086782919 -0.18497396483853548
1100000000.0 -0.12307907689680866 0.1739468429413839
1120000000.0 0.08028423876885576 0.22758828399865239
1140000000.0 -0.24647523331689064 0.0986855285971442
1160000000.0 -0.11160038308936017 0.27027666427838487
1180000000.0 -0.0389132505423987 0.31414304112453695
1200000000.0 0.20502388295717258 -0.2710586897842768
1220000000.0 -0.10722715152218208 0.3510644663022238
1240000000.0 0.3693832775288591 -0.10963974215330341
1260000000.0 -0.34743069406505156 -0.19734078268576866
1280000000.0 -0.3188620141658333 0.2537890343197993
1300000000.0 -0.2758999984372618 0.31216309273941434
1320000000.0 0.2463853011821094 0.3468098846844576
1340000000.0 0.35309398682170573 -0.2301811276232412
1360000000.0 0.2965997002592545 -0.2821663545299798
1380000000.0 0.27277817047845576 -0.29148297698185793
1400000000.0 -0.2724192262927225 -0.26861559637837695
1420000000.0 -0.3336127079947857 -0.12082827258080912
1440000000.0 -0.29549755269554395 -0.15344415018071159
1460000000.0 -0.2940120868802794 0.10297445187103961
1480000000.0 0.24848650298316596 0.14797181444816285
1500000000.0 -0.19436516096787407 0.1681623375183001
1520000000.0 0.1904988594674837 -0.11039003339105027
1540000000.0 -0.16598642894586382 0.05738139458460865
1560000000.0 0.09123086596822323 0.1121099516869539
1580000000.0 0.00977914618488457 0.10916260869915811
1600000000.0 -0.04159170193183548 -0.06690699662436962
1620000000.0 0.040330677534760204 -0.04563167077967761
1640000000.0 -0.03518139408636283 0.005899880819972023
1660000000.0 0.005548629498763772 -0.0028822329442330925
1680000000.0 -0.013138360448757115 0.01577860314533641
1700000000.0 -0.04349061227566732 -0.00642596963683596
1720000000.0 -0.06182754689945315 0.002155199214926434
1740000000.0 0.05541831173323998 -0.052490953462825424
1760000000.0 0.0901644519143923 0.004120635912274202
1780000000.0 0.08137816944115593 0.08448038051048788
1800000000.0 -0.11477749028176631 0.0943945046079639
1820000000.0 0.17477041975539642 -0.016707704767392
1840000000.0 0.01922657390544868 -0.2118547045229461
1860000000.0 0.24193941866636254 0.09447880409156878
1880000000.0 0.2034086103934052 0.22029783517965879
1900000000.0 -0.2121950901370731 0.2488397463020096
1920000000.0 0.1923886950636221 -0.29283785389494926
1940000000.0 -0.36682157110844776 -0.06036925069406808
1960000000.0 0.15494085390714768 0.360056957347437
1980000000.0 0.390660374607576 -0.10710812672451969
2000000000.0 0.07512896328415464 -0.4133228148582294
2020000000.0 -0.411212880024467 -0.13422383735257887
2040000000.0 0.10596032955886726 0.4228302544820143
2060000000.0 0.3945733276112256 -0.16397968512513733
2080000000.0 -0.03329067889900631 -0.4130164818749479
2100000000.0 -0.2745365006708516 -0.2893708738456374
2120000000.0 -0.30847440087704486 -0.22821148448346268
2140000000.0 -0.33938855586595307 -0.13911276835451228
2160000000.0 0.1801836569165201 -0.29927985997767254
2180000000.0 0.16138133691676287 -0.29300469794991735
2200000000.0 0.07440663228300545 -0.3151252173971072
2220000000.0 0.09552542768808589 -0.30089004388050233
2240000000.0 0.19876523124515993 -0.2474564013969888
2260000000.0 -0.05439942889358043 -0.3249781084859282
2280000000.0 -0.20514318006134344 0.28076053253993655
2300000000.0 0.2744542056690161 -0.24722799858584485
2320000000.0 -0.20416096061057257 0.3409098044296814
2340000000.0 0.05523520045754572 -0.431540407866116
2360000000.0 0.32890025642743514 0.35133759424226857
2380000000.0 -0.345351324592257 0.40737547544770986
2400000000.0 -0.5402312455379072 -0.22400325239703903
2420000000.0 -0.009122785752184814 -0.6303211967718555
2440000000.0 0.6649644469504992 -0.06292396726309134
2460000000.0 -0.12663223434476603 0.6852888141012533
2480000000.0 -0.4288892013086942 -0.5755155452295968
2500000000.0 0.612592747951515 0.3953752854336834
2520000000.0 -0.6160157286725284 -0.39804150496287166
2540000000.0 0.5030423822226955 0.5281445264574707
2560000000.0 -0.15864956228593957 -0.6997959863827775
2580000000.0 -0.35367446686139475 0.6035923644037335
2600000000.0 0.6080636233999075 -0.2903126690203946
2620000000.0 0.3500085962647202 -0.5414275818497514
2640000000.0 -0.537891973967939 0.29124114623332586
2660000000.0 0.5734047835239457 0.024367240802420222
2680000000.0 -0.5156231449402403 -0.14379615479383623
2700000000.0 0.34173119012178077 0.3608028699107509
2720000000.0 -0.13538082795905973 -0.4424876792030172
2740000000.0 0.04252313539665134 0.42963264445819
2760000000.0 0.016293882929560816 -0.4056460981445815
2780000000.0 0.02177102672612906 0.3844338277308134
2800000000.0 0.1249822129659244 -0.3494942189442307
2820000000.0 -0.21962727118857012 0.29104806961230933
2840000000.0 0.25216363308474365 -0.2622684061111097
2860000000.0 -0.32746239946084676 0.15429803518119484
2880000000.0 0.25405099185978713 0.2587447257322437
2900000000.0 0.3045023792020104 -0.2010419197881323
2920000000.0 0.002911244724679861 -0.37073733050362845
2940000000.0 -0.2962911208520952 -0.23196152611867554
2960000000.0 -0.3584758340736829 -0.1006821770180275
2980000000.0 -0.03137507858653898 -0.36908324193735503
3000000000.0 0.3707169962754356 -0.03930156770857775
3020000000.0 -0.02403229695119831 0.3693472387646121
3040000000.0 -0.3625109353300041 -0.030976285506500667
3060000000.0 0.3530082871229706 -0.04834434415453209
3080000000.0 -0.3406139531338358 0.06660317423573862
3100000000.0 0.33296334245962467 0.04403043298256978
3120000000.0 -0.3229625374467226 0.04401487100029223
3140000000.0 0.21039377312510033 -0.2313366420799829
3160000000.0 -0.2920451021973548 -0.024770628235164713
3180000000.0 0.14105600106373595 -0.22774514088892361
3200000000.0 -0.1584752348832935 0.17374125037603758
3220000000.0 0.19405527998829084 0.06402772889141738
3240000000.0 0.17570239550804725 -0.011856225388241874
3260000000.0 0.1312783280647956 0.07095542140929234
3280000000.0 -0.1166991717003734 0.038805420644121104
3300000000.0 0.07715358967781129 0.07048740420053924
3320000000.0 -0.0719018061251304 -0.05073408851176574
3340000000.0 -0.05375656780238382 0.052054795407964725
3360000000.0 0.05664818795620808 -0.02984279843052543
3380000000.0 -0.02088865844946299 0.04945710946900738
3400000000.0 0.03227374944334836 0.0335532059218105
3420000000.0 -0.013743548464292623 -0.0332205187387821
3440000000.0 -0.025332700055704073 0.008010985800329221
3460000000.0 -0.01849570628896795 0.012034098774083485
3480000000.0 -0.02460646467066697 -0.007593266578118159
3500000000.0 0.013541393830733306 -0.035686205045293164
3520000000.0 0.035321216157617547 -0.04083651712469007
3540000000.0 -0.041737576984695025 -0.05203953517511455
3560000000.0 0.057016204317950264 0.052071349460690544
3580000000.0 0.06446952741275551 0.06102191837059764
3600000000.0 -0.018813896355172763 0.10006712324857309
3620000000.0 -0.1150553976779645 0.024338778329348814
3640000000.0 -0.12325981569171311 0.04515935179591233
3660000000.0 -0.14256964639100042 0.0026211450754965327
3680000000.0 0.04786807060282052 -0.14572299732545818
3700000000.0 0.16361043715129445 0.006110624704899834
3720000000.0 0.08266004129670129 0.151668308579645
3740000000.0 -0.10366732560596363 0.14497506435029872
3760000000.0 0.18399198719932783 -0.03100571997892372
3780000000.0 -0.006969874821528368 -0.1969875165026245
3800000000.0 0.021096941154597378 0.2111401320398241
3820000000.0 -0.21929428481051724 0.05820092085216282
3840000000.0 -0.23332745657559884 -0.022478489306726825
3860000000.0 -0.06253101306165827 -0.23075176635204733
3880000000.0 0.20839600813626488 -0.1313357254874413
3900000000.0 0.24787196604525058 0.05072116458393897
3920000000.0 0.19251863069170178 -0.1720799792887989
3940000000.0 -0.2509568593445737 -0.06546284899125619
3960000000.0 0.1085318275884382 0.22638321965243854
3980000000.0 0.2256223697831983 -0.07490813515441173
4000000000.0 0.2154442141494173 -0.04965528184970341
