!Created with skrf (http://scikit-rf.org).
# Hz S RI R 50.0 
!freq ReS11 ImS11
400000000.0 -0.41503582889208057 -0.6999465403068476
420000000.0 -0.6564051852103514 -0.5157546813682223
440000000.0 -0.7337942320911944 0.2556522527218408
460000000.0 -0.6500598330718725 -0.3257783517847002
480000000.0 0.6129795204725179 -0.2609136767772883
500000000.0 0.6489701195734033 0.0716419170611649
520000000.0 0.5605909263340331 -0.13418762701656156
540000000.0 -0.1839076144669682 0.478673687921064
560000000.0 -0.3619606126753453 0.28871104758809757
580000000.0 0.08300646355360419 0.39228560366687176
600000000.0 0.13301946201370432 -0.344462668240601
620000000.0 -0.28211876293953336 -0.22644074310854284
640000000.0 -0.07078859075415238 0.38618143454085946
660000000.0 0.2866745487330063 -0.31424475857288015
680000000.0 -0.04704249047916657 -0.4391346204054724
700000000.0 0.4262111033818606 -0.10091438811934887
720000000.0 -0.027858301129259435 -0.41920591406274105
740000000.0 0.15210875852464745 -0.36615245785958767
760000000.0 0.24010340511390005 -0.288595083828248
780000000.0 -0.22506820556541415 -0.2512550951003258
800000000.0 0.15640588987400128 -0.2417663589784803
820000000.0 -0.06055642029820021 -0.24020201998959298
840000000.0 0.1832790930354482 -0.07842932315608857
860000000.0 -0.11069661376851282 -0.11723246822394545
880000000.0 -0.10201432822156808 0.06694028995291906
900000000.0 -0.060935061701036665 -0.06199267104563844
920000000.0 0.05684211912745792 -0.03114361361401284
940000000.0 0.030315041492475117 -0.03816663933392891
960000000.0 -0.050401375699663645 -0.023065780546233077
980000000.0 0.06600341842012429 -0.02392184924925969
1000000000.0 0.07447016123169038 0.02338261403179746
1020000000.0 0.06231736609342376 0.0777899213406589
1040000000.0 0.04652833928731365 0.10982603976394771
1060000000.0 -0.12676546135524797 0.06617952149576482
1080000000.0 0.013618850466705986 0.17855307269726103
1100000000.0 0.1031964585794801 -0.18431134712327096
1120000000.0 0.07085329270886832 -0.2353526473657539
1140000000.0 -0.004209103038137625 -0.281122587734666
1160000000.0 0.07530492667193861 0.3007248012445926
1180000000.0 0.2308899794940543 0.23401727725087876
1200000000.0 -0.3293432373864206 -0.10383417067535275
1220000000.0 0.17228438707331853 0.32187932853524764
1240000000.0 0.3060174156939223 -0.23025509646578754
1260000000.0 -0.25439450549041154 -0.30235361559345586
1280000000.0 -0.40581957257522794 0.002581867115594178
1300000000.0 -0.32803290971217713 0.24901492252440116
1320000000.0 -0.27085426810644925 0.31769365217915
1340000000.0 -0.10080806388786805 0.4078654291874171
1360000000.0 0.3538930582153067 0.2240406741382678
1380000000.0 0.397536985388835 -0.06060169196844272
1400000000.0 0.22553423435973724 -0.31657499526274135
1420000000.0 -0.24552516231831417 -0.2716136206912952
1440000000.0 -0.3199213076454431 0.12468549057879569
1460000000.0 0.27848164799378133 0.1478804568905104
1480000000.0 0.11711505674108555 -0.26179579958932075
1500000000.0 0.2495982881158724 0.04190208139834221
1520000000.0 0.053497583500119815 -0.20526426088552624
1540000000.0 0.1606060341596583 0.0688930866660717
1560000000.0 0.08035026779016505 -0.10167554457808847
1580000000.0 0.02081651183838338 0.10242268351960918
1600000000.0 0.013380309942614277 -0.08267857790411094
1620000000.0 0.04193447286990143 -0.04333505633039933
1640000000.0 0.025147745811872232 0.028033006338176535
1660000000.0 -0.00718489920346476 0.012059728763511588
1680000000.0 -0.005516675045770473 0.0047406580591213745
1700000000.0 -0.028788219701503626 -0.007635050672587243
1720000000.0 0.05162940728737074 0.008052086552692666
1740000000.0 -0.006689663797727839 0.07123166769339538
1760000000.0 -0.006235592529945197 -0.09003299391983714
1780000000.0 -0.09838728273448238 -0.05731613831083161
1800000000.0 0.14774618120710303 0.001985428466155218
1820000000.0 0.10941182376097597 0.14717906866913708
1840000000.0 -0.21082839926841163 -0.03554040850175452
1860000000.0 0.15491397249394342 -0.2017545143485752
1880000000.0 0.18425073572729805 0.22169852987358046
1900000000.0 -0.28990713452323014 -0.13820783197312528
1920000000.0 0.33870413656195664 -0.08697606108709738
1940000000.0 -0.3481324405918428 -0.13233701015891772
1960000000.0 0.2690718481781489 0.2891589548114326
1980000000.0 0.22191625879542995 -0.3399278500180207
2000000000.0 -0.23711235438663664 -0.34208092865350814
2020000000.0 -0.42218190750692525 -0.023583143544053786
2040000000.0 -0.1769035900331941 0.388974886712987
2060000000.0 0.3600617513392766 0.22536268143077606
2080000000.0 0.3269178173186867 -0.2574055700115217
2100000000.0 -0.11594588086993089 -0.3874091703774242
2120000000.0 -0.3834346080793774 -0.04794872655966181
2140000000.0 -0.3656947676006213 0.0258259759465257
2160000000.0 0.1634831610856178 -0.31001738143292035
2180000000.0 0.16456084398452625 -0.29145818889409697
2200000000.0 0.21147045101025316 -0.24623932707681212
2220000000.0 0.19253408593798874 -0.25060569294928775
2240000000.0 0.3096878774434981 -0.07463450440420018
2260000000.0 -0.053787359469607124 -0.32741876226700656
2280000000.0 -0.28091893383786337 0.2039766992506726
2300000000.0 0.3657488398750132 0.05081494175507881
2320000000.0 -0.34564224176896285 -0.19900655509853177
2340000000.0 0.43060940662626673 0.08856681870272613
2360000000.0 -0.3474341499089956 0.33827174225517403
2380000000.0 -0.25339803595257065 -0.47062574818116804
2400000000.0 0.3779277721338151 -0.44974614122597917
2420000000.0 0.5619699011702154 0.2944529045146995
2440000000.0 0.06652210632659628 0.6749313286731078
2460000000.0 -0.6951410409134966 0.15493087761149182
2480000000.0 0.21669272453157842 -0.7009982736464702
2500000000.0 0.057338165356884296 0.7437799494829171
2520000000.0 0.01798693010630479 -0.7501816038425079
2540000000.0 -0.3339581660732321 0.6686511609021609
2560000000.0 0.7277904828512445 -0.10010100907038867
2580000000.0 -0.7041921612172622 -0.14632543152804875
2600000000.0 0.3349387529071244 0.6002356164370807
2620000000.0 0.643914333138962 -0.16221890730843297
2640000000.0 -0.6224742451360495 0.09671537854650857
2660000000.0 0.5314664640229878 0.25603571765910643
2680000000.0 -0.26141562122061357 -0.4853292466742263
2700000000.0 -0.08508052527769036 0.5008629216817163
2720000000.0 0.20122778163336894 -0.43245454455884663
2740000000.0 -0.28336604162638923 0.34344649882500716
2760000000.0 0.3652422827191648 -0.19875065307890855
2780000000.0 -0.3286654155496303 0.22095307295657932
2800000000.0 0.35985160442010955 -0.12415318636017926
2820000000.0 -0.36996648355085004 -0.05052650969409584
2840000000.0 0.3691780280461383 0.0026526193280361284
2860000000.0 -0.3104428530661466 -0.19852184150848678
2880000000.0 0.022581966956954094 0.36734402481694867
2900000000.0 0.3528724379784968 0.09295418227270151
2920000000.0 0.36240788539620833 -0.0966079955598072
2940000000.0 -0.009806659682917966 -0.3780547242989004
2960000000.0 -0.16445292856426252 -0.33431374324202406
2980000000.0 0.2152697623054382 -0.30350152960071236
3000000000.0 0.3588802140948444 0.1003483073021189
3020000000.0 -0.100734136401284 0.35347281322424934
3040000000.0 -0.2904646617515434 -0.20742263154118368
3060000000.0 0.2161018401813235 0.27280000757431155
3080000000.0 -0.28983442030866996 -0.1854028329072601
3100000000.0 0.2509699125961422 0.22393094835860936
3120000000.0 -0.3214470185479007 -0.038229207112522416
3140000000.0 0.29605584738191215 -0.06922555443168092
3160000000.0 -0.20055457296224297 0.2027158238282473
3180000000.0 0.09446434341888588 0.24050342680637654
3200000000.0 -0.10196178747341182 -0.20279331931848435
3220000000.0 -0.09802588864202247 0.16612290757149567
3240000000.0 0.08586684618142394 -0.14477974579080233
3260000000.0 -0.09823678216435952 -0.09397274244777454
3280000000.0 0.10808966130085423 -0.02630492625511002
3300000000.0 -0.0775442374263303 -0.048642451644966854
3320000000.0 0.01745687612314898 -0.07482368925328803
3340000000.0 0.036641129878364286 -0.05793887208047309
3360000000.0 -0.03950288968719249 0.051356632180992866
3380000000.0 0.03806799558902062 -0.04504911142257183
3400000000.0 -0.032750499160543456 0.04139174184993138
3420000000.0 0.009795286010045512 -0.049885255690511957
3440000000.0 0.032440027572597833 -0.01866616583559448
3460000000.0 -0.017335504375407734 0.020664655776817954
3480000000.0 -0.020782961259142977 0.0003773665294172603
3500000000.0 -0.014944784065529102 -0.005099165689086622
3520000000.0 -0.014098043062376534 -0.006778006955127053
3540000000.0 -0.02070556269341486 0.00035219069965319844
3560000000.0 -0.021322545148596172 0.025311722018866327
3580000000.0 0.005553659067125118 -0.04256463458851168
3600000000.0 -0.04625991927033291 0.04982530631037429
3620000000.0 -0.05608967593577252 0.08105046756470104
3640000000.0 0.06936511945962498 0.08044944067336138
3660000000.0 -0.04858751893363441 0.11459728202543154
3680000000.0 0.12164587266298255 -0.08373959695852548
3700000000.0 -0.11633994852134755 -0.1056981983250618
3720000000.0 -0.11285017104907047 -0.12499063800142406
3740000000.0 -0.02584964593813765 0.19135502805397328
3760000000.0 -0.23944609098655495 0.021145519264881042
3780000000.0 -0.20070729387858227 0.00010827726839009851
3800000000.0 -0.027896028773780696 -0.21825592962080514
3820000000.0 0.1160785046790179 0.2535971844065292
3840000000.0 0.2392463312981792 0.20611229952781485
3860000000.0 0.2573205878709352 -0.19783733241456578
3880000000.0 -0.04491792477501896 -0.33006693514401536
3900000000.0 0.31576131925414086 0.03884606133869176
3920000000.0 -0.23704334639811034 -0.21283013049768154
3940000000.0 0.14868241802423104 -0.20956164408995878
3960000000.0 0.24134169126030913 -0.17566817582662575
3980000000.0 -0.18305858592143848 -0.20655341338468397
4000000000.0 -0.22090047368989732 -0.17512401862846294
