!Created with skrf (http://scikit-rf.org).
# Hz S RI R 50.0 
!freq ReS11 ImS11
400000000.0 -0.5521199011245042 -0.6179815082454738
420000000.0 -0.8328438046654413 0.08168794146175659
440000000.0 -0.22652751200769888 0.7470754460704577
460000000.0 -0.61448570496223 0.37424422694999404
480000000.0 0.5460345744718234 -0.3802161410791059
500000000.0 0.6033871203637942 -0.2151590934937474
520000000.0 0.34974071916897537 -0.4496204033362952
540000000.0 -0.0199788387283091 0.492252864800259
560000000.0 -0.4274887243511449 0.1677432644850858
580000000.0 -0.2545007431409259 0.29715456210217583
600000000.0 0.09211999331972014 0.3425116507625842
620000000.0 0.02269035641233407 0.3609175217667092
640000000.0 -0.38074436997404976 -0.12935193949749738
660000000.0 0.4279620510458017 -0.09842440747771791
680000000.0 -0.4342421459244003 -0.11032225510483819
700000000.0 0.023295318930231863 -0.4365777439010401
720000000.0 -0.40536010304211045 -0.10277681789522625
740000000.0 -0.27690399268167126 -0.269388182844535
760000000.0 0.10372529306716745 -0.3549779319518309
780000000.0 -0.14028641244617507 -0.29971581130991254
800000000.0 0.043867479892808536 -0.2877040839359646
820000000.0 -0.1924146331664766 -0.15285778541874648
840000000.0 0.10646410830177429 -0.16423065256197283
860000000.0 -0.07108500648314166 -0.14660218342708287
880000000.0 0.12101932233284404 -0.020254725265082284
900000000.0 -0.02266023569766447 0.08307330035563569
920000000.0 -0.037249949672232496 -0.04761244609357008
940000000.0 -0.015600459992102252 0.03891244435058809
960000000.0 0.057265750198960914 0.0062480500040069
980000000.0 -0.026927945371986253 0.06954928310748354
1000000000.0 -0.03696896648646671 0.07011109400962497
1020000000.0 0.006975193452315187 0.09900811945233896
1040000000.0 -0.08294345655625468 -0.08298970640372202
1060000000.0 -0.10640562048477295 -0.10983502693822797
1080000000.0 0.16312326513468509 -0.08657728466552282
1100000000.0 -0.15482705975505834 -0.1412987595914532
1120000000.0 -0.18833137214191684 -0.15779864980889963
1140000000.0 -0.1999443640897605 -0.18957661507776002
1160000000.0 -0.0339980866397581 0.30015981783888174
1180000000.0 0.2605510938874282 0.19840838390245014
1200000000.0 -0.3326886044825994 0.057559596336089265
1220000000.0 -0.10271079852000474 0.3449698686554569
1240000000.0 0.37194887062919463 0.08571008410907875
1260000000.0 -0.08133520063593803 -0.39515242751538915
1280000000.0 -0.2335692235049043 0.339054673950213
1300000000.0 0.08304640867976455 0.4053168894762845
1320000000.0 0.31820819703860603 0.2664512021537119
1340000000.0 0.17752333173750298 0.3742904392246296
1360000000.0 0.3979498164547454 0.11738484721502367
1380000000.0 0.3619620160497844 -0.167806745559785
1400000000.0 0.16533460078723447 -0.3448133970286416
1420000000.0 0.07988156329488864 -0.35446507565651014
1440000000.0 -0.261888057694697 -0.22870710220258494
1460000000.0 0.15107080806729783 0.2860983173030788
1480000000.0 -0.1827738861397401 -0.22794518646577924
1500000000.0 0.21728153130618294 -0.1237796936885565
1520000000.0 0.11412035292185242 -0.1781909152525097
1540000000.0 -0.10284206436342275 0.13767831727394692
1560000000.0 0.0014775737076792995 0.1350186207029345
1580000000.0 0.10498491091629357 0.042153784712242265
1600000000.0 0.04783555032930065 0.06698758503824362
1620000000.0 0.043062680050651996 0.03592854246564125
1640000000.0 -0.036193206166606616 0.0011517023870030215
1660000000.0 -0.011335986237862682 -0.003884925129253108
1680000000.0 -0.012221768612390205 0.007949346310679633
1700000000.0 -0.03418815721828437 0.019016989036496637
1720000000.0 -0.04924634988162824 -0.014776630407151685
1740000000.0 -0.006950302588413098 -0.07207681556388713
1760000000.0 -0.0672394231828479 0.060610078053551224
1780000000.0 -0.11717585263328333 -0.0024453868830523378
1800000000.0 -0.07206317780766407 -0.13108142071260087
1820000000.0 0.16525308396961808 0.06778002228130721
1840000000.0 -0.041306006815101166 -0.21160039346735288
1860000000.0 0.23810990726397435 -0.09214075097317109
1880000000.0 -0.01817873429886291 0.29172535675034966
1900000000.0 -0.2729296468082869 -0.1696966854034949
1920000000.0 0.244699423823978 0.2512450291140232
1940000000.0 -0.1456119264019522 -0.3492925935068766
1960000000.0 0.17287374209368953 0.3590433531012512
1980000000.0 0.14673477289173892 -0.38192023674076675
2000000000.0 -0.3795576612505871 -0.16931000951523548
2020000000.0 -0.3967346499857454 0.1416570654878105
2040000000.0 -0.08762320707626055 0.4153973810849076
2060000000.0 0.4157802115198847 0.0674037045701994
2080000000.0 0.23978104336077485 -0.3340819064619204
2100000000.0 -0.1538739467410797 -0.3685902957840187
2120000000.0 -0.3567925090249613 -0.13226367582860374
2140000000.0 -0.27263723243973254 -0.236366365094608
2160000000.0 0.34156095716247753 -0.06512239482220006
2180000000.0 0.2971136654808984 -0.15747201723884713
2200000000.0 0.06403964341363352 -0.31854502624829667
2220000000.0 0.10362933172420301 -0.29516626579289684
2240000000.0 0.13033968389334433 -0.28809673359335053
2260000000.0 -0.22345298460009907 -0.2339343780131623
2280000000.0 -0.20225808668879564 0.26779174635704694
2300000000.0 0.35328873400789934 -0.024580075073779965
2320000000.0 -0.32944322224462796 -0.19555259437589728
2340000000.0 0.38642216716703554 0.17611920038544746
2360000000.0 -0.3869052746404946 0.27150549040821903
2380000000.0 -0.2991096075870072 -0.431417933618804
2400000000.0 0.3116905162754441 -0.48473677551175864
2420000000.0 0.5978196281190584 0.17529667126659917
2440000000.0 -0.185688909941502 0.637364777322733
2460000000.0 -0.6021061587863367 -0.3485355346377006
2480000000.0 0.650189208653958 -0.3100472032580963
2500000000.0 -0.5469094571299042 0.49134915314233807
2520000000.0 0.46983722746757284 -0.5738876524004346
2540000000.0 -0.5393914406225188 0.5066606583766982
2560000000.0 0.7179496658834462 -0.13985066716493325
2580000000.0 -0.6601755449786701 -0.2789285893316505
2600000000.0 0.3730196209358514 0.5843938852371754
2620000000.0 0.6335537475694484 0.2033866672606016
2640000000.0 -0.45797470057397155 -0.43610564824425896
2660000000.0 0.2411248112986653 0.545291529107752
2680000000.0 0.01295447192482547 -0.5570640143076101
2700000000.0 -0.2179985782964807 0.4717167657941899
2720000000.0 0.276967307246474 -0.3959779681368786
2740000000.0 -0.35551208765409636 0.2719853893870156
2760000000.0 0.4211217379470382 -0.002860821832970872
2780000000.0 -0.38644117330599964 -0.11439809577129083
2800000000.0 0.3885369362987239 0.026454410100686724
2820000000.0 -0.3769560091268922 -0.05176200444327414
2840000000.0 0.37145194828650374 0.05915545411960434
2860000000.0 -0.2760076299464937 -0.2535998498645168
2880000000.0 0.04224719451877579 0.37386959196320263
2900000000.0 0.3415819733941265 -0.15577463924107507
2920000000.0 0.02538803790965534 -0.37614564146176327
2940000000.0 -0.05924333598676862 -0.37165092411672496
2960000000.0 0.15712684205426497 -0.3432634464003121
2980000000.0 0.33542596492357896 -0.17770927320018381
3000000000.0 0.31586010148438215 0.21112160761469792
3020000000.0 -0.1927596467097572 0.3221509662163718
3040000000.0 -0.14743779523204942 -0.338095781917119
3060000000.0 0.3237762901358996 0.16183127304220893
3080000000.0 -0.325940025486025 -0.1277229290289091
3100000000.0 0.2892063232587072 0.17742228523945655
3120000000.0 -0.3053856841543787 -0.11728414475237299
3140000000.0 0.3109447584312473 0.038461291722518956
3160000000.0 -0.2705516213671097 0.11275338530718478
3180000000.0 0.15462421429473355 0.2193460343706875
3200000000.0 -0.2218162433124779 -0.08438252699796886
3220000000.0 0.07152711165254842 0.19037249237259152
3240000000.0 0.05703912618602991 0.1628342850065361
3260000000.0 -0.13531524530502947 -0.049748494154044566
3280000000.0 0.06706898832392343 0.10098789529549411
3300000000.0 0.015239351046753318 -0.1024383440388719
3320000000.0 -0.07648420489584493 -0.041647051480531036
3340000000.0 -0.05819968914163869 -0.04619935967147813
3360000000.0 -0.004029373380664489 -0.06460120550375045
3380000000.0 -0.057846656445393406 -0.002267026042504045
3400000000.0 0.04327866271935385 -0.02760796762143615
3420000000.0 0.04262214048465052 0.015587079041145445
3440000000.0 -0.025355627175231068 0.02634266153368071
3460000000.0 0.028876869566693407 0.0003786972178045646
3480000000.0 0.01949229701391701 -0.009726934528838237
3500000000.0 0.021997420758082968 0.00733245687855654
3520000000.0 -0.02066905459339572 0.025592154240694238
3540000000.0 0.018266981229656556 -0.03849449972292626
3560000000.0 -0.035061067965161105 0.03842227279259563
3580000000.0 -0.06381709221425465 0.01532910651501926
3600000000.0 -0.025801376742309763 0.07820957848396087
3620000000.0 -0.037213185377756405 0.09036867906349734
3640000000.0 -0.11152496823454014 0.027762620045681176
3660000000.0 -0.1332136500718448 -0.014003307954310233
3680000000.0 -0.08169407760243977 -0.12797717960819677
3700000000.0 0.04107961428960988 -0.16298241676475736
3720000000.0 0.06347624645970959 -0.17557097296364607
3740000000.0 0.06096212629926544 -0.1935666888429772
3760000000.0 0.2148005512768389 0.05380233282393339
3780000000.0 0.06486723991140873 0.2319066951467847
3800000000.0 -0.08697111775686743 0.2425301827002529
3820000000.0 -0.043141517868773155 0.2702271780848483
3840000000.0 0.13523679693991353 0.25113015037586744
3860000000.0 0.28914169761372976 0.05200867254734001
3880000000.0 0.2462866166575251 -0.16637895517540924
3900000000.0 0.1922738588449238 -0.2310304362378058
3920000000.0 -0.2669015295422532 -0.1408071747215991
3940000000.0 -0.020807201456404526 0.29735561459089305
3960000000.0 0.27472250516511737 -0.08544393432939612
3980000000.0 -0.20493480556784252 -0.18468143086418112
4000000000.0 -0.24356284775784234 0.08888523220484953
