!Created with skrf (http://scikit-rf.org).
# Hz S RI R 50.0 
!freq ReS11 ImS11
400000000.0 -0.8352063421848795 0.20757601891440072
420000000.0 0.37369723108939273 0.7555084955348615
440000000.0 0.7537481083418466 0.2109001510511338
460000000.0 0.3705958392428664 0.603815254904995
480000000.0 -0.4087764659539831 -0.5039986996379471
500000000.0 -0.4749904739466338 -0.38848855181024217
520000000.0 0.43381003911753396 -0.313534243456375
540000000.0 -0.4344980990849322 -0.1898900542308937
560000000.0 0.19708191021569624 -0.39867792965762516
580000000.0 -0.21356175220766163 -0.3327083378595547
600000000.0 0.3165204084097461 0.14952148650678246
620000000.0 -0.28312124208180783 -0.2026518126816914
640000000.0 0.2630174280084754 -0.30613654739778423
660000000.0 -0.10839884775284266 0.43042198446067104
680000000.0 -0.21545316437679068 -0.40689264535393066
700000000.0 0.1927218262838781 -0.4058271261756711
720000000.0 -0.1498065699486607 0.40272261199442844
740000000.0 0.031062020798811974 0.38758762668048385
760000000.0 -0.3072138122744707 -0.1526056299736648
780000000.0 0.06474721491671616 0.31364538333817704
800000000.0 0.22860963769381223 0.18138018467918965
820000000.0 0.25505481234435434 0.012808756781898467
840000000.0 0.18365319373504366 -0.10526550910556043
860000000.0 0.1319306902308801 -0.11995904492639035
880000000.0 0.12374579875569178 -0.02035145735817503
900000000.0 -0.07020036424952544 0.04033899658983258
920000000.0 0.05842026967630403 0.0060445364771451095
940000000.0 -0.042184509978305744 -0.007622382696804697
960000000.0 0.0569427089705602 -0.008708328186629909
980000000.0 0.043340694084020845 -0.04572734163997463
1000000000.0 0.00644698217616669 0.06143804093888533
1020000000.0 -0.03047702218924921 0.08446557207749067
1040000000.0 -0.0297403961382832 -0.11405342661363582
1060000000.0 0.060399152264984095 -0.1448271011155892
1080000000.0 0.190300923601755 -0.02298587540385846
1100000000.0 -0.1732484876161078 0.1297897812410565
1120000000.0 0.002313862183205717 0.24381041893432973
1140000000.0 -0.25545477934359656 0.0901547565825118
1160000000.0 -0.0554730538872437 0.28881135758725507
1180000000.0 -0.1075067141632559 0.30537835519700374
1200000000.0 -0.24223952280485442 -0.24448988542757633
1220000000.0 -0.163206258695099 0.32641235964881515
1240000000.0 0.3430584385150502 -0.188963633953605
1260000000.0 -0.4003052200123705 -0.00174887490951228
1280000000.0 -0.22478115689132208 0.3400900622645149
1300000000.0 -0.08022739496489743 0.4068396398637804
1320000000.0 0.32065236168253447 0.268481530005605
1340000000.0 0.35798889778221027 0.21607600783015782
1360000000.0 0.37009455034989425 -0.18030043624696995
1380000000.0 0.37033269790240814 -0.15237055629485638
1400000000.0 -0.04801956438283855 -0.37958367865657844
1420000000.0 0.07332075856564342 -0.3530172342256011
1440000000.0 -0.34326564360278555 -0.0608773541363163
1460000000.0 0.25842245074425696 0.18403460568024121
1480000000.0 0.10609802269889375 -0.26755648340732646
1500000000.0 0.01149113641367332 0.2539386575439355
1520000000.0 0.1505344569899497 -0.15412446978595531
1540000000.0 -0.08187568842153267 -0.15485115961874155
1560000000.0 0.013462696152991005 0.1471325175514093
1580000000.0 -0.047565099161259956 0.10636150145400365
1600000000.0 -0.06657439594595956 -0.04566162695860125
1620000000.0 0.02141483756722842 0.045396922649845406
1640000000.0 -0.0015114498548164988 -0.02503376499371939
1660000000.0 0.00786167974141134 0.010197651690163363
1680000000.0 0.01921028343850802 -0.007399487868161474
1700000000.0 -0.033917643256718304 0.017113052656725514
1720000000.0 0.01990642381034454 0.04586787447674082
1740000000.0 -0.07023573166048144 0.01615717469555563
1760000000.0 0.06690847578184576 0.0587339053546268
1780000000.0 -0.05845284115699053 0.09453566903773306
1800000000.0 0.13467323415311025 0.05460357926080224
1820000000.0 -0.1800564623154187 0.0008163027244059538
1840000000.0 0.21532804873140246 -0.056606988914885
1860000000.0 0.22641772455744172 -0.13883863855070064
1880000000.0 0.2931794374166459 0.045670735065595935
1900000000.0 -0.20871044733688476 0.24372019070388146
1920000000.0 0.34482714211956644 0.009468788884195533
1940000000.0 -0.11993423608245049 -0.3529769958968686
1960000000.0 -0.03227528633166983 0.3946994296541316
1980000000.0 0.3625728151323135 -0.18920760273983614
2000000000.0 -0.30754537010875366 -0.2875679843404787
2020000000.0 -0.4011480287174159 0.13603921693658508
2040000000.0 -0.05377426613941251 0.4254613149699052
2060000000.0 0.4124717491258632 -0.09434964734738475
2080000000.0 0.20039664545242414 -0.35699605667856565
2100000000.0 0.040798163802235665 -0.39849612943488444
2120000000.0 -0.2029353720131256 -0.3301732994317401
2140000000.0 -0.3711445321561107 0.03150324735973757
2160000000.0 -0.3012269526252082 -0.1731798441988765
2180000000.0 0.07124782389822806 -0.3205650314682988
2200000000.0 0.23201270828317896 -0.2185269717357938
2220000000.0 0.3102975326173575 -0.055161954775526635
2240000000.0 0.09591007221969532 -0.3092307699214315
2260000000.0 -0.3302000695064764 0.016056860759039445
2280000000.0 0.07720592998935047 0.3330202978573334
2300000000.0 0.14443191605862288 -0.3315990283838213
2320000000.0 -0.20936960598442747 0.3302133655038243
2340000000.0 0.126737063981244 -0.41386322372241385
2360000000.0 0.11123594157865735 0.46412018495324187
2380000000.0 -0.5246258743851729 0.04914302660718277
2400000000.0 -0.12326789295769182 -0.5610519103804745
2420000000.0 0.5691493567975695 -0.24424531510712075
2440000000.0 0.38805200177946914 0.532245182414455
2460000000.0 -0.6343860069221257 0.26834497601357693
2480000000.0 0.22419670880624373 -0.6742904077976969
2500000000.0 0.06827525684358045 0.7197347585438728
2520000000.0 -0.2114080906098701 -0.6948579365848319
2540000000.0 0.0038881454320843427 0.7212806291137225
2560000000.0 0.5009993962502635 -0.5057344240408543
2580000000.0 -0.6920151309847715 0.05844196411665155
2600000000.0 0.5550734984921509 0.3744728433178243
2620000000.0 0.5474853423232547 -0.34031299678209626
2640000000.0 -0.4212412868965639 0.46479463922878883
2660000000.0 0.5819001499729055 -0.0921673127299978
2680000000.0 -0.48550964377235684 -0.2597407940813812
2700000000.0 0.3278606371526713 0.39438740317517934
2720000000.0 0.16810247728448324 -0.426663914430642
2740000000.0 -0.2894983935377279 0.3110640180535006
2760000000.0 0.30713291585324703 -0.2551609603599789
2780000000.0 -0.24865054324832336 0.28489431136297105
2800000000.0 0.31093605935308444 -0.21177923399519302
2820000000.0 -0.36107998588888385 0.10935324201389432
2840000000.0 0.33997638840426614 -0.1377742464587227
2860000000.0 -0.32334454586989647 -0.1712355516717821
2880000000.0 0.29419395410479127 0.2198551592247516
2900000000.0 0.0947555361593214 -0.34862968061570604
2920000000.0 -0.2865663715219207 -0.23005244682082135
2940000000.0 -0.3639508532313382 0.0933350381112542
2960000000.0 -0.36939595533852043 -0.046954488843141955
2980000000.0 -0.25700266801551086 -0.26978017451184155
3000000000.0 0.23988811663341844 0.2942853730492164
3020000000.0 -0.28940714606940643 0.24101256026041873
3040000000.0 0.053655036466136105 -0.3657860069760742
3060000000.0 0.17489506785704972 0.319258488356442
3080000000.0 -0.2591278128505444 -0.23566150490777704
3100000000.0 0.02754315996944865 0.33978467517197875
3120000000.0 0.05645141891671617 -0.32557987711453695
3140000000.0 0.12579485963104794 0.29109352626844254
3160000000.0 -0.2245862030417042 -0.1926155483231785
3180000000.0 -0.21796803900980902 0.1565778079517868
3200000000.0 0.23737277430319156 0.010085712988038472
3220000000.0 0.025047608310816163 -0.2051493783382903
3240000000.0 0.17696652616227979 -0.000937669015985039
3260000000.0 -0.15174655985879787 0.010340486291039326
3280000000.0 0.11464995179101463 -0.06559839747260601
3300000000.0 -0.03458459405519521 -0.10993118223471834
3320000000.0 -0.01130999697049046 -0.10677564380586324
3340000000.0 -0.09591211448261276 0.03467549874831843
3360000000.0 0.06011213270523983 -0.07440998370395212
3380000000.0 0.08393843848925386 -0.023893684836376557
3400000000.0 0.07434446205285794 0.03271453375847265
3420000000.0 -0.03471627415176876 -0.06255218104155905
3440000000.0 0.041104978845568595 -0.042672268128492674
3460000000.0 -0.051631042822889155 0.003683119359712147
3480000000.0 -0.02017924347570333 -0.04195489386861372
3500000000.0 -0.03197440457949506 0.050199946778226964
3520000000.0 -0.00752818288367203 -0.07451906655730382
3540000000.0 -0.04738494582452367 0.07668728927010582
3560000000.0 -0.09689183818745326 -0.03388682784952707
3580000000.0 0.0895884870027394 -0.051606023310841014
3600000000.0 -0.08097916293581854 -0.001120939362937942
3620000000.0 -0.031122328350221096 0.10202173139653078
3640000000.0 -0.0954032439942233 -0.0547631296446998
3660000000.0 -0.007837365810549154 0.1107991736304381
3680000000.0 -0.18123712795935198 0.09617440401192538
3700000000.0 0.06450642860482173 -0.20696401932781552
3720000000.0 0.19649488549556202 -0.15527411897074989
3740000000.0 0.1324613735287033 0.18371091534035916
3760000000.0 -0.13729016388823198 0.11171892382302198
3780000000.0 0.14891085412561825 -0.08734709492202425
3800000000.0 0.1724325074176011 0.06623987439608832
3820000000.0 0.16035041098821112 -0.06921146308641828
3840000000.0 -0.07513111307166673 -0.17375462197961433
3860000000.0 0.17335679600005868 0.09952735581353352
3880000000.0 0.21300396383602868 -0.09797125102934313
3900000000.0 0.004549145138606315 -0.28841832619033253
3920000000.0 0.15458714139207505 -0.24860435588745003
3940000000.0 0.12077072909039262 -0.2646081388489389
3960000000.0 0.028296817869480743 0.2978524455793489
3980000000.0 -0.06152805350647353 0.2869685465081792
4000000000.0 0.24240272649724898 -0.046509326468257964
