!Created with skrf (http://scikit-rf.org).
# Hz S RI R 50.0 
!freq ReS11 ImS11
400000000.0 -0.8530222187293152 0.11893795937609192
420000000.0 0.08024219608754304 0.8399040847556862
440000000.0 0.7207458038372866 0.33616067525311605
460000000.0 0.717614700558567 -0.10329878993007353
480000000.0 -0.1903719460332775 0.6097515975352947
500000000.0 -0.45013670896546376 -0.38003024467982616
520000000.0 0.4341613804353225 0.2842936185389085
540000000.0 0.29755704176713876 -0.35686463762445625
560000000.0 0.0059318113607495886 0.4395117582776251
580000000.0 0.3677043420785848 0.1558983518834802
600000000.0 -0.3578337261039042 -0.0535766801560265
620000000.0 -0.0414862541226093 -0.36357899359211315
640000000.0 0.1259034756870574 -0.391894561559985
660000000.0 0.2728400772283656 0.35191437172210266
680000000.0 0.020065568306287487 -0.4626869903247113
700000000.0 0.24853569525220365 -0.3796526208549637
720000000.0 -0.14564564286036039 0.41180985876685716
740000000.0 0.3931793942343265 -0.029330373149988164
760000000.0 -0.2122635866509989 0.2705123538901006
780000000.0 0.1870750533651131 -0.25676828065806573
800000000.0 -0.07339155167447578 -0.2748252873050285
820000000.0 0.04615695338884043 -0.22949461672766905
840000000.0 -0.04683093430503173 0.1835354198099284
860000000.0 -0.019231106734498106 -0.16144504705394935
880000000.0 0.12771423782991298 0.06037965304631114
900000000.0 -0.09093207414093663 -0.058762387164730825
920000000.0 0.008763520129389281 0.07597661683178454
940000000.0 -0.004624670289067403 0.06814634584958006
960000000.0 -0.03529612923914668 0.06174967526205034
980000000.0 -0.06527863831549811 -0.052930245026212124
1000000000.0 0.013347078213840492 0.08477568314151109
1020000000.0 -0.09046039739944388 -0.010266730758333547
1040000000.0 0.06068637912293758 -0.08796403632992336
1060000000.0 0.04206697668128608 -0.1246387953185603
1080000000.0 -0.05483736509214282 0.15007892499670475
1100000000.0 -0.13039170498022778 0.1471949691218431
1120000000.0 -0.1642362870406738 0.18055498548054053
1140000000.0 0.21097348385861128 0.18498085932792663
1160000000.0 -0.22980544380832446 -0.21881982653597054
1180000000.0 0.1769096462697236 0.2974495958742342
1200000000.0 0.08513966440137465 0.3466049755850813
1220000000.0 0.13062484529886437 -0.34124044594047653
1240000000.0 -0.3677400272418089 -0.07994239849851269
1260000000.0 -0.3216549942362939 0.20703851775783608
1280000000.0 -0.3805842763217386 0.09143913943019412
1300000000.0 -0.39350144238943097 -0.09032321082773748
1320000000.0 -0.4165061886129022 0.006660966598663532
1340000000.0 -0.2191162457792819 0.36577292182490273
1360000000.0 0.4046866194398283 0.13465058965143778
1380000000.0 0.11346833616400356 -0.3946321689078391
1400000000.0 -0.3261039325048557 -0.22289145015880282
1420000000.0 -0.013290728317664105 0.3657618171594896
1440000000.0 0.2975621301726533 0.15501994076735362
1460000000.0 0.2912253742420899 0.0731950102197546
1480000000.0 0.25592604322232587 0.101250548672182
1500000000.0 0.012378409580632873 -0.24641408544929327
1520000000.0 -0.060699121237337346 -0.2138479120672426
1540000000.0 0.142639237523091 -0.13425227394975164
1560000000.0 -0.09293030623901802 -0.13318596643820166
1580000000.0 0.07365660952296214 0.09525502101739684
1600000000.0 0.06465293348391074 0.03145558512360406
1620000000.0 0.03810027544880456 0.00678399729222779
1640000000.0 -0.01565964849892364 -0.00461238700145958
1660000000.0 -0.011149254226364484 -0.021476469719045814
1680000000.0 -0.033800055383269384 -0.008803268928023729
1700000000.0 -0.007630841140146575 0.04356122804494557
1720000000.0 0.006556793076632766 -0.041584890537906996
1740000000.0 -0.007759550841049931 0.052486127010508
1760000000.0 -0.07701627525246021 -0.011367108384700328
1780000000.0 -0.09300500631781812 -0.0618544613078478
1800000000.0 -0.13245035569476013 -0.07444411899554448
1820000000.0 -0.02905098294497852 -0.18807714671914325
1840000000.0 0.10334280310054628 -0.20785721341293772
1860000000.0 0.14013874077160354 -0.22804472673995008
1880000000.0 0.295881627025435 0.06305020933736244
1900000000.0 -0.2082549472780852 0.25614600773076246
1920000000.0 0.06894439114895072 -0.3483289261793381
1940000000.0 -0.15217096250822781 0.34081295513000603
1960000000.0 0.3805651352222522 0.047352645921239396
1980000000.0 0.3940631194630517 -0.02897555289438599
2000000000.0 0.3808277225616611 -0.15985303406207352
2020000000.0 -0.010722032164548282 -0.4309686940523633
2040000000.0 -0.2538427716313345 0.3597349318960499
2060000000.0 0.4030852991462177 -0.16902454084477583
2080000000.0 -0.3865171122759331 -0.16947104345807554
2100000000.0 -0.2686327544736444 0.29290296779006303
2120000000.0 -0.33840315791641623 0.16071061576906479
2140000000.0 -0.29243957818359484 -0.20736782172231025
2160000000.0 0.3460666997261253 0.017234029096479146
2180000000.0 0.2896772428666737 0.1723196661773047
2200000000.0 0.33266355199004977 -0.02091740842473895
2220000000.0 0.020141554546570684 -0.33256334351518363
2240000000.0 -0.26732526783704685 0.19471019100277723
2260000000.0 0.24810616720102138 0.21533809630237688
2280000000.0 0.28200518594466634 -0.18076651114063413
2300000000.0 0.024137897012301984 -0.35057918127622706
2320000000.0 -0.38371115731394406 -0.05143322674949637
2340000000.0 0.38277552206977167 -0.21021434841025505
2360000000.0 0.402305973822748 0.27944574111541076
2380000000.0 0.2060952359178617 0.5013560086207429
2400000000.0 -0.3035230595739372 0.5058015284296932
2420000000.0 -0.6289682649374045 -0.0740404592281498
2440000000.0 0.04356201687446494 -0.6694801488734397
2460000000.0 0.6775000706759957 0.17942194128843705
2480000000.0 -0.613829640450766 0.38008453401728326
2500000000.0 0.4771209982544377 -0.5577146844666299
2520000000.0 -0.40833283974596324 0.6158111202411588
2540000000.0 0.5496528403239884 -0.4886850547057323
2560000000.0 -0.7256922852007582 0.022268317030101296
2580000000.0 0.5664050983238935 0.42203748773756566
2600000000.0 -0.201183068408134 -0.6503477390418234
2620000000.0 -0.5656478250367619 -0.3230675184908074
2640000000.0 0.24388646555429183 0.5690897325331988
2660000000.0 0.04785859573782787 -0.5815159444690678
2680000000.0 -0.10194307777963373 0.5343378976001165
2700000000.0 0.2667952146350091 -0.4292340272895893
2720000000.0 -0.3581146237727612 0.30161429586922156
2740000000.0 0.43544191029617835 -0.007718660887816914
2760000000.0 -0.3497674241233797 -0.21454476379705048
2780000000.0 0.1491423970211208 0.36250741262778735
2800000000.0 0.046681886394773456 -0.3797575846476683
2820000000.0 -0.10064192245938076 0.36409223388010137
2840000000.0 0.12826770870601653 -0.355265581022851
2860000000.0 -0.15471142354979323 0.34685869227867816
2880000000.0 0.3433516601108642 -0.15980356085887773
2900000000.0 -0.135472120386765 -0.3540929330646876
2920000000.0 -0.3702482030946851 -0.07535243870160356
2940000000.0 -0.3752483550931002 -0.01733588115143535
2960000000.0 -0.10081811870866894 -0.3590887224309301
2980000000.0 0.37041700863414034 0.06788065449426943
3000000000.0 -0.05781952047710822 0.3798000821995283
3020000000.0 -0.37424940033459264 -0.09525721562053321
3040000000.0 0.12521822343350086 -0.3635603027803574
3060000000.0 0.35790176971675686 0.11368615373279202
3080000000.0 -0.3178305315471789 0.17180331561797316
3100000000.0 0.22547709404441735 -0.2568373030469017
3120000000.0 -0.2418382349916555 -0.21082848999002846
3140000000.0 -0.254263286833573 0.17305844093603612
3160000000.0 0.2711607777686639 0.11927198388900967
3180000000.0 0.027604962203933898 -0.27902800852836807
3200000000.0 0.17813840819406546 0.18188382393730618
3220000000.0 -0.15500255582102823 -0.15639579663272085
3240000000.0 -0.17358160125119868 -0.05580608214378959
3260000000.0 0.016521830507476208 0.15013498361972277
3280000000.0 -0.05870476900676591 0.1198704398216599
3300000000.0 0.010690331137293393 0.12377152841510415
3320000000.0 0.1061192138928778 -0.050274442142526216
3340000000.0 0.1115146540065427 -0.014842228370128198
3360000000.0 0.009620684483894793 -0.10137419905579019
3380000000.0 0.01324959280241578 -0.08971997163479865
3400000000.0 0.08223690473099152 -0.00740591237635841
3420000000.0 -0.07207916021427187 -0.027836329558126472
3440000000.0 -0.026615190141401894 0.07076120733112869
3460000000.0 -0.008318245114954813 0.0746241654019035
3480000000.0 0.07052126931415802 -0.0312811862039434
3500000000.0 -0.0208649353315758 0.08201560385412553
3520000000.0 -0.09285906828808199 -0.022124880021745244
3540000000.0 -0.10345166800583219 -0.01777054692206381
3560000000.0 -0.11556934248540923 0.02557868587290101
3580000000.0 -0.008381249114375783 -0.1353143491667964
3600000000.0 0.15946176391447742 -0.006385247986742578
3620000000.0 0.009067850996210674 0.1848446577533262
3640000000.0 -0.1982429017459468 -0.06938834177422058
3660000000.0 0.22819023833530824 -0.037381974072987725
3680000000.0 -0.24439215199105857 -0.044839547533796126
3700000000.0 0.22684755110574747 0.13004417369020763
3720000000.0 -0.07769412131185437 -0.26114572600567976
3740000000.0 -0.19732271453042877 0.19313051324905667
3760000000.0 -0.14346645606351532 0.2417923547481124
3780000000.0 -0.2209709000514492 0.1783890265712929
3800000000.0 -0.27079350053359375 0.09643698809823667
3820000000.0 -0.2680322102055669 -0.11528633548092618
3840000000.0 -0.284664145001702 -0.057596852626619656
3860000000.0 -0.2846690928402162 -0.03867638257505663
3880000000.0 -0.27468603227957256 -0.06145583930592632
3900000000.0 -0.1947590483760675 -0.1953477593811414
3920000000.0 -0.1459339283968162 -0.22908683193393428
3940000000.0 -0.21851092519379356 -0.14966175958388045
3960000000.0 -0.1923782830905953 0.1690214695535997
3980000000.0 -0.10436853338486915 0.2219556347125804
4000000000.0 0.04422724667005052 -0.22427374706180367
