!Created with skrf (http://scikit-rf.org).
# Hz S RI R 50.0 
!freq ReS11 ImS11
400000000.0 -0.2742433972558554 -0.772492293828463
420000000.0 -0.5790124572988405 -0.6025022477017042
440000000.0 -0.5987331122749692 0.49869037596754695
460000000.0 -0.6936341977396882 -0.189784857434612
480000000.0 0.6271937217623322 -0.2120707535184911
500000000.0 0.6369945057059272 -0.07703883921908945
520000000.0 0.5624909135055287 0.060073391598683384
540000000.0 -0.34867484435710405 0.363693792354935
560000000.0 -0.4374979237718121 -0.14064645716812463
580000000.0 0.150344133770982 0.3711382060672283
600000000.0 0.21473463742123022 -0.2926375892871285
620000000.0 0.194066905213431 -0.30250074060179327
640000000.0 -0.38967233348108826 -0.07667491876263911
660000000.0 0.2363760673517133 0.3646459997576316
680000000.0 -0.023087565246108794 -0.4538466474886267
700000000.0 0.43172398544565477 -0.10917153701306963
720000000.0 -0.41697065180831516 -0.07997380361205887
740000000.0 0.13330394945681256 -0.35676262882673765
760000000.0 0.279735987644112 0.23871725396367718
780000000.0 0.1208967427039601 0.30414021094873595
800000000.0 -0.11696954453049341 0.2780855420234893
820000000.0 0.08378424444251673 -0.23312553384457194
840000000.0 0.003350884726880059 0.1989883966404268
860000000.0 -0.1363608871832167 -0.08592042552542249
880000000.0 -0.04298340113446568 0.10105011528419659
900000000.0 -0.0767574066015427 0.030166747602488008
920000000.0 -0.04283514779249452 -0.025560312557957286
940000000.0 0.02948564671341717 -0.017736520572120985
960000000.0 -0.049931574640969124 -0.03297215401709498
980000000.0 0.03469985739914851 -0.06574289497952275
1000000000.0 -0.010052521397567947 0.08468467319492558
1020000000.0 -0.07784638090373575 0.06381824685638936
1040000000.0 0.08979469492747726 0.07997897464367609
1060000000.0 0.15065271080957476 0.049516483674660015
1080000000.0 -0.12428747862150476 -0.145988811489864
1100000000.0 0.007822165080161956 0.22389611356464867
1120000000.0 0.15199336568065844 -0.19638379138731815
1140000000.0 0.08916832584789597 0.2570459279448857
1160000000.0 0.2158625879762214 -0.20493296031597927
1180000000.0 0.18603024098606702 -0.26487416723349927
1200000000.0 0.3212247650630966 0.12021778699747515
1220000000.0 -0.21132373565214066 -0.2929421957626482
1240000000.0 0.021366781793689272 0.3814410834615096
1260000000.0 0.24480884827489208 -0.30681500805149314
1280000000.0 -0.26636697081438016 -0.2982026610211272
1300000000.0 -0.38894876643756027 -0.09536408821411348
1320000000.0 -0.3427414146247153 -0.21355883464044345
1340000000.0 -0.4072065709788781 0.05898353022721306
1360000000.0 0.05474381179631344 0.4000513464370322
1380000000.0 0.1824839428769283 0.3438377930433582
1400000000.0 0.34386049985296363 0.14004499751137192
1420000000.0 0.3284003436477731 -0.12596280761595155
1440000000.0 0.09717318670682386 -0.3166528006379669
1460000000.0 -0.3015391883610112 0.07430068010434356
1480000000.0 0.2529083400651726 -0.1313029178997084
1500000000.0 0.24165799791706943 0.06192472311028144
1520000000.0 -0.1247333379846901 0.16694261345491138
1540000000.0 -0.12641249082092326 -0.10150887497301096
1560000000.0 0.05001372263247669 0.11373459334854229
1580000000.0 0.08697921138294368 -0.03311731059497972
1600000000.0 -0.053664288118519476 0.04732008073965155
1620000000.0 -0.02165212508867174 0.043608867174249256
1640000000.0 -0.01308389719722455 -0.02667329431999898
1660000000.0 -0.008489616305260787 0.004161116277919768
1680000000.0 -0.008613518247009185 0.0028050683103067607
1700000000.0 -0.024863933869015517 -0.002754585366232772
1720000000.0 -0.025987348660100166 0.030272806646529597
1740000000.0 -0.03793091519352282 -0.04595957730530789
1760000000.0 0.0763200377635996 0.023704287897895925
1780000000.0 -0.07056476693429628 0.07316557910815724
1800000000.0 -0.12908577491487502 -0.0022694968816588112
1820000000.0 0.15143608420152688 0.03803762845167581
1840000000.0 0.1536383422614868 -0.10968082032055604
1860000000.0 -0.08195060109145173 0.2246640630318981
1880000000.0 -0.190866470294139 0.20854611296098896
1900000000.0 -0.3193083387948058 -0.020063464068917652
1920000000.0 0.033341606917961925 -0.3467621818250884
1940000000.0 -0.1376348955259378 0.34317524349586853
1960000000.0 0.3371331834912244 -0.19272351940407903
1980000000.0 -0.18202059508406537 -0.35763548991700916
2000000000.0 -0.4152870104056248 -0.026076105126199553
2020000000.0 -0.14550368249251588 0.4029482001799196
2040000000.0 0.40806020859988296 0.14537036006725065
2060000000.0 0.1353021270750753 -0.40655058997174265
2080000000.0 -0.21867828968263683 -0.3574522917370927
2100000000.0 -0.367614559365616 -0.17563345478607972
2120000000.0 -0.3604064991235959 -0.1543058430375329
2140000000.0 -0.26934897442748656 -0.26784911537394623
2160000000.0 0.34836088593913994 -0.11889327260996474
2180000000.0 0.2950634220422456 -0.2021147866354404
2200000000.0 0.2047493370945813 -0.2793595703185089
2220000000.0 0.32652734839128744 -0.0807943826022855
2240000000.0 0.28639630447595377 0.18588252107081257
2260000000.0 0.35185675286286755 0.000794381818846845
2280000000.0 0.12707645812476798 -0.34672133964781243
2300000000.0 -0.39150707527030526 0.004799285351404788
2320000000.0 0.3653988085209554 0.21122024315125437
2340000000.0 -0.4387056629776112 -0.14169207676682158
2360000000.0 0.49339192130564874 -0.10124628293848947
2380000000.0 -0.2763736024220122 0.4801551806202253
2400000000.0 -0.4481286281612734 -0.4068339475567325
2420000000.0 0.427475073696052 -0.4929771601203036
2440000000.0 0.497189995599076 0.48006992619630473
2460000000.0 -0.6851663731588534 0.22042403201236618
2480000000.0 0.4018527106826607 -0.621689070252355
2500000000.0 -0.29040202879910976 0.6941702777466139
2520000000.0 0.3993076612599336 -0.6425061845041359
2540000000.0 -0.6321546322743768 0.4100337468255024
2560000000.0 0.7420706766166015 -0.00813478812103426
2580000000.0 -0.45264924513241944 -0.5639296153337235
2600000000.0 -0.14095382097185155 0.6815383390367553
2620000000.0 0.5894725677172603 -0.30662349457708443
2640000000.0 0.32752511709176135 -0.5366211225584803
2660000000.0 -0.5576734713317746 0.19159859504370294
2680000000.0 0.540188024869189 -0.08837665348552966
2700000000.0 -0.4911561515813971 -0.10187295704030216
2720000000.0 0.37572315585033483 0.2596643124630755
2740000000.0 -0.08227366190806712 -0.4093351994885425
2760000000.0 -0.0793783999879049 0.38110354635299454
2780000000.0 -0.08243174003877449 -0.35873614899519024
2800000000.0 0.33140470731741206 0.11712813369333597
2820000000.0 -0.17837064704860317 0.28629105450349945
2840000000.0 0.007852510512646302 -0.3268960720203159
2860000000.0 -0.1094065504083701 0.3070113803358377
2880000000.0 0.0635734515140989 -0.32206022208921337
2900000000.0 -0.2691873196431419 0.1946920119119482
2920000000.0 0.3343316838019853 -0.06411949898159118
2940000000.0 -0.2385182948955793 -0.24597442447510706
2960000000.0 -0.2868975945249629 0.18296751657746893
2980000000.0 -0.33708831643734266 0.028731000882963667
3000000000.0 -0.1529595916826926 -0.3037090458313659
3020000000.0 0.16705596751258944 -0.2921843106175978
3040000000.0 0.2145570980235039 0.2527196553748865
3060000000.0 -0.30688195215799696 0.11833488223625203
3080000000.0 0.19005034196498807 -0.25663347835172146
3100000000.0 0.07117626777473204 0.3030844137453062
3120000000.0 -0.2644807461193506 -0.13781569435067612
3140000000.0 0.2473132586750935 -0.14111760728837994
3160000000.0 -0.2615512511550422 0.06114304849730942
3180000000.0 -0.19156162846299174 -0.15713529635192414
3200000000.0 -0.1577779074345491 -0.15483406798640573
3220000000.0 -0.18626993341683482 -0.03781930123048372
3240000000.0 -0.15270901596551512 -0.029979317778946357
3260000000.0 -0.07063745942644714 -0.09675447655094195
3280000000.0 0.08621839435992003 -0.01999284809336808
3300000000.0 -0.0049845635381308975 0.06444098513787437
3320000000.0 0.017699888786227 -0.04395232881441104
3340000000.0 0.02880230667382244 0.021594525090989726
3360000000.0 0.009724365120936017 -0.030868608952520343
3380000000.0 0.02622369499958157 -0.026597701269201267
3400000000.0 -0.027690125530332156 -0.034375490289326696
3420000000.0 0.035686840199083754 0.03746774946056902
3440000000.0 -0.06313752918233208 0.004077800443277473
3460000000.0 0.07420744237435926 0.03310640761727662
3480000000.0 0.057627673146543344 -0.08418441168528193
3500000000.0 -0.04790147613215219 0.10838290226325012
3520000000.0 0.04510436569957583 0.12220685735787451
3540000000.0 0.11710978038282012 0.07807688407443272
3560000000.0 0.13547976162985823 0.06388746198409577
3580000000.0 0.08252230746032156 0.13675579855433917
3600000000.0 0.12308206718591767 0.11573578969647315
3620000000.0 0.13908457069750235 0.10502956825755506
3640000000.0 0.1704104929606296 0.04594121773979792
3660000000.0 0.1327336020464082 0.11469915074739447
3680000000.0 0.011362289466485185 0.1701624456921124
3700000000.0 -0.16043754318729808 -0.030177808071762294
3720000000.0 0.08600742891743836 -0.13359843081056108
3740000000.0 0.1300380793968303 -0.07802586476938828
3760000000.0 -0.08860325620519587 -0.1042686145514964
3780000000.0 0.06740372305704233 -0.09747838912915438
3800000000.0 0.03352101290441496 -0.10082828239222592
3820000000.0 0.0693545199788988 -0.08305078155721375
3840000000.0 0.10417562794245479 0.045969898789699794
3860000000.0 0.0458463721555405 0.11337828026751921
3880000000.0 0.12925777816171266 -0.006596016019109744
3900000000.0 -0.11115756011269717 -0.07588929617943309
3920000000.0 0.07266018197711271 -0.1146613775852946
3940000000.0 0.12345822029960285 0.058742162289977556
3960000000.0 0.1295283579160573 0.036886318960492104
3980000000.0 -0.023967441482050347 -0.12241797691016516
4000000000.0 -0.09228030853076141 0.05301295887655573
