!Created with skrf (http://scikit-rf.org).
# Hz S RI R 50.0 
!freq ReS11 ImS11
400000000.0 -0.474918895069212 -0.6929358303656391
420000000.0 -0.8315481870463398 0.11431119254936253
440000000.0 -0.44621711138966275 0.655010506970035
460000000.0 -0.44448040832456137 0.5886801276436687
480000000.0 -0.5199235234037125 -0.4122116152407054
500000000.0 -0.23126033518060413 -0.5884042386222524
520000000.0 -0.13803102598369785 -0.5279399504880803
540000000.0 -0.4554825581905234 0.1308155986269387
560000000.0 -0.2935598190133723 0.33588251090245164
580000000.0 -0.34017263206460613 0.1705979349212137
600000000.0 0.11540607347262982 0.32120887513441587
620000000.0 -0.3480452762106781 0.042594858267055925
640000000.0 0.39646277300364025 0.02822468736729397
660000000.0 -0.4208148797491806 0.14121909385814635
680000000.0 0.4599876495561874 -0.09577535477118837
700000000.0 0.3969646466688854 -0.24223562695409387
720000000.0 -0.11978941776295272 0.4282036186043566
740000000.0 0.35193878289443264 0.18277217335228874
760000000.0 -0.33451194796507305 0.12144775220819808
780000000.0 -0.3074567058607714 0.07534462131282352
800000000.0 0.06452731537242923 -0.2642102427730161
820000000.0 0.06498290596015407 0.22294566514549685
840000000.0 0.02080043083394452 -0.1928910269630735
860000000.0 0.05482382836744983 -0.16189335240397534
880000000.0 -0.05909493513189855 0.13036847639558807
900000000.0 -0.10444508917089841 -0.04310598131198834
920000000.0 -0.05245612811395747 0.06368249586804302
940000000.0 -0.02578382868763272 -0.0585154308863392
960000000.0 0.05542043866452597 0.04698468297117764
980000000.0 -0.08420765151115883 0.01748564088864016
1000000000.0 0.09014661402510565 -0.007158060455323846
1020000000.0 -0.007387288312365735 -0.09502948147099116
1040000000.0 0.10393096796515926 -0.03522909108963861
1060000000.0 -0.027483583410849034 -0.12054967963214416
1080000000.0 -0.15917978155950654 0.02706653768468947
1100000000.0 0.17675867375785984 -0.0864618745993777
1120000000.0 -0.0018545536325419297 0.23529017416628598
1140000000.0 0.18425080273073138 0.20165736640587795
1160000000.0 0.1353484360712327 -0.2796901683323991
1180000000.0 -0.1275779114152004 0.322000371815454
1200000000.0 -0.019201732732936762 0.3551539229289826
1220000000.0 0.3403641826941221 -0.12355999989444272
1240000000.0 0.14065304704700085 -0.35040351390832203
1260000000.0 -0.3326052840407909 -0.20704819549014028
1280000000.0 -0.40288515467796104 0.015390315299165756
1300000000.0 -0.4076188096280043 0.061022267454398434
1320000000.0 -0.1425309351771008 0.3973552536873186
1340000000.0 0.36044251597949034 0.22115748569674323
1360000000.0 0.41276408070397697 0.022234569163181693
1380000000.0 0.26844923810176197 -0.29919206047860925
1400000000.0 -0.18482421866345025 -0.33605402839089704
1420000000.0 -0.357462591590134 -0.0019759471067746543
1440000000.0 -0.31025316950128584 -0.11082290187462394
1460000000.0 -0.28611104436589674 -0.12145598662131964
1480000000.0 0.1855013614018658 0.22627044196872026
1500000000.0 -0.19100387579300798 0.18082845796525127
1520000000.0 0.18142517504459532 -0.13775888344578743
1540000000.0 0.1391680646714492 -0.1304191245019842
1560000000.0 -0.07834300716269608 -0.1210370592227881
1580000000.0 0.08501070815187381 0.05131125686873782
1600000000.0 0.05428018075324262 -0.025857390307725457
1620000000.0 -0.0015818467677158146 0.04657153505275273
1640000000.0 -0.003924703943399109 0.035723342896096896
1660000000.0 0.015181478062548008 -0.012337507767586957
1680000000.0 0.009570104842193604 0.0097673207988291
1700000000.0 -0.0002915141959190063 0.026520068931791124
1720000000.0 0.0294498035981781 0.030745154252702064
1740000000.0 -0.06394997503340621 -0.009143277128878306
1760000000.0 0.025476287678703923 0.08377338674248443
1780000000.0 0.11392924706161568 -0.006547756185408999
1800000000.0 0.12849648144268425 0.08098025394171832
1820000000.0 0.13322238763151795 0.12649607462842674
1840000000.0 -0.17179490960895297 -0.12916722147285067
1860000000.0 0.20083831117061154 -0.1574921752765344
1880000000.0 0.189378541015307 0.21938608025930698
1900000000.0 -0.27919026125070195 0.15086367167999737
1920000000.0 0.26975086070064397 0.2068411575216625
1940000000.0 0.19384928807353968 -0.31774816062475436
1960000000.0 -0.1572384232594341 0.36623294304404175
1980000000.0 0.33056535570276435 -0.24554053240845866
2000000000.0 -0.3553835780216355 -0.22816794606733642
2020000000.0 -0.24670652807552473 0.3455847349396085
2040000000.0 0.11946130938413595 0.4086987674119148
2060000000.0 0.4188129194902962 -0.054388770406411574
2080000000.0 0.14723212444160227 -0.38632791734701494
2100000000.0 -0.2959150644425994 -0.2691387708389285
2120000000.0 -0.3635249574050949 -0.11887967656240818
2140000000.0 -0.32574125181171415 -0.16587620213193907
2160000000.0 0.323431193847978 -0.1350127819066758
2180000000.0 0.3302922461769968 -0.0811543970492306
2200000000.0 0.17137565951157685 -0.2832837249839953
2220000000.0 0.22131964320567424 -0.23579372167955273
2240000000.0 -0.14205510753636608 -0.29452264929768407
2260000000.0 -0.32077029227510134 0.07218327435655168
2280000000.0 -0.2384043506750585 0.24031102297156043
2300000000.0 0.28482612101008054 0.2252854247261768
2320000000.0 -0.2519741996695625 -0.30760445888898447
2340000000.0 0.4375658136164278 -0.059229017021325284
2360000000.0 -0.017994635053954045 0.486073914555551
2380000000.0 -0.5349444973710772 0.056719763030436444
2400000000.0 -0.18919645020039524 -0.5578931801575148
2420000000.0 0.5037090467070673 -0.3896141362555534
2440000000.0 0.4914236451163567 0.4653381340795276
2460000000.0 -0.5953602001448793 0.3833130816565231
2480000000.0 0.02852270819271871 -0.7309334209994152
2500000000.0 0.23079894525624645 0.7079699247804327
2520000000.0 -0.222537068001961 -0.7153351607420273
2540000000.0 0.019614444869073204 0.7460717467834564
2560000000.0 0.32059579572364905 -0.6626304244355273
2580000000.0 -0.6948641079866706 0.18194107108163096
2600000000.0 0.6363034333883757 0.2775486621895843
2620000000.0 0.6293142378909969 -0.2155848803643145
2640000000.0 -0.6296745740556566 -0.002899743017372468
2660000000.0 0.533337667059249 0.2525369295894404
2680000000.0 -0.2944770273986092 -0.4608703567459947
2700000000.0 -0.17354113061278392 0.47824078159073363
2720000000.0 0.3130010135664735 -0.35567165708589976
2740000000.0 -0.414493853379941 0.1577184045972802
2760000000.0 0.29847511534026133 -0.29375826657702875
2780000000.0 -0.1594362463611855 0.3609903933640801
2800000000.0 0.24424920596456753 -0.28867334998787647
2820000000.0 -0.2585178331671371 0.26103272454550697
2840000000.0 0.3585889603246614 0.04808263414507574
2860000000.0 -0.13133868063395854 -0.3382877585140489
2880000000.0 -0.27503162448216345 0.24280311934800358
2900000000.0 0.2781270538851042 0.2491493741412471
2920000000.0 0.14001156173556925 -0.35099784262096534
2940000000.0 -0.22496658644178275 -0.30334339435834945
2960000000.0 -0.3295737500418965 -0.17432454369954767
2980000000.0 -0.023608210704971686 -0.3673698283031152
3000000000.0 0.3654749816192052 0.04981391218146607
3020000000.0 -0.11601221732009682 0.34500469674060763
3040000000.0 -0.06176001218482694 -0.3544819994478207
3060000000.0 0.3243213796281866 0.14838146863795754
3080000000.0 -0.334065722058508 -0.08381110931025605
3100000000.0 0.32640513259127185 0.06776431144854196
3120000000.0 -0.31550086248620257 0.045674897339668875
3140000000.0 0.25864893967161834 -0.16008581379481704
3160000000.0 -0.20882673563118556 -0.19194333001425803
3180000000.0 0.2517201860558383 -0.050867355329874374
3200000000.0 -0.21314578251675742 0.07181980313081204
3220000000.0 0.11533050058247174 0.15407123711201318
3240000000.0 0.1599795594228819 0.023000987754853618
3260000000.0 0.07141520434881285 0.10992343425612379
3280000000.0 0.06221349751705374 -0.08017656069562183
3300000000.0 -0.06431164082033682 0.0528276533848477
3320000000.0 0.06060834186468196 0.03727533444662037
3340000000.0 -0.06521551061743408 0.007684223423020541
3360000000.0 0.016718010068472025 0.05450010690346099
3380000000.0 -0.02170992304145328 0.04324250869434375
3400000000.0 0.014802578647498506 -0.037158323147358216
3420000000.0 0.03514749615429031 0.010584593918300229
3440000000.0 -0.007868899943423447 0.03351278293595634
3460000000.0 0.009704374242976316 -0.02178603268804449
3480000000.0 0.010045106906548478 0.0012833251191354403
3500000000.0 0.0047123713502086224 0.0025785587563122037
3520000000.0 -0.016840879197940462 -0.004847442198277965
3540000000.0 0.00815836317531123 -0.02329917141404544
3560000000.0 0.020396810764077615 0.01842050126082325
3580000000.0 0.027368264905345153 -0.01993459159115071
3600000000.0 -0.018290906586390304 0.04296665554168332
3620000000.0 0.06023120698093403 -0.015917528884655627
3640000000.0 -0.07730861879528446 0.006269104030854007
3660000000.0 0.07433792628534727 -0.05475085036118853
3680000000.0 -0.09812270939147583 0.043993893978045866
3700000000.0 0.1222237654579794 -0.0008209500861916941
3720000000.0 -0.12923143205004728 0.0574453949775124
3740000000.0 0.004868070312638045 -0.161207033841323
3760000000.0 -0.026929247148644524 0.18899526097469105
3780000000.0 -0.19982029157589196 0.09545577559745201
3800000000.0 -0.03783892407388836 0.2436828537264065
3820000000.0 0.2658421945275305 0.0411149798092152
3840000000.0 0.0365701564221322 -0.2835392734474074
3860000000.0 -0.30211510579414785 0.0014383748056605219
3880000000.0 0.010498408114729926 0.3144824761545661
3900000000.0 0.31101171692715157 -0.09086875954825667
3920000000.0 -0.30126756251198117 -0.13136342886481628
3940000000.0 0.17619493946825673 0.2773437053913034
3960000000.0 0.010733157581014749 -0.3222173054247156
3980000000.0 -0.13267722197961795 0.283824522464022
4000000000.0 0.2834676707295944 0.0989841497313737
