!Created with skrf (http://scikit-rf.org).
# Hz S RI R 50.0 
!freq ReS11 ImS11
400000000.0 -0.8249725904597345 0.24579340228201188
420000000.0 0.15622155811359964 0.8272390621303475
440000000.0 0.6733424697738486 0.40854834329545253
460000000.0 0.16060296455515236 0.7018471891068198
480000000.0 -0.5680458096169663 0.332121024590449
500000000.0 -0.592340668437344 0.11705406367545199
520000000.0 0.30334286074214284 -0.42300059529368034
540000000.0 0.1644047481094803 -0.4329998988983358
560000000.0 0.35280849689578103 0.260805931519176
580000000.0 0.28916574439291437 -0.2737524627084611
600000000.0 -0.16284635769449363 0.31996014377929854
620000000.0 -0.3572628354965549 0.06349006962893225
640000000.0 0.06442107155585283 -0.40164232707676556
660000000.0 0.20218581173719513 0.39407836298271187
680000000.0 -0.19199510013398974 -0.41918704603075246
700000000.0 0.006436410159822118 -0.4501436843855291
720000000.0 0.15970965008645752 0.39181397531020057
740000000.0 -0.2723056068491218 0.25802230738947096
760000000.0 0.3248443888001384 -0.12741634438929117
780000000.0 -0.08966738955878031 0.3144476849772629
800000000.0 0.1481785588603658 0.2669127861677136
820000000.0 -0.2477116945244835 -0.09232943496038461
840000000.0 -0.11641298157291183 0.1794050369788721
860000000.0 -0.08682271907669713 0.14328629895031333
880000000.0 0.10966338691823681 -0.027206498842526086
900000000.0 0.006764110353136199 -0.07618450729481814
920000000.0 -0.01656480020172452 0.04573972637748233
940000000.0 0.018156622693394527 -0.03718096135454073
960000000.0 -0.004414835701734337 -0.058269715933962435
980000000.0 0.0026886490365444927 -0.06806756331753924
1000000000.0 -0.002885058279874108 0.08187271589176279
1020000000.0 0.04813094003955996 -0.08145014027595712
1040000000.0 0.018526294089691656 -0.11393032292225301
1060000000.0 -0.08953915343725061 0.11889937545834191
1080000000.0 0.178204947705377 0.03168355296062331
1100000000.0 -0.19714403791875837 -0.0728570622703072
1120000000.0 -0.2080833902768622 -0.12196393771393794
1140000000.0 0.018401155841292205 -0.27283932388834575
1160000000.0 -0.003812061882670603 0.30341872892264227
1180000000.0 0.1692317394028969 0.27816156218933746
1200000000.0 -0.3166983842798523 -0.1262252676574069
1220000000.0 0.04925536312953861 0.3572238014485811
1240000000.0 0.36949711684964104 -0.09282221570488455
1260000000.0 -0.09329941426090374 -0.3856577947321629
1280000000.0 -0.4073073041563758 0.04399679790859558
1300000000.0 -0.1619682881935072 0.38613992587179957
1320000000.0 0.3083530540749906 0.2941599588650628
1340000000.0 0.29083834319743324 -0.309673624894451
1360000000.0 -0.0899823332438948 -0.39872028642009255
1380000000.0 0.1905634595473801 -0.33998317617004586
1400000000.0 0.2985728305802856 -0.23139467368978278
1420000000.0 0.17108208656298424 -0.3222531100724482
1440000000.0 -0.347058309421456 0.01933778488246322
1460000000.0 0.11239736835054068 0.2978194899657161
1480000000.0 0.024437471705175323 -0.2902904549740279
1500000000.0 0.05409800847415013 0.24952526339099437
1520000000.0 0.2095710611814203 -0.058387296798836696
1540000000.0 -0.17135746534255555 -0.04156905616123937
1560000000.0 -0.07257890310635955 0.12498705800224251
1580000000.0 0.01376920443640079 -0.11773811155121887
1600000000.0 0.06899794133486885 -0.054298276870528614
1620000000.0 0.008258554276584175 0.05930599694564429
1640000000.0 -0.02261314887003614 -0.01007287136648323
1660000000.0 -0.007520114651581387 0.0010152541606235409
1680000000.0 -0.014699827883473371 0.023226457763522876
1700000000.0 -0.040084745288724785 0.0107493878846355
1720000000.0 0.011682785005127013 0.047730471148866305
1740000000.0 -0.033139281331911005 0.05648698014988569
1760000000.0 -0.02007438294010417 -0.08425269433214144
1780000000.0 -0.059433010044041744 -0.09718623235624148
1800000000.0 0.14208613964311284 -0.04994768157871078
1820000000.0 0.0729417346710119 0.16845217213091832
1840000000.0 -0.11229715288632253 -0.1873921449855204
1860000000.0 0.07642464631898178 -0.24669158085960133
1880000000.0 0.28734950515145213 0.045097146369968324
1900000000.0 -0.30927079177313643 -0.08025894467964376
1920000000.0 0.19988219843423052 0.2877005527365322
1940000000.0 -0.19978902518951566 -0.32318429134938587
1960000000.0 0.25834791713216193 0.3010452221226928
1980000000.0 0.2980393719740244 -0.2754517993699508
2000000000.0 -0.185709754580729 -0.37245199249288957
2020000000.0 -0.40610460676277194 -0.12154159633931855
2040000000.0 -0.12633478324059588 0.41228776131427214
2060000000.0 0.42757507174066767 0.0018305458429782229
2080000000.0 0.029539917356830175 -0.4137092971636792
2100000000.0 -0.2991134915095361 -0.2619629690838931
2120000000.0 -0.2798405878045054 -0.25943547675635004
2140000000.0 -0.32087332589599293 -0.1768489223876248
2160000000.0 0.09399744093706275 -0.33737182990975834
2180000000.0 0.053286994709800625 -0.32697268859252465
2200000000.0 0.18519789817972585 -0.25907725323638214
2220000000.0 0.30290497704230396 -0.08243219151363389
2240000000.0 0.2810593854982376 -0.15637677920885173
2260000000.0 0.0032045734392267934 -0.32705275940409734
2280000000.0 -0.32274299935591416 0.10431427884403141
2300000000.0 0.29916707505405776 0.19452874276588472
2320000000.0 -0.14430678901643793 -0.356275472552418
2340000000.0 0.31120677682670866 0.287311922073576
2360000000.0 -0.32582787423136605 0.33949442189826123
2380000000.0 -0.4441227700330433 -0.27171447072050775
2400000000.0 -0.4393475549368834 -0.3745917933594318
2420000000.0 0.12727526309024215 -0.6141918757601532
2440000000.0 0.6651396214455977 0.055467174340451585
2460000000.0 -0.4916222241650202 0.49051025700660134
2480000000.0 -0.024532647979457346 -0.721381274355108
2500000000.0 -0.021645541351601405 0.7366652090111451
2520000000.0 0.2628484880264176 -0.6904154720079992
2540000000.0 -0.4802141862054078 0.5541907169663529
2560000000.0 0.5543403867789753 -0.4608281830722046
2580000000.0 -0.33643091912227596 0.6289242022670577
2600000000.0 0.5955827769342428 -0.34269338183011927
2620000000.0 0.2110528841972044 -0.6242699097155813
2640000000.0 -0.5628663045078537 0.275290946758667
2660000000.0 0.5454386835016645 0.23105218702341643
2680000000.0 -0.36198199497891664 -0.41689147431371537
2700000000.0 0.06930064089909643 0.5022902703957016
2720000000.0 -0.15432734382380975 -0.45529032067883685
2740000000.0 0.06363988411708622 0.44299299353822646
2760000000.0 -0.13627861432743846 -0.39539362939084394
2780000000.0 0.1781010956152168 0.35280101639552613
2800000000.0 0.13112471194587885 -0.3392575185720741
2820000000.0 -0.19142969601498355 0.30327508723510466
2840000000.0 0.19330434754023756 -0.301116873071906
2860000000.0 -0.26981266025988393 0.23656076583248326
2880000000.0 0.3552306135420536 0.05854921132115119
2900000000.0 0.05724775009606799 -0.35780101438344175
2920000000.0 0.06301214326528468 -0.3745845974812475
2940000000.0 -0.13769691293853353 -0.3603430523384963
2960000000.0 -0.151830919923203 -0.354281025784142
2980000000.0 -0.05080700241967177 -0.3766782786564689
3000000000.0 0.3164357538255298 0.20879693231413343
3020000000.0 -0.3167700908524895 0.2044460731249646
3040000000.0 -0.04247320431154005 -0.36780163718519865
3060000000.0 0.14006366245574234 0.33370249052191975
3080000000.0 -0.099235888297648 -0.3391613632265869
3100000000.0 0.26188602219642854 0.22253084465097228
3120000000.0 -0.33145290050119347 0.024753127716137434
3140000000.0 -0.16804229598922832 -0.2700310216596203
3160000000.0 -0.13777851330457316 0.26327356161057175
3180000000.0 0.05788368039190862 0.2605164696144723
3200000000.0 0.1804818892374402 -0.1560874638555981
3220000000.0 0.16187911762412902 0.1350735182227243
3240000000.0 -0.017661230859273368 0.18325989171290782
3260000000.0 0.149715576529491 0.04520669789692484
3280000000.0 0.08149565249176326 -0.09803598630657775
3300000000.0 0.1055509491197874 0.0021807580319750082
3320000000.0 -0.05347335540509975 0.06784735595631074
3340000000.0 0.003952124374660036 -0.0797899170998109
3360000000.0 -0.007513703397194818 -0.06325636983179404
3380000000.0 0.042127853394915954 0.023425990858467572
3400000000.0 -0.010617861523469978 0.03999654006257315
3420000000.0 0.027498287372285102 -0.011074072550615377
3440000000.0 0.02917589895694602 -0.011607579072550292
3460000000.0 -0.00609107724426287 0.04093880897752428
3480000000.0 0.0023541993182513788 -0.04379681047663998
3500000000.0 -0.054568766846040534 0.003986039106024381
3520000000.0 0.0684340055626843 -0.022095025063578223
3540000000.0 0.04896296419521943 -0.05374528721462457
3560000000.0 0.0775196633463263 -0.06357086752317045
3580000000.0 -0.08819675385013968 0.0735909336245693
3600000000.0 0.08523075027501767 0.09501448884326878
3620000000.0 0.1303314741911749 0.016699857928792864
3640000000.0 -0.014662705117857043 -0.15548523743241677
3660000000.0 0.07980998084639519 0.16799242288648203
3680000000.0 0.18592919928828758 0.06979116480665244
3700000000.0 0.06827794977263656 0.19529548227055019
3720000000.0 0.10339678017323291 0.20197866214983215
3740000000.0 -0.25494040335069434 0.04725882221792848
3760000000.0 0.04272347510024253 -0.2511041056795436
3780000000.0 -0.24364970140783157 0.039977453732127105
3800000000.0 -0.24165714900330706 -0.11625171508974914
3820000000.0 0.2051709238450075 -0.17442724507508686
3840000000.0 0.2714832841915555 -0.03265783061930773
3860000000.0 -0.007289901685866025 0.25331398073239075
3880000000.0 -0.23874961177989518 -0.024690402184350275
3900000000.0 0.2641992639768021 0.04492515645361215
3920000000.0 -0.19676243117419787 -0.10159198539411625
3940000000.0 -0.20118714995437845 -0.07928405254683894
3960000000.0 0.04752953055797172 0.21221417725315236
3980000000.0 0.2510521507179143 0.003969282590853088
4000000000.0 -0.20838005256736697 -0.11621185135380152
