!Created with skrf (http://scikit-rf.org).
# Hz S RI R 50.0 
!freq ReS11 ImS11
400000000.0 -0.844330204350836 0.09505247541090107
420000000.0 0.1552421195867146 0.818575094546485
440000000.0 0.07379608408000171 0.7777350690796745
460000000.0 -0.32755719240698483 0.6479242322943054
480000000.0 -0.6688022122953722 -0.056327926877491837
500000000.0 -0.6151236571208293 0.0995303595913638
520000000.0 -0.28476377862485563 -0.45035147478083815
540000000.0 -0.3305210545459688 0.33683070357974737
560000000.0 -0.11698262166164965 -0.4241768817243145
580000000.0 -0.38103147928425823 -0.12243965584128441
600000000.0 0.0948153737180989 -0.3452412485459887
620000000.0 0.27462229684845785 0.21824633462992818
640000000.0 -0.36306252178973153 -0.15828672125369658
660000000.0 0.39259370210129146 -0.17066007231214594
680000000.0 0.1655198985938366 -0.40744467428436126
700000000.0 0.3749994714924851 0.23704921419313169
720000000.0 -0.4210388631821328 -0.08348943336855942
740000000.0 -0.3416120722202429 0.18546463566512122
760000000.0 0.08788119620076078 -0.3428165528825632
780000000.0 0.20010401953695867 0.2670945686238009
800000000.0 0.2954059354880059 -0.012344192202447552
820000000.0 0.2439943142775554 -0.09829954947128156
840000000.0 -0.11640850212723765 0.1788124231128645
860000000.0 0.1687223068704601 0.018169436126395738
880000000.0 -0.11751318482295312 0.05599904106395641
900000000.0 0.08962947437514686 -0.021685151972624394
920000000.0 0.021525274864226746 -0.05722781779386511
940000000.0 -0.04223949444757288 0.01745787398267726
960000000.0 0.02569731028661685 -0.04752053165799628
980000000.0 0.0579520280046552 -0.021066330478907817
1000000000.0 0.04419007209752474 -0.06146531163786586
1020000000.0 -0.029708375119941965 -0.08302526495110445
1040000000.0 -0.10632155011610993 0.04128333243281882
1060000000.0 0.027590884849377224 -0.13283323613904144
1080000000.0 0.10797943006056904 0.12566326097803812
1100000000.0 -0.04898958072729271 -0.1959086484385922
1120000000.0 -0.13885454579738735 -0.18417993677706404
1140000000.0 0.1585069094454527 -0.2154777480786687
1160000000.0 -0.11246875356889184 0.2741319523477495
1180000000.0 -0.208862028997874 0.24186696996815396
1200000000.0 0.07151136899034015 -0.33554179543577634
1220000000.0 -0.3686271766744618 0.057681162581939185
1240000000.0 0.012209854695114148 -0.40282117786263244
1260000000.0 0.267401520242807 0.3084721355458307
1280000000.0 0.20476972103924204 -0.34696641393330524
1300000000.0 0.35348435621429786 -0.17290482560242715
1320000000.0 0.258023829989112 0.3022001845827525
1340000000.0 -0.0404485550597652 0.3988134713107095
1360000000.0 -0.2272161767558408 0.3311662683124272
1380000000.0 -0.11133015248289732 0.3867447496696089
1400000000.0 0.3957285647131911 0.04007183444546124
1420000000.0 -0.35211104731162735 -0.14261595018806866
1440000000.0 0.3347566531885972 0.10371551954177793
1460000000.0 -0.27308052051663134 -0.1479053588124606
1480000000.0 -0.0490414581517808 0.2631051157160931
1500000000.0 0.15491809555054553 0.1603421730515312
1520000000.0 -0.0953516174532663 -0.16129546106576145
1540000000.0 0.16004945586699643 -0.02854024048769407
1560000000.0 -0.006679799989869565 -0.14724374178022928
1580000000.0 0.019058728688136007 -0.1226139116823161
1600000000.0 0.004271961406616341 -0.09327554352105807
1620000000.0 -0.021388427364902932 0.06356033051619198
1640000000.0 0.01324461146049363 0.0322585944764709
1660000000.0 0.0024573798589291596 -0.003798549595000666
1680000000.0 0.02390053808246205 -0.014983042878406608
1700000000.0 -0.0027782447627220657 0.05501082376092227
1720000000.0 0.020467247536934012 0.06767645037329528
1740000000.0 0.08459237707357317 0.010176612974515489
1760000000.0 0.10518657805124965 0.016839548809122473
1780000000.0 -0.10394521472600687 -0.07795530204526588
1800000000.0 0.1449680727357344 0.059258407222556354
1820000000.0 0.11710021180076625 -0.14163919904311983
1840000000.0 -0.21912871418851196 -0.04177704219071267
1860000000.0 -0.06158822821997937 -0.2577739098191
1880000000.0 0.20805327555065048 -0.21449199318677975
1900000000.0 -0.07247033759051152 0.3169750406416222
1920000000.0 0.22146334999394512 -0.271617793771695
1940000000.0 -0.34531585880982674 -0.14467667162427378
1960000000.0 0.13423106375857083 0.36983107452978814
1980000000.0 0.36891753231137775 -0.1699721733363812
2000000000.0 -0.0007022974757119725 -0.4190757612300562
2020000000.0 -0.4283800976152274 -0.04174257345429952
2040000000.0 0.27775791155981955 0.33507092613125633
2060000000.0 -0.029771791923327073 -0.42713110325985565
2080000000.0 -0.35286358093063047 0.20865261183386247
2100000000.0 -0.08263547543469761 0.37802557209020254
2120000000.0 -0.1347114103969139 0.3390500688655308
2140000000.0 -0.3149987691141742 0.14544300087655207
2160000000.0 0.23401192361961276 -0.23464800322926108
2180000000.0 0.3014951267603079 -0.10769646825292281
2200000000.0 0.31186226605053513 -0.027880973878446964
2220000000.0 0.28492160217593865 -0.12711868156542305
2240000000.0 -0.12652356833048262 -0.28835204419395727
2260000000.0 -0.3061851406147666 0.08868569813896379
2280000000.0 0.0658794658637999 0.3217334427971236
2300000000.0 0.322282760470652 -0.13004156991417676
2320000000.0 -0.3413555558913073 -0.1617443204356821
2340000000.0 0.40678166566634033 0.09907557296977437
2360000000.0 -0.35030159134852423 0.31049151500922556
2380000000.0 -0.4455383956834977 -0.27257711591284656
2400000000.0 0.1637460952922061 -0.5515086119347546
2420000000.0 0.5901600808184374 -0.2007862340729171
2440000000.0 0.4166953962284569 0.5169276839749017
2460000000.0 -0.5782010769569512 0.38698232753377865
2480000000.0 -0.052241866719687835 -0.7170399633639423
2500000000.0 0.3567579701528529 0.6404632203684907
2520000000.0 -0.4209597611833499 -0.6082988806852757
2540000000.0 0.26655927802286067 0.6881878346579373
2560000000.0 0.05436450863997468 -0.7280672850543647
2580000000.0 -0.49227248089156866 0.5173285705737106
2600000000.0 0.6437529269328963 -0.2512541839453241
2620000000.0 0.21022127585109587 -0.6271152614471973
2640000000.0 -0.4113264312525625 0.4740038436073022
2660000000.0 0.5828292929433811 -0.08692476495411856
2680000000.0 -0.5339777657757181 -0.1372205838001695
2700000000.0 0.3309031614302622 0.3932128865815318
2720000000.0 -0.137427822055178 -0.46015701202052983
2740000000.0 0.12190227970817082 0.4343397798365146
2760000000.0 -0.21728716691075536 -0.3652652927738142
2780000000.0 0.26529572989199757 0.3039752755501943
2800000000.0 -0.2809590852096417 -0.2667886011754328
2820000000.0 0.24354648754293418 0.2846836495355844
2840000000.0 0.043089187721781726 -0.3644799298063912
2860000000.0 -0.36396540027592694 0.026666233331673117
2880000000.0 -0.07895863096667176 0.3584780155419493
2900000000.0 0.2390237726726131 0.2863671721230271
2920000000.0 0.3604029364853145 -0.12037828769847078
2940000000.0 0.12845976990621402 -0.36297421623864323
2960000000.0 -0.0586537609927555 -0.3802306419446902
2980000000.0 0.1760651377425533 -0.33672702048591296
3000000000.0 0.33050640530389835 0.18084218483786232
3020000000.0 -0.3244333533879737 0.18148663648925362
3040000000.0 0.21180914740731568 -0.29727593254125867
3060000000.0 -0.20405060699492333 0.29693503067261295
3080000000.0 0.2848898165773332 -0.20992839454391257
3100000000.0 -0.22947072640304228 0.25833390254774236
3120000000.0 0.16892596780204638 -0.2882354660954557
3140000000.0 -0.023510583461950226 0.3180378282684973
3160000000.0 0.03593648629579215 -0.2963284089293151
3180000000.0 -0.24988199222863566 -0.11638365022474723
3200000000.0 0.18414513248453898 0.16551049581101193
3220000000.0 0.10461714557570362 -0.1912738983733446
3240000000.0 0.09652097752610507 -0.16190815943094725
3260000000.0 0.13991650632101976 0.08715053058078084
3280000000.0 -0.11165311833217732 0.08594858705701165
3300000000.0 0.10712366670031698 0.05597028690450651
3320000000.0 0.1084481578816112 0.00237580656600136
3340000000.0 -0.1012429421259113 0.006183634474671701
3360000000.0 -0.09354181426010141 -0.002046780126444261
3380000000.0 -0.06480595370771927 0.05116489502475504
3400000000.0 0.010761691820478082 0.0739449973012091
3420000000.0 -0.05819310949471606 0.028257220320128906
3440000000.0 -0.042959075649747776 0.03217588982343217
3460000000.0 0.03948347186924709 -0.025380129334963978
3480000000.0 -0.03389429492366835 -0.029763910572569822
3500000000.0 -0.0067251048967652445 0.048584959984823144
3520000000.0 0.007537261977805955 -0.06095290808588873
3540000000.0 -0.05153118314442883 -0.0542462016026745
3560000000.0 -0.05917444132400365 0.06915179742647735
3580000000.0 -0.054218709005745415 0.09511211448420107
3600000000.0 -0.09332865888199293 -0.08802504299841749
3620000000.0 0.14002690529293504 0.04926482106980002
3640000000.0 -0.11576831216854798 -0.12320937509652911
3660000000.0 -0.12886478471692725 0.13948148819989184
3680000000.0 0.11675070498820263 0.17458332244450833
3700000000.0 0.13056837381657008 -0.18685370028169757
3720000000.0 -0.2410244296883775 0.042014579914240534
3740000000.0 0.1193833034357267 0.22554604745120607
3760000000.0 0.14726946577233188 0.22322309965562934
3780000000.0 -0.03738931745439144 0.27329230955095035
3800000000.0 -0.17658048235185603 0.22214049147964146
3820000000.0 -0.1668585574409377 0.23833924560383077
3840000000.0 -0.15420904761545842 0.24861546931055345
3860000000.0 -0.22996690079478052 0.1852526363760052
3880000000.0 -0.23347132542489893 0.18283880992907975
3900000000.0 -0.2072955356275737 0.21153847265213566
3920000000.0 0.09105351305428203 0.280238042687643
3940000000.0 0.2864310507224747 -0.041626928187211094
3960000000.0 -0.09959100267548113 -0.2622547265679644
3980000000.0 -0.2527515562113635 -0.09029453234665427
4000000000.0 0.24700100814973222 0.03664464535719893
