!Created with skrf (http://scikit-rf.org).
# Hz S RI R 50.0 
!freq ReS11 ImS11
400000000.0 -0.5233409406112333 -0.649634373756866
420000000.0 -0.7559842676036949 0.3698097068919306
440000000.0 -0.15217904140652086 0.7664727885351552
460000000.0 -0.5328448545289899 0.4874737518083013
480000000.0 0.21914981045712142 -0.6160375704049675
500000000.0 0.6167230397356345 -0.15332029825204402
520000000.0 0.5452041687229977 -0.12748343524948524
540000000.0 -0.48008941290048635 -0.12228341862548109
560000000.0 -0.36478411731326593 0.28782707601050234
580000000.0 -0.17555645242274298 0.36145951264413534
600000000.0 0.27778085681869036 -0.2292870326059843
620000000.0 0.35708924228022515 -0.008364854909587457
640000000.0 -0.30000781530824033 -0.26406724473520693
660000000.0 0.41846238692232696 0.13469206410187962
680000000.0 -0.18003761815276395 -0.4155134079035215
700000000.0 0.23271847691533107 -0.38520603832616995
720000000.0 -0.2188694452156715 0.3666445286911376
740000000.0 -0.31335037232005897 0.22109976919037602
760000000.0 0.2764035679124058 -0.2224516508271935
780000000.0 0.28118780001755034 0.16839499920672102
800000000.0 0.15886431698286704 0.2430466299151121
820000000.0 0.23450022475388552 -0.08732148666826986
840000000.0 0.11967067090405754 -0.1574306417118767
860000000.0 -0.14770492540023983 -0.05462467694858223
880000000.0 -0.11681048012872705 0.005634878316044058
900000000.0 0.06808217256797014 0.058392215130123756
920000000.0 0.048164394691992865 0.0413682730652146
940000000.0 0.004346540937121587 -0.04894754216085491
960000000.0 0.06092272303333642 -0.011827807472886627
980000000.0 0.06697381423056165 0.03840669941115346
1000000000.0 -0.07666519304987941 -0.029923209423475622
1020000000.0 0.0948607709226745 -0.02250723829495561
1040000000.0 0.022758617726539337 -0.11573317116199758
1060000000.0 -0.008311119410694857 -0.1511763527904205
1080000000.0 0.050106166944103935 0.18060200995038161
1100000000.0 -0.07589632741804711 -0.20173374192401775
1120000000.0 -0.2427382767967322 0.042038165124561856
1140000000.0 -0.16989547228229135 -0.21156578895225764
1160000000.0 -0.14372264243015695 0.26715121768735994
1180000000.0 0.2069661739317836 0.2549576880220757
1200000000.0 -0.34098102047235945 0.04230810301653325
1220000000.0 -0.02955297026455672 0.3586094783552269
1240000000.0 0.3677383732129349 -0.09695852724668116
1260000000.0 0.03809612002400683 -0.3936171149980153
1280000000.0 -0.39502645850400886 -0.11030006170218609
1300000000.0 -0.33482594755855516 0.24406881842927722
1320000000.0 -0.009635545670143646 0.42125663467458485
1340000000.0 0.34169085775092845 0.24183747860919844
1360000000.0 0.41067291892729374 0.027512503969802645
1380000000.0 0.397871717212692 -0.022546528278815543
1400000000.0 0.18594957683896432 -0.33837999029330307
1420000000.0 -0.1332322039522902 -0.33928765315307424
1440000000.0 -0.3227945040169116 0.12098280688817332
1460000000.0 0.24587567586401285 0.19615728985703731
1480000000.0 -0.05660812623349679 -0.2799904472796596
1500000000.0 0.08433240239527529 0.2319577848142099
1520000000.0 0.174729424203787 -0.12309078384070342
1540000000.0 0.02812239873520714 0.16996919770015942
1560000000.0 0.11162246686564253 0.0751988855908187
1580000000.0 -0.020522152204671327 -0.10511985388821136
1600000000.0 -0.0759571972440315 0.02458740287093418
1620000000.0 0.04498845208797777 -0.03797345856555344
1640000000.0 -0.003334124838450417 -0.03831306560179642
1660000000.0 -0.001526213121906804 0.016275346607113335
1680000000.0 -0.006669523422195915 -0.007837604947656509
1700000000.0 -0.03271068664093144 0.005648251189234106
1720000000.0 -0.044295221550821495 0.019671804086259695
1740000000.0 0.04436331871306225 0.05006652438942408
1760000000.0 0.07963985002718015 -0.03069085683333213
1780000000.0 0.09822973213690735 0.013033747562810434
1800000000.0 0.13699943308800916 0.005974205595175848
1820000000.0 0.16520793226359598 -0.03852579464581765
1840000000.0 -0.17928624070056753 0.09970305139236747
1860000000.0 0.06904054627858376 -0.2447791326453083
1880000000.0 0.22217424305535857 0.19168169172988336
1900000000.0 -0.23240731893015287 0.2240879743383221
1920000000.0 0.2693917578443182 -0.21728506287868576
1940000000.0 -0.37379917981308025 -0.017952103508401263
1960000000.0 0.2943147093673919 0.26242918748926247
1980000000.0 0.2155553089686113 -0.3416107810265264
2000000000.0 -0.22578128286822033 -0.34799317802802515
2020000000.0 -0.39132672852934447 -0.16067564535457715
2040000000.0 -0.2977237481734608 0.3119444371911394
2060000000.0 0.4116549045872519 0.11789385337867819
2080000000.0 0.13534737978556932 -0.39616937838768174
2100000000.0 -0.34633093624319367 -0.20761076936143236
2120000000.0 -0.3781160193822886 -0.07945112981510034
2140000000.0 -0.32187286111376207 -0.1818022593504259
2160000000.0 0.3010901240250557 -0.1872786077416382
2180000000.0 0.2644910154802232 -0.21405319258717503
2200000000.0 0.06171001306764997 -0.3206074513406615
2220000000.0 0.27697247280190257 -0.15634986320225194
2240000000.0 0.29836304287210863 -0.12578474038115714
2260000000.0 -0.1009838913296916 -0.31629074802061263
2280000000.0 -0.33614568746757073 0.07912354937599145
2300000000.0 0.3194868126039635 0.17884082220476064
2320000000.0 -0.21169974037760392 -0.33347209838747627
2340000000.0 -0.1425998014287325 0.4079336995039988
2360000000.0 -0.45228626286248985 0.1630924190971297
2380000000.0 0.5213944100607283 -0.03789483132244649
2400000000.0 -0.3758052083691613 0.4289983105990692
2420000000.0 -0.4296236818085117 -0.4397319856312288
2440000000.0 0.4937724204118424 -0.4268852071997571
2460000000.0 0.06759855535630813 0.6783689909808613
2480000000.0 -0.5022975962511672 -0.4924767605917908
2500000000.0 0.7161280310006801 0.024395815635247453
2520000000.0 0.33646879129041074 0.6504845068372141
2540000000.0 -0.5038192671586128 -0.5336907205781906
2560000000.0 0.24816433241387173 0.6775497913613945
2580000000.0 0.02614428406052607 -0.7012537442106366
2600000000.0 -0.29482999101479296 0.6076004320123953
2620000000.0 0.6529996689774648 0.05723750324542122
2640000000.0 -0.6167351648927538 -0.07697665536999915
2660000000.0 0.5019342060202567 0.30023247363226074
2680000000.0 0.4921581738171007 -0.17766288603489883
2700000000.0 -0.07310270733611574 0.5043844304064238
2720000000.0 0.13213388446041424 -0.45349757834819054
2740000000.0 -0.11130713699539344 0.42377907495786665
2760000000.0 0.028796549260204304 -0.4085523974887026
2780000000.0 -0.24482413058463112 0.26988403182973725
2800000000.0 -0.222389577377318 0.24846870959173792
2820000000.0 -0.15229127387616706 -0.29494124198484756
2840000000.0 0.26642140114697993 -0.2093203684718322
2860000000.0 -0.18795477030672533 0.2917703702801452
2880000000.0 0.2870338015709503 0.2169369234233894
2900000000.0 0.36054639976922187 -0.025854399094684476
2920000000.0 0.08018891314395578 -0.35665697775840294
2940000000.0 -0.2907718297198474 -0.22548410678857025
2960000000.0 -0.3413773833673692 -0.04121159257479798
2980000000.0 -0.327662986934939 0.15412513689714563
3000000000.0 -0.2975180195655127 -0.17812673243592259
3020000000.0 0.0844905539650701 -0.33204371353592227
3040000000.0 0.16593351194972555 0.2943374446098822
3060000000.0 -0.30111324978483406 0.14639407547718758
3080000000.0 0.0810264250576029 -0.3131618367445151
3100000000.0 0.11816961412190592 0.29047483896534476
3120000000.0 0.2873214699409928 -0.13402223585960865
3140000000.0 0.26978054450159605 -0.14242307067465462
3160000000.0 0.28422651220953266 0.035654623516225344
3180000000.0 -0.21835092857777125 -0.14710668257102408
3200000000.0 -0.12339920481884561 -0.1939774317960807
3220000000.0 0.12057578949937323 -0.16370213642716577
3240000000.0 -0.12942493700685637 0.10784563603768961
3260000000.0 -0.10721397128561415 -0.08197528020654866
3280000000.0 -0.008825924423117847 -0.10221453960636714
3300000000.0 0.057882819357033086 0.04991124046104961
3320000000.0 -0.020695230336947035 0.07136976118813423
3340000000.0 0.05333898204361835 -0.021589180127246012
3360000000.0 0.003186790423706974 -0.040571122607186774
3380000000.0 0.03551263796434257 -0.00730909471920905
3400000000.0 0.014659315401735757 0.006470726687037468
3420000000.0 -0.02553433465712109 -0.001732203183281422
3440000000.0 0.02274077572223065 0.019388461112410053
3460000000.0 -0.01867058829839259 0.0007372102066095309
3480000000.0 0.025028845033075283 0.0198046856553572
3500000000.0 0.04317590659780751 0.07805871586552013
3520000000.0 0.08635502435414588 0.013821935258995412
3540000000.0 0.09265555022284581 0.047797436485667415
3560000000.0 0.12649688639748155 0.007476389275753473
3580000000.0 0.10129734165575327 0.08228261295731289
3600000000.0 0.09513399857837924 -0.10368645341687599
3620000000.0 0.11268408793129919 0.09432959670096391
3640000000.0 0.0833964141310367 0.11127273266553206
3660000000.0 0.1125603439072981 -0.04339493734499394
3680000000.0 -0.12570126917750488 -0.07039176561650547
3700000000.0 -0.16402103689008488 0.00822480395122523
3720000000.0 -0.1082295756234431 0.11710849317045456
3740000000.0 0.019688458466536076 0.14876950088554844
3760000000.0 0.1254852455866518 0.09335428044165905
3780000000.0 0.10716354194244422 -0.1010218746432319
3800000000.0 -0.1204525953689757 -0.08331836902246031
3820000000.0 -0.22511911943613225 -0.01356088969679339
3840000000.0 0.21451175443226708 0.21820957554399864
3860000000.0 0.23284531927586347 -0.21994483796983666
3880000000.0 -0.20913823680891125 -0.2510362851365976
3900000000.0 -0.2405416864305342 0.22306316604014093
3920000000.0 0.32609498226209205 -0.023845502250218288
3940000000.0 -0.10886500993022635 -0.3017593302531253
3960000000.0 -0.30548370117107093 -0.0361281913579581
3980000000.0 -0.273332958437795 0.09934772137371342
4000000000.0 0.2886140194209791 0.016452125658327647
