!Created with skrf (http://scikit-rf.org).
# Hz S RI R 50.0 
!freq ReS11 ImS11
400000000.0 -0.3256830411008687 -0.7467528315985171
420000000.0 -0.6640753127372693 -0.5090350556158211
440000000.0 -0.6419416211465777 0.4412526664605596
460000000.0 -0.6815084446148317 -0.24657254994212907
480000000.0 0.6648954595287957 -0.08355446798094646
500000000.0 0.6186048840221186 -0.20476820926831243
520000000.0 0.5579101359513461 0.12872484606226642
540000000.0 0.09544766298784418 0.5095030551134496
560000000.0 -0.08509148127167433 0.45334998232689394
580000000.0 0.37631085975139084 0.1183539891398471
600000000.0 0.28183108801857065 -0.22065627179804106
620000000.0 0.29023617233086507 -0.22096698138821813
640000000.0 -0.22631491522961492 0.3216271732817759
660000000.0 0.4275168896390215 -0.030198908622447153
680000000.0 -0.1849955131003879 -0.4031679223272366
700000000.0 0.43488871077733027 0.002893787520859935
720000000.0 -0.009615545041873392 -0.4218821909318752
740000000.0 0.19511962997648002 -0.34224173073529235
760000000.0 0.23908864174340153 -0.2892496566089209
780000000.0 0.001023635864354424 -0.33461797138194294
800000000.0 0.13561450415940937 -0.2659519333418238
820000000.0 -0.18994323750314188 0.1632709258116033
840000000.0 0.1222216040553384 -0.14796532964918313
860000000.0 0.16595034548578677 0.000618714578690479
880000000.0 0.10334808984791992 0.07925211380425475
900000000.0 -0.09525228527589867 0.013648720311750016
920000000.0 0.0017038976615098083 -0.05821833496152654
940000000.0 0.011703336416086313 0.0328707778809336
960000000.0 0.012354208057007893 0.05345116348786231
980000000.0 -0.0610676120129515 0.03548367812672181
1000000000.0 -0.0770553869531694 -0.028933999348991827
1020000000.0 -0.09269211471343454 0.0114329614009537
1040000000.0 -0.07332747569198797 0.08282064144804394
1060000000.0 -0.11729658140243604 -0.07753575928740263
1080000000.0 -0.10556837645490351 0.14479865872016143
1100000000.0 -0.03022027418777286 -0.20702270418616178
1120000000.0 0.13642292852253576 -0.19929192448180752
1140000000.0 0.15474368107186326 -0.22948843969563293
1160000000.0 -0.2677237386356124 0.14662163949720514
1180000000.0 -0.024428949283633084 0.3300551837125209
1200000000.0 -0.3352707068014209 -0.08090227493999855
1220000000.0 -0.19168287388299446 0.3083420234114254
1240000000.0 0.3905207875163693 0.010093755230542201
1260000000.0 -0.3952644312229095 -0.08179449387831815
1280000000.0 -0.1650632940086398 0.37400067514641067
1300000000.0 0.08223067206139886 0.3992892126660172
1320000000.0 -0.05614949346557612 0.41131390954370284
1340000000.0 0.172599237575822 0.37883629998911283
1360000000.0 0.3134401749772048 0.2674549878816731
1380000000.0 0.3983249273956486 -0.03522550088969991
1400000000.0 0.23553135638885628 -0.3043060062743177
1420000000.0 0.027053729794109794 -0.36132524861403353
1440000000.0 -0.2454220752879093 -0.2439154885947199
1460000000.0 -0.01705205240810132 0.3204849371070416
1480000000.0 0.039944713116679395 -0.29279582928249626
1500000000.0 0.25725567273808086 0.012618879943115563
1520000000.0 -0.03336248103624452 -0.2151252815018716
1540000000.0 0.17604221230950307 -0.02173612995065403
1560000000.0 -0.09518173286457722 -0.0970141966116769
1580000000.0 -0.10370361081638671 -0.014518954091303627
1600000000.0 0.005652757574146537 0.07766899902800888
1620000000.0 -0.0049862257018880056 0.05398541308625432
1640000000.0 -0.0048391511118668325 0.03546414934748993
1660000000.0 -0.010689618720994672 -0.0019793245233452657
1680000000.0 0.008309610438503697 0.00947082380467
1700000000.0 -0.036837188316046 0.0016348413243241068
1720000000.0 -0.053424136960783505 -0.011271423255730335
1740000000.0 -0.049658961808473026 0.050097854965678035
1760000000.0 0.06567218725146352 0.05848320272503854
1780000000.0 -0.08313960382621763 0.0720771559556234
1800000000.0 0.0831163941157364 -0.11931681910327964
1820000000.0 0.12808647426870634 0.12576779331793633
1840000000.0 -0.2095591754870723 0.009643913223164248
1860000000.0 0.24111585763258028 -0.05293680258210469
1880000000.0 -0.2662020655904116 0.10061434017756114
1900000000.0 0.0231563872286719 -0.32334078857294807
1920000000.0 0.2789953951235905 0.21610279850682493
1940000000.0 -0.18805367781429413 -0.32607775156037727
1960000000.0 0.08684322192153303 0.3874869899974132
1980000000.0 0.285631816625741 -0.29419291213099424
2000000000.0 -0.36865424032881045 -0.20384475894437518
2020000000.0 -0.1597367951664096 0.39179255444206035
2040000000.0 0.19019442053157326 0.3747725346625216
2060000000.0 0.36290072277092733 0.20876156304253737
2080000000.0 0.31805299582185664 -0.2651378693387394
2100000000.0 -0.18260211080217725 -0.3583789987648538
2120000000.0 -0.37549206522248474 -0.06956160898064029
2140000000.0 -0.3244782065619152 -0.17019133035137837
2160000000.0 0.26449301359312055 -0.2303236973306338
2180000000.0 0.25863644737743197 -0.21965382575756415
2200000000.0 0.13852144588205198 -0.29936987369661533
2220000000.0 0.1563231549207193 -0.2815699384829823
2240000000.0 0.29385266023154694 -0.14711002579182186
2260000000.0 -0.01925486601435574 -0.3396424327779086
2280000000.0 -0.19848444292691242 0.29495164597609
2300000000.0 0.28868752284649013 -0.23616258533807052
2320000000.0 -0.4005170990218405 -0.0028270548483560875
2340000000.0 0.4273340576897018 -0.11483834680193113
2360000000.0 -0.09566224035954674 0.4804816038269042
2380000000.0 -0.5395750822003005 -0.05174139088215216
2400000000.0 -0.12662059571958292 -0.5780351471450926
2420000000.0 0.5592134676233168 -0.3026083195182828
2440000000.0 0.6151640886733402 0.29294731381277883
2460000000.0 -0.4755598601842145 0.5269130672395521
2480000000.0 -0.0937120568363307 -0.7231927151597833
2500000000.0 0.19492009585866002 0.7143250305902197
2520000000.0 -0.2628674370267839 -0.7011849813822277
2540000000.0 -0.03158805466462073 0.7431706262627196
2560000000.0 0.5829574210284735 -0.4525214181301538
2580000000.0 -0.7159805067828228 -0.08512065325877319
2600000000.0 0.40018899214837106 0.5688754599093508
2620000000.0 0.6396848152947248 0.19117422668659168
2640000000.0 -0.4592855428896022 -0.4385529370879439
2660000000.0 0.22512070688871513 0.5530850672082012
2680000000.0 -0.050870136725750185 -0.5539847453294298
2700000000.0 -0.1810307521067298 0.482652388943243
2720000000.0 0.32267789079780335 -0.3558375849367499
2740000000.0 -0.3512224476968689 0.27683815479979623
2760000000.0 0.3568375393969919 -0.21786001513394487
2780000000.0 -0.353063641109057 0.17669212597705417
2800000000.0 0.3775396679258289 0.012251820174329266
2820000000.0 -0.3624046963551149 -0.07316224247345045
2840000000.0 0.363999376759475 -0.035916270325086846
2860000000.0 -0.36369058007029853 0.012873747606715091
2880000000.0 0.2943510623639148 0.2091579598802784
2900000000.0 0.3616342210671031 -0.02447585033090679
2920000000.0 0.14044614313476056 -0.3434708473252377
2940000000.0 -0.2656580513474712 -0.2641696779171519
2960000000.0 -0.3350782969465114 -0.16148359820898872
2980000000.0 -0.23541710679880967 -0.282513965956409
3000000000.0 0.31838562562662837 -0.1797053358238791
3020000000.0 0.05401401836102315 0.3583420471813378
3040000000.0 -0.2623546360153147 -0.24197803378249574
3060000000.0 0.34309437346273025 0.06719300764193988
3080000000.0 -0.3005929962657274 -0.15933460599977609
3100000000.0 0.1733951021029657 0.2834948749348957
3120000000.0 -0.3085354220797802 -0.09607959038764421
3140000000.0 0.2930887266574837 -0.0932193980064508
3160000000.0 -0.20904357877010574 -0.19702105608777348
3180000000.0 0.244344121943612 -0.09461795344066433
3200000000.0 -0.18117192586475483 0.14190960821670076
3220000000.0 0.18586511962991467 0.060340868199297126
3240000000.0 0.16208136441367552 -0.006448614701303935
3260000000.0 -0.04341016369529008 0.12583477591755643
3280000000.0 0.047230455058178654 0.09610606977680983
3300000000.0 -0.08427447841086358 0.033712925203365524
3320000000.0 -0.05741975335554315 -0.05234959330042782
3340000000.0 0.06262049139489152 -0.026250827032486684
3360000000.0 -0.008287501761940333 0.06008975084353898
3380000000.0 -0.033663593612352806 0.04486433801936555
3400000000.0 0.047289222082791335 -0.022361566923888656
3420000000.0 0.042535535814365755 -0.016755095582596292
3440000000.0 0.014563051695273695 0.03302343497549347
3460000000.0 -0.014682815680948558 -0.020648575770624993
3480000000.0 -0.004294314609421298 0.014385874938546171
3500000000.0 0.003399344275943482 0.009622992817455904
3520000000.0 0.006434903761785526 -0.025151795769801193
3540000000.0 -0.028155583951392855 -0.020865317080955893
3560000000.0 -0.035448399178159035 0.05013488230129852
3580000000.0 -0.0734272660075649 -0.002796683550388597
3600000000.0 -0.009045976689126592 -0.07523153360552355
3620000000.0 0.07630049087021533 0.02633885533059046
3640000000.0 -0.0023026168118911736 0.09478420481192029
3660000000.0 0.1035795324951299 -0.05436264018014454
3680000000.0 0.12530014128978786 -0.02127009546786179
3700000000.0 0.1063842691890869 -0.09406825268408033
3720000000.0 -0.1496126971879482 0.01868758834117874
3740000000.0 -0.1029772527535428 0.14782000756069835
3760000000.0 0.025795056086402104 -0.20526886893487548
3780000000.0 0.21332442367409907 -0.08245483899235943
3800000000.0 0.17267448495522708 0.18426854737968262
3820000000.0 0.05624784823289431 -0.2545682651917783
3840000000.0 -0.26668086274518066 -0.08010886770705827
3860000000.0 -0.1822051631134491 0.2522534114562527
3880000000.0 0.21110281653545881 0.21865237130714577
3900000000.0 0.2984540500077212 0.041281957459328576
3920000000.0 -0.11439282890459646 -0.2699031361914298
3940000000.0 0.31391613594098056 -0.05423574624508271
3960000000.0 0.2569404593006164 -0.1743162090964181
3980000000.0 -0.20532654851074647 -0.21020955075566958
4000000000.0 0.18683381716252462 0.20806040233989298
