!Created with skrf (http://scikit-rf.org).
# Hz S RI R 50.0 
!freq ReS11 ImS11
400000000.0 -0.5510241707233794 -0.6162734594348916
420000000.0 -0.8211914786027609 0.15548283843902258
440000000.0 -0.30852262896880916 0.717065921714047
460000000.0 -0.6003685835314596 0.3969983019975057
480000000.0 0.5028499552300565 -0.4307817771301749
500000000.0 0.34362637525261264 -0.5383838244402426
520000000.0 0.5136611136796956 -0.2077115709630012
540000000.0 -0.46215893502880745 -0.17611634820431032
560000000.0 -0.43726474844908614 0.12500438240688636
580000000.0 -0.3850585724691769 0.13714270928056632
600000000.0 0.3106077224239375 -0.1994384640441193
620000000.0 0.33515788158563736 -0.14294344402589249
640000000.0 -0.39680139258513414 -0.05820712942942084
660000000.0 0.4061475622327821 0.16584266109791956
680000000.0 -0.3460204346996089 -0.2985698052182925
700000000.0 0.18569043633249502 -0.4019502362851092
720000000.0 -0.3757402452659245 0.1996542543886452
740000000.0 -0.3705883202044238 0.07972517291340035
760000000.0 0.3464774164646192 -0.07107685498878773
780000000.0 0.31898589672367555 0.05101705669323405
800000000.0 -0.18394191392410478 0.22667263641740473
820000000.0 0.08405259821489666 -0.23606047448287576
840000000.0 0.03860757314936602 0.19382502180871855
860000000.0 0.029456863381760633 -0.16582147416813472
880000000.0 0.060710059301404544 0.10463815828324692
900000000.0 -0.07429777023724653 -0.04517971519807333
920000000.0 0.042751707986577146 -0.03945016689468161
940000000.0 0.03842714642847251 -0.02334544252347147
960000000.0 0.027855688266360985 -0.06222876558027953
980000000.0 0.030295196795464698 -0.07487655645965748
1000000000.0 0.08380361635723838 0.012187572686488384
1020000000.0 0.08421984889916646 -0.05735113691589313
1040000000.0 0.08230556319374523 0.09222920788191172
1060000000.0 0.038280609249990875 -0.16157215244324002
1080000000.0 -0.0021845265519640582 -0.19582652905904538
1100000000.0 0.16781628749705926 0.13980454696647332
1120000000.0 0.14994336205236417 0.18277033312032098
1140000000.0 0.030975101151937412 -0.2629788838407898
1160000000.0 -0.29851592785625847 0.05637847669855193
1180000000.0 0.2679266964570455 0.1912971363919527
1200000000.0 -0.27571887626278924 0.19548689425280652
1220000000.0 0.17821800816708677 0.30494270339343166
1240000000.0 0.3639940392711596 -0.079247054280874
1260000000.0 -0.17783506650679007 -0.34300911649618554
1280000000.0 -0.19648066380879656 -0.3469816351638276
1300000000.0 -0.4103264269472758 0.018190026492625484
1320000000.0 -0.28703683463641955 0.30319195175236474
1340000000.0 0.17236958170224878 0.3841406844357438
1360000000.0 0.34231144491082954 -0.22539652340066252
1380000000.0 0.38908075764125843 -0.004474775977286337
1400000000.0 0.3659912221467984 0.1114604642302193
1420000000.0 -0.012175940313672676 -0.3716773484960978
1440000000.0 0.03281817130090735 0.34913425790061875
1460000000.0 -0.2694969388567286 -0.1621903600157849
1480000000.0 -0.04594617073584764 0.27111836415014184
1500000000.0 -0.035477077252740435 -0.23076602970676907
1520000000.0 0.1746130738239712 -0.08937819511461614
1540000000.0 -0.1644270443159082 -0.002453205665564656
1560000000.0 -0.06109558044459701 0.11922658526691082
1580000000.0 0.10528181732201464 -0.02980037537070998
1600000000.0 -0.06459256492141621 0.05382514759313811
1620000000.0 0.0656520277641993 0.0016686279511462163
1640000000.0 0.04385455564263259 -0.01909698251207964
1660000000.0 -0.006425732959177659 0.01799982287242894
1680000000.0 -0.00179124275849638 0.012347027013092952
1700000000.0 -0.019481586903593577 -0.026470617569739067
1720000000.0 -0.02055085446758995 -0.041028877503691705
1740000000.0 -0.054678352044241436 0.027094945079160392
1760000000.0 -0.040541276061940426 -0.0665285533997184
1780000000.0 0.08864598393765469 0.05990801167399431
1800000000.0 0.1274714938297525 0.07938544834457349
1820000000.0 0.1288951107816101 -0.12894078352338234
1840000000.0 -0.04217061024837648 0.20622905375734993
1860000000.0 0.09574044300496859 -0.22916539546176792
1880000000.0 0.25867077635203595 0.12777438254100384
1900000000.0 -0.285720133760061 0.14398028497579124
1920000000.0 0.29709309974019205 -0.18423953197954124
1940000000.0 -0.37494155843792787 -0.012017113878809825
1960000000.0 0.3938265615294519 0.04259500648050039
1980000000.0 -0.02506263355044865 -0.4048818047447357
2000000000.0 -0.3679301230691162 -0.19785741691626474
2020000000.0 -0.35529377720945193 0.2358650332346061
2040000000.0 0.11216010105730663 0.4156532439911581
2060000000.0 0.41984922741379627 -0.07433670643431822
2080000000.0 0.3492806051054455 -0.22405330353064584
2100000000.0 0.20025481607652582 -0.3558562594636905
2120000000.0 -0.045639309677578226 -0.39387199977460047
2140000000.0 -0.3577274575919321 -0.13609283593872046
2160000000.0 -0.06557740444813975 -0.35438314915045527
2180000000.0 0.2499086431802367 -0.22845973843151715
2200000000.0 0.26640965890043117 0.1901165195478207
2220000000.0 -0.17243588568790708 0.2781172821235314
2240000000.0 0.027386135552666353 0.33617799226330397
2260000000.0 0.3326775764620168 -0.08170833977443097
2280000000.0 0.05898123643378971 -0.34925262385607964
2300000000.0 -0.36512870510129164 0.08705999011252727
2320000000.0 0.40348435970895874 -0.03237456888942052
2340000000.0 -0.40046479598044576 0.18771630650747234
2360000000.0 0.07528286002513007 -0.4791049982740327
2380000000.0 0.5215671895979942 0.11387245907916357
2400000000.0 -0.06762292714237007 0.5784627298101973
2420000000.0 -0.6130531266334169 0.12746715922101734
2440000000.0 -0.23148145705754444 -0.620564808890769
2460000000.0 0.6882276053382951 -0.050741885656129124
2480000000.0 -0.5006716578587397 0.5037351091978342
2500000000.0 0.336918158683783 -0.6376543739752739
2520000000.0 -0.4080033951516103 0.5985774022557258
2540000000.0 0.5748964411013193 -0.4339428544677253
2560000000.0 -0.7113372933729497 -0.018496281029694972
2580000000.0 0.5236827310563446 0.4531507449822194
2600000000.0 -0.03594420127586511 -0.6657741172121494
2620000000.0 -0.44605016541591863 0.4534147762513017
2640000000.0 -0.06117899433953365 0.5983684517108397
2660000000.0 0.39943257652851083 -0.39807292631070457
2680000000.0 -0.4805101720503759 0.21012632852206697
2700000000.0 0.470111018865138 -0.11666281699214572
2720000000.0 -0.42003779581438994 0.14412362917402124
2740000000.0 0.4084096754768593 -0.007477591826032433
2760000000.0 -0.37682789080722406 0.03157732899583945
2780000000.0 0.3513365080897121 -0.07072045495244321
2800000000.0 -0.15602040896372937 0.3085003103559601
2820000000.0 -0.21968873666763702 -0.2514834080532804
2840000000.0 0.2418057514748427 0.2171882375537154
2860000000.0 0.060014215833825636 -0.3208049711850582
2880000000.0 -0.23028731306026065 0.24174372816902948
2900000000.0 0.3195585918459663 0.12529570432689643
2920000000.0 -0.2406926330979369 -0.2612063118425422
2940000000.0 0.03704701366242734 0.35419192874946914
2960000000.0 0.24740480391405237 0.24995348254908906
2980000000.0 -0.02683580229805592 0.34762782775987905
3000000000.0 -0.34789450205682604 0.047415955213964765
3020000000.0 -0.08463024168507094 -0.33949414649634374
3040000000.0 0.3149658711860164 0.1386336208877963
3060000000.0 -0.3400978646165251 0.00238660722545013
3080000000.0 0.29335784794119457 -0.16231192180551565
3100000000.0 -0.0793293613886426 0.3167842437209729
3120000000.0 -0.1739101525964996 -0.2626628572793098
3140000000.0 0.2809004909978197 -0.10152925201839061
3160000000.0 -0.16987653826758622 -0.2215694800562534
3180000000.0 0.13936050115793247 -0.2194372353131097
3200000000.0 0.23230758771785626 -0.009906201965410191
3220000000.0 0.17639407228904128 0.0948841368649766
3240000000.0 -0.1314749812974669 0.09933568243529145
3260000000.0 0.11940738530825593 -0.053541295624483974
3280000000.0 -0.045045577876172437 -0.09063082735169363
3300000000.0 -0.04430020695481388 -0.06507113618052206
3320000000.0 0.006499369051959349 -0.06124577252404776
3340000000.0 -0.019435122036329015 -0.04117462136843861
3360000000.0 -0.012740282683503279 -0.029828032480208783
3380000000.0 0.01977278228725985 0.017157468143749625
3400000000.0 0.004816932909384964 -0.02851515371626353
3420000000.0 0.005616832647855763 -0.0333017660032669
3440000000.0 -0.040894550728706076 -0.012112593751416129
3460000000.0 0.03223849630175664 0.052775051314886245
3480000000.0 -0.0732695771555274 -0.039600314951673356
3500000000.0 0.04868036160206733 -0.08692611058301136
3520000000.0 -0.10960901010122213 -0.02450386345183589
3540000000.0 -0.06298809412254004 0.1075699142197414
3560000000.0 -0.04184810190062757 0.12697768742869334
3580000000.0 -0.03000126593358891 0.1384930703665399
3600000000.0 -0.12811177507609564 0.08024312473762234
3620000000.0 -0.12322349803129731 0.10127953629800901
3640000000.0 -0.1475711961896129 0.0712830097917068
3660000000.0 -0.16475630088388227 0.017831831705257394
3680000000.0 -0.05184657657190762 -0.15445558669703338
3700000000.0 0.1559470637010652 -0.03819782847678779
3720000000.0 0.07028269362165315 0.14138551120969928
3740000000.0 -0.14972857832734593 -0.0021868380876676483
3760000000.0 -0.12150175480071007 -0.06460232811497478
3780000000.0 0.10737890862554643 -0.06988449895754047
3800000000.0 -0.0701286650543556 0.10571458078025435
3820000000.0 -0.13118406856442 0.01294199710496333
3840000000.0 -0.12881592341111006 -0.04726852271881912
3860000000.0 -0.13493390886314968 0.058342266954928036
3880000000.0 0.13615726496751732 -0.07421781407511102
3900000000.0 -0.05089018969795326 0.14979463962378547
3920000000.0 -0.157010875140764 0.003997497244214476
3940000000.0 0.07631598164744784 -0.1347470605041591
3960000000.0 0.07189638068600637 0.1368796014527334
3980000000.0 0.14267752430939035 -0.05428197565241657
4000000000.0 -0.08431572998428061 0.10834609016325703
