!Created with skrf (http://scikit-rf.org).
# Hz S RI R 50.0 
!freq ReS11 ImS11
400000000.0 -0.5038013968991818 -0.6581259549025098
420000000.0 -0.8363222854738946 0.054423647806241114
440000000.0 -0.27803760984707626 0.7311931396733936
460000000.0 -0.688754694103279 0.20574537824138406
480000000.0 0.1273531439290447 -0.648587009239924
500000000.0 0.4234272188910194 -0.4672009610516318
520000000.0 0.5291486929157355 -0.1561921558287492
540000000.0 -0.4598488722262633 -0.17243237119133845
560000000.0 -0.42567146918573606 0.15869421070866668
580000000.0 -0.37189476072919475 0.15262755352028015
600000000.0 0.35933180516900237 -0.07836065265397779
620000000.0 0.32111614029287827 -0.17010790354923136
640000000.0 -0.3257689302176703 -0.23592309840809386
660000000.0 0.3714187044359968 0.2386936658799875
680000000.0 -0.3368024073331648 -0.3083245028878964
700000000.0 0.3483397741486972 -0.26695944285295176
720000000.0 -0.3217048218072978 -0.27352147591274745
740000000.0 -0.05643830852438667 -0.38187518961945727
760000000.0 0.35731674686504344 0.06667574068778097
780000000.0 0.028882443476752468 0.3206390969856596
800000000.0 -0.20864059217394307 0.21697983112222877
820000000.0 -0.07075492967051833 -0.24006434115449835
840000000.0 0.19549283784106553 0.014991862643562379
860000000.0 0.030380866872701 -0.15180237600047158
880000000.0 -0.06156187627225885 0.08942835847506454
900000000.0 -0.07577268039369858 -0.02573204024862807
920000000.0 0.007302962563385111 -0.04930049084088336
940000000.0 0.015070278438404767 0.04071922338571402
960000000.0 -0.04970668896682676 0.045617159115177566
980000000.0 -0.07361992161335815 0.019811000492541236
1000000000.0 0.08158385537941124 0.02077400215918016
1020000000.0 -0.09762932294749203 0.004537761310721765
1040000000.0 -0.11486260058532966 0.022588586914207842
1060000000.0 0.0711426924093118 0.14536438779093622
1080000000.0 -0.1604641057646425 -0.10284142279509208
1100000000.0 0.1390556286758316 0.16829426287489255
1120000000.0 0.23388977432120278 0.07993520347920206
1140000000.0 0.059304307840632 0.2680406236960338
1160000000.0 -0.10188381419288355 -0.28375928039545056
1180000000.0 -0.3017646347249549 -0.11596666391692685
1200000000.0 0.28926935071411125 -0.17453633083788003
1220000000.0 -0.10919428188007173 -0.33892905916383625
1240000000.0 0.061867239199265935 0.3781941151484526
1260000000.0 0.16962234136567356 -0.35247651352377596
1280000000.0 -0.25462396377135277 -0.3092262892115459
1300000000.0 -0.3999310829045035 -0.022181248497790972
1320000000.0 -0.40533660568402013 -0.041708286540044964
1340000000.0 -0.28340245249849777 0.29589689772035677
1360000000.0 0.06618537964296356 0.39646093062363963
1380000000.0 0.24885535076336046 0.2973598008690655
1400000000.0 0.3674829622086884 0.038422291848056116
1420000000.0 0.34511593668908785 0.04606555017505242
1440000000.0 0.2848594354358379 -0.17742268176881082
1460000000.0 -0.21918878083433163 0.22870472500550942
1480000000.0 -0.241213549891264 -0.15472892216197764
1500000000.0 0.06853858471137457 -0.23184166092430397
1520000000.0 -0.12115305539430829 0.16089965329498573
1540000000.0 -0.0016159635911320027 -0.15521845611534255
1560000000.0 0.08471121603117832 -0.08715759226953698
1580000000.0 -0.1002619644754012 0.010718801436030647
1600000000.0 -0.07644866680815146 0.0013592279871133867
1620000000.0 0.003419532874448851 -0.057655682235875784
1640000000.0 -0.035645717358449035 0.0007745354903308415
1660000000.0 -0.005784675209413853 -0.011498587123036112
1680000000.0 -0.0079270990949249 0.01803890305974903
1700000000.0 -0.029702235332572317 0.017472837915713267
1720000000.0 0.013267420438566043 -0.03918316647598153
1740000000.0 -0.011314216633595837 0.046107728989071645
1760000000.0 0.03660960048626211 -0.0528989584001774
1780000000.0 -0.04395186393197015 0.07938177675346825
1800000000.0 -0.13337053518968722 0.0038819890511963516
1820000000.0 -0.1631671332014604 0.04608873015604564
1840000000.0 -0.08623172992424485 -0.18858374995819033
1860000000.0 -0.03404137792320646 -0.2449861104891056
1880000000.0 0.2747768629716744 -0.05453674587157045
1900000000.0 -0.15724651685677285 0.26913683702000785
1920000000.0 0.3209763153203621 -0.10793826044188762
1940000000.0 -0.3081103563254148 -0.20905146814443068
1960000000.0 0.3930143552332918 0.047682846185740375
1980000000.0 -0.22628514595604282 -0.3414504850260762
2000000000.0 -0.19804537612518497 0.3701147882235326
2020000000.0 0.34042843460093275 0.24532341607177988
2040000000.0 0.3434697113684206 0.24159522665546038
2060000000.0 0.4185248192462341 0.043499366487815834
2080000000.0 0.3207185552156023 -0.2737410888735903
2100000000.0 -0.2470089815642006 -0.3327643648468708
2120000000.0 -0.3939364092731711 0.06962937822571368
2140000000.0 -0.2321081897833312 -0.306733392409781
2160000000.0 -0.2773818874214118 -0.23046433782134568
2180000000.0 0.2499482785097048 -0.23589480928757575
2200000000.0 0.2543357768784646 0.22747419092457627
2220000000.0 0.21351192857473175 0.2684420958331939
2240000000.0 0.34544871461872 0.06494377541296319
2260000000.0 0.16146285914983083 -0.3189688497651433
2280000000.0 -0.28567268603285745 -0.23409566836761883
2300000000.0 -0.32562617353015944 0.20635830219458642
2320000000.0 0.20344005301054158 0.36628450370067256
2340000000.0 -0.23530071484405668 -0.3978217501182357
2360000000.0 0.5089162091695939 0.028751435302156566
2380000000.0 0.0016723163768654595 0.5592889292681873
2400000000.0 -0.6052166873679459 -0.0023039639999481104
2420000000.0 0.06803270538157313 -0.6432411235817042
2440000000.0 0.6455655453343192 0.2264498406971472
2460000000.0 -0.5059906437218382 0.5028966075626219
2480000000.0 0.10874160986446507 -0.726166975824418
2500000000.0 0.02087470346260754 0.7450218639049765
2520000000.0 0.11962512574625274 -0.7392224505612814
2540000000.0 -0.3791035459142278 0.6423107378211981
2560000000.0 0.7053100584918632 -0.21423759645621648
2580000000.0 -0.6758240840138687 -0.2431605289880803
2600000000.0 0.2969183093165393 0.6236898804767255
2620000000.0 0.1621873012192813 -0.6382996495755201
2640000000.0 -0.18503773763604736 -0.5918157075882468
2660000000.0 -0.4020638135898994 0.41661340154215304
2680000000.0 0.536630142162557 0.0510989940208397
2700000000.0 -0.4690269871096417 -0.17643173163750292
2720000000.0 0.4590391023062713 0.027738061916982783
2740000000.0 -0.4159295092523553 -0.042632146789398
2760000000.0 0.3296401238598397 0.19301673790977922
2780000000.0 -0.2896297365497504 -0.20639394777391254
2800000000.0 0.20222690002036212 0.2725988806680949
2820000000.0 -0.33165821669497386 -0.02684073303238897
2840000000.0 0.17296702451981205 -0.2795648562873259
2860000000.0 0.2764899163828231 0.179468072516991
2880000000.0 -0.3257265565915651 -0.008708425497241672
2900000000.0 0.23770462996935166 0.22232055755628446
2920000000.0 0.10344666487640922 -0.31279154675558957
2940000000.0 -0.23890609013712352 -0.233332408351367
2960000000.0 -0.3327046594949336 -0.06300485763306035
2980000000.0 -0.3320079231605309 0.07435100856409385
3000000000.0 -0.3429169868081239 0.011548398429644138
3020000000.0 -0.11949803930430361 -0.3145038294069478
3040000000.0 0.331744112384431 0.011478129348707879
3060000000.0 -0.1586930967699428 0.28632673650128077
3080000000.0 0.08614452120701185 -0.3078950457941209
3100000000.0 0.09492707868547408 0.2959280014767404
3120000000.0 -0.28811545144233935 -0.08676225940909883
3140000000.0 0.1551812154240409 -0.24576025026399598
3160000000.0 0.0443280706522955 0.2694432990880151
3180000000.0 -0.032417906472647764 0.2437708765804435
3200000000.0 -0.21374604276119175 0.006902177274548454
3220000000.0 0.14026850803906676 -0.11924109570587796
3240000000.0 0.12557332946114588 0.0949483446464816
3260000000.0 0.05673403153313155 0.11718897150077848
3280000000.0 -0.04505194623093042 -0.08882898393110623
3300000000.0 -0.05344773384159207 0.040939527710495714
3320000000.0 0.04154188663271002 0.009141268312476322
3340000000.0 0.019777892706770706 0.018752021620454123
3360000000.0 -0.005080516288172175 -0.024788528563684287
3380000000.0 0.02425788994627733 0.02323942293405361
3400000000.0 -0.024734340388297523 -0.04069250606769127
3420000000.0 -0.05868468493019188 0.016666385287540653
3440000000.0 -0.06364375192632388 -0.02256088084515974
3460000000.0 0.056887906827757975 0.04922344602667105
3480000000.0 0.09065853757150795 0.007623393887300589
3500000000.0 0.1091897150045919 0.030531343316286225
3520000000.0 -0.10973786522139171 -0.07380359895900888
3540000000.0 0.1280515213561825 0.06866894485099072
3560000000.0 0.022497691286404758 -0.14796571584463006
3580000000.0 0.14821543050682484 -0.043467232883577143
3600000000.0 0.08130907430423555 0.13991443317418276
3620000000.0 -0.10585007761456909 0.13401510093945102
3640000000.0 -0.11081661586645437 0.13989107172136686
3660000000.0 0.10133799507161133 0.1476132013707431
3680000000.0 0.15388752604118122 0.08206418658718102
3700000000.0 0.002998386116032668 0.16753561966343986
3720000000.0 -0.15665833379872285 -0.031277884198056126
3740000000.0 0.1505287459354822 -0.00589994023558255
3760000000.0 0.041972895211935445 -0.1356761605559519
3780000000.0 0.0005341043940946198 -0.12789726139953186
3800000000.0 0.10447856280076534 0.04887038284155328
3820000000.0 0.07585432677850804 -0.08182704504884364
3840000000.0 -0.015263875266516408 0.11430885530341414
3860000000.0 -0.11891334410610574 0.03669199548859757
3880000000.0 0.10595146881417981 0.08069680525928785
3900000000.0 -0.08466445242997583 -0.10774689927238905
3920000000.0 0.10398463111625157 -0.08647443657373245
3940000000.0 -0.09659979186915617 0.09232112292307743
3960000000.0 -0.12305326356304928 -0.053675023192497014
3980000000.0 -0.11843522206910322 0.05167416371987125
4000000000.0 0.0856028906526805 0.07827957423092322
