!Created with skrf (http://scikit-rf.org).
# Hz S RI R 50.0 
!freq ReS11 ImS11
400000000.0 -0.6512451630889655 -0.5212414342336817
420000000.0 -0.7616579020063419 0.34992602601092193
440000000.0 -0.2072711671927787 0.7550261486735981
460000000.0 -0.5161795453547698 0.5023506272677578
480000000.0 0.24723700519226036 -0.6122495782990923
500000000.0 0.14873067882262017 -0.6200585889800014
520000000.0 -0.19919071222583767 -0.5168113691665439
540000000.0 -0.3770241273424728 0.29180522362444933
560000000.0 -0.2931717389280191 0.3411829962000182
580000000.0 -0.1569209154079738 0.3595504235802198
600000000.0 0.3538496334979664 -0.06562044991536187
620000000.0 0.3136929739755464 0.1719585606457234
640000000.0 -0.23411330339824193 -0.3256181548923433
660000000.0 0.35636634130808176 0.2628516973223688
680000000.0 -0.16119405196696188 -0.42433874867355004
700000000.0 0.4239150274484358 -0.15461518043995012
720000000.0 -0.17910324910528824 0.3937815583138687
740000000.0 -0.03873449086687254 0.37760657328663827
760000000.0 0.21881894050609266 -0.2711086608686115
780000000.0 0.31415573520307716 0.04931640980994416
800000000.0 -0.060680177705482445 0.2779996359747299
820000000.0 0.21656812964326624 -0.10576608086175883
840000000.0 -0.17495568268048056 -0.08769897514143274
860000000.0 0.036291594851025795 -0.16322937719822417
880000000.0 0.036280613180418066 0.10997530741712155
900000000.0 0.056729726936490144 -0.06563180029234478
920000000.0 -0.04377965394220956 -0.02210900594197613
940000000.0 -0.017642546648487755 -0.024649159289350676
960000000.0 0.0508275636432494 -0.0007656263766962427
980000000.0 -0.03912895353147628 -0.04576702880816625
1000000000.0 0.017489517313712965 0.0745952672001766
1020000000.0 -0.08727068670256236 -0.04969925559841724
1040000000.0 -0.019553989476783655 0.11895163891102416
1060000000.0 0.15100539278505282 -0.010088315578898601
1080000000.0 -0.06152037450610853 -0.16834834820131664
1100000000.0 -0.1565931658017843 0.13912759676097944
1120000000.0 0.2283828832091949 0.09408520948091288
1140000000.0 0.12309627699971669 -0.24103646316913396
1160000000.0 -0.2793190708058679 0.0694007881108495
1180000000.0 -0.25447162607513385 -0.17207016241301984
1200000000.0 -0.03203649793783746 0.32747111089357306
1220000000.0 0.24616752765574634 -0.2666512895020604
1240000000.0 -0.14906601718045523 0.3602617739773399
1260000000.0 0.04714183159497037 -0.40330260790843603
1280000000.0 -0.3454000662935336 0.21994662790947045
1300000000.0 -0.11046365864069815 0.3941894356900056
1320000000.0 0.18559774962527295 0.3697223734269059
1340000000.0 0.3749041834037575 0.16830652262364493
1360000000.0 0.33723930793187695 -0.2087242357365142
1380000000.0 0.3635953629165878 0.11769031907691399
1400000000.0 0.3552564856217215 -0.10399756759187027
1420000000.0 0.17442725532131972 -0.3054448897477693
1440000000.0 -0.23794587334892228 -0.2315051821962484
1460000000.0 -0.031492358252915534 0.30486043456821776
1480000000.0 0.05227745761872003 -0.27236387583653787
1500000000.0 0.028249488342101958 0.23961788897710184
1520000000.0 0.1934220872792391 -0.07793354630568985
1540000000.0 0.03790873936961669 0.16875585154544692
1560000000.0 -0.08700016462922047 0.11001306726530248
1580000000.0 -0.07723242017009553 0.07309011649889233
1600000000.0 0.044554010698986075 -0.056575451009065345
1620000000.0 -0.05114607326789395 0.006468096298701011
1640000000.0 0.02570392139951478 0.019761147384566247
1660000000.0 0.012374935141412666 0.0031583723600809594
1680000000.0 -0.004436630661098383 0.0009522700423458417
1700000000.0 -0.006181373909683486 -0.01534042510607954
1720000000.0 -0.02356039170437179 0.009898517800817758
1740000000.0 -0.030917378197031053 -0.03559119320223459
1760000000.0 0.00832697634975701 -0.07360925993135249
1780000000.0 0.07537889920978903 -0.06971587992049348
1800000000.0 0.057691625699034965 -0.12475555053741058
1820000000.0 0.1673222656722544 -0.00035821238205408927
1840000000.0 -0.15337290724314423 -0.13054142782578196
1860000000.0 0.21229972194682573 -0.11813958109721479
1880000000.0 0.05597245553333003 0.2794180548985699
1900000000.0 -0.2999451842938679 0.11092005978529391
1920000000.0 0.21240861010264192 -0.2752459079006716
1940000000.0 -0.3467206454599563 0.13867279869094268
1960000000.0 0.39262670543587014 -0.024508090754558114
1980000000.0 -0.16393316635739416 -0.3724971227590325
2000000000.0 -0.4009467767796248 0.11377909928156715
2020000000.0 -0.23537485024790533 0.3527663269835753
2040000000.0 0.20027882303883807 0.38092000609315346
2060000000.0 0.35509793666891243 -0.24082298882518763
2080000000.0 0.037946975830750795 -0.4169590891298329
2100000000.0 -0.2202299052639934 -0.3423187492685282
2120000000.0 -0.2823110765859742 -0.2754317148883069
2140000000.0 -0.3569962715633803 -0.1356047157714507
2160000000.0 0.05938812842745474 -0.35769931542578964
2180000000.0 0.3133106471747317 -0.14526937942803164
2200000000.0 0.27139022494917625 0.1992351405681451
2220000000.0 -0.011535298766998749 0.33502845642548396
2240000000.0 0.17938428560326164 0.29475703065183023
2260000000.0 0.31800599262261536 -0.14792161579335864
2280000000.0 0.030822812975637215 -0.3607369243572698
2300000000.0 -0.381710728845837 0.00151377522068008
2320000000.0 0.2731673495409482 0.3086304218371069
2340000000.0 -0.3533128184691508 -0.28219389359242136
2360000000.0 0.49368542446570757 -0.04511854380191512
2380000000.0 -0.08692668894955995 0.5382574590884667
2400000000.0 -0.5857632518200004 -0.09455142510722689
2420000000.0 0.05006577019277571 -0.6349967801648264
2440000000.0 0.6701640881015621 0.07010486209082531
2460000000.0 -0.34368080808518475 0.6123344378335926
2480000000.0 -0.16864809606539666 -0.7024060310481522
2500000000.0 0.3131834129457206 0.6638989152776367
2520000000.0 -0.19429320371531805 -0.711277972515282
2540000000.0 -0.14348306826697294 0.7204622874900201
2560000000.0 0.5666260083529883 -0.4541262276312575
2580000000.0 -0.6979895810292978 -0.12331607581756646
2600000000.0 0.4087855300499299 0.5469476868117306
2620000000.0 0.09976223384612917 -0.6449540161536417
2640000000.0 -0.3002013221287925 -0.538343087151439
2660000000.0 -0.1281584951882339 0.5628768467805039
2680000000.0 0.34591995297190137 -0.4101291593625021
2700000000.0 -0.41102644886803325 0.2755695225135453
2720000000.0 0.3926078949798697 -0.2265286664136887
2740000000.0 -0.40419145014089786 0.09004316607390174
2760000000.0 0.38088943152435467 -0.04507329475513152
2780000000.0 -0.3478060698694794 0.09100069773811642
2800000000.0 0.29454379852104745 -0.17830454325919523
2820000000.0 0.031358005993569284 0.334956362252313
2840000000.0 -0.29210641696100775 -0.15231436434024137
2860000000.0 0.32633066909531466 0.026837513224442427
2880000000.0 -0.3063930536261474 -0.1152428050084372
2900000000.0 -0.00450350103647354 0.33369446625651716
2920000000.0 0.18601072783253825 -0.28826404687227436
2940000000.0 -0.3462889404492697 -0.0009059740948761698
2960000000.0 -0.09767981409151727 0.3301132833292271
2980000000.0 -0.20813633881036017 0.26931202719474046
3000000000.0 -0.3083319050113674 -0.149210392279101
3020000000.0 -0.016458050062328557 -0.340926882235467
3040000000.0 0.2932197037358273 0.16792599400632563
3060000000.0 -0.25058168705644435 0.22043082413305648
3080000000.0 0.0873409950378194 -0.3141552359349626
3100000000.0 0.1779161189807165 0.26194728886820645
3120000000.0 -0.297874445029654 -0.05197424349155493
3140000000.0 0.24404568989784778 -0.15485173409128108
3160000000.0 -0.2725908530776296 -0.016686309007818003
3180000000.0 -0.15336866541870073 -0.20208002162353494
3200000000.0 -0.10782768577746159 -0.1993238131701244
3220000000.0 -0.045944649770477235 -0.1897493688615386
3240000000.0 0.04911197272282695 -0.1552129291802779
3260000000.0 0.1294233514990829 -0.0013062045303892918
3280000000.0 0.0642811570336662 0.07534458968901031
3300000000.0 -0.03615946044608571 0.06431602631205396
3320000000.0 0.03867647989983966 -0.03678864229366762
3340000000.0 0.03761895091048841 0.0059506597914602164
3360000000.0 -0.02144788692031695 -0.02236076731046748
3380000000.0 -0.01093436396085802 0.030298421499184727
3400000000.0 -0.02814033066335744 -0.02749429920736035
3420000000.0 -0.00022603573423791743 0.04954669551745646
3440000000.0 0.05235962242840134 0.03007817741284356
3460000000.0 0.028013317337463685 0.06951414806815011
3480000000.0 0.04465870181445573 0.07799240789708395
3500000000.0 0.040019081965917656 0.09788142131456475
3520000000.0 0.075450364993166 0.09578898489656658
3540000000.0 0.013288421734361972 -0.13690366574086857
3560000000.0 -0.13952192571976438 -0.04057311835472141
3580000000.0 -0.15281869061005846 -0.0010585220082878562
3600000000.0 -0.1582890796392012 -0.02678227159472441
3620000000.0 -0.15003446881227905 -0.0697362127965847
3640000000.0 -0.14789527236356162 -0.08758626095024737
3660000000.0 -0.14946922254443024 -0.08792330132767809
3680000000.0 -0.06395839302672046 -0.15765585083892447
3700000000.0 -0.02594975267132949 -0.16337042567456808
3720000000.0 0.1289639544033747 -0.09075005289980927
3740000000.0 0.08662180961772559 0.1194602789672635
3760000000.0 0.026226021567306895 0.132621264438536
3780000000.0 -0.12007694453791398 -0.025210837133048378
3800000000.0 0.11422531459868702 -0.03153671164664499
3820000000.0 0.03426566766809103 0.11291625895138302
3840000000.0 -0.11815879085450529 0.00730184264019127
3860000000.0 -0.0137516934065856 -0.12473148877673887
3880000000.0 -0.11080618859839295 -0.0756390698076659
3900000000.0 0.12299843130117055 0.06506215952382417
3920000000.0 -0.006744120498399839 0.14031246818830218
3940000000.0 -0.1397765427811398 -0.011873121992305292
3960000000.0 -0.12989388463940243 -0.04920238290881282
3980000000.0 -0.13106683332492608 0.013009149174263615
4000000000.0 -0.11317261262251009 0.03666743371735544
