!Created with skrf (http://scikit-rf.org).
# Hz S RI R 50.0 
!freq ReS11 ImS11
400000000.0 -0.8292781753815072 0.2243582058929959
420000000.0 0.20346389715172614 0.8173935166195843
440000000.0 0.6946210365750924 0.3695099300500731
460000000.0 0.3415951729181104 0.6325354687725327
480000000.0 -0.5220958937627329 0.3960300368540512
500000000.0 -0.5934328228102222 -0.048615446230735826
520000000.0 0.51121029777432 -0.1031017301409737
540000000.0 0.06639576095145446 -0.458489053755019
560000000.0 0.3039184449293757 0.3223595413330208
580000000.0 0.12576904451043974 -0.37325488409979724
600000000.0 -0.3461540087537307 -0.07423347699335447
620000000.0 -0.28225417083013693 -0.22840955477760483
640000000.0 0.1991823039399323 -0.35791106918886006
660000000.0 0.3085788936092333 0.3212488393656435
680000000.0 -0.17479829219342144 -0.41915506601576225
700000000.0 0.4349344265526021 -0.11108548741241689
720000000.0 -0.22116803825063033 0.37558685624316657
740000000.0 0.2799325711338839 0.26336573700803606
760000000.0 -0.09371733367805961 -0.331260521306747
780000000.0 0.09021277632156863 0.3141519735019815
800000000.0 0.06991053709315584 -0.2936942664327648
820000000.0 -0.23686077279407397 0.07073667180689618
840000000.0 -0.044564695820881094 -0.192182184943636
860000000.0 -0.13788165896619764 0.07781158180468736
880000000.0 -0.05564174807257146 -0.1052534503368351
900000000.0 0.04536063240241974 -0.0861295792610862
920000000.0 0.049524292255076104 0.04492744584527879
940000000.0 -0.04303316084409323 0.024445229241458206
960000000.0 0.04210232472999979 0.04444562803664279
980000000.0 -0.00864415822295139 -0.0653505487030935
1000000000.0 0.004754678508419618 0.07591106603053088
1020000000.0 0.06187228253252502 0.0700085960302037
1040000000.0 0.020813416434189252 0.11323199160947636
1060000000.0 -0.07814484414093059 -0.13260167164977527
1080000000.0 0.13452369808705306 0.12902660250471087
1100000000.0 -0.17311138035409274 -0.13420532969417553
1120000000.0 -0.16321899506179352 0.18647026336687922
1140000000.0 -0.26299270241310313 0.06712966573735454
1160000000.0 0.20108930544754747 0.21392333066137706
1180000000.0 -0.1762812118553102 0.26051550733526174
1200000000.0 0.2334171658731286 -0.24742539362368793
1220000000.0 -0.3464093225715514 0.12424201288889287
1240000000.0 0.38810385721414903 -0.05162915831651527
1260000000.0 -0.3985310386665482 0.07064477957986155
1280000000.0 0.05066504356635911 0.4022077243176005
1300000000.0 0.01688920208803403 0.4057079032726071
1320000000.0 -0.14115045886299182 0.39012844347715214
1340000000.0 0.24464071333112286 0.34220171091609813
1360000000.0 0.4131011288331158 -0.053000090852498995
1380000000.0 0.004283108841354059 -0.39891701449255795
1400000000.0 0.09018135829714634 -0.3648850854292774
1420000000.0 0.22871711164772593 -0.2777183060702851
1440000000.0 -0.11043758797191208 -0.33060425839425184
1460000000.0 0.1582233872838072 0.2861886839207864
1480000000.0 -0.2934311108724725 -0.03196990481225979
1500000000.0 0.18173679007198304 -0.1725387587014503
1520000000.0 -0.035870169385655945 -0.20486589727673135
1540000000.0 -0.1075613998537055 -0.1292991113051361
1560000000.0 -0.07337364283623139 -0.12059065887111114
1580000000.0 0.10903189896415641 0.04276836095350043
1600000000.0 -0.01815159194046214 0.08414841419476793
1620000000.0 0.018304454740039194 0.05647931749630502
1640000000.0 0.02317493652622042 -0.01762634802808924
1660000000.0 -0.002485937973738199 0.005959241986921313
1680000000.0 0.004250062955023522 -0.023856869963736718
1700000000.0 -0.03433113239892834 0.016658975638355306
1720000000.0 0.008334515896189944 -0.04451419999318658
1740000000.0 0.03883037801321633 0.05035444096506884
1760000000.0 -0.006657539670212177 0.08736001938219685
1780000000.0 0.10951427922317862 -0.04458827006176528
1800000000.0 0.08714721363698956 -0.12589386242255307
1820000000.0 0.12712380517847718 0.13180791346272366
1840000000.0 -0.21514479996356878 -0.03256183655318055
1860000000.0 0.1377608981955319 -0.21412073415114877
1880000000.0 0.1615156872891458 0.24087705124779052
1900000000.0 -0.2977323424349573 -0.11833906282838744
1920000000.0 0.27560893920434343 0.21890413676996776
1940000000.0 -0.3480525843747864 -0.15383339949800337
1960000000.0 0.34584202641943795 0.1914236536052068
1980000000.0 0.188842980928093 -0.3583358417262681
2000000000.0 -0.14616029535779637 -0.38921873373811067
2020000000.0 -0.4081193344886486 -0.12609673183121534
2040000000.0 0.026989204560218798 0.4314935441553216
2060000000.0 0.39165395371757983 -0.16489494965350557
2080000000.0 0.09552778236295002 -0.4017957064560442
2100000000.0 -0.1688629565283136 -0.3593636337632896
2120000000.0 -0.2057344685837029 -0.32248608598042083
2140000000.0 -0.2735928537695333 -0.2446004705511342
2160000000.0 0.20220253604009114 -0.28809535034151623
2180000000.0 0.1323927907036756 -0.3098778851341617
2200000000.0 0.06868668121958404 -0.3155615758583694
2220000000.0 0.22831790401017732 -0.21908211108013928
2240000000.0 -0.015345339250160383 -0.3223363716676007
2260000000.0 -0.32695017896064554 0.021746340516573547
2280000000.0 0.10712503855597438 0.31982326826556606
2300000000.0 0.345572299588554 -0.08846885299383109
2320000000.0 -0.3655728549639713 -0.13864730676379122
2340000000.0 0.4146137407654749 -0.1276415837491479
2360000000.0 0.07335229478017846 0.47598406651526926
2380000000.0 -0.4997522552483954 0.18328967878964228
2400000000.0 -0.3105041944039874 -0.4935972074069071
2420000000.0 0.4816494222812923 -0.40693689107311803
2440000000.0 0.49740903324080304 0.4500901516422382
2460000000.0 -0.5815557231159443 0.3936190739114175
2480000000.0 0.06888122940946816 -0.7212262459982172
2500000000.0 0.18722718360649615 0.7135583585028662
2520000000.0 -0.18539954070282424 -0.7201686469852796
2540000000.0 -4.39051166761768e-06 0.7409047081219641
2560000000.0 0.3948426079098767 -0.6161099908240412
2580000000.0 -0.6703877580925796 0.24809283660959375
2600000000.0 0.6560241273385712 0.2149514396122386
2620000000.0 0.614665588462619 -0.2430286984392476
2640000000.0 -0.6288588845383828 -0.005289204403538224
2660000000.0 0.5537525415001916 0.2087071849175461
2680000000.0 -0.41274509930500336 -0.3638293347804934
2700000000.0 0.09000022669283221 0.5022456941092215
2720000000.0 0.16345533118298625 -0.44585192609234636
2740000000.0 -0.3121230751106455 0.3176384940953707
2760000000.0 0.25020801744228943 -0.3366707399601524
2780000000.0 -0.25518974956480756 0.3039029646870851
2800000000.0 0.34377163666708715 -0.1670773993217361
2820000000.0 -0.374846875116455 -0.024807576150518953
2840000000.0 0.34545971274209386 0.14495271525633038
2860000000.0 -0.3028046929490263 -0.22393178368227362
2880000000.0 0.18230055959383815 0.32920123822640124
2900000000.0 0.31160063533384774 -0.21216391106631274
2920000000.0 -0.0805481216254374 -0.367915205292745
2940000000.0 -0.17589406867640034 -0.3319732802544884
2960000000.0 0.00434968879188008 -0.37381666579422734
2980000000.0 0.36847127358988485 -0.06266535369932051
3000000000.0 0.11754008916892963 0.35800323665701195
3020000000.0 -0.32898919098370427 0.1799699392846846
3040000000.0 -0.0914711701134304 -0.35844768640027685
3060000000.0 0.28748998795213254 0.21742956139195901
3080000000.0 -0.28297264128815286 -0.20432571037031766
3100000000.0 0.25769744091513946 0.21933358960233465
3120000000.0 -0.2069622922567048 -0.252582692709662
3140000000.0 0.3059216120131736 -0.06554263267121721
3160000000.0 -0.2380554829197911 -0.16298737671197575
3180000000.0 0.2565708472545908 0.02856405311096738
3200000000.0 0.011556032257849165 -0.22619144367863062
3220000000.0 -0.12936651444575487 -0.14943076499480376
3240000000.0 -0.1320278304741307 -0.11013265174403727
3260000000.0 -0.10941149823363425 -0.09410250848484511
3280000000.0 0.10546518027812073 0.045588435527627175
3300000000.0 -0.07243580506460641 0.06248800982691259
3320000000.0 0.050690998617537515 -0.06787416390032999
3340000000.0 0.008570195509180534 -0.0776868760600078
3360000000.0 -0.012172111008280436 0.06968085979837559
3380000000.0 -0.0025151609445625113 -0.06059742235914034
3400000000.0 0.016453868756281412 -0.04970028978864051
3420000000.0 0.001416000873891137 -0.0481905107812584
3440000000.0 -0.034770328660361 0.027578448462485493
3460000000.0 -0.012565096272453002 0.03558186111703456
3480000000.0 -0.025180394801620935 -0.008478510607760878
3500000000.0 -0.012690247808601791 -0.014668208663258268
3520000000.0 0.020028265538714632 0.008116218927225796
3540000000.0 -0.028367247637552016 0.002847754848520462
3560000000.0 -0.03272440209671158 -0.024378215859547376
3580000000.0 -0.052975706355218116 0.021195755519346136
3600000000.0 0.07042343400322873 -0.022549132101398615
3620000000.0 -0.08544655009211054 -0.023543099363870466
3640000000.0 -0.019877420182444455 -0.10364929380292702
3660000000.0 0.11045856285343296 -0.05745967874784966
3680000000.0 0.11401685507011067 0.08971087586478349
3700000000.0 0.16787567450904572 -0.003758178391891293
3720000000.0 0.07541246155035615 -0.17191629789117452
3740000000.0 -0.15261012676894736 -0.14279776657198007
3760000000.0 -0.008253059466462804 -0.2309834440528324
3780000000.0 0.09196469578174042 -0.23564387323520675
3800000000.0 -0.022589670202109034 -0.27487067657771314
3820000000.0 -0.26712153738677996 -0.12365851469837894
3840000000.0 -0.14413946907874176 0.2697142497053932
3860000000.0 0.29446980288715646 0.10076447729217042
3880000000.0 0.2276312666435455 -0.21776662085704626
3900000000.0 -0.1287207378991654 -0.29012167560512925
3920000000.0 -0.1842696964979188 0.25722752338634125
3940000000.0 0.28560888976101384 0.13263739287064744
3960000000.0 -0.21517142221043375 -0.2171066044821156
3980000000.0 -0.2859072181133512 0.06702976946178632
4000000000.0 0.2672079379752935 -0.06279475097508086
