!Created with skrf (http://scikit-rf.org).
# Hz S RI R 50.0 
!freq ReS11 ImS11
400000000.0 -0.8412726375344464 0.18760919669770004
420000000.0 0.30294285778647195 0.7884848387551542
440000000.0 0.7755735349576032 0.1390435028250766
460000000.0 0.6003427805420637 0.386041202890032
480000000.0 -0.6304772449948723 -0.11460040337787815
500000000.0 -0.21043159397466052 -0.5661490257040868
520000000.0 0.4037455842555184 0.3431030552720293
540000000.0 0.14525349841502133 -0.4613530191826551
560000000.0 0.05184866897453456 -0.45104043895635754
580000000.0 -0.28023609474208816 -0.28549891213482015
600000000.0 0.35818314288667535 0.02900095212861497
620000000.0 -0.03413965176857617 0.35317459973303905
640000000.0 -0.08561331686119174 -0.38717109159318275
660000000.0 0.023772918488362927 0.43486229918840613
680000000.0 0.2796185472589504 -0.35641213826154083
700000000.0 0.442099913724392 0.09588812017210863
720000000.0 -0.43492181757103376 -0.030717197955548576
740000000.0 0.2739875604395123 0.29440527124410715
760000000.0 -0.03594561813006445 0.3521739238778368
780000000.0 0.06335095549000457 -0.3033500932113759
800000000.0 0.2532294556477327 0.12469700479453796
820000000.0 0.1902771825469267 0.15268161414852133
840000000.0 -0.13460738935926367 0.15960624387671515
860000000.0 -0.1779179527679286 0.018868129887525623
880000000.0 -0.11533424078291062 0.07031963771657766
900000000.0 -0.08852268512308731 0.024508984449281103
920000000.0 -0.06327527181339286 -0.011156414783940482
940000000.0 0.02903862906094626 -0.024696005680974586
960000000.0 -0.04278691615781309 -0.029312402811987114
980000000.0 0.02013753832016059 0.06877621467875827
1000000000.0 0.04910166478034684 -0.052971327528894475
1020000000.0 0.09407709166418997 0.01067234847351072
1040000000.0 -0.09549918855577257 0.058039215378646425
1060000000.0 -0.11735981160487186 -0.07541928723524081
1080000000.0 -0.1600701667770251 0.07873290426903068
1100000000.0 0.20862344967182017 -0.025273597589678575
1120000000.0 0.14579542495539713 -0.20396110344489624
1140000000.0 -0.19864418853479718 -0.2037991884261889
1160000000.0 0.2088693296019467 -0.22997276134079653
1180000000.0 0.09998512981012043 -0.3043169470954782
1200000000.0 -0.2659511581664349 0.19441989933107012
1220000000.0 -0.34559569844418625 0.05280727233672298
1240000000.0 0.1219205859358332 0.36653166973262613
1260000000.0 0.15604385918279168 -0.3788705578131476
1280000000.0 -0.10967185309653325 0.412572639803647
1300000000.0 0.23948904023674536 -0.3451669113578667
1320000000.0 0.09609600174571944 -0.3977664610391264
1340000000.0 0.38973654867391744 -0.0851063842526701
1360000000.0 -0.19231004325195108 0.34711556326768495
1380000000.0 -0.24600302312043282 0.32589283746689035
1400000000.0 0.15737522771951082 -0.37236252197039804
1420000000.0 -0.12498277176488336 0.3529059494640084
1440000000.0 0.3248745825715834 0.08997007361183705
1460000000.0 0.26034092012822463 0.15369373609666462
1480000000.0 0.24855826524296093 0.12358150531615386
1500000000.0 0.04688524880978978 -0.25082617239865845
1520000000.0 0.14318670940639225 0.18361269222777454
1540000000.0 0.18845072342706182 0.0008931647346373695
1560000000.0 -0.013995504230754517 0.14679069651062585
1580000000.0 -0.0076467265904972 0.1054538692143103
1600000000.0 0.05854064064674417 -0.020071434092817586
1620000000.0 -0.014282486834308196 -0.04488888956552524
1640000000.0 0.032415796989758584 0.003157283575709863
1660000000.0 -0.010898713466887729 -0.02134869102661612
1680000000.0 0.005176311295131234 -0.013552990335522524
1700000000.0 -0.018851513691779575 0.017403896207137587
1720000000.0 0.0005223020737180483 0.047190875449165844
1740000000.0 -0.013727120811639244 -0.0771242173456164
1760000000.0 -0.09981977990472522 0.0012184714359134777
1780000000.0 0.012107648532869247 0.1230141845924972
1800000000.0 0.11468386350470502 0.09824494025538466
1820000000.0 0.15549243097517634 -0.06513717636239502
1840000000.0 0.11212109895660535 0.17229045773464635
1860000000.0 -0.21629673448806103 0.14152440260787102
1880000000.0 -0.2019418510651166 0.22241709290911277
1900000000.0 -0.31099287588874736 -0.11839887983446087
1920000000.0 0.20104701969442298 -0.296788575228401
1940000000.0 -0.20476356761000566 0.3126461058784245
1960000000.0 0.31433495115699994 0.22399064114941825
1980000000.0 0.37072383272071274 -0.14999645847111648
2000000000.0 0.041095712644151766 -0.4122087709274382
2020000000.0 -0.4063822856907396 -0.12643567907454992
2040000000.0 0.047125572830840165 0.42899704980731485
2060000000.0 0.39869232059455323 -0.14472182704881287
2080000000.0 0.05811989095233838 -0.409565523401694
2100000000.0 -0.3038516580307669 -0.2545727976187195
2120000000.0 -0.22303958146111716 -0.3055568384061502
2140000000.0 -0.1076147308414578 -0.3499387245842334
2160000000.0 0.2912528731034247 -0.20149816140261503
2180000000.0 0.19299129443878907 -0.2777272474983172
2200000000.0 -0.1783678759046743 -0.2678294381904787
2220000000.0 0.08072237613413419 -0.298960351816218
2240000000.0 0.30484559149990487 -0.07182228325427208
2260000000.0 0.2685268911066495 -0.17681581160349893
2280000000.0 -0.2651899517006552 -0.21291970453207834
2300000000.0 0.3335981057332089 0.13271873300786707
2320000000.0 -0.2951984074057443 -0.24098769375605902
2340000000.0 0.4008322237780887 0.12946551087079414
2360000000.0 -0.06866084815035778 0.46529024800321417
2380000000.0 -0.5256106885762064 0.00680634417635637
2400000000.0 -0.28602969719929955 -0.502684544908852
2420000000.0 0.33058276024749517 -0.5317391764891809
2440000000.0 0.6697520068565042 0.03454559276351179
2460000000.0 -0.37097637121199595 0.5947341428339574
2480000000.0 0.23567556196856007 -0.6771867282483334
2500000000.0 -0.05923817453909281 0.7261274430450836
2520000000.0 -0.05229242639348521 -0.7279798885812436
2540000000.0 0.48214571593139594 0.5589101131562209
2560000000.0 -0.4513351744628724 -0.5749331596366165
2580000000.0 -0.05801221727497384 0.7098776866783605
2600000000.0 0.4388328581890561 -0.5287666077235956
2620000000.0 0.11870423918517119 -0.6476428590614935
2640000000.0 -0.530567597930664 0.33512677631211446
2660000000.0 0.5932844952961263 0.019685339991662724
2680000000.0 -0.5468553065770525 0.08657779813422119
2700000000.0 0.48698593080716795 -0.14984076717951783
2720000000.0 -0.4574020743500588 -0.051279055663116954
2740000000.0 0.1234353853446658 0.4070970878948241
2760000000.0 0.03679843527841066 -0.4078337320927856
2780000000.0 -0.010480174531763843 0.3962620796797999
2800000000.0 -0.08468591270246574 -0.38298104883245276
2820000000.0 0.3117850439574221 0.2204011554182019
2840000000.0 -0.23159814623033936 -0.2888370636312216
2860000000.0 -0.25617455874994105 0.26395967154024635
2880000000.0 0.2158295673904622 0.2976276458977907
2900000000.0 0.31281886757372607 0.20461142223723328
2920000000.0 0.28895438141401647 -0.2567116932419431
2940000000.0 -0.3129569783274615 -0.23425088395765814
2960000000.0 -0.12291324171280364 0.35879364266640673
2980000000.0 -0.3689305789652207 -0.035797606097882274
3000000000.0 0.3330439440017281 -0.16167425146072087
3020000000.0 -0.3609859093722099 0.09545467072156161
3040000000.0 0.22400718815451534 -0.29454697850372963
3060000000.0 0.3597490716511243 -0.06650168582989664
3080000000.0 -0.0072697806033468464 0.3554979194180477
3100000000.0 0.33761778486591415 -0.028764263544851926
3120000000.0 -0.30831781799399616 -0.08421784102915295
3140000000.0 0.0636708306954389 0.29891224579950354
3160000000.0 -0.022154376902892584 -0.2901493876220467
3180000000.0 -0.19022380088469681 0.19284083351833475
3200000000.0 -0.11703152865436266 -0.21033701380445657
3220000000.0 0.1489720056810575 0.13638782167055058
3240000000.0 -0.15322337715169812 0.05677344098035554
3260000000.0 -0.04609550732452354 -0.12928926461875792
3280000000.0 0.12063601681596096 -0.04410555676896807
3300000000.0 0.08629614886067988 0.08948198138454233
3320000000.0 0.06422701213947214 0.08217820338219574
3340000000.0 -0.06587543416439771 0.0469414517745079
3360000000.0 -0.00572514067239912 0.06373025025575436
3380000000.0 0.02524846354118063 -0.06962423916101906
3400000000.0 -0.035275554863805764 0.08120727133744035
3420000000.0 0.022806470937525188 -0.07491238908337138
3440000000.0 -0.042507924911826755 -0.022075292551464603
3460000000.0 -0.037033699888830984 0.01127535231668596
3480000000.0 -0.017218938854339436 0.02414885909531989
3500000000.0 0.025752112054217728 0.013327824321002615
3520000000.0 0.026584913288177067 0.009531039365951994
3540000000.0 0.018437290562075742 0.028590187296494065
3560000000.0 0.015073418859261892 0.04902177197116916
3580000000.0 -0.04154471697455561 0.07980166994762979
3600000000.0 0.10035507155985927 0.07222879011196823
3620000000.0 0.11626278141127404 0.06033457098350611
3640000000.0 0.13930086970985478 0.049206741007614144
3660000000.0 -0.1788459370518404 -0.011486128184589323
3680000000.0 0.07547061930911389 0.19945380309728447
3700000000.0 0.19020225099466576 0.11507620396999836
3720000000.0 -0.1839652672510089 0.11716467514578488
3740000000.0 -0.23881255987527866 -0.11270075677276087
3760000000.0 -0.021374233114372275 0.2668716635214319
3780000000.0 -0.1944143479604982 0.10402446348850576
3800000000.0 0.0645645135590109 -0.22662595780900918
3820000000.0 -0.1008515015874064 -0.2702104750839983
3840000000.0 -0.09754541174956959 0.2728478928284007
3860000000.0 0.09449340766816867 0.2690628662483618
3880000000.0 -0.2144594569261571 -0.1924974134870464
3900000000.0 0.0626378888672626 -0.29432698854923894
3920000000.0 -0.11515662533198616 -0.2483615774863782
3940000000.0 0.2701301919550744 0.07656024636842763
3960000000.0 -0.0960969944188866 -0.2523100280897998
3980000000.0 0.23739689964795163 -0.09299365417875886
4000000000.0 -0.20759413523481907 0.10764932914878769
