!Created with skrf (http://scikit-rf.org).
# Hz S RI R 50.0 
!freq ReS11 ImS11
400000000.0 -0.8351356367028131 0.20780396134546528
420000000.0 0.1819130402734145 0.8227583510155461
440000000.0 0.6296718501359153 0.4716942908343032
460000000.0 0.2245323188293631 0.6838648279611571
480000000.0 -0.6183326732619445 0.2331100211342947
500000000.0 -0.5152701521534407 0.3151589708585981
520000000.0 0.3573234322290022 -0.3682709169286652
540000000.0 0.3669267515146181 -0.2875819113041765
560000000.0 0.39155129212072676 0.19783946448588757
580000000.0 0.39471979057476153 -0.05066880415925629
600000000.0 -0.2791339049733659 0.23391901671648277
620000000.0 -0.3571660300104278 -0.09387556994250215
640000000.0 -0.16330515184132124 -0.37651357066644375
660000000.0 0.44797944958523356 -0.004840993913652353
680000000.0 -0.4459346881519124 -0.07310771126019422
700000000.0 0.2947223566160651 -0.32750530347464196
720000000.0 -0.33622593790142585 0.25894258046040813
740000000.0 -0.26685094190838166 0.2680783199141185
760000000.0 0.34526266813698975 -0.07653889342212043
780000000.0 0.22534118476621262 0.24038647706430943
800000000.0 0.14572026758655526 -0.26946628691136976
820000000.0 -0.1188904664622659 0.21625802539126113
840000000.0 0.12497788742067813 -0.15360665341699142
860000000.0 -0.10019837550421462 0.13314092933338142
880000000.0 0.12326855524765343 -0.018872829736203973
900000000.0 0.08260319869808967 -0.05051883244575526
920000000.0 0.053139213850884305 -0.03610516351195248
940000000.0 -0.03882513616004878 0.016901471988845822
960000000.0 0.019690378518652095 -0.04770088097513655
980000000.0 0.005722839428067686 0.058384230482017886
1000000000.0 0.04508417109717695 -0.05657327326020873
1020000000.0 -0.08886795917044392 0.027615658084988805
1040000000.0 -0.09363119049887512 0.06545831509146117
1060000000.0 0.008587047510598952 -0.15313634373466067
1080000000.0 0.10879021300424233 0.15697917049544047
1100000000.0 -0.10392480752748315 0.19409711709542957
1120000000.0 0.18658447755053 0.152860373622212
1140000000.0 -0.26444902545141086 0.025119836194042837
1160000000.0 -0.0769074575141048 0.2828714397006154
1180000000.0 -0.30866089832955224 0.08296040286589212
1200000000.0 0.11911833635705431 -0.32818374993331006
1220000000.0 0.02105922170087783 0.3700852662626722
1240000000.0 0.11865366745647524 -0.37151957835443794
1260000000.0 -0.2910590909688873 0.26918142836270426
1280000000.0 -0.14721355100581235 0.367354062896796
1300000000.0 -0.40804726973126165 0.034092129064773595
1320000000.0 -0.11597331152104838 0.4071342843098494
1340000000.0 0.4236548595908198 0.030475935082932608
1360000000.0 0.24152253695122292 -0.3361618475757197
1380000000.0 -0.0345956623653149 -0.3974955185018382
1400000000.0 -0.22122134349080663 -0.3068946518091854
1420000000.0 -0.27257155055895854 -0.2278028060783505
1440000000.0 -0.25486961592847096 -0.21664818117173895
1460000000.0 -0.3052628356826036 -0.08638283857849102
1480000000.0 0.2996424832020959 0.01950282604393836
1500000000.0 0.2171452709970255 0.15324342020886214
1520000000.0 -0.1683785332404569 0.14803667166807002
1540000000.0 -0.028365148000640304 -0.16630594330129317
1560000000.0 0.03740663054640517 0.1244711993600568
1580000000.0 -0.07569135469694181 0.0739688892718258
1600000000.0 -0.08131756748033253 -0.030779755629641938
1620000000.0 0.062282567387692715 -0.03182207563666057
1640000000.0 0.027673388427140615 0.027264425072377522
1660000000.0 0.0044508565263060035 -0.006501980844846592
1680000000.0 0.017756332839894074 0.01620717960869024
1700000000.0 0.013348231868442039 0.0430441163765522
1720000000.0 -0.048916519886007606 -0.036370088032680326
1740000000.0 0.037112829116271125 0.06359850715607851
1760000000.0 -0.0823904504376876 0.024846107561076514
1780000000.0 0.08203892143110501 -0.06752499448043754
1800000000.0 -0.01426272161116675 -0.13618124029405002
1820000000.0 -0.054668569783051985 -0.16272094818856345
1840000000.0 0.10367294114353463 0.1946049057934776
1860000000.0 0.2700422902382376 0.023237620894964183
1880000000.0 0.17328071048399132 -0.2514777609732859
1900000000.0 0.22347510605957227 0.23639947594258498
1920000000.0 0.08285864864987713 -0.33392511347525833
1940000000.0 -0.28260411119034123 -0.23804940768396682
1960000000.0 -0.003540484860539646 0.3935939869855109
1980000000.0 0.3943112201153757 -0.11284334425195347
2000000000.0 -0.12752806100548728 -0.4025007848351211
2020000000.0 -0.4320737402626091 0.0119567323325382
2040000000.0 0.2183748157238451 0.3780634009801292
2060000000.0 0.3275979417657598 -0.27227692805627196
2080000000.0 0.006049523148396044 -0.41200023923251605
2100000000.0 -0.005816139359258699 -0.39502425578257383
2120000000.0 0.14286109972274247 -0.3592178305664057
2140000000.0 -0.18922633295501406 -0.32521745403223434
2160000000.0 0.10356463172612577 -0.3438059512885175
2180000000.0 -0.14469999569511607 -0.3043048809405246
2200000000.0 0.20546034028153307 -0.24575136767599973
2220000000.0 0.2572931442677191 0.18521707101217777
2240000000.0 0.311775802569304 0.08615450174783541
2260000000.0 0.11180046044546152 -0.31141170286118386
2280000000.0 -0.34228864239031054 0.04117165988173053
2300000000.0 0.3511993476737598 0.09839057855677102
2320000000.0 -0.3599100104320581 -0.1529044862878801
2340000000.0 0.41890897740704996 -0.09336303881801816
2360000000.0 -0.05392279151767555 0.47092219938732977
2380000000.0 -0.5115985700856706 -0.1127538434895644
2400000000.0 0.050446798815647474 -0.5698780547519524
2420000000.0 0.6164434486032503 0.005611214791357489
2440000000.0 0.0569416657838672 0.6504967598368953
2460000000.0 -0.6386332868689744 -0.23839620487728266
2480000000.0 0.5592172517026939 -0.4256868692350837
2500000000.0 -0.3429913979257153 0.6255695376197624
2520000000.0 0.17687125584411661 -0.6960830029312199
2540000000.0 -0.19044520269096213 0.688741793873893
2560000000.0 0.5737176218284333 -0.40700625880035335
2580000000.0 -0.6414732660205381 -0.24345969044940505
2600000000.0 0.3056123905913409 0.5871397277850973
2620000000.0 0.46527976766827583 0.4284714827427701
2640000000.0 -0.17311041120928594 -0.575754782771388
2660000000.0 -0.03579995400099267 0.5633451416265921
2680000000.0 -0.0966674875445705 -0.5134235387067516
2700000000.0 0.14406672111807872 0.4547234565709644
2720000000.0 0.07080441744309575 -0.4302544454212704
2740000000.0 -0.3946156547109524 0.09945422989272862
2760000000.0 0.38120562994221524 -0.08210201525884558
2780000000.0 -0.1779671001361969 0.3294689176691361
2800000000.0 -0.03163880627547932 -0.35902745693983357
2820000000.0 0.2073614709289334 0.28071785733763366
2840000000.0 -0.17077759762418232 -0.29665711678812534
2860000000.0 -0.11726835353797123 0.3242537776157518
2880000000.0 0.34680653365182035 -0.040555881514350446
2900000000.0 0.11422397245105621 -0.34090388263857835
2920000000.0 -0.36873639518994145 0.02408251529191612
2940000000.0 -0.06287166429668178 0.36584263058703587
2960000000.0 0.11867427050313016 0.3478353535342167
2980000000.0 -0.35678190006633254 0.08220421894954706
3000000000.0 0.0753768101199269 -0.3618109547392632
3020000000.0 0.3539582009381208 0.10552138711102324
3040000000.0 -0.2766772613240327 0.23817128569430118
3060000000.0 -0.1124980816928443 -0.34311038287108997
3080000000.0 0.2512204519037009 0.24476862940382427
3100000000.0 -0.3291083484756808 -0.08087711057619355
3120000000.0 0.3225765627148774 0.02942907089494067
3140000000.0 -0.27299458767830553 0.14548585717764964
3160000000.0 0.13969592698444128 0.2565324151179603
3180000000.0 -0.26506026342127353 0.06734853466681476
3200000000.0 -0.1039752118487894 -0.2228815564629594
3220000000.0 0.17321998691068372 -0.12533714960934755
3240000000.0 -0.13753622317401829 0.11520453229806245
3260000000.0 -0.11177768925255649 0.09340555825340723
3280000000.0 -0.07697204954901371 -0.09224351547235331
3300000000.0 0.0126060100599358 -0.10357973733776081
3320000000.0 0.08788941581417997 0.013497659696197907
3340000000.0 0.06838072792172568 -0.008115366387020642
3360000000.0 -0.002487651168259569 -0.046767597053697194
3380000000.0 0.012485342062819031 0.029315331907411403
3400000000.0 0.02312005427250009 0.01250057274635954
3420000000.0 -0.021831279977351386 0.016993045099910817
3440000000.0 -0.01763810700453153 0.03452159809228972
3460000000.0 0.042615893874861206 -0.030936988632564232
3480000000.0 0.0027106280412843766 -0.06643571892491654
3500000000.0 0.010550818471672982 -0.07763660577841773
3520000000.0 -0.039374989748571176 0.08207136616628515
3540000000.0 0.10243387689821591 0.009929001292959176
3560000000.0 0.102101089891824 0.05327933811292479
3580000000.0 0.12389452213939972 0.03592498470547912
3600000000.0 0.0327655856683302 -0.13780155015581053
3620000000.0 -0.08727226619327702 -0.12276746287085213
3640000000.0 -0.10789520977053303 -0.10743415427432046
3660000000.0 0.1355387193995186 -0.07468582360344084
3680000000.0 -0.04779015264042847 0.15286732613924275
3700000000.0 -0.15784823597458644 0.04238555484893455
3720000000.0 -0.146680480524683 -0.07546118122836559
3740000000.0 0.1481047438721093 -0.05950074066832493
3760000000.0 0.0024251667267078253 -0.15701235927405333
3780000000.0 0.15099213226102293 -0.021494426006215442
3800000000.0 -0.036577645782803835 0.15190614805464123
3820000000.0 0.10807687827200498 0.12562170862056704
3840000000.0 -0.08277296362388638 -0.15342169775507014
3860000000.0 0.18017480791433918 0.010301520647439543
3880000000.0 -0.08181854353594642 0.16555489995182962
3900000000.0 0.03844957404448481 -0.18479164810179127
3920000000.0 0.19076159384779975 0.036095579041052595
3940000000.0 0.1969919321236884 -0.025503283067871484
3960000000.0 -0.08468671185467523 -0.1772985715846744
3980000000.0 -0.05763767065110233 0.17510188089939874
4000000000.0 0.005811104721107197 0.16463589185702154
