!Created with skrf (http://scikit-rf.org).
# Hz S RI R 50.0 
!freq ReS11 ImS11
400000000.0 -0.8138024018024066 0.27944681336024535
420000000.0 0.41208672722638484 0.7326088547955781
440000000.0 0.6881178592242484 0.37510428340545143
460000000.0 0.6754876761750558 0.25377320498775474
480000000.0 -0.38735278100661585 0.5094253713181786
500000000.0 -0.5161438689927238 -0.287754958178233
520000000.0 -0.07436612558795352 0.5136971064735594
540000000.0 0.41369039947343866 -0.2536356929546691
560000000.0 0.45710228846082523 -0.0037863496403036366
580000000.0 -0.24286867974251697 -0.33479707688951715
600000000.0 0.3610760832238823 -0.09390631853637812
620000000.0 0.35796369083776314 0.015704973852007822
640000000.0 -0.37855912148090504 0.13751296181573583
660000000.0 0.3638540247680707 -0.23261591823773953
680000000.0 -0.11958308945224498 -0.42535120647684516
700000000.0 0.4436907613643366 0.043876202896245775
720000000.0 -0.18955843583092757 0.3797950485831191
740000000.0 -0.25078132003018133 -0.28509082507586014
760000000.0 0.32379969809299003 -0.1699531236515737
780000000.0 0.303953926258466 0.13292495763027257
800000000.0 0.20057841213624988 -0.23642329726360747
820000000.0 0.25591510012259494 -0.000709463626363275
840000000.0 0.04786734348300284 0.1799944319637924
860000000.0 0.05098763561332644 -0.14715646797879128
880000000.0 -0.005103146670413461 0.11553343480801127
900000000.0 0.09176906456542555 -0.0017423839550288205
920000000.0 -0.03279946877408361 0.06605859108810253
940000000.0 -0.049139888158389725 0.026380001670081366
960000000.0 0.04411881900641289 -0.04325267283432195
980000000.0 0.07164883226840908 0.025490671707848526
1000000000.0 0.0028565190224481233 0.07879633481884205
1020000000.0 0.0041569814833905105 -0.09035946194845984
1040000000.0 -0.095980068860077 -0.05209768783176549
1060000000.0 -0.11152132767643336 -0.0930128945429025
1080000000.0 0.12920743218556194 -0.12101852522749651
1100000000.0 -0.16029183344702858 0.11440176535182546
1120000000.0 0.16562449994432887 -0.1586767369917421
1140000000.0 0.22662216637620114 0.15088067119112727
1160000000.0 -0.2984686967790578 0.09361987181689209
1180000000.0 0.07339487544015061 -0.32766502719225926
1200000000.0 0.12419894967466778 0.3045164221875772
1220000000.0 -0.17003860372948307 0.30698873291910334
1240000000.0 0.374196717572426 -0.05942245405246598
1260000000.0 -0.2371324440264399 -0.317213747905404
1280000000.0 -0.21966934970386953 0.3452064546037168
1300000000.0 0.13515335945876575 0.3864748907272324
1320000000.0 0.1913374866658345 0.36749537986853426
1340000000.0 0.42001375298817256 0.039675435388643876
1360000000.0 -0.11960929017749604 -0.3913870268668094
1380000000.0 -0.1649186193559855 -0.34783580088858274
1400000000.0 0.28114763264531095 -0.23809574434929784
1420000000.0 0.27185308396504226 -0.23340555825750398
1440000000.0 -0.2548816883926007 -0.23393181153952797
1460000000.0 0.23671233338796344 0.21608157582485835
1480000000.0 -0.25291308163417753 -0.13912582508798768
1500000000.0 0.24723676637800987 0.02293684961888799
1520000000.0 0.13157257937600186 -0.1645931165505047
1540000000.0 -0.13345525218187743 0.10627333165951684
1560000000.0 -0.009210733680475964 0.13793062885398694
1580000000.0 0.11044285361199276 0.00189272317565426
1600000000.0 0.008862369420045134 -0.08639629022225832
1620000000.0 0.05364305308723686 -0.03629401260435702
1640000000.0 -0.0006907356828734393 0.03126750633887773
1660000000.0 -0.0006149829890627501 0.0007243786170075405
1680000000.0 -0.0228278023009136 0.011312061339458983
1700000000.0 0.0199816715451752 -0.0361324227140659
1720000000.0 -0.05372758264190172 0.013053408900692792
1740000000.0 -0.06436763516313114 0.033787736724527256
1760000000.0 -0.049472907027670154 0.07208631029215112
1780000000.0 -0.0007186779672281034 -0.10861969262023662
1800000000.0 -0.10562182697100472 -0.09296178613484711
1820000000.0 0.015769324292394988 0.1746359735169157
1840000000.0 0.10443294025436317 -0.1897961680224352
1860000000.0 0.2405278755499476 -0.10838062412584776
1880000000.0 0.30108278068822236 0.01758918802404172
1900000000.0 0.023518567999773792 0.32801527660305
1920000000.0 -0.1655058462953901 -0.3109753634415712
1940000000.0 -0.2431188226837194 0.2791086686709108
1960000000.0 0.3211127216116628 0.21805161693022412
1980000000.0 0.38035457409267887 -0.13529088590060398
2000000000.0 -0.16404441963982042 -0.3893551806828278
2020000000.0 -0.3476257753235578 0.2494199830614052
2040000000.0 0.09852431683781089 0.41786042394340894
2060000000.0 0.4162910094216999 -0.08432947309528231
2080000000.0 0.09269404169576857 -0.4066166392636004
2100000000.0 -0.38542537159475776 -0.11787631831489079
2120000000.0 -0.37927747743419044 -0.005085012143206432
2140000000.0 -0.25812793304865755 -0.2530494510015844
2160000000.0 0.3474688614039645 0.026060837078974837
2180000000.0 0.3303999889698535 -0.0643145097259608
2200000000.0 0.2734674299292612 -0.1768986104251593
2220000000.0 0.26285662242281627 -0.17183197079816206
2240000000.0 0.3106584455098201 -0.07043126514984219
2260000000.0 0.15225560530645485 -0.2883011601428456
2280000000.0 -0.26563759689391697 -0.21269695760472693
2300000000.0 0.06456709016657837 0.3548784482799133
2320000000.0 -0.0901775179588933 -0.3794933913773701
2340000000.0 0.3185625728862308 0.28666479798298583
2360000000.0 -0.42110124545033234 0.21270685669766218
2380000000.0 -0.27356593942636476 -0.4430318365824788
2400000000.0 0.355656747129353 -0.4442402813156424
2420000000.0 0.5971660068426368 0.1431567956628416
2440000000.0 0.0002319118904494528 0.6513421445695887
2460000000.0 -0.6314170101570002 -0.24827492437706392
2480000000.0 0.6512345865224386 -0.25248440402232963
2500000000.0 -0.5492962280963927 0.449898245859182
2520000000.0 0.5626545370873172 -0.44061793169431696
2540000000.0 -0.6829628425713955 0.19371492592872386
2560000000.0 0.6832444902617573 0.15287538627179242
2580000000.0 -0.46357441828723933 -0.5005627546348065
2600000000.0 0.1311922807732611 0.6441960292951313
2620000000.0 0.4993748555027447 0.3814279983368477
2640000000.0 -0.19858396500997844 -0.560051832427192
2660000000.0 -0.09308291336244146 0.5481166024291302
2680000000.0 0.27466348082790365 -0.4389853357450843
2700000000.0 -0.4217017369559161 0.23304503605382842
2720000000.0 0.3940521966197376 -0.20942768426573644
2740000000.0 -0.3708181982678173 0.18244620140516898
2760000000.0 0.294059274948143 -0.2519044677252332
2780000000.0 -0.1359890499435695 0.3404524558368921
2800000000.0 0.07479761238712408 -0.3455427601349752
2820000000.0 -0.04584106547172743 0.34338414870546313
2840000000.0 -0.03774904588396085 -0.3437186689565675
2860000000.0 -0.10003789948826838 0.33013699969942367
2880000000.0 0.34585490568959776 -0.05559281215330927
2900000000.0 -0.2695211147951177 -0.23074921693700418
2920000000.0 -0.21603461406198435 0.2866243736357552
2940000000.0 0.0282460382380459 0.3610785689151247
2960000000.0 -0.025057045353379374 0.35940347964135994
2980000000.0 -0.3486108127615192 0.09929567955581098
3000000000.0 -0.16368957612729299 -0.3263871334366919
3020000000.0 0.2312839788555419 -0.28155922517495297
3040000000.0 0.2207678479809556 0.2835783936181532
3060000000.0 -0.34009456775850005 -0.08615699406198167
3080000000.0 0.27024328975507034 0.20757052435603535
3100000000.0 -0.233340107963393 -0.2361048909361646
3120000000.0 0.2964978926061339 0.13224525028729206
3140000000.0 -0.21448790696757544 0.22828091020950414
3160000000.0 0.2830754121241084 -0.07996219638298224
3180000000.0 0.0427337985450888 0.26390566611841604
3200000000.0 -0.16842135904930217 -0.17020556140842205
3220000000.0 0.1807573625935982 0.10501420947438544
3240000000.0 -0.07887442032097744 -0.16111908271115713
3260000000.0 -0.14860365044722296 0.02935521168293157
3280000000.0 -0.003027433229257149 0.12510051706873251
3300000000.0 0.00818542336661696 0.1054921867569138
3320000000.0 0.028095516338623422 0.08421020707739658
3340000000.0 -0.06902882915339278 0.012455179636446167
3360000000.0 -0.020873036776288108 -0.0471603241414107
3380000000.0 0.03825993681530542 -0.0044495699551044135
3400000000.0 -0.031107847527954653 0.007597675671912383
3420000000.0 0.013660519129781133 -0.03153697406324796
3440000000.0 -0.022044728001072114 -0.03821096978702417
3460000000.0 0.051861426409823524 -0.014347012297380923
3480000000.0 0.03378564638926969 -0.057541969177497196
3500000000.0 0.08260823995008643 0.00545337407177976
3520000000.0 0.07246938753519717 0.06751071780980834
3540000000.0 -0.09418706658624348 -0.060657711900040545
3560000000.0 0.0368874921013973 0.11692879259418999
3580000000.0 0.11579654139555944 -0.06350090927131145
3600000000.0 0.07840145906210326 -0.11413159940590271
3620000000.0 0.11236730559825628 -0.09277336840826536
3640000000.0 0.1434009140341138 0.06253889506373488
3660000000.0 -0.1233824846205331 0.1027611584709785
3680000000.0 -0.14640153067829342 -0.06933539972504132
3700000000.0 -0.07623184960009055 -0.14324999524012766
3720000000.0 0.12429277803795134 -0.09136718069041436
3740000000.0 -0.13423105101895344 0.06459316861910794
3760000000.0 -0.13902652185026879 -0.032710630367484235
3780000000.0 0.08953964511254538 -0.11078816042464652
3800000000.0 0.09883901662205509 0.1136111338918513
3820000000.0 0.15802778197973386 0.010390947151366728
3840000000.0 0.012716199195992378 -0.16302061074025964
3860000000.0 -0.16845683772483108 0.04645746919021407
3880000000.0 0.005141478603083979 -0.18451319541322148
3900000000.0 0.08875409693024995 0.16957749470625869
3920000000.0 -0.17155979874852148 0.09520277961368905
3940000000.0 -0.1713897410265626 0.09893362513775619
3960000000.0 0.13646038881571035 0.13872204377179453
3980000000.0 -0.17588705490741205 -0.06805939469620305
4000000000.0 -0.1593599822356742 0.05742370846399728
