!Created with skrf (http://scikit-rf.org).
# Hz S RI R 50.0 
!freq ReS11 ImS11
400000000.0 -0.5306674209782527 -0.6386423930025451
420000000.0 -0.8281325889934597 0.11479986249992193
440000000.0 -0.20548208264724666 0.750715969679049
460000000.0 -0.6385566973284151 0.3409885360041083
480000000.0 0.309692621878759 -0.5882041199196015
500000000.0 0.48274901421798655 -0.4095373920782148
520000000.0 0.5582873433294918 -0.0503324499869728
540000000.0 -0.1495999168966885 0.474134714173014
560000000.0 -0.45395934141588784 -0.04793568904325497
580000000.0 -0.36630307090092085 0.1523288288271631
600000000.0 0.16495551336181422 0.3196155446714301
620000000.0 0.24675327990570856 0.26823652649626056
640000000.0 -0.38450042067953377 -0.10028961217757214
660000000.0 0.3998959808478187 0.17206979603642464
680000000.0 -0.22287549175455318 -0.3921698938025327
700000000.0 0.13024694362963593 -0.4213897002280496
720000000.0 -0.41863476491623414 -0.04132402791080345
740000000.0 -0.37216765895202897 -0.10832565822402827
760000000.0 0.17256463253424267 -0.3196432378997439
780000000.0 -0.10893356711938877 -0.312047024069793
800000000.0 0.22998748996082352 -0.18017005931445917
820000000.0 -0.22259323720700755 0.1216577023146939
840000000.0 -0.1797568492034511 0.07152580703791564
860000000.0 -0.15337968307713426 -0.04719138702240243
880000000.0 0.02140785413462431 0.11884171622786273
900000000.0 -0.0007330442210729417 0.09130170925841641
920000000.0 8.669491863193814e-05 -0.05943663872016749
940000000.0 0.04621340581444124 0.010724840161958547
960000000.0 0.0527045301980978 0.01967179056547996
980000000.0 -0.0511750097342752 -0.0446145314744027
1000000000.0 -0.0521074449336237 0.05249452068133498
1020000000.0 -0.09739931158707259 -0.004226037305537797
1040000000.0 0.04081090843564111 -0.11005928162910388
1060000000.0 -0.14474780765670722 -0.02771572280435738
1080000000.0 0.16369639824447416 0.08307526211057256
1100000000.0 -0.13530134646056013 -0.15822300139237994
1120000000.0 0.028716749312836024 -0.2451137968884885
1140000000.0 -0.26940603777793953 -0.0623012990939694
1160000000.0 0.04908407078487348 0.29567393512438933
1180000000.0 0.15819825429343182 0.28508120429417666
1200000000.0 -0.3279162767217344 -0.09246429073809924
1220000000.0 -0.04658234706564887 0.362081675482865
1240000000.0 0.3140193664629524 -0.22123678201119845
1260000000.0 -0.34304838166287727 -0.21126388481954073
1280000000.0 -0.0028480984770880118 0.4090816662136705
1300000000.0 0.0917772750565223 0.4008041395310142
1320000000.0 0.3445346588282542 0.23306616574619837
1340000000.0 0.3206478915695822 0.2593815249403879
1360000000.0 0.40643382474394607 0.054776350830154835
1380000000.0 0.3786483949733828 0.11755972974224765
1400000000.0 0.3682842118995581 -0.1271832346941809
1420000000.0 -0.1583108195829017 -0.3331902226451064
1440000000.0 -0.32375178943197513 -0.12970405781017164
1460000000.0 0.22500588696247634 0.23462564519293744
1480000000.0 -0.25487619797281763 -0.1470918375912904
1500000000.0 0.2081916851466805 -0.15065424003359032
1520000000.0 -0.14254307899119228 -0.15872525260000167
1540000000.0 0.008131001674516627 0.1708691013853831
1560000000.0 -0.048671268699181265 0.12579090358801387
1580000000.0 0.008865879209183122 0.11209120777034193
1600000000.0 -0.07113943351537229 0.04453498651225507
1620000000.0 -0.0029476392777729944 0.056052814970746156
1640000000.0 0.022025194182578214 0.027415194344556585
1660000000.0 0.013223298740986211 -0.005760073030007543
1680000000.0 0.014086330685388854 -0.00773342693732215
1700000000.0 -0.021687314597714127 0.027525157592179175
1720000000.0 -0.05180395720860985 0.019829232314451044
1740000000.0 0.06905920788724942 0.02251540505456369
1760000000.0 0.08328863948365191 0.029045025185134028
1780000000.0 -0.08236429228514892 -0.07613326122940854
1800000000.0 0.14912061665213627 0.02360374243083137
1820000000.0 0.06059018642190493 0.17549564743386006
1840000000.0 -0.1903826555697456 -0.1064739940984618
1860000000.0 0.23770409398336043 -0.0902284375976168
1880000000.0 -0.1924660399568518 0.2199148609794019
1900000000.0 -0.15980444930953439 -0.28883228759836904
1920000000.0 0.3520168892328038 0.06420649327807006
1940000000.0 -0.36093145212568084 -0.11796542174312188
1960000000.0 0.22745545646324028 0.32613996573581144
1980000000.0 0.20505788014979653 -0.3544194321388896
2000000000.0 -0.2934876196171139 -0.2993186525881402
2020000000.0 -0.3557298200064874 0.2320145169265861
2040000000.0 0.0437301089854949 0.4246975812164708
2060000000.0 0.4217213249714539 0.040215794510554556
2080000000.0 0.17099553408693352 -0.3786548184079023
2100000000.0 -0.27703591704549585 -0.2907677629309386
2120000000.0 -0.32601016874254046 -0.20206049115403346
2140000000.0 -0.3062434027790782 -0.20283278098773908
2160000000.0 0.2128502716466122 -0.28032954208314514
2180000000.0 0.20148883581241706 -0.27137462105198
2200000000.0 0.08270665220452793 -0.3174370627836466
2220000000.0 0.05748333601728026 -0.3159779962846354
2240000000.0 -0.16212597385719288 -0.2795869013020123
2260000000.0 -0.29949713481123413 0.13186101136951806
2280000000.0 0.24768759249135514 0.23163277117569564
2300000000.0 0.11109342121301427 -0.3375816843509515
2320000000.0 -0.3786432262504018 0.06857360746796841
2340000000.0 0.36777998064582673 -0.21291634411346314
2360000000.0 0.09532769585517349 0.4623303275606702
2380000000.0 -0.40151592289405214 0.34056139616066333
2400000000.0 -0.5618343150091969 -0.14163135152209894
2420000000.0 -0.1527805471510221 -0.6087868216626294
2440000000.0 0.5520022987412476 -0.37637941362753036
2460000000.0 0.3149986256149478 0.6245012873557387
2480000000.0 -0.7197787534860419 -0.05157144824496105
2500000000.0 0.7266200380753307 -0.10748776648982228
2520000000.0 -0.7404974436073924 0.024604184095269283
2540000000.0 0.7076887819381118 0.21145750896170984
2560000000.0 -0.6189904630175878 -0.3861776199504847
2580000000.0 0.4906198518250568 0.5124403968454009
2600000000.0 -0.3408664021961112 -0.5901845829359218
2620000000.0 -0.6468014942821878 -0.06336612884138379
2640000000.0 0.5654121400900951 0.24303780095773425
2660000000.0 -0.32795924431593937 -0.475727255475823
2680000000.0 0.05939701094423701 0.5360847831795977
2700000000.0 0.34270393809669947 -0.3668154078767352
2720000000.0 -0.4520930528851944 0.12271284872303011
2740000000.0 0.4365618090176498 -0.0024600008177199217
2760000000.0 -0.37850437957104227 -0.15163507247049737
2780000000.0 0.21633984632935788 0.3227824322923976
2800000000.0 -0.1021156713695427 -0.3672083539435321
2820000000.0 0.21734994104547986 0.31114911547832114
2840000000.0 -0.2143198095980255 -0.3095598218944445
2860000000.0 -0.12769586730169274 0.35287646513363896
2880000000.0 0.37661514210794894 0.0407944631857391
2900000000.0 0.020336628365327895 -0.3819245017200648
2920000000.0 -0.3199954102872945 -0.20887879704194165
2940000000.0 -0.33851166507353664 -0.1722649420212027
2960000000.0 -0.030732439234479283 -0.37861620888862585
2980000000.0 0.3805736428974999 -0.042012667295074385
3000000000.0 0.20075772767850347 0.3263091778825614
3020000000.0 -0.33196474654853636 0.18540711765807427
3040000000.0 0.09847398210801861 -0.3631096225857027
3060000000.0 0.16443488983639654 0.3304808629880603
3080000000.0 -0.30939180510131203 -0.184981025058783
3100000000.0 0.30213417428766937 0.16975462454939105
3120000000.0 -0.24164182340362006 -0.22129598671843212
3140000000.0 0.2028492126500048 0.23269348626219383
3160000000.0 -0.23351224990159464 -0.17026830571909612
3180000000.0 -0.08770391112218383 0.2480018338267052
3200000000.0 0.2279731746076271 0.08085629506695671
3220000000.0 0.19921326594318087 -0.07597870422460551
3240000000.0 0.06202363330122381 0.17833145283493146
3260000000.0 -0.15853925236476518 0.061499868808500766
3280000000.0 0.027862984370836733 -0.1438193585788242
3300000000.0 -0.09064248527473248 -0.08431828960428561
3320000000.0 0.049347247920323106 -0.08958211998842787
3340000000.0 -0.09232830429729462 0.022854228144728386
3360000000.0 0.07678682953070058 -0.051199502281927864
3380000000.0 -0.09573981371887585 -0.03822016658158087
3400000000.0 0.10003786946536865 0.016118576880275716
3420000000.0 -3.817140379858234e-05 -0.09632338546357772
3440000000.0 -0.05335788520776967 -0.07055643490967438
3460000000.0 0.016122479349645908 -0.07112828729946284
3480000000.0 -0.009476777876190381 0.06677210522915157
3500000000.0 -0.025338640629280772 -0.056233558648488106
3520000000.0 -0.009487130884769759 0.05807158561759852
3540000000.0 -0.08156445848210704 -0.03571027918691015
3560000000.0 -0.11557316347531285 -0.05872631277921614
3580000000.0 0.11793794477707666 0.11150614539236378
3600000000.0 0.11718390700698825 0.14636594090471183
3620000000.0 -0.08208263285139723 0.19286099167681733
3640000000.0 0.13821145356792644 -0.1790962776444038
3660000000.0 -0.19551412488936973 0.10095018393358805
3680000000.0 -0.22099984587154048 0.050546067419312675
3700000000.0 0.12185032802431882 0.21206760701320682
3720000000.0 -0.10682569516469911 0.25349447847861084
3740000000.0 -0.24504839554658564 0.13467790792435663
3760000000.0 -0.15961218859136816 0.22964315916324846
3780000000.0 -0.2668675921953684 0.08332250806876876
3800000000.0 -0.08690845750336541 -0.26612907220228815
3820000000.0 0.26369357239183727 0.10820965454917805
3840000000.0 -0.1240780397712116 0.25617936470497255
3860000000.0 -0.25767004541379557 0.1089637100509757
3880000000.0 -0.2740367995697173 0.004492292139116212
3900000000.0 -0.2231424693224434 0.14237867740131474
3920000000.0 -0.12920593434280786 0.21431150545650302
3940000000.0 -0.15739602740163708 -0.17921841550172857
3960000000.0 -0.16917272449945697 0.16339953146513178
3980000000.0 0.14691855259419004 0.1794330242623518
4000000000.0 -0.13219213658601792 -0.1763600390018846
