!Created with skrf (http://scikit-rf.org).
# Hz S RI R 50.0 
!freq ReS11 ImS11
400000000.0 -0.45284314344849114 -0.6903813401783103
420000000.0 -0.8123718499930497 0.18267025714811208
440000000.0 -0.6740197317043696 0.38318155635427725
460000000.0 -0.6815848293888239 -0.24081293657766467
480000000.0 0.665883036079734 -0.04266658219836415
500000000.0 0.523092801654703 -0.3957499446574186
520000000.0 0.326248429454629 -0.4693174290643859
540000000.0 0.12880382506269616 0.4888571389792324
560000000.0 -0.43784257320196035 0.14946260860815344
580000000.0 0.40581327642640447 0.05492861443418708
600000000.0 -0.2765807936976429 0.2208288741464033
620000000.0 0.1537921142421791 -0.31276240156369084
640000000.0 -0.23919950502143808 0.30907726310640476
660000000.0 0.16399422178789205 -0.3844485407257726
680000000.0 0.3720698076550214 -0.21376414905718946
700000000.0 0.0924250789492622 0.4207418222660986
720000000.0 0.38756535586055696 0.1573574930809443
740000000.0 0.16307555718078262 0.3693485917634453
760000000.0 0.3334830222091213 0.2049064712958092
780000000.0 -0.29897465374935717 -0.18816946422580083
800000000.0 -0.252766404109437 0.17045288826982943
820000000.0 0.15865804820254045 -0.20047685347251115
840000000.0 -0.10413364801691556 -0.15878734771876393
860000000.0 -0.12626881901674025 0.045238341414285566
880000000.0 0.09110949468323111 0.01819483279961428
900000000.0 0.02507846670468021 0.05399412007688753
920000000.0 -0.031945500146778424 0.011468715603310024
940000000.0 0.017291752117161666 0.020409541422633647
960000000.0 -0.02805480259457914 -0.029591487199135246
980000000.0 0.03147542062269331 -0.06071959284606502
1000000000.0 -0.07485218275875466 0.03298278465710619
1020000000.0 0.06917605374532879 -0.08145558824548016
1040000000.0 0.1302913907525348 0.04472449474856425
1060000000.0 0.06575019728494569 -0.13489616280633315
1080000000.0 0.1665985700968943 -0.10280109406682407
1100000000.0 0.04134010515865773 -0.2260000566741827
1120000000.0 -0.2529762478031387 -0.015879975063186502
1140000000.0 -0.2749745215603045 -0.06249784524117236
1160000000.0 0.17266070543514364 0.25207560219720976
1180000000.0 0.32267327963974374 -0.06475980581131723
1200000000.0 0.24242773077635033 0.23416156925017198
1220000000.0 0.30913106404650936 0.14012105561376273
1240000000.0 0.31528575431299904 0.16923946764699593
1260000000.0 0.29686248048289593 0.23612291212624595
1280000000.0 0.39787205053444596 -0.08721346488816221
1300000000.0 -0.2967799171046473 -0.2981998181690921
1320000000.0 -0.20278919532413428 0.3800322903522609
1340000000.0 0.4252690085076144 -0.02014537900672544
1360000000.0 0.07988010695784761 -0.4054082146010534
1380000000.0 -0.17802072225589902 -0.34961638145648294
1400000000.0 -0.2189248928908797 -0.2986809160993847
1420000000.0 -0.1577028657411286 -0.3077764476617026
1440000000.0 -0.12254839004337727 -0.310194390176573
1460000000.0 0.20145231848480538 0.23613731602819002
1480000000.0 0.10566616886529274 -0.2570943369626082
1500000000.0 0.036823811403254206 0.23985307627307667
1520000000.0 0.09971898139412975 0.18338307119463754
1540000000.0 -0.13341340701232252 0.11643135633459248
1560000000.0 0.14217129985540816 0.015190892447956099
1580000000.0 0.11898508310784915 0.003501314280523011
1600000000.0 -0.053310666611952134 -0.06256687473190431
1620000000.0 0.04748874732424229 0.02563690253523838
1640000000.0 0.03016610923724545 -0.008127286250589465
1660000000.0 0.009877048276659941 0.0027785836971627852
1680000000.0 -0.004831331206365498 -0.009645091143543871
1700000000.0 -0.003073420378109782 -0.028416247803487588
1720000000.0 -0.03267387921004997 0.033692308390613455
1740000000.0 0.011162498738023295 -0.06442428503179956
1760000000.0 -0.07577034764990562 -0.034610075276737345
1780000000.0 -0.019281180402705766 0.11000924027741436
1800000000.0 -0.13347461029382032 -0.06177744687550182
1820000000.0 -0.08022984325512847 -0.15937209865589774
1840000000.0 0.11961007513072375 0.17349327947840748
1860000000.0 -0.2442036043735321 -0.013374515342295881
1880000000.0 0.2781131084453894 -0.033815528622362076
1900000000.0 -0.3137596272311271 -0.009218382163068124
1920000000.0 0.31538266837304973 0.14168443608571207
1940000000.0 -0.23228218377132065 -0.2984650951135541
1960000000.0 0.3360115296750461 0.22203829554365193
1980000000.0 -0.10981600045332747 -0.3988812836127717
2000000000.0 -0.3916460463209621 0.16255485620838414
2020000000.0 0.12586340742768926 0.4051815743523825
2040000000.0 0.17032883653644487 0.3884778305834081
2060000000.0 0.4142305867601088 0.09261437189538016
2080000000.0 0.35707799744084406 -0.2141147948077664
2100000000.0 0.17030672704148087 -0.3701460329324608
2120000000.0 -0.08667161292612653 -0.3828081646121486
2140000000.0 -0.16106071596512062 -0.3448958980849901
2160000000.0 0.21153047764052146 -0.2962613811394715
2180000000.0 0.24797837391626187 -0.23930227788970349
2200000000.0 0.2997250293913564 -0.14567722714972728
2220000000.0 0.2819674114866517 0.15881298487764506
2240000000.0 0.16617974053309684 0.28334049439708764
2260000000.0 0.3380247292136238 -0.0021103144856149943
2280000000.0 0.27225521580442 -0.22196714841783702
2300000000.0 -0.3713063166101371 -0.06157387000479904
2320000000.0 0.34082635560275737 0.2232465851907392
2340000000.0 -0.4154765984434931 0.17140573736390483
2360000000.0 -0.11959243395750901 -0.4775384987581576
2380000000.0 0.4989491220189613 -0.20458498235488817
2400000000.0 0.2554092859635078 0.5253484430602078
2420000000.0 -0.56616038045676 0.26580757482633444
2440000000.0 -0.2961904280853687 -0.5923100529434404
2460000000.0 0.6809297245933227 -0.10751152976827912
2480000000.0 -0.4140644311017471 0.5743271878462349
2500000000.0 0.27322398862491254 -0.6647251344712254
2520000000.0 -0.36400880072224623 0.621926899880168
2540000000.0 0.4940434050184688 -0.5179319270067811
2560000000.0 -0.704930602996149 0.04992070870783525
2580000000.0 0.5116383919123231 0.4585183571562817
2600000000.0 -0.08575058261197213 -0.6542672359521634
2620000000.0 -0.3862803079186078 0.49670545552964634
2640000000.0 -0.08294955813211512 0.5880723698051247
2660000000.0 0.4498778046941834 -0.32662355471151
2680000000.0 -0.5129862753202903 0.07449609503547033
2700000000.0 0.48158931477927386 0.01366160734825475
2720000000.0 -0.4080486373026423 0.17683950473220011
2740000000.0 0.29493950806272023 -0.281374904490801
2760000000.0 -0.09411897202622248 0.3644565954058693
2780000000.0 -0.04900354608257833 -0.34478228290827
2800000000.0 -0.15080833638446847 0.29356479634030697
2820000000.0 0.2777591602805397 -0.16813196463837152
2840000000.0 -0.2725930628431383 0.1779289077239357
2860000000.0 0.2403870878125029 -0.23084519868259887
2880000000.0 -0.11181202560082087 0.32047384704092463
2900000000.0 0.3172362881625822 -0.1386687120897284
2920000000.0 -0.3398061745371421 0.09430560926247832
2940000000.0 0.160128014804026 0.3130734508911195
2960000000.0 0.3344829538170313 0.09444693516278747
2980000000.0 0.22981485544474375 0.25215476500908407
3000000000.0 -0.3379448720832114 0.011938315757855037
3020000000.0 0.33491268406606933 0.048186111084166504
3040000000.0 -0.3098799669577508 0.1519790981158163
3060000000.0 -0.17258608015211457 -0.3030608211723358
3080000000.0 0.2705369922342878 -0.21363239074711746
3100000000.0 0.2719893349584512 0.1930051158820345
3120000000.0 -0.030729698917472428 0.3140296016983661
3140000000.0 -0.2588065227851721 -0.13610539219616757
3160000000.0 -0.06156202583011821 0.25989050931794344
3180000000.0 0.13865326629029667 -0.19733982656987797
3200000000.0 -0.21819976893833898 -0.0016856450859937882
3220000000.0 0.17513103914928843 -0.09448391386969171
3240000000.0 0.17719190859438028 0.018429194222016984
3260000000.0 0.12295948885009962 -0.0873091963625746
3280000000.0 -0.11573011006074521 0.015902304779109713
3300000000.0 -0.04608605256780687 0.06970056145901796
3320000000.0 0.0028670521690459996 -0.05519152260302117
3340000000.0 -0.02646976906574146 0.01753744483874703
3360000000.0 -0.010050411688039386 -0.013817288177106726
3380000000.0 0.009348622488564417 0.006936932572212308
3400000000.0 0.011299265004996206 0.016631261711586073
3420000000.0 0.02240130313933695 0.02618628491041842
3440000000.0 -0.02731564938555933 0.04441311239139792
3460000000.0 -0.03467078068562149 0.06584538134730128
3480000000.0 0.00045536520608397335 0.09192854418306223
3500000000.0 -0.05894005919460636 -0.08877155747502981
3520000000.0 -0.045025881662476765 0.10981839796878869
3540000000.0 0.1249652245371543 -0.027569834476147276
3560000000.0 0.12636818488173346 -0.04263813521350992
3580000000.0 0.02767029988828291 0.13810743765583858
3600000000.0 -0.11888476377948307 0.0911586983969662
3620000000.0 -0.14231426241202383 -0.0709867663111056
3640000000.0 -0.12622153942205716 -0.10889785235803143
3660000000.0 -0.14949157421229303 -0.0859055207748168
3680000000.0 -0.17203267313763768 -0.00802721963170558
3700000000.0 -0.14786030825168264 0.07713272935816184
3720000000.0 -0.14792309789542007 -0.0537559766638649
3740000000.0 0.13674936071739444 0.04299962530807367
3760000000.0 -0.11002355488184866 -0.06961046554787799
3780000000.0 -0.03748655420193282 0.12311200538782796
3800000000.0 -0.11807392184187912 0.06183994067841798
3820000000.0 0.06258176836575043 0.12172200914616663
3840000000.0 0.12267076911236888 -0.0609315661252305
3860000000.0 0.08225807662872253 -0.1116293680782926
3880000000.0 0.07762394155000236 -0.12287071059920612
3900000000.0 -0.1356715970180279 0.06856147012076286
3920000000.0 -0.026572507956670127 -0.15107702172316134
3940000000.0 0.15172483722939958 0.02616093141907013
3960000000.0 -0.004545467693733259 0.15549007798686557
3980000000.0 0.13032185116877054 -0.08341434027032743
4000000000.0 -0.10696555968619711 0.09270798121288695
