!Created with skrf (http://scikit-rf.org).
# Hz S RI R 50.0 
!freq ReS11 ImS11
400000000.0 -0.5108797319439855 -0.655294451542785
420000000.0 -0.8310973623352713 0.08641051939828906
440000000.0 -0.29010984488338465 0.7202541024707607
460000000.0 -0.7151493734143105 0.009743639050635014
480000000.0 0.6539238368201771 0.008775144838682278
500000000.0 0.6249792954821453 0.1528462404382178
520000000.0 0.5690436060072824 0.002776768394255482
540000000.0 -0.06939482437677129 0.4927014492225333
560000000.0 -0.45976556575265437 -0.008865854413731623
580000000.0 0.33012711592399213 0.2225091204638046
600000000.0 0.1780671550092648 -0.30099620214371753
620000000.0 0.057546563716055966 0.34519686087496065
640000000.0 0.3159492287500231 -0.24511702095031587
660000000.0 -0.2490159058132818 0.366158390804117
680000000.0 0.4293384784739665 -0.18527341365274774
700000000.0 0.19804228182111366 -0.4105373735420449
720000000.0 -0.4210668257148798 0.050470667953309
740000000.0 -0.34300252893165595 -0.17314623168611443
760000000.0 -0.034380965700205164 0.3585327007766764
780000000.0 0.2830631096218297 0.19445300879894747
800000000.0 0.00035999282383053136 -0.2929954779179945
820000000.0 -0.12649496304361324 -0.19999218107192798
840000000.0 0.03404358217199265 -0.18750754325852936
860000000.0 0.012988798183151726 -0.17098951013000635
880000000.0 0.03661625732413632 0.13797978360978524
900000000.0 0.09392494623302898 -0.005941088403272046
920000000.0 0.06119846582130637 0.026690380883848824
940000000.0 0.04289272716996197 -0.024243572235948852
960000000.0 0.06392143246881843 0.0016463165816608567
980000000.0 -0.07848550105087469 -0.01725480542935743
1000000000.0 0.0672361621739438 0.027188185224057082
1020000000.0 0.04618698147466816 0.078708284301408
1040000000.0 0.11271148905763395 -0.000554575804111638
1060000000.0 0.13155822326053165 -0.07217307332657265
1080000000.0 0.023939514572633158 0.19143936295564593
1100000000.0 -0.07768219131500065 -0.2117593141299728
1120000000.0 0.22248542262866852 0.15600177286272124
1140000000.0 -0.28733866676843084 0.03375797768434922
1160000000.0 0.2631373053720194 0.1355999999995814
1180000000.0 -0.07453685387168714 0.2998337721317487
1200000000.0 0.3100059556470523 0.07424426845838462
1220000000.0 0.2703420783308986 0.23256347893717108
1240000000.0 -0.23526163485278598 0.3141725033599633
1260000000.0 -0.2150005113357452 -0.34411592914735145
1280000000.0 0.16008116891240515 0.36425126791765083
1300000000.0 -0.3674940367000179 0.11812973382948341
1320000000.0 -0.25444624393997606 -0.3085727267166946
1340000000.0 -0.38347463223983513 -0.14026273207089082
1360000000.0 -0.13162924482801808 0.3886027021658023
1380000000.0 0.39163019299628743 0.003473794751507427
1400000000.0 0.2825600768138608 -0.23608015238196037
1420000000.0 0.293198676443597 0.17764524163274126
1440000000.0 0.17113840666116176 0.2906071022517655
1460000000.0 -0.3204555882199184 -0.06345163187979222
1480000000.0 -0.2976920549128389 0.04399179639201218
1500000000.0 -0.2364108231679297 -0.07513242902815316
1520000000.0 0.1911391624466954 0.036567954849416474
1540000000.0 0.14946662127348717 -0.023418099674548283
1560000000.0 -0.03860285767267026 0.1170471570645946
1580000000.0 0.012245982234510233 -0.1066153200781226
1600000000.0 -0.07584239154886833 -0.0408541881815912
1620000000.0 -0.005407463681411143 0.06344765714054106
1640000000.0 -0.003423588219733757 0.03959527916914947
1660000000.0 -0.00881744778757586 0.01425065467757649
1680000000.0 -0.02437332623886873 0.006443511769715088
1700000000.0 0.02794623105060498 -0.018953875017907403
1720000000.0 -0.03308037792267708 0.014564188795966458
1740000000.0 0.03850593385841251 -0.019311531273730306
1760000000.0 -0.024263616791756752 -0.05519669967996941
1780000000.0 -0.0677125054899746 0.047922907352210845
1800000000.0 0.12229536105743802 0.03172017694537544
1820000000.0 0.1669654757462731 -0.033783935532392964
1840000000.0 0.15423523717690457 -0.14843831880707947
1860000000.0 -0.17804447618638133 -0.17881771636920202
1880000000.0 0.1222160867958455 -0.2539289349998747
1900000000.0 0.16787255067296422 0.25947694091134405
1920000000.0 0.23680171471003936 -0.23371162905504128
1940000000.0 -0.16155485585636503 -0.3283348374385459
1960000000.0 0.13777744249025708 0.37137827709580257
1980000000.0 -0.09185367527756583 -0.40701148577964275
2000000000.0 0.0772624468075901 0.4185325953545037
2020000000.0 0.4091512020965553 0.08952647973726872
2040000000.0 0.3527045882977057 0.2210809048440576
2060000000.0 0.333346061600019 0.25122554598504704
2080000000.0 0.33941108396194586 0.24914369624941254
2100000000.0 0.21143361752412976 -0.36633386245162153
2120000000.0 -0.40930516645317877 0.011063206796224526
2140000000.0 -0.38798708404130666 -0.032558856386054456
2160000000.0 -0.34192937725827244 0.10901746158037769
2180000000.0 0.19082901835740176 -0.2767509408006922
2200000000.0 -0.10712746334780417 0.3142852366386756
2220000000.0 -0.3425403534508419 0.0406984701608682
2240000000.0 0.30885757652023477 0.18822599920406285
2260000000.0 -0.25896042900436017 -0.24938815811652779
2280000000.0 -0.3551521445443456 0.05968880341568431
2300000000.0 -0.3730012366374381 0.0171984972826609
2320000000.0 -0.24557338838830645 0.3320835027262257
2340000000.0 0.07418937453402137 -0.45881557300908093
2360000000.0 0.5082453894589279 -0.060877593154489505
2380000000.0 0.20668183422564987 0.5163387201414626
2400000000.0 -0.6000281209530465 0.004299126663877076
2420000000.0 0.2130039699019444 -0.6088643962884481
2440000000.0 0.5671591151419993 0.3834264581304595
2460000000.0 -0.5997779733836355 0.39013151192765266
2480000000.0 0.15397949860088722 -0.7204887819602347
2500000000.0 -0.070484846838588 0.7444065381239664
2520000000.0 0.15750235695073625 -0.7344643267036197
2540000000.0 -0.42653335632114087 0.6135270502391994
2560000000.0 0.7147357919468748 -0.18501998365326627
2580000000.0 -0.6009654874376539 -0.3957369294807705
2600000000.0 0.0914480980580765 0.6858112684184621
2620000000.0 0.30682862132912475 -0.5838558277950834
2640000000.0 -0.07961491998318976 -0.6167320394083251
2660000000.0 -0.318340503634858 0.486927594455723
2680000000.0 0.5047606000349573 -0.19181676951755378
2700000000.0 -0.49557779104495453 0.05530479965304027
2720000000.0 0.4540598689864559 0.02998664006010522
2740000000.0 -0.3464984975722137 -0.23271601183599058
2760000000.0 0.34717969382891667 0.17291031488544578
2780000000.0 -0.362886205150116 0.012037872361913308
2800000000.0 0.2736689945309257 -0.2092588729993141
2820000000.0 -0.13056781514639088 0.30462564567408734
2840000000.0 0.15572082628553754 -0.288437691553148
2860000000.0 0.05967644130844534 0.3244711301048009
2880000000.0 -0.22510009820283625 -0.24355350542299953
2900000000.0 0.12476358434568056 0.3099073551094158
2920000000.0 0.09692311722453299 -0.3224668240119044
2940000000.0 -0.2512497656233688 -0.22307434123087602
2960000000.0 -0.32927514586268847 -0.07119796280167284
2980000000.0 -0.2779318214677178 -0.18982278977943418
3000000000.0 -0.0017445982819453438 -0.3406617876462276
3020000000.0 0.20349453298733997 -0.27318371462244395
3040000000.0 0.22957180927910845 0.24680929786711356
3060000000.0 -0.1912393736417661 0.26980304669254257
3080000000.0 -0.038378563407654304 -0.3166393444457662
3100000000.0 0.13936305182798178 0.2744484253443511
3120000000.0 -0.17694000272031452 -0.2387260496050329
3140000000.0 0.2864025708919212 0.030973150664220434
3160000000.0 -0.235707844486902 0.1391683702714393
3180000000.0 -0.1381925813894182 0.21080783073753642
3200000000.0 -0.050458528075122286 0.2146255952755516
3220000000.0 -0.11406508442368091 0.1457444704804019
3240000000.0 0.01758269105111415 -0.14800446876457152
3260000000.0 -0.11310264526955013 0.04317803933512753
3280000000.0 -0.015178464766285357 -0.09940867604174398
3300000000.0 0.06932447148419861 -0.04218715756241919
3320000000.0 0.020432373689630773 -0.05177520530118606
3340000000.0 0.008535302178588305 -0.03435763343936137
3360000000.0 0.02594902009260296 -0.0043776178332203385
3380000000.0 0.015775458575993197 0.020759252656662536
3400000000.0 0.021936680285434464 -0.03119395167915419
3420000000.0 -0.014333317960249819 0.05581173467863941
3440000000.0 0.07616583260543815 -0.002849492999149138
3460000000.0 0.08453839945489841 0.021738535580419768
3480000000.0 -0.007705024032417273 0.0931856124510825
3500000000.0 -0.0759548787857115 -0.07322202550561809
3520000000.0 0.11521600454040327 -0.04472058972823894
3540000000.0 -0.03683461459481233 -0.13739860792275943
3560000000.0 -0.10092926879855535 0.11628613504713163
3580000000.0 0.1595382819458576 -0.013196189181729653
3600000000.0 0.1591184087700194 0.026884986950359832
3620000000.0 0.02626345270767674 0.16321712288826828
3640000000.0 -0.16548429676268217 0.046743686535227154
3660000000.0 -0.16848890760106663 0.057268688949239185
3680000000.0 -0.13913534606679384 0.10517458868690686
3700000000.0 -0.1679365011031097 -0.02268797926447944
3720000000.0 -0.12641600315485943 -0.1057115313171032
3740000000.0 -0.09638468896840062 -0.11971728675651808
3760000000.0 -0.13151359096464246 -0.026391952328858038
3780000000.0 0.08369148794287906 0.08609320787517685
3800000000.0 -0.021067723760752756 -0.1158247088005785
3820000000.0 0.04312051316002006 -0.11384707156155112
3840000000.0 -0.0933431282056576 0.07087131621272533
3860000000.0 0.10818419879698342 0.027175065050177003
3880000000.0 0.08638663852066755 -0.0863095504397656
3900000000.0 -0.12879008814414578 0.051363113569449365
3920000000.0 0.10672442494951938 0.09692267419687908
3940000000.0 0.1334542239229079 0.037471749562038144
3960000000.0 0.0307077280874736 0.12423949896605642
3980000000.0 -0.10200502277562114 -0.06185867139663588
4000000000.0 -0.023006493847465573 -0.10916156672531867
