!Created with skrf (http://scikit-rf.org).
# Hz S RI R 50.0 
!freq ReS11 ImS11
400000000.0 -0.84393761278143 0.1573022887814616
420000000.0 -0.08083188652248179 0.8390701519978926
440000000.0 0.7040938741825241 0.37675473112452046
460000000.0 0.6990996246218281 -0.203746466470379
480000000.0 -0.0841102196120745 0.6322947408082088
500000000.0 -0.470611772484512 -0.3552751195045044
520000000.0 0.4724539459749733 0.21276375515250026
540000000.0 0.23771427746749035 -0.4018455593364285
560000000.0 0.3472530895786576 0.2689388563192164
580000000.0 0.3959212468435645 -0.015055385033098218
600000000.0 -0.3200779864292659 -0.15883908338628897
620000000.0 0.04910641088082428 -0.3649690516619294
640000000.0 0.24754453347949712 -0.333179182515136
660000000.0 0.31084665890297 0.32586337499723933
680000000.0 -0.19554649289103096 -0.42192081660740155
700000000.0 0.09317299793278054 -0.44288210508769266
720000000.0 -0.1271601585389898 0.4167987952131598
740000000.0 0.3748689141329615 -0.11814984013971873
760000000.0 -0.1179517236612391 0.3227608168805679
780000000.0 0.010379088761230056 -0.31605960469746786
800000000.0 -0.10945074064877938 -0.25712327925172435
820000000.0 0.04321671793124331 -0.2282679577893457
840000000.0 0.11025423258721262 0.1503192792158941
860000000.0 -0.07876405788734958 -0.13742681210160035
880000000.0 -0.08816189009987392 0.10297775180176039
900000000.0 0.05423955707687363 -0.09018932778042771
920000000.0 0.022739060535526722 -0.06970345860050892
940000000.0 0.007844706647534892 -0.06332977178949815
960000000.0 0.05309252696751783 -0.039626386198631125
980000000.0 0.08010864877973273 -0.012239028529364796
1000000000.0 -0.08167437813349909 0.00972448718948171
1020000000.0 -0.04493996126740868 -0.07599802597795484
1040000000.0 0.009030720352938556 0.10529742303135037
1060000000.0 0.05910425145615481 0.1206586788069819
1080000000.0 -0.16393477095139583 0.01597478946065209
1100000000.0 -0.14117029572140857 0.14241484829503598
1120000000.0 -0.10871940737411577 0.22128413016484944
1140000000.0 0.17503580261464985 0.21900402417144882
1160000000.0 -0.09683039153505896 -0.3026634193991341
1180000000.0 0.125470636794682 0.3245112642218583
1200000000.0 0.10232392261170242 0.34324397745214286
1220000000.0 0.12185905680002575 -0.3441971946768585
1240000000.0 -0.3567392468758998 -0.11972694971550417
1260000000.0 -0.29130091133972474 0.24810691772668353
1280000000.0 -0.3757195967556595 0.10928925998429584
1300000000.0 -0.40330611255491466 -0.005889536436799032
1320000000.0 -0.4150224631080326 0.019664855884217295
1340000000.0 -0.2299675980792215 0.35886049117863594
1360000000.0 0.40782947713426626 0.12710509247973034
1380000000.0 0.02605098650283063 -0.41051174214581676
1400000000.0 -0.379839546154816 -0.10470566211545726
1420000000.0 0.022942513189522798 0.3640879458373469
1440000000.0 0.2642715968996723 0.20563610158230855
1460000000.0 0.2955790455739634 0.05294072794423629
1480000000.0 0.24832760586003777 0.1146444698586909
1500000000.0 0.1496669478606024 -0.19724580699256528
1520000000.0 0.08509985904780584 -0.20862362715840113
1540000000.0 0.1932661464914881 -0.05124830380216554
1560000000.0 -0.0679393099919086 -0.15143289670604448
1580000000.0 0.055939394962385945 0.11122798685166081
1600000000.0 0.044421894981240995 -0.060911555473922276
1620000000.0 -0.0288847070977479 0.02571621224119452
1640000000.0 0.012483412359039714 0.007459062430421665
1660000000.0 -0.02411518466985034 0.0012127749077285625
1680000000.0 0.033341533687859845 0.013015776651053121
1700000000.0 0.021772230480802957 -0.04032072493333509
1720000000.0 0.015214653815173533 0.041209953658821144
1740000000.0 0.04092631809549824 0.03829995151218647
1760000000.0 0.013921317708318512 0.07617083391983087
1780000000.0 -0.09221853909425191 -0.06127672230236028
1800000000.0 -0.10042934515669207 -0.11215089328888428
1820000000.0 0.07897529382392894 -0.17186916778759548
1840000000.0 0.12102469420740379 -0.1969206454236502
1860000000.0 0.16300632733008966 -0.21131647166013637
1880000000.0 0.29879729731919463 0.04501933418260894
1900000000.0 -0.11726892209765759 0.3068689024057971
1920000000.0 0.007419061643715371 -0.3528427243030142
1940000000.0 -0.16223745898177624 0.33401819089086104
1960000000.0 0.3714467071769586 0.09243478757736882
1980000000.0 0.3821464849795404 -0.09855888116456565
2000000000.0 0.37065265962511307 -0.17958957850242238
2020000000.0 0.08149486189115576 -0.42307921504938595
2040000000.0 -0.3750286784927581 0.2349384971738437
2060000000.0 0.4258677090833314 -0.11274829083317102
2080000000.0 -0.4000618443289658 -0.14147720168759112
2100000000.0 -0.2771039742893834 0.28812621302257574
2120000000.0 -0.35042318028941966 0.13613632519236715
2140000000.0 -0.2574257423758433 -0.24990747865831714
2160000000.0 0.33334798477760413 0.09411331160553224
2180000000.0 0.23952231119320114 0.2374299751502706
2200000000.0 0.31547963081086283 0.10336635980178123
2220000000.0 0.18651136991202208 -0.2730464230943017
2240000000.0 -0.3284943710887127 -0.011591088674064474
2260000000.0 0.0969842296156689 0.31163264157728127
2280000000.0 0.3293875844804027 -0.045407790697136095
2300000000.0 0.09251413985413863 -0.33621498083178913
2320000000.0 -0.3666415518873769 -0.11152067794445904
2340000000.0 0.41746424002809723 -0.11302384968081386
2360000000.0 0.26834565366911345 0.4056618548002649
2380000000.0 0.015835064190137613 0.539625020931442
2400000000.0 -0.4435522500808441 0.3863342343044856
2420000000.0 -0.5579323669015874 -0.2974763739574671
2440000000.0 0.290510907069278 -0.6049323200991434
2460000000.0 0.5396871163201569 0.44839376131051617
2480000000.0 -0.7171454747592726 0.09742960242239103
2500000000.0 0.6724218671169908 -0.3013901718781084
2520000000.0 -0.6626639774852916 0.33334052816407117
2540000000.0 0.7207460997640309 -0.15714014515177846
2560000000.0 -0.6806119707211266 -0.25895873131683017
2580000000.0 0.4215249842496216 0.5699018118030139
2600000000.0 0.05891395074742903 -0.6804001681769246
2620000000.0 -0.2959064175730346 -0.582635539012754
2640000000.0 -0.06567638200581143 0.6176794454966997
2660000000.0 0.268502283150696 -0.520456455854442
2680000000.0 -0.3175931181589306 0.44492615548260706
2700000000.0 0.4207959836036264 -0.2835159699670388
2720000000.0 -0.4301603947368116 0.1890992882687749
2740000000.0 0.42471815828070075 0.10342523286321512
2760000000.0 -0.34387530746117356 -0.22815492688281727
2780000000.0 0.21628652534744264 0.3292166240159885
2800000000.0 -0.0321874223284873 -0.38249328152578027
2820000000.0 -0.08819431436689315 0.3694040751025769
2840000000.0 0.15537350451591928 -0.34729839638224363
2860000000.0 -0.18016020782417164 0.3370993341099058
2880000000.0 0.3696006109973023 -0.0962545255363695
2900000000.0 -0.1367338994717129 -0.3570498915055204
2920000000.0 -0.3726794846433269 -0.07682388791456299
2940000000.0 -0.3725038376051606 -0.059640001812123304
2960000000.0 0.00874137637995803 -0.37261541938476755
2980000000.0 0.24790515969542956 0.28411155288138856
3000000000.0 -0.30349135060399135 0.23992532098463584
3020000000.0 -0.3356777760433662 -0.19418394605185268
3040000000.0 0.2389915656145498 -0.30281348473436204
3060000000.0 0.28090839152210834 0.2507680166902861
3080000000.0 -0.3563191509239111 0.06416005879876654
3100000000.0 0.30425662490042943 -0.1554754849115929
3120000000.0 -0.18256822174188192 -0.2639284134130189
3140000000.0 -0.2852789210158625 0.11414403917354378
3160000000.0 0.2385270075372886 0.17500152054456894
3180000000.0 0.12033178499036454 -0.2520993939302161
3200000000.0 0.16538863267041162 0.19256073465638915
3220000000.0 -0.1504252463281843 -0.15969806623823693
3240000000.0 -0.17088747578809602 -0.06351403113627344
3260000000.0 0.0018358967153971819 0.15012626466348986
3280000000.0 -0.07410609928866835 0.1092570684058401
3300000000.0 -0.030717840435885074 0.11953572435536179
3320000000.0 0.11420446150567667 -0.02712855037047347
3340000000.0 0.1118451742483907 -0.009509522469196527
3360000000.0 -0.0065979729294791695 -0.10202877901944019
3380000000.0 -0.046710585484836295 -0.07833390395517455
3400000000.0 -0.01887039475181436 -0.08084491149336231
3420000000.0 -0.0027374473371378143 0.07715570171416229
3440000000.0 0.06962286219086777 0.024603976454207692
3460000000.0 0.0658543278280526 0.03359291903350497
3480000000.0 0.005876839031166073 -0.07689530569200669
3500000000.0 0.001830015889169741 0.08421690600186058
3520000000.0 -0.05899223719079464 -0.07624448472543809
3540000000.0 -0.029176638152049957 -0.10262006501646409
3560000000.0 -0.08273945489128642 -0.08675946010263258
3580000000.0 0.0887106238487714 -0.10514549907415144
3600000000.0 0.06600271540864967 0.1461356450854021
3620000000.0 -0.17877948205540717 0.04144912990097149
3640000000.0 0.1634785327231577 -0.12622075474637887
3660000000.0 -0.157354224556039 0.1628449679963679
3680000000.0 0.17536899060442712 -0.1703523150699084
3700000000.0 -0.20425984794460392 0.1580232048508234
3720000000.0 0.2521788644674441 -0.09864663264226284
3740000000.0 -0.22027326573790926 -0.1640542808570199
3760000000.0 -0.25136309851325356 -0.1231795613676477
3780000000.0 -0.16702798809280495 -0.22884417424267128
3800000000.0 -0.11032411060434225 -0.2649895682036643
3820000000.0 -0.016679442441810043 -0.2907762232821824
3840000000.0 -0.07940281823742115 -0.27998439641924544
3860000000.0 -0.15338665167343185 -0.24354624606586614
3880000000.0 -0.16203016164029937 -0.23117449029797937
3900000000.0 -0.12380968558871328 -0.24739395964762514
3920000000.0 -0.22726939621531048 -0.14561962722916363
3940000000.0 -0.2621260054757222 -0.029599020496670837
3960000000.0 -0.16790867309907648 0.1915449989667905
3980000000.0 -0.04503124218315108 0.24088545228084818
4000000000.0 -0.012059769137472597 -0.22985991143248138
