!Created with skrf (http://scikit-rf.org).
# Hz S RI R 50.0 
!freq ReS11 ImS11
400000000.0 -0.6316568524318219 -0.5460724059567222
420000000.0 -0.7773355310720642 0.31127452871208033
440000000.0 -0.4812346449090773 0.6226332417215681
460000000.0 -0.657413168899106 0.321288544945444
480000000.0 -0.20727458218011216 -0.6354845595205293
500000000.0 -0.22496519984492752 -0.5977515411608681
520000000.0 0.37611434474500915 -0.40575527050312615
540000000.0 -0.3333242318810538 0.35911942698988664
560000000.0 -0.38898182441167234 -0.23057740387049486
580000000.0 -0.23999187643161668 0.31157985281864337
600000000.0 0.3403785974459276 0.10916691037910474
620000000.0 0.210991161862967 0.29320103787920754
640000000.0 -0.38360144296703297 0.1257942536409509
660000000.0 0.4319614065370046 -0.008952807703923435
680000000.0 -0.007075267061197116 -0.45307728387193935
700000000.0 0.40956356607288935 -0.18851697043980412
720000000.0 -0.2975993128949669 0.32060482298850596
740000000.0 0.13722888710570266 0.35831540718585886
760000000.0 0.3339316133656211 -0.1206202241204253
780000000.0 -0.05716076821756825 -0.328496454704519
800000000.0 0.13882351458487505 -0.24656675285192967
820000000.0 0.08296105205976367 -0.2293779692972112
840000000.0 0.10973675261683145 0.16301096596519807
860000000.0 -0.15193337071837523 -0.05527418373780777
880000000.0 -0.11187398431144885 0.020153789059631635
900000000.0 -0.08424571446489604 0.01999631614184364
920000000.0 0.059797811301354586 0.016104411807304923
940000000.0 0.03456936756130603 -0.030014563165688627
960000000.0 -0.00020250518625550474 -0.06183481411317006
980000000.0 -0.06209931572572525 -0.03864607688325406
1000000000.0 0.06828716411458229 0.02819441209153248
1020000000.0 -0.09762244587302121 -0.019378129268925983
1040000000.0 -0.11476989524811956 -0.03490780030056875
1060000000.0 0.04216568312863658 -0.1416315730286845
1080000000.0 -0.16674652755752303 0.07928127684216843
1100000000.0 0.09784558827302768 0.19809977687264493
1120000000.0 -0.18676649272513496 -0.1889783664367296
1140000000.0 -0.2891548557360096 0.022014384602866987
1160000000.0 0.304919283424549 -0.09147666341993602
1180000000.0 -0.16919971047538143 -0.2914774857526241
1200000000.0 0.21001191280486237 0.2653490810971271
1220000000.0 0.3555209491478558 0.01242149925590425
1240000000.0 0.16986683983088918 -0.32575585512099053
1260000000.0 0.31353145372174623 -0.22757346191933517
1280000000.0 -0.15665398588154394 -0.37457437103284014
1300000000.0 -0.3281432110979347 -0.2596316487095833
1320000000.0 -0.26570863033567593 0.33685113616363666
1340000000.0 0.2698579501954225 0.33528321948218676
1360000000.0 0.2973226573179283 -0.2974561031001394
1380000000.0 0.07769584486335293 -0.39346595115085414
1400000000.0 -0.25670370379297713 -0.28595590733093235
1420000000.0 -0.34358481473056407 -0.10198982106116261
1440000000.0 -0.258636394476788 0.21740568709921748
1460000000.0 0.1421310642160735 0.2737814584251282
1480000000.0 -0.036535659095092994 -0.2808964576667128
1500000000.0 0.10308773042894229 0.2212773677948526
1520000000.0 0.20530859400792795 -0.05178495012575722
1540000000.0 0.07516974721024043 0.1517465856384126
1560000000.0 0.014331964578326724 0.13295666903811482
1580000000.0 0.07973765024848396 -0.07284914900112703
1600000000.0 0.02597738621040399 -0.07882092485634172
1620000000.0 -0.05384203489534627 0.036906076279486486
1640000000.0 -0.010290781922724195 -0.03581001967635084
1660000000.0 -0.008264669241424593 -0.00211045453088025
1680000000.0 0.022757163486191667 -0.009625867218447355
1700000000.0 -0.0062668845063448666 0.047412566017659336
1720000000.0 0.058305777833679656 -0.017974339020565725
1740000000.0 -0.06914532964778944 -0.018441955428517162
1760000000.0 -0.009754096394027793 -0.08242065718519126
1780000000.0 0.003548600905547581 -0.10497641029133996
1800000000.0 -0.14295873354402086 0.003467259952408434
1820000000.0 0.1101885155197566 -0.14896439758552354
1840000000.0 0.22180589297077902 -0.05380319709093107
1860000000.0 0.22867206893358685 -0.1394912036224856
1880000000.0 0.30049780166821505 0.012991507809261912
1900000000.0 -0.13376705597148725 0.29724968159918524
1920000000.0 0.2276798860369722 -0.26363605710838806
1940000000.0 -0.33958711870377517 -0.15101237560807382
1960000000.0 0.26224198891562833 0.2891015141066649
1980000000.0 0.38312810201462805 -0.1269392163186354
2000000000.0 -0.0007063333511438221 -0.418178657784877
2020000000.0 -0.427626590784723 0.019762728534708163
2040000000.0 0.09165293985163636 0.4205638497708819
2060000000.0 0.356112221809524 -0.2312244518424005
2080000000.0 -0.08850369988723597 -0.4006826757282065
2100000000.0 -0.14109413850554292 -0.37201463893170655
2120000000.0 -0.26405133964666944 -0.2779566538574149
2140000000.0 -0.35806048870570045 -0.09262144653318694
2160000000.0 -0.05439550329381175 -0.34891975317213103
2180000000.0 -0.02948842085149799 -0.334077791259186
2200000000.0 0.03763868208815823 -0.3217906515294426
2220000000.0 0.2974539983772183 -0.11259867052410984
2240000000.0 0.26768028332968924 -0.1862389069409634
2260000000.0 0.05480849713165693 -0.3280859950244751
2280000000.0 -0.34826753347279643 0.03959777493695394
2300000000.0 0.3483398686855081 0.13180114999278275
2320000000.0 -0.3354127998111122 -0.22610382668043255
2340000000.0 0.443645845573391 -0.060928246155125716
2360000000.0 0.06358070238854902 0.4923495698309513
2380000000.0 -0.5250010232631602 0.15517888931435467
2400000000.0 -0.2956438427665191 -0.5185784214584332
2420000000.0 0.46499505590172346 -0.44287560782799573
2440000000.0 0.46974377828478153 0.48997293663361824
2460000000.0 -0.6496888734792107 0.2789357863623329
2480000000.0 0.07151321150829901 -0.7256982487249685
2500000000.0 0.41919203484434575 0.6174824930903484
2520000000.0 -0.5151391212375412 -0.5446996651900435
2540000000.0 0.4620345285889825 0.5835108803231467
2560000000.0 0.07432898672834334 -0.7318337924268883
2580000000.0 -0.5918315528446588 0.40917388141754585
2600000000.0 0.6918711869585114 0.04681535343886164
2620000000.0 0.6484403612050584 -0.11926953684737035
2640000000.0 -0.5592030666086242 -0.2737682734916619
2660000000.0 0.43450943524145036 0.399673756419642
2680000000.0 -0.3532211584881599 -0.4246997181552542
2700000000.0 0.28504774774205627 0.4247719127516095
2720000000.0 -0.21790839162778644 -0.4193730549141985
2740000000.0 0.11148590981279326 0.4216205773949913
2760000000.0 0.1577883470577762 -0.3772865771574439
2780000000.0 -0.26794521081236394 0.2803949727812225
2800000000.0 0.3672416828977305 0.014455956031734643
2820000000.0 -0.3593191678130421 -0.0872085993776225
2840000000.0 0.33173715364286976 0.15025066627551065
2860000000.0 -0.23824246731971183 -0.27922184816230416
2880000000.0 0.14723251621133454 0.33778640410910016
2900000000.0 0.3183318918001099 -0.1926300909449963
2920000000.0 -0.24542741802091472 -0.2814099485905654
2940000000.0 -0.3589908864518706 -0.09922511142564241
2960000000.0 -0.3512003138396518 -0.11387642540986632
2980000000.0 -0.09208390620313484 -0.3554305098120825
3000000000.0 0.3646052659076015 -0.05755356344725423
3020000000.0 0.2035391351485626 0.3034466663432798
3040000000.0 -0.33931031096414116 -0.1108466472194206
3060000000.0 0.29382570747571546 0.1921843978165558
3080000000.0 -0.3047157831588369 -0.1563302471877368
3100000000.0 0.3332679216208614 0.02357346255061589
3120000000.0 -0.3031149471951496 0.10604787372718283
3140000000.0 0.26653333426294035 -0.14544116344291175
3160000000.0 -0.23123531756073665 -0.15959306310753998
3180000000.0 0.25155174336617325 -0.04202663993639709
3200000000.0 -0.15237005360491773 -0.1623327080616293
3220000000.0 -0.17845133337557378 -0.06814625391885636
3240000000.0 -0.09097157589597632 -0.1333395445872209
3260000000.0 0.13179875452950074 -0.03336371148847098
3280000000.0 0.0030608056136718826 -0.11237147951466114
3300000000.0 -0.04607778959308227 -0.081912384144812
3320000000.0 -0.0638216163711492 -0.04499899202213331
3340000000.0 0.05218246382845002 0.04198534652294274
3360000000.0 0.024526019133042778 -0.05928674390666225
3380000000.0 0.038745913670786294 0.05476592429152023
3400000000.0 0.06102330847620914 -0.024096151887948624
3420000000.0 -0.0285801980746493 0.04729933460753539
3440000000.0 -0.03394719897536497 0.02653981065341191
3460000000.0 0.018464735027499377 0.02124239866185694
3480000000.0 -0.005568726861399697 0.013197248323330517
3500000000.0 0.009993778236424306 -0.0023728346244008013
3520000000.0 -0.0019439809182200264 -0.017755657372510506
3540000000.0 -0.014792099549645506 0.0208141726576762
3560000000.0 0.035179190624480265 -0.015615711818976651
3580000000.0 -0.03448695533408155 0.0482886392081856
3600000000.0 -0.0077114562065983975 0.07409394829563022
3620000000.0 0.07646335680440743 0.054321245225152345
3640000000.0 0.06916341203004345 0.08414229559437551
3660000000.0 -0.0992321880730191 0.08555282122895436
3680000000.0 0.043751343714463084 0.14616984516504258
3700000000.0 -0.06355389586595077 -0.16450072065082166
3720000000.0 0.17904358097005454 0.0708610530423042
3740000000.0 0.16592821377141717 0.11633374038850156
3760000000.0 -0.14800369578639078 0.16894938168486376
3780000000.0 -0.245694538699826 0.011707068578349598
3800000000.0 -0.06390922794194016 0.25858515870786175
3820000000.0 0.28103913360305205 0.09751780995168441
3840000000.0 0.03284253404440793 -0.29539583140602144
3860000000.0 -0.30593443793253833 -0.02872653439024172
3880000000.0 -0.12166613794086807 0.277877440987933
3900000000.0 0.08027123969368133 0.2905815978122154
3920000000.0 0.2744177329104874 0.11348052136833467
3940000000.0 0.25618619733649495 -0.13947523284882157
3960000000.0 -0.17151435317965194 -0.23055589794130193
3980000000.0 -0.16626352440320685 0.2248319980492093
4000000000.0 0.0774799327417859 -0.25288882240358557
