!Created with skrf (http://scikit-rf.org).
# Hz S RI R 50.0 
!freq ReS11 ImS11
400000000.0 -0.46871754939966037 -0.684531217329954
420000000.0 -0.8107217706156398 0.2113968005823751
440000000.0 -0.23347342090235002 0.7403726060601968
460000000.0 -0.7171056205828811 0.04122024134917615
480000000.0 0.2206703466292463 -0.6215726497398538
500000000.0 0.4292370782042699 -0.4656058548674601
520000000.0 0.5431786523430949 -0.10292449947503544
540000000.0 -0.46709046799772014 -0.16612964258144666
560000000.0 -0.37919307321430257 0.26086944323469075
580000000.0 -0.27595994208532276 0.29638389631290796
600000000.0 0.2779604858340596 -0.24084353491089855
620000000.0 0.36513430274668246 0.008751845793652896
640000000.0 -0.392734318667048 -0.10603507414611167
660000000.0 0.4364128486024106 0.06324556826115085
680000000.0 -0.18842129114083708 -0.41465300014226647
700000000.0 0.35625343683001665 -0.2696998556201577
720000000.0 -0.4106121177902095 -0.12240486876816542
740000000.0 -0.3830535755445614 0.0378153528268005
760000000.0 0.2054554071286257 -0.2923052415080767
780000000.0 0.31976805742948805 -0.05508545133807829
800000000.0 0.27319075029075185 0.0897190007951547
820000000.0 0.19771881006949882 0.13511384119272987
840000000.0 -0.19441860968285668 0.016877720397401784
860000000.0 0.08264843067175895 0.1364682095407889
880000000.0 -0.047895116198633875 -0.10590760561612245
900000000.0 0.08289815780490632 0.029157056763570083
920000000.0 -0.03840647470211499 0.04803152622019859
940000000.0 -0.002512784941831584 0.04454830405127296
960000000.0 0.010647303841435725 -0.056955168172305747
980000000.0 -0.06093796206990434 -0.03857451337124401
1000000000.0 0.08316314338232833 0.009770519527185047
1020000000.0 0.00991329518077838 0.10655647027846948
1040000000.0 0.10110757877111423 -0.08346250785426966
1060000000.0 -0.012856592251505514 -0.15574644838878612
1080000000.0 0.0722126998842989 0.17329730636490628
1100000000.0 -0.003800350213554998 -0.21541429053673963
1120000000.0 -0.19184067865476162 -0.15801812261066628
1140000000.0 0.1931555264382512 -0.19857700046035223
1160000000.0 -0.2912011461885689 0.08042406519029359
1180000000.0 -0.3192719890265465 0.045805580571629124
1200000000.0 0.174199943850203 -0.28702809835299287
1220000000.0 -0.28178097252998463 -0.21540037708150384
1240000000.0 0.3196453458954646 -0.2045522567738276
1260000000.0 -0.2914807174228173 -0.25625337606044873
1280000000.0 -0.24299164238532764 -0.3116802522159709
1300000000.0 -0.1809497288768355 -0.3621339627344808
1320000000.0 -0.4105062075499025 0.010851945183088053
1340000000.0 -0.36702600927097656 0.18083357083493082
1360000000.0 0.04758712800141075 0.40127803869733086
1380000000.0 0.2946634198223526 0.2580534206042904
1400000000.0 0.13094894506009117 -0.3594814724535677
1420000000.0 -0.32719797040354337 -0.14640665708001085
1440000000.0 -0.13963163611801124 0.3021758186243449
1460000000.0 0.23843705429803577 0.18580062056364854
1480000000.0 -0.08864300119816398 -0.259036305678251
1500000000.0 0.22819718457090096 -0.06664575909803085
1520000000.0 -0.17851789329811402 -0.0856242839139652
1540000000.0 0.10029608769107219 -0.1228045397755145
1560000000.0 0.029824725340335805 -0.12344818332665913
1580000000.0 -0.10128705044877344 -0.022565718106870577
1600000000.0 0.06360084490693099 0.04488295055784306
1620000000.0 0.039165749975117896 -0.04254890321688674
1640000000.0 -0.020290170528376762 0.033142474074112784
1660000000.0 0.016590118080722423 0.005527306501229806
1680000000.0 -0.009040964093462002 -0.012131997868593453
1700000000.0 -0.022455341655710618 0.016541741141956435
1720000000.0 0.0017180387407664617 -0.04263025071479387
1740000000.0 -0.06349888331893327 -0.006031205792116246
1760000000.0 0.03926806639114532 -0.0751901257243178
1780000000.0 -0.1087527001014195 -0.008229706414409272
1800000000.0 0.13889532890907189 0.0017963763349759165
1820000000.0 -0.1070744840820481 0.13341806872263304
1840000000.0 -0.13984345932830158 -0.1509155747254957
1860000000.0 -0.020513658037358346 -0.2456312858946992
1880000000.0 0.2615387286198627 0.1259766467650672
1900000000.0 -0.20472316276144525 0.2483497254714825
1920000000.0 0.23008447547223976 -0.26073916692280674
1940000000.0 -0.37343821151034823 0.018331622875684118
1960000000.0 0.3849839077265475 0.08509714816506674
1980000000.0 -0.08539831950395378 -0.39760410834712007
2000000000.0 -0.41768331922701357 0.019551711342834538
2020000000.0 -0.2671698844573617 0.3317243531000521
2040000000.0 0.0516270289059542 0.43098004361320336
2060000000.0 0.43361364915992684 0.018708573658155418
2080000000.0 0.14530373713493022 -0.39725438941924673
2100000000.0 -0.22047586794507937 -0.3452697652886108
2120000000.0 -0.3394659513730812 -0.19943876945565917
2140000000.0 -0.33222697266215995 -0.18212360197266786
2160000000.0 0.18669481817299585 -0.3164821187763239
2180000000.0 0.2481271136197554 -0.2534102409141358
2200000000.0 0.31141055192376904 -0.1471194374323606
2220000000.0 0.28420028654716967 0.18102581647933522
2240000000.0 0.04988252981013614 0.33482977031179845
2260000000.0 0.34011661475628185 0.0840296311295121
2280000000.0 0.21364106450003087 -0.2976157145482737
2300000000.0 -0.3569824692077115 -0.14685243622851563
2320000000.0 0.2260869157262384 0.3493645493856972
2340000000.0 -0.20431849232335542 -0.40936658843468293
2360000000.0 0.4470687338284557 0.22859736995522115
2380000000.0 -0.4731339109945722 0.27702066747699455
2400000000.0 -0.23248435319833682 -0.5378893697901284
2420000000.0 0.46781610657421085 -0.40645190116114915
2440000000.0 0.3163934241736585 0.5787906032227141
2460000000.0 -0.6916475769274818 -0.0335696441129279
2480000000.0 0.697838310320597 -0.20404480374501852
2500000000.0 -0.5964675772177652 0.4516820482211569
2520000000.0 0.5654148512667887 -0.49810879732465957
2540000000.0 -0.6258651638194294 0.4129645249778018
2560000000.0 0.7325630463069965 0.10728887857451874
2580000000.0 -0.281452196889353 -0.6627173218395916
2600000000.0 0.1311620972200447 0.6685172430874169
2620000000.0 0.29614720235256764 -0.5785463185568475
2640000000.0 0.3054549167379781 -0.5411432995615776
2660000000.0 -0.4875809877758072 0.3135494464688096
2680000000.0 0.5390028825584833 -0.006049354669541364
2700000000.0 -0.43385176601345576 -0.24922421979987316
2720000000.0 0.444375323384492 0.10032806759731713
2740000000.0 -0.40748625402615785 0.0767569898728395
2760000000.0 0.3558325500202379 -0.14696373145830616
2780000000.0 -0.22592630044222628 0.2782003577964244
2800000000.0 -0.18763506266420163 -0.28335202124121267
2820000000.0 -0.09088476635239408 0.3216078672555695
2840000000.0 -0.1332318242356374 -0.29869806091596246
2860000000.0 0.10612267382889586 0.30752730072426226
2880000000.0 -0.1988244828325381 -0.2610835611520787
2900000000.0 -0.07157949460080712 0.325575890125991
2920000000.0 -0.07244649603168384 -0.339541177116689
2940000000.0 -0.26372319515664466 0.23700209727069485
2960000000.0 -0.3458824189257873 0.04145320480821916
2980000000.0 -0.318107465470068 0.1314106867791112
3000000000.0 -0.3451675320509769 0.02955264450619909
3020000000.0 -0.19881964266699112 -0.28451897731212317
3040000000.0 0.3411425526369208 -0.007732495938460643
3060000000.0 -0.3372876694224464 -0.09329755372890411
3080000000.0 0.22520649143717167 -0.251383646643121
3100000000.0 0.13984534841585203 0.28445268157277437
3120000000.0 -0.30025600238245165 0.027347867937673975
3140000000.0 0.10965787113178554 -0.2623200702749805
3160000000.0 -0.07496009685147542 0.2554221619126167
3180000000.0 -0.16532070970610058 0.17994107037771692
3200000000.0 0.06276961636494553 -0.21818593847475104
3220000000.0 0.11325248754640431 0.16132548014623477
3240000000.0 -0.15793535549968482 -0.04885893340638236
3260000000.0 0.016780636836145835 0.12521617002853552
3280000000.0 0.033530006677002074 0.0848522113739822
3300000000.0 0.04171382148380676 0.04840118686952136
3320000000.0 -0.021451636896792785 -0.03656112829580817
3340000000.0 -0.017456569119855634 -0.023134228899901972
3360000000.0 -0.008116545340404464 -0.024075381902317373
3380000000.0 -0.021224314133637824 -0.003726601760559916
3400000000.0 0.022991630882119092 -0.0008137682795025373
3420000000.0 -0.021769310306486454 0.026967687975951154
3440000000.0 -0.03557525338239447 -0.0478348162317691
3460000000.0 0.07780867240159653 -0.004383554613808434
3480000000.0 -0.09300955779970933 -0.02145959628868556
3500000000.0 -0.0654848174327558 0.0877776588806461
3520000000.0 -0.11989591586329754 0.032089946302924804
3540000000.0 -0.08901803059578918 0.107864548573962
3560000000.0 0.092948057783973 0.11898648853868796
3580000000.0 -0.13954001763248464 -0.057943226878198695
3600000000.0 -0.14574206913311913 -0.034953722268855694
3620000000.0 0.04256187854328031 0.1575347268535492
3640000000.0 0.14975952484626784 0.08288991969784075
3660000000.0 -0.05733905386907578 -0.1666071033561176
3680000000.0 -0.17148557116286814 -0.023690419985049574
3700000000.0 -0.16846109367895887 -0.018697226049737267
3720000000.0 -0.059300249615791244 -0.15478989025129103
3740000000.0 0.059771695402081756 -0.1437253733348116
3760000000.0 -0.13482062018608065 0.026160379539678612
3780000000.0 -0.09287867209727903 -0.0911608754020912
3800000000.0 -0.07226793887913253 -0.10650222455215336
3820000000.0 -0.12491110474259086 0.028740444657587478
3840000000.0 0.03038298907540625 0.11850573757200876
3860000000.0 -0.09777889857860944 0.07954336517695762
3880000000.0 0.11472405866965303 0.06743663418498295
3900000000.0 -0.1301147343629193 -0.0375879094515152
3920000000.0 0.13358321503139692 -0.016827422707279736
3940000000.0 0.0010798976440214926 0.13592913056290365
3960000000.0 -0.07940818959835015 0.10705761541702896
3980000000.0 -0.11072675477104561 0.0709147538568282
4000000000.0 -0.0649606960448027 0.08966312210461588
