!Created with skrf (http://scikit-rf.org).
# Hz S RI R 50.0 
!freq ReS11 ImS11
400000000.0 -0.8481858183244928 0.1076642749267935
420000000.0 0.2286798301517816 0.8038936789353497
440000000.0 0.21659314904982307 0.7530531316566346
460000000.0 -0.0018283539889295453 0.7316021434955746
480000000.0 -0.29429922890640053 0.6003621148391464
500000000.0 -0.1436871796584778 0.585749966474934
520000000.0 -0.5226112448049901 0.07186303000588658
540000000.0 -0.34381341247044445 0.27955746698740647
560000000.0 0.276157504662373 -0.3101168974058611
580000000.0 0.34526788488778987 0.097016868426788
600000000.0 0.33228582331965983 0.028137931249102195
620000000.0 0.3502209064809134 -0.026172412824835466
640000000.0 -0.19048125658451656 0.34959788707508177
660000000.0 0.004000982223913666 -0.44921351020158734
680000000.0 0.21938316525579082 0.4250186406085713
700000000.0 0.46322309597795525 -0.13645607441148377
720000000.0 0.45171142394672964 0.09016595235161838
740000000.0 -0.39669416169211413 -0.08083398988610495
760000000.0 0.049185855006686874 -0.3353586308645281
780000000.0 -0.27925325123070294 -0.11913803219584085
800000000.0 0.09471453806614298 -0.24627546327028577
820000000.0 -0.12276976145234945 0.18798125260418083
840000000.0 0.19152760315195724 -0.028002574720098344
860000000.0 0.08632103960299735 0.14975773720188257
880000000.0 -0.08985321551684756 0.12542970913716867
900000000.0 -0.11316874805318058 0.049196912028682836
920000000.0 0.09406249299025644 -0.004150519822801817
940000000.0 0.015783000930234267 -0.07563373218412721
960000000.0 -0.0629297101896015 -0.05192222223100151
980000000.0 -0.026203603181858444 0.0756779992794969
1000000000.0 0.03313385783139813 -0.06675994057700724
1020000000.0 -0.048990291769403116 0.06738856341083678
1040000000.0 -0.09300889319719075 0.008592422636347762
1060000000.0 0.12030408984784488 0.052630047360155335
1080000000.0 0.1596164333793153 -0.07578957569276379
1100000000.0 0.10565549244762582 0.18990395313825562
1120000000.0 -0.043101150079460054 -0.24838514197027353
1140000000.0 -0.16539979084270293 -0.22643830447912514
1160000000.0 0.2788471485832988 0.13055849357505692
1180000000.0 0.28617800492030115 -0.14731937392889108
1200000000.0 -0.3268274445828693 -0.06853216777505348
1220000000.0 -0.22487246548768194 0.27819352850827794
1240000000.0 0.371514337704684 0.10400897464573759
1260000000.0 -0.27797946740343293 -0.29185621109731996
1280000000.0 -0.3178664733144479 0.2641903527014362
1300000000.0 0.2859966931840011 0.3098518731062923
1320000000.0 0.3303556583359043 -0.25263624511060184
1340000000.0 0.40943557947367465 -0.01603772404494013
1360000000.0 0.37328239289852805 0.15212343827348926
1380000000.0 0.29082905512819024 0.27038709859629867
1400000000.0 0.3891974856849285 0.04039546356383232
1420000000.0 -0.24237295627599117 -0.2908531099016415
1440000000.0 0.1582727178291837 0.3148719703501646
1460000000.0 -0.0936660588114854 -0.2995539281825692
1480000000.0 -0.23561649661990086 -0.13947948337976224
1500000000.0 -0.23827230090485088 0.04160178956206124
1520000000.0 -0.18714399997349426 0.10279166972158581
1540000000.0 0.16943823900247157 -0.065515684577559
1560000000.0 -0.15542644659276822 0.004030969952240975
1580000000.0 0.029280427563106653 0.12344981133619426
1600000000.0 0.08130043888043914 -0.03170371596761796
1620000000.0 0.010392153739099418 -0.053628874645891576
1640000000.0 0.01090372343393018 0.018848109819102277
1660000000.0 -0.007531060974441518 0.008805961022865474
1680000000.0 0.0278104463216779 0.017335207116710744
1700000000.0 0.004709032806016786 -0.044520759335099004
1720000000.0 -0.03017913435515162 0.0398202757302879
1740000000.0 0.022135706878709707 0.04845195422027812
1760000000.0 -0.07225568678413152 0.013037002087774068
1780000000.0 0.10532841448380113 -0.030143511346676328
1800000000.0 0.08595025025980929 -0.1329793257225081
1820000000.0 -0.19538808859094448 -0.04597128785396701
1840000000.0 -0.1924068363554796 0.1333275456691841
1860000000.0 -0.24550654850382644 0.09898440329679616
1880000000.0 -0.03422562840515213 -0.2839965023573768
1900000000.0 -0.2996547941786196 0.07543265731723914
1920000000.0 0.08533804499974647 0.3278976283789141
1940000000.0 0.2650639801336766 -0.2577880879925676
1960000000.0 -0.3309760274049797 0.21385153164536774
1980000000.0 0.4050801781372242 0.04599046160513989
2000000000.0 0.03222689275500882 -0.4179717783460047
2020000000.0 -0.42169549908061643 0.06255603582816953
2040000000.0 0.023477692873891936 0.427105365080064
2060000000.0 0.39580754598947354 -0.14522737708611813
2080000000.0 -0.07519205335654487 -0.4015001095465053
2100000000.0 -0.3352440792101719 -0.2021571868536396
2120000000.0 -0.30819650239660584 -0.2076117460799104
2140000000.0 -0.09485714149149613 -0.34342911907331464
2160000000.0 0.34551104033459273 0.018194628000313316
2180000000.0 0.21921272887688656 -0.25136919547721176
2200000000.0 -0.09148789005543667 -0.3051888183417364
2220000000.0 0.01803794697000117 -0.30677667653797736
2240000000.0 -0.008537101379574218 -0.3087852511268007
2260000000.0 -0.2760440978973182 -0.14642292691328526
2280000000.0 -0.285921570784818 0.15106521913653415
2300000000.0 0.2960885301148119 0.17662765307929895
2320000000.0 -0.25565762828581157 -0.2741270350791325
2340000000.0 0.3832804159519467 0.15101164275997336
2360000000.0 -0.405776822292229 0.20380591621723287
2380000000.0 -0.021555943587729744 -0.5047019239720433
2400000000.0 0.5427305394716598 -0.13646233746266637
2420000000.0 0.34781600981511385 0.5000371297439498
2440000000.0 -0.4950332621015971 0.4239812096378084
2460000000.0 -0.3189954321830834 -0.6068890070535272
2480000000.0 0.7074739331170822 0.08107943854290775
2500000000.0 -0.7206532978975061 0.12017145086195172
2520000000.0 0.7203884148051406 -0.17031835638696657
2540000000.0 -0.7415075256054133 -0.029633608805783022
2560000000.0 0.6570906009937869 0.33048436047163715
2580000000.0 -0.47649547406218196 -0.5415802007446169
2600000000.0 0.14443631717232858 0.6848533016558487
2620000000.0 0.4568479072519113 0.49572880522618645
2640000000.0 -0.12851988784571614 -0.6311921459898604
2660000000.0 -0.19333330535872326 0.579289624966653
2680000000.0 0.30309548085392585 -0.4907704868989437
2700000000.0 -0.2723525001800696 0.46732928846309113
2720000000.0 0.11883602956971456 -0.4899207153555487
2740000000.0 0.046084951187395695 0.4645733919389967
2760000000.0 -0.09811145989784295 -0.42189876631229256
2780000000.0 -0.1519446511600446 0.381492935526423
2800000000.0 0.28868962519246405 -0.27474379474169613
2820000000.0 -0.39202675552540633 -0.0018233178686829056
2840000000.0 0.37137150312277417 0.1284200487437992
2860000000.0 -0.19145298456384327 -0.34547249203462493
2880000000.0 -0.1070507459134816 0.3845171437529603
2900000000.0 0.296281555817039 -0.26979818744911965
2920000000.0 -0.35997405984227715 -0.17667688417266192
2940000000.0 -0.356444651287879 0.16842057077953837
2960000000.0 -0.3516539312099525 -0.150558787284416
2980000000.0 0.3341750778548162 -0.18298939264446568
3000000000.0 -0.23977058846082433 0.2999352420890969
3020000000.0 -0.16971280831337288 -0.35319377438394545
3040000000.0 0.25943176527146944 -0.2946142913943594
3060000000.0 0.2229695671376082 0.3149946949003604
3080000000.0 -0.37125984633415055 0.017836579627983115
3100000000.0 0.33135576977073955 -0.11837176884874902
3120000000.0 -0.2818757456960895 -0.18522491259018098
3140000000.0 0.16343456394770287 0.27994687792369405
3160000000.0 -0.025798785389252902 -0.3037555411107745
3180000000.0 -0.24758895143205192 -0.1380057088352915
3200000000.0 0.1778885680023317 0.18534164403833525
3220000000.0 0.04353673660971721 -0.22298188560546953
3240000000.0 0.01551857962615822 -0.19896306222856633
3260000000.0 0.15793892255311373 -0.06885309249640222
3280000000.0 -0.14311396225021863 0.04527391715703861
3300000000.0 -0.11577574477599265 -0.06637256768280363
3320000000.0 0.12770841358406096 0.018533942250353035
3340000000.0 -0.020188149261868443 0.12636508443122635
3360000000.0 0.07389677870570488 -0.09920086660746438
3380000000.0 0.026686301727029346 0.10952196081338048
3400000000.0 -0.008495424386625523 0.10113518862286697
3420000000.0 -0.015782932772570212 0.08527311211836654
3440000000.0 0.058450649423437216 0.06444447021168653
3460000000.0 -0.04692448471175717 -0.07516630796922266
3480000000.0 0.06951234554899595 0.05999306324222283
3500000000.0 0.030475566760595756 0.09428468566259514
3520000000.0 -0.10064961870854507 -0.02958705408812128
3540000000.0 0.10894145500784412 0.010430028441590564
3560000000.0 -0.10478164416028915 -0.07340610833838532
3580000000.0 -0.14878255228911505 -0.014279606825103217
3600000000.0 0.11307059098528915 0.10412841034174244
3620000000.0 0.09839892752473058 0.156110281536007
3640000000.0 0.09832137948635225 -0.20245215999416533
3660000000.0 -0.12821610669765227 -0.19998405357879764
3680000000.0 0.13730933904105397 -0.2042059869963598
3700000000.0 -0.06304595484253492 -0.2504261789620774
3720000000.0 -0.19331452263446955 0.19041514985297975
3740000000.0 0.27300625045509497 -0.06379180418235461
3760000000.0 -0.08533258502907365 -0.2766324968743857
3780000000.0 -0.0611595567149461 -0.2824475785022765
3800000000.0 -0.02150016108848409 -0.2870399485443718
3820000000.0 -0.12892996008141852 0.2667159989920783
3840000000.0 0.07111066508877079 0.2834957960208591
3860000000.0 -0.11131177435410332 0.2661798014381075
3880000000.0 -0.23642588738728984 -0.16951453422093885
3900000000.0 -0.27276896157380687 -0.05348207424643115
3920000000.0 -0.2615444576613427 -0.0756501198748627
3940000000.0 -0.06513072490708367 0.25010330998687114
3960000000.0 -0.022391080577032006 0.2436247366850531
3980000000.0 0.21687063180183447 -0.08384034106061453
4000000000.0 -0.2179703229278579 -0.008311658513910919
