!Created with skrf (http://scikit-rf.org).
# Hz S RI R 50.0 
!freq ReS11 ImS11
400000000.0 -0.8235487037578187 0.2387696873792187
420000000.0 0.23830704937727654 0.8047360670151928
440000000.0 0.42051451360025294 0.6661757376754904
460000000.0 0.664803544529391 0.29923486113577114
480000000.0 -0.16779168608872455 0.620213107385657
500000000.0 -0.314418761306379 -0.5024863911366259
520000000.0 0.3317638647447713 0.4147948427958329
540000000.0 -0.0216354468544145 -0.47644687537742497
560000000.0 0.4409497793040707 0.08552691838257405
580000000.0 -0.15341224268773176 -0.37765601887558914
600000000.0 0.3058377145359638 0.18722511817102805
620000000.0 -0.28513782573788005 0.2216313592172864
640000000.0 -0.36096761834130564 -0.1772710932650221
660000000.0 0.4294795972411619 0.07825291694428005
680000000.0 -0.3824994280955589 -0.23553531760682736
700000000.0 0.18683273576925521 -0.39727064164179127
720000000.0 -0.4099846703969946 0.12007321899639
740000000.0 -0.16582473709208195 0.3450086885059849
760000000.0 0.24874722721946718 -0.24370235793677286
780000000.0 0.09714134782925096 0.3129667601389811
800000000.0 0.12537251926258844 0.26799848341986726
820000000.0 0.19718932740655717 -0.1706928145548625
840000000.0 -0.11798712498255651 0.18118680752906682
860000000.0 -0.004239672665757336 -0.16575111192387174
880000000.0 0.12263452978481947 0.002737384957280799
900000000.0 -0.06813189929697866 0.04366129945211947
920000000.0 0.04911081467667898 -0.044449209733736374
940000000.0 -0.03811772779116591 0.0321617521355394
960000000.0 -0.04466759871866149 -0.007714180755953062
980000000.0 -0.03462993741349648 0.0404145671828513
1000000000.0 -0.026424765235577418 -0.061460100554338114
1020000000.0 -0.09351059478653843 0.038807375966023745
1040000000.0 0.1163210744265967 -0.0390868525606736
1060000000.0 -0.13151821967327748 0.07585639125089029
1080000000.0 0.15121041291307058 -0.1015899058285707
1100000000.0 -0.15242824626058576 -0.14062881649153483
1120000000.0 -0.22239975593750924 -0.09856578428414023
1140000000.0 -0.15353352052982724 -0.22587503587954968
1160000000.0 0.2734683860059907 0.13012339654506738
1180000000.0 0.3184238089151686 0.001435842375312575
1200000000.0 -0.3252919785764347 -0.0475114500255019
1220000000.0 -0.35408339793235044 -0.033449092675598695
1240000000.0 0.3846922950626512 -0.014494411715366463
1260000000.0 -0.17807852694624982 -0.3563061806927399
1280000000.0 -0.3716019750695015 0.17067912050667836
1300000000.0 -0.14693361666490748 0.3897725073174354
1320000000.0 0.29226341528464833 0.305464731975756
1340000000.0 0.36302457686630957 -0.21782162325392618
1360000000.0 -0.16671483596275163 -0.3737866867094697
1380000000.0 0.06631038669306509 -0.38163915662535136
1400000000.0 0.027697407797094238 -0.37402242525706825
1420000000.0 0.014985601838760316 -0.3528323727290831
1440000000.0 -0.19604641158736413 -0.2756806237288162
1460000000.0 -0.1882156921820172 0.2557968508284542
1480000000.0 0.06909464987379084 -0.2834018140309324
1500000000.0 0.007348725924147606 0.25188490793388574
1520000000.0 0.09951940448725864 -0.19603975029753135
1540000000.0 0.06546030746095946 0.16243157133193198
1560000000.0 0.1331787948430664 -0.04647016638306316
1580000000.0 0.009162002674628225 0.11108173248891898
1600000000.0 -0.014935584229005048 0.07593425987274599
1620000000.0 0.03235709188212523 0.0488359394603431
1640000000.0 0.0375841210408762 -0.00915316359536555
1660000000.0 -0.004059076621971375 0.01346099806187112
1680000000.0 0.014564739889873264 -0.005487092995057438
1700000000.0 0.04065284697064299 0.002083767927874911
1720000000.0 0.031488089899286774 0.04532499368020947
1740000000.0 0.032547360345655474 0.06689003316413253
1760000000.0 0.09094571964717474 -0.010509090964103048
1780000000.0 0.09854723523818261 0.058244333659464444
1800000000.0 -0.1087141583992761 -0.10788645120587513
1820000000.0 -0.13247110043337967 -0.12449240931029451
1840000000.0 -0.07225892205881711 0.19631261684238543
1860000000.0 0.248837045421537 0.00564456589914814
1880000000.0 -0.018151011304564427 0.29470967439879
1900000000.0 -0.2768197485827317 0.16741966763561053
1920000000.0 0.3299407465188965 0.11357436240114124
1940000000.0 -0.19598745633659168 -0.3257367373139923
1960000000.0 0.3177959038449231 0.24510690363685708
1980000000.0 -0.1338766397871807 -0.38732251563708175
2000000000.0 -0.4099433505888135 -0.03814129766623695
2020000000.0 -0.3931414569318058 -0.14146882962899757
2040000000.0 -0.41059319093582447 0.13139676045846457
2060000000.0 0.3762535765827178 0.21158368425141302
2080000000.0 0.07927340675976613 -0.4158528696953249
2100000000.0 -0.3972336230826419 -0.08348250204544669
2120000000.0 -0.370292643520424 0.10390098109862683
2140000000.0 -0.2859922966346973 0.22567150164388766
2160000000.0 0.158258560349232 -0.300617814998904
2180000000.0 0.21184499823870753 0.2520092852926799
2200000000.0 0.13672190444166013 0.29685336462186385
2220000000.0 0.29193880679437895 0.14530229049574592
2240000000.0 0.04398887562864902 -0.3243469866192396
2260000000.0 -0.2598189787924069 -0.19671105856175883
2280000000.0 -0.33428445987013855 0.04455984793245886
2300000000.0 0.1738179373091703 0.31434358291965925
2320000000.0 -0.11885415953519113 -0.371818608493222
2340000000.0 0.392102863113616 0.1718983476717775
2360000000.0 -0.4057907058317873 0.23746805604184656
2380000000.0 -0.26411431657954465 -0.44875833177231267
2400000000.0 0.3697828441214248 -0.43332656430495187
2420000000.0 0.5835944110910967 0.1893375781421888
2440000000.0 -0.10984605836280198 0.6408769642441168
2460000000.0 -0.6038269699094196 -0.30868772132366096
2480000000.0 0.6493838307732697 -0.25906165637242146
2500000000.0 -0.5405965112988169 0.4628363605419984
2520000000.0 0.5514925973709294 -0.4565541387458338
2540000000.0 -0.6509964340924549 0.2917783281656528
2560000000.0 0.691733692858036 0.12889312673866332
2580000000.0 -0.41021777652348057 -0.5494745332965794
2600000000.0 0.018698131171967322 0.6609857534877001
2620000000.0 0.39711752942292555 0.4929596324665026
2640000000.0 -0.10908042187524344 -0.5903155174745672
2660000000.0 -0.14265261603986965 0.5448599976756321
2680000000.0 0.33449638260756515 -0.40378220645675156
2700000000.0 -0.3662989650835102 0.3193256554101645
2720000000.0 0.38628944557478734 -0.2285470773244285
2740000000.0 -0.407580172309076 0.08819810556203288
2760000000.0 0.3679552259157369 -0.13420416695232293
2780000000.0 -0.31657182537653095 0.1953062173943519
2800000000.0 0.3152753111290433 -0.1699608179761605
2820000000.0 -0.28519115436866277 0.2083666785071272
2840000000.0 0.14029958923297073 -0.3222406498357879
2860000000.0 -0.17925706523382012 0.302047596053792
2880000000.0 0.30183042837792573 -0.18078561287176356
2900000000.0 -0.07332958161370022 -0.3452241418931485
2920000000.0 -0.2862710509050715 -0.21668696504450194
2940000000.0 -0.3665315962513834 0.0018383777659972214
2960000000.0 -0.3334131045584596 0.1616234426485541
2980000000.0 -0.3692618172810602 0.05653760663424363
3000000000.0 -0.34656986897048936 -0.13933734456011568
3020000000.0 0.044571750840351504 -0.3632307732526879
3040000000.0 0.15968779508863137 0.3186912432244956
3060000000.0 -0.025006970451934334 -0.3502361208441451
3080000000.0 0.012064893355078411 0.3472165125794308
3100000000.0 -0.06878745937585448 -0.3343595625058669
3120000000.0 0.3205891993878985 0.08927906276788393
3140000000.0 -0.06807978086277384 0.31286627682817414
3160000000.0 0.012553104881613528 -0.29751765429027843
3180000000.0 0.23820524405633686 0.11982655990338296
3200000000.0 -0.07219870613692067 -0.22469760896983673
3220000000.0 -0.13234487926630747 0.16406203035961678
3240000000.0 0.10315730856474421 -0.1562802901300586
3260000000.0 -0.0339152882180403 0.15424258410686834
3280000000.0 0.04344185001413127 -0.1169013282863852
3300000000.0 0.0933663046443345 -0.02484717652817234
3320000000.0 -0.01864408280426634 0.07331371772909433
3340000000.0 -0.015027187186687047 -0.05903981206151032
3360000000.0 0.04722442424233548 -0.016152775651745572
3380000000.0 0.03629744797222752 0.016188734147851356
3400000000.0 -0.0068184018237537275 -0.029411925914425683
3420000000.0 0.027486193936743845 0.006330750617181584
3440000000.0 0.03385907994445118 -0.008664179951667654
3460000000.0 0.030803813633120604 -0.033638813145057136
3480000000.0 0.04282738630035788 0.038947834389156714
3500000000.0 -0.015468070040291075 -0.07053444739699523
3520000000.0 -0.028512893139606692 -0.08804887061037714
3540000000.0 0.08849183283169933 -0.06542032539459111
3560000000.0 -0.11677171998631192 0.02773121713461054
3580000000.0 -0.0459763713211503 0.11834016546984084
3600000000.0 -0.130655805775156 0.03999774760037572
3620000000.0 -0.10608114096685126 -0.099997316104316
3640000000.0 -0.05101614950705655 -0.144612016601259
3660000000.0 0.11485425599122841 -0.10936240612658747
3680000000.0 0.06839224237334547 0.14799043034983053
3700000000.0 0.03762258102788797 0.1616113467569022
3720000000.0 -0.12469275546695033 0.10191483373775512
3740000000.0 0.12301854981141022 -0.09403082702366651
3760000000.0 0.1508904323189124 0.016158047856199415
3780000000.0 -0.01609252054332857 0.15227877437405063
3800000000.0 -0.05202431102197393 0.15102392652277966
3820000000.0 0.1655470859646545 -0.009444695027670966
3840000000.0 -0.0796657952515691 -0.14971582791318008
3860000000.0 -0.08293396714474714 0.15336348871814762
3880000000.0 0.1461811306306432 -0.11215400166780053
3900000000.0 0.11789140093257088 0.15419770018286197
3920000000.0 0.17002034180947384 0.10008683077221714
3940000000.0 0.19726871973276053 0.004348118809521371
3960000000.0 0.11616140915657243 -0.15162472748869937
3980000000.0 -0.019267301046181337 -0.1814833874015982
4000000000.0 -0.16677440555486714 0.02452745881743859
