!Created with skrf (http://scikit-rf.org).
# Hz S RI R 50.0 
!freq ReS11 ImS11
400000000.0 -0.4688481944114531 -0.6968810948253628
420000000.0 -0.8046367094694715 0.23267617477010313
440000000.0 -0.37035388247953294 0.693617622348871
460000000.0 -0.5748376102934937 0.44550911584429925
480000000.0 -0.19765299155603325 -0.6282834325367093
500000000.0 -0.09061972950017458 -0.6232402766329905
520000000.0 0.4931172551679147 -0.21672783807954907
540000000.0 -0.4010212067781456 -0.277261300777963
560000000.0 -0.403740523476463 0.19994688008815437
580000000.0 -0.3882494878359022 -0.07080661362186288
600000000.0 0.1257882892132407 0.33466257712947417
620000000.0 -0.08615563017001018 0.3513641517716982
640000000.0 -0.007558905769377846 -0.40589420288444295
660000000.0 0.061120451632197446 0.44183800990803673
680000000.0 -0.08058175514174312 -0.45733954606358523
700000000.0 0.40616677646202676 -0.19408959319758542
720000000.0 -0.43030305179286915 -0.07932869138082242
740000000.0 -0.09934149520116499 0.3813114973940611
760000000.0 -0.18190593579987638 -0.30726169192706326
780000000.0 -0.18649976799637707 -0.25342404240317873
800000000.0 0.22635144340600802 0.15377684379595546
820000000.0 0.11825313507457237 0.19568274886228618
840000000.0 0.08286771307851741 -0.16890470978364858
860000000.0 0.1223669134129897 -0.09642008385721476
880000000.0 -0.08711062110352256 -0.09443372477228305
900000000.0 -0.03388435742026254 0.08624588558951235
920000000.0 0.06888638700562535 0.010892246121579807
940000000.0 -0.0048432201508697165 0.05931425718563364
960000000.0 0.0496738762094003 0.049359318842855986
980000000.0 0.08183098726238738 -0.047236158604571726
1000000000.0 0.03491601073457714 -0.08985014623855123
1020000000.0 -0.08211955466944752 -0.07570943729414496
1040000000.0 -0.10634295603276062 -0.07680454193809774
1060000000.0 -0.03180042997538852 0.1405267905918436
1080000000.0 -0.10454542709732026 0.1528458119794188
1100000000.0 0.1785389741049503 -0.09720336974241077
1120000000.0 -0.04230876583639193 0.23690423792707838
1140000000.0 0.042958342216217554 0.27127898224107755
1160000000.0 0.03235181936466119 -0.30309112708145736
1180000000.0 -0.28408937071671886 0.16379005711919759
1200000000.0 -0.1554259163660233 -0.2947620851742597
1220000000.0 -0.2678218386525549 -0.22766133596260027
1240000000.0 0.22867653896110263 0.29884765660680446
1260000000.0 0.24796423893436842 -0.29518957606446894
1280000000.0 -0.26279266084207564 -0.2963991124654621
1300000000.0 -0.31123001374950476 -0.25236023449991923
1320000000.0 -0.39530998317299276 -0.10898460980398823
1340000000.0 -0.17757505038951943 0.37264199323525177
1360000000.0 0.08864305720034445 0.3964259877053583
1380000000.0 0.3855309849438171 0.07503645750908985
1400000000.0 0.28849292744162425 -0.24068318109166006
1420000000.0 0.1232817401998716 -0.33063102735252187
1440000000.0 -0.2924344600138263 -0.16607868198849549
1460000000.0 0.14049057606229043 0.27641305331992017
1480000000.0 -0.21047082936202594 -0.1868370210319827
1500000000.0 0.13743714842494342 -0.19896194175933518
1520000000.0 -0.2020940682036487 -0.00039519615063352356
1540000000.0 0.13433227601781206 -0.08368177393293097
1560000000.0 0.12333475477740131 0.0003546467016172792
1580000000.0 0.024174772360862476 -0.09740473498885298
1600000000.0 -0.07586187534076982 0.004394216059697061
1620000000.0 0.02006797181998675 -0.05844007913848168
1640000000.0 0.035824632436212 -0.023058932310998956
1660000000.0 -0.011781594935178264 -0.021038777810288324
1680000000.0 0.01198253595178807 0.005916920048427237
1700000000.0 -0.023145037267873456 -0.0001843423050684645
1720000000.0 0.019992345942773642 -0.03590363078457967
1740000000.0 0.046801744358630465 0.03880645610150883
1760000000.0 0.014477278510162103 -0.08234837719506548
1780000000.0 0.06954696003056889 -0.08745314996589716
1800000000.0 -0.1468560589292549 0.0005273874167308812
1820000000.0 -0.12451022284536578 0.11869656743157382
1840000000.0 0.1943114784320306 -0.033562491133080845
1860000000.0 -0.15299763971801297 -0.17456561860188238
1880000000.0 0.1682338294991036 0.21427537735282104
1900000000.0 -0.2931577322831661 -0.10075873415679086
1920000000.0 0.3147919152147533 0.1403146638495388
1940000000.0 -0.3541202801879052 -0.13411271135836272
1960000000.0 0.3652789606787108 -0.16464154226903036
1980000000.0 -0.4042348773631603 -0.07132011535577239
2000000000.0 -0.09262553331191536 0.40546864176767117
2020000000.0 -0.01691126857811869 0.4161864515074978
2040000000.0 -0.06236753314734141 0.41998976393699905
2060000000.0 0.3414193500588995 0.2604000792048783
2080000000.0 0.35976283367535783 -0.23287615788291488
2100000000.0 -0.3038677388695817 -0.29035282234149756
2120000000.0 -0.3399660429908065 0.21498374086996783
2140000000.0 -0.275998163124241 0.26210230014302677
2160000000.0 0.04883646867101869 -0.3564355080128412
2180000000.0 0.3419579024334905 0.06482977109818852
2200000000.0 0.3170901635152412 0.1310853092233828
2220000000.0 0.2051087405068489 0.2707367152503917
2240000000.0 0.32556374637284397 0.11342466249950431
2260000000.0 0.35045300156278925 0.012161240561973558
2280000000.0 0.2600723955189642 -0.26075769783820696
2300000000.0 -0.3893577729679329 -0.03455758792614032
2320000000.0 0.34787295215177305 0.23855168925863793
2340000000.0 -0.44044386267056196 -0.13376056674606715
2360000000.0 0.45089445029070957 -0.22609188860684715
2380000000.0 0.12119582914038327 0.5411588008460919
2400000000.0 -0.5886535667992643 0.13229780997786048
2420000000.0 -0.19155474421370958 -0.6179027906960631
2440000000.0 0.6576098137494699 -0.1860393143516157
2460000000.0 -0.15153143389663404 0.6954943908973704
2480000000.0 -0.3144932594575931 -0.6608212868338372
2500000000.0 0.39944542824284646 0.6260555646859601
2520000000.0 -0.23731926267893413 -0.7072057620424239
2540000000.0 -0.09489372436330218 0.7349210546662681
2560000000.0 0.49634738886127927 -0.5370576125282687
2580000000.0 -0.7114244191682587 -0.0011666768508187075
2600000000.0 0.48939678774618955 0.47708199874220625
2620000000.0 -0.035722795210097545 -0.6494192757305745
2640000000.0 -0.3464034516433862 -0.5057061464980418
2660000000.0 -0.13370922143527653 0.5572579782234403
2680000000.0 0.38904789938876744 -0.3625842276728338
2700000000.0 -0.45330500281075686 0.18992453279714153
2720000000.0 0.4109217892538506 -0.1841457553626548
2740000000.0 -0.37353266067572066 0.1747165615821726
2760000000.0 0.33237092994764755 -0.1832645884997156
2780000000.0 -0.256438362896164 0.24402234846305107
2800000000.0 0.19362743836718765 -0.2746742335508188
2820000000.0 -0.06242586612969576 0.3220871942364636
2840000000.0 -0.19759096253202954 -0.25774556093972084
2860000000.0 0.2550018611153585 0.2031006244290029
2880000000.0 -0.30744216798873436 -0.11692016499773854
2900000000.0 0.20956302476618457 0.25778218872931885
2920000000.0 0.11019100049106173 -0.31798814496260397
2940000000.0 -0.2952841204479688 -0.16681805737047067
2960000000.0 -0.30617368492984615 0.14798209171182095
2980000000.0 -0.33351641638456986 0.06359255918104555
3000000000.0 -0.23710026295623776 -0.24469731612497705
3020000000.0 0.1470923299665313 -0.30678680423325677
3040000000.0 0.2810614808152037 0.18721599145272166
3060000000.0 -0.2435555016482811 0.22542747928841275
3080000000.0 -0.006383778108681768 -0.31991838114334853
3100000000.0 0.0788925972207495 0.29952312038501616
3120000000.0 -0.24548613825068966 -0.17134522936076332
3140000000.0 0.225901826103173 -0.17513571432318292
3160000000.0 -0.25577100565793515 0.0812218444271368
3180000000.0 -0.23122268047189568 -0.0877791453097408
3200000000.0 -0.14213436745852287 -0.16719232751978536
3220000000.0 -0.015102485060658704 -0.18804101342010465
3240000000.0 0.10962765705000882 -0.11557211724129167
3260000000.0 0.10109998445985036 -0.07601307825501735
3280000000.0 0.0541814676006423 -0.07823744326555927
3300000000.0 -0.00950333256226849 -0.06878769966932888
3320000000.0 0.04428116362003074 -0.017553467818085856
3340000000.0 -0.005463743235839047 -0.029609050089689667
3360000000.0 -0.018447323278071737 0.014805797233904815
3380000000.0 0.025585758628705584 0.004767644124053498
3400000000.0 -0.024211823368789492 -0.02577821533535519
3420000000.0 -0.049150871414930776 -0.017547630009452687
3440000000.0 -0.027517517231858954 -0.06675399339273992
3460000000.0 0.029650855006725735 -0.08472561747997201
3480000000.0 -0.001188866215829255 0.09959388129924782
3500000000.0 0.03916294505058355 0.10086680823575123
3520000000.0 -0.11337337682725877 -0.037376812278157666
3540000000.0 -0.11426390021581087 -0.0712992451788245
3560000000.0 -0.11857459600667511 -0.08535341037428412
3580000000.0 -0.13882214186018618 -0.07676334604620938
3600000000.0 -0.15373547992261505 0.07004430587230445
3620000000.0 -0.02249295535101887 0.17427237079674116
3640000000.0 0.08531106940158191 0.15429750881782348
3660000000.0 -0.008676362690064205 0.17459132530336052
3680000000.0 -0.14505176576908752 0.08825000042404332
3700000000.0 -0.05696288226513679 -0.15356557500464899
3720000000.0 0.13204873506801057 0.09121538346932732
3740000000.0 -0.06910054025348056 0.13795327424237822
3760000000.0 0.08355257410135337 0.11594312548115109
3780000000.0 0.0577020713610026 -0.11316223282673554
3800000000.0 0.020672984340703405 0.11414770168290747
3820000000.0 -0.019012263593710263 -0.11123529930158607
3840000000.0 -0.11106612952629653 0.019317290606117636
3860000000.0 0.08057764515550617 0.09106497836396564
3880000000.0 0.1320510561665819 -0.03128621589604285
3900000000.0 0.0347747782142772 0.14236914040554138
3920000000.0 0.14758015470079755 -0.010730514122623342
3940000000.0 0.1295412834966301 -0.054403012191608265
3960000000.0 0.0667222121852409 0.11289125837798708
3980000000.0 -0.11911374707369128 0.006806322286309686
4000000000.0 0.025487939161477596 -0.10604369258914607
