!Created with skrf (http://scikit-rf.org).
# Hz S RI R 50.0 
!freq ReS11 ImS11
400000000.0 -0.6734894005138325 -0.5110540184236111
420000000.0 -0.6012580876674776 0.5932784123660126
440000000.0 0.17461603870580994 0.7706966633464012
460000000.0 -0.06715949841196542 0.7204047245702248
480000000.0 -0.592367632429842 -0.2839482917693132
500000000.0 -0.32848903135194896 -0.5291475336976167
520000000.0 0.45519246670417857 -0.28204443396164885
540000000.0 0.15622648708211903 -0.455990898980566
560000000.0 -0.24495910295436635 -0.37754962012496823
580000000.0 -0.1985035648080336 -0.34433399355835
600000000.0 0.13863977577556977 0.3313263026020805
620000000.0 0.07458361923775281 0.3539913877973941
640000000.0 -0.06148123504390419 -0.40176999324810775
660000000.0 0.41756859055840795 0.15945561125115762
680000000.0 -0.22469137316855206 -0.39574063218262445
700000000.0 0.3694370800166053 -0.26040889959016017
720000000.0 -0.4302632025539069 0.005121952486147779
740000000.0 -0.2764747021490379 0.290599609452824
760000000.0 -0.3330524192001772 -0.131728639422533
780000000.0 0.29965829655868764 -0.13444938930864062
800000000.0 -0.19590139010637886 -0.21449986926258358
820000000.0 -0.035687362034406755 -0.2352507790293678
840000000.0 -0.03191210741585937 0.19255663534402803
860000000.0 0.1489750058006149 -0.07440667477269224
880000000.0 0.0162510280305209 0.12449219853711557
900000000.0 -0.08922413359463499 -0.0017540374193808865
920000000.0 0.029048225305714402 0.0377542563179298
940000000.0 -0.0009812466745242963 -0.026770705463042863
960000000.0 0.020341110767112768 -0.04336759375795834
980000000.0 0.05536589742558587 0.025202138593322432
1000000000.0 0.03386694353768096 0.08057479664092922
1020000000.0 0.09931579749692128 0.027374355818067193
1040000000.0 0.08966043806839837 -0.07330538130383744
1060000000.0 0.14512287293293666 0.040879067462652734
1080000000.0 -0.15491028090541317 0.1129508346802818
1100000000.0 -0.20562689881939064 -0.08572081065062971
1120000000.0 -0.18243768486995862 0.17360045246996386
1140000000.0 -0.27650011016116854 0.009765976142203672
1160000000.0 -0.07625899712408543 0.29445938967888674
1180000000.0 0.18456773390859263 0.2787970106807771
1200000000.0 -0.15862469533735887 0.3088810181277958
1220000000.0 0.2644635270309091 0.24600332867999117
1240000000.0 0.15683967597051054 -0.3461203389749669
1260000000.0 -0.08142237420116381 -0.38341452138946586
1280000000.0 -0.34292663371147825 -0.21846486278539437
1300000000.0 -0.4065314833504816 0.11237888805021046
1320000000.0 0.34850504212720756 0.23456033026935685
1340000000.0 0.34856042503287743 0.22748541934384597
1360000000.0 0.3731511737727023 0.16845086204563312
1380000000.0 0.3857932408878714 0.0978971729660739
1400000000.0 0.300620097687211 -0.24268822693481037
1420000000.0 0.11497740086714861 -0.34595356617033035
1440000000.0 -0.3438213614721574 -0.07765991670602206
1460000000.0 0.31619945164338886 -0.05613732716900617
1500000000.0 -0.04928028771401625 -0.23551803608044408
1520000000.0 0.20035735833870125 0.019785074601540376
1540000000.0 -0.08963880898980689 -0.14553272944478787
1560000000.0 0.049345415104835144 0.13084795459754145
1580000000.0 -0.10717153671675449 0.023040793583699648
1480000000.0 -0.23975331962493543 0.15936575955132928
1600000000.0 -0.06133949669488706 0.04498939478650709
1620000000.0 0.015371067893375468 0.05326750936011642
1640000000.0 0.00035228134314958223 -0.03351643131858333
1660000000.0 0.0016190111222571721 0.014543137284025063
1680000000.0 -0.010367706998513462 -0.004118926524511321
1700000000.0 0.002801842659730888 0.024427147764562084
1720000000.0 -0.04112755992163559 -0.027315597401533415
1740000000.0 0.05820234623843529 0.03805040249807921
1760000000.0 0.0332423075371556 -0.08025984920800394
1780000000.0 0.11114963963500545 0.022980116743681972
1800000000.0 0.06723934674062537 0.13647182477196834
1820000000.0 0.08064859001606212 0.16775897564225045
1840000000.0 -0.16677089697033953 -0.14199777062562588
1860000000.0 0.10368456756091252 -0.23750966040530117
1880000000.0 0.2760380245776842 0.0926886527870332
1900000000.0 -0.3200452124055735 0.0018138436074904708
1920000000.0 0.34772847570501786 0.02949816424082045
1940000000.0 -0.33047424438724354 -0.1759532872359487
1960000000.0 0.2552021968758954 0.2998484128152218
1980000000.0 0.18927765717291278 -0.359297441197927
2000000000.0 -0.311526519046193 -0.27190791140729414
2020000000.0 -0.3989637487015835 -0.12644566885739883
2040000000.0 -0.3990525627495258 0.1546124774004192
2060000000.0 0.3172623486229801 0.29102824648198616
2080000000.0 0.11425803551905704 -0.4043210927823573
2100000000.0 -0.31340076266283234 -0.25588990685997864
2120000000.0 -0.34869746589658446 0.1635935857565929
2140000000.0 -0.3461710042797216 0.11422422955787247
2160000000.0 0.08163788334738616 -0.339588609506408
2180000000.0 0.19129694792143187 -0.27369483463730665
2200000000.0 0.22256102352704088 -0.2340544735228552
2220000000.0 0.31242409764305695 0.05177972531289825
2240000000.0 0.3197983397999053 0.05103068934612856
2260000000.0 0.11126760760096348 -0.31485653167647776
2280000000.0 -0.3331244641878005 -0.10758157861989309
2300000000.0 0.3471661001683342 0.1411790144981624
2320000000.0 -0.3800204858415079 -0.13444022890786178
2340000000.0 0.4352003498375107 0.07570806111972572
2360000000.0 -0.30795458182165975 0.3767399456954716
2380000000.0 -0.46645105918514956 -0.269843081209381
2400000000.0 0.25395691747467786 -0.5301995114839906
2420000000.0 0.5874635160707143 0.2348239315060532
2440000000.0 0.0997821146281995 0.6686440927530297
2460000000.0 -0.6111899662611614 0.3623191213325562
2480000000.0 -0.11006047175466459 -0.7255504846768444
2500000000.0 0.3548246462763192 0.6535692690144639
2520000000.0 -0.40153181474350075 -0.6309839013041121
2540000000.0 0.21827369059207993 0.7126136706996234
2560000000.0 0.3042872369234551 -0.6722845098433378
2580000000.0 -0.6515438292448112 0.3059018385200508
2600000000.0 0.6926773574389368 0.0007448081690047215
2620000000.0 0.5025210225590588 -0.4293159487066728
2640000000.0 -0.5957297487855575 0.1938034010208657
2660000000.0 0.572641576308539 0.14272933622521308
2680000000.0 -0.38858671178561677 -0.38688511820370236
2700000000.0 0.12033470446800927 0.4972836893136819
2720000000.0 -0.051102771324703526 -0.47449104509140305
2740000000.0 -0.12190376345603651 0.4244180347284045
2760000000.0 0.3014709846011646 -0.27618956523637395
2780000000.0 -0.3689940001953887 0.1111557597292122
2800000000.0 0.378960545952459 0.03222007087504324
2820000000.0 -0.3702047700981366 0.02631403129589687
2840000000.0 0.36344233603759973 0.05555079544740605
2860000000.0 -0.3165508076958857 -0.18141635731194306
2900000000.0 0.31050935437143934 0.20252574672948023
2920000000.0 0.23634232214775608 -0.29426891406679606
2940000000.0 -0.26808208885742724 -0.2711351112072365
2960000000.0 -0.3716105035296102 0.03573542144247058
2980000000.0 -0.2988630020651055 -0.21704453816299382
3000000000.0 0.05473332621479811 -0.36424910177562775
3020000000.0 0.10162917334056243 0.352470884446316
3040000000.0 -0.3199722787184814 0.16603136756277143
3060000000.0 0.14092399700926167 -0.32140422328425006
2880000000.0 -0.05995493371732722 0.3617007904927383
3080000000.0 0.21233898016852806 0.26657001162052824
3100000000.0 0.3299550861451052 0.011706045331154106
3120000000.0 -0.322599855629341 -0.0003376817047293603
3140000000.0 0.17323270088407539 -0.2567410413459761
3160000000.0 -0.25263480412893013 -0.14254521586473026
3180000000.0 0.21698476074391357 -0.1465655778634922
3200000000.0 -0.21053263862712937 0.08598653871511575
3220000000.0 0.14773516819599497 0.1250627167560211
3240000000.0 0.09837849948628817 0.12762355007642903
3260000000.0 -0.065127080237929 0.11773368706221576
3280000000.0 -0.0714858826980488 -0.08183209766030336
3300000000.0 -0.035371526126986 -0.08484580995827573
3320000000.0 0.08224713391532369 0.0021683085620984957
3340000000.0 0.0009498392231709268 0.07431995015890477
3360000000.0 0.0014869999845194767 0.06798493991629538
3380000000.0 0.020248065311508676 -0.054202337382150766
3400000000.0 -0.0035144803113388383 -0.050939020440109464
3420000000.0 0.04344486939965447 0.0051601201145001704
3440000000.0 0.006680756435897225 0.01802718631819275
3460000000.0 0.015109698413352224 0.02160393278902245
3480000000.0 -0.008433336258234173 0.019873567329432514
3500000000.0 0.0016645479005739882 0.012927738917600387
3520000000.0 0.01790973848523719 -0.01472593458158375
3540000000.0 -0.027517433115230604 -0.014435126210508789
3560000000.0 0.01935065518970871 -0.04187030340713129
3580000000.0 -0.04447516505009117 -0.007332685170913651
3600000000.0 -0.038372257106762515 -0.029588397721766253
3620000000.0 -0.052277270423267984 0.08272478789175174
3640000000.0 0.09920641202135976 -0.06579104942540538
3660000000.0 0.0034924784104716717 -0.1335034013881606
3680000000.0 -0.11463790233540093 0.09464280181673351
3700000000.0 0.13064108852525 -0.10425566967088162
3720000000.0 0.1518370867912263 0.11150171243616523
3740000000.0 0.0821252991731486 0.18519210499371047
3760000000.0 0.20520814521321515 0.092749665165283
3780000000.0 0.16235133725695217 0.12795197295363728
3800000000.0 -0.030600082644130267 -0.24001369096743527
3820000000.0 -0.2347901252425531 -0.11507272843772492
3840000000.0 -0.2516501096636599 -0.1583972928572016
3860000000.0 -0.2865354432486018 0.10072761104667008
3880000000.0 -0.1892293850571476 0.24265234489732362
3900000000.0 -0.05330127270535688 0.3055085657116948
3920000000.0 0.14599567373968983 0.27283915135327996
3940000000.0 0.131584365984269 -0.269566502267431
3960000000.0 0.06766444404268251 -0.2677053647455761
3980000000.0 -0.26726853364902653 0.05574965439110316
4000000000.0 0.05063718796841885 -0.2532580740201573
