!Created with skrf (http://scikit-rf.org).
# Hz S RI R 50.0 
!freq ReS11 ImS11
400000000.0 -0.44796304183618757 -0.6886727175986738
420000000.0 -0.7643464183656679 -0.339216452428835
440000000.0 -0.5143877011480318 0.5899726270908737
460000000.0 -0.701429398650632 0.159763798871679
480000000.0 0.518208126697968 -0.4070097832202186
500000000.0 0.6383140097441726 0.05645807168022265
520000000.0 0.41341339122896253 -0.3818584372540892
540000000.0 -0.4510379371529891 0.19256135785759507
560000000.0 -0.3582878189140425 0.28399347822192295
580000000.0 -0.2722376670104292 0.2987458201799979
600000000.0 0.058593628999794665 -0.364046843443096
620000000.0 0.1562057424550103 -0.3238831273437699
640000000.0 -0.3763034962310946 -0.12450147876319932
660000000.0 0.26575329782447793 0.3479055750602532
680000000.0 0.08286516755247232 -0.44649975906297346
700000000.0 0.4224890182264256 -0.14139283696872879
720000000.0 -0.4176105450051783 0.06360468977703176
740000000.0 0.12750467067863266 -0.35232325316205254
760000000.0 -0.09598514212888612 0.3562825957575236
780000000.0 0.24733408657151687 0.22407589033404912
800000000.0 0.2101105068197963 0.2071363109845674
820000000.0 0.11412255510486721 -0.217984819119737
840000000.0 -0.07433384089424226 0.1815029182134747
860000000.0 0.04144457570769665 -0.15767892980392653
880000000.0 -0.008729450680210091 0.11266185289288222
900000000.0 -0.07263984693115014 -0.03960800792881731
920000000.0 -0.01397472491587141 0.05384657556565197
940000000.0 0.03375407741779388 0.019761092783986835
960000000.0 0.06121842923505735 -0.022001737750810792
980000000.0 -0.0734552500225715 0.005492158745451233
1000000000.0 -0.06936087882539978 -0.05040979586665166
1020000000.0 -0.0833152899726876 0.06741684787360572
1040000000.0 -0.10562661666503177 -0.06281595881869172
1060000000.0 -0.12026271383581534 -0.09604712346569148
1080000000.0 -0.13651261736817835 -0.12056889299630878
1100000000.0 -0.16277730534556858 0.1387404822521099
1120000000.0 0.0481295347392169 0.24122172342685094
1140000000.0 -0.1266510002713605 0.24501090722020533
1160000000.0 -0.17068554407266917 -0.25062575594898595
1180000000.0 -0.2172128125692116 -0.23554865794976507
1200000000.0 0.33806648730544003 0.014679661620805947
1220000000.0 -0.26907739778081446 -0.23239192097560468
1240000000.0 -0.04936612169982252 0.37253602348735665
1260000000.0 0.39168001010518383 -0.03188295914161345
1280000000.0 -0.15167097712837768 -0.37521782620953936
1300000000.0 -0.4065145517657319 0.032425468838293794
1320000000.0 -0.3458557327685614 0.213208265162769
1340000000.0 -0.20922738939684812 0.348634527182431
1360000000.0 0.11448611273734907 0.3827300979554171
1380000000.0 0.16902928521407462 0.34880436598128883
1400000000.0 0.3575138497200113 0.09855378105952274
1420000000.0 0.31249035972327355 -0.15688529407505578
1440000000.0 -0.020979285384803988 -0.3302282593649188
1460000000.0 -0.2879256847118303 0.10804296568299648
1480000000.0 0.2512181129846828 -0.12963943333524686
1500000000.0 0.24471669685481695 -0.004181071666821536
1520000000.0 -0.15800270073414313 -0.13021118280950608
1540000000.0 0.04298721068027597 -0.15948789080992762
1560000000.0 -0.10194433951694362 0.07756086705158735
1580000000.0 -0.06489177844880971 -0.07613524187571362
1600000000.0 0.0671546757228751 -0.027170802908050115
1620000000.0 -0.05022729492150604 -0.0031374410823117992
1640000000.0 0.015390480385478446 -0.025407335304912064
1660000000.0 0.004166357850164859 -0.012134304458058348
1680000000.0 -0.002715051233286966 -0.01283881004468599
1700000000.0 0.030891107705431214 -0.0018279916307754566
1720000000.0 0.040391087396889 0.014184647772655106
1740000000.0 -0.024960212373677626 0.0532380598321039
1760000000.0 -0.06250155994443593 -0.03809737491815388
1780000000.0 -0.058971927419688874 -0.07806770038390305
1800000000.0 0.0029676911710313043 -0.13317986593793657
1820000000.0 0.13423200942373734 -0.09145170673926258
1840000000.0 -0.19175075691743637 -0.035499128519637026
1860000000.0 0.23618427927701507 0.011194287049347707
1880000000.0 -0.046438408089906895 0.27606962256829193
1900000000.0 -0.3089458498859125 0.06457145299656844
1920000000.0 0.2617833728158855 -0.2223079287242672
1940000000.0 -0.35621531852667415 0.09839243238665363
1960000000.0 0.3895087090592772 0.04860129290406477
1980000000.0 -0.14167381882874722 -0.38135205142334666
2000000000.0 -0.3894337328759524 0.15046943281633432
2020000000.0 -0.008313680056213957 0.4252425725445619
2040000000.0 0.37394345409280205 0.2096489052249263
2060000000.0 0.2876172114217054 -0.31354468232064814
2080000000.0 -0.1184583052478473 -0.3997441783935473
2100000000.0 -0.359720797786894 -0.18753848640823098
2120000000.0 -0.34766357324406566 -0.18061812346660136
2140000000.0 -0.33723965600919864 -0.17591855884005453
2160000000.0 0.19484032158158013 -0.31075015703073844
2180000000.0 0.20185389764074776 -0.28769758543002505
2200000000.0 0.33566207814300425 -0.06172668796142042
2220000000.0 0.26064467007909187 0.21246842954292444
2240000000.0 0.22492571470139275 0.25974174342644873
2260000000.0 0.35226972499086256 -0.026812936370476367
2280000000.0 0.08652581756568689 -0.3568921808393214
2300000000.0 -0.383828343137268 0.056090431373724284
2320000000.0 0.3195956898359127 0.2648156046811608
2340000000.0 -0.15933441784106447 -0.4253036116014098
2360000000.0 0.33832054560990943 0.36831385220422996
2380000000.0 -0.5202355235255562 0.17986072831108835
2400000000.0 -0.13747337666781995 -0.5828966091197694
2420000000.0 0.6216331134049493 -0.1712634777110601
2440000000.0 0.2605810473465128 0.6339885768625048
2460000000.0 -0.7116604622025386 0.06913547312346906
2480000000.0 0.40628913621204693 -0.6117704841449128
2500000000.0 -0.181833925407846 0.7226137180769935
2520000000.0 0.3933446320125662 -0.6377502944820038
2540000000.0 -0.7248280302542655 0.18442580893751795
2560000000.0 0.5339830326189848 0.5132317560427391
2580000000.0 0.025330840261921138 -0.7230415117743607
2600000000.0 -0.40533238282234785 0.5673471816531745
2620000000.0 0.6194832373771291 -0.2423468020818649
2640000000.0 0.23512893521967088 -0.5803028532336312
2660000000.0 -0.513090883039805 0.27691850609209756
2680000000.0 0.537800771587551 -0.06316370458474843
2700000000.0 -0.41032069671612303 -0.288370529685533
2720000000.0 0.29681724073063553 0.35532276484489345
2740000000.0 -0.17663703597198707 -0.38480012651731144
2760000000.0 -0.010050070831011903 0.39035512660261806
2780000000.0 0.04096345759209649 -0.3646421953791713
2800000000.0 0.018404203717433624 0.34880236495862493
2820000000.0 -0.31115094175689095 0.13242203149094245
2840000000.0 -0.19079683758320984 -0.27088809976503236
2860000000.0 0.2982320214721315 0.1355219802663837
2880000000.0 -0.2394237921037241 -0.21974838555542037
2900000000.0 -0.23497260071606665 0.2280517987944605
2920000000.0 0.28294517049448903 0.18426356101900937
2940000000.0 0.09558289058634 -0.3306056855953875
2960000000.0 -0.3247832546467956 0.12037930496049755
2980000000.0 -0.24615954614561056 0.2389425653907451
3000000000.0 -0.3262528200545346 -0.09344141589293957
3020000000.0 0.08353258184789025 -0.32536463351811024
3040000000.0 0.2954663392590563 0.15042574541104003
3060000000.0 -0.2960707837369208 0.14254767364243384
3080000000.0 0.11334184788834939 -0.3014199241718053
3100000000.0 0.168495443943763 0.26459742307694106
3120000000.0 -0.29738164178349413 0.046842133268343716
3140000000.0 0.16675327288703537 -0.23215059356703327
3160000000.0 -0.252605361554191 0.09528182649301666
3180000000.0 -0.2058774224330279 -0.14344574395733672
3200000000.0 -0.17046901073526297 -0.14577699654193607
3220000000.0 -0.19223699321759097 0.007387404773699654
3240000000.0 -0.14898726297851447 -0.05405748726418309
3260000000.0 -0.0028348131154271893 -0.1236376842222345
3280000000.0 0.09268621019735285 -0.002453642655832161
3300000000.0 0.016711684306108147 0.06778448302800372
3320000000.0 0.0489227858383036 -0.012324125644027793
3340000000.0 0.03322726494354272 0.018384880896913314
3360000000.0 0.032527862000607435 0.008337497077066495
3380000000.0 -0.019303628328566486 -0.031165613689442012
3400000000.0 -0.029765569454586978 -0.029341885050914805
3420000000.0 0.048847892499216464 0.015513419132377436
3440000000.0 0.008907393994823877 -0.0635236196269001
3460000000.0 0.0028395078664091244 0.0785979286161355
3480000000.0 -0.029773017068343063 0.09474502673102597
3500000000.0 -0.025091321745357983 -0.1139805486275165
3520000000.0 -0.06187404184161054 0.11276485764446001
3540000000.0 -0.007978263412763878 0.13712290275239272
3560000000.0 0.028604685194414566 0.14523432365608627
3580000000.0 -0.07648356067020971 0.13785514240592797
3600000000.0 -0.1078136009207265 0.12610314787692317
3620000000.0 -0.04667678741680907 0.16517590433053778
3640000000.0 0.06274182114703881 0.16381777554247096
3660000000.0 0.03859128085623815 0.1703388000541498
3680000000.0 -0.06987611045244022 0.15426460655387775
3700000000.0 -0.15302629723900962 -0.057735836181283834
3720000000.0 0.12453774051526532 -0.097887662670077
3740000000.0 0.1396242381966843 0.05965292960412379
3760000000.0 -0.006651070421108276 -0.13643063952090048
3780000000.0 0.10700255397598911 -0.052055457085084855
3800000000.0 0.01959793558336387 -0.10511107834577489
3820000000.0 -0.023668927405061407 -0.10600330521487997
3840000000.0 0.11357601411352461 -0.019081262555067417
3860000000.0 0.11912248059380931 -0.024319490800916416
3880000000.0 0.047057646000808764 -0.11891275455419824
3900000000.0 -0.11192528489080852 0.07211318314222498
3920000000.0 -0.033966197655944004 -0.13248990837848482
3940000000.0 0.13011788943952854 -0.04128444355774732
3960000000.0 0.12272562930432333 -0.0546369720917151
3980000000.0 -0.06720058157942012 -0.10719566093027737
4000000000.0 -0.11010144630722132 -0.010539527500010882
