!Created with skrf (http://scikit-rf.org).
# Hz S RI R 50.0 
!freq ReS11 ImS11
400000000.0 -0.7081416855239298 -0.45732335970155064
420000000.0 -0.7816241610828822 0.3083692626719155
440000000.0 -0.35542096856429756 0.7017913908279102
460000000.0 -0.6360307283947066 0.3530882195509945
480000000.0 0.15315642720000291 -0.6480872963698997
500000000.0 0.14112392026521256 -0.6259803294617009
520000000.0 -0.3514874364253437 -0.4387958128911017
540000000.0 0.25100902909425843 0.40798656641743203
560000000.0 -0.445557287344168 -0.056172364968607474
580000000.0 0.2700624125058019 0.27839329114243555
600000000.0 0.3353692788727097 -0.09966656768202818
620000000.0 -0.2693290561891408 0.23446182917715028
640000000.0 0.2127407213698288 -0.34728986988993243
660000000.0 0.015087663593360215 0.45067005231420043
680000000.0 0.14893897438332135 -0.4415400435200511
700000000.0 0.43588983858553126 -0.15521896525555945
720000000.0 -0.16612689216377347 0.4061946309287384
740000000.0 -0.2645477105212308 0.2804017193234447
760000000.0 0.35265279240675695 -0.05717365909683679
780000000.0 0.3298149788014575 -0.005074768450391326
800000000.0 0.1775615887906765 0.2334505326756409
820000000.0 -0.09846504108738814 -0.22925729280122661
840000000.0 0.1863550894724796 -0.06864511934320335
860000000.0 0.14124405043246174 0.0739878762624413
880000000.0 0.023731335247894666 -0.1043686954517155
900000000.0 -0.08016692059468437 -0.006547246937351726
920000000.0 -0.010655363657139602 -0.049207771445783886
940000000.0 -0.007624218966090013 0.03498061042950269
960000000.0 -0.05406958323960979 -0.02065348865363563
980000000.0 -0.033173875285549645 0.062349729164866086
1000000000.0 0.048175984638119125 -0.06997921051698713
1020000000.0 -0.09195100718068604 0.058920866377915715
1040000000.0 0.08046337957451119 0.0981579013806284
1060000000.0 0.022387070644024946 0.15461312411085668
1080000000.0 0.138669717623397 0.1200333560127932
1100000000.0 0.20730436413532624 -0.0434417516263506
1120000000.0 0.1106567697793725 -0.22205295801120456
1140000000.0 -0.14496286048847565 -0.22970652726757756
1160000000.0 -0.21492808363576943 0.19049406679042177
1180000000.0 -0.30033035218383247 0.05316722874963011
1200000000.0 0.030722504809826443 0.3210162586845108
1220000000.0 0.28491037653250995 -0.21386467125748615
1240000000.0 -0.24135774642824093 0.2942951997783196
1260000000.0 0.28178433435136874 -0.27727178511039346
1280000000.0 -0.3247440523428671 -0.2273197205756701
1300000000.0 -0.268723383854725 -0.2947522193207639
1320000000.0 -0.3718665516811216 -0.16652724522391282
1340000000.0 -0.39636475629147344 0.10502552726593438
1360000000.0 -0.04076822399480137 0.39710719580034065
1380000000.0 -0.22134019878696448 0.31737963328400104
1400000000.0 0.013493569353730818 0.3742681928514714
1420000000.0 0.24897667119673783 0.2590778879895223
1440000000.0 0.17845156970088882 -0.2933572647385256
1460000000.0 -0.15267235496464027 0.28101092200752736
1480000000.0 -0.20535663386601188 -0.20234534009016328
1500000000.0 0.19537424905832101 -0.1518212766294866
1520000000.0 -0.20471307665282185 -0.04778282051496473
1540000000.0 -0.025829383651096077 -0.1695143698322385
1560000000.0 0.03046673959966487 -0.13439557578438527
1580000000.0 -0.10300637322579956 -0.007110302132820443
1600000000.0 -0.060179740149356994 0.027922241294766798
1620000000.0 -0.014226307161719227 -0.040304508486347757
1640000000.0 -0.002108529362892394 -0.023952002199661482
1660000000.0 -0.0077751981139383515 -0.003125467876599713
1680000000.0 -0.005776034098383875 0.01242557197435224
1700000000.0 0.026510403604731784 -0.005354171287165129
1720000000.0 -0.03730571619055245 -0.00702730481973672
1740000000.0 -0.03827615654416718 0.04176314647006976
1760000000.0 -0.07214811477598379 0.03337879465169785
1780000000.0 -0.09952585433943964 -0.03029880785025013
1800000000.0 -0.08301490557005566 -0.1067845456514364
1820000000.0 0.16353147590318115 -0.02648782842399539
1840000000.0 -0.20081100405291874 0.01161823431204323
1860000000.0 -0.053044180620197834 -0.23416029335064925
1880000000.0 0.25801056024435826 0.10568463040777304
1900000000.0 -0.20981343659866536 0.23216493690961423
1920000000.0 0.16967739791070496 -0.29616291303950415
1940000000.0 -0.3394034710475833 0.1438698005378676
1960000000.0 0.3874380589089086 -0.04163414354093171
1980000000.0 -0.18036753129143523 -0.3620861143234817
2000000000.0 -0.3632588792512142 0.20081455952837662
2020000000.0 -0.0962937055557669 0.41115333700897333
2040000000.0 0.32574448069954687 0.2760922951595827
2060000000.0 0.33326776898781335 -0.26386133906402576
2080000000.0 0.1639183642148176 -0.3847401587636645
2100000000.0 -0.1924445092216088 -0.3619160834323273
2120000000.0 -0.3474269982824368 -0.19372409371072222
2140000000.0 -0.3842541430252774 -0.022020092176359186
2160000000.0 -0.01897432317587203 -0.3660681181087223
2180000000.0 0.27630163033369254 -0.21550598506968704
2200000000.0 0.3275795040330893 0.10149533984173206
2220000000.0 0.1687624578781392 0.29824987966019595
2240000000.0 0.32061786879651977 0.14562387946100233
2260000000.0 0.195238147722123 -0.30146270533429614
2280000000.0 -0.19901813120657133 -0.3130617873319061
2300000000.0 -0.3096448254983519 0.2362355066199694
2320000000.0 0.35886269034278145 0.2177872472616779
2340000000.0 -0.39893539048168547 -0.23134816233241698
2360000000.0 0.5010562456916252 -0.06314175668611183
2380000000.0 -0.15966518876469782 0.5313482386973584
2400000000.0 -0.546965100715145 -0.2562036216386615
2420000000.0 0.3625574954557682 -0.5382899494056397
2440000000.0 0.5442844353418831 0.4186561019277198
2460000000.0 -0.6624160415971698 0.2715042132381305
2480000000.0 0.3097755561883916 -0.6687069728182902
2500000000.0 -0.22715097014333246 0.7140114781724884
2520000000.0 0.3183769412065122 -0.6818228231543944
2540000000.0 -0.5630743087367899 0.4949062963652847
2560000000.0 0.740282066745343 -0.013122437124840508
2580000000.0 -0.5647933287430771 -0.4492598914273105
2600000000.0 -0.0434341503920171 0.6931026452662047
2620000000.0 0.4387547306112018 -0.4963882708957241
2640000000.0 0.036672842557563284 -0.6244785356998711
2660000000.0 -0.4769285387875459 0.3388296891238851
2680000000.0 0.5350699428872752 -0.09690495241231344
2700000000.0 -0.48909024342311475 -0.10255052357806091
2720000000.0 0.41203244254143284 0.1951729364600096
2740000000.0 -0.20938640099706782 -0.3601766347117931
2760000000.0 0.12198661382316466 0.3671569667161616
2780000000.0 -0.21073308119363462 -0.29456649494236753
2800000000.0 0.24806882544834563 0.24093446837653593
2820000000.0 -0.2848886224015713 0.1812870186842257
2840000000.0 -0.07003091589799423 -0.3229779870658201
2860000000.0 0.2599337259594741 0.1982823431167205
2880000000.0 -0.2481352069165392 -0.2117185521749744
2900000000.0 -0.0848175544939154 0.32017730974036995
2920000000.0 0.21543965446435565 -0.2612215494820891
2940000000.0 -0.33662351226879483 -0.05451422863089256
2960000000.0 -0.15264378925660257 0.3028904576092193
2980000000.0 -0.2549018438779381 0.21662010240283197
3000000000.0 -0.22388657574513396 -0.25178995341215826
3020000000.0 0.09586214252766867 -0.32166810179758987
3040000000.0 0.23547907933196072 0.2355955410538577
3060000000.0 -0.30343363250782757 0.1258677560523782
3080000000.0 0.18447734554141162 -0.26312988786351404
3100000000.0 0.14387683160770504 0.2776987305560606
3120000000.0 -0.296416963793503 -0.04261435384118002
3140000000.0 0.1768990352232992 -0.2239584198526124
3160000000.0 -0.262334645139163 0.05573745234944252
3180000000.0 -0.20585125668459825 -0.14104347668342188
3200000000.0 -0.15648081998292737 -0.15812515531794397
3220000000.0 -0.10939070135725222 -0.15825260903413543
3240000000.0 -0.08246055913021859 -0.13759047402900584
3260000000.0 -0.014064490807736172 -0.12648543933927053
3280000000.0 0.010714471067921214 -0.09557645502564766
3300000000.0 -0.030293009542359597 -0.06444083668168983
3320000000.0 0.049875697240838984 -0.006406630587532799
3340000000.0 0.0051605018112792075 -0.0358096220032095
3360000000.0 0.031071889432826717 0.0034785752294869865
3380000000.0 0.019250657011621562 0.028718905042651618
3400000000.0 -0.004322242747947106 -0.042746796989025886
3420000000.0 0.000596171002058652 -0.05348136509518491
3440000000.0 -0.06230565807823213 0.019563345917963652
3460000000.0 -0.01672830459663595 -0.07806046787227204
3480000000.0 -0.06872264099799855 -0.06487399135639584
3500000000.0 -0.04566864794475456 -0.0994069105443846
3520000000.0 -0.021017741132859428 -0.12386129291872795
3540000000.0 -0.11228184853813283 0.08470529424638387
3560000000.0 0.08098308664531766 0.12416133765862872
3580000000.0 0.052043877650284405 0.14615715331716017
3600000000.0 -0.038801095230660824 0.15881947865086096
3620000000.0 -0.08957777137494057 0.14307825879669886
3640000000.0 -0.14250384903411698 0.10339781284666741
3660000000.0 -0.12394931912922742 0.12828750574833736
3680000000.0 -0.1349002687050407 0.11242255745108128
3700000000.0 -0.09662191050082085 0.1399484428206774
3720000000.0 -0.16098806845868352 0.016558172044513885
3740000000.0 -0.07815999553313048 -0.12822862820565606
3760000000.0 -0.06739113444722086 -0.11759305794491653
3780000000.0 0.12128953867044524 -0.007277413420823392
3800000000.0 -0.11034597867018812 0.0311412661090291
3820000000.0 0.03277205883119699 -0.10833185399428301
3840000000.0 -0.0012924749917341835 0.11255494097919648
3860000000.0 -0.08433254270260114 -0.08497210323561966
3880000000.0 -0.11491270171098358 -0.0588552424882378
3900000000.0 0.11604119186167765 0.0702757148368147
3920000000.0 0.014844109806377988 0.1378835520933172
3940000000.0 -0.09314171154224644 0.10217218448821833
3960000000.0 -0.08103003057195979 0.10834466129290933
3980000000.0 -0.027300353573746713 0.12393143119883973
4000000000.0 0.016637753225147572 0.11184431013328162
