!Created with skrf (http://scikit-rf.org).
# Hz S RI R 50.0 
!freq ReS11 ImS11
400000000.0 -0.713623071147559 0.10602730917500412
406500000.0 -0.3314106187140887 -0.6208023618923756
413000000.0 0.6795594216754273 0.027585183921648777
419500000.0 -0.645743005115243 0.18203332754417523
426000000.0 0.3680602455946482 0.5464230112070763
432500000.0 -0.5988202006167738 -0.2558511958942739
439000000.0 0.5812467005833333 -0.26269907432682815
445500000.0 -0.5089345873028233 0.3671315069269487
452000000.0 0.15464996444736304 -0.5979923522770261
458500000.0 0.25625971444933 0.5609826183803154
465000000.0 -0.6164324475657045 -0.023232918740151452
471500000.0 -0.4050753325762773 -0.46067915310938384
478000000.0 -0.1348901748841147 -0.5920309303583099
484500000.0 0.20805715662681945 -0.5609985400233051
491000000.0 0.09805144398969273 -0.579131742920079
497500000.0 -0.3600767385284479 -0.439836370322792
504000000.0 -0.33061620868436004 0.42096930813236827
510500000.0 0.1220027797913101 0.4840849167777836
517000000.0 0.4520764179900636 -0.03078428445071802
523500000.0 0.26295224499026526 0.32880193387594714
530000000.0 -0.02759521016217128 0.38414496049236424
536500000.0 0.2476113823391256 0.24697992534461635
543000000.0 0.10139518428525948 0.3225002940915026
549500000.0 0.10484860648556878 0.30309860633269725
556000000.0 0.2974730468068712 0.017348889026722592
562500000.0 -0.10854886912902378 0.26199293157835296
569000000.0 0.22595890993900036 0.15460949133443028
575500000.0 -0.2577579987547022 0.06553645063385001
582000000.0 0.157949452980268 0.21617643334157674
588500000.0 0.039491819986864525 0.2746679992105001
595000000.0 0.015857557824089433 -0.29629234059954296
601500000.0 -0.22427137462319396 -0.19873493367815914
608000000.0 -0.1531501255785869 -0.2562684137438101
614500000.0 -0.26626807317912704 -0.13628092527482394
621000000.0 -0.23943955005247597 -0.1731657845235518
627500000.0 0.29018826177558715 0.011725626261864295
634000000.0 -0.19420205654393524 0.2268106118822966
640500000.0 -0.28050458101896564 -0.07257567529473535
647000000.0 0.21931482825276835 0.20074089477632767
653500000.0 -0.013246984885096662 0.301231992236307
660000000.0 -0.24757745123237276 -0.17104985877148898
666500000.0 0.2521419468082013 -0.16480721775292245
673000000.0 0.0991516673564816 0.2824993277740443
679500000.0 0.25554947829816715 -0.16926030654866342
686000000.0 0.21545589350423944 -0.20343470548866785
692500000.0 -0.2934909227113793 0.005842844067566074
699000000.0 0.1912916440192643 -0.21471864549339967
705500000.0 -0.2581402338560283 -0.12791096848349867
712000000.0 0.24410473405090036 0.16163434548445757
718500000.0 0.2227046444584962 -0.19757115318064067
725000000.0 -0.18177782949558255 0.25549134108121263
731500000.0 0.14329129269806284 -0.28484137902649076
738000000.0 0.04024304286334427 0.32754665975680236
744500000.0 -0.28452340935674036 -0.16751352698171998
751000000.0 0.19004212531152923 0.27345510652300653
757500000.0 -0.1668443524931169 -0.2991002843958574
764000000.0 -0.08546770519280333 0.3420050767604894
770500000.0 -0.28477385394985416 -0.21756140364706117
777000000.0 0.02652075841159544 0.36249550698475813
783500000.0 -0.25381205424796227 -0.2580487494390276
790000000.0 0.07497731549080562 0.35734725376175325
796500000.0 -0.06354679168991591 -0.3640103570047124
803000000.0 -0.27073571201340446 0.23655894681119188
809500000.0 0.27986917710539677 0.22380876042809267
816000000.0 0.26139968497599664 -0.2453667274284448
822500000.0 0.10436064272028017 -0.3527623986481236
829000000.0 -0.3812084130132356 -0.00930512145130914
835500000.0 -0.39478134756878586 -0.032205423800017945
842000000.0 0.3897833555754206 0.13999579829686695
848500000.0 -0.2971142738139505 -0.2890486859705579
855000000.0 0.19747530633866486 0.37672704663442086
861500000.0 0.030091839410980863 -0.42656271138617446
868000000.0 -0.282689815551169 0.32771737523347433
874500000.0 0.35711982258476266 -0.25116421949962525
881000000.0 -0.3863955703820925 0.21707748659699413
887500000.0 0.33193551049425296 -0.2985104119680454
894000000.0 -0.1146628009329143 0.43136687385291383
900500000.0 -0.4227299176622749 -0.12890014451110615
907000000.0 0.1366560229794959 -0.4137531169754267
913500000.0 0.29606200273872463 0.2982786495939698
920000000.0 -0.1877019626746392 0.36631595291006036
926500000.0 -0.34017102074867706 0.20894112807007312
933000000.0 -0.38334139561138225 0.031017450037592428
939500000.0 -0.3063267534023321 0.2073850561294244
946000000.0 -0.17175060254693864 0.30034848231709277
952500000.0 -0.23907570839250222 0.21420250144035657
959000000.0 -0.24071075208951567 0.17979109225767378
965500000.0 -0.25250099300888 0.12522187770938978
972000000.0 0.1958009065208154 -0.18100943425386168
978500000.0 0.22166952414397237 0.12327789289312671
985000000.0 0.19364097474780823 0.13770627023598025
991500000.0 -0.05371109952022956 0.21736064459580184
998000000.0 -0.20469187839734748 -0.04642235799686534
1004500000.0 0.11531977061947261 -0.16098042669295698
1011000000.0 -0.005941609996705882 0.1869572458373863
1017500000.0 -0.16444952061278728 -0.05643757535590641
1024000000.0 0.1315749209156304 -0.08914891961377118
1030500000.0 0.08360406396068065 0.11716189831457949
1037000000.0 0.020778650426921168 -0.1326538492744501
1043500000.0 -0.05128371442555341 -0.11335591320173904
1050000000.0 0.04432082909642345 -0.11049571830449628
1056500000.0 -0.08256974132624147 0.0739015867163881
1063000000.0 -0.009189960551987569 -0.1034219966074557
1069500000.0 -0.030472743547118028 -0.08983687892691229
1076000000.0 -0.08454226309013488 -0.03581988940000659
1082500000.0 0.04243509753973385 -0.07593061965479747
1089000000.0 -0.0810369176221154 -0.03620144819348639
1095500000.0 -0.008647808145576731 -0.08944467284248585
1102000000.0 -0.05638132176985045 0.08163071705780688
1108500000.0 0.10849812503441364 0.005421532007530799
1115000000.0 -0.11172004062292888 -0.0524601980695251
1121500000.0 0.06671263569694748 -0.12648677401632216
1128000000.0 0.14435961851877754 0.06999638337297752
1134500000.0 0.060639561254525326 0.16531388075661524
1141000000.0 -0.18741602354722903 0.032049480646875086
1147500000.0 -0.20212969466655784 -0.031241635358993405
1154000000.0 -0.0434293323151073 -0.20441076944995548
1160500000.0 0.18564620643072688 0.101035682195494
1167000000.0 -0.2162935083015396 -0.009134713601703918
1173500000.0 0.012277454955168321 0.21552397463146483
1180000000.0 0.21106496986205558 -0.06949047004452627
1186500000.0 -0.18869002877191304 -0.12794231998907507
1193000000.0 -0.10386730485611707 0.21492781300755306
1199500000.0 0.15253415167629766 -0.19884363434134855
1206000000.0 -0.26126266736869763 -0.03737897267273641
1212500000.0 0.25504213459397046 -0.10807286285238961
1219000000.0 -0.09265327305044709 0.27631413016348266
1225500000.0 0.008966051455385392 -0.29568726250033434
1232000000.0 -0.2660272167252527 0.14414044707540521
1238500000.0 0.05568904534469483 0.3067643052762288
1245000000.0 0.3160719938220678 -0.005771176005858301
1251500000.0 0.031841032878802605 -0.32352951155552107
1258000000.0 -0.3217860694594758 -0.07858439205049622
1264500000.0 -0.3195107206480802 0.09971137481907894
1271000000.0 -0.11353990142461785 0.3229249335784271
1277500000.0 0.24521515590252047 0.24671464954332503
1284000000.0 0.3336694251537976 -0.11406891254541726
1290500000.0 0.019373030935397426 -0.35410559117875373
1297000000.0 -0.35562251951182994 -0.027661442380780884
1303500000.0 -0.19132530501590161 0.2959692478898949
1310000000.0 0.10293390982627276 0.33527505363972643
1316500000.0 0.27612235634621546 -0.2155683490865644
1323000000.0 -0.11976646972414552 -0.32499570670427996
1329500000.0 -0.1387587261186665 0.31442529168345723
1336000000.0 0.2537362077766131 0.21729310578061825
1342500000.0 0.16782682274369418 -0.2844468569133448
1349000000.0 -0.31660759623326423 -0.08438530841895818
1355500000.0 -0.27950883422697015 0.17083282499807217
1362000000.0 0.26248293979809045 0.19900756304038816
1368500000.0 0.10662634987936982 -0.3194946359565621
1375000000.0 -0.21586350076127164 0.2696226809501587
1381500000.0 0.277398508431613 -0.21445337658909042
1388000000.0 -0.34512539245411605 0.09429555600495965
1394500000.0 0.3298582416658432 0.1482277878269295
1401000000.0 0.3478249594164344 0.1150548432923866
1407500000.0 0.00232882968523986 -0.3704858505207138
1414000000.0 -0.3664975247439937 -0.07646317154692762
1420500000.0 -0.09101996679998331 0.366831602539276
1427000000.0 -0.09317320600231259 0.36715595176174065
1433500000.0 0.038265326700588 0.38236096900909367
1440000000.0 0.16403845250112173 0.34802013035229024
1446500000.0 0.23605931242226996 0.30846381971675957
1453000000.0 0.3293801273726246 0.20659411950475723
1459500000.0 0.3755112495271771 -0.08528571067200534
1466000000.0 0.1530970762753096 -0.3495155165244217
1472500000.0 -0.08873193805255686 -0.3620220223801889
1479000000.0 -0.3168028408313901 -0.17419776532116818
1485500000.0 -0.34932366760881367 -0.026262137596862727
1492000000.0 -0.26549330275996164 0.21136718330690155
1498500000.0 -0.038578185627940076 0.32272584676936217
1505000000.0 -0.00813964701622573 0.31477977725413236
1511500000.0 0.2797422731494227 -0.12620200129516848
1518000000.0 -0.04184151701598114 -0.29332288759904823
1524500000.0 -0.08930444132355105 0.27515724726989854
1531000000.0 0.2530038864515242 -0.11968172026079825
1537500000.0 -0.27183492126800146 0.041023800758020756
1544000000.0 0.25591104908839724 -0.07891300633655242
1550500000.0 -0.14976574682661817 0.2183724419491686
1557000000.0 0.1357142258714901 -0.21851968427368879
1563500000.0 -0.23383386626296793 -0.10170624600330885
1570000000.0 -0.24581705297034548 -0.07563956890372132
1576500000.0 -0.007173251009922879 0.2566567682610931
1583000000.0 0.2610078410675289 0.02932465538675594
1589500000.0 0.056153497665141355 -0.2554006333258935
1596000000.0 -0.19040626252829942 -0.17687449997410085
1602500000.0 -0.25715633117847825 0.003829017419439677
1609000000.0 -0.1704925220356848 -0.18865774535088708
1615500000.0 -0.2032429152102978 -0.14269099031943033
1622000000.0 0.1888834869994132 -0.15672730336203364
1628500000.0 0.24081408612442154 -0.029634354207919666
1635000000.0 0.1989008790606979 0.1269489502426525
1641500000.0 0.09045100382036719 0.2125375157544704
1648000000.0 -0.04868196064430551 0.21923391895315267
1654500000.0 -0.1273072435579776 0.17564829621504502
1661000000.0 0.004249683084186219 0.2077281460801934
1667500000.0 0.1326459604393369 0.14490535445859717
1674000000.0 0.16222457590611733 -0.08175222336697746
1680500000.0 0.15754583309033499 -0.05124288862865717
1687000000.0 0.029891928805317505 -0.150511929757503
1693500000.0 -0.09454427417611405 -0.10471031679329572
1700000000.0 0.11286296193722552 0.06986273148848274
1706500000.0 -0.06363646966848907 -0.10710453481076435
1713000000.0 0.05505918604742453 -0.10420258191428801
1719500000.0 -0.021788821052331847 0.11341309437444247
1726000000.0 0.0263554994558399 0.10943338564780034
1732500000.0 -0.05474220681237758 0.09473131014417306
1739000000.0 -0.10478478876128948 0.03289691719240952
1745500000.0 0.02048866471670234 -0.10142523037922802
1752000000.0 0.053961667083316046 0.0871058918131705
1758500000.0 0.08440497631314742 0.04987087265398296
1765000000.0 0.04218799195522878 0.08559529830604062
1771500000.0 -0.0624570795683781 -0.07061785752986788
1778000000.0 0.0947520516334237 -0.005862373722722846
1784500000.0 0.024505634208013462 0.0962180461454955
1791000000.0 -0.020647255001404272 -0.09999526659972158
1797500000.0 0.10559383147775767 0.005143754464064826
1804000000.0 0.09762443658423466 -0.04402311012058427
1810500000.0 -0.01663217487334247 -0.10495073475672285
1817000000.0 0.00642013317383255 -0.09780554948295755
1823500000.0 -0.08539040775787066 0.029495575414959976
1830000000.0 -0.0139134239660586 -0.07563379211853322
1836500000.0 0.06348121911205798 0.027516103815640916
1843000000.0 0.03442962189369647 0.04264588469548603
1849500000.0 0.016818818504696624 -0.04380144978492147
1856000000.0 -0.03349531081833877 0.020916517180074687
1862500000.0 0.0019618388688395078 0.03371888196399409
1869000000.0 0.025655031341536908 -0.015392850729548005
1875500000.0 0.019832521196722925 -0.01964692966207058
1882000000.0 0.012544201013543354 0.016949209064848172
1888500000.0 -0.002546795602850658 -0.023239517311807113
1895000000.0 -0.02486596846813741 -0.009698573634520955
1901500000.0 0.012497449869321098 -0.02741589413344771
1908000000.0 -0.006049755002897853 0.027230943532290965
1914500000.0 0.02314430481296087 0.01693663752924681
1921000000.0 -0.022398284208063265 0.013754397673390106
1927500000.0 -0.019983975723726427 0.011819604289378617
1934000000.0 0.014517829530292153 0.015218863256254345
1940500000.0 0.013060982254016567 -0.011140249210135386
1947000000.0 -0.01651076844616505 0.006395920775970786
1953500000.0 -0.008991754979370522 0.017676610253553392
1960000000.0 0.005012916218712618 0.021016927415819155
1966500000.0 0.02376670403722019 -0.0249670054603095
1973000000.0 -0.03177526323802446 0.03546598883568377
1979500000.0 0.033423964058507866 0.0498365878008478
1986000000.0 -0.07638246973575515 -0.003239793990170693
1992500000.0 0.04867243832725503 0.07130319676122596
1999000000.0 -0.018763120545472422 -0.09393531699401166
2005500000.0 -0.01722017760726616 -0.10226244755603546
2012000000.0 0.0019008857107380161 -0.1101124204783163
2018500000.0 0.06745523283541809 0.09345082907203756
2025000000.0 -0.11319473283871258 0.04518411316489974
2031500000.0 0.035546764815386385 -0.1193032250049208
2038000000.0 0.08078672660628415 0.1005215521849975
2044500000.0 -0.13301388152168725 0.011904574721903849
2051000000.0 -0.07430284622017437 -0.11493968519335775
2057500000.0 -0.0772623989168926 -0.11242911025052622
2064000000.0 -0.0746787224332639 -0.11309575332639227
2070500000.0 -0.09920569610517313 -0.08868797434324349
2077000000.0 -0.0634219396339152 0.10815990134112564
2083500000.0 0.09890088388765468 0.0669294518111553
2090000000.0 0.023770738275563412 -0.11036457179879822
2096500000.0 -0.09077887279901192 0.06134884449576901
2103000000.0 -0.05825436582715692 -0.08719629729534238
2109500000.0 0.07134586835012363 -0.07660634477267586
2116000000.0 -0.10602208636864315 -0.013812092241566699
2122500000.0 -0.09376058211296256 0.06022336514710866
2129000000.0 0.09563301846310582 0.07214643885572367
2135500000.0 0.10058461271332984 0.07766521868902264
2142000000.0 -0.11299700704720443 -0.08079289980068183
2148500000.0 0.11571023177031671 0.09996838258134808
2155000000.0 -0.15785171055778574 -0.06158248926907772
2161500000.0 0.14375062631246255 0.1159493878794284
2168000000.0 -0.0861668376901771 -0.1833970938292965
2174500000.0 -0.21658629955116565 0.003965239141656308
2181000000.0 -0.043569440832575385 0.22493540104482052
2187500000.0 0.22944894455295228 0.07194591121253607
2194000000.0 0.2445407186352623 -0.03960462644313819
2200500000.0 0.22449749788963483 -0.12173363542232842
2207000000.0 0.07131315973272878 -0.24508517175237293
2213500000.0 0.20198009978532266 -0.1548649299691446
2220000000.0 0.24734822120150993 -0.05426165815201625
2226500000.0 0.17712934700790228 0.17290007222170506
2233000000.0 -0.06434741205407556 0.23598827347805296
2239500000.0 -0.23607271302657482 0.0575849429769803
2246000000.0 -0.2355359567007808 0.025209739228479223
2252500000.0 -0.21503730403529037 0.08063515507498041
2259000000.0 -0.137308608782994 0.17711488966187758
2265500000.0 0.11996747838178178 0.18045184438366257
2272000000.0 0.20106084494439508 -0.0525035400527443
2278500000.0 -0.1922862316708863 0.041778590632235504
2285000000.0 0.1298790863508696 0.133561230973537
2291500000.0 -0.10765772821728012 -0.1384092645230494
2298000000.0 -0.13894492533911082 0.08952644570802276
2304500000.0 0.12141170141248753 -0.105612176605918
2311000000.0 -0.08906531222533284 -0.1265654132773296
2317500000.0 -0.13863140817509703 -0.06617951269170376
2324000000.0 0.12421883565775423 0.09230958164078937
2330500000.0 -0.1466716970266838 -0.04970352013096231
2337000000.0 0.057431652733102884 0.1446786275478869
2343500000.0 0.020547958515269412 -0.1554462430223118
2350000000.0 -0.15638792747989935 0.018605085484299257
2356500000.0 -0.11358594756798907 0.11001465885362847
2363000000.0 -0.05290874771714277 0.1519516655064056
2369500000.0 0.14535299080091713 0.06706685491119317
2376000000.0 0.08786567428798993 0.1338970711289601
2382500000.0 0.09710315306505078 0.12745140287496112
2389000000.0 0.010804265789988964 0.16140700385331502
2395500000.0 -0.07861342461742525 0.14083585492327708
2402000000.0 -0.12799283707698592 0.0996701428805035
2408500000.0 -0.08945355301416927 0.13646049757283107
2415000000.0 0.0655112324564908 0.14769036104731742
2421500000.0 0.061251021563425184 0.14619880175159258
2428000000.0 0.10143131432074999 0.1174669311644417
2434500000.0 0.1296926215895885 0.07861274956153602
2441000000.0 0.13754739437222935 0.06110753874700375
2447500000.0 0.14534923407818098 0.029742800952597695
2454000000.0 0.07644231086666962 -0.12779420332398211
2460500000.0 0.051240432781861966 -0.13977141557812964
2467000000.0 -0.019668806186774936 -0.14833562686480212
2473500000.0 -0.0758176426620947 -0.12665669151888936
2480000000.0 -0.052772063651790296 -0.1386582612499432
2486500000.0 0.03516530874529855 -0.1452659416079098
2493000000.0 0.08098140397558992 0.12746135772848444
2499500000.0 -0.025967776444372467 0.14939463052843652
2506000000.0 -0.13883157695555895 0.07011229512769662
2512500000.0 0.09384835421768678 -0.12440772261744147
2519000000.0 0.03617739818172943 0.1561353983900777
2525500000.0 -0.06271381858860187 -0.15129622378382837
2532000000.0 0.1612064935967342 0.04963976904590587
2538500000.0 -0.16903250342278386 -0.006498505841027062
2545000000.0 0.09803065110316932 -0.14091758021809792
2551500000.0 -0.04686877213121801 0.1641348378630378
2558000000.0 0.1672306425202052 -0.036453698330908904
2564500000.0 -0.15934603902051278 0.0566874703291797
2571000000.0 0.16412407120655212 0.031831520070644895
2577500000.0 -0.05734838811783595 -0.1531261512417272
2584000000.0 -0.11062381972989496 0.11685822203972718
2590500000.0 0.1371328107447483 0.07792418415634994
2597000000.0 -0.06062679859509798 -0.1408311219361449
2603500000.0 -0.09257342201091587 0.11831840494221398
2610000000.0 0.13151554904687987 -0.058940386362667296
2616500000.0 -0.13809862178078175 -0.02488066619137015
2623000000.0 0.1022345160852749 0.08539692661225738
2629500000.0 -0.05464591932390897 -0.11418531512173787
2636000000.0 0.10803019937621124 0.04983854339072128
2642500000.0 -0.11033771335867802 -0.01813103310603708
2649000000.0 0.03861852211458893 -0.09810711283169689
2655500000.0 0.09752132121657682 0.010801234612320059
2662000000.0 0.045411905915481804 -0.08073517206951235
2668500000.0 -0.07684914807449443 0.04433752814055195
2675000000.0 0.06697307154031679 -0.05003869547558611
2681500000.0 0.06988982664301999 -0.03928187249019669
2688000000.0 0.05492142241007206 0.058697217654596526
2694500000.0 0.07616283117194701 -0.03031538105259068
2701000000.0 -0.07797182722908888 -0.03225894727646068
2707500000.0 0.0362498355898522 -0.08754281532502774
2714000000.0 -0.08861132970895985 0.05341183434065749
2720500000.0 0.08686784752484661 0.07955068649967932
2727000000.0 0.09829063817856296 -0.08490115209669717
2733500000.0 0.027156482006874986 -0.14144227707085355
2740000000.0 -0.05006014054110053 -0.15025050928255893
2746500000.0 -0.0701372556735543 -0.15473637286805353
2753000000.0 0.0908490841103051 -0.15692854697343261
2759500000.0 0.18890811092560134 -0.0027410750250860105
2766000000.0 0.4592829531531217 1.03130396203571
2772500000.0 0.9858601165552231 -0.5405162019787089
2779000000.0 -0.5798083830373681 0.9211143425247676
2785500000.0 -0.9034532484989988 0.5895005517900058
2792000000.0 0.8900456247735414 0.46501261345893063
2798500000.0 0.23515814500983784 0.30310414371409794
2805000000.0 -0.1093960588260729 0.36571600565420875
2811500000.0 -0.33972786079426803 0.1604681740478897
