!Created with skrf (http://scikit-rf.org).
# Hz S RI R 50.0 
!freq ReS11 ImS11
400000000.0 -0.5813649116600463 0.5615002221408961
420000000.0 0.5576733449719089 -0.5115851711820213
440000000.0 -0.1418387844441631 -0.71335372301705
460000000.0 -0.02905671403510844 -0.6463341809207163
480000000.0 -0.5222180695370228 -0.030819502586753734
500000000.0 -0.4044538900095272 0.10713290984213229
520000000.0 0.18999698702673898 0.40133218914429836
540000000.0 0.14450305967423785 -0.46194992048064126
560000000.0 -0.2091762857898834 -0.414430510609943
580000000.0 -0.280573014484233 0.314355452601178
600000000.0 -0.22235495939860295 0.32074535592661796
620000000.0 -0.3308758391913122 0.11561640304997785
640000000.0 -0.3454223966804278 0.0442101238031599
660000000.0 -0.2148545387638108 -0.2799338958247915
680000000.0 -0.34857772646542434 0.029189877236932817
700000000.0 -0.12286665768246363 0.3177850463977001
720000000.0 -0.18839381849899817 0.2846192128586652
740000000.0 0.20266817452739044 0.2637618459118626
760000000.0 -0.05129640313510848 0.30087075270681624
780000000.0 -0.25830267280588304 -0.1269445283279993
800000000.0 0.19397991033159595 -0.1611821636199935
820000000.0 0.10576474178069485 0.18612447596015577
840000000.0 0.2006556993721246 0.06742564719071331
860000000.0 0.1971021135800899 0.04433129830686794
880000000.0 0.16316459740490036 0.10559448775217913
900000000.0 -0.13179348001229088 -0.08191454561466771
920000000.0 -0.07019309281719896 -0.1237243094915324
940000000.0 -0.0899928400314899 0.10247754033059661
960000000.0 -0.0799975977125639 0.07799817254478478
980000000.0 0.011560032891943834 -0.07329204789316282
1000000000.0 0.021259527376949833 0.04278548809435876
1020000000.0 0.01338271043299475 0.041119221627883465
1040000000.0 0.0002644180518427866 0.07682174841183292
1060000000.0 -0.06995739016136285 -0.08660295450140586
1080000000.0 0.021991964468547585 -0.1439983363805801
1100000000.0 0.1751891442632657 0.003099988601034338
1120000000.0 -0.11818767364834007 -0.17162956152581058
1140000000.0 -0.12965515203571715 -0.20632117940535658
1160000000.0 0.2563390116638587 -0.09838086938767487
1180000000.0 0.2946296383333752 0.043507376859056354
1200000000.0 0.10451664418186449 0.300501291526199
1220000000.0 0.21802137325408882 0.23626258907650147
1240000000.0 -0.1612461423038589 0.2866492247411652
1260000000.0 -0.1479657580167142 0.29676442143590576
1280000000.0 -0.32558997077351914 0.07575162067172432
1300000000.0 0.041078861916354834 -0.33999410714888295
1320000000.0 0.3286571475501359 0.14785401301437157
1340000000.0 -0.04890179414435736 0.3734674611913372
1360000000.0 -0.34625012524224924 0.15431799031067267
1380000000.0 0.35274081935545337 -0.1389300349507624
1400000000.0 -0.3191297942684395 0.2062001377113539
1420000000.0 -0.012751865239694585 0.37056024861445985
1440000000.0 0.2070228186315535 0.30710330209624886
1460000000.0 0.34203562008283 -0.12791864235820555
1480000000.0 -0.27620300100426187 -0.21847737500110684
1500000000.0 0.2176947032426514 0.25324140204421525
1520000000.0 0.2798597292900582 -0.12291347526969942
1540000000.0 -0.27371052071028096 0.05520494651588019
1560000000.0 0.03789491091629039 0.24101371365336627
1580000000.0 0.1415542235796652 -0.16319773355150166
1600000000.0 -0.08816383356038045 0.16182850495152049
1620000000.0 -0.02635372505808676 -0.16232760092971457
1640000000.0 -0.028353170804410625 -0.13081426605261542
1660000000.0 -0.10580177036984305 -0.014093412257447528
1680000000.0 -0.02532367845605311 0.08326645505380136
1700000000.0 0.07444486595250933 0.004056248430676152
1720000000.0 -0.03659920809523746 -0.04241587230418273
1740000000.0 0.05226877440016689 0.018970305099773134
1760000000.0 0.057818882093564554 -0.03289055743968048
1780000000.0 -0.0708020704619923 -0.06566521737533468
1800000000.0 0.07068492622637655 0.10680637861542039
1820000000.0 -0.13791085342302525 0.08377299797044505
1840000000.0 -0.030607282465505543 0.1917852060680094
1860000000.0 -0.17349896999101772 0.13786979383835252
1880000000.0 0.148054169989842 0.197755151500353
1900000000.0 0.24495494223312492 -0.10852377203069821
1920000000.0 -0.2006102996369081 -0.20586376588340544
1940000000.0 0.021540346604199727 0.3000965848909194
1960000000.0 -0.21805802853365305 -0.22451262987921722
1980000000.0 0.2058665789772543 -0.23737194430434333
2000000000.0 0.2868094421403528 0.12635004647179732
2020000000.0 -0.039706689987245664 0.31103674362157985
2040000000.0 -0.08387338712571667 0.29820127930324397
2060000000.0 -0.29739999353707325 0.06748179134557243
2080000000.0 -0.30335338282192686 -0.03700036650404651
2100000000.0 0.2330244588690634 0.18975338084752963
2120000000.0 -0.29736843059363033 -0.03319884388480734
2140000000.0 0.25661155992847534 -0.14371739438260694
2160000000.0 -0.28895435225570026 -0.01710268219973068
2180000000.0 0.010513545111481013 0.2825127607771314
2200000000.0 0.23499842388086312 0.14814317944662542
2220000000.0 0.2579414325655253 0.0708796728216915
2240000000.0 0.09881060704014644 0.24280388872158412
2260000000.0 -0.15708782237591679 0.19403108129448113
2280000000.0 -0.1969434415635314 -0.13375454569921014
2300000000.0 0.2016805282694558 0.10551435650256832
2320000000.0 -0.1974972324936187 -0.10430274283119428
2340000000.0 0.2012265715839181 -0.0721856606881307
2360000000.0 -0.18081268728745972 -0.11875889409718342
2380000000.0 0.2177352049293615 0.04757150003948418
2400000000.0 -0.02961638266091027 0.2388460776574402
2420000000.0 0.11948752159275959 0.23281950253548853
2440000000.0 0.1446452669966555 -0.25284150311784054
2460000000.0 -0.12612521827436934 0.301114759378996
2480000000.0 0.2956226144282217 -0.20897262926917168
2500000000.0 0.2762497437128798 0.28959210159914855
2520000000.0 -0.30450877436375845 0.31351975307813834
2540000000.0 -0.34385659911535477 -0.3247234116968046
2560000000.0 0.5058345124829192 0.0034399535662757606
2580000000.0 -0.5038468133192172 0.19207641009931575
2600000000.0 0.3143361394727992 -0.47631880360691714
2620000000.0 0.10098483433535761 0.5877747967239911
2640000000.0 -0.4593255335706317 -0.4093428608597602
2660000000.0 0.6236063521997404 -0.10418621899323975
2680000000.0 0.057251072638974186 0.6410060550515896
2700000000.0 -0.6202550533175704 0.20688551139671796
2720000000.0 -0.6342815622452397 -0.1882117292745628
2740000000.0 -0.5395857852621836 -0.3897137880986811
2760000000.0 -0.5048584630006615 -0.4348562152845937
2780000000.0 0.5067760725435577 -0.425683914431871
2800000000.0 0.6122257382645327 -0.2282908414204859
2820000000.0 0.5617562289385903 0.3102019932005051
2840000000.0 -0.3560531112134319 0.5180315528454992
2860000000.0 0.09622193573531111 -0.6090882049372626
2880000000.0 -0.19618845846605054 0.5682786694674942
2900000000.0 0.5155585835899242 -0.2739483338655001
2920000000.0 -0.3889135695658548 -0.4039454232396787
2940000000.0 -0.5233864719835907 0.11567801506764694
2960000000.0 -0.2227681822197072 0.46243083191505147
2980000000.0 0.28149074146404596 0.40099152104970154
3000000000.0 0.4270373801035347 -0.18858950829729146
3020000000.0 -0.30637054063635627 -0.3193476303695703
3040000000.0 0.049515092337797 0.4119050573961998
3060000000.0 0.1295291669958219 -0.36517669602566316
3080000000.0 -0.17853132802648528 0.31648546193873517
3100000000.0 0.26063619852847353 -0.22051312996922512
3120000000.0 0.016914565032269197 -0.33163042646492114
3140000000.0 0.08611324603421712 0.3126123772379698
3160000000.0 -0.008561727391296233 -0.31778569630177095
3180000000.0 -0.22794248258618285 0.21703827196923275
3200000000.0 0.29114803443336257 -0.11043957690843753
3220000000.0 -0.23008838834783385 -0.19299731303529574
3240000000.0 -0.2790495410315276 0.07189474166610114
3260000000.0 -0.2645922996839831 -0.03554158362776753
3280000000.0 0.12675507889077456 -0.21598274035103449
3300000000.0 0.0991714993857435 0.21422796541886016
3320000000.0 -0.21776646274814765 0.022529166345200018
3340000000.0 -0.1093345579717101 -0.16539080059215572
3360000000.0 0.12250856281038326 -0.11788432934145013
3380000000.0 -0.07304721462002275 -0.12099153175797642
3400000000.0 -0.115634134191714 -0.020420241283260684
3420000000.0 0.04342606757244325 -0.09959013101106079
3440000000.0 0.05128519328731662 0.08565063706142549
3460000000.0 0.08905303471978013 -0.009984590438570149
3480000000.0 -0.0677805302003612 0.04205898000517672
3500000000.0 0.05491515269821324 0.046998582749150766
3520000000.0 0.009222726762323488 -0.06517900187198761
3540000000.0 0.008698093769748606 -0.062221451266448125
3560000000.0 0.06267766850168323 -0.00935064984069702
3580000000.0 -0.07110859057283749 0.008251521430227894
3600000000.0 -0.08240531033887255 -0.010043830928585337
3620000000.0 0.09736683350856014 0.01780836104501573
3640000000.0 -0.03620506897151531 -0.09915734766211858
3660000000.0 -0.08478031238362888 -0.06799005135393195
3680000000.0 0.09057755806148966 0.05126178839663445
3700000000.0 -0.0744484268088345 0.055569985873752004
3720000000.0 -0.022531001764840963 -0.08562563987138722
3740000000.0 0.0373577789941827 0.06783525361133595
3760000000.0 0.06895244027881663 -0.008809902542429044
3780000000.0 0.040698738769148556 0.039815754951259885
3800000000.0 0.03965250019963135 0.0004711027348508122
3820000000.0 -0.030033031958388978 -0.007610317230490612
3840000000.0 -0.046475682000656986 0.01022554655957605
3860000000.0 0.031974706861538596 -0.06352410787589736
3880000000.0 0.07666547244700336 0.04304116126147406
3900000000.0 -0.08212962126083408 0.05570153157918854
3920000000.0 0.043131397620053594 -0.09423900981671925
3940000000.0 -0.09954848587916743 -0.02333014696820195
3960000000.0 -0.05888775894639075 0.08570771631525274
3980000000.0 -0.0998670891622475 0.0014208223844241613
4000000000.0 0.03177346610522625 -0.08022605570078238
