!Created with skrf (http://scikit-rf.org).
# Hz S RI R 50.0 
!freq ReS11 ImS11
400000000.0 -0.7217850434166428 -0.3910123394579449
420000000.0 0.34255741243519083 -0.6911437877044978
440000000.0 -0.5866328868617922 -0.43502945250670005
460000000.0 0.13435631805227508 -0.6271452611291215
480000000.0 -0.28906032022251055 -0.45818322912701176
500000000.0 0.14179230636235882 0.39036787683157176
520000000.0 0.3461964466669781 -0.27057122054180904
540000000.0 0.4687130664872706 -0.06370247996598247
560000000.0 -0.4309899952895983 -0.14809706015416546
580000000.0 -0.034764951648358626 0.4135527560833155
600000000.0 -0.0050323486261307825 -0.3940234858184909
620000000.0 -0.08747098194212097 -0.35286344712303064
640000000.0 -0.2770526891969645 0.22257122971737742
660000000.0 -0.35882255195582985 -0.06382255688717689
680000000.0 0.09407701398022694 0.3393547047500855
700000000.0 0.2256517467462592 0.2527969383424551
720000000.0 0.33238632000517504 -0.1116313383348514
740000000.0 -0.29671934289557 0.0517982457833025
760000000.0 -0.04674085149462748 -0.2729012719794933
780000000.0 -0.09050862039537282 -0.2658101388384797
800000000.0 -0.2278627323141973 0.12241337036072397
820000000.0 -0.2326249707456001 -0.03539218022910452
840000000.0 0.1846441789089486 -0.1445654573393382
860000000.0 -0.1243311764166688 0.1746851258385934
880000000.0 -0.05289887449169023 0.1845422869959015
900000000.0 0.14351445526414502 0.02856403136564607
920000000.0 -0.0809444022338952 -0.11801511298280161
940000000.0 -0.00033484711107070573 -0.127565940349962
960000000.0 0.09772304749297152 -0.003309104703980547
980000000.0 -0.04791526511512622 -0.03357816832221034
1000000000.0 0.05152089579450922 -0.004601235504080247
1020000000.0 -0.0003011470591157126 0.047667803363950156
1040000000.0 0.06493357920826931 -0.04181488984402814
1060000000.0 0.0037044491679496657 0.10348227602079137
1080000000.0 -0.026429950761075374 0.1369560116510017
1100000000.0 -0.16594412432436195 -0.07115591775926945
1120000000.0 -0.21472703764234605 -0.012575836613405026
1140000000.0 -0.0720060880358964 -0.2373048188994127
1160000000.0 -0.27059386330615876 -0.060070217886621875
1180000000.0 0.2843981011411549 -0.0394840728878763
1200000000.0 -0.03804089372456631 0.3103257936969738
1220000000.0 -0.0846758973211101 0.30288348319384073
1240000000.0 0.0017490380784415732 -0.3350428659723512
1260000000.0 -0.284804804029259 0.18337037499935097
1280000000.0 -0.2975045202855977 0.17381530865689512
1300000000.0 -0.30915077957517056 0.16947883100475286
1320000000.0 -0.12269993943498318 -0.3269502140144437
1340000000.0 0.004620013476972311 0.36365465685808906
1360000000.0 -0.3105928373654612 -0.21066433486524747
1380000000.0 0.3201635633126459 0.20639307107766253
1400000000.0 -0.2505089831384014 -0.2880784817106618
1420000000.0 0.05818443636057278 0.3782668973125847
1440000000.0 0.3372277808267674 0.15631946869407107
1460000000.0 0.1685457561300944 -0.3272592984428335
1480000000.0 -0.3462761709167971 0.06164011437083112
1500000000.0 0.0801982998393857 0.31737051659942617
1520000000.0 0.2921999280679738 0.08577317644917914
1540000000.0 -0.23161216122884065 -0.1549611218807225
1560000000.0 -0.11696174739997105 0.22105192336950913
1580000000.0 -0.020785066641527065 -0.21833774923497584
1600000000.0 0.08509282993565062 0.16293402162584567
1620000000.0 -0.1190667531223575 0.10659062914172467
1640000000.0 0.12806608279597126 0.011166881060466781
1660000000.0 -0.042328662848611705 -0.09625145616487299
1680000000.0 -0.029288167034920938 -0.08373840114798303
1700000000.0 0.04819554120920235 -0.06434234315690529
1720000000.0 -0.04977912155289686 0.02217938607775117
1740000000.0 0.051706469530092156 0.017972108691551414
1760000000.0 -0.014691509429632835 0.06616403066534583
1780000000.0 -0.05615964501764877 0.07245048813656361
1800000000.0 0.05778295762812583 0.11231643706573781
1820000000.0 -0.14658466207635976 0.0695559050849915
1840000000.0 -0.12940453395322263 0.14299847665816345
1860000000.0 -0.20367463829639681 -0.09178424759460581
1880000000.0 0.005617286424807055 0.2519680547484129
1900000000.0 0.24547244158899537 -0.12770245863490542
1920000000.0 -0.2888584488005581 0.03643282218020781
1940000000.0 0.2813033811435923 0.11052381015012167
1960000000.0 -0.28273910551065456 0.11768846826590833
1980000000.0 0.27405820153165655 -0.13910820147945832
2000000000.0 0.03710807033098079 0.30622602768956775
2020000000.0 -0.2539827172541376 0.18323191325294097
2040000000.0 -0.29664941578907333 0.09628098186547646
2060000000.0 -0.2963021657756174 0.09374194261294906
2080000000.0 -0.2783745765752997 0.12876284925436085
2100000000.0 0.2456887888016432 0.17318663329949524
2120000000.0 -0.2714752692742415 0.12159888491224048
2140000000.0 0.2879675395909184 -0.05376776616359964
2160000000.0 -0.2867301915684571 -0.03955350696933575
2180000000.0 -0.07665955518629375 0.2748137944081028
2200000000.0 0.25755546921025213 0.1111900391822113
2220000000.0 0.2672735787402596 -0.0052466262059376705
2240000000.0 -0.00712844746492511 0.2618412754152164
2260000000.0 -0.13837410003877817 0.205537310591144
2280000000.0 0.004799098145301838 -0.23859098053892686
2300000000.0 0.17890130390041906 0.14390032106348374
2320000000.0 -0.22195779769348734 -0.004892126409702098
2340000000.0 0.20101287155967962 -0.07293263063505333
2360000000.0 -0.07694861053551098 -0.20296408621202505
2380000000.0 0.21120276892098866 -0.07517852014087593
2400000000.0 -0.08139969994458279 0.22606880289587702
2420000000.0 0.2264165590079214 0.13780458919035604
2440000000.0 0.016502926839959516 -0.2896306330057491
2460000000.0 -0.07563931789506699 0.31615125297516
2480000000.0 0.31216300231376415 -0.17748493357048714
2500000000.0 0.2197424850458031 0.33528788407383303
2520000000.0 -0.3587699058887015 0.2517366942751694
2540000000.0 -0.32312328355538605 -0.34865893767474726
2560000000.0 0.4942473952960209 -0.1253661374952264
2580000000.0 -0.3693335830918607 0.3955459007902847
2600000000.0 0.14857982327551716 -0.5495274481909257
2620000000.0 0.10507006210825523 0.5848159734207221
2640000000.0 -0.4000001767910419 -0.4667225865474219
2660000000.0 0.6296310707311065 -0.061150632113472755
2680000000.0 -0.005517449881609757 0.6434038274859484
2700000000.0 -0.5991281652322179 0.26158451703784236
2720000000.0 -0.650099223531417 -0.11683266840144181
2740000000.0 -0.5959568921279585 -0.29296315915973187
2760000000.0 -0.5921555166428222 -0.3029340041417464
2780000000.0 0.44523454292265024 -0.4885441041386604
2800000000.0 0.5683649920112859 -0.32151596212478434
2820000000.0 0.6064864984740226 0.21017088843592607
2840000000.0 -0.24447879712340076 0.5798741878909169
2860000000.0 -0.18323763066254053 -0.5888780999728216
2880000000.0 -0.10360111558206425 0.5894649297516086
2900000000.0 0.5604166362147232 -0.1538629949640041
2920000000.0 -0.3049958938730839 -0.47088856871200074
2940000000.0 -0.5263983628624667 0.09838599675846303
2960000000.0 -0.308659523051348 0.4117868120249251
2980000000.0 0.45114518083724525 0.1907224820798906
3000000000.0 0.33546020052034964 -0.31591411978031425
3020000000.0 -0.24078719468731946 -0.3650477167086132
3040000000.0 0.0937011114863125 0.3992840672758347
3060000000.0 0.25208482407198185 -0.29162596558769094
3080000000.0 -0.2771502960405973 0.2368872339713207
3100000000.0 0.17788812761949363 -0.2967481199408311
3120000000.0 -0.23269826478799585 -0.23859538898820565
3140000000.0 0.18057618543881546 0.26947300045416245
3160000000.0 -0.17715590611654908 -0.26523831697509254
3180000000.0 -0.08519738771005204 0.3004758293967274
3200000000.0 0.3055865414842473 -0.028311932194790217
3220000000.0 -0.01907337856089738 -0.2976831920277652
3240000000.0 -0.15378663284775138 -0.24450369263047575
3260000000.0 -0.16512055497176173 -0.2139005157904863
3280000000.0 0.054838239396802387 -0.2506178346128331
3300000000.0 0.21365104324591477 -0.0991469414689971
3320000000.0 -0.08779599809907834 0.1950929490801234
3340000000.0 -0.04943398364920923 -0.18288552874763248
3360000000.0 0.07047591467604304 0.15171310568161922
3380000000.0 0.14411781479880126 -0.02342686802852899
3400000000.0 -0.12573112825157495 0.009517042688305931
3420000000.0 -0.06549164567907446 0.09199950918821663
3440000000.0 -0.04199263382795947 -0.09069609323397185
3460000000.0 0.013294347619276572 -0.08366591479863893
3480000000.0 -0.06671143831932962 -0.033147208330289994
3500000000.0 -0.06494371954383173 -0.016886473108606217
3520000000.0 0.05579895044013499 0.028396927930797067
3540000000.0 -0.05347876929002942 0.039769654498156275
3560000000.0 -0.04199043172405733 0.05136260337327906
3580000000.0 0.018319833318493153 0.07323493330117095
3600000000.0 0.05833189886345258 -0.06041019249113732
3620000000.0 -0.09316342465274037 -0.018777492181993986
3640000000.0 -0.09258984445453476 0.03834514444030391
3660000000.0 0.10381421560527748 -0.020617436820996746
3680000000.0 -0.04426972926646934 0.09370946668471115
3700000000.0 -0.09819194600976583 -0.011577071597549086
3720000000.0 0.06556075811115741 0.0626153481875065
3740000000.0 -0.04915850715982922 -0.057835736611113193
3760000000.0 0.016619791247165734 -0.0628966331251764
3780000000.0 -0.055052413453547534 0.005823395030168377
3800000000.0 0.025457359491413225 -0.03144859984448148
3820000000.0 -0.03639178187610429 0.00022401760554330305
3840000000.0 0.002316767519516004 0.048301215658611486
3860000000.0 -0.06491412219694427 -0.002578239011356312
3880000000.0 -0.045652689745464416 0.06734207755541731
3900000000.0 0.08696737646434333 0.04498596795267103
3920000000.0 -0.030866114657627 0.10475002472953933
3940000000.0 -0.10854621108206584 -0.015456205580395297
3960000000.0 -0.02691324672557727 -0.10224686917151704
3980000000.0 0.039573315347882485 0.08512445292972524
4000000000.0 0.0780904782043667 -0.0046402601337143514
