!Created with skrf (http://scikit-rf.org).
# Hz S RI R 50.0 
!freq ReS11 ImS11
400000000.0 -0.7266128838974 -0.3733149315141691
420000000.0 0.4910260463208267 -0.5979252066594951
440000000.0 -0.5352039341536786 -0.5066810238341141
460000000.0 -0.6132699509644259 -0.21067367030653122
480000000.0 -0.38635250003433413 0.35257075986091263
500000000.0 -0.4117464308192522 0.03077160142876121
520000000.0 0.42593990260898973 -0.08119384763148459
540000000.0 0.47039274925264096 0.04675241837190879
560000000.0 0.2659856840027145 -0.3788854692519179
580000000.0 -0.025546545852285496 0.4088843502977527
600000000.0 0.38840961449199035 -0.002409349302849997
620000000.0 0.2898511006690542 -0.24312069392869753
640000000.0 0.14297682034105383 0.33562161762621434
660000000.0 -0.10713866854400265 0.35402723551034315
680000000.0 0.2781137941562908 -0.21558581684918826
700000000.0 0.12412744556786 0.31761663598141204
720000000.0 0.3204729684676776 -0.12072020367116158
740000000.0 0.13039385938073594 -0.2775316550795668
760000000.0 -0.10259786627196833 -0.2683719581987681
780000000.0 -0.2799259469758861 -0.04998184743655896
800000000.0 0.2324028543575751 -0.11513274708417509
820000000.0 -0.09207962083626213 0.20333595809665647
840000000.0 0.22374921844626933 -0.016469939198519558
860000000.0 -0.04400597123829853 0.19972639828177452
880000000.0 0.18991967735410903 0.017480130227049542
900000000.0 0.0983076340849923 0.11525329643334499
920000000.0 0.010012044409677557 -0.14524044839335773
940000000.0 0.12336581086690077 -0.04405365001618332
960000000.0 -0.07036084354482865 -0.07044835275489238
980000000.0 0.024388909728092274 0.056819150435432224
1000000000.0 0.05001443663199088 0.030192561893754008
1020000000.0 -0.04898082166670255 0.011065779152479464
1040000000.0 0.03586745235033577 0.0694751185942954
1060000000.0 0.10032772849844564 -0.049300193291602165
1080000000.0 -0.12072860982287524 0.08560479626296688
1100000000.0 0.033834623588778735 0.18071926219784717
1120000000.0 -0.2128244132885466 -0.05085362558593354
1140000000.0 -0.07303307935353782 0.23915921596405518
1160000000.0 -0.2590788287916494 0.06414825276314459
1180000000.0 0.23828178239073 0.1556725863000788
1200000000.0 -0.24754112964060812 0.19183238315221285
1220000000.0 -0.19392424148880213 0.2507434210132688
1240000000.0 -0.20149710430131818 -0.2660983786893347
1260000000.0 -0.2615900912154268 0.21412583471440655
1280000000.0 -0.3182492296860244 0.13340511921940676
1300000000.0 -0.3503310848817053 0.014895657490641737
1320000000.0 -0.18621688632374972 -0.3052542790700886
1340000000.0 0.13007101168684912 0.33432637435470197
1360000000.0 -0.20689165274643254 -0.3156379480127386
1380000000.0 0.37026203467967916 0.08483802083135511
1400000000.0 -0.19320999613437445 -0.32486191370190187
1420000000.0 -0.23244573754821418 0.30453849761781027
1440000000.0 0.37436088880793783 0.0017952416791024298
1460000000.0 0.10810651220749341 -0.35156654934264403
1480000000.0 -0.3099029587334076 0.1614247406955022
1500000000.0 0.10688061017123186 0.3097083356436977
1520000000.0 0.2171023731319232 0.21102109042800257
1540000000.0 -0.15931846714129888 -0.23028966329049977
1560000000.0 0.08867704563495729 0.23509867477037477
1580000000.0 -0.0734059116940147 -0.20522492860322322
1600000000.0 0.12963460459672949 0.12873767006325704
1620000000.0 -0.1608748558290855 0.0013149097559965021
1640000000.0 0.04792209472879639 -0.12353563705136036
1660000000.0 -0.0525993989334875 -0.0910217665369797
1680000000.0 -0.09234119109514577 0.0062590373840908245
1700000000.0 -0.07572146805944392 -0.008072198897591391
1720000000.0 0.05377706608768085 0.014254914156917315
1740000000.0 -0.023856108270818584 0.049049097572628764
1760000000.0 -0.05933482069004507 -0.03750999274310724
1780000000.0 -0.06395848924586738 0.0704376044012344
1800000000.0 0.11037450426525283 0.053831459057770356
1820000000.0 -0.15852336110972653 -0.015490268203333707
1840000000.0 -0.18731443371022544 0.055780510885172364
1860000000.0 -0.1864082492423704 0.11940591378129731
1880000000.0 -0.17818086643753492 0.17342493903558076
1900000000.0 0.1541685072544613 -0.23138906919133923
1920000000.0 -0.2720494535689589 0.09251852011603981
1940000000.0 0.24789495672170772 0.16915989252195493
1960000000.0 -0.29760034720369155 -0.08501853502528418
1980000000.0 0.24904844905804657 -0.18764659230042827
2000000000.0 0.18655346997427602 0.2474401375600618
2020000000.0 -0.22715270284484532 0.217262917327339
2040000000.0 -0.16493153916021727 0.26421633129199074
2060000000.0 -0.3034946530339995 -0.028035759047777453
2080000000.0 -0.29178082303101416 -0.09610048148228119
2100000000.0 0.2310387961569977 0.1965655965890394
2120000000.0 -0.26234018230363454 0.14248152211375797
2140000000.0 0.20430205802807663 -0.20879722244779608
2160000000.0 -0.28791444165789104 -0.021086967990373205
2180000000.0 -0.023323243130478916 0.28217220247550995
2200000000.0 0.2289813650227862 0.15746660935017154
2220000000.0 0.2621733557739416 0.05672432367677257
2240000000.0 0.09494322157356729 0.24511064712605016
2260000000.0 -0.019189757864149278 0.24866635110789118
2280000000.0 -0.1420063288281118 -0.1891302661969059
2300000000.0 0.16212570634237752 0.15831234424602963
2320000000.0 -0.22103998356755622 -0.02914444770088453
2340000000.0 0.20811985474773873 0.054265949789859026
2360000000.0 -0.17628563374738845 -0.12883672572449084
2380000000.0 0.20208968051582657 -0.09591690207898601
2400000000.0 -0.059919430236150505 0.23147837969219998
2420000000.0 0.18597979537288312 0.18651445161547256
2440000000.0 0.12385245050154738 -0.26258493169364494
2460000000.0 -0.09915728226853036 0.3110029655262162
2480000000.0 0.29407014810244925 -0.20935197834146277
2500000000.0 0.2938457935575446 0.27027436885276784
2520000000.0 -0.41512535925388155 0.13612772660189112
2540000000.0 -0.2156348815763605 -0.4244679028320445
2560000000.0 0.4962914607315067 -0.11447612465693262
2580000000.0 -0.3955947302101968 0.36811499711383144
2600000000.0 0.13533941027948213 -0.5518937314427564
2620000000.0 0.11627459258943734 0.5828458787829284
2640000000.0 -0.43594337281597306 -0.4329091181028154
2660000000.0 0.626636640542302 -0.0908676657681188
2680000000.0 0.01730189681401525 0.6442991383146773
2700000000.0 -0.6384184375322972 0.14903512245190728
2720000000.0 -0.6073558780968281 -0.26473143766122825
2740000000.0 -0.6055666808896142 -0.27625571714531905
2760000000.0 -0.5532318371221805 -0.373014365081802
2780000000.0 0.5208915695670814 -0.4084106015074359
2800000000.0 0.6310779912890984 -0.16871648744642953
2820000000.0 0.5723437549754414 0.2898427314927587
2840000000.0 -0.305768374035914 0.5486914635949249
2860000000.0 -0.04662428348217778 -0.6133273048796202
2880000000.0 -0.11801921109269599 0.5861437885961616
2900000000.0 0.5631711732575221 -0.15178811858995975
2920000000.0 -0.36322040672934836 -0.4296500482317378
2940000000.0 -0.5265348461579021 0.10489239641209389
2960000000.0 -0.1911893615539372 0.479140562324069
2980000000.0 0.44154620144759377 0.21898466116909351
3000000000.0 0.3004080567403711 -0.35278309128914653
3020000000.0 -0.21221812234832088 -0.38402095511114287
3040000000.0 -0.04787288907896859 0.4099597394390954
3060000000.0 0.3048712743851359 -0.23786227989609787
3080000000.0 -0.3246316875632115 0.1654535409923281
3100000000.0 0.287558060042081 -0.19235788646817287
3120000000.0 -0.2015274942988881 -0.26498082806763357
3140000000.0 0.12605853917917156 0.29841774747491606
3160000000.0 -0.18546230457313018 -0.2570218302738833
3180000000.0 -0.0630085349670035 0.304063498146948
3200000000.0 0.3059378813975649 -0.0031941679000418144
3220000000.0 0.03581286598208251 -0.2982326528546415
3240000000.0 -0.27061499254284505 -0.1059889582313999
3260000000.0 -0.25209996047075983 -0.10151767369330582
3280000000.0 -0.06827483835018056 -0.2466955114943942
3300000000.0 0.20744651605806286 -0.1113304412883093
3320000000.0 -0.18090038812350673 0.11663458371266688
3340000000.0 -0.18144765509948446 -0.06058165146132567
3360000000.0 0.023096293687059077 0.16447612111603285
3380000000.0 0.08865602597778921 0.11488530260203349
3400000000.0 -0.10198663787590424 -0.07481044234487788
3420000000.0 -0.08275392246386963 0.07410944944143893
3440000000.0 -0.06802115539367927 -0.06912588237956796
3460000000.0 0.07186004900769831 -0.04592812280585361
3480000000.0 -0.06562439831239644 -0.039234790167690735
3500000000.0 0.038614418886997647 0.056411544829715714
3520000000.0 0.01120986890307548 -0.06119041047769056
3540000000.0 -0.06538225326720376 0.013184840680804366
3560000000.0 -0.003259769948794489 0.06858741660653087
3580000000.0 0.0766794427454782 0.014916602730685147
3600000000.0 -0.011467503208512952 -0.08299370208043318
3620000000.0 -0.024250882624779452 -0.0904875427071079
3640000000.0 -0.03898702715505087 -0.09335547757563821
3660000000.0 0.10273881246668533 0.02418803231697549
3680000000.0 -0.1018663834835874 -0.025174886544912158
3700000000.0 -0.0651903059415405 -0.07491897752711969
3720000000.0 -0.0474986417432765 0.0783495990938281
3740000000.0 -0.06321927490220257 -0.045809053658955455
3760000000.0 -0.06397981546373525 -0.014948539618481457
3780000000.0 0.006206395562136966 0.05222444814821821
3800000000.0 0.02709263749477632 0.027754763720409345
3820000000.0 -0.0328198324798135 -0.01681776067730691
3840000000.0 -0.023622402327334913 0.04306822004100527
3860000000.0 -0.02404732607652307 0.06137400544533174
3880000000.0 -0.05136574888783971 0.06591608288910843
3900000000.0 0.08661051731407354 0.04631906762114175
3920000000.0 0.035063142158175624 0.1035324577397622
3940000000.0 -0.08148158874456983 0.07348652736042674
3960000000.0 0.08445497446402819 -0.062155407063074306
3980000000.0 -0.02506138661314143 0.09225294009540759
4000000000.0 -0.016742358217610123 0.07747013145910209
