!Created with skrf (http://scikit-rf.org).
# Hz S RI R 50.0 
!freq ReS11 ImS11
400000000.0 -0.49846536363529825 0.6281641964600876
420000000.0 0.7509313627747842 -0.06256196188954277
440000000.0 -0.2463775848992464 -0.6923122388750246
460000000.0 0.024786464315942572 -0.6469750151024317
480000000.0 -0.5262902613237023 -0.02815597827715665
500000000.0 -0.41444257642754817 -0.02336648656521107
520000000.0 0.32972589508340666 -0.3138972699687285
540000000.0 -0.2925165287046395 -0.3850747635142979
560000000.0 -0.13225419371574515 -0.4325118018189048
580000000.0 -0.02514108756761352 0.4204106948246933
600000000.0 -0.3786823684866944 -0.06857334422754674
620000000.0 -0.3540242608469976 -0.014823894049693004
640000000.0 -0.33573117567478017 0.12052085000239525
660000000.0 -0.29162415982073314 -0.19342787588336913
680000000.0 -0.3310295025542097 -0.08456347508958112
700000000.0 -0.2740708915106452 -0.20813474891015907
720000000.0 -0.24252974086681295 0.2643717566753809
740000000.0 0.1223345151247695 -0.30742634243273587
760000000.0 0.01881800160901615 0.29502563421335054
780000000.0 -0.2873020353710413 -0.029496639515644008
800000000.0 0.22681026444451138 -0.0977518073550864
820000000.0 0.09120823105821795 -0.19456244807956613
840000000.0 -0.2092704037043257 -0.09783194866661638
860000000.0 0.1608509687921319 0.0989512647454648
880000000.0 -0.16909286328551115 0.032094434967761175
900000000.0 0.007893711336877106 -0.1600123914068515
920000000.0 -0.016044068945254335 -0.15791804339308552
940000000.0 0.1276814823882244 0.041232365278462475
960000000.0 0.06956322382293836 0.08402602110267518
980000000.0 0.015402353252930389 0.06859380722635221
1000000000.0 -0.04868146139491658 0.009296043071074882
1020000000.0 -0.04697718510697742 0.015630180827448763
1040000000.0 0.0804429553582955 0.011175249102668042
1060000000.0 -0.1203238113883161 -0.015853014021956793
1080000000.0 -0.1384732620677936 -0.04833288900703476
1100000000.0 0.057156823335645014 -0.1658193593554838
1120000000.0 -0.10606795241277572 -0.17504620795692544
1140000000.0 0.04590463514664264 -0.2458268512284462
1160000000.0 -0.04592954896121524 -0.2733181224878526
1180000000.0 0.28576914100743395 0.026567844820234686
1200000000.0 -0.16634606812481506 0.2681340993804275
1220000000.0 0.04398921241287665 0.31744113558676257
1240000000.0 -0.33587431930926787 -0.022536348389589015
1260000000.0 0.03755850320594206 0.33143307444488473
1280000000.0 -0.33109034159137213 0.028375077897752156
1300000000.0 -0.023605662106983054 -0.34428918339828357
1320000000.0 0.36114681325128645 -0.021777152546713942
1340000000.0 0.03689044475027406 0.3703295522318904
1360000000.0 -0.3774600836877547 0.002718261007346054
1380000000.0 0.3080183252825489 -0.22579988281704624
1400000000.0 -0.3448031403028541 0.1501850265572246
1420000000.0 -0.15771486485720507 0.3377081605076197
1440000000.0 0.2678648503086354 0.2558436481481591
1460000000.0 0.29753128733167256 -0.20576172706995186
1480000000.0 -0.10272425499321816 -0.3390603407178851
1500000000.0 -0.028974577269536842 0.33756298504651505
1520000000.0 0.14949307780626672 -0.27242757576988613
1540000000.0 -0.2566628691958732 0.10840203476098005
1560000000.0 0.18540913204519693 0.1593509398371655
1580000000.0 -0.012836244971863121 -0.21002336619962236
1600000000.0 -0.16665850813268887 -0.07214185647240921
1620000000.0 0.0026449521969712352 -0.16394153695250877
1640000000.0 0.1264260882742392 -0.03761898229767969
1660000000.0 -0.007642920409403994 -0.10662881273368852
1680000000.0 -0.03855517104349758 0.08307593205125799
1700000000.0 -0.06903578840351185 -0.025461057117350177
1720000000.0 0.016898440367109697 -0.05121121471067011
1740000000.0 -0.017124492228704012 -0.05292217128253766
1760000000.0 -0.06253987037103866 -0.018638038989363455
1780000000.0 0.08909289678601157 -0.0334078286721495
1800000000.0 0.014418812961957229 0.12814365819909168
1820000000.0 0.07400625895937821 0.14848428024168253
1840000000.0 0.1721085618062842 0.09117478495621605
1860000000.0 0.042230242939293686 0.2143955960502652
1880000000.0 -0.06666126373730638 0.23485686068386355
1900000000.0 0.2703667943403539 0.036219018438795485
1920000000.0 -0.2345085641969985 -0.16781096325526706
1940000000.0 -0.11593053309551767 0.2799202759692649
1960000000.0 -0.24354133189892865 -0.19832364746521067
1980000000.0 0.1376735419047752 -0.28428014276089136
2000000000.0 0.306627260529112 0.0540751090235817
2020000000.0 0.09987554566798335 0.2960044268241476
2040000000.0 -0.04602808063230877 0.30467830146068425
2060000000.0 -0.2986432161674131 0.04312531508427592
2080000000.0 -0.19849549924452933 -0.22945791339155036
2100000000.0 0.20527934813970217 0.2234851182455689
2120000000.0 -0.2855265117103506 0.09082055129608914
2140000000.0 0.2677206268216054 -0.11979739988572374
2160000000.0 -0.28060403154920105 0.07029481921642525
2180000000.0 -0.004482578185810536 0.2824736799188627
2200000000.0 0.15818644697761947 0.22975122642277007
2220000000.0 0.25215554254130285 0.09333930055693015
2240000000.0 0.033873253990395716 0.2594447467262031
2260000000.0 -0.17770337633664865 0.17489639388783718
2280000000.0 -0.1511026139642297 -0.18600821923034264
2300000000.0 0.22010037578793198 0.059518166831680486
2320000000.0 -0.21664909561379098 -0.05178883859747411
2340000000.0 0.21052234905600256 0.03671879070906141
2360000000.0 -0.15595106413184412 -0.14805423372302295
2380000000.0 0.22026260795045288 0.030091038786583462
2400000000.0 -0.21380923742706756 0.11032888757273848
2420000000.0 0.16628344124641373 0.20828886405832447
2440000000.0 0.07543722988583003 -0.2822886106356368
2460000000.0 0.0077089130026667275 0.32782537940183076
2480000000.0 0.1873152321849036 -0.30757642405991026
2500000000.0 0.3450814924134168 0.1989462276703377
2520000000.0 -0.31832699740416914 0.29741788760005505
2540000000.0 -0.2908738492313679 -0.3739237347186116
2560000000.0 0.5095889797772954 -0.010487276792217441
2580000000.0 -0.45362630551636757 0.29567315757452084
2600000000.0 0.19721713374617014 -0.5366769716981197
2620000000.0 0.11191480144449019 0.585871470408259
2640000000.0 -0.4453060987563494 -0.4250971219725363
2660000000.0 0.6126097342987975 -0.1567152828244547
2680000000.0 0.03731338970273897 0.6416281027467373
2700000000.0 -0.5882074594390578 0.28387069881444915
2720000000.0 -0.6557324866956048 -0.0741856006218546
2740000000.0 -0.6135759663190851 -0.25217195400620757
2760000000.0 -0.6135776815148938 -0.25630298957275555
2780000000.0 0.3602257129617174 -0.554103087654242
2800000000.0 0.5409988339413871 -0.3652358427360617
2820000000.0 0.6101820811240426 0.1953078293725817
2840000000.0 -0.28847620395866086 0.5582329168840119
2860000000.0 0.019088220269239335 -0.6158782286487948
2880000000.0 -0.1323081019985134 0.585640630784231
2900000000.0 0.5319651370287317 -0.23688540406027095
2920000000.0 -0.38439561550363394 -0.40682983478206197
2940000000.0 -0.5267140797256223 0.08091852735711294
2960000000.0 -0.3373689736550386 0.3842765598144976
2980000000.0 0.3185377820344112 0.3725614440414593
3000000000.0 0.35567561961569316 -0.2971949303629797
3020000000.0 -0.2949347649291638 -0.32584020489537985
3040000000.0 0.29619831925201845 0.2872732191986006
3060000000.0 -0.011195800923494587 -0.38357050770886814
3080000000.0 -0.17627416352129588 0.31435652022928584
3100000000.0 0.1790203095618325 -0.29124218918347794
3120000000.0 -0.04943078691208278 -0.3256987861760966
3140000000.0 -0.11060164427497238 0.3038813116170247
3160000000.0 0.06215180556641426 -0.31649450633463116
3180000000.0 -0.10209221056918567 0.2994997848653239
3200000000.0 0.271383281031783 -0.15219264441924263
3220000000.0 -0.19045348613345298 -0.23111130582045664
3240000000.0 -0.2760849942258605 -0.07743999356111299
3260000000.0 -0.15143461903036048 -0.2191984401234442
3280000000.0 0.14540747234499904 -0.20718486815176548
3300000000.0 0.12455973347094516 0.19847733039229237
3320000000.0 -0.1997834152047402 0.08953097774546175
3340000000.0 -0.08022573076312516 -0.1780535985554729
3360000000.0 0.13063772849226712 -0.10763841883271831
3380000000.0 -0.06486777858834016 -0.12675502453458395
3400000000.0 -0.11819170736829762 -0.0009183690806960293
3420000000.0 0.09860312901179202 -0.04251069217614391
3440000000.0 -0.08767756257599232 0.049224472677557286
3460000000.0 0.039923007567841416 0.08183223938263004
3480000000.0 -0.030766635034751248 -0.0750085914484444
3500000000.0 0.058941758698919815 0.04423270275934204
3520000000.0 0.033792512674873244 -0.055123717486182125
3540000000.0 -0.06283398047760731 0.0047435777457389946
3560000000.0 0.03394250318944916 0.05057970805783937
3580000000.0 -0.005958042274494229 0.06992686435846224
3600000000.0 -0.07392028776985622 0.03202741947537992
3620000000.0 0.09689992261263161 0.008283933515729534
3640000000.0 -0.07028981253176009 -0.07342242888112198
3660000000.0 -0.05479336422480283 -0.09228979452828308
3680000000.0 -0.034418217319641904 0.09693679562759071
3700000000.0 -0.0731246385459149 0.06214575327240114
3720000000.0 -0.08058275860023557 0.0371598061828624
3740000000.0 0.02919422823429736 0.07168501104735928
3760000000.0 -0.031127130596396862 -0.06432540713975746
3780000000.0 -0.025800732009477557 0.05122578488314154
3800000000.0 -0.03408520487139363 0.008725972696088767
3820000000.0 -0.022090206930501684 -0.022722778593464162
3840000000.0 -0.03980286604246144 -0.030447305656379643
3860000000.0 -0.06045393295851258 -0.04066729578176914
3880000000.0 0.06739017451348148 -0.05417209066056437
3900000000.0 -0.07527123256692203 0.06410806439513692
3920000000.0 0.014842184282579256 -0.10055472534264107
3940000000.0 -0.06591100421738579 -0.07572355903732661
3960000000.0 -0.038568703958575846 0.094141751124358
3980000000.0 0.046012739795213274 -0.08620420932415737
4000000000.0 0.07267767544795999 0.048833446898440415
