!Created with skrf (http://scikit-rf.org).
# Hz S RI R 50.0 
!freq ReS11 ImS11
400000000.0 -0.6446738050046406 -0.5050145570929635
420000000.0 0.4196996203563506 -0.649493021956687
440000000.0 -0.6233707037444824 -0.3908799689474599
460000000.0 -0.6116843707424285 -0.19974251184598343
480000000.0 -0.5014947324565892 0.17082373267082746
500000000.0 -0.3671222449741408 0.18897882614158745
520000000.0 0.21610291260432643 -0.3778732979805685
540000000.0 0.44448439438411524 0.14906028638712102
560000000.0 0.34644714325204934 -0.2999951613345136
580000000.0 -0.15439066966363632 0.37908541947529445
600000000.0 0.33086033531108 0.2120393464094053
620000000.0 0.1916135537208015 -0.33119678539149544
640000000.0 0.3050760551996515 0.20720461238833932
660000000.0 0.20580319081374446 0.2999709237434146
680000000.0 0.22493619007482546 0.2603807002106515
700000000.0 0.01923347437702803 0.3427711342650284
720000000.0 0.3081294786320813 -0.1520578903805107
740000000.0 -0.12778293307960892 -0.2785545200998436
760000000.0 -0.2759480533746551 -0.08147967301298925
780000000.0 -0.2757316461002589 0.052230980501348244
800000000.0 0.23599171989944112 0.08973576726349136
820000000.0 -0.20212437232994046 -0.11295149732904047
840000000.0 0.18041228488013591 -0.14166523206417958
860000000.0 -0.10556612378791849 0.17578702176539343
880000000.0 0.04900227120057484 -0.18256545260474555
900000000.0 -0.1439107050844124 -0.033261553716288875
920000000.0 0.08069314101230705 -0.12039367516216269
940000000.0 0.12865448904951746 -0.018816608483081428
960000000.0 -0.05456375472280526 -0.0824541678734289
980000000.0 -0.060300434812520315 0.01786495779397709
1000000000.0 0.04498539148019753 0.033749071837634474
1020000000.0 0.0172052691341055 -0.05239537337821679
1040000000.0 -0.03145317509905672 -0.07467646443023679
1060000000.0 0.09279199006174071 -0.05340647437851077
1080000000.0 -0.10526876851426986 -0.1002729536139444
1100000000.0 -0.09208762641913275 0.16322524466628147
1120000000.0 -0.11888941841063082 0.18450536695101724
1140000000.0 -0.03296591439498026 0.2422693655892075
1160000000.0 -0.2653104372049513 -0.028071537886137615
1180000000.0 0.26759304960790264 0.10090363980633488
1200000000.0 -0.19658799922057896 0.24360541107577818
1220000000.0 -0.02902523752996824 0.31563923520089876
1240000000.0 -0.16561191416079613 -0.28918332160681903
1260000000.0 -0.265575856078685 0.21173448557902344
1280000000.0 -0.3236136492685057 0.11517453160205293
1300000000.0 -0.3032413469123987 -0.17959433931663857
1320000000.0 -0.2193417812906388 -0.28425479777759877
1340000000.0 0.2165217388704065 0.28372713560972596
1360000000.0 -0.20153316572880045 -0.315839498432828
1380000000.0 0.3356021275218383 0.1779134174933632
1400000000.0 -0.16822324742217046 -0.34229072937191163
1420000000.0 -0.0021156304490764686 0.38296739565610843
1440000000.0 0.36748698262528123 -0.06797686506573455
1460000000.0 0.10107010760654762 -0.3519869951023463
1480000000.0 -0.34916540976209465 0.0018917706957359518
1500000000.0 0.028124031208574315 0.33102626296201826
1520000000.0 0.2748411408885706 0.130566045304367
1540000000.0 -0.2513903843160617 -0.12211451704729698
1560000000.0 -0.04170061130567511 0.24741338274709526
1580000000.0 0.01928579797727206 -0.21733943964089747
1600000000.0 -0.049044442678356726 0.1770827189585076
1620000000.0 -0.1530136458580419 -0.05633728106630944
1640000000.0 -0.10168022009304616 -0.08082539029408287
1660000000.0 -0.024234360595967064 -0.10001063198877237
1680000000.0 -0.08965825529222621 -0.00824552625371517
1700000000.0 -0.06048500675777376 -0.046373090319706156
1720000000.0 0.044495111950635255 -0.03462223527879858
1740000000.0 0.04332653514981143 -0.0321536130010973
1760000000.0 -0.05972659906463984 -0.03289338837851594
1780000000.0 -0.09060066624894202 0.03100731063428531
1800000000.0 0.10527719873840433 -0.0682705691949154
1820000000.0 -0.1510125860686134 0.051938176712128546
1840000000.0 -0.18785466986507143 0.057170467680810196
1860000000.0 -0.2037750973648044 0.08809654426852809
1880000000.0 -0.14707891664661463 0.20204889317553099
1900000000.0 0.18729056691262236 -0.20689025856895896
1920000000.0 -0.28444223321625967 0.04985893864363236
1940000000.0 0.21890092347733914 0.2047512634816152
1960000000.0 -0.30759022749676734 -0.03574679016654018
1980000000.0 0.26449959027670644 -0.16186695507960439
2000000000.0 0.157933134491255 0.26563420741690325
2020000000.0 -0.18154250527498425 0.2585588838054079
2040000000.0 -0.09453449663865769 0.29767001822281525
2060000000.0 -0.2951077612602573 0.07699119657595353
2080000000.0 -0.3044492293780303 -0.036349256246448476
2100000000.0 0.2157486542000084 0.21474917210806913
2120000000.0 -0.27747766703904114 0.11287840086344576
2140000000.0 0.19896320361663852 -0.21749913959485154
2160000000.0 -0.2850091315284694 0.03433595144143733
2180000000.0 -0.09357472437479426 0.26639560392410644
2200000000.0 0.1158057982773051 0.253509155254793
2220000000.0 0.26979967833971685 -0.004652455220821554
2240000000.0 0.137053094231553 0.22243241977962494
2260000000.0 -0.13201515639561912 0.21045208554203657
2280000000.0 -0.11576278925281522 -0.2067172115273658
2300000000.0 0.18510881200340848 0.13048280483653107
2320000000.0 -0.22139810646261157 -0.012782605923916912
2340000000.0 0.19893043214299344 0.08166959822639942
2360000000.0 -0.1806761283544698 -0.12338251110969989
2380000000.0 0.19500818432597794 -0.1103931375519853
2400000000.0 -0.03319866521837521 0.23708693687668142
2420000000.0 0.202116330882315 0.16826024056433542
2440000000.0 0.11260803221294147 -0.2671715737893602
2460000000.0 -0.13888533772146386 0.29640004027017197
2480000000.0 0.2357590189239773 -0.2733707417514365
2500000000.0 0.33848233500027247 0.21134571855164705
2520000000.0 -0.39478847653006394 0.18601325252472709
2540000000.0 -0.22614869165610108 -0.4175504255322523
2560000000.0 0.49404208873529576 -0.12845112913686346
2580000000.0 -0.38654374423298987 0.3789764945567982
2600000000.0 0.1339697833723755 -0.5530668755276678
2620000000.0 0.11882183610897314 0.5826454176917607
2640000000.0 -0.4277130573439921 -0.44114868929204765
2660000000.0 0.630089452933085 -0.05551123091674672
2680000000.0 -0.057849198319546435 0.6413248800919872
2700000000.0 -0.6210402787825319 0.20500138320266825
2720000000.0 -0.6452901591415888 -0.1430208878819588
2740000000.0 -0.6325526638440888 -0.2025630787885598
2760000000.0 -0.5904913257316388 -0.3073126916808966
2780000000.0 0.4602505090992584 -0.4743136763675894
2800000000.0 0.5723497042847726 -0.3144942963558409
2820000000.0 0.600575611651981 0.22630610198798357
2840000000.0 -0.26288040230262966 0.5715517046141236
2860000000.0 -0.07628776179382842 -0.6114717245887089
2880000000.0 -0.0966740618822157 0.5907849381582629
2900000000.0 0.5681799316257448 -0.12685236742700737
2920000000.0 -0.2868475895836497 -0.4825665839853703
2940000000.0 -0.5351311520654747 0.03254461739834885
2960000000.0 -0.2838781800217689 0.43059496841199973
2980000000.0 0.46065039986318534 0.16739080390851316
3000000000.0 0.29489813560559464 -0.3550310018151922
3020000000.0 -0.2896934723929594 -0.327791130954189
3040000000.0 0.02898759539357631 0.40901732485703446
3060000000.0 0.22838796508444612 -0.3107012825176523
3080000000.0 -0.2953915542574935 0.2159857092302396
3100000000.0 0.183601686804494 -0.2925425905057885
3120000000.0 -0.27445762066340057 -0.1900728815165198
3140000000.0 0.1313194283802644 0.29664449832721107
3160000000.0 -0.1218507252655794 -0.2933529792478496
3180000000.0 -0.1469977241445206 0.27568276332569824
3200000000.0 0.30746081665901187 0.015062860559238188
3220000000.0 0.0463238610641678 -0.2966046904307487
3240000000.0 -0.21758798779052535 -0.18991187940833462
3260000000.0 -0.1881954493722609 -0.1939034192651744
3280000000.0 0.06009513651849457 -0.24935971800036688
3300000000.0 0.15613635312777416 -0.17623576863533583
3320000000.0 -0.12234468124153924 0.17494202213864668
3340000000.0 -0.14341752972552493 -0.12330769138796521
3360000000.0 -0.05616438078488778 0.15796487329371425
3380000000.0 0.14568400149666336 -0.016495764362751807
3400000000.0 -0.1242277655056911 -0.01645745604932468
3420000000.0 -0.11222581599663828 0.013233767681742453
3440000000.0 -0.009356564046641588 -0.09973271846019556
3460000000.0 0.05708683377456394 -0.06432713463997675
3480000000.0 -0.030040016014458874 -0.06891142246145308
3500000000.0 -0.05085853954966536 0.045016191048771775
3520000000.0 0.060034654977532194 0.017879136513265687
3540000000.0 -0.03275112414689526 0.05830790390766655
3560000000.0 0.06551674983199207 0.008712626749914357
3580000000.0 0.07429203290438555 0.007080825714631328
3600000000.0 0.02702976101009339 -0.07842685608433558
3620000000.0 -0.09302826355413656 0.015501430000080094
3640000000.0 -0.09367509590965764 0.03448900992334246
3660000000.0 0.09432622195048118 -0.048440329932691054
3680000000.0 -0.06982546616637177 0.0776687160089559
3700000000.0 -0.032858744646645816 -0.09340019013298974
3720000000.0 -0.04095106363152006 0.08470430107169069
3740000000.0 -0.06501657394614895 0.04313027244249531
3760000000.0 -0.050300038097250546 -0.0412629635420083
3780000000.0 -0.052356513668688334 -0.008714639396993467
3800000000.0 0.026113922115245186 -0.029960820838745964
3820000000.0 0.0119874932110976 -0.034212546641146035
3840000000.0 -0.034185260806766114 0.03691051659635917
3860000000.0 -0.06141069059934683 0.024864432903421052
3880000000.0 -0.08085958233661777 0.018202687359324243
3900000000.0 0.07046691266173882 0.0682570558205817
3920000000.0 0.015270056686925064 0.107999255929551
3940000000.0 -0.08679792400340172 0.06583333426593675
3960000000.0 0.07887911150907718 -0.06751110945952203
3980000000.0 0.001625878920337492 0.09503343499189683
4000000000.0 0.03622556638487192 0.07185317219438975
