!Created with skrf (http://scikit-rf.org).
# Hz S RI R 50.0 
!freq ReS11 ImS11
400000000.0 -0.6201910711308882 0.5166801660041943
420000000.0 0.6062108610018125 -0.45436584591968693
440000000.0 -0.12193043267114496 -0.7235019455250606
460000000.0 -0.4293992069372553 -0.4794617731019296
480000000.0 -0.5195830966508258 -0.10339223879443724
500000000.0 -0.25145362221110734 0.3201817414405289
520000000.0 0.4349687268819459 0.10429223727187098
540000000.0 -0.21778548858355085 -0.4264094925815829
560000000.0 0.4398073439422937 -0.1298888008413645
580000000.0 -0.20634969663526959 0.37618826659521276
600000000.0 -0.2477883679696013 -0.3048009087354363
620000000.0 -0.23577023661140045 0.2793672233456938
640000000.0 0.21852886759255857 0.27094639896810974
660000000.0 -0.3444621339229329 0.017797061375630207
680000000.0 -0.2955097239521962 -0.17167545029913356
700000000.0 -0.3244410260810032 0.11297341607361877
720000000.0 -0.18383297466967805 0.2962584627601719
740000000.0 0.318221913669691 0.07057060784059396
760000000.0 0.03133943997311098 0.3009217687983598
780000000.0 -0.1636801017871484 -0.23352633497902833
800000000.0 0.12394949009802923 0.22096390828121645
820000000.0 -0.2176555863590954 0.05561535092080311
840000000.0 -0.21869708472062946 0.05247443963876842
860000000.0 -0.040667792307528566 0.18621030435177316
880000000.0 -0.1751871648546086 0.020228556378176693
900000000.0 -0.07427923899096467 -0.13948671741586963
920000000.0 0.12594157777019374 -0.09818050975306152
940000000.0 -0.13726855785605446 -0.02304810497706569
960000000.0 -0.05370637707808863 -0.09226542166601936
980000000.0 -0.03835483178229871 0.04998777521991851
1000000000.0 0.03586195132527777 -0.02989430018858677
1020000000.0 0.034364732341690685 -0.03548636633757517
1040000000.0 -0.02657132949087316 0.07250693493177253
1060000000.0 -0.11264968721298851 0.024068227828219855
1080000000.0 0.03044825313171248 -0.13982327837764744
1100000000.0 0.13096131418008436 -0.11599445248405811
1120000000.0 0.0906634210710485 -0.18570997834302358
1140000000.0 0.061573490820422204 -0.24114451872311518
1160000000.0 -0.11412144713315464 -0.2526626861592966
1180000000.0 0.2930846363737082 -0.006555869431042299
1200000000.0 -0.02132689530103784 0.3155742470156451
1220000000.0 0.004754021687175548 0.31911643016522967
1240000000.0 -0.31280518755234726 0.11785427554734952
1260000000.0 0.10310078087918789 0.31706930139667416
1280000000.0 -0.3122571978537721 -0.1111041943346712
1300000000.0 0.07417637777717567 -0.338665076093938
1320000000.0 0.35795881828131876 -0.05336261394433558
1340000000.0 0.07583776622154302 0.364138120823885
1360000000.0 -0.34219998667837936 -0.16081396207640417
1380000000.0 0.35459768340650544 -0.14314356143898224
1400000000.0 -0.3477574145222072 0.1522792429529842
1420000000.0 0.05227849583906107 0.3709849922051891
1440000000.0 0.3518207476083904 0.11742279300912996
1460000000.0 0.262307376715155 -0.24934472450190465
1480000000.0 -0.06642693321134338 -0.34572063119465124
1500000000.0 -0.08211990612404842 0.32642172099636996
1520000000.0 0.28349358400481844 -0.13126270168860546
1540000000.0 -0.27093486939129213 0.05646098652206279
1560000000.0 0.12612032589929645 0.21227218895539868
1580000000.0 0.033110439138814965 -0.21028879989215563
1600000000.0 -0.18132465455656302 0.005235789244527611
1620000000.0 -0.0028297776094316374 -0.16422879111566138
1640000000.0 0.13352388357397707 0.003326046719171237
1660000000.0 -0.0893471996487332 -0.05657554900784184
1680000000.0 0.04778099633887214 0.07824564828195346
1700000000.0 -0.06252466699076174 -0.03725190282181532
1720000000.0 0.03855466602308896 0.03517993196859476
1740000000.0 0.04683735041343365 -0.028848736219066688
1760000000.0 -0.010153574406253498 -0.06638125438211294
1780000000.0 -0.041987676838279704 -0.0850379735592524
1800000000.0 -0.007921785291233935 0.12943679750796802
1820000000.0 0.08644267062918097 0.13956792353191866
1840000000.0 0.060938072934972554 0.18521610622807663
1860000000.0 -0.011266663399533297 0.21936453762912442
1880000000.0 -0.03780329541282215 0.24430625512335366
1900000000.0 0.25296069731364024 -0.10172038207898691
1920000000.0 -0.2513402111559917 -0.1396603401139056
1940000000.0 -0.12311601527487437 0.27536636997761854
1960000000.0 -0.1836437926385219 -0.2548983955801029
1980000000.0 0.16086596839623146 -0.2708744764098453
2000000000.0 0.28178677662185825 0.1337995069202814
2020000000.0 0.01811032279287185 0.31272280851661033
2040000000.0 0.0491881100879479 0.3049224632688671
2060000000.0 -0.29505010462290104 0.06154567811861034
2080000000.0 -0.20370714616874272 -0.22764588771652675
2100000000.0 0.24426118298950622 0.1799431352298518
2120000000.0 -0.29537310260305044 0.05176810972088072
2140000000.0 0.24580091741555582 -0.1623200413642817
2160000000.0 -0.2612598521413997 0.12412432207351336
2180000000.0 -0.009090882717106601 0.28202129145213034
2200000000.0 0.1449626927127085 0.23704211025498498
2220000000.0 0.2522494418030776 0.08936658668530575
2240000000.0 0.06307992002383238 0.25345233003031575
2260000000.0 -0.19600245162597826 0.1532155932913359
2280000000.0 -0.14183832306189856 -0.19160670933175025
2300000000.0 0.20692682555772907 0.09853800945039455
2320000000.0 -0.22285524962997644 -0.015350149544664288
2340000000.0 0.20261387772933742 -0.07248836731095722
2360000000.0 -0.20606894343934049 -0.06317985818210711
2380000000.0 0.22075606890716798 0.01914974043710959
2400000000.0 -0.1926660218331102 0.14154650282001016
2420000000.0 0.14975614574485002 0.21989742754014766
2440000000.0 0.12456464798905793 -0.26461656421840857
2460000000.0 -0.05663545477616615 0.3231079676022819
2480000000.0 0.17237183233258307 -0.3173629050836077
2500000000.0 0.3624901657681754 0.1664610308190482
2520000000.0 -0.3118401657512189 0.3029895165280431
2540000000.0 -0.23244246167694219 -0.4124020021079294
2560000000.0 0.508492621502023 -0.03106980490276433
2580000000.0 -0.44943352120416286 0.30085099570281715
2600000000.0 0.2144136574507321 -0.5291099632432509
2620000000.0 0.1306597089800584 0.5821137094990702
2640000000.0 -0.4516337320365709 -0.4189855006726716
2660000000.0 0.6190133165595763 -0.12969108507592167
2680000000.0 0.02795225036641511 0.6422707422302669
2700000000.0 -0.5998615898702297 0.2583519919249462
2720000000.0 -0.6507561803779862 -0.11002558496618584
2740000000.0 -0.5976106892380986 -0.28829484597516175
2760000000.0 -0.5820774733502723 -0.32094363739063475
2780000000.0 0.4029690528751388 -0.523534379715951
2800000000.0 0.5433899126827856 -0.36179099843232077
2820000000.0 0.609808010044479 0.1980015537584119
2840000000.0 -0.3518147882415105 0.5216976722179303
2860000000.0 -0.04075766279647164 -0.6148128873486629
2880000000.0 -0.1542881058895666 0.5802701398432437
2900000000.0 0.5236353896687549 -0.255305737407963
2920000000.0 -0.3740536830429959 -0.41783666684642223
2940000000.0 -0.5196988293963002 0.11864164227316891
2960000000.0 -0.3274161482590409 0.3923392583048095
2980000000.0 0.29868370699921626 0.38778020868243657
3000000000.0 0.36752137772502375 -0.28231645781577436
3020000000.0 -0.27648049059940527 -0.34059902893488886
3040000000.0 0.1259878289533158 0.3936159147164826
3060000000.0 -0.0077164628100563565 -0.38501816651754395
3080000000.0 -0.15077435841101916 0.32856180796497153
3100000000.0 0.1559433110471684 -0.30540704785057127
3120000000.0 -0.1998463131575576 -0.26250851781404694
3140000000.0 -0.06889466918032612 0.315612809548299
3160000000.0 0.004779419562177651 -0.3214156838143257
3180000000.0 -0.18983255385064782 0.25363403650403726
3200000000.0 0.28544122683853634 -0.12490760761662575
3220000000.0 -0.17171853698336628 -0.24505418582720973
3240000000.0 -0.281060267052906 -0.0602569855945474
3260000000.0 -0.1547410087417188 -0.21643157789638892
3280000000.0 0.17096605887972463 -0.18592463217111016
3300000000.0 0.12713468770533687 0.19680156227779458
3320000000.0 -0.2005212514506948 0.08372158409597448
3340000000.0 -0.05233939206516753 -0.18894739995786233
3360000000.0 0.16515198497584604 -0.04123977208411869
3380000000.0 -0.08008908853065796 -0.11919278208702146
3400000000.0 -0.10894194115879326 0.045118724956092475
3420000000.0 0.09366887725799142 -0.05215296618268808
3440000000.0 -0.06564189490944658 0.07738077048036444
3460000000.0 0.07688483152510456 0.04851319181781814
3480000000.0 -0.08017028166737446 -0.014125439072515232
3500000000.0 0.0703186866541887 0.010343994987804313
3520000000.0 0.04027073836252952 0.048819685941934955
3540000000.0 0.0516000655701913 -0.035440938059187375
3560000000.0 -0.0062618536403667106 0.0607829146503471
3580000000.0 -0.06890397837008631 -0.017960573540818873
3600000000.0 -0.06974662339579107 0.04443151837863154
3620000000.0 0.05298456353781363 -0.08278514151817824
3640000000.0 -0.09161541609069158 -0.04570079033159206
3660000000.0 -0.07514198564869146 -0.0767784957870174
3680000000.0 0.02990049338739648 0.09942784701276473
3700000000.0 -0.006497567038266665 0.0961170863185595
3720000000.0 -0.04578520738561281 0.07426229735708985
3740000000.0 0.005056010321003843 0.07554687533310678
3760000000.0 0.06952514948362297 -0.003398397773380989
3780000000.0 0.05915632151532835 -0.008014725694567836
3800000000.0 0.00020261737105934733 -0.038374225338487826
3820000000.0 -0.00519080039467658 -0.03094095070742504
3840000000.0 -0.04710719087327968 0.002396889748669153
3860000000.0 0.03845341064483608 -0.059586099609401304
3880000000.0 0.025657699325082748 0.08255301223306472
3900000000.0 -0.09230851399684072 -0.04101821986672719
3920000000.0 -0.04021873631549733 -0.09529026023914361
3940000000.0 -0.10204896156564952 0.003062147358579165
3960000000.0 0.04485443693886043 0.0916709593671902
3980000000.0 -0.05853435772425508 -0.07724379696409875
4000000000.0 0.04547731883235371 0.07177067731236558
