!Created with skrf (http://scikit-rf.org).
# Hz S RI R 50.0 
!freq ReS11 ImS11
400000000.0 -0.5844743215691186 0.5575884600600158
420000000.0 0.5898043582610704 -0.46779221882541583
440000000.0 0.021366727593362143 -0.731157533152867
460000000.0 -0.4243770626877857 -0.48727325355619316
480000000.0 -0.2824696693658174 -0.4368907538737227
500000000.0 -0.40519674357232444 0.094760521212945
520000000.0 0.4248700646006537 -0.16063384364529182
540000000.0 -0.47517533712161125 -0.08491849667328782
560000000.0 -0.2913439922643635 -0.3406760603130832
580000000.0 -0.27266715465016556 0.30699399231773167
600000000.0 0.09330413291228982 -0.368806793158982
620000000.0 0.09163860384307404 -0.34892184120808795
640000000.0 -0.04434885492801639 0.3558898340666931
660000000.0 -0.2803442275637794 0.21839931535312046
680000000.0 -0.24414058675303532 0.2508438289706481
700000000.0 -0.3244208756139141 0.0842219547088355
720000000.0 0.04522162208146584 0.3431119825087339
740000000.0 0.10836690444261987 0.3108237883575627
760000000.0 0.16934394151516755 0.24517678613891725
780000000.0 -0.24758718969216414 -0.153139403970582
800000000.0 0.0979158771510784 -0.23197635819478166
820000000.0 -0.13612767740843168 0.15953438332684824
840000000.0 0.1386915947068227 0.18053238471019578
860000000.0 -0.1431429565977119 0.14231433789740283
880000000.0 0.13019345649658756 0.12260922075342572
900000000.0 0.11874394893141517 0.10084432889153873
920000000.0 -0.00869316604521344 -0.14781792469013105
940000000.0 0.10331168723952452 0.07623988434585197
960000000.0 -0.07197619970826603 -0.0842408891831293
980000000.0 -0.07109420150103661 0.023381062351876116
1000000000.0 -0.0521725337458539 -0.02598564951769857
1020000000.0 0.014032896077162259 0.05276948033767547
1040000000.0 -0.02852016049542356 0.07396010249189881
1060000000.0 0.056988107903770444 0.09503073253195532
1080000000.0 0.14210262738774598 -0.01652165440835908
1100000000.0 0.14459203343602337 -0.10108434279749275
1120000000.0 -0.06270135578120771 -0.19472083392928444
1140000000.0 0.07089904045968802 -0.23615354699024016
1160000000.0 0.152326179932336 -0.2357727724095431
1180000000.0 0.2598251911803274 -0.14449222736871759
1200000000.0 -0.0584569666159297 0.3075963882367308
1220000000.0 0.10206929205131644 0.30362868102649593
1240000000.0 -0.32476130915562484 0.062048923358380664
1260000000.0 -0.19726142282135814 0.27062481298957936
1280000000.0 -0.2385461890826853 0.23725527275331648
1300000000.0 -0.004980816946948245 -0.3414953877049247
1320000000.0 0.28902078561033695 0.21249568057465215
1340000000.0 -0.11868652586410115 0.3528299546027033
1360000000.0 -0.25325858016750813 -0.28613392348850786
1380000000.0 0.3366051606964968 -0.1891660552713693
1400000000.0 -0.1170738437249463 0.36302063884663255
1420000000.0 0.13869547365008406 0.34130702932604023
1440000000.0 0.3306527435684299 0.1541193459235733
1460000000.0 0.3596772540003538 0.021354513985781382
1480000000.0 -0.005631386032043248 -0.3514544609169614
1500000000.0 -0.1431616729263556 0.305809368425473
1520000000.0 0.3131311322121024 -0.017469566727593838
1540000000.0 -0.06310670877192728 0.2725008285452181
1560000000.0 0.20617752738424588 0.13611965543796362
1580000000.0 0.019298069295741994 -0.21074668150294393
1600000000.0 0.015102975292383242 0.1817408221067243
1620000000.0 -0.0824367723864627 -0.1352291415610371
1640000000.0 -0.027152941801272222 0.12950274313849355
1660000000.0 0.08819821322694475 -0.06489794936081941
1680000000.0 0.04143167986533241 0.08476021223706412
1700000000.0 0.054756451675748614 0.05008798503943281
1720000000.0 0.044863413856254634 -0.023817213039719894
1740000000.0 -0.0540147656440526 -0.007285710002012408
1760000000.0 -0.02464561807476193 -0.0629272506028932
1780000000.0 -0.07714247622520022 -0.059478283605394
1800000000.0 0.12586426210056215 0.018407075907522188
1820000000.0 -0.1256500821464651 0.09683455730562326
1840000000.0 -0.15408372180403365 0.11921653305060192
1860000000.0 0.01042217144776833 0.22366462226034411
1880000000.0 0.15969702199071414 0.1854178505296735
1900000000.0 0.2555946748949533 0.08996157196356384
1920000000.0 -0.25144997353988674 -0.14541254054595654
1940000000.0 0.08811454934707098 0.28910353854368886
1960000000.0 -0.2756377804615004 -0.1478872231209911
1980000000.0 0.07054881662939522 -0.3061176629729349
2000000000.0 0.306968091443631 0.03655547062285634
2020000000.0 -0.20058499077998465 0.23466966935978867
2040000000.0 -0.30776851466350447 -0.04384510865911676
2060000000.0 -0.25861052167320403 0.1714065845234435
2080000000.0 -0.3048323364500152 -0.03462007716505741
2100000000.0 0.29126604342540324 0.08263419833006207
2120000000.0 -0.1970996508546764 0.22223433690744804
2140000000.0 0.2535842618499477 -0.14262458638739778
2160000000.0 -0.28202138583594394 -0.058838721617101165
2180000000.0 -0.03475486402924124 0.28152965975379174
2200000000.0 0.20723681278342534 0.18727392067261353
2220000000.0 0.2543052780541584 0.08495958363569041
2240000000.0 0.07274159590666737 0.25170287572466993
2260000000.0 -0.09544153818708342 0.22991191484631113
2280000000.0 -0.07530133876877296 -0.2260968555226568
2300000000.0 0.18727741977211787 0.1312572008437041
2320000000.0 -0.19699511681084675 -0.10654384646554171
2340000000.0 0.20298529846000987 -0.07080035523073025
2360000000.0 -0.21407517023063546 -0.02567784315930791
2380000000.0 0.2004510724008833 -0.09297268060283631
2400000000.0 -0.2229239211189503 0.08155510251651588
2420000000.0 0.025273280553146756 0.26471659821934473
2440000000.0 0.10402989698715241 -0.27478516509424344
2460000000.0 -0.08024382679327834 0.3164703616486049
2480000000.0 0.2896916637486336 -0.21621776094220124
2500000000.0 0.3625668295842033 0.16930344817622903
2520000000.0 -0.28449606006444644 0.3280415190828783
2540000000.0 -0.19729803325922468 -0.42812567996250184
2560000000.0 0.48665062582887697 0.145141370558314
2580000000.0 -0.47708878149144013 0.2562964815141587
2600000000.0 0.2166953793944722 -0.5278018957544303
2620000000.0 0.1373361001725495 0.579070622417723
2640000000.0 -0.4231388803507063 -0.44604036761943466
2660000000.0 0.6256818417509306 -0.09074220891704501
2680000000.0 -0.011346977718672543 0.6434702118305545
2700000000.0 -0.6180433310760274 0.21535446154757215
2720000000.0 -0.6364694306920113 -0.18080262028832753
2740000000.0 -0.5979566560590227 -0.2911880332976153
2760000000.0 -0.5591839175250239 -0.36169561439064435
2780000000.0 0.491751596440182 -0.4429652872069572
2800000000.0 0.6074846770472319 -0.2389833872382942
2820000000.0 0.5369337488567747 0.34966827672577944
2840000000.0 -0.33630108368188466 0.5317728786202861
2860000000.0 -0.042617487052144805 -0.615790584245617
2880000000.0 -0.1980678141826136 0.5674420235702917
2900000000.0 0.4907754085251441 -0.3158210694491353
2920000000.0 -0.41478766036940296 -0.378002796452849
2940000000.0 -0.5145578232627125 0.14022130685640896
2960000000.0 -0.3531829292798031 0.37160797713804855
2980000000.0 0.27874011454262776 0.4065980543454101
3000000000.0 0.35992806411781203 -0.29626911949141627
3020000000.0 -0.2857708080234034 -0.33489527883292947
3040000000.0 0.15775675021114707 0.38393263899873536
3060000000.0 0.04261255825921485 -0.3843295438058821
3080000000.0 -0.18277794171394662 0.31246435941663553
3100000000.0 0.30546461921777496 -0.15668583926933083
3120000000.0 -0.12141190184455912 -0.3081990994710089
3140000000.0 -0.0766785314681585 0.31377917659947024
3160000000.0 -2.1705581015490094e-05 -0.3215299830756574
3180000000.0 -0.09283502058523678 0.3029097299196665
3200000000.0 0.2404712914225952 -0.19428964859051798
3220000000.0 -0.14074841350272863 -0.26477939125395383
3240000000.0 -0.2858321897427502 -0.01912233733640521
3260000000.0 -0.2231825470019935 -0.15136456947235388
3280000000.0 0.09670053590618827 -0.2333329788109279
3300000000.0 0.14698213892203119 0.18416613871677182
3320000000.0 -0.18378999260736376 0.11850383097712176
3340000000.0 -0.13532742398913652 -0.13951674979483952
3360000000.0 0.16295870352649677 -0.04751838533380086
3380000000.0 -0.08734876097180524 -0.11381735595480234
3400000000.0 -0.11050659568871317 0.03998791845405828
3420000000.0 0.0967562305814091 -0.042020904384305696
3440000000.0 -0.006742783664050844 0.10147976008374487
3460000000.0 0.002861708926004574 -0.08969525332431084
3480000000.0 -0.029537006933384284 0.07358276827879252
3500000000.0 0.06716902975092985 0.024898068257815337
3520000000.0 0.019600710376343016 -0.06195520900124542
3540000000.0 0.020691066681897283 -0.059996972462590406
3560000000.0 0.006542998698584742 0.06205478150886287
3580000000.0 0.012140143282749745 -0.07285761262637142
3600000000.0 -0.07168453987633322 0.04718188058960479
3620000000.0 0.004521654005847323 -0.09714987313377826
3640000000.0 -0.06172207273831088 -0.081792736711011
3660000000.0 0.053758739188443615 -0.09156596783671576
3680000000.0 -0.023408330791560485 0.10195964681925435
3700000000.0 -0.028932375550259775 0.09315990643956333
3720000000.0 -0.03876601046046016 0.07749202148732783
3740000000.0 0.05414757116980132 0.0534273373594054
3760000000.0 0.047063052847995196 -0.05011530913305511
3780000000.0 -0.026799819929146835 0.0520431107674651
3800000000.0 -0.028505338307399014 -0.02748380512168801
3820000000.0 0.011272749738988294 -0.029019843768473743
3840000000.0 0.008746721742296121 0.04656021672428802
3860000000.0 0.051636186273202274 -0.048740219869357865
3880000000.0 0.06515433296125807 0.05822142340314664
3900000000.0 -0.07843064744982244 -0.06354769247991837
3920000000.0 -0.05315420422432396 -0.08881941437779398
3940000000.0 -0.08762602960294495 -0.05165761795047974
3960000000.0 -0.03229689380822184 0.09718526108650793
3980000000.0 -0.04399945113085993 -0.08662356584537526
4000000000.0 0.08536214863664093 0.0031916120541520313
