!Created with skrf (http://scikit-rf.org).
# Hz S RI R 50.0 
!freq ReS11 ImS11
400000000.0 -0.6667762961863641 0.45418246981904736
420000000.0 0.6439719718061737 -0.4041178704683439
440000000.0 -0.2855587080990576 -0.6735503323584605
460000000.0 -0.3006228409258611 -0.567375034358337
480000000.0 -0.46155283189882657 -0.2406144396997456
500000000.0 -0.4202244123464815 -0.020109259254090676
520000000.0 0.24321439168122685 0.3760353527430711
540000000.0 -0.06009358097335925 -0.4830733279861393
560000000.0 -0.45072009696176585 0.09193839947979753
580000000.0 -0.19873027986387568 0.36145237160279625
600000000.0 -0.19424104546484333 -0.33137007244701067
620000000.0 -0.25218239151284233 -0.25834118385791355
640000000.0 -0.30301928233657777 0.18689444775449293
660000000.0 -0.3110061123092114 0.1756434467344335
680000000.0 0.11184406094497985 0.32481854126480775
700000000.0 -0.31141358609704634 0.11842762908774229
720000000.0 -0.329902068414057 -0.09395418268088979
740000000.0 -0.07225684175003932 0.32464914103946524
760000000.0 -0.1557465423611144 0.2704148905919068
780000000.0 -0.1437931721135555 0.25592054519340823
800000000.0 -0.19395895096836188 -0.15043910138183317
820000000.0 -0.14453423299485463 0.1530509151529839
840000000.0 -0.04715286528258613 0.20583429232634518
860000000.0 0.0736596693213321 0.1891929888812956
880000000.0 0.0014345028309057815 0.19662553569363814
900000000.0 -0.0016655074360399636 -0.1597226419560105
920000000.0 -0.10356082547599717 0.10885806815975435
940000000.0 0.1108151892988813 -0.07506020691460326
960000000.0 0.08430112935183587 0.0673818672197265
980000000.0 -0.06444686323062372 -0.001944131912802038
1000000000.0 -0.04489972669014269 -0.0015842845813722488
1020000000.0 0.04155378658325626 0.004064290153727205
1040000000.0 -0.06687691856302194 -0.03964291316527445
1060000000.0 -0.09528312862869054 -0.05483890893588887
1080000000.0 0.14296427577469373 -0.01764618234455493
1100000000.0 -0.035198084575750424 0.1742748022680285
1120000000.0 -0.20923293807291296 0.0324697418841702
1140000000.0 -0.20486521466016228 -0.12740483719918996
1160000000.0 0.20040965972992084 -0.18775524839124727
1180000000.0 0.295291950347137 0.0466461618782251
1200000000.0 0.20043058414640771 0.24853495685842397
1220000000.0 0.2662798661024158 0.1761239376460226
1240000000.0 -0.3189808818332632 0.07255699229486952
1260000000.0 -0.3013970527562429 0.1427478185088083
1280000000.0 -0.33707987215397966 -0.00867922248789076
1300000000.0 -0.018132022342972398 -0.3458855874228007
1320000000.0 0.34401058552138036 -0.11174306215755056
1340000000.0 0.027447296831520328 0.3721148927335969
1360000000.0 -0.3654243216324361 0.08788697265539873
1380000000.0 0.36737795094471926 -0.08923088536994674
1400000000.0 -0.37613608199913007 -0.04369194264638614
1420000000.0 -0.18996250777614115 0.3222543958842482
1440000000.0 0.3372383484700723 0.16381559019208877
1460000000.0 0.11570203403189316 -0.34501343960229724
1480000000.0 -0.29416150860076806 -0.18286338763496668
1500000000.0 -0.017292572032527844 0.3304681058869763
1520000000.0 0.2945330864748323 0.09468733913127779
1540000000.0 -0.2836439660071678 0.009080242291272685
1560000000.0 0.22848239387279531 0.08859621627484619
1580000000.0 0.031956067241051316 -0.2113177902546945
1600000000.0 -0.14992711641987805 0.10487912341510297
1620000000.0 0.0634389384651789 -0.15188884765964927
1640000000.0 -0.03055167457511405 -0.12917304179592823
1660000000.0 -0.053809837839656934 -0.09207985549042412
1680000000.0 -0.007392683699574205 0.08753442169097944
1700000000.0 0.04649038118294356 0.059953105071282986
1720000000.0 -0.012702109307852311 0.05733948003980028
1740000000.0 0.025589445681196973 -0.04450495142257131
1760000000.0 0.03648278678453421 0.05369756944423896
1780000000.0 0.0466054636809765 -0.08355784318859656
1800000000.0 0.017258768720016512 0.1303923057084648
1820000000.0 -0.021460334306270375 0.16305652046124394
1840000000.0 0.16484088852860923 0.10367792557972927
1860000000.0 -0.03381701668804294 0.2158508239517978
1880000000.0 0.013085295337402256 0.2436848121839919
1900000000.0 0.26196986796981414 0.06460822928076408
1920000000.0 -0.17930265800975148 -0.22684385331973092
1940000000.0 0.0749599788161971 0.2940139251985318
1960000000.0 -0.29133765045237525 -0.11226614361439988
1980000000.0 0.1763429744155441 -0.2594072203437793
2000000000.0 0.29422059021707286 0.10653981567909292
2020000000.0 -0.04934649376903843 0.30917067051981656
2040000000.0 -0.10939063338561922 0.29010522513079323
2060000000.0 -0.26713311216061486 0.14655959903824414
2080000000.0 -0.300866328637985 -0.04221068156706342
2100000000.0 0.20416639184205698 0.2197651394055415
2120000000.0 -0.28604669939817456 -0.08755996907645133
2140000000.0 0.2770078179382992 -0.09909889109328131
2160000000.0 -0.28915694025151206 -0.0334194619458794
2180000000.0 0.11095388475666271 0.2613509107914845
2200000000.0 0.27399867071533346 0.04621415856168352
2220000000.0 0.2658219102027852 0.00795902629342384
2240000000.0 0.02362479050347647 0.259598485003684
2260000000.0 -0.19177534089453796 0.15913386215237596
2280000000.0 -0.06741349604720023 -0.22857110178398726
2300000000.0 0.18661314899679782 0.13635413153076767
2320000000.0 -0.21762967882070686 0.058050823992795195
2340000000.0 0.09634447041970978 -0.18939895914007193
2360000000.0 -0.2073106750002155 -0.05358112927069977
2380000000.0 0.17531677429495543 0.13369283096455906
2400000000.0 -0.13931672415815377 0.1968761296478165
2420000000.0 0.05052448126371304 0.25980173067233575
2440000000.0 0.11057253647996389 -0.2713655264273681
2460000000.0 -0.026495495769870547 0.32687965030762917
2480000000.0 0.21222842943620993 -0.2926594338888678
2500000000.0 0.3293570769044011 0.22483313029865257
2520000000.0 -0.3610237589621204 0.2413605390407938
2540000000.0 -0.21928483369125124 -0.4191303870493183
2560000000.0 0.5072929551670363 0.029938319055943838
2580000000.0 -0.49517142171521344 0.21548477341085148
2600000000.0 0.2774965547979962 -0.4989953509153071
2620000000.0 0.14495940833562776 0.5778665170793106
2640000000.0 -0.46731860728104396 -0.3994343605076902
2660000000.0 0.6239171857691189 -0.10219953010677517
2680000000.0 0.030145600211344444 0.6429902975191504
2700000000.0 -0.6194867537398128 0.20922262020782428
2720000000.0 -0.6382894840250513 -0.1731307121027771
2740000000.0 -0.5475738303452594 -0.37724134352400895
2760000000.0 -0.5270727834700494 -0.4076217493818496
2780000000.0 0.4990985459326064 -0.4347834735183041
2800000000.0 0.6146174842612846 -0.22211829863036303
2820000000.0 0.5493908024708278 0.3317887167919507
2840000000.0 -0.3418644504022157 0.5283193638851122
2860000000.0 -0.05248777248929516 -0.6148288054657577
2880000000.0 -0.16034727692916656 0.5792377948058459
2900000000.0 0.5034768246966741 -0.29276091182645914
2920000000.0 -0.39174064935280833 -0.3997802761402458
2940000000.0 -0.5238868719888745 0.10984984697124364
2960000000.0 -0.24656657421924896 0.4505813583867367
2980000000.0 0.3065617048396418 0.3836419448661562
3000000000.0 0.4378945218901938 -0.16074108869630452
3020000000.0 -0.2719762350505094 -0.3479872103293465
3040000000.0 0.15429125346461006 0.386156746353545
3060000000.0 0.010085238286746144 -0.38724151630249215
3080000000.0 -0.15273122691556287 0.3283318526626265
3100000000.0 0.2889322089937536 -0.1818254768349787
3120000000.0 -0.0009407754418256369 -0.33082456371204666
3140000000.0 -0.11402880866047047 0.30364998986972036
3160000000.0 0.03160754255721419 -0.3195550637386831
3180000000.0 -0.16664043442249976 0.2687779690610717
3200000000.0 0.2249400810653577 -0.21667449961252055
3220000000.0 -0.2686249896190608 -0.13005209108820237
3240000000.0 -0.2858311382386017 -0.009751410798445397
3260000000.0 -0.18678756375286013 -0.19064860423236354
3280000000.0 0.19501750696371564 -0.162186002333808
3300000000.0 0.1667340708337409 0.1673709881702215
3320000000.0 -0.21013619255396832 0.05959857558689016
3340000000.0 -0.17281575864388768 -0.09571134771553853
3360000000.0 0.11055172267404129 -0.12762972120755395
3380000000.0 -0.09914671944524235 -0.10155894584752419
3400000000.0 -0.1136637089570471 0.024857264556267994
3420000000.0 0.10605240710669145 0.012686700008938961
3440000000.0 -0.08247605884218609 0.05978768033314803
3460000000.0 0.09133996438270583 0.01754107865999894
3480000000.0 0.082416280476024 -0.0006787645802386369
3500000000.0 -0.06955526959236169 -0.012271145613178915
3520000000.0 -0.008478956890473418 -0.060384048245591807
3540000000.0 -0.040266488039761024 0.04379135359113723
3560000000.0 -0.03222220128272666 -0.053894877857584865
3580000000.0 -0.01593444591550398 -0.07594605108481517
3600000000.0 0.0537674251448916 0.06860612851728017
3620000000.0 -0.041093726011740585 -0.08853663791626076
3640000000.0 -0.052678333196408335 -0.08785739352859345
3660000000.0 -0.04550124349212223 -0.09701957577598345
3680000000.0 -0.020542186094570522 0.10211255295664613
3700000000.0 -0.08694107812766388 0.0385923813630657
3720000000.0 -0.04735663355877006 -0.07432246576136368
3740000000.0 0.059293627046590705 0.05083623724204304
3760000000.0 0.06917114402235482 0.002540701239723027
3780000000.0 0.0569500031553678 -0.0043168022213537945
3800000000.0 0.024615989497867273 -0.029945052248017957
3820000000.0 0.031325888502904894 -0.004364180373099905
3840000000.0 -0.038925421458588606 0.03052903403279312
3860000000.0 -0.06870877048453794 -0.014344933481845717
3880000000.0 0.07213153803037516 0.04784535708796725
3900000000.0 -0.05790875495243407 -0.0805872577849893
3920000000.0 0.0696164942897781 -0.07860237773085156
3940000000.0 -0.05418435634292137 0.08841654672806451
3960000000.0 0.05453216764371124 0.08848955380878454
3980000000.0 -0.09695719500559494 0.01628549341826673
4000000000.0 0.07472031160685458 -0.04265942815335793
