!Created with skrf (http://scikit-rf.org).
# Hz S RI R 50.0 
!freq ReS11 ImS11
400000000.0 -0.793739114904432 -0.21192336630063494
420000000.0 0.23383570276601207 -0.7321981539566327
440000000.0 -0.5743171480684425 -0.453729056769018
460000000.0 -0.27117550609192187 -0.5812808335702717
480000000.0 -0.534270097572673 0.07456403438854539
500000000.0 0.12842097762238738 0.39217873214382754
520000000.0 0.4027973519127711 0.14679563048076938
540000000.0 0.2587099397010866 0.39658615020942783
560000000.0 -0.1799897555713434 -0.4198140147576107
580000000.0 -0.4063636764661324 0.04470583697475027
600000000.0 0.21593706006285512 -0.3336091082643601
620000000.0 0.29497775622050904 -0.24383191317497424
640000000.0 0.23325351202483718 0.2885153115675287
660000000.0 0.08276039137562095 0.35389417459385747
680000000.0 0.30300685784316256 0.163494384506898
700000000.0 -0.16440031633042027 0.2978029122097048
720000000.0 0.3301413452070749 -0.10912659615088648
740000000.0 -0.19686289032357687 -0.23391973724552415
760000000.0 -0.26061800477012503 -0.104619941947912
780000000.0 -0.16203594765529328 0.22683903702076127
800000000.0 0.09250946155331385 0.24353881658236354
820000000.0 -0.17916393197674393 0.13908686763252726
840000000.0 0.21929287631411584 0.05975233090394729
860000000.0 -0.05521348683821832 0.20171056490623288
880000000.0 0.01739640161271586 -0.18516996650334003
900000000.0 -0.11502747448892449 0.09713055332065258
920000000.0 -0.05443279011234977 -0.13435188550131785
940000000.0 0.020450820441871156 0.13023406189681658
960000000.0 0.049203508892275205 0.08977974800977642
980000000.0 0.009931575061167094 0.06158358860881634
1000000000.0 -0.020462417902073926 -0.04559076656090509
1020000000.0 0.02117729141430119 0.04404919208085546
1040000000.0 0.0745494892273009 0.02070672326143533
1060000000.0 0.08365881230644731 -0.07320070635278501
1080000000.0 -0.04712775494685575 0.140422786808944
1100000000.0 0.13417091356428298 0.13501928894648813
1120000000.0 0.0030282072795197626 0.21104379428332484
1140000000.0 -0.2418723319176073 0.04310713499864419
1160000000.0 -0.27228366467071013 0.03800678319247688
1180000000.0 0.2825830137183315 0.03783757244372862
1200000000.0 -0.06593419175404575 0.3052976465284166
1220000000.0 0.0040664690867242845 0.31495648979270296
1240000000.0 0.06991158939087033 -0.3286787146738801
1260000000.0 -0.25043966818615293 0.22751551722826405
1280000000.0 -0.3456934406887557 -0.0082431164018512
1300000000.0 -0.26701613894369863 0.22942422905575824
1320000000.0 -0.10008077145609375 -0.33658033640669227
1340000000.0 -0.0029919306606757423 0.36105825660034313
1360000000.0 -0.22278620100276825 -0.30210158920281166
1380000000.0 0.35892385062810367 0.12444202342063429
1400000000.0 -0.22371344974158822 -0.307780493270193
1420000000.0 -0.04802956579838333 0.37870955163373654
1440000000.0 0.35107438181219985 0.12220970581959777
1460000000.0 0.14649134339880626 -0.33820503090307846
1480000000.0 -0.3207913038920379 0.14099482497200613
1500000000.0 0.024201806161142765 0.3269184082504089
1520000000.0 0.24357314613431275 0.18362984640638655
1540000000.0 -0.19693878170384188 -0.1962855513322996
1560000000.0 -0.10099853987470661 0.23209285992617976
1580000000.0 -0.035148918811008616 -0.2155757849411536
1600000000.0 0.08837403069414476 0.16204062263883387
1620000000.0 -0.1581728454271126 -0.010827805009936043
1640000000.0 0.09235866401112948 0.0941897034476513
1660000000.0 -0.10563768392018388 0.013736129094415071
1680000000.0 -0.03426730366292331 0.08310435614527217
1700000000.0 -0.014171982162599553 -0.07461533570206026
1720000000.0 -0.006507025519347567 -0.05304360585038438
1740000000.0 0.0013374924364869562 0.055521167457584536
1760000000.0 -0.041074284201450754 0.05583583775694344
1780000000.0 0.05655293387932376 0.0739579468509807
1800000000.0 0.05169223212193795 0.1125662313519717
1820000000.0 -0.1515681380997433 0.056972465351235985
1840000000.0 -0.13304643162266322 0.14135015976503704
1860000000.0 -0.21820855305499418 0.04481183497067087
1880000000.0 -0.06604615718545293 0.24270004823639663
1900000000.0 0.19660116547584205 -0.1940534341033104
1920000000.0 -0.2869999070596472 -0.016698485847152278
1940000000.0 0.10732619793972516 0.2819824875106991
1960000000.0 -0.30735979514685974 0.019970376335820016
1980000000.0 0.2770584398797415 -0.14008124568127076
2000000000.0 0.13099938128392033 0.28154133108264107
2020000000.0 -0.15136980328942817 0.27549052108111344
2040000000.0 -0.21551358052998668 0.22290959169245375
2060000000.0 -0.3048609584238347 -0.03943161187955367
2080000000.0 -0.3055954487620045 0.039430181901939844
2100000000.0 0.26675009648247716 0.14391676327144556
2120000000.0 -0.28711892857030413 0.08134953615084613
2140000000.0 0.21418291247653762 -0.20079137056908986
2160000000.0 -0.2807745361311087 0.06133760258772273
2180000000.0 -0.11277282349676093 0.2594626443242076
2200000000.0 0.1836338700236438 0.2100366527027943
2220000000.0 0.262420765649723 0.05843358455799036
2240000000.0 0.10879897551270426 0.23859074646582346
2260000000.0 -0.11428043777580721 0.21972755498317886
2280000000.0 -0.09320467105678082 -0.21816874952436052
2300000000.0 0.21157728917696902 0.08595546142719214
2320000000.0 -0.20114149715711982 -0.09695485393048148
2340000000.0 0.2107457629824924 0.03987794748491399
2360000000.0 -0.19739467473328284 -0.09490932150452608
2380000000.0 0.1766972424574566 -0.13633913842148315
2400000000.0 -0.13702618085203833 0.1955763514634126
2420000000.0 0.21662553824089104 0.152091834535241
2440000000.0 0.06997087893791297 -0.2821511312957078
2460000000.0 -0.02618906645540707 0.32451787451844577
2480000000.0 0.31817846346811635 -0.16588135802594803
2500000000.0 0.2668735452034896 0.2982720106298341
2520000000.0 -0.34601704395091115 0.2685266602521385
2540000000.0 -0.28015827840032786 -0.38441275867793834
2560000000.0 0.4916057869461033 -0.13603702788878733
2580000000.0 -0.40898367354218995 0.3543191738787497
2600000000.0 0.15868087726530244 -0.546728142838078
2620000000.0 0.09470008098356916 0.5873561956671242
2640000000.0 -0.40053273216470503 -0.46636449777784134
2660000000.0 0.6313670439054543 -0.041606000468433296
2680000000.0 -0.007317310013526501 0.6432606967741767
2700000000.0 -0.6134817770913995 0.2266156418533616
2720000000.0 -0.6158186688780072 -0.23870074857854676
2740000000.0 -0.6378309936537868 -0.18430532585606646
2760000000.0 -0.5959505643818647 -0.29513481257421204
2780000000.0 0.45347034663312813 -0.480560065508627
2800000000.0 0.5893508005243008 -0.2819022655753683
2820000000.0 0.6058352593691866 0.21294588388506216
2840000000.0 -0.2635186312590429 0.5713033338250879
2860000000.0 -0.13103787159848426 -0.6020091489672227
2880000000.0 -0.15682410353398263 0.5776552023401034
2900000000.0 0.5687985807079764 -0.1233099021443823
2920000000.0 -0.29735144844284744 -0.4760043474994029
2940000000.0 -0.5282714075472421 0.08823834508980556
2960000000.0 -0.21067458915136386 0.4691656685086825
2980000000.0 0.44331392100800815 0.20494991720612463
3000000000.0 0.348997672875569 -0.30160577498084234
3020000000.0 -0.31790851587068514 -0.30057433141341483
3040000000.0 0.09133112897057305 0.39878267653948246
3060000000.0 0.22462342073198258 -0.31380865344650694
3080000000.0 -0.2603745438211517 0.25531400090449075
3100000000.0 0.24405180520844041 -0.24549411849393357
3120000000.0 -0.20660883954074274 -0.26212461436710716
3140000000.0 0.1941065768176838 0.26082340367054213
3160000000.0 -0.14821911188464168 -0.28097472135404233
3180000000.0 -0.1283564910658564 0.28490065662498587
3200000000.0 0.3061880487624031 0.011895394779598374
3220000000.0 0.056640705090055636 -0.2942309596954073
3240000000.0 -0.16145684375979993 -0.23997202553360078
3260000000.0 -0.21467071115035186 -0.16479450138780163
3280000000.0 -0.03690130163760086 -0.2547628718159765
3300000000.0 0.15905716754942423 -0.1709300320380054
3320000000.0 -0.10082670882355634 0.1879092381443663
3340000000.0 -0.05475563289525572 -0.18210322519402675
3360000000.0 -0.06550962356008834 0.15638496801687385
3380000000.0 0.1428551609338613 -0.036672684906500504
3400000000.0 -0.12392222310942629 -0.009577570345195624
3420000000.0 -0.10655231656541114 -0.033234128605678766
3440000000.0 0.04020887768175773 -0.09261390743675146
3460000000.0 0.06924378730179422 -0.050645430779884655
3480000000.0 -0.04836346228197098 -0.05826925601272464
3500000000.0 -0.0662845288379917 0.012526319696440873
3520000000.0 0.054593697426216274 0.029816622860357113
3540000000.0 -0.05780438259076277 0.03167175319771387
3560000000.0 -0.046700155824545043 0.04723600703983576
3580000000.0 0.07594726140533208 0.00045731312821479457
3600000000.0 -0.04467373086024182 -0.06948020312993373
3620000000.0 -0.09269920305629 0.0119364248574967
3640000000.0 -0.08498429425131404 -0.05016143173319107
3660000000.0 0.10321043129155497 0.024454149813149584
3680000000.0 -0.0852138742332333 0.059755534510221704
3700000000.0 -0.09928889063515665 -0.010565378949728593
3720000000.0 0.017658568704204677 0.08934670351483921
3740000000.0 -0.02035208907044057 -0.07668455878195898
3760000000.0 -0.047620287864674385 0.04520443362575345
3780000000.0 -0.0026533729174971986 0.05301657894225816
3800000000.0 0.03306288664650318 0.020666296961952522
3820000000.0 -0.027321360580339484 -0.02536308442585673
3840000000.0 -0.023279414653997067 0.04325967323721848
3860000000.0 -0.06559845779657016 -0.0024280492047513186
3880000000.0 -0.04840689538304731 0.06677418577577539
3900000000.0 0.056630184549828336 0.08078959511038727
3920000000.0 0.08988461174154104 0.06083060892717047
3940000000.0 -0.10748983630114012 -0.0014632175913273124
3960000000.0 0.05898979781758935 -0.08470755879122033
3980000000.0 -0.08081973693501115 0.048505501527630404
4000000000.0 0.07868503520753349 0.003940963949979381
