!Created with skrf (http://scikit-rf.org).
# Hz S RI R 50.0 
!freq ReS11 ImS11
400000000.0 -0.6090919482944062 0.5301807529969705
420000000.0 0.6078154078827788 -0.4514750845977375
440000000.0 -0.13665972210390276 -0.7209323281602359
460000000.0 -0.4185010791209474 -0.489864275620277
480000000.0 -0.52264916179803 -0.0885543012506232
500000000.0 -0.2664728122989307 0.3078102494332159
520000000.0 0.43358195816662315 0.10975827867931424
540000000.0 -0.22272370111741052 -0.4240797307541323
560000000.0 0.43994671126096074 -0.12902639149840905
580000000.0 -0.20345122260160306 0.3774092262860466
600000000.0 -0.24859266453654882 -0.30509732752403407
620000000.0 -0.20782405267394755 0.30040544791186813
640000000.0 0.24734918164536482 0.24473922828126887
660000000.0 -0.3412450274672177 0.05065476309267371
680000000.0 -0.28176568860362805 -0.19285972912797059
700000000.0 -0.32111648196254533 0.12063780059363356
720000000.0 -0.20780452441493014 0.2797615364306579
740000000.0 0.31483910180422553 0.08168234782794596
760000000.0 0.016256387158817484 0.302230299155383
780000000.0 -0.17461399051776877 -0.2257287258218192
800000000.0 0.11376533043377858 0.22636803867478497
820000000.0 -0.21439376193189952 0.06604501771486153
840000000.0 -0.21729365450069912 0.05797720930479293
860000000.0 -0.053971708225109806 0.18297487985228492
880000000.0 -0.17589966582713712 0.011327442862959105
900000000.0 -0.06630135027879887 -0.14320220210032925
920000000.0 0.14329170730347124 -0.07058568862852634
940000000.0 -0.13440200842075342 -0.0362557303887616
960000000.0 -0.0578104354622454 -0.0898370680495468
980000000.0 -0.045581022571569665 0.043458992754716305
1000000000.0 0.04130296097878074 -0.022037524262360244
1020000000.0 0.03759826122869376 -0.03198515359672437
1040000000.0 -0.039157870793326714 0.06658883993219065
1060000000.0 -0.1151909390306261 0.007046755470034751
1080000000.0 0.028360449481197644 -0.13998916818486823
1100000000.0 0.12386838980764855 -0.12397114815090785
1120000000.0 0.07007770431315447 -0.1945558420824675
1140000000.0 0.05542838500663685 -0.24245866932664986
1160000000.0 -0.12004743325568322 -0.2500397597792475
1180000000.0 0.2931890370031006 -0.0036780098125426324
1200000000.0 -0.02067271145409467 0.3157076996365799
1220000000.0 0.007545874700199998 0.31927601152006735
1240000000.0 -0.3154603468003991 0.11040034709517331
1260000000.0 0.10047290244230996 0.31787331487670284
1280000000.0 -0.31512099158293383 -0.1031190532450608
1300000000.0 0.08278958218589466 -0.33680819389716754
1320000000.0 0.35744561764971927 -0.05687046097773802
1340000000.0 0.0857543872938495 0.3620967153630083
1360000000.0 -0.341696248579213 -0.16187832872717556
1380000000.0 0.34770344469235276 -0.15918930737027406
1400000000.0 -0.3502169597175311 0.14663653151456466
1420000000.0 0.06820895895892709 0.3683878702493921
1440000000.0 0.34719384321429025 0.1302895203527089
1460000000.0 0.26995983795783846 -0.2410504058506374
1480000000.0 -0.05433663523899815 -0.34785491270306745
1500000000.0 -0.07632794517419819 0.32777274189668837
1520000000.0 0.28582771245154137 -0.12534118811726047
1540000000.0 -0.2696745069401461 0.06133703077607264
1560000000.0 0.12042886942331002 0.21572933235919997
1580000000.0 0.023381289923463076 -0.2113533010015958
1600000000.0 -0.1811746992625351 0.0024416222406963366
1620000000.0 -0.01203482241855962 -0.16377817995467153
1640000000.0 0.13244538589818225 -0.014311849210270225
1660000000.0 -0.09288078380223105 -0.05083767431736058
1680000000.0 0.04185492169639235 0.08140994805988763
1700000000.0 -0.06040450479900915 -0.040643649675051005
1720000000.0 0.04372335815408867 0.028962977895671572
1740000000.0 0.029147871572671392 -0.04667651858951558
1760000000.0 -0.006135417606563186 -0.06688183884073877
1780000000.0 -0.06043937182989424 -0.07357394132285205
1800000000.0 -0.05208340445833929 0.11868714866296928
1820000000.0 0.09369508427376613 0.13516620812833088
1840000000.0 0.05848952012015903 0.18598621287949138
1860000000.0 0.007239090748341422 0.21978546844324454
1880000000.0 -0.05309200435688934 0.2410164187572019
1900000000.0 0.2603310733521382 -0.08017811785392953
1920000000.0 -0.25418539066139517 -0.13476184864126375
1940000000.0 -0.1227557060955055 0.27529281660881777
1960000000.0 -0.18159767735967605 -0.25624738113625795
1980000000.0 0.16762491496455015 -0.26712940545230024
2000000000.0 0.28267789009110444 0.13204076175677099
2020000000.0 0.04859691768604852 0.3089542612848147
2040000000.0 0.027183415216434116 0.3076674268814335
2060000000.0 -0.29286973050218507 0.07176251380623236
2080000000.0 -0.1833547959174525 -0.2444359472148102
2100000000.0 0.2523454105920336 0.1681706894532853
2120000000.0 -0.2905776289892747 0.07450317898127443
2140000000.0 0.26532086345909833 -0.12766428094308824
2160000000.0 -0.26223901378786485 0.1219920048350867
2180000000.0 0.017984036817960847 0.281464562285488
2200000000.0 0.15076817994804342 0.23333713027781589
2220000000.0 0.25923448089828655 0.06739587983811716
2240000000.0 0.0531305915191732 0.2554889599985797
2260000000.0 -0.18955788660910186 0.16109287919049536
2280000000.0 -0.1397113983655748 -0.1930349276777742
2300000000.0 0.2104394592575699 0.09071212142857711
2320000000.0 -0.2221866029643181 -0.023737262254505908
2340000000.0 0.20413071653063053 -0.06749621726118618
2360000000.0 -0.20950425257281213 -0.050338115265543805
2380000000.0 0.22015775750334315 0.026192277292246716
2400000000.0 -0.19789872396275407 0.13425540052805637
2420000000.0 0.13435737753443572 0.22978990453994141
2440000000.0 0.12884835716564053 -0.2624590745888168
2460000000.0 -0.0839909233176385 0.31718656087470054
2480000000.0 0.18361661405552718 -0.3111465312419853
2500000000.0 0.3781616294201517 0.12840798572591522
2520000000.0 -0.3010388629131669 0.3136492542885607
2540000000.0 -0.21582843140439997 -0.42133200715499103
2560000000.0 0.5081965431284122 -0.03626715301429348
2580000000.0 -0.4285847641375995 0.3302742196473732
2600000000.0 0.24740703970688918 -0.514643084152071
2620000000.0 0.13249035601942882 0.5812678771059149
2640000000.0 -0.48149158447111384 -0.38374294230629913
2660000000.0 0.6153262818661345 -0.1461437050057094
2680000000.0 0.02380814133455009 0.642441246370379
2700000000.0 -0.6009507015981849 0.2554971515896744
2720000000.0 -0.6462992075543623 -0.13506895611683462
2740000000.0 -0.6381507843382555 -0.18106141933720268
2760000000.0 -0.610187849376727 -0.26411723053827446
2780000000.0 0.4104884366713609 -0.517698038707681
2800000000.0 0.5507759477251498 -0.3507171495902227
2820000000.0 0.6112412803457661 0.19413330403293094
2840000000.0 -0.27580758400530225 0.5654513827077045
2860000000.0 -0.01494153681619546 -0.616408634218803
2880000000.0 -0.18241116617199407 0.5719121725973546
2900000000.0 0.5298672787314841 -0.2422030894172368
2920000000.0 -0.3722505053078357 -0.4192613761186889
2940000000.0 -0.5162851006594157 0.13263982620993892
2960000000.0 -0.30790906696719167 0.40738797310863717
2980000000.0 0.2644884861190656 0.4126382766155283
3000000000.0 0.36822589395580385 -0.2817978672432848
3020000000.0 -0.28803322881403337 -0.33130046380685757
3040000000.0 0.14533406013517863 0.3872402184184082
3060000000.0 0.013044715113983906 -0.38512395210454314
3080000000.0 -0.15812584182928682 0.3253429891081438
3100000000.0 0.13122830906022825 -0.31679085199145357
3120000000.0 -0.12451644270729616 -0.3051120150989992
3140000000.0 -0.06614407265480762 0.31637550713687385
3160000000.0 -0.000877440708670896 -0.32137248007661573
3180000000.0 -0.2096670645619608 0.237253831586797
3200000000.0 0.2781066245466514 -0.13991087750806047
3220000000.0 -0.1585393546996767 -0.25385808688642203
3240000000.0 -0.2823019929783628 -0.05402711247206561
3260000000.0 -0.15637645282783671 -0.21523499261240367
3280000000.0 0.16530795636104723 -0.19063706024806168
3300000000.0 0.1267996985795278 0.1969811339833675
3320000000.0 -0.20017134539273557 0.08562993551819142
3340000000.0 -0.06948152315595911 -0.1830775813823671
3360000000.0 0.14852613958512076 -0.08321537807652861
3380000000.0 -0.06801251997283773 -0.1268717022694983
3400000000.0 -0.09912377726990416 0.06413616455579851
3420000000.0 0.08746866727992984 -0.06235159957181378
3440000000.0 -0.08781490918366672 0.05026960024255254
3460000000.0 0.07870649652239117 0.046634768563199404
3480000000.0 -0.08024125430666161 -0.01201765697332009
3500000000.0 0.06953952556595835 0.012570258440603574
3520000000.0 0.04716873362205689 0.04163851916840008
3540000000.0 0.04265050415629087 -0.04583857787360841
3560000000.0 0.011273811387165987 0.0601504231981017
3580000000.0 -0.07096284043486263 0.0021253297570842477
3600000000.0 -0.07109859604141251 0.041625882365112804
3620000000.0 0.05312091100613462 -0.08298368426731297
3640000000.0 -0.09015316946669248 -0.04822640285019858
3660000000.0 -0.07930716611095621 -0.07255392311678903
3680000000.0 0.02006992653714271 0.10196930081845541
3700000000.0 -0.011377752012047567 0.09577964652881053
3720000000.0 -0.03947594106715468 0.07797115523711061
3740000000.0 0.00565369074293734 0.07571258823290808
3760000000.0 0.069414913726047 0.007583006917670823
3780000000.0 0.03939959978105608 -0.04510825440828995
3800000000.0 -0.0011156998772884124 -0.03867157339875575
3820000000.0 -0.0036025770726852645 -0.03126871035139717
3840000000.0 -0.03206662866660947 -0.03445501431697426
3860000000.0 0.050417178480692076 -0.05016012857274142
3880000000.0 0.00011807422789550556 0.08621100784011365
3900000000.0 -0.05665877989068426 -0.08357355965609732
3920000000.0 -0.023274590815408183 -0.10066067143036772
3940000000.0 -0.09753933901593777 0.030067082727636633
3960000000.0 0.06591581139504726 0.0779651732103916
3980000000.0 -0.034436737175300734 -0.08969712124891004
4000000000.0 0.04564635924843218 0.07137968660924206
