!Created with skrf (http://scikit-rf.org).
# Hz S RI R 50.0 
!freq ReS11 ImS11
400000000.0 -0.7797172225217195 -0.2510812427181818
420000000.0 0.40913456557483574 -0.6510598055346771
440000000.0 -0.5396542400758086 -0.4982068746563397
460000000.0 -0.45201615623411895 -0.4536397565401741
480000000.0 -0.5175704399203572 -0.14726444990875873
500000000.0 0.2445203723106572 0.3342176112446322
520000000.0 0.41500718706602113 0.10769374798924641
540000000.0 0.2788449748563146 0.37921870313441525
560000000.0 0.15712897207287016 -0.4264608093748545
580000000.0 -0.37573251227378335 0.16568991742254197
600000000.0 0.3956709990653196 -0.023057935007470616
620000000.0 0.19442100106164417 -0.3349584440107492
640000000.0 0.2456383721384325 0.28149246155491725
660000000.0 0.3122720477907782 0.1732054968449159
680000000.0 0.16802642045292496 0.2933330303061214
700000000.0 -0.28142464461846844 -0.2017119395737471
720000000.0 0.2308398855890183 -0.2680439211617157
740000000.0 -0.2092046879840398 0.2239899520401681
760000000.0 -0.2767237732308451 -0.014429096358524202
780000000.0 -0.2749810522417431 0.05429932454249284
800000000.0 0.048321078637170466 0.2555743858934647
820000000.0 -0.16842328657927808 -0.1508943903622052
840000000.0 0.18526370413925933 -0.14390868140188012
860000000.0 0.19431361528157332 0.06937966668528854
880000000.0 -0.10428750678670536 -0.15506115793463918
900000000.0 -0.13466838296340927 -0.050207785032121637
920000000.0 0.0956575699577977 0.10850387915856788
940000000.0 -0.11933923102102026 0.06041211406803847
960000000.0 0.039732617883011856 0.0990473603276504
980000000.0 -0.03331042825196412 -0.056625001374211635
1000000000.0 -0.0299245789043103 -0.035243194756571256
1020000000.0 -0.007314516073984022 -0.046038565262620616
1040000000.0 -0.050437966985937374 -0.049653497652839294
1060000000.0 -0.1013285370056558 0.04173263103877968
1080000000.0 -0.12333692941084212 0.08767300999865353
1100000000.0 0.15831396259924807 0.10828882893927984
1120000000.0 0.0186030560851222 0.21301747593372522
1140000000.0 -0.16179401307767977 0.18377176367047618
1160000000.0 -0.2687285102217139 -0.0038637011896537304
1180000000.0 0.2090730003685457 0.19238541876099632
1200000000.0 -0.14433731056575877 0.2801030439618381
1220000000.0 0.0432453786278529 0.3142148191853415
1240000000.0 -0.12975940389282636 -0.3090924969883131
1260000000.0 -0.2347704212089932 0.2393677843823989
1280000000.0 -0.3427567816040495 -0.03216588294558775
1300000000.0 -0.34058660141530445 -0.09731674954020374
1320000000.0 -0.11395152435913718 -0.33853480236887845
1340000000.0 0.21949110856168183 0.28436975540930387
1360000000.0 -0.17941942822011042 -0.32798803200077203
1380000000.0 0.30597845017176084 0.22231723480354643
1400000000.0 -0.12674763323897562 -0.3591642858398116
1420000000.0 -0.03575165773983645 0.384650419877166
1440000000.0 0.32603429593816635 -0.1796819991132018
1460000000.0 0.07943651856415311 -0.3568350410756754
1480000000.0 -0.3498614761713715 -0.008154425865689579
1500000000.0 -0.028436422914379266 0.330212794597354
1520000000.0 0.3044106089609205 0.040487112716666857
1540000000.0 -0.2677795139840829 -0.07290142691123955
1560000000.0 -0.13343998783880226 0.21203805666931436
1580000000.0 0.11720745567228148 -0.18347827113026186
1600000000.0 -0.0052437059748348894 0.18523834684483176
1620000000.0 -0.12353941927002503 0.10358236223539785
1640000000.0 0.12782750447407962 -0.024335092498579743
1660000000.0 -0.053296698638496315 -0.08962871165667212
1680000000.0 -0.0897575629402757 0.01128259293762041
1700000000.0 0.006576887689960922 -0.07479906180348428
1720000000.0 0.023795719388535485 -0.049375396254198206
1740000000.0 0.024091706629771625 -0.04889600027435339
1760000000.0 -0.06667971318606922 -0.006579665497029028
1780000000.0 -0.08400796569014252 0.04939650298762793
1800000000.0 0.09051492688550265 -0.08400285936959546
1820000000.0 -0.13133515454434733 0.09110439894497206
1840000000.0 -0.1940050050849864 0.020758586863565232
1860000000.0 -0.21298993555995685 0.06758713813921377
1880000000.0 -0.09373522467567942 0.23276331901523317
1900000000.0 0.14613205349046732 -0.23675792766003723
1920000000.0 -0.28479305207040695 0.028232464454453342
1940000000.0 0.09244309599279278 0.28614848977546364
1960000000.0 -0.309926462747868 0.00145336313279402
1980000000.0 0.2540858213901456 -0.179032396441067
2000000000.0 0.17048065091375705 0.25719058333030437
2020000000.0 -0.21569281117654313 0.23013737612507096
2040000000.0 -0.19674378656691485 0.23927366290091348
2060000000.0 -0.304010128924097 0.03917353886022467
2080000000.0 -0.29411430777572967 -0.08676010322659417
2100000000.0 0.27577566049824537 0.12898785459589554
2120000000.0 -0.2226972078239901 0.19752216375678694
2140000000.0 0.2378914531498994 -0.17035960018784232
2160000000.0 -0.2858424914298686 -0.03593811644403552
2180000000.0 -0.07887684538487738 0.2735527714642749
2200000000.0 0.23693923956162868 0.1470590344407753
2220000000.0 0.25090462950868997 0.0948809186306523
2240000000.0 0.11242727462715639 0.23687074390865825
2260000000.0 -0.13176464595369924 0.20990539093130028
2280000000.0 -0.0479522015976195 -0.23320552616877607
2300000000.0 0.20427076483502896 0.10272760938012937
2320000000.0 -0.2222536998304987 0.0007577840724311924
2340000000.0 0.19041831751493854 0.0955858971632772
2360000000.0 -0.06344328435093488 -0.210776938744733
2380000000.0 0.12476322296151222 -0.18712914985231974
2400000000.0 -0.12159133131153402 0.20416952414086698
2420000000.0 0.15276429471794253 0.21586636018409522
2440000000.0 0.04824501383127001 -0.285992519975346
2460000000.0 -0.008283374988947994 0.32535487539141544
2480000000.0 0.3292765266964807 -0.14429826856120118
2500000000.0 0.2590493811993882 0.305107264699918
2520000000.0 -0.3531922758906155 0.2575283161017503
2540000000.0 -0.26649027378682805 -0.3932836989683488
2560000000.0 0.4940706479170542 -0.12799818879606928
2580000000.0 -0.3955770052327228 0.36955910362263866
2600000000.0 0.15688415641422968 -0.5479583061027863
2620000000.0 0.13990866067804766 0.5782389388144376
2640000000.0 -0.4140567460248333 -0.45447972037403656
2660000000.0 0.6268083523308704 -0.08350687781047425
2680000000.0 -0.020476468286866324 0.6427912460301664
2700000000.0 -0.6000701616312815 0.2599697420292314
2720000000.0 -0.6537303164998922 -0.0930067625881259
2740000000.0 -0.5875866995033906 -0.3091859029536824
2760000000.0 -0.5710458145827689 -0.3405921252810674
2780000000.0 0.41370196395561043 -0.5156330586255669
2800000000.0 0.559310064988367 -0.3373108787681329
2820000000.0 0.6044617739697457 0.21485509798656152
2840000000.0 -0.25550166814857656 0.5753810589198651
2860000000.0 -0.0783583999758195 -0.61095980955126
2880000000.0 -0.1181371079158311 0.5867227803706524
2900000000.0 0.5747710860384238 -0.09216615640150375
2920000000.0 -0.27877518023763903 -0.4873135763990152
2940000000.0 -0.5344069808245294 0.03891056505959939
2960000000.0 -0.25195682678848114 0.448282120157622
2980000000.0 0.4488850170663476 0.19612519779131676
3000000000.0 0.31608143658510024 -0.3350182064789441
3020000000.0 -0.2387105767501611 -0.36680285337648605
3040000000.0 0.10661321872679348 0.39575074979318364
3060000000.0 0.2554139671129005 -0.2882587311140065
3080000000.0 -0.2890256184236335 0.2219249082854819
3100000000.0 0.25484051150435333 -0.23436427006449279
3120000000.0 -0.23315084028819913 -0.23890242575895873
3140000000.0 0.1704803116344581 0.2759180013076437
3160000000.0 -0.15800291801438549 -0.2761128303918036
3180000000.0 -0.13699812803196185 0.2808565453324813
3200000000.0 0.3048153676590395 0.04079253109325863
3220000000.0 0.037163207237429566 -0.2980268883121234
3240000000.0 -0.17518732608966125 -0.2298207618219075
3260000000.0 -0.21129006818646 -0.1683164854654341
3280000000.0 -0.02527626892367384 -0.25488018209723906
3300000000.0 0.18559773995405404 -0.14323696037331338
3320000000.0 -0.12280302262088093 0.17514095801699234
3340000000.0 -0.08134322166834039 -0.17165822966839703
3360000000.0 0.03196084974235093 0.16507962036856338
3380000000.0 0.1459870186411158 0.007744979738534386
3400000000.0 -0.12489113170487535 -0.007021897260968583
3420000000.0 -0.11086392552180128 -0.019321049635337977
3440000000.0 0.002413984759165231 -0.10095645356647151
3460000000.0 0.03714069261657165 -0.07712612598139124
3480000000.0 -0.047525979426189004 -0.057897977315903904
3500000000.0 -0.048141227345541285 -0.04815751261419783
3520000000.0 0.062257281141139736 0.0020168526429354947
3540000000.0 -0.052668780612569605 0.041154016396012204
3560000000.0 0.003355641733040877 0.06646099743507669
3580000000.0 0.06266988903034885 -0.04255678266444672
3600000000.0 0.003286789489327666 -0.08250186372904299
3620000000.0 -0.0682951881318027 -0.06435058246511736
3640000000.0 -0.0921481847885316 -0.03802918555176281
3660000000.0 0.10084790592842494 -0.03367131454908668
3680000000.0 -0.07865912192733429 0.06583210799280473
3700000000.0 -0.055120301368431615 -0.08295931314239804
3720000000.0 -0.004458929201916899 0.0915701801326896
3740000000.0 -0.05532641882498919 -0.05643174463245964
3760000000.0 0.0012270200489192566 0.06428659356731242
3780000000.0 -0.030742742043874626 0.043054152655752936
3800000000.0 0.03829197570698723 0.003171239246477123
3820000000.0 -0.021917367725494335 -0.02957469323701122
3840000000.0 -0.03591142909826581 0.03196975084541378
3860000000.0 -0.03068549420815351 -0.059105841898635034
3880000000.0 -0.03784783053132553 0.07305901927833212
3900000000.0 0.07242298164003082 0.06628839487463309
3920000000.0 0.08727585342698915 0.06343244746008217
3940000000.0 -0.08525020464436997 0.06707258565774628
3960000000.0 0.04116619415989026 -0.09473635042672691
3980000000.0 -0.0439113887730372 0.08350460706698648
4000000000.0 0.06141376529739743 -0.05111697281153208
