!Created with skrf (http://scikit-rf.org).
# Hz S RI R 50.0 
!freq ReS11 ImS11
400000000.0 -0.7724648184521594 -0.26576605792820285
420000000.0 0.49518632904632637 -0.5947740258557953
440000000.0 -0.5054364121004876 -0.5359244710501188
460000000.0 -0.6344773896666764 -0.11598568156896277
480000000.0 -0.50924676724802 0.1444303879540268
500000000.0 -0.40261082577156904 0.08767814514892802
520000000.0 0.3790564734507455 -0.20928034022155775
540000000.0 0.4590479569647074 0.10776266565161398
560000000.0 0.3535989809569297 -0.29041798635831273
580000000.0 -0.18071649096549466 0.3725028079963119
600000000.0 0.37405074907315616 0.08952042133226688
620000000.0 0.3341629363181055 -0.185453586165022
640000000.0 0.23522164154005656 0.28332701526263626
660000000.0 -0.04976339438103543 0.3638857070572772
680000000.0 0.2345528445793444 -0.26639131352453055
700000000.0 -0.009027849172338766 0.3340873289510503
720000000.0 0.3309854457170235 0.10071871517738885
740000000.0 0.1081775215497653 -0.2871923112224293
760000000.0 0.01378646595037136 -0.28792313688203697
780000000.0 -0.1927347027076356 0.21407556614948584
800000000.0 0.23932979388362605 -0.08417824465203068
820000000.0 -0.2208059438532131 -0.024389589250336487
840000000.0 0.22431695212672717 0.03149445321069529
860000000.0 -0.15694782034244897 0.13211171121546098
880000000.0 0.08253265971266387 -0.17422674292723342
900000000.0 0.15283953791545982 -0.002889171762216767
920000000.0 0.04779914015180277 -0.1301941190183674
940000000.0 -0.1124804898449667 0.06847100819718957
960000000.0 -0.09257793550167973 -0.0412191516348004
980000000.0 0.04565476097469446 0.045315971813166184
1000000000.0 -0.028339118236970044 0.053489560280937355
1020000000.0 0.010138205972784583 -0.04508878884481593
1040000000.0 -0.05375461302849436 -0.05244109261437342
1060000000.0 0.11458248808742359 -0.006229235702291074
1080000000.0 -0.04598412336626295 0.13867741332041247
1100000000.0 0.01505067262361288 0.183192693741781
1120000000.0 -0.21367641946468724 0.030236399581835303
1140000000.0 -0.15836791857363616 0.19488054092690135
1160000000.0 -0.21497516106625944 0.16228091754228982
1180000000.0 0.2256898125639375 0.17473694784328128
1200000000.0 -0.008683206013113093 0.31155983540577376
1220000000.0 -0.27935982191897896 0.14483577413395685
1240000000.0 -0.06446926568896869 -0.32905326387378825
1260000000.0 -0.23022967907001218 0.2496918231329279
1280000000.0 -0.30052814087145446 0.16659308818620425
1300000000.0 -0.35312597882113644 0.012785897201112041
1320000000.0 -0.21560467555426582 -0.28017575573956477
1340000000.0 0.04755031736693735 0.35535802413622636
1360000000.0 -0.057959218240834054 -0.37444236592367264
1380000000.0 0.364933962151744 -0.10809693168969406
1400000000.0 -0.18424466873203438 -0.3305778227786708
1420000000.0 -0.2849868185398299 0.254214367432847
1440000000.0 0.3747015949960611 -0.009291919220265175
1460000000.0 0.09430872089777087 -0.3553765555087248
1480000000.0 -0.31840450097276796 0.14221515559413558
1500000000.0 -0.04051791299590313 0.3257363032196033
1520000000.0 0.28766411955864 0.10232821864263915
1540000000.0 -0.19433694789032163 -0.19911583340560723
1560000000.0 0.02231214791171531 0.25085541862460436
1580000000.0 -0.052126888176296425 -0.209237125250085
1600000000.0 0.010168480224185825 0.1842660487990853
1620000000.0 -0.14369107946066403 0.07785336652551066
1640000000.0 -0.02571771023780968 -0.12862671301972964
1660000000.0 -0.05726525693140819 -0.08426594208779409
1680000000.0 -0.004570874138481024 -0.09415515910440551
1700000000.0 -0.07280635629391413 0.027334919627147874
1720000000.0 0.05221179633404277 0.017036364788319578
1740000000.0 0.007269161836978939 0.05427047016132465
1760000000.0 -0.06565500371943811 -0.021230245896254298
1780000000.0 -0.06688169360907867 0.06992162449790137
1800000000.0 0.09122712911999181 0.08058857295739348
1820000000.0 -0.11510984409139467 0.1106848253778164
1840000000.0 -0.1911736729741442 -0.030205439330726933
1860000000.0 -0.1920092981269446 0.11404873419243877
1880000000.0 -0.1339197012440764 0.21038727875046034
1900000000.0 0.14411479114080442 -0.23590050949828192
1920000000.0 -0.2699370657009074 0.09837389223051143
1940000000.0 0.1702337569074519 0.24736088006932377
1960000000.0 -0.3095598385551237 -0.02349832082802618
1980000000.0 0.21220758549971397 -0.22781354949857174
2000000000.0 0.21342163452078505 0.22397111018882915
2020000000.0 -0.2599348361951176 0.177564506060188
2040000000.0 -0.2388395662109994 0.20090085466840957
2060000000.0 -0.28305430079068705 0.11799677612973021
2080000000.0 -0.2910820389388745 -0.0911913284335638
2100000000.0 0.19751068074429354 0.230437777816432
2120000000.0 -0.29399219647625674 0.05188429584528082
2140000000.0 0.22140855540542573 -0.19188317225888807
2160000000.0 -0.26412392982569577 0.11285859554731041
2180000000.0 -0.11363776978974287 0.2576795748014138
2200000000.0 0.2017761161298567 0.19226648676793273
2220000000.0 0.2696465655384018 -0.003938296038195549
2240000000.0 0.17967411944337627 0.1922075453644281
2260000000.0 -0.05480399288972761 0.24193238516762203
2280000000.0 -0.09694715121401304 -0.21600648389462446
2300000000.0 0.11614479607618847 0.19673640630548192
2320000000.0 -0.22235685373946676 -0.03279199654162908
2340000000.0 0.19603125439418825 -0.08774253477524653
2360000000.0 -0.10762544866073831 -0.18811220489378552
2380000000.0 0.21968306238925903 -0.044475059278839976
2400000000.0 -0.10816482939081498 0.2144818806761356
2420000000.0 0.2617309538388517 0.03730574730410919
2440000000.0 0.11810872932242765 -0.2640995224200352
2460000000.0 -0.10683343823049088 0.30671658093623
2480000000.0 0.32494129302760044 -0.15717125949044064
2500000000.0 0.24629155541734224 0.3155984035110756
2520000000.0 -0.3707950447798333 0.23024207655288884
2540000000.0 -0.21309017373776545 -0.4246824693882711
2560000000.0 0.49739370971498814 -0.1083168945257755
2580000000.0 -0.431078060393478 0.32577246863778414
2600000000.0 0.162253542716998 -0.544759197623048
2620000000.0 0.09800486512252259 0.5864919054444141
2640000000.0 -0.4454866654141212 -0.4237317544672861
2660000000.0 0.6261631127752474 -0.0885309784536981
2680000000.0 -0.06476031424927797 0.6413289962419513
2700000000.0 -0.6376679043295249 0.15086172654901697
2720000000.0 -0.643663723076711 -0.1583047204009509
2740000000.0 -0.5952929045748064 -0.29776395895044033
2760000000.0 -0.5243926573893654 -0.4123251405904085
2780000000.0 0.5701403363012909 -0.33544071729564545
2800000000.0 0.6204715426022566 -0.20505076324165147
2820000000.0 0.5728971238508717 0.2884603735456209
2840000000.0 -0.32898527319039605 0.5352648695078146
2860000000.0 -0.05663876468311891 -0.6124751135827107
2880000000.0 -0.10576658505779134 0.5882519516448271
2900000000.0 0.5606578435404657 -0.15970647315067152
2920000000.0 -0.35793769686024035 -0.43337574226513487
2940000000.0 -0.5138322142838392 0.15489042226207084
2960000000.0 -0.21482275402852952 0.46876313212334947
2980000000.0 0.4208522611916479 0.25597809684895517
3000000000.0 0.30709612845444534 -0.34842710402493315
3020000000.0 -0.29148152680529477 -0.3268846899189007
3040000000.0 -0.012120852580477987 0.4116771536479253
3060000000.0 0.32477813775726067 -0.20965214362883272
3080000000.0 -0.33202199602852406 0.1516374085501665
3100000000.0 0.24063996944615124 -0.24913022560207226
3120000000.0 -0.12345277014530297 -0.30850105552475304
3140000000.0 0.11323763285904256 0.30307424231585356
3160000000.0 -0.16349630055993375 -0.27208405093378774
3180000000.0 -0.03569921734497796 0.3089969117305518
3200000000.0 0.3021647701809156 -0.04535798808149863
3220000000.0 0.028912730317278944 -0.29853125248603013
3240000000.0 -0.24545238418989848 -0.15618039590927552
3260000000.0 -0.26222767547763975 -0.07159161179998237
3280000000.0 -0.06716816813612954 -0.24764146323191236
3300000000.0 0.20798147434222 -0.1099697267695796
3320000000.0 -0.10953075780098902 0.18468856813347787
3340000000.0 -0.11852363228320448 -0.15042611543928738
3360000000.0 -0.0191630182046386 0.16534640804659145
3380000000.0 0.12619123736864926 0.07277438693096162
3400000000.0 -0.09999902023454607 -0.07752596313083872
3420000000.0 -0.09712313025019483 0.053246771097697355
3440000000.0 -0.08191921354441593 -0.05422161921192092
3460000000.0 0.07346021170331322 -0.04134219267821912
3480000000.0 -0.0759793511175035 -0.0058678775224288715
3500000000.0 -0.042523520909297736 0.05388792491076297
3520000000.0 -0.030880864018638585 -0.05542414045153061
3540000000.0 0.024842530779699976 0.06309404568194694
3560000000.0 0.01450344583798887 0.06537024633180752
3580000000.0 0.051707063832049815 0.05603026974448132
3600000000.0 0.06227790279274913 -0.0580312168627968
3620000000.0 -0.03941560938140903 -0.08733700668513708
3640000000.0 -0.09991275799312152 -0.0033047328527313277
3660000000.0 0.1035639581662375 0.006229080358487695
3680000000.0 -0.0836056291703097 -0.061163409894529994
3700000000.0 0.019249108043466856 -0.09891175077120107
3720000000.0 0.007565193333205679 0.0931150812056931
3740000000.0 -0.06931780815297982 -0.034614417805705414
3760000000.0 -0.060382827882799854 0.02296998116770051
3780000000.0 -0.05138559456337355 0.0130713670069649
3800000000.0 0.04000470981266672 -0.006565074044441629
3820000000.0 -0.026781312743934978 -0.02537953181799383
3840000000.0 -0.04391730413003346 0.018730022346934928
3860000000.0 -0.04193156558541859 -0.05195679366346001
3880000000.0 0.05099734492090808 0.06655171188616121
3900000000.0 0.09743119124447346 0.017623955961607773
3920000000.0 0.029070314451906012 0.10337679958698849
3940000000.0 -0.10044773284192773 0.04319248171724123
3960000000.0 0.034007205889147685 -0.10067467876189909
3980000000.0 -0.015894389764466863 0.09526068887552995
4000000000.0 0.07821845159000454 -0.01764170641229339
