!Created with skrf (http://scikit-rf.org).
# Hz S RI R 50.0 
!freq ReS11 ImS11
400000000.0 -0.6947402438919249 -0.4322739220400994
420000000.0 0.46285937231723384 -0.6194163879868638
440000000.0 -0.5744939100117386 -0.4604379777817932
460000000.0 -0.635057670511233 -0.07773586398665898
480000000.0 -0.5325959377038485 -0.04375907137310332
500000000.0 -0.1774549586713334 0.3753451337136647
520000000.0 0.29940382023639445 -0.3096536343994815
540000000.0 0.23400354117253355 0.4103060808563285
560000000.0 0.27953258853989316 -0.3649919811947346
580000000.0 -0.31598197773288733 0.2677265997969474
600000000.0 0.3901782761216104 -0.014684884039721452
620000000.0 0.14814374455752957 -0.3491507879387544
640000000.0 0.18897331598867353 0.3165529637095018
660000000.0 0.08550519155020311 0.3515894422110856
680000000.0 0.2036000779539591 0.2815210357730061
700000000.0 0.2529020264624417 0.2343332294524732
720000000.0 0.3391777051573404 -0.0414931877293528
740000000.0 -0.028386242402394915 -0.3029687083227239
760000000.0 -0.15261514985306635 -0.24278468344308923
780000000.0 -0.22892835310085458 0.1639987200630219
800000000.0 0.24026405767121256 0.08463403715853199
820000000.0 -0.1899039671650259 -0.1273880164202786
840000000.0 0.19322832574737608 -0.12749984226067915
860000000.0 0.026915397227838662 0.20434050462507666
880000000.0 -0.1409840999031824 -0.121083939873839
900000000.0 -0.12909891710884683 -0.07454332865778027
920000000.0 0.12387706276036549 -0.07551362868435889
940000000.0 0.12005171360038645 0.052936772274008066
960000000.0 -0.0698342192106243 -0.07523677350742118
980000000.0 0.038974638241778124 0.049940647425608206
1000000000.0 0.04449796579304218 0.03225258833280219
1020000000.0 0.013892752204163701 0.046999577736521414
1040000000.0 0.00442891408188986 0.07293452805873367
1060000000.0 -0.06627511723557618 0.08641757299870001
1080000000.0 -0.08997801100964681 -0.11676848631266976
1100000000.0 -0.027118047009550325 0.18734138276287662
1120000000.0 0.08838832975220866 0.19749666322219703
1140000000.0 -0.15436696443952225 0.18716423873634883
1160000000.0 -0.26419083752677835 -0.047737357713572445
1180000000.0 0.14786671102543972 0.24649516767537752
1200000000.0 -0.1173134023399572 0.293610505620767
1220000000.0 0.025905383740474634 0.3122447852769455
1240000000.0 -0.05307263732249078 -0.329262300359958
1260000000.0 -0.25213478313220083 0.22618209741825673
1280000000.0 -0.34371762632147806 0.005716026315555102
1300000000.0 -0.3529323772110018 -0.012977782208915385
1320000000.0 -0.16201618950140342 -0.3182201813910271
1340000000.0 0.23888914531825445 0.26630710934854784
1360000000.0 -0.08455041307462764 -0.36306395821060694
1380000000.0 0.38027359494886837 0.03761185422420092
1400000000.0 -0.25584713262729036 -0.28180889904250644
1420000000.0 -0.06878856897746904 0.37729698429726016
1440000000.0 0.37235861943293674 -0.02506323577247796
1460000000.0 0.10096976804040941 -0.35222624036983213
1480000000.0 -0.3258454564559344 0.12446214467216885
1500000000.0 -0.006135140356151046 0.3305747330305713
1520000000.0 0.2804070492315353 0.11732749843573687
1540000000.0 -0.19516565656649074 -0.19946062322644542
1560000000.0 -0.07606954240282182 0.23791261619322865
1580000000.0 -0.05659433822548199 -0.20914196111116132
1600000000.0 -0.12302122997506892 0.13823240080423557
1620000000.0 -0.14383652760343596 0.07681607073599794
1640000000.0 -0.07853874071935443 -0.10046108345611762
1660000000.0 0.04456033180306439 -0.0931770083447497
1680000000.0 -0.011069267800322677 -0.09150060588555124
1700000000.0 -0.07548916000250859 0.010372061156827567
1720000000.0 -0.01099928529433222 -0.053416086039806215
1740000000.0 0.011284191790774736 0.0530092114048512
1760000000.0 -0.06814470512200768 -0.012832087751929613
1780000000.0 0.018763853885819626 0.0942132409849313
1800000000.0 0.1212084266882162 -0.017010420917469706
1820000000.0 -0.16058669003085752 -0.0019472720191847064
1840000000.0 -0.18043452144730054 0.07314497649049746
1860000000.0 -0.19695044262644135 0.10354904473407703
1880000000.0 -0.10216870575856038 0.2290288359950723
1900000000.0 0.1962271361792884 -0.19697577298413838
1920000000.0 -0.283536447453727 0.04761739405186725
1940000000.0 0.10917639116111097 0.27868401853658
1960000000.0 -0.2850060383395447 -0.12219877840817438
1980000000.0 0.2389089614447465 -0.19998117035615615
2000000000.0 0.21916095829687124 0.21821608015695063
2020000000.0 -0.157455479506829 0.27199934138048015
2040000000.0 -0.1911628316132359 0.2445780477069134
2060000000.0 -0.30618280137215914 -0.021599121144976155
2080000000.0 -0.30867754111253093 -0.0029336420342017007
2100000000.0 0.2808612331937752 0.11692887675489809
2120000000.0 -0.26566375726321795 0.13543686094921598
2140000000.0 0.27534739093544164 -0.10055425861532803
2160000000.0 -0.28682907391734774 0.03824446128972635
2180000000.0 -0.06066956063765202 0.27680350390560554
2200000000.0 0.19900138037876877 0.192879286231036
2220000000.0 0.2437772185591466 0.11548672111570901
2240000000.0 0.16617671890989427 0.20272753044984082
2260000000.0 -0.09176604227879655 0.23020652062591612
2280000000.0 -0.04279233240572298 -0.2327283252668975
2300000000.0 0.1883153939192449 0.12865247456243356
2320000000.0 -0.22210098183684576 -0.00942996841913536
2340000000.0 0.2107405743442168 0.041788783131139914
2360000000.0 -0.19321824406846455 -0.1015381541974255
2380000000.0 0.20483168540130528 -0.09137717789195204
2400000000.0 -0.10005787884712301 0.21715851393470112
2420000000.0 0.2331756530064436 0.123985449737529
2440000000.0 0.13177907138144504 -0.258676845655398
2460000000.0 -0.0791680572443404 0.3167922227388788
2480000000.0 0.2904418832792885 -0.21315963918102884
2500000000.0 0.26543142311034357 0.29775699703587705
2520000000.0 -0.38767683241110423 0.2031495204919574
2540000000.0 -0.2487374633468611 -0.4045269141458792
2560000000.0 0.48662705342051166 -0.15438381104307097
2580000000.0 -0.3950639045936825 0.3687931206329445
2600000000.0 0.16101411657949696 -0.5459811101208392
2620000000.0 0.12073172037535308 0.5824569986832543
2640000000.0 -0.4517637051273947 -0.41714658743216604
2660000000.0 0.6237665873318273 -0.100370117384339
2680000000.0 0.004889890053181113 0.6434668713266782
2700000000.0 -0.6007684743746097 0.25928400696079784
2720000000.0 -0.6455464136627566 -0.14099160201657554
2740000000.0 -0.5947715366183388 -0.29522414052612456
2760000000.0 -0.5693494651017791 -0.34405527702093625
2780000000.0 0.4485271252901326 -0.48555442547290556
2800000000.0 0.5713248720820484 -0.31774836393507055
2820000000.0 0.6045646301404115 0.21499721965707425
2840000000.0 -0.2674059186287973 0.569264842389792
2860000000.0 -0.14964129109707208 -0.5980637025718696
2880000000.0 -0.13738946804554808 0.582136828553599
2900000000.0 0.5646336929320205 -0.14005902382086458
2920000000.0 -0.3025052277623393 -0.4725920198955826
2940000000.0 -0.5319463561637632 0.06291111580953021
2960000000.0 -0.19262720992760432 0.47719572306355357
2980000000.0 0.4366848903233297 0.22322100402824227
3000000000.0 0.32482003128573633 -0.3264114896745458
3020000000.0 -0.26916925125160723 -0.3446377193720474
3040000000.0 0.1112982003254541 0.3949312270915549
3060000000.0 0.21039933932226382 -0.3234409645132644
3080000000.0 -0.2886020736567865 0.2222307087614286
3100000000.0 0.26335941767349647 -0.22461511868065234
3120000000.0 -0.24175008917817087 -0.2314523670113156
3140000000.0 0.20815145472052435 0.24858014255143782
3160000000.0 -0.12287803690806551 -0.2930804023747458
3180000000.0 -0.1705016853483256 0.26288928314057797
3200000000.0 0.30148515420663996 -0.05908060351189685
3220000000.0 0.07744362426033591 -0.28854033752333536
3240000000.0 -0.17039133435006654 -0.23364049521260832
3260000000.0 -0.19000593288474663 -0.19375328688991367
3280000000.0 -0.08168588132587441 -0.24301766360088475
3300000000.0 0.18052438169104082 -0.1496537028392496
3320000000.0 -0.11995195315023827 0.17645855919653583
3340000000.0 -0.0787281590705256 -0.17334746556024622
3360000000.0 0.014353971785268059 0.16801728904773028
3380000000.0 0.13933362742855085 0.0455282657095806
3400000000.0 -0.12409494275828528 -0.01819522137574817
3420000000.0 -0.11082396987506093 -0.014556499830379138
3440000000.0 0.04258512854166454 -0.09071816454614043
3460000000.0 0.07698716227048799 -0.038709562227605264
3480000000.0 -0.07322307787737505 -0.01983533131247227
3500000000.0 -0.046466792033886824 -0.04830788946256346
3520000000.0 0.050620728922391924 0.03646835358150355
3540000000.0 -0.043590875928400594 0.0509929229497575
3560000000.0 0.030769362487836113 0.058544175981772514
3580000000.0 0.07441465812090045 -0.01347872653918895
3600000000.0 0.0178436185358196 -0.08176613609326841
3620000000.0 -0.0875766987722 0.03636458660604859
3640000000.0 -0.0995427152613958 0.0006493561456033375
3660000000.0 0.10183729894080262 0.030444562408827834
3680000000.0 -0.09385762518760164 0.04601900229486411
3700000000.0 -0.07775729057553893 -0.06477026328921455
3720000000.0 0.04688916436778861 0.08007917550066895
3740000000.0 -0.06094012908474791 -0.04746161682355388
3760000000.0 -0.06587043791023744 -0.00777761575060744
3780000000.0 -0.03866964911576077 0.03710810580850642
3800000000.0 0.03501932995632324 -0.01882053768428832
3820000000.0 0.017239656125422866 -0.03263998559092941
3840000000.0 -0.043907635441752114 0.021249034937795758
3860000000.0 -0.06032368226393325 -0.030153548657674903
3880000000.0 -0.011561972040712151 0.08178998811584991
3900000000.0 0.028965160869908527 0.0930090120342154
3920000000.0 0.03520909879441424 0.10271780637978888
3940000000.0 -0.09685408058799627 0.04844477525029337
3960000000.0 0.0630794786295875 -0.08235989643178086
3980000000.0 -0.07340615642441244 0.05907557769390331
4000000000.0 0.07845852967926575 -0.01110343531691258
