!Created with skrf (http://scikit-rf.org).
# Hz S RI R 50.0 
!freq ReS11 ImS11
400000000.0 -0.6170641187733708 0.5199759480710411
420000000.0 0.5876665898045902 -0.4784044888944814
440000000.0 -0.13043541577870008 -0.7220091339770477
460000000.0 -0.4185560349438168 -0.4880639315727266
480000000.0 -0.5212408338927735 -0.09712120394304807
500000000.0 -0.25439845837024766 0.31710623931284443
520000000.0 0.4331665459056888 0.11225110529448724
540000000.0 -0.21772472541026996 -0.42634982594923154
560000000.0 0.44436184091935466 -0.11304147255358483
580000000.0 -0.22923535116019947 0.3628868173586359
600000000.0 -0.25199847018099364 -0.30040773707861373
620000000.0 -0.23734054823334874 0.2784772483473173
640000000.0 0.23582196900505778 0.25580417701344565
660000000.0 -0.34512915019172224 -0.006720896245500934
680000000.0 -0.30316973847585504 -0.1569762099449145
700000000.0 -0.3225852846432518 0.11707786762741137
720000000.0 -0.20185011623399596 0.2853096554920254
740000000.0 0.3191225018152951 0.06537762361953488
760000000.0 -0.013905374325894948 0.30208306273718866
780000000.0 -0.16898729114025132 -0.2306297965051249
800000000.0 0.11544163711170714 0.22496891901320026
820000000.0 -0.2172559622837056 0.05802566988806329
840000000.0 -0.20997445421347555 0.08026452225478604
860000000.0 -0.033110948729920146 0.18769675026063118
880000000.0 -0.17526385951903029 0.02120371515242868
900000000.0 -0.07070920189044583 -0.14158497585712546
920000000.0 0.1270867994693565 -0.09666575328339073
940000000.0 -0.13888932604854556 0.0028594970065134446
960000000.0 -0.004699534192311217 -0.1066612945416163
980000000.0 -0.025202904075448736 0.057701867058199866
1000000000.0 0.03506627031404249 -0.030312700858182367
1020000000.0 0.038641316615565524 -0.030939213693247185
1040000000.0 -0.035435090197462604 0.068773758454214
1060000000.0 -0.11469724492129602 0.011772472676408088
1080000000.0 0.02638943306183409 -0.1407058471211429
1100000000.0 0.15464483845644797 -0.08112281505903543
1120000000.0 0.09450484585272735 -0.18316456767084027
1140000000.0 0.0909703506139168 -0.2315303797305994
1160000000.0 -0.1451941931414264 -0.23648560884114253
1180000000.0 0.2924106943933215 0.016844463797028437
1200000000.0 -0.014987034501459412 0.315993692244902
1220000000.0 0.005033634077358647 0.3192670112839664
1240000000.0 -0.31640440906532424 0.10744997047584377
1260000000.0 0.11395442171286646 0.3134853482407659
1280000000.0 -0.31017608207575886 -0.11626366790499372
1300000000.0 0.08711680235211221 -0.33582440501253813
1320000000.0 0.35710976821821544 -0.05793332068951916
1340000000.0 0.06875969207909542 0.3652814662361304
1360000000.0 -0.34863560914560354 -0.146638460954092
1380000000.0 0.36590452963422565 -0.11056669783031456
1400000000.0 -0.340402023581291 0.1685516836508682
1420000000.0 0.008727128982793275 0.37432456465566444
1440000000.0 0.3340839698670406 0.16059192919521018
1460000000.0 0.26160745630043314 -0.24975815503548332
1480000000.0 -0.12277983854976181 -0.3289559997020509
1500000000.0 -0.0775878680032788 0.32756655406269114
1520000000.0 0.2852168369594653 -0.12734056359586557
1540000000.0 -0.2690421676055705 0.06418028106492672
1560000000.0 0.11162781672381317 0.2202776642867662
1580000000.0 0.014561534392577093 -0.21202113805352094
1600000000.0 -0.18144614733144915 0.00903985310938766
1620000000.0 -0.01648261589918971 -0.1637226036388266
1640000000.0 0.1321585325495688 -0.015252031105338456
1660000000.0 -0.0922637691929893 -0.05170411661350675
1680000000.0 0.0372502680036906 0.08406969403525472
1700000000.0 -0.07055299489731601 -0.020750674471909477
1720000000.0 0.039094143811514936 0.03459261726365736
1740000000.0 0.016087883449889206 -0.05299128267672864
1760000000.0 -0.007031232919020101 -0.06685011254219723
1780000000.0 -0.03901092791732845 -0.08676760364036286
1800000000.0 -0.013341971856929867 0.12898040194089674
1820000000.0 0.057397636108709904 0.15370011852616197
1840000000.0 0.05713871892745944 0.18643286539009615
1860000000.0 -0.03531819166496544 0.21661878205190463
1880000000.0 -0.050792484909143655 0.24197428121777725
1900000000.0 0.26101328886297487 -0.07916454393953504
1920000000.0 -0.25409946671565936 -0.1344245533503207
1940000000.0 -0.14097179131395163 0.266583278287192
1960000000.0 -0.19526094194345994 -0.24614426100827247
1980000000.0 0.15183443339288022 -0.27578859306220166
2000000000.0 0.28667269991566163 0.12292809337152096
2020000000.0 0.04885112506717167 0.30938906564048674
2040000000.0 0.0077486071363879645 0.3088653202751429
2060000000.0 -0.2949975334801936 0.06379067213112138
2080000000.0 -0.16333899688749692 -0.25798961680579957
2100000000.0 0.23414124214329163 0.19316956999635335
2120000000.0 -0.29733329672376724 0.037908509052320544
2140000000.0 0.269880246912467 -0.11720835395477024
2160000000.0 -0.25970055518688806 0.12711016776191608
2180000000.0 0.003405386233393957 0.2820807496921514
2200000000.0 0.1547144239314915 0.23066760029436503
2220000000.0 0.2555403358654258 0.07936044440957313
2240000000.0 0.0647402802438698 0.25300165712193234
2260000000.0 -0.19214553350330563 0.1570621898766825
2280000000.0 -0.1518493527525625 -0.18456900976348423
2300000000.0 0.19819656328234408 0.11488087424053861
2320000000.0 -0.22354597734568643 -0.007592404518469157
2340000000.0 0.20351753407700568 -0.07044032512314291
2360000000.0 -0.20625305518633497 -0.0622370237856344
2380000000.0 0.22066469917000467 0.02340061179133184
2400000000.0 -0.2018256938822309 0.1281274279133841
2420000000.0 0.13309436604548072 0.23062907907866467
2440000000.0 0.10941267091185182 -0.271411497976211
2460000000.0 -0.05613850679295536 0.32308327108991186
2480000000.0 0.18492663707760473 -0.31016000848339537
2500000000.0 0.35922146378964825 0.17332903778701791
2520000000.0 -0.33563128743881887 0.27579522217060826
2540000000.0 -0.2505234069803205 -0.4021172885388485
2560000000.0 0.508550179538329 -0.027171431508223924
2580000000.0 -0.4398453526568986 0.3150524209339894
2600000000.0 0.2419118154273457 -0.5171354782094857
2620000000.0 0.10255478402557942 0.5876426162137357
2640000000.0 -0.4632119017339173 -0.40580871686314546
2660000000.0 0.6120418535418911 -0.15947496732676109
2680000000.0 0.01652740674048838 0.6428337025088054
2700000000.0 -0.5922478378181013 0.2752954656331872
2720000000.0 -0.6371410860488328 -0.1733652925611818
2740000000.0 -0.5941932713369351 -0.29556853992913146
2760000000.0 -0.5490079248070203 -0.37433164098054594
2780000000.0 0.42389387505711085 -0.5068128154550386
2800000000.0 0.5537957077673328 -0.3458408181457533
2820000000.0 0.6072059542308089 0.2059048487268069
2840000000.0 -0.28907866390901343 0.5585147608872179
2860000000.0 -0.06085221742477383 -0.6134058875121255
2880000000.0 -0.12745272247618658 0.5863665617297715
2900000000.0 0.5427987523214465 -0.21184226550857704
2920000000.0 -0.3761772829804748 -0.4157706155239452
2940000000.0 -0.5262444450769631 0.08731426564388611
2960000000.0 -0.3261424535244474 0.39371093209110275
2980000000.0 0.27139049058108394 0.4079341457876034
3000000000.0 0.3823869047124752 -0.26165536780840354
3020000000.0 -0.25778472883539716 -0.3551932268633777
3040000000.0 0.14626419858289755 0.38675159316627583
3060000000.0 -0.049090975193409915 -0.38228495094226117
3080000000.0 -0.15309945279937942 0.32745134963389505
3100000000.0 0.17852429132739572 -0.2924814154774658
3120000000.0 -0.17921212558992197 -0.2770043376679504
3140000000.0 -0.09166733394174956 0.30970988559958207
3160000000.0 -0.0016729403786412231 -0.32148634855681824
3180000000.0 -0.20048266745815443 0.24477263566030025
3200000000.0 0.2856918037773467 -0.12390532367703953
3220000000.0 -0.18396587534038114 -0.23688706445498228
3240000000.0 -0.27810196611284044 -0.06772155409350832
3260000000.0 -0.17904711720539673 -0.19644721698318862
3280000000.0 0.17733635774433978 -0.18055566986901425
3300000000.0 0.1593556747434705 0.17076652973781023
3320000000.0 -0.19562442464724164 0.09440934530972105
3340000000.0 -0.04509774744031332 -0.1909135892778645
3360000000.0 0.16594280948031195 -0.03986220721313563
3380000000.0 -0.0768883592736171 -0.12101019216512711
3400000000.0 -0.1125625470742325 0.03596618454151447
3420000000.0 0.08609323344317014 -0.06400357244797529
3440000000.0 -0.07920160881048369 0.06318256439589351
3460000000.0 0.07536821150584634 0.05041060102019977
3480000000.0 -0.07700221626416405 -0.02428465073361848
3500000000.0 0.06445579075852828 0.030081131156825733
3520000000.0 0.06073470515684494 0.016546549105614598
3540000000.0 0.03413797477429769 -0.05218092052399442
3560000000.0 -0.019545822672158937 0.05796510691659215
3580000000.0 -0.07158246623915733 0.004329800673307592
3600000000.0 -0.06728417274046201 0.049634089280859287
3620000000.0 0.05285410255957189 -0.08354380289414366
3640000000.0 -0.08019099652162327 -0.06380537697019685
3660000000.0 -0.060356166589640096 -0.08970737735369044
3680000000.0 0.043069308910044374 0.09460569995780989
3700000000.0 -0.03947550524199327 0.08796159627266006
3720000000.0 -0.020625058858261016 0.08482267264942618
3740000000.0 -0.001789103371509503 0.07599504727605903
3760000000.0 0.06865481268019402 0.010095297071784694
3780000000.0 0.049271874206309005 -0.034401707218537844
3800000000.0 -0.000780289745408989 -0.038233076899153416
3820000000.0 -0.007356799966168395 -0.030611909329844752
3840000000.0 -0.04698414054319629 -0.004108475872053433
3860000000.0 0.044790559482161936 -0.05501096945693086
3880000000.0 -0.0006885923741946806 0.0864839772187115
3900000000.0 -0.07776701575457656 -0.06425504726414676
3920000000.0 -0.004712428192060485 -0.10358293853861664
3940000000.0 -0.10157211832733426 0.008450711062671024
3960000000.0 0.04384018662676599 0.09234543632789433
3980000000.0 -0.045208292707289655 -0.08545805896187518
4000000000.0 0.046261145018072845 0.07053827558745675
