!Created with skrf (http://scikit-rf.org).
# Hz S RI R 50.0 
!freq ReS11 ImS11
400000000.0 -0.6053947115018773 0.5297096054864254
420000000.0 0.6891457346759848 -0.31843084696400137
440000000.0 -0.27737437021722183 -0.6819249434640403
460000000.0 -0.48035086472125 -0.43151994360873436
480000000.0 -0.5206272545421177 0.07225802919857725
500000000.0 -0.31235790361027793 0.26407840867840554
520000000.0 0.4377188693677064 0.0703078112691766
540000000.0 0.009965345209921334 -0.472550608114627
560000000.0 0.4289740038808888 0.15426903216774193
580000000.0 -0.42849908189728153 -0.05127522571698797
600000000.0 -0.09439504654951755 -0.38971041495171327
620000000.0 -0.12992634708042805 0.3467341312850081
640000000.0 0.08357497861009872 0.3368659860002087
660000000.0 -0.33273119275372925 0.09883851859873824
680000000.0 -0.32278588255340224 0.11027814670130344
700000000.0 -0.2445882329744434 0.23389177862405422
720000000.0 -0.13804001167381566 0.31754775320857076
740000000.0 0.2489719857793454 0.20702105622677325
760000000.0 -0.18693938020354595 0.23665454190330873
780000000.0 -0.0019132739320631435 -0.2877647055057644
800000000.0 0.21015499164312126 0.14766541603642658
820000000.0 -0.09194689932556593 0.20147846265477037
840000000.0 -0.22054076517615065 -0.01715089830401481
860000000.0 -0.12391294355930221 0.147333746521628
880000000.0 -0.16581105905365906 0.058194646361357995
900000000.0 -0.002113200232431834 -0.1592156776435047
920000000.0 0.08681574790101264 -0.13735526452584917
940000000.0 -0.013702011373802678 0.1394358730207824
960000000.0 -0.08111149168767846 -0.06783626861999228
980000000.0 0.04493103056142549 0.03899312083160154
1000000000.0 0.04149720574982276 -0.014646860580600562
1020000000.0 0.018650389644594124 -0.04652306121117978
1040000000.0 0.024649152433482136 0.07054763443473258
1060000000.0 -0.10517852336510396 0.051156719529978155
1080000000.0 0.10258235065737178 -0.10142101847074193
1100000000.0 0.16980463008721552 -0.0258779421004869
1120000000.0 0.07478920007115872 -0.1960880281945025
1140000000.0 -0.002535420165904393 -0.25129045710528164
1160000000.0 -0.029087721386593917 -0.2745152479839757
1180000000.0 0.16679870359233753 -0.24252154945694068
1200000000.0 -0.06846066473135788 0.30632004579701405
1220000000.0 -0.07353598760619404 0.3103382927296919
1240000000.0 -0.3091913160623864 0.12096285220177995
1260000000.0 -0.05879818821682338 0.33131464679788925
1280000000.0 -0.3340134064430934 0.004429908109331573
1300000000.0 -0.050400103133918336 -0.3428138689241612
1320000000.0 0.2140716291983969 -0.2883776856337425
1340000000.0 -0.15583479319222948 0.3333947371831978
1360000000.0 -0.2119004982862684 -0.31335048543426436
1380000000.0 0.38456750678286117 -0.016025229878407245
1400000000.0 -0.3490761998552756 0.15839310884871216
1420000000.0 0.14297145441670808 0.34773376622928776
1440000000.0 0.3675375062579415 0.04183865453514981
1460000000.0 0.15533865906993283 -0.3244894820100888
1480000000.0 -0.07927223376328622 -0.3382667418077296
1500000000.0 -0.1548948098925466 0.2982587976679757
1520000000.0 0.30966256252742 -0.038736247774363915
1540000000.0 -0.2811016391741452 0.012369516265561513
1560000000.0 0.1762465517009745 0.17289479774765024
1580000000.0 -0.12177400451356596 -0.17662391278453018
1600000000.0 -0.1645211161966484 0.07191867923806224
1620000000.0 0.10339186887473494 -0.1263271954381424
1640000000.0 0.09098223840719448 -0.09431621473709559
1660000000.0 0.08652240321921753 -0.06286411407704373
1680000000.0 0.08960939720399229 0.01912155832663343
1700000000.0 -0.03139371071747081 0.06778975898703467
1720000000.0 0.04216813746626393 -0.02993029888306851
1740000000.0 -0.04074170065464163 0.036996379258769044
1760000000.0 0.06706893854582144 0.005011296152489461
1780000000.0 -0.09546753773794267 -0.0067526959734501785
1800000000.0 0.09428118444297616 0.0905245746352274
1820000000.0 0.11484406588899986 0.11262638675130213
1840000000.0 -0.02434454555964133 0.19120852665756594
1860000000.0 -0.17046253029999447 0.14077438347880844
1880000000.0 -0.008799303117276253 0.25117814969361046
1900000000.0 0.15841408750272867 -0.22313868676226364
1920000000.0 -0.28309350627955526 -0.04303673993246517
1940000000.0 -0.05090688419440049 0.2945213447939244
1960000000.0 -0.11230604038436479 -0.2911380756523205
1980000000.0 0.28393421193417934 -0.13550086343623152
2000000000.0 0.22595837482528225 0.2185985372611415
2020000000.0 0.023471249128107045 0.31481461614209194
2040000000.0 0.18398411066077378 0.24907222995920442
2060000000.0 -0.2513356169612304 0.16502103809130192
2080000000.0 -0.20534556337478665 -0.22403141460422074
2100000000.0 0.20385789829227818 0.22211176770614463
2120000000.0 -0.2993853913236987 0.007505814090960244
2140000000.0 0.2800959888634014 -0.09073741637898497
2160000000.0 -0.286820868539225 0.039188983084178654
2180000000.0 0.0559410146436854 0.27875902813563885
2200000000.0 0.20573739837095742 0.18629517660705452
2220000000.0 0.264664372594625 0.0327257522769896
2240000000.0 -0.02599653635111246 0.2592492494858495
2260000000.0 -0.20584604733325212 0.14174928932166134
2280000000.0 -0.10691991726881737 -0.21360221606546512
2300000000.0 0.22904112173328686 0.027184590367958263
2320000000.0 -0.21770760488383697 0.0369388155843217
2340000000.0 0.20576253890343657 -0.06337017079841809
2360000000.0 -0.20380838488120348 -0.06830374011301324
2380000000.0 0.22186051399786275 0.022408017486381458
2400000000.0 -0.2212279925692221 0.09131025905270211
2420000000.0 0.14615423734897254 0.2241100702009371
2440000000.0 0.009905399017998931 -0.29296397653423045
2460000000.0 0.008402815800884679 0.32714815550756887
2480000000.0 0.20937090031899966 -0.29302621249418614
2500000000.0 0.3060224205541904 0.2544225386744744
2520000000.0 -0.3331423448672139 0.28197760365254215
2540000000.0 -0.2469560697926138 -0.40473276147764975
2560000000.0 0.5080376308919261 -0.03624840943807795
2580000000.0 -0.4152790111312343 0.34772856020953635
2600000000.0 0.19343685622889534 -0.5365842309581387
2620000000.0 0.15307161259953322 0.5762901103117625
2640000000.0 -0.43943036186473966 -0.4310658027531053
2660000000.0 0.6258593038561587 -0.09369286146639963
2680000000.0 0.03601367406776422 0.6419404635722198
2700000000.0 -0.5943637068647684 0.27070892110902617
2720000000.0 -0.6509413349809604 -0.10916863818508718
2740000000.0 -0.611773351424004 -0.2560582748429292
2760000000.0 -0.607930238853828 -0.2699125471248377
2780000000.0 0.4136958129707163 -0.5152354219291128
2800000000.0 0.5494222962455048 -0.35226534882583943
2820000000.0 0.6007464916389064 0.22493526382343323
2840000000.0 -0.27727928736269025 0.5641848750398288
2860000000.0 -0.08142266910420441 -0.61197412876957
2880000000.0 -0.10256983673736139 0.59185554417546
2900000000.0 0.5171751621949765 -0.26625782288324995
2920000000.0 -0.42999557482882195 -0.35995478916514406
2940000000.0 -0.5275956367997445 0.06956473144867487
2960000000.0 -0.3315725018047961 0.38897908127913905
2980000000.0 0.30213500451247655 0.3834736152168883
3000000000.0 0.39821570740307316 -0.2410715331978071
3020000000.0 -0.31403524244870773 -0.3048435249602148
3040000000.0 0.18303238882884906 0.3713461062250355
3060000000.0 -0.05624555058639905 -0.3819124186315511
3080000000.0 -0.14355907231887877 0.3310378168475379
3100000000.0 0.1608594608447743 -0.30212245912908775
3120000000.0 -0.09059234703891701 -0.3159165133543363
3140000000.0 -0.07732543108113728 0.3141200921308011
3160000000.0 0.01679665236021791 -0.3186483073743115
3180000000.0 -0.2281093311681736 0.22187156176055164
3200000000.0 0.28164582794343956 -0.13134814862626595
3220000000.0 -0.11148022865320037 -0.279876948814783
3240000000.0 -0.2865870595297889 -0.014411028286383078
3260000000.0 -0.18981203128916907 -0.18705812973941038
3280000000.0 0.09492004069673578 -0.23325867396390357
3300000000.0 0.09969088926665544 0.21061876586385878
3320000000.0 -0.19232504769669453 0.09987123427450215
3340000000.0 0.052204309964854444 -0.18960706644038147
3360000000.0 0.1586402165526585 -0.061922055840742084
3380000000.0 -0.10062850175582225 -0.10433919328298641
3400000000.0 -0.0848883473482812 0.08457146744326159
3420000000.0 0.08569433982939745 -0.06137676635412634
3440000000.0 0.012315359576186171 0.09969121007991871
3460000000.0 0.021774393083894214 0.08759074741615694
3480000000.0 -0.025068093502824264 -0.07759389969901528
3500000000.0 0.0696350366100359 0.009913277405678735
3520000000.0 0.01510133399283864 0.062235390375806256
3540000000.0 -0.011931848977285818 -0.060597178621186576
3560000000.0 -0.051253265026655455 0.03507783393458001
3580000000.0 -0.015205243037345757 0.06970662425829934
3600000000.0 -0.05620485035504172 0.059192357868369405
3620000000.0 0.06546194782498875 -0.0731650037162539
3640000000.0 -0.07955555700776479 -0.06306580849522128
3660000000.0 -0.06158336579654073 -0.08920713436797291
3680000000.0 0.041830354080657516 0.09411434919530705
3700000000.0 -0.030930103207476283 0.09203976342791727
3720000000.0 -0.061752607624188424 0.06324260930412907
3740000000.0 0.046204002088629 0.05964906064774628
3760000000.0 0.042166942131860896 -0.053998240130907434
3780000000.0 0.007629899167327026 -0.05909422435342252
3800000000.0 0.03394978844005033 0.017716895183545463
3820000000.0 -0.002645539839594719 -0.03191804274302488
3840000000.0 -0.034671607986374975 -0.03156129252999641
3860000000.0 0.006348475428649623 -0.070983173617321
3880000000.0 0.07147924152887083 0.04857261140617506
3900000000.0 -0.09465171329298458 -0.03263339087888823
3920000000.0 0.040994335104775285 -0.09485247289309723
3940000000.0 -0.10056304153376694 -0.02450040178262113
3960000000.0 0.01798684148163628 0.10125308648417485
3980000000.0 -0.04723395473395032 -0.08550696323013647
4000000000.0 0.06452477693097995 0.05265792205916284
