!Created with skrf (http://scikit-rf.org).
# Hz S RI R 50.0 
!freq ReS11 ImS11
400000000.0 0.45634256302146525 0.563514814791539
406500000.0 -0.2517298822441524 0.6607810591354195
413000000.0 -0.6768430691766943 -0.0730505487003354
419500000.0 -0.1256801840794725 0.6498631864727582
426000000.0 -0.07012445086631826 -0.6365465186634636
432500000.0 -0.13901416636787006 0.62023614081892
439000000.0 -0.2644564047384875 -0.5689460194274346
445500000.0 0.3895525947042369 0.4872966949701523
452000000.0 -0.6141230639424974 0.0552597532644855
458500000.0 0.1654554364927044 -0.5906539633076265
465000000.0 0.4890908533318204 0.3714922743207042
471500000.0 0.4959944674204398 0.35891889234417523
478000000.0 -0.2553107847352511 0.5359725239810598
484500000.0 -0.5429935600068778 0.22383269945911088
491000000.0 -0.5699579663560898 -0.04589552616799248
497500000.0 -0.5416570172883814 0.11405229810927421
504000000.0 -0.26909390162570535 0.4564923082992048
510500000.0 0.1954372619964042 0.45984098875302937
517000000.0 0.46536066230198075 0.01731890212671913
523500000.0 0.43962768827275955 -0.0016982064208120242
530000000.0 0.40850987094460117 -0.024014682674054714
536500000.0 -0.12490773695036797 -0.34965738487544024
543000000.0 -0.13636311487450467 -0.326933597460726
549500000.0 -0.07712949685295857 -0.3178405104722617
556000000.0 -0.2529093364442381 -0.17708096178946683
562500000.0 0.11809797881069219 -0.27054930544673944
569000000.0 -0.13098462661511404 -0.2634488244923371
575500000.0 0.08236091027210549 -0.27222104873353714
582000000.0 -0.2615979013699869 -0.11421417679347974
588500000.0 -0.2704483947882363 0.09752185724579958
595000000.0 0.12182103386446089 0.271459717622353
601500000.0 -0.19985434475343244 0.2145450631330052
608000000.0 -0.2888475172398133 0.06998460126111593
614500000.0 -0.27171417597659886 -0.12241242805890676
621000000.0 0.16409988629830982 -0.24453213524435866
627500000.0 -0.09899716531603431 0.2795010563229003
634000000.0 -0.09645750946411397 0.28865703386380404
640500000.0 -0.27390407749325124 0.10938314128198735
647000000.0 0.0818393858464516 -0.2805840146464439
653500000.0 0.252414570021961 -0.15696111220543194
660000000.0 0.1186087234633514 0.2608584640366816
666500000.0 -0.2371245718971599 -0.15577099787882437
673000000.0 0.2640915081190224 -0.08909162319261844
679500000.0 -0.006763382199216782 -0.28380931202282833
686000000.0 0.17658469117199085 -0.21443163305962806
692500000.0 -0.09189021213657293 0.2594373928454805
699000000.0 -0.08451866907663956 -0.25522376203005975
705500000.0 -0.24624944258785636 0.10750039009515361
712000000.0 0.2517774391296374 -0.11049022218278433
718500000.0 -0.1793339950820364 -0.21153750932737436
725000000.0 0.053357665094539555 0.2833276285117966
731500000.0 0.09496565935336439 -0.2802712759380786
738000000.0 -0.14158110207871896 0.2731680364771281
744500000.0 -0.09460769895549538 -0.2949638495440299
751000000.0 -0.0915155551808951 0.305472929924788
757500000.0 0.15435197628230196 -0.2901425293084067
764000000.0 -0.2508134819564706 0.22358532879158827
770500000.0 -0.010023427689172106 -0.34340896828919587
777000000.0 -0.14296953412918567 0.31861350133091815
783500000.0 0.08671290738018658 -0.33545145426022266
790000000.0 -0.19793754638693467 0.2915621428323916
796500000.0 0.3356188109334731 -0.10765528276699206
803000000.0 -0.29146625959133554 -0.18747835928757287
809500000.0 -0.06377017444861025 0.3442248840401686
816000000.0 0.1868868182107598 -0.30022256301868533
822500000.0 -0.2353535878705007 -0.2679252374141632
829000000.0 -0.33426167311200616 -0.15198678453105402
835500000.0 -0.025753368226724145 0.37125793374995686
842000000.0 0.2727843372721242 -0.26641526224139117
848500000.0 -0.129180703517842 -0.3611007510648618
855000000.0 -0.010105247637380164 0.391476453887537
861500000.0 0.359321082876406 -0.1724880835193201
868000000.0 -0.4133891051676239 0.022926091712385153
874500000.0 0.41677186192763377 -0.01084900424983787
881000000.0 -0.42090691031028815 -0.03460418057836166
887500000.0 0.3652890367179285 -0.21685465310661853
894000000.0 -0.38845400462987384 0.16634161053720486
900500000.0 0.1104783478202488 -0.4050844068716999
907000000.0 0.36671373820637126 0.19481030790282483
913500000.0 -0.3686751027851694 -0.17352766295270225
920000000.0 0.18450799164169066 -0.3596894026163356
926500000.0 0.38510360268453175 -0.10203220213143767
933000000.0 0.2990157729371546 0.24527133200346923
939500000.0 0.3734435112679253 0.017418446362873305
946000000.0 0.3116924365364945 0.15682802417715333
952500000.0 0.23283219249749926 0.22524420819443527
959000000.0 -0.033495984798987265 0.3022459041996842
965500000.0 -0.2734030576513624 0.08260265151016702
972000000.0 0.26938949857244093 0.014997434691015795
978500000.0 0.019348646648715166 0.2587812438680349
985000000.0 -0.2282584306213842 0.08839823392226799
991500000.0 -0.05384777259260108 -0.22703546758653836
998000000.0 0.20292907373763377 0.08957098288497845
1004500000.0 -0.11422953997321339 0.1798832369800843
1011000000.0 0.04157729401159209 -0.20405803296264868
1017500000.0 0.19458806349800897 -0.03570145711429944
1024000000.0 0.07894856797100326 0.16675198592815016
1030500000.0 -0.11354580319685531 0.12658526818957502
1037000000.0 0.15690521705857818 0.004020686657557063
1043500000.0 -0.09458507655812255 0.10915946574147004
1050000000.0 0.09673134519633729 -0.10532842970335105
1056500000.0 -0.05633767325455069 -0.12584714090233437
1063000000.0 -0.04211909645094812 0.12345314384385457
1069500000.0 0.0677857894135081 0.10119417701182397
1076000000.0 0.09487380264066426 0.05606860336929791
1082500000.0 -0.014339163273020157 0.10088464496622597
1089000000.0 -0.05860876981926256 0.07772967879441764
1095500000.0 0.09499294732819175 -0.011013248067745446
1102000000.0 0.0765839780047692 -0.06709933557963162
1108500000.0 0.09389024563429721 0.0496604622037617
1115000000.0 -0.042921706621300584 0.10939172088076403
1121500000.0 -0.13230161056758805 0.011909108876607262
1128000000.0 0.023016380756486068 -0.1471023398190337
1134500000.0 0.12887312273262447 -0.09922554324672321
1141000000.0 0.04116591596676124 0.17448397162325827
1147500000.0 -0.11510754382595756 0.1575347961182823
1154000000.0 -0.1875808841050123 -0.08025658759936077
1160500000.0 0.21078381897641388 0.005156935758090582
1167000000.0 -0.09486478004281583 0.1943711281220139
1173500000.0 0.18194945977215637 -0.11859401876954036
1180000000.0 -0.18084717317203758 0.12541664117094334
1186500000.0 0.16984976287820364 0.14280745717530763
1193000000.0 0.22360726719055293 -0.05813811980521409
1199500000.0 -0.2200642750687413 0.09208092415233522
1206000000.0 0.18727713244851799 0.16191782005296187
1212500000.0 -0.23798735421814363 -0.09976234474090455
1219000000.0 0.24150707128603646 0.11674028681354494
1225500000.0 -0.274987993251331 0.011731665484106485
1232000000.0 0.17536362672440967 0.22462603502187356
1238500000.0 0.12236294186439155 -0.26726194566737876
1245000000.0 -0.22683159510012688 0.19188757645966734
1251500000.0 0.23067340219777296 0.1963990836146747
1258000000.0 0.22051570246849195 -0.21295446373769297
1264500000.0 0.05612491071346984 -0.3028379815465699
1271000000.0 -0.1479092985555368 -0.27689400480596554
1277500000.0 -0.272750999666714 -0.17184207937634777
1284000000.0 -0.24895119824668505 0.216253042132876
1290500000.0 0.0700761913953765 0.3289892972784437
1297000000.0 0.3325718287769314 -0.08330897013535223
1303500000.0 0.0415337060081985 -0.3390508768425287
1310000000.0 -0.31119222390440165 -0.14453620037405296
1316500000.0 -0.0743652177940564 0.33527658379265896
1323000000.0 0.320033306231701 0.12640012036916737
1329500000.0 -0.12172041118459322 -0.3199728620290152
1336000000.0 -0.33352794659717866 0.055788508199372144
1342500000.0 0.11024868307774802 0.31385935658413106
1349000000.0 0.24856874875299728 -0.2209272806494144
1355500000.0 -0.1540372076060188 -0.29547392889257035
1362000000.0 -0.09851382172206773 0.3203270253402656
1368500000.0 0.3030868590332682 -0.15467728943002634
1375000000.0 -0.33809423762044694 0.07158329399616753
1381500000.0 0.33477136084877873 -0.09264515369177913
1388000000.0 -0.33957219915274617 -0.1016037365221692
1394500000.0 0.25837005330892526 0.2439081292178209
1401000000.0 0.2552736631300029 0.25080608526320325
1407500000.0 0.2288245552435802 -0.27825359722023957
1414000000.0 -0.08730367827116757 -0.3533251117228947
1420500000.0 -0.35336276011690154 -0.1022078684574767
1427000000.0 -0.3670179194623223 0.05200416886759698
1433500000.0 -0.37051330144251016 0.06722966608220665
1440000000.0 -0.3398211261423765 0.16480341057809786
1446500000.0 -0.3432296225129845 0.16643925017722472
1453000000.0 -0.2854255688860579 0.2536398158086834
1459500000.0 -0.2961865688793534 0.24100728515834077
1466000000.0 -0.11829929391178616 0.3619153934713252
1472500000.0 -0.06483847769633518 0.37169613678788493
1479000000.0 0.2629306959797143 0.25941064218449944
1485500000.0 0.33122704811006437 0.1335476266733938
1492000000.0 0.3130991447345854 -0.15126100746291538
1498500000.0 0.055342564309525985 -0.32787876854299214
1505000000.0 0.01286798342286348 -0.3193690742265201
1511500000.0 -0.3108242075042765 0.0213251504775516
1518000000.0 -0.1553767254916935 0.2552660209469918
1524500000.0 0.29179891972506095 0.008000863410761005
1531000000.0 -0.21628288357708736 -0.18210360331690117
1537500000.0 0.1402922168205506 0.23875560518900765
1544000000.0 -0.156707720858853 -0.22053888257536244
1550500000.0 0.2595319963928889 0.06947185034478504
1557000000.0 -0.25841440383014336 0.03782943011513725
1563500000.0 0.2533129346393925 0.05843556860260408
1570000000.0 0.18232116730981074 -0.18237044154484106
1576500000.0 -0.17280875108626698 -0.19014606610998613
1583000000.0 -0.17657328693667237 0.1930199806472553
1589500000.0 0.0712578175875382 0.2514129618637812
1596000000.0 0.24729235344350778 0.08921173336297515
1602500000.0 0.22037165801132041 -0.14234452891259922
1609000000.0 0.24064940296462967 -0.1044762770972379
1615500000.0 0.18691920444253937 -0.17727752759404586
1622000000.0 0.23989122734697435 0.08288666723200297
1628500000.0 0.2181075200427631 0.12123421295395106
1635000000.0 0.06234601768286599 0.2349534295523861
1641500000.0 -0.07446921482374176 0.22482075404823135
1648000000.0 -0.22811205558390427 0.03050393802240842
1654500000.0 -0.1324142808330323 -0.1784193818874376
1661000000.0 -0.14724680098258072 -0.15521099368473648
1667500000.0 -0.10361350386831389 -0.17545807131238936
1674000000.0 -0.17413930558681093 -0.07493289519149192
1680500000.0 -0.14249782537681258 -0.10007158389756102
1687000000.0 -0.13725604858517665 -0.0814041414762303
1693500000.0 -0.1431075181653164 0.03608640450978029
1700000000.0 0.050587125421797524 0.12938519963394804
1706500000.0 0.12588545569272291 0.03160412376076959
1713000000.0 -0.12044463797168413 -0.025948435057923207
1719500000.0 0.11927275444167876 0.00859010810289354
1726000000.0 0.06791727605671845 0.09381166687624386
1732500000.0 -0.007589895852164604 0.11451130880978685
1739000000.0 -0.0985446891291458 0.05008711053307938
1745500000.0 0.10738872945658025 -0.012371275306888158
1752000000.0 -0.023037390788901754 0.10520376290152529
1758500000.0 0.1042850899102805 0.011847426844530898
1765000000.0 0.08046309813610432 -0.06561082478433257
1771500000.0 0.09072403506130507 0.0507086380382392
1778000000.0 0.05667902588678645 0.08927624043286249
1784500000.0 -0.09138896888787514 0.06029979567537471
1791000000.0 0.058269453591714114 -0.09638035988711316
1797500000.0 0.11282460768815589 -0.02403464878576469
1804000000.0 0.093821701327432 -0.0659935301461893
1810500000.0 0.07080490260177781 -0.0865181049367794
1817000000.0 0.10276389299051966 -0.004740929027265646
1823500000.0 0.09037467955291757 0.01657403110898565
1830000000.0 -0.06573338378330072 -0.04352969585526975
1836500000.0 -0.00812723031802225 0.06629306592442649
1843000000.0 -0.03624297864856944 0.04164399815890622
1849500000.0 -0.0267081506682084 -0.03899503388769782
1856000000.0 -0.019636265597333214 0.03431803812354403
1862500000.0 -0.0012898516584140352 -0.034665036461173
1869000000.0 -0.021957996508668184 0.02307390864490657
1875500000.0 -0.008750345078667066 0.02557111601719468
1882000000.0 -0.00666288436770014 0.015361293584977644
1888500000.0 -0.006832874036475038 -0.001068979733066922
1895000000.0 -0.0042518589266354 -0.0022757796830047976
1901500000.0 0.005956724175129679 -0.016334464674588704
1908000000.0 0.024333147598905158 -0.0023181525427156133
1914500000.0 0.02877622215609808 0.013853550093846393
1921000000.0 -0.021351957108825568 -0.026831028929211426
1927500000.0 0.003132437650465453 0.035595232849382395
1934000000.0 -0.0036006063925151624 0.03549018704589384
1940500000.0 0.004720879600032087 0.03354118238680235
1947000000.0 0.028730504373326558 0.01917354363187613
1953500000.0 -0.029163968649130373 0.01903866949326845
1960000000.0 -0.03322925244297897 0.004347551558142054
1966500000.0 -0.0372239941845104 0.017332994220386328
1973000000.0 -0.049668371395059176 0.0026310048742400945
1979500000.0 0.021058743965522167 -0.05500299207852169
1986000000.0 -0.05985927240977113 -0.04357278209844005
1992500000.0 -0.08385672745467779 0.012641848714214636
1999000000.0 -0.02169222587676677 0.09479195767959853
2005500000.0 -0.012253918561824798 0.10897463101774126
2012000000.0 -0.02708705855987136 0.1164046880171508
2018500000.0 -0.12715340250617474 0.002391847610820259
2025000000.0 -0.016611347089082382 -0.13467923618031885
2031500000.0 0.139523037549586 0.014990781884770243
2038000000.0 0.04120762369269314 0.13885619648127878
2044500000.0 -0.14161889783540318 0.046459506479614755
2051000000.0 -0.026522686032491746 -0.15010690160775608
2057500000.0 0.14565124729327067 -0.050899516596089385
2064000000.0 0.14203463468569863 0.06016924985261676
2070500000.0 0.1347565712150024 0.07731310673335494
2077000000.0 0.09328963099757921 -0.11889016111301212
2083500000.0 -0.0840142111941126 -0.12049908103501385
2090000000.0 0.03964357670762136 0.13631103645913317
2096500000.0 0.016901405690392144 -0.13851990841697268
2103000000.0 0.13392753666506546 0.005498863626696727
2109500000.0 0.023562355260946206 0.1276990991191673
2116000000.0 0.11059702840636514 0.06605503133268494
2122500000.0 0.12369207263123551 0.044881453715203815
2129000000.0 0.07460506217403613 -0.11488016224831898
2135500000.0 0.11621062130966812 -0.08459919453599896
2142000000.0 -0.1329904142300269 0.0766566795937293
2148500000.0 0.10739191194577553 -0.12576238430253958
2155000000.0 -0.06275184208490471 0.16896237338748285
2161500000.0 0.12843465664385031 -0.1452562111014628
2168000000.0 -0.206936548892665 -0.023355729705808775
2174500000.0 -0.16639041149965825 0.14415277110792557
2181000000.0 -0.08240268650794481 0.21603957283559277
2187500000.0 -0.039475906993850465 0.2378762029048928
2194000000.0 -0.11361513119395875 0.22201550647114182
2200500000.0 -0.20168185729031637 0.15981774108858748
2207000000.0 -0.1912811413462913 0.1762595537082636
2213500000.0 -0.24588562752945256 -0.0887568977704098
2220000000.0 -0.19709979690817692 -0.16962809334517506
2226500000.0 0.08750811263569158 -0.23986067136931158
2233000000.0 0.24190269504587222 -0.06505946897647533
2239500000.0 0.15445045303160207 0.1925268543970398
2246000000.0 0.11618513875253615 0.20774073989277778
2252500000.0 0.10721476328633156 0.20182632403421702
2259000000.0 0.14150655567124756 0.17018641173139534
2265500000.0 0.20886333779765098 -0.022075234898722002
2272000000.0 -0.061851708120994574 -0.18883928248094242
2278500000.0 0.02091578194443797 0.18567980354743407
2285000000.0 0.11864161624599034 -0.12865833163642454
2291500000.0 -0.11412400505184842 0.11568178523664996
2298000000.0 0.15155614774633916 -0.00011494187182707427
2304500000.0 -0.1457866247412938 -0.009857765175365091
2311000000.0 0.13557016318967258 0.03677828655103316
2317500000.0 0.1275910001690681 -0.059494452577365325
2324000000.0 -0.07257272706922788 0.12497269041599755
2330500000.0 -0.07903174881980769 -0.12433123858216541
2337000000.0 0.020473043143769656 0.14984663950027832
2343500000.0 -0.04574663125381532 -0.1480113210802156
2350000000.0 -0.10989379944407637 0.11270820960423183
2356500000.0 -0.009333602336866214 0.1585717334221296
2363000000.0 0.12972384660723452 0.09948129236912946
2369500000.0 0.15806607021893987 -0.034665319092115274
2376000000.0 0.10899548808424735 0.12032034553648191
2382500000.0 0.10013910745804967 0.12925636730835258
2389000000.0 -0.08443233146027096 0.14040584175119966
2395500000.0 -0.1630404221879583 0.011734329106409518
2402000000.0 -0.1547936782801946 -0.05037665147559995
2408500000.0 -0.1580524502591121 -0.04241086905921055
2415000000.0 -0.15791798888175676 0.030247163008480713
2421500000.0 -0.1557750523501848 0.024014563066914886
2428000000.0 -0.12432931031897962 0.08961856854786265
2434500000.0 -0.08894788820382002 0.11941076338786283
2441000000.0 0.001752104402284211 0.14761980342481953
2447500000.0 0.1434986954059111 0.02517330164976117
2454000000.0 -0.035161566116577385 -0.13991095028930872
2460500000.0 -0.13685747075582239 0.033409187386957584
2467000000.0 -0.07086616278539176 0.12019827483671845
2473500000.0 0.08601663316816907 0.10667294972823073
2480000000.0 0.07246083511078909 0.11609930060240219
2486500000.0 -0.1308660454297265 -0.03900223765573062
2493000000.0 -0.12827055780136543 -0.05147094343390914
2499500000.0 -0.1320060934305609 -0.048377896469689916
2506000000.0 -0.08460737571715175 -0.1159247838961745
2512500000.0 0.13941122698921396 0.035187956767836925
2519000000.0 -0.13251561453258562 0.0607492249870534
2525500000.0 0.1360264451020923 -0.05863337163427678
2532000000.0 -0.08100261614508636 0.12680218937442017
2538500000.0 0.12187306677180808 -0.0881313319320009
2545000000.0 -0.08749159551405125 0.12220419130598352
2551500000.0 0.1468605191819135 0.010792431188561649
2558000000.0 0.0649805998814414 -0.1301428302017021
2564500000.0 -0.09416631856082716 -0.10985238348100654
2571000000.0 -0.11841660469895426 0.0820441130914032
2577500000.0 -0.004856294573605999 0.1428662016294063
2584000000.0 0.11950741582244152 0.07156715829676205
2590500000.0 0.1195539281875063 -0.06578816032976365
2597000000.0 0.04635073747137917 -0.12551979248406703
2603500000.0 -0.11799287725393497 -0.05583960015534153
2610000000.0 -0.04806776544033375 0.11547722154704017
2616500000.0 0.11264335799908808 0.04151028578320197
2623000000.0 0.02380004688923118 -0.10973605106054263
2629500000.0 -0.07127991551419213 -0.07948060488252787
2636000000.0 -0.040287516878397614 0.09088808509206815
2642500000.0 0.08869405185899015 0.02964275320087257
2649000000.0 -0.06423160003559499 0.05888209647019281
2655500000.0 -0.06107531126155852 -0.04951144255053333
2662000000.0 0.015270122863445675 0.06836760022413527
2668500000.0 -0.051761405088267536 -0.033391510879349114
2675000000.0 -0.0008887483006169514 -0.05218940663365831
2681500000.0 0.014508552245666316 0.043390068017458996
2688000000.0 -0.041942137540710786 -0.014240742334223996
2694500000.0 -0.03378568042343701 -0.031153434841113936
2701000000.0 0.027613487605697137 -0.0440361040223109
2707500000.0 0.012702465914911363 -0.06287043778173446
2714000000.0 -0.037402120785613675 0.06660950313303941
2720500000.0 0.0929597900500306 -0.003363684447159639
2727000000.0 0.09252396355477459 -0.05504484032381719
2733500000.0 0.11075993928927402 -0.053612071406242676
2740000000.0 0.11882001530003562 0.06832173777330938
2746500000.0 0.04192322597684935 0.14377881218599053
2753000000.0 -0.16228308253165727 -0.005224281980731956
2759500000.0 0.0482357752136589 -0.16362273540585756
2766000000.0 -0.0979313371249214 0.15111281346050198
2772500000.0 0.049177818761106565 -0.1817660581899422
2779000000.0 -0.16107108273614515 0.11522911084274992
2785500000.0 0.08642588563149219 -0.18782615404733413
2792000000.0 -0.06543082923401534 0.20477810400301266
2798500000.0 -0.1480397045009104 -0.16728407408712412
2805000000.0 0.2260859561890433 -0.023686000650111984
2811500000.0 -0.061570578616867086 0.22546489180708662
