!Created with skrf (http://scikit-rf.org).
# Hz S RI R 50.0 
!freq ReS11 ImS11
400000000.0 0.7350008881455784 -0.5439347613508155
420000000.0 0.8621399217566372 -0.11209054782523965
440000000.0 0.1833341644361145 0.8111878002952368
460000000.0 -0.5914793022840594 -0.5373074011935771
480000000.0 0.14185896255831515 -0.7675293289702817
500000000.0 -0.5095687020742076 0.5857934325591225
520000000.0 0.6744558123276514 0.2560834655101194
540000000.0 0.13080099612523563 -0.6757865382860522
560000000.0 -0.43172961631199486 0.4866105531943677
580000000.0 -0.536968542337171 0.16531483269167113
600000000.0 -0.44557023998628403 0.3691995573396827
620000000.0 -0.20290804639970733 0.5239946639013936
640000000.0 0.16078375066556658 -0.521672265142014
660000000.0 -0.06937791337061637 -0.52259457294393
680000000.0 -0.45899340248887205 0.18096725071929215
700000000.0 -0.00982241464220635 -0.4815009433596136
720000000.0 0.45291864602161835 0.16067817132621687
740000000.0 -0.3150545697356962 0.33636349873665333
760000000.0 -0.4418109847043614 -0.0787396222866825
780000000.0 -0.4317922068207865 -0.039446298466356396
800000000.0 -0.3863156460108311 0.025164012373636597
820000000.0 -0.2753827348086012 0.19678286846295828
840000000.0 0.02742507588726973 -0.31735106982306444
860000000.0 0.1922131404052619 -0.20361171141440146
880000000.0 -0.19529163497129703 -0.1685545313252761
900000000.0 -0.04596072442369118 -0.24207311405934864
920000000.0 0.1442130484949429 0.16641261202644986
940000000.0 0.17975326882998613 0.09143426331856949
960000000.0 -0.118793700100689 0.09528422459545742
980000000.0 0.0156137609703954 0.10354112638920661
1000000000.0 0.042431074313270395 -0.061279532345008436
1020000000.0 -0.011129809734579657 -0.07771828258712782
1040000000.0 -0.02921180041439393 -0.09486728194492905
1060000000.0 -0.11189924179337603 0.07218133945511773
1080000000.0 -0.13136039671981245 -0.13097838066324533
1100000000.0 -0.06755883272854728 0.21356037886535145
1120000000.0 0.06556001486113962 -0.261611997890219
1140000000.0 -0.2762591743735405 0.042930980384666174
1160000000.0 0.271108314119982 0.13395125718174036
1180000000.0 0.23145517344198235 0.23548671930190468
1200000000.0 -0.0925178350130073 0.3376632812534689
1220000000.0 -0.3526383880764998 0.0015016292949496244
1240000000.0 -0.08003609996869356 -0.3515402146637194
1260000000.0 -0.28607883130429596 -0.21610338999712747
1280000000.0 0.36255440009390144 -0.047637863454839155
1300000000.0 -0.09244364774451588 -0.3724240599825761
1320000000.0 0.29343493177453484 -0.2251738081317986
1340000000.0 -0.37927044292341233 0.02609064644450876
1360000000.0 -0.15698452341252817 -0.3488482285174767
1380000000.0 -0.08400192804205991 0.37232362287105747
1400000000.0 0.2646937470870548 -0.28556881179229837
1420000000.0 -0.35501722816715264 -0.1524427905828609
1440000000.0 -0.14904972195102062 -0.3450353013929016
1460000000.0 -0.16921541792032646 -0.33605151417212104
1480000000.0 -0.36951251244520084 -0.0675397677752178
1500000000.0 -0.3792756323411606 0.005551049276988327
1520000000.0 0.3249770089999231 -0.1870947328709288
1540000000.0 -0.1596305510853555 0.3224103166552401
1560000000.0 -0.3311700779563837 -0.026429441076161745
1580000000.0 -0.2500177772178951 0.1582869768533847
1600000000.0 -0.2571745131310703 0.013806685641225216
1620000000.0 -0.2129383434642697 -0.02253358965809108
1640000000.0 0.166417882784373 0.06752640172562432
1660000000.0 -0.12351006623734297 0.08498614507893074
1680000000.0 -0.0405186252043436 0.11338499630878035
1700000000.0 -0.08669648739444134 0.046106122054314885
1720000000.0 0.062022575075836556 -0.05632650299455777
1740000000.0 0.04592338784422673 0.05073913862434499
1760000000.0 0.045955915438160896 0.07878882631239814
1780000000.0 -0.0799993903714603 0.063829312813616
1800000000.0 0.08306735853275757 0.09465783110449424
1820000000.0 0.08300495087536772 0.13623447762224838
1840000000.0 0.17827673004187328 0.05543393306919047
1860000000.0 0.10219829329282908 -0.18762538070054013
1880000000.0 -0.21968632515201889 -0.11089338774419233
1900000000.0 -0.2532805652926394 -0.07713864198977359
1920000000.0 0.2649948921018816 0.12028046332530333
1940000000.0 -0.15396847921388496 -0.2569595097170071
1960000000.0 0.26911136582225303 0.15060056952774384
1980000000.0 -0.3164432590950822 0.01931981619093814
2000000000.0 -0.10311194131900989 -0.30610080937571965
2020000000.0 -0.0015138528230747546 -0.3213503438117624
2040000000.0 0.29463941383573194 -0.13142283618193248
2060000000.0 0.24362726816892183 0.21468184208550548
2080000000.0 0.25110056628611277 0.20353041961723858
2100000000.0 -0.03103670517831769 -0.31503335605271066
2120000000.0 -0.21499241921923662 0.22602646423967954
2140000000.0 0.2638660843736777 -0.16584986312652572
2160000000.0 -0.30716432372199903 -0.047602441098068785
2180000000.0 0.023155949800856036 0.3040606514140835
2200000000.0 0.2207027756867346 0.19531228439968723
2220000000.0 0.06343433354659456 0.2773253163622275
2240000000.0 -0.2419749484213076 -0.1336211185381079
2260000000.0 0.08139018747876967 0.26259226750104536
2280000000.0 0.10541722543287094 0.25290635835385417
2300000000.0 -0.2730596519472134 0.03571536472324928
2320000000.0 -0.24858594688059238 0.10814370577910346
2340000000.0 -0.20957517256586072 -0.15171724024649857
2360000000.0 0.19082079333322574 -0.17107169672368314
2380000000.0 0.10534353211583676 0.236983686471747
2400000000.0 -0.03046074625737441 0.264976125656423
2420000000.0 -0.22652824854647707 0.18101711988402303
2440000000.0 0.30023649734643104 0.08498574369443705
2460000000.0 -0.15898806197605372 -0.30268035489650913
2480000000.0 -0.2516318743522031 0.27125323314154315
2500000000.0 0.2993322695912368 -0.2719794157701489
2520000000.0 -0.02842192651690206 0.44546536688957195
2540000000.0 -0.28764007798459756 -0.38398530706749534
2560000000.0 0.49250362378742696 0.1542342030251935
2580000000.0 -0.5349681194536278 0.11770614401989599
2600000000.0 0.470801061890393 -0.3313013554578162
2620000000.0 -0.4077156540770729 0.4359905191571703
2640000000.0 0.25437288418392623 -0.5644703178637159
2660000000.0 0.2938938765439431 0.5641990122965649
2680000000.0 -0.6352068692455256 0.11987739014022582
2700000000.0 -0.2249106789977437 -0.6161389886336587
2720000000.0 0.2246292675267239 -0.6249672726288046
2740000000.0 0.39534649637437486 -0.5377322343907414
2760000000.0 0.442678372619928 -0.501486293113797
2780000000.0 0.370471216922266 0.5526134044840687
2800000000.0 0.23618018974191554 0.6135565305182434
2820000000.0 -0.2175674637549079 0.608406270456605
2840000000.0 -0.619325796290525 -0.12336738057027481
2860000000.0 0.5422324522625541 -0.29420949357710635
2880000000.0 -0.5119764130151491 0.30844361339849113
2900000000.0 0.4627727573986537 0.3391107662011141
2920000000.0 0.37609119807679964 -0.405988071303288
2940000000.0 -0.1967823059527852 -0.4895657663541077
2960000000.0 -0.23656356491313385 -0.4412417053679744
2980000000.0 -0.3334507149465565 -0.33882021777793025
3000000000.0 -0.32806177635235223 -0.3168741425915029
3020000000.0 -0.41046176403600587 -0.13531408830231506
3040000000.0 -0.3328259814125276 0.25785010283707943
3060000000.0 0.399403078484221 0.05318740832493552
3080000000.0 -0.10933409746827931 -0.37427685592727494
3100000000.0 -0.03658861099979371 0.37658697353816806
3120000000.0 0.2539323893364593 -0.27683566960154454
3140000000.0 -0.1407877337976959 0.3370300363334746
3160000000.0 0.14673351736814375 -0.3351543575600234
3180000000.0 0.2075643729323385 0.29659947919797064
3200000000.0 -0.01600878383348777 -0.35389797345489
3220000000.0 -0.22127394258445496 0.2685216081880055
3240000000.0 -0.1718811951157147 0.29144510502389426
3260000000.0 0.32302605092123704 0.0032203906017846434
3280000000.0 0.006183248816226068 0.3049614432156769
3300000000.0 0.2237657238863899 0.18739517010214926
3320000000.0 -0.0492702278081831 0.258937519420779
3340000000.0 -0.03474121107977701 -0.23265513492725817
3360000000.0 -0.020548935664646568 0.21249102972592657
3380000000.0 -0.18519957501378012 -0.05260270277738566
3400000000.0 0.03545938196334232 0.16572771806041647
3420000000.0 -0.0345049407090042 0.15227658296006719
3440000000.0 0.07928969363152444 0.11086717745702722
3460000000.0 -0.10926544491509786 -0.008949294720800062
3480000000.0 0.033326124164206716 0.09722328336524536
3500000000.0 -0.0839719384091552 -0.058348361026846714
3520000000.0 0.0850297810071586 0.03259645482405673
3540000000.0 0.015360799422502975 -0.09653130110795594
3560000000.0 -0.03680385247247724 0.09679188426133954
3580000000.0 0.0622568011540789 -0.08703733866235584
3600000000.0 0.09584352043894721 -0.05832292689652765
3620000000.0 0.05926608652144849 0.11224174956881547
3640000000.0 0.13066062769398853 0.004943030460669133
3660000000.0 -0.05630102498491616 0.13062455795313055
3680000000.0 0.10555577476342211 0.10106677973925052
3700000000.0 -0.13238167065855036 0.012870513299115996
3720000000.0 0.1187309091887982 0.008595679922221815
3740000000.0 0.0018113501503752671 -0.1009537371372479
3760000000.0 -0.032509273297331116 -0.07413552257195809
3780000000.0 0.04048482323324144 0.04724299037705344
3800000000.0 0.031005123312072575 0.018489977569503196
3820000000.0 0.002592133915563553 0.005185261165732999
3840000000.0 0.013677045896965744 -0.036500627305403814
3860000000.0 -0.05774758614627554 -0.042903071290482486
3880000000.0 0.06669506856894059 -0.06463800605207543
3900000000.0 0.0890739080686094 -0.06629479013274975
3920000000.0 0.0732278475677122 -0.10181812706741222
3940000000.0 0.052082129663625666 -0.12288295566891916
3960000000.0 -0.06897765517027496 -0.11569211040726271
3980000000.0 -0.05597765307247847 0.11842300525735858
4000000000.0 0.05491091269782146 0.09162093060621684
