!Created with skrf (http://scikit-rf.org).
# Hz S RI R 50.0 
!freq ReS11 ImS11
400000000.0 -0.8431052833666041 0.05894978391785779
420000000.0 0.6893691285348664 0.3211971381059895
440000000.0 -0.7037106910982049 -0.12265846954097773
460000000.0 0.6879378249252668 -0.14412519016331382
480000000.0 -0.5040182519372879 -0.38612505510053585
500000000.0 -0.5319603128547566 0.1661571083526618
520000000.0 -0.23196359845681508 0.36090806108251444
540000000.0 -0.1412739164169183 -0.42280386709397116
560000000.0 -0.4042298617951205 -0.23212974145079707
580000000.0 0.4272088529090677 -0.031936714644840644
600000000.0 -0.36986709647721416 0.08194927954523964
620000000.0 0.38025023734097635 0.007734833016609197
640000000.0 -0.2687144420584553 0.2297000102210495
660000000.0 0.11722691214277674 -0.328055366895376
680000000.0 0.033693430756424565 0.3454072113544734
700000000.0 0.3461637905459178 -0.041766277270237594
720000000.0 0.27442171674572696 0.2006255286720539
740000000.0 0.2213797708056224 0.24537478178704153
760000000.0 0.12206843765713195 0.2835753923786373
780000000.0 0.12587660705033926 -0.2417047167622542
800000000.0 0.1355486584862949 -0.22265357685723586
820000000.0 -0.02245991124102858 0.23357879254764544
840000000.0 0.19815421070895867 -0.011830738768266555
860000000.0 -0.14218932546011354 -0.12731244954234355
880000000.0 -0.06997103166653855 0.1768797992382201
900000000.0 0.13446376011359423 0.07427691560337339
920000000.0 -0.09369608878432345 0.11604035608919945
940000000.0 0.1407491501887022 0.027561156708907863
960000000.0 -0.019108373626509294 0.1062162729956922
980000000.0 0.015518625586809704 0.06588330125293469
1000000000.0 -0.04402372749870532 0.009917302818872162
1020000000.0 -0.011218255225103857 -0.03621102413297385
1040000000.0 -0.03299343526264257 -0.07453160027897106
1060000000.0 -0.07446514657635964 -0.0880097240333619
1080000000.0 -0.03725770512062665 0.1506394074195242
1100000000.0 -0.127378360356983 0.13271176887991912
1120000000.0 0.1792894286957859 0.14478817366823157
1140000000.0 -0.09220365043071685 -0.24300758152014065
1160000000.0 0.24062156583054733 0.1648588105522226
1180000000.0 0.31177972962302974 0.016323137758854744
1200000000.0 0.22610160588010186 0.23524463942259213
1220000000.0 0.024540782267796723 0.33640607451668314
1240000000.0 -0.3276601257243598 0.062257778345860076
1260000000.0 -0.2676112090222091 -0.210517396261227
1280000000.0 -0.32601216557541807 -0.10940518181952526
1300000000.0 0.32516461843321065 0.13751163915549114
1320000000.0 0.3619167678532277 -0.02823330809770325
1340000000.0 -0.36147262609605085 0.04778176875899254
1360000000.0 -0.14419074255422173 -0.35767935425801883
1380000000.0 0.16437692419415922 -0.34580771249883063
1400000000.0 -0.333880743800796 0.1713034732002621
1420000000.0 0.08785434768674008 0.35901035321391833
1440000000.0 0.3634573294222626 -0.04563727038025858
1460000000.0 0.12275704964896711 -0.3304756543823933
1480000000.0 0.14060765732361075 -0.3166127314591219
1500000000.0 -0.17208471915343182 0.28931487267609374
1520000000.0 -0.08276073527526515 -0.29965119826100844
1540000000.0 -0.26984385890494933 -0.05417491440095955
1560000000.0 0.19965222014077783 0.14627200539508797
1580000000.0 -0.1915265855957811 -0.0912614014223664
1600000000.0 0.04906361579596879 -0.16889947943634287
1620000000.0 -0.10276152073380009 -0.11758824866441514
1640000000.0 0.12316381435971631 0.041173588161315174
1660000000.0 0.10882599135911615 -0.01296707207827803
1680000000.0 -0.032701928586295684 -0.08904164153799281
1700000000.0 0.06653429076752632 0.022975282239543628
1720000000.0 -0.0026002439843382944 0.053122855575748036
1740000000.0 0.03855972921870499 -0.027557114929600515
1760000000.0 0.05637099430780626 -0.027840178302093888
1780000000.0 -0.02727141823309971 -0.08152962715427847
1800000000.0 0.07051212290675513 0.10216273299693175
1820000000.0 0.15731755694529928 -0.03491267340022718
1840000000.0 0.1168311515428216 -0.151750558119696
1860000000.0 0.11585165203397402 0.17750359918568864
1880000000.0 0.19768359131163243 0.1363367885119161
1900000000.0 0.23430964958212266 -0.12282311016641491
1920000000.0 -0.07989708775445686 -0.2771093008866799
1940000000.0 0.2673791940421843 0.14147901604288193
1960000000.0 -0.3049900347776842 0.07000835328396758
1980000000.0 -0.24950362420537284 -0.19355490361805427
2000000000.0 0.13584575422979775 -0.2828752915122996
2020000000.0 0.3092263809464005 0.05574846101842924
2040000000.0 0.2519399780414638 0.18639970693350918
2060000000.0 0.05542540364613676 0.3061394283743252
2080000000.0 -0.3094974503850759 -0.046663628626392555
2100000000.0 0.2926052114198847 -0.12025996775940026
2120000000.0 -0.12858966963651575 0.2885100835089028
2140000000.0 0.026978104760591072 -0.3076459545257589
2160000000.0 0.017761528769909975 0.30484744951724485
2180000000.0 0.293066103035653 0.03628648090351781
2200000000.0 0.22992847251879253 0.17315416913927506
2220000000.0 0.2606297315791186 0.1038337463448985
2240000000.0 -0.0737732329967559 0.25996782308265354
2260000000.0 -0.20136094361014675 -0.1653628148768585
2280000000.0 0.07792717420698073 -0.24340229862010002
2300000000.0 0.19075386719193693 0.15273350300136154
2320000000.0 -0.21951112223043015 -0.08209152364718306
2340000000.0 0.22299149441051574 0.041369089294465124
2360000000.0 -0.2150109247977714 -0.07410526357755935
2380000000.0 0.2030407384043522 0.1190805082935561
2400000000.0 -0.08316651447289711 0.23898749690557758
2420000000.0 0.0018855779268060736 0.2769916387395246
2440000000.0 0.1394719995279581 -0.27658280642541405
2460000000.0 0.028612731599086203 0.33974502756152036
2480000000.0 0.2896426986647259 -0.23717471352174388
2500000000.0 0.14578284606673747 0.38323852816159143
2520000000.0 -0.423083377145145 -0.14695767144966174
2540000000.0 0.3704489056039567 -0.3119626925772274
2560000000.0 0.00929564868978107 0.5204607236331941
2580000000.0 -0.35715939068327107 -0.4207987379352992
2600000000.0 0.5698272850453373 0.11751594004558023
2620000000.0 -0.515662524003255 0.31839054348843954
2640000000.0 0.2221543415846592 -0.5833623561897802
2660000000.0 0.3542624306354528 0.5333577751000285
2680000000.0 -0.544615073383001 0.356715187418749
2700000000.0 -0.5733676239297032 -0.3292588361292899
2720000000.0 -0.2996649002249291 -0.5959207618070734
2740000000.0 -0.31966974182186064 -0.5895921296235251
2760000000.0 -0.29988095748105936 -0.6021336652894864
2780000000.0 0.6008040038483012 -0.2902520124166182
2800000000.0 0.6539976996891745 0.07463679531649674
2820000000.0 0.4918832041170896 0.42425719423459285
2840000000.0 -0.36113211677062806 0.523354486532409
2860000000.0 0.05384677928329785 -0.6209803074281957
2880000000.0 -0.14600593932303169 0.5921000542248495
2900000000.0 0.44644889624346235 -0.3883064058629669
2920000000.0 -0.3822838299139102 -0.41982097459797957
2940000000.0 -0.4496410115216691 0.3123908051935129
2960000000.0 0.06317039547914706 0.5167170805756152
2980000000.0 0.42510241406674504 0.2607602736313233
3000000000.0 0.17053457888244292 -0.44696377233949347
3020000000.0 -0.42022256099124494 0.16710992521645482
3040000000.0 0.415962433489276 0.08502736712807543
3060000000.0 -0.2861250826427856 -0.2770235446170488
3080000000.0 0.27524884372853875 0.2521530968965815
3100000000.0 -0.10195047155335998 -0.3374155318234761
3120000000.0 -0.18543833889632008 -0.2892099746615599
3140000000.0 0.3066895336628025 0.14433726127548813
3160000000.0 -0.21840382208329592 -0.2524454886036889
3180000000.0 0.13288966893236084 0.30353560633235466
3200000000.0 -0.006579089916868429 -0.32625599570986863
3220000000.0 -0.3034063152251281 0.08497873577264967
3240000000.0 -0.2235395905283924 0.20028119482916562
3260000000.0 -0.22810621381342275 0.16625434161711064
3280000000.0 0.04663784936353314 -0.2620163552103754
3300000000.0 0.24508677215053873 0.04759822936102392
3320000000.0 -0.18937367541391983 0.12894230858317005
3340000000.0 -0.16139377501448496 -0.13518385620114357
3360000000.0 0.14862188442694788 -0.10439241974456767
3380000000.0 -0.009575111622984026 -0.15573068670774015
3400000000.0 -0.13138016387303128 0.028169328546296227
3420000000.0 -0.1019292622203485 0.06589526107497781
3440000000.0 0.11114212983069095 0.0036515193759431583
3460000000.0 -0.09637891433842602 0.038850897295636316
3480000000.0 -0.07150286275304576 0.06001723799510834
3500000000.0 -0.06454282829875539 0.05379396496270672
3520000000.0 -0.0032123958668485155 -0.07780943965554138
3540000000.0 -0.06870399623062683 0.010900389059873339
3560000000.0 0.06866569214130995 0.028668013289743378
3580000000.0 0.06482971575014529 0.04947033509051067
3600000000.0 0.03906743853735596 -0.08392711757325845
3620000000.0 -0.0901911634207625 -0.04732921888922353
3640000000.0 -0.11263253823317072 0.015352979457458579
3660000000.0 0.0012376450502044496 0.11220546331000471
3680000000.0 0.10572085635543503 0.028270921557256638
3700000000.0 0.10013695250598399 0.01650771540629997
3720000000.0 -0.05572203003832089 -0.07424869029985946
3740000000.0 0.08225168196343752 -0.0006838998112664643
3760000000.0 0.07202428466348772 -0.018994447011020765
3780000000.0 0.005446596312202292 0.06380472296498028
3800000000.0 -0.014366553357716 -0.04651034698026511
3820000000.0 0.03988901406451636 -0.017601751452138065
3840000000.0 -0.022222832546905786 0.0507932794374499
3860000000.0 0.027867533481876743 0.06875722710335147
3880000000.0 -0.057039180756481615 -0.08019063493493478
3900000000.0 -0.07979998051645858 0.06787463649511911
3920000000.0 0.08724128266364303 0.06190251887654695
3940000000.0 -0.10190797046100819 -0.029868105731972308
3960000000.0 -0.08901556305573587 -0.05422586579678842
3980000000.0 0.08039268547808377 -0.05792334331724427
4000000000.0 0.04014511594547059 -0.07741235320276797
