!Created with skrf (http://scikit-rf.org).
# Hz S RI R 50.0 
!freq ReS11 ImS11
400000000.0 -0.6414906797271075 0.5208553410016964
420000000.0 0.4097280642498566 -0.6594887119328899
440000000.0 0.5289537019307747 -0.5265535592244617
460000000.0 -0.06675604526093404 -0.6507493840202081
480000000.0 -0.2429021295635747 -0.4775332551476463
500000000.0 -0.3162166609809781 0.25899296952548795
520000000.0 -0.2815241599336487 0.3509822465866018
540000000.0 0.40046254719384583 -0.27462283783687297
560000000.0 0.19006724998177477 -0.42857024586964787
580000000.0 0.09773132129866376 0.4048167450976548
600000000.0 -0.2750278104017616 -0.27950199684692495
620000000.0 -0.03531110043605606 -0.36330089583577646
640000000.0 0.2997771030640392 -0.19163180800675883
660000000.0 0.342057169546629 0.04847348197894354
680000000.0 -0.21158457186026564 -0.27023999925905234
700000000.0 -0.35060879794315675 -0.1190796007268999
720000000.0 0.30185635661092736 -0.1889106327087405
740000000.0 0.3231987814729111 0.022488016692844417
760000000.0 0.0069943004302142 -0.31143002494578625
780000000.0 -0.005599140424801954 -0.30141113784542917
800000000.0 0.2645310299340371 -0.0008447691125110581
820000000.0 -0.2261937022760745 -0.028786380633065357
840000000.0 0.16464345119146465 -0.13602005133284295
860000000.0 0.05570780298441568 0.18972897034727745
880000000.0 -0.07971980346932454 -0.1802787786353619
900000000.0 0.13352786193518043 0.08738274580831508
920000000.0 -0.054394030289463866 -0.13187388085186008
940000000.0 0.06372148624817967 0.12460912884726225
960000000.0 0.10161405142687217 -0.027196887511384035
980000000.0 -0.060142830479762086 -0.02396193735109257
1000000000.0 0.024316774452598253 -0.024868203360841244
1020000000.0 -0.027835582813155988 -0.04286690209702425
1040000000.0 0.07637471461262813 0.03742101809029667
1060000000.0 0.11688239787713847 0.01324876332988611
1080000000.0 -0.15137785839452245 0.03476211872083281
1100000000.0 0.17988521073553285 0.006402299102182757
1120000000.0 0.05229496085935294 -0.21291912956750672
1140000000.0 -0.20131066737702538 -0.16099632890984425
1160000000.0 0.2799239338103777 -0.019340190944863313
1180000000.0 0.1978719662896731 0.2350599061818466
1200000000.0 -0.04339241116409717 0.3195302011786155
1220000000.0 -0.010017234827163797 0.33077288826163337
1240000000.0 -0.3188557225969883 0.0895943656757483
1260000000.0 -0.3366400508108578 -0.03181379323554028
1280000000.0 -0.31190123508040624 -0.14374711926317477
1300000000.0 0.2076901221667915 -0.28001646884954495
1320000000.0 0.34770359538779444 0.11111104168953839
1340000000.0 -0.26984595897857233 0.2554110918279558
1360000000.0 -0.16329222095169788 -0.34875202341371714
1380000000.0 0.21631662413291552 -0.3141746943375783
1400000000.0 -0.2464988203433656 -0.2859111311184669
1420000000.0 -0.21356207670642582 0.3077329332311129
1440000000.0 0.2640110573485673 0.2586445062268593
1460000000.0 0.2482295762260507 -0.2632720299797677
1480000000.0 -0.04325683989973099 -0.34375797073117814
1500000000.0 -0.12333825338460061 0.3127347851570676
1520000000.0 0.01758295348641535 -0.30946576343287574
1540000000.0 -0.26888165537068087 -0.049584689022635096
1560000000.0 0.15658183532374098 0.18936250307206146
1580000000.0 -0.16843309892294006 -0.1278800330827185
1600000000.0 0.16511194906302773 0.07469815682202985
1620000000.0 -0.13036657063377022 -0.09204969025357068
1640000000.0 -0.059749824340984165 -0.11758919574240384
1660000000.0 0.08828986852431049 0.06519405414577174
1680000000.0 -0.04488245765106796 0.07767978416592342
1700000000.0 0.061174339625862315 0.03977191613303287
1720000000.0 0.05063806109860366 0.009367005420306225
1740000000.0 0.04382076161948655 0.029815042290784646
1760000000.0 -0.05617291404691337 -0.022539579016211016
1780000000.0 0.01200940882905283 -0.09482825811632009
1800000000.0 0.03045855040693905 0.11958709664530826
1820000000.0 -0.03390739925044366 0.15338120820727458
1840000000.0 -0.09143030293461492 0.17029277300847132
1860000000.0 0.1354362331364376 0.17045936076363008
1880000000.0 0.037312883804023936 0.23671572678929775
1900000000.0 0.267348753278103 0.00706296624261001
1920000000.0 -0.287055566914095 -0.025819436098411915
1940000000.0 -0.05020837838590764 0.29328589854293924
1960000000.0 -0.3137568798227384 -0.018149695210630746
1980000000.0 -0.0959426721755298 -0.3001291331463876
2000000000.0 0.3108401428945224 0.021136240108927715
2020000000.0 0.19814577647317022 0.24717229739843005
2040000000.0 0.142413830767267 0.28047850246891826
2060000000.0 -0.14320321253129736 0.27294340681291046
2080000000.0 -0.24596922930443957 -0.18958522204782727
2100000000.0 0.3054005353972485 0.04350987856024289
2120000000.0 -0.2951404470199199 0.08777951764537444
2140000000.0 0.2037014511119297 -0.2213251894276194
2160000000.0 -0.22192455039924633 0.199647674258009
2180000000.0 0.052065135611644664 0.28566216130477085
2200000000.0 0.24493852142712644 0.1417272666789195
2220000000.0 0.25316222989999226 0.10375357858382711
2240000000.0 0.007374494470932528 0.2705333641529138
2260000000.0 -0.13325286357938854 0.22166628320781806
2280000000.0 -0.1316784832905054 -0.21147743158651724
2300000000.0 0.2380022815636162 -0.027693718485875332
2320000000.0 -0.1678853625852305 0.15788086892304118
2340000000.0 0.21299333022310923 -0.057484640252609256
2360000000.0 -0.16237055227959965 0.1550798017115628
2380000000.0 0.1783259067096523 -0.1460297513191719
2400000000.0 -0.15815710354687385 0.18786850935694155
2420000000.0 0.08297977947866342 0.26078303906350647
2440000000.0 0.17323847139759518 -0.24827367583909915
2460000000.0 -0.13489592323374183 0.3090139588470814
2480000000.0 0.3607467935215629 -0.08259526384790349
2500000000.0 0.13343546292250738 0.3871582038523659
2520000000.0 -0.43846245590279637 -0.07508503420907803
2540000000.0 0.08653495473741361 -0.47480715102425286
2560000000.0 0.2598872989746295 0.44702213714412664
2580000000.0 -0.5250960907367684 -0.15893450711192983
2600000000.0 0.5256831232333586 -0.23914597781197744
2620000000.0 -0.34967491894237646 0.48993325245909797
2640000000.0 -0.08946226863107926 -0.6145656377778154
2660000000.0 0.5602353692623352 0.3030776024911153
2680000000.0 -0.41509767175930073 0.49874909085680935
2700000000.0 -0.6323746442011896 -0.18366824188957814
2720000000.0 -0.35610019521318365 -0.5621517312721362
2740000000.0 -0.20720829802180332 -0.6372448353096588
2760000000.0 -0.13341739324077517 -0.6568631902958062
2780000000.0 0.6660837444588866 0.00824022462812162
2800000000.0 0.629395611104831 0.19112467116825732
2820000000.0 0.2536151625843976 0.5940389900198008
2840000000.0 -0.5592872679514571 0.29772945447915905
2860000000.0 0.17338536317441544 -0.5958014226700677
2880000000.0 -0.26942931476108356 0.5401207711142747
2900000000.0 0.5726485766958577 -0.12202143909144665
2920000000.0 -0.405774538505065 -0.39471649940176406
2940000000.0 -0.4695270600170267 0.2655366682482063
2960000000.0 -0.10193241775211283 0.508761029210414
2980000000.0 0.4430262555104875 0.2182206322234414
3000000000.0 0.2931960281291394 -0.36921735139102896
3020000000.0 -0.39398855496631285 -0.21382033486837007
3040000000.0 0.34630796220613136 0.24493685333939366
3060000000.0 -0.15561129584527122 -0.36427144448277265
3080000000.0 -0.11978542743993148 0.3515878109634274
3100000000.0 0.010621658956667036 -0.35134646165422867
3120000000.0 -0.023674704017686128 -0.33688904867651664
3140000000.0 -0.057165578177442986 0.32764295152276535
3160000000.0 0.0035778262427557986 -0.3270307350965507
3180000000.0 -0.005743886985737718 0.322697324795676
3200000000.0 0.08565193663069878 -0.3064234031475219
3220000000.0 -0.3035366978003437 0.0371551707575223
3240000000.0 -0.24658298781664287 0.15995212316069665
3260000000.0 -0.1925274538636758 0.20095170043552454
3280000000.0 -0.17746326272903717 -0.1935530353153018
3300000000.0 0.18985592049157224 -0.15817572131560367
3320000000.0 0.010109509164567933 0.22681376077913062
3340000000.0 -0.20978212298045515 -0.009596875094924729
3360000000.0 -0.0715278558174657 -0.1680120581862439
3380000000.0 -0.14827704892308147 -0.04337551349631923
3400000000.0 -0.07446322137333847 0.10723042550257765
3420000000.0 -0.08903383293734143 -0.07933290469406333
3440000000.0 0.108651099682704 0.003559293605088125
3460000000.0 0.02806522924722878 0.0972607708837251
3480000000.0 -0.06391733586769706 -0.062278802494185034
3500000000.0 -0.023841770937683242 0.0762229942487953
3520000000.0 0.005262127875305855 0.06988050497329984
3540000000.0 -0.0573822430533207 -0.03437665874694973
3560000000.0 0.06251386352230133 -0.03165675768554457
3580000000.0 0.04981285143073418 -0.058132738941837465
3600000000.0 0.05989494406725942 -0.06589637807010065
3620000000.0 0.0749461958229427 0.06767917644696804
3640000000.0 -0.00031946519744715856 0.10848913920610892
3660000000.0 0.01338540937961208 0.11152929734446193
3680000000.0 0.038904525698126434 -0.10388432421532272
3700000000.0 -0.034516867175311966 -0.09455228319517194
3720000000.0 0.07897819237946979 0.04578261458284535
3740000000.0 0.06421873273059882 -0.05158624777056567
3760000000.0 0.02516827719300871 -0.07261869379688692
3780000000.0 -0.03080948314186338 0.059569936789501156
3800000000.0 0.028704072208541855 -0.03455171867417012
3820000000.0 0.028920818471485935 0.031402001338915284
3840000000.0 -0.04896849443509708 0.005600181027540083
3860000000.0 0.06259290013910389 0.04229661792693987
3880000000.0 -0.06527333730573363 -0.06309139309291178
3900000000.0 0.005719999325979465 -0.10495753003340925
3920000000.0 -0.08742676895066012 0.06349598159186912
3940000000.0 0.10666764210840958 -0.018620120103835715
3960000000.0 -0.05722636964826267 -0.08813079492253044
3980000000.0 0.019462103889848786 0.09860784276529919
4000000000.0 0.0340943105203436 -0.08168195254016034
