!Created with skrf (http://scikit-rf.org).
# Hz S RI R 50.0 
!freq ReS11 ImS11
400000000.0 -0.7572313240315162 0.31830556263994814
420000000.0 0.4774308891834626 -0.5977238433385841
440000000.0 0.14541013751498438 -0.7240497220296176
460000000.0 0.23220094123182194 -0.6185712807590581
480000000.0 -0.48951310376614166 -0.23300922857733572
500000000.0 0.0023266133793900853 0.40485962726426933
520000000.0 -0.4044566148656271 0.18183340283239574
540000000.0 0.48135363205295184 0.016471865388327633
560000000.0 0.16312632318095746 -0.4447815108940856
580000000.0 0.4161306075429576 -0.11382159093337621
600000000.0 0.3214882677536409 0.19214616360037465
620000000.0 0.19602779600701062 -0.2828262835060658
640000000.0 -0.3427268554621419 0.11580563581414076
660000000.0 -0.16084783640022 -0.3283140423350085
680000000.0 0.17140166111797103 0.30579561921548165
700000000.0 -0.32135688047437067 0.08954269452168839
720000000.0 0.020518026057140332 0.35415292714482377
740000000.0 -0.20952382218012147 0.24427151557950105
760000000.0 -0.11569037019217161 -0.28775721948907745
780000000.0 -0.17540269528840408 -0.2402585309624978
800000000.0 -0.19326608599910863 -0.1754855539044845
820000000.0 0.1494933853420569 -0.15384549715089363
840000000.0 0.21124573797609358 0.05741254057637758
860000000.0 0.20041101478932377 0.014673038220599639
880000000.0 -0.14101833191907573 0.13183637672963738
900000000.0 0.0061565215580595654 0.16296941730714642
920000000.0 0.11912838956434384 -0.08827899116407331
940000000.0 -0.11846211491404171 0.06998711753207859
960000000.0 0.09419616170651786 0.055434694583060405
980000000.0 0.006699190551664842 -0.06706747609097259
1000000000.0 -0.02226523583005991 -0.028951726535424445
1020000000.0 0.03854845969717277 0.016625995596511813
1040000000.0 -0.07314905426944764 0.015835870563196144
1060000000.0 0.06493681827333053 0.09990146438893896
1080000000.0 0.025894355453290864 -0.15411871988832823
1100000000.0 0.11739057942295153 0.13527799901334162
1120000000.0 -0.12727408449638047 0.1645889306516213
1140000000.0 0.2427642302424188 0.0027212906838628287
1160000000.0 0.17814211968256968 0.21889342314179325
1180000000.0 0.133263438179822 -0.27069738581594094
1200000000.0 0.1988476993564672 0.24163513864075228
1220000000.0 0.20854353963260608 0.24979750165711853
1240000000.0 -0.13840345902210588 0.3021512297607693
1260000000.0 -0.02748337941030928 0.3339059941575551
1280000000.0 -0.33655554205712146 -0.04164090797588038
1300000000.0 0.0683652352278442 -0.346712735694782
1320000000.0 0.15333681349195086 -0.3297495020382969
1340000000.0 -0.3346560200363805 0.16760416974181006
1360000000.0 -0.3482280745958531 -0.16944393247840123
1380000000.0 0.3627555710498077 -0.11352019438471785
1400000000.0 -0.12317606864432781 -0.36117064002225446
1420000000.0 -0.10205061535100168 0.3669963796459892
1440000000.0 0.34023088927364903 0.14076529779958727
1460000000.0 0.3100608957825033 -0.18299703705120224
1480000000.0 -0.04124635266908088 -0.3473786417704949
1500000000.0 -0.16031362930283397 0.2934263161854583
1520000000.0 0.18924457207939752 -0.249439617452328
1540000000.0 -0.1032160626193239 0.25550575474855286
1560000000.0 0.23899590971720108 0.04579106482885596
1580000000.0 -0.14195648656363902 -0.1573344994834126
1600000000.0 0.03487120556776236 0.17596020703647025
1620000000.0 -0.09931015061172638 -0.13389833767555784
1640000000.0 -0.1321719922243576 -0.05074002740791574
1660000000.0 -0.005275974425304175 -0.10951352297365687
1680000000.0 0.08411897789171108 0.016232443062242318
1700000000.0 -0.011563169152318925 -0.07827867374836125
1720000000.0 0.04149410584446732 -0.04382438798520534
1740000000.0 0.052906051208133666 -0.00299375108126461
1760000000.0 -0.027399308436087472 -0.0653516600295633
1780000000.0 -0.06448052664534562 -0.06920449376551716
1800000000.0 -0.1157785564121414 0.05538645569858095
1820000000.0 -0.02377866884289554 0.1613764533207606
1840000000.0 0.005384631323739141 0.19469243142048623
1860000000.0 0.08552742343312451 0.2020108632212738
1880000000.0 -0.10657401596168037 0.21631422160460365
1900000000.0 0.2237933957265671 0.14857453653348138
1920000000.0 -0.18090685448818908 -0.22402266284861858
1940000000.0 0.16585482603011373 0.2507517986734902
1960000000.0 -0.2968595039023272 0.08470788678044591
1980000000.0 -0.0017818918764565344 -0.31051909796337346
2000000000.0 0.31213609599154674 0.010440308512244685
2020000000.0 0.31601212630209685 -0.018566269333446867
2040000000.0 0.22941781913940576 0.212951969168885
2060000000.0 0.014528404501299918 0.3102491565648859
2080000000.0 -0.2788742122548071 0.131258111438138
2100000000.0 0.20619125958603227 0.22940460428021517
2120000000.0 -0.3062341536311295 0.030400342478417233
2140000000.0 0.2241959768816329 -0.20174365631498004
2160000000.0 -0.27584782305643857 0.10057247228425792
2180000000.0 0.09226914132790998 0.2686254488587639
2200000000.0 0.22337455652198895 0.16823145457132443
2220000000.0 0.2681104663000179 -0.033362365109670875
2240000000.0 0.16852021975856962 0.2034152670333575
2260000000.0 0.008858470342788891 0.252943777485204
2280000000.0 -0.23351832142079307 0.05895216855781361
2300000000.0 0.18748527631557285 -0.13225443047327343
2320000000.0 -0.0329980216386124 0.22725343443973267
2340000000.0 -0.1127484456180265 -0.18580828010525444
2360000000.0 -0.13795175215467262 0.1692257940813362
2380000000.0 0.17981647908872464 -0.13510524954512115
2400000000.0 -0.10645318370274813 0.21716543787336817
2420000000.0 0.1785963720433694 0.19968285576273356
2440000000.0 0.036397126232142724 -0.29321036447287646
2460000000.0 -0.051217276812901634 0.32496827697730957
2480000000.0 0.312221848209291 -0.1847233279397349
2500000000.0 0.21556913071647918 0.3402460136276378
2520000000.0 -0.4046383086759457 0.16753597386866
2540000000.0 -0.13909235579174736 -0.45243534079897413
2560000000.0 0.43250941814907296 0.26846143095180736
2580000000.0 -0.5338822399371022 0.09105576807450161
2600000000.0 0.3698957539982024 -0.4359695419881989
2620000000.0 0.0004461473419554051 0.5972549723399616
2640000000.0 -0.37649489077915993 -0.4888708773552343
2660000000.0 0.6344158933771145 0.020561852048712626
2680000000.0 -0.27542402566268065 0.586051403729865
2700000000.0 -0.6495247320753403 -0.10397108744491199
2720000000.0 -0.45573456044514404 -0.48468383175422325
2740000000.0 -0.3686760281807308 -0.5586076201261208
2760000000.0 -0.22580829155915355 -0.6322316283612862
2780000000.0 0.6663209043493025 0.0057187363691302935
2800000000.0 0.6131708956679781 0.24053741092151024
2820000000.0 0.3086256379349411 0.5693832957680922
2840000000.0 -0.5194860747720211 0.3617705551065699
2860000000.0 0.25526780062197746 -0.5654611442317413
2880000000.0 -0.21278319453390807 0.5670206863572406
2900000000.0 0.5187560826823981 -0.2787442365101776
2920000000.0 -0.4725393276216561 -0.3150919613060816
2940000000.0 -0.40983936438522645 0.353342128980868
2960000000.0 -0.06208609089116027 0.5143254367820846
2980000000.0 0.4377231982640507 0.23812408715023173
3000000000.0 0.2288657114195048 -0.4140830753799296
3020000000.0 -0.41969688338007366 -0.1641725267703543
3040000000.0 0.354866397737393 0.22678816515596706
3060000000.0 0.051781062932278674 -0.38891370156367516
3080000000.0 -0.09739376721454089 0.35598661513424606
3100000000.0 0.016573320525273643 -0.3492919065518013
3120000000.0 -0.2672300801460807 -0.20295737308386033
3140000000.0 0.18814492174255001 0.2704110487498536
3160000000.0 -0.2197846355986023 -0.23804972488181006
3180000000.0 0.06474345186091793 0.3149088045908137
3200000000.0 -0.013575750378835178 -0.3170782834313076
3220000000.0 -0.2853673176554699 0.11346066422403064
3240000000.0 -0.17367477724506525 0.2373076559573251
3260000000.0 -0.25151273654345097 0.1116976165227348
3280000000.0 -0.14722949530442467 -0.21658986371567612
3300000000.0 0.23610307107012887 -0.06387138572781512
3320000000.0 0.0212883615544159 0.22685818477033579
3340000000.0 -0.15442214875388008 0.13563531804692192
3360000000.0 0.11587568117297671 -0.13484031570329089
3380000000.0 -0.12158480529950898 0.09111213316146884
3400000000.0 -0.05241335629055942 0.11422250700887879
3420000000.0 -0.10552878553096179 -0.042418633753005176
3440000000.0 0.10133143898508161 0.034355684881446906
3460000000.0 0.09425395665734382 0.026703062814610438
3480000000.0 -0.08698487375966768 -0.018162348942116383
3500000000.0 0.01702308911446183 -0.07458339966744096
3520000000.0 0.040080537931886824 0.052342218954247954
3540000000.0 0.05935572899416284 0.03344691503022703
3560000000.0 -0.06470275604527985 -0.014875265663481442
3580000000.0 -0.07500368286464541 -0.0046335127450085846
3600000000.0 0.001936908741892805 -0.08817552370237665
3620000000.0 -0.02348804807585427 -0.10014214744147112
3640000000.0 -0.020745781634608565 -0.10366726830786499
3660000000.0 -0.06638081756091462 -0.09293387193353618
3680000000.0 -0.10697943725426567 0.01861865800905794
3700000000.0 -0.08827728114501505 -0.05771909927155797
3720000000.0 -0.030032537983531383 -0.0896728392650749
3740000000.0 -0.024998592039657073 -0.07801000015230398
3760000000.0 -0.01437924118586841 -0.07548543045300979
3780000000.0 -0.04666012487812097 -0.044497858257212655
3800000000.0 0.045356905036752715 -0.004000318772659235
3820000000.0 -0.007085672056382734 0.037638999062079195
3840000000.0 -0.017582421457706644 -0.05017054358494139
3860000000.0 0.05829677112698469 -0.05113041454384965
3880000000.0 -0.06429474726450624 0.07069291388693426
3900000000.0 -0.02869291713104362 -0.10042541528055988
3920000000.0 0.01803066664085718 0.1057216595411068
3940000000.0 0.08547875345225406 -0.06758576128652669
3960000000.0 -0.08179557034921636 0.06478387593764043
3980000000.0 0.09346395786267402 -0.019334380677594208
4000000000.0 0.08197954735923556 0.024421669162510897
