!Created with skrf (http://scikit-rf.org).
# Hz S RI R 50.0 
!freq ReS11 ImS11
400000000.0 -0.7052654146828453 0.4155141735424409
420000000.0 0.5748225778539465 -0.5052447636365855
440000000.0 0.2014413136470135 -0.7114220719267512
460000000.0 0.3838424280271994 -0.5431792526213237
480000000.0 -0.5382096852606201 -0.07414245709223322
500000000.0 0.07008972726266373 0.39914439184387646
520000000.0 -0.4357840611834972 -0.008055371449213047
540000000.0 0.4474282406353731 -0.17908491025378656
560000000.0 0.28850631169243257 -0.3697173393034449
580000000.0 0.346936231471949 0.2535975043500816
600000000.0 0.28766120887159324 0.24970363633639384
620000000.0 0.006403652750687123 -0.3470315904407999
640000000.0 -0.1312806271496844 0.3370986076629033
660000000.0 -0.34628539044440787 -0.08918163037366854
680000000.0 -0.1126924026198289 0.32768799471045984
700000000.0 -0.32747271817480067 -0.08951766996580428
720000000.0 0.02198777230301545 0.3519790111682989
740000000.0 -0.22698398712595216 0.23797482753417806
760000000.0 -0.303568690790711 -0.07215340401485074
780000000.0 -0.23326933267330202 -0.17860456918792644
800000000.0 -0.1983621177083741 -0.15738436617514054
820000000.0 0.04924586564729925 0.2118950105940761
840000000.0 0.1924992695678975 -0.10624287623533857
860000000.0 0.1534664860204658 0.13215306135035496
880000000.0 -0.18366779772342876 -0.05793881051754955
900000000.0 0.006054300186448977 0.16223349104758863
920000000.0 0.14839420703701012 0.009899145016657658
940000000.0 -0.11348193290645898 0.08167101291180108
960000000.0 0.09560171538334904 -0.053514313517582526
980000000.0 -0.060978709602887496 -0.0062655218990030955
1000000000.0 -0.033659870121746614 -0.012661604455187376
1020000000.0 -0.033358044264784184 0.02333916190174901
1040000000.0 -0.031224155418262 -0.07146202901608648
1060000000.0 0.0755577088360701 0.09769878965890347
1080000000.0 0.02146808333453346 -0.15508091353874817
1100000000.0 0.1779023880835602 -0.01457038071815223
1120000000.0 -0.1430342913601666 0.1482471230603264
1140000000.0 0.23514523240231977 0.05909263459691016
1160000000.0 0.1027627666582336 0.26511497275827167
1180000000.0 0.2424328961222407 -0.17947042211926273
1200000000.0 0.28955767521356857 0.12476399513499666
1220000000.0 0.29329090289208776 0.1347668597065626
1240000000.0 -0.16482847581818968 0.284069346255226
1260000000.0 -0.27682913671238707 0.19310726198760014
1280000000.0 -0.30476762745008706 0.15424942767169755
1300000000.0 0.04597659937732757 -0.34994497162842947
1320000000.0 0.09683977638574848 -0.3501466498434732
1340000000.0 -0.3503120937301413 0.1297134173272085
1360000000.0 -0.317902465475627 -0.22412484069419844
1380000000.0 0.3800931256782383 -0.03167463448297908
1400000000.0 -0.2351471343538156 -0.29865004817353524
1420000000.0 -0.03677585425356709 0.3772818002020663
1440000000.0 0.3228086408506669 0.17738337607074695
1460000000.0 0.29050232981915375 -0.21219617187355716
1480000000.0 0.057099158803873076 -0.3455692598615874
1500000000.0 -0.15933344345805941 0.2941025152319256
1520000000.0 0.10919453559796881 -0.2935181965363748
1540000000.0 -0.07857221856646796 0.26361824845203435
1560000000.0 0.2189392906814932 0.1040518960810015
1580000000.0 -0.06478939228543289 -0.20381684946064355
1600000000.0 0.030025591958538926 0.1800234321333372
1620000000.0 -0.13829437210273826 -0.09261677583101524
1640000000.0 -0.13405142495830966 -0.04184280739538559
1660000000.0 0.09440048557099616 -0.05539605822085883
1680000000.0 0.009478520412320399 0.08719480258916786
1700000000.0 -0.0802915360724557 0.005623816082865874
1720000000.0 -0.015396743647786953 -0.05489286304782167
1740000000.0 -0.012354869634434931 0.05147360679684637
1760000000.0 0.0064335119728056046 -0.07140928853707422
1780000000.0 -0.047896929470425544 0.07948581160429401
1800000000.0 -0.12273998388420077 -0.03259976062199502
1820000000.0 0.0033236597686448987 0.16346265687870942
1840000000.0 0.0445685218420171 0.1890569128368411
1860000000.0 0.006497832456355022 0.21803408226433776
1880000000.0 -0.1178554028175715 0.21094495739830457
1900000000.0 0.26129902208669215 0.06633553099950491
1920000000.0 -0.21121331524384607 -0.19452531234610862
1940000000.0 0.11758267342301905 0.27590654895067757
1960000000.0 -0.3101187462282616 0.004794870194435482
1980000000.0 -0.018601005053396156 -0.3111029124808317
2000000000.0 0.30873403714270053 -0.046976574318451765
2020000000.0 0.3152600712887145 -0.010899070415482116
2040000000.0 0.21973152432339904 0.22250516833576456
2060000000.0 -0.05953631456899046 0.3039187801362478
2080000000.0 -0.2818277432118082 0.12852298443849397
2100000000.0 0.24606995524917089 0.1845009347533221
2120000000.0 -0.30133029120999383 0.061799662400834246
2140000000.0 0.17508526725962734 -0.24536526896361247
2160000000.0 -0.2142318699615959 0.2017195630627857
2180000000.0 0.10398088319303002 0.26333089842674345
2200000000.0 0.15276604679564765 0.23442091780420823
2220000000.0 0.2676314175745511 -0.05254405870736041
2240000000.0 0.2541973400215408 0.07934585961168035
2260000000.0 0.0022054642154890796 0.25166770826971663
2280000000.0 -0.23936393999231487 -0.019098026212312918
2300000000.0 0.2238713075561019 -0.05385424428005331
2320000000.0 -0.08821938503172679 0.21233111638060398
2340000000.0 -0.1550007208602687 -0.15338397465777576
2360000000.0 -0.05874058088266593 0.20721521010688337
2380000000.0 0.19426499503418576 -0.10984584208304614
2400000000.0 -0.12856375645981374 0.20443979333301304
2420000000.0 0.1245774234028666 0.23786385086189468
2440000000.0 -0.027371529327585156 -0.29393845339125857
2460000000.0 0.05517829162227131 0.3239768860081821
2480000000.0 0.26734623310652395 -0.24287410060736286
2500000000.0 0.22254333545255667 0.3354286744122477
2520000000.0 -0.3978649956410439 0.1867734004760912
2540000000.0 -0.1611998546934412 -0.4461566814683522
2560000000.0 0.4300239551417918 0.2739694539911929
2580000000.0 -0.5353662833692635 0.08253800343044486
2600000000.0 0.36340013954971384 -0.4402203302439712
2620000000.0 -0.03872785528235572 0.5953202774596245
2640000000.0 -0.32807523810481604 -0.5224729407196823
2660000000.0 0.6335336657113126 0.033686565469990146
2680000000.0 -0.1460824343848275 0.6300760087980825
2700000000.0 -0.6553214202927152 -0.05885231722052053
2720000000.0 -0.4336050353759893 -0.5048257202588756
2740000000.0 -0.38976495409590617 -0.5448422108255602
2760000000.0 -0.21320566800123888 -0.6365076712303734
2780000000.0 0.6667643981069862 -0.0033377849935421863
2800000000.0 0.599311458069762 0.2741341208826413
2820000000.0 0.30795936970291227 0.5703198880208378
2840000000.0 -0.528095555874071 0.3504619757591958
2860000000.0 0.23379518932785667 -0.5753764420425233
2880000000.0 -0.23770956549095354 0.557040563316046
2900000000.0 0.5252421082161132 -0.2669249967254032
2920000000.0 -0.4875375717003157 -0.2908466276329832
2940000000.0 -0.40083895088783644 0.3624624243286115
2960000000.0 -0.03873787628459208 0.5176013399232953
2980000000.0 0.44002147536487657 0.23419982374955767
3000000000.0 0.11794037286491715 -0.4597144428969748
3020000000.0 -0.4382185132941526 -0.10202347943443209
3040000000.0 0.3909812461802182 0.1576828858103578
3060000000.0 0.013502959329838625 -0.39168499045352345
3080000000.0 -0.13409996410435243 0.3446749452626915
3100000000.0 -0.02714223569382915 -0.3488927899331959
3120000000.0 -0.25979440549091487 -0.21094417955556902
3140000000.0 0.17690559748941337 0.2766444540679639
3160000000.0 -0.22841205676479306 -0.23013443916445336
3180000000.0 0.06933403805363511 0.31439994581534997
3200000000.0 -0.044563569559896425 -0.3141181204484655
3220000000.0 -0.281430076869736 0.12250288922275157
3240000000.0 -0.17126535665621676 0.23933609486553287
3260000000.0 -0.2358703595413386 0.14150743872431554
3280000000.0 -0.1301882268215457 -0.22715903673492474
3300000000.0 0.21574549538833313 -0.11255740051175846
3320000000.0 0.0018403867431813496 0.22719931555525982
3340000000.0 -0.20157390763824654 0.04229662268890142
3360000000.0 0.12108351900480656 -0.13189999654998777
3380000000.0 -0.11303653021623505 0.10133337686620454
3400000000.0 -0.1066499953709192 0.06569495310420997
3420000000.0 0.016997663929332593 -0.11262663450074759
3440000000.0 0.10604749088060898 0.017803310587116046
3460000000.0 0.09181625307685777 0.02978783220710286
3480000000.0 -0.08592375551212253 0.01984398580632902
3500000000.0 0.021824803125895974 -0.07319179938083077
3520000000.0 0.06682612381524833 -0.0033737708855528814
3540000000.0 0.06635081024536973 0.01601737024438172
3560000000.0 -0.055131562391547026 0.03878054203474094
3580000000.0 -0.07325731657027519 0.015753906815001315
3600000000.0 -0.056721303672346624 -0.06757082212683004
3620000000.0 0.002957733287020048 -0.10346816347434962
3640000000.0 -0.030522045518014206 -0.10353421790935423
3660000000.0 -0.08384400557446685 -0.07630802708391184
3680000000.0 -0.0961395396015238 -0.05139124114655049
3700000000.0 -0.05863765510208438 -0.08774734626854593
3720000000.0 -0.028721874193186288 -0.09007140675757673
3740000000.0 -0.035314421619206615 -0.07301076914855537
3760000000.0 0.06297238134929588 -0.04257865094748709
3780000000.0 -0.026916093969639825 -0.05786926598542158
3800000000.0 0.008979984935237198 0.043505105313863666
3820000000.0 -0.02897045989917746 0.02331551725392909
3840000000.0 0.052096477301299786 -0.012697072821306936
3860000000.0 0.07085373650753168 -0.030892902426117145
3880000000.0 -0.06698858852475528 0.0678606037069117
3900000000.0 -0.04773643552567613 -0.09173796784288321
3920000000.0 0.008014532084613151 0.10635432556352367
3940000000.0 0.08254121664824007 -0.06998563313411564
3960000000.0 -0.10187176262528418 0.01962827562965795
3980000000.0 0.08768971244038579 -0.03736046508283069
4000000000.0 0.030414256429855603 -0.07909912817586176
