!Created with skrf (http://scikit-rf.org).
# Hz S RI R 50.0 
!freq ReS11 ImS11
400000000.0 -0.7550339747224009 0.3130255378379669
420000000.0 0.6563019131482283 -0.3994463073556963
440000000.0 0.04437610648419614 -0.7415900436945425
460000000.0 1.659630581731693e-05 -0.659946179699557
480000000.0 -0.3918419165213232 -0.3779187826270184
500000000.0 0.4080223077060959 -4.0356498473962205e-05
520000000.0 -0.21617786703859743 -0.37378711965316774
540000000.0 0.33927899792761546 0.3447829856867515
560000000.0 0.2735810385778616 -0.39782067704922874
580000000.0 0.322491467687046 -0.28902115505293907
600000000.0 0.37046858512565156 0.03675999642205821
620000000.0 0.2903037045309992 -0.18495539941296607
640000000.0 -0.32136084347300375 0.16472150740302
660000000.0 -0.12321844543966522 -0.3445750343054709
680000000.0 0.3191140391863038 0.1423865226366825
700000000.0 -0.32847879526403156 -0.06202878942588154
720000000.0 -0.35124324581239447 0.003702852172887968
740000000.0 -0.01727820825261081 0.33695195646228304
760000000.0 -0.0807809985821271 0.3010191774260797
780000000.0 -0.28023283764523454 -0.06579670225670543
800000000.0 -0.013230393784759448 -0.24837394584827682
820000000.0 -0.1837667675383962 0.12012310554547995
840000000.0 0.22574703710784874 -0.020523462395920542
860000000.0 0.0754307984782871 -0.1927080579749396
880000000.0 0.04966860376165238 0.18307517617989688
900000000.0 -0.006442913222849222 0.1538046336346861
920000000.0 -0.1322132291000736 0.06507002969012454
940000000.0 -0.14471961794286417 0.0037861695890413576
960000000.0 0.11290639655581682 -0.0012982181686281076
980000000.0 -0.023856447569044394 -0.06115847667609051
1000000000.0 -0.032132806163694724 -0.01760062302096843
1020000000.0 -0.04008643847101816 -0.012682297470050816
1040000000.0 -0.02106649525478537 0.0717827259188992
1060000000.0 0.0023486116516136914 0.11876822716743318
1080000000.0 0.0997121448410778 -0.12052532272160091
1100000000.0 0.13798714847780322 -0.12041641459882495
1120000000.0 -0.18541001564578977 0.0867771559231273
1140000000.0 0.1960912560755558 0.14554730386175405
1160000000.0 0.13718160365984342 0.24891833474514488
1180000000.0 0.15948022202246362 -0.25570797184828714
1200000000.0 0.21362737298101378 0.23063213644959263
1220000000.0 0.23687809654545228 0.219787730321697
1240000000.0 -0.19093227569445184 0.268191957520142
1260000000.0 -0.19521896624121474 0.2752106687432758
1280000000.0 -0.31899430694434017 0.11913661271543724
1300000000.0 -0.030835611341262188 -0.3501871578678603
1320000000.0 0.1740293597274735 -0.31849212663485715
1340000000.0 -0.2938021010800785 0.2349817824081524
1360000000.0 -0.37469403566279574 -0.09832093893385203
1380000000.0 0.3671489299379193 -0.10761650230584528
1400000000.0 -0.22417263697650308 -0.30803072538204446
1420000000.0 -0.13300072114063632 0.3551370642006004
1440000000.0 0.2860788850598428 0.23236188062444446
1460000000.0 0.2885543049283743 -0.21832095926905828
1480000000.0 0.06716055696898587 -0.34207152689621473
1500000000.0 -0.16788400064249306 0.2867623962959982
1520000000.0 0.13386628052321137 -0.28249526168474015
1540000000.0 -0.1803457719755911 0.20788613581439133
1560000000.0 0.23886007616807528 0.041554262499297605
1580000000.0 -0.10435830226714612 -0.1875167609394334
1600000000.0 0.15957048046155842 0.08567206291291612
1620000000.0 -0.12860094431338467 -0.10036881855596738
1640000000.0 0.04764817181102009 -0.1344765559706105
1660000000.0 0.0626918222915798 -0.09134880741665395
1680000000.0 0.07527050309883887 -0.046077952434415884
1700000000.0 -0.07460560092481881 -0.020446820097778488
1720000000.0 0.04436045490652748 0.03844178345751795
1740000000.0 -0.037817856219219764 0.037792986431310335
1760000000.0 0.03892664440842539 -0.060671634469408785
1780000000.0 -0.07946260502622986 0.04584360078135129
1800000000.0 -0.11831816795611015 0.04512663156413889
1820000000.0 -0.1335617273248998 0.08829881002922951
1840000000.0 -0.048496022675230614 0.18909672916259343
1860000000.0 0.12706013592250082 0.17894586546861305
1880000000.0 0.029312962715703005 0.23964460994027312
1900000000.0 0.2644060127145702 0.031208231813870755
1920000000.0 -0.1477985544783406 -0.24595334986984127
1940000000.0 0.13417228321682723 0.2693685932996284
1960000000.0 -0.3082808415507743 -0.03473259789129105
1980000000.0 -0.028025068176984944 -0.31175141933076367
2000000000.0 0.29274982857396914 -0.10711313123434296
2020000000.0 0.3031101201022207 0.081152552868319
2040000000.0 0.21326806036232807 0.22838766493482404
2060000000.0 -0.02496336501776642 0.30889552588258656
2080000000.0 -0.26003610337294175 0.16559370139051308
2100000000.0 0.2177241237201839 0.2163718787677051
2120000000.0 -0.3075992649480829 0.02637855392689346
2140000000.0 0.14474135740703342 -0.2657141333824478
2160000000.0 -0.12940356099112482 0.26274718239039435
2180000000.0 0.0947644782625925 0.2650561161548758
2200000000.0 0.1445591806960111 0.24129805843890573
2220000000.0 0.2653703895143406 -0.05800375866185424
2240000000.0 0.18530129597799921 0.19206262046758482
2260000000.0 0.06859886695761143 0.24325630004036847
2280000000.0 -0.23552604156413803 0.0406581657269322
2300000000.0 0.22906908296986236 -0.010395132292531096
2320000000.0 -0.06844691103369417 0.2203073576473574
2340000000.0 -0.12830167334264003 -0.1749512306173927
2360000000.0 -0.11389849510240332 0.18470824180165518
2380000000.0 0.1865964131965863 -0.12326480364321139
2400000000.0 -0.05514545877512791 0.2353998408926079
2420000000.0 0.20471647763052137 0.17103117714045518
2440000000.0 -0.009284049226991014 -0.29430258447841195
2460000000.0 -0.0464313651677184 0.3275064632648984
2480000000.0 0.18702772903417933 -0.31198125896524503
2500000000.0 0.24169220660037033 0.3205313149148184
2520000000.0 -0.40700032955203413 0.16288631173343807
2540000000.0 -0.13689927142830816 -0.4538167440104585
2560000000.0 0.43131625997045653 0.27203780091297375
2580000000.0 -0.5363916001735425 0.07540922763400151
2600000000.0 0.37404005383325467 -0.43204020718116365
2620000000.0 -0.04440331862580791 0.5954891905499407
2640000000.0 -0.3407951470179518 -0.5138080131156738
2660000000.0 0.6311298163671575 0.06839191572198187
2680000000.0 -0.13412349925622413 0.6326886612689271
2700000000.0 -0.6564574843596004 0.03325508330485736
2720000000.0 -0.5142962468246204 -0.4215279100640427
2740000000.0 -0.4428705663499659 -0.5026873710312063
2760000000.0 -0.17872787733393894 -0.6477332908189735
2780000000.0 0.6633465228167065 -0.0692068989356424
2800000000.0 0.6132939101965948 0.24227361596608024
2820000000.0 0.3200581878877276 0.563070881279551
2840000000.0 -0.5140936585471176 0.37032724344578505
2860000000.0 0.24417132955304038 -0.5700719725286497
2880000000.0 -0.22885201450166875 0.5603332683113101
2900000000.0 0.5389839599139753 -0.23763552881823669
2920000000.0 -0.48595973402943576 -0.2940924526426006
2940000000.0 -0.3939326755294257 0.3696140537296135
2960000000.0 -0.06045451654687652 0.5149846554259258
2980000000.0 0.4399560832045181 0.2383743278899686
3000000000.0 0.18899369910789474 -0.4346883029580196
3020000000.0 -0.41348098360109076 -0.17745631982208251
3040000000.0 0.3732797032082075 0.19638748173016188
3060000000.0 -0.027946965323023182 -0.3918822028211115
3080000000.0 -0.01788041611719679 0.36959699882769403
3100000000.0 0.023139682212456544 -0.3480288806091576
3120000000.0 -0.26503414975316864 -0.20371767303949517
3140000000.0 0.1961941518089077 0.265456230348214
3160000000.0 -0.24649859185309764 -0.21119605683110385
3180000000.0 0.08844604548295386 0.3102891278383385
3200000000.0 -0.06335865279840609 -0.3103872991292215
3220000000.0 -0.29760006900784486 0.07680953327540667
3240000000.0 -0.17880426758858248 0.2321598820352522
3260000000.0 -0.24374500559079182 0.12760285762450319
3280000000.0 -0.16723190197813403 -0.20206188143267118
3300000000.0 0.2126653753469761 -0.11988809903285683
3320000000.0 -0.00569808081884728 0.2251595692409122
3340000000.0 -0.20569978795609092 -0.020839598255304764
3360000000.0 0.13662232332922547 -0.11666190257021157
3380000000.0 -0.110635644318505 0.1035165000888956
3400000000.0 -0.08695660184580749 0.08964390571800683
3420000000.0 -0.0393798862706798 -0.10612152778018974
3440000000.0 0.0618751229156723 0.08741200873114101
3460000000.0 0.06857758620113073 0.06968624367395106
3480000000.0 -0.08456184410964468 -0.025987876546588438
3500000000.0 -0.061296861974396884 -0.045389548741339776
3520000000.0 0.0388098855465079 0.05217169656983597
3540000000.0 0.04182132383510559 0.05166026124028015
3560000000.0 -0.06725030425787597 0.009746281955459152
3580000000.0 -0.06747675565217241 0.03523228266254724
3600000000.0 -0.0719343133916707 -0.051779383588926996
3620000000.0 0.017013699246163208 -0.10214581539311093
3640000000.0 0.038738522377093486 -0.09959131222126184
3660000000.0 -0.031390819368210594 -0.11032375385404744
3680000000.0 -0.10254628767522382 0.03808645805500384
3700000000.0 -0.05938741555632937 -0.08714369455969878
3720000000.0 -0.04059456063945119 -0.0852953527256104
3740000000.0 -0.01867793936172458 -0.07967936428281322
3760000000.0 -0.005785320886083757 -0.07576627404286226
3780000000.0 -0.058996405056613556 -0.025187385732358857
3800000000.0 0.041219119703232984 0.01831916322276052
3820000000.0 0.019005955865337033 0.03091640526938389
3840000000.0 0.04306327040588034 -0.03211887640817618
3860000000.0 0.0568514323992068 -0.051736893096217804
3880000000.0 -0.0678167239686027 0.06474088064089012
3900000000.0 0.012977013309691691 -0.10260270932776554
3920000000.0 0.07084333248305205 0.07941108558962172
3940000000.0 0.04929954324191449 -0.09669208655398372
3960000000.0 -0.08644640810324544 0.058825356653610175
3980000000.0 0.06383311072970187 -0.07153222593813523
4000000000.0 0.0778634793862423 -0.037545544558084384
