!Created with skrf (http://scikit-rf.org).
# Hz S RI R 50.0 
!freq ReS11 ImS11
400000000.0 -0.2251347560324982 0.7574929714561921
420000000.0 0.29572386924616617 -0.6570296189180025
440000000.0 0.26637314527994466 -0.6159632232861486
460000000.0 -0.380366781955069 0.43683139341737093
480000000.0 -0.13234426260548235 -0.4697601533277393
500000000.0 -0.046055426845132065 -0.4001716223263696
520000000.0 -0.0761765567490608 0.42162310182257606
540000000.0 0.09291301867709087 -0.46214250125584777
560000000.0 -0.38566085165882524 -0.2239246917270736
580000000.0 0.4126311970051127 -0.030444772297366657
600000000.0 0.3205951759352768 0.17770168885071091
620000000.0 -0.2850753999390929 -0.17150308096483796
640000000.0 -0.344455734811704 -0.07186036685266914
660000000.0 0.3426639977388852 -0.07250811522296827
680000000.0 -0.33964641420052977 -0.09244733574371754
700000000.0 -0.35347399890557785 -0.04582696012892294
720000000.0 0.32952393486806686 0.18355382860228064
740000000.0 -0.1418796539559296 -0.31741998976417796
760000000.0 0.22369062579614904 -0.23900004779790213
780000000.0 -0.28124722454784373 -0.12884692830629452
800000000.0 0.15054337644350224 -0.2143350214362523
820000000.0 -0.21653086310835265 0.034330976121375964
840000000.0 -0.048450310823712234 0.2253849879091604
860000000.0 -0.04579512571492026 0.21527895284482543
880000000.0 -0.1724048865220039 0.09778938583818694
900000000.0 0.11176210916976115 0.13151979559184626
920000000.0 -0.08387492218953403 -0.13031632660914721
940000000.0 -0.12120213712812364 0.04293146758518363
960000000.0 0.02588152036592853 -0.09465833844431591
980000000.0 0.057217808124580334 -0.04172463884135835
1000000000.0 -0.016606515239102993 -0.0356711338405579
1020000000.0 0.015311050690767858 -0.021299740216165187
1040000000.0 -0.03348434225405899 0.049928272347071645
1060000000.0 0.006206409481361974 0.10672426562833359
1080000000.0 0.009240816947152156 -0.14733426212094167
1100000000.0 -0.13976998258497458 0.12139598280630672
1120000000.0 -0.2035162702869157 0.007679454386719313
1140000000.0 0.020841037677722284 0.23642002205742588
1160000000.0 -0.21422592330787124 0.18172792383270803
1180000000.0 0.30491623962061576 0.04215767174133884
1200000000.0 0.3111676631508844 0.0509215061567016
1220000000.0 0.023782514877831156 0.32362888505254284
1240000000.0 -0.29612616534785047 0.15456840463891716
1260000000.0 -0.31459005854053623 0.13453383296688834
1280000000.0 -0.3257150525596263 -0.10951215436672972
1300000000.0 0.2214188964349069 -0.2745197629727488
1320000000.0 0.3426079605254105 -0.12109890955988847
1340000000.0 -0.3052559377529571 0.21452449495719614
1360000000.0 -0.09509936565121199 -0.3737997015356045
1380000000.0 0.3776288020483335 0.04786915548861303
1400000000.0 -0.027696103737239183 -0.3796843792918137
1420000000.0 -0.12833187945476465 0.3600256473122991
1440000000.0 0.3442037082405742 -0.13655413750238046
1460000000.0 0.18118939410357576 -0.3096008806450926
1480000000.0 -0.1887429845427084 -0.2940798985144183
1500000000.0 0.031866520135312305 0.3397722944800073
1520000000.0 -0.20242884324645524 -0.24367980636622946
1540000000.0 0.26485422508427714 0.08378707470953929
1560000000.0 0.2315444745466903 -0.05747096453657393
1580000000.0 -0.0446647014215734 -0.21111938660104218
1600000000.0 0.18516037797409476 0.01824846579127933
1620000000.0 -0.09643136610402274 0.12850339837602898
1640000000.0 -0.10190995895114167 -0.08143354829242995
1660000000.0 -0.013752485468064719 0.09975895978828346
1680000000.0 -0.01623123264920233 0.08316586412652845
1700000000.0 0.0708848962849196 0.015409935154692722
1720000000.0 0.012410505304128832 -0.05598504092766266
1740000000.0 -0.04960872739884906 -0.020655443335962264
1760000000.0 -0.06640784549760201 -0.021260152704312807
1780000000.0 -0.0895721547899928 -0.02663873748458877
1800000000.0 0.09098521502756243 0.09172630153637819
1820000000.0 0.1529049818537437 -0.05739650885524674
1840000000.0 0.19098223790381227 -0.0025352904154164954
1860000000.0 0.20983080428863576 0.06280693937045768
1880000000.0 0.19085068858280868 0.15170790602339004
1900000000.0 0.10416387795561012 -0.24664144681749958
1920000000.0 -0.2825533714678321 -0.02360024388956145
1940000000.0 0.050111790753779195 0.294915926499365
1960000000.0 -0.3073649933512987 -0.04521792445646762
1980000000.0 0.08243693079536779 -0.30027395788417055
2000000000.0 0.3118491110780271 0.0032994253177809495
2020000000.0 0.21575062865150577 0.22665091453379546
2040000000.0 0.10834141312216544 0.29017856426441313
2060000000.0 -0.15050100197920485 0.268346043572244
2080000000.0 -0.278617285493657 0.13023233187151387
2100000000.0 0.23862243557393514 0.1902286052587925
2120000000.0 -0.30591089991816117 -0.028911218904673627
2140000000.0 -0.021369624248991366 -0.30399526114508624
2160000000.0 0.08974653023590064 0.28340198017448043
2180000000.0 0.28270455499886427 -0.03591846278073498
2200000000.0 0.22694219133317067 -0.16271769513644027
2220000000.0 0.09049639318329743 -0.2550821912923345
2240000000.0 0.26326095575523695 0.0035887929507907577
2260000000.0 0.24212335096504858 0.06210445888995761
2280000000.0 -0.13841353859858346 0.18855557605656556
2300000000.0 0.22031194177580388 -0.028096305500343192
2320000000.0 -0.1875836778090889 -0.12131688002436722
2340000000.0 0.20442710223950636 -0.06413814527032319
2360000000.0 -0.1940478433667894 -0.09198484184096004
2380000000.0 0.12581018361493665 0.18476300908721788
2400000000.0 -0.23699801011401014 -0.047160108806623156
2420000000.0 -0.01854606438763691 0.2698939584003839
2440000000.0 0.14018873709589194 -0.2626153704072041
2460000000.0 -0.0007491892120030476 0.3302117269968868
2480000000.0 0.13176269093828244 -0.3408137966716641
2500000000.0 0.39255670087865846 0.08911540684217382
2520000000.0 -0.24347736718339807 0.36507140244618475
2540000000.0 -0.26186438112682076 -0.3944642641050925
2560000000.0 0.490745568784052 0.13566929405143718
2580000000.0 -0.5235282136814303 0.13806733729078943
2600000000.0 0.2802562467299105 -0.4986807520270613
2620000000.0 -0.0030271236391307146 0.5960223672136234
2640000000.0 -0.3000491541297069 -0.5378691633213029
2660000000.0 0.6314287845248638 0.040759575582149786
2680000000.0 -0.29651184924874063 0.572664540062435
2700000000.0 -0.6528773793797524 -0.056291543008021624
2720000000.0 -0.5314433612324835 -0.39660850775596057
2740000000.0 -0.47033368534281206 -0.4744884499916204
2760000000.0 -0.36323509453321706 -0.5626494620899651
2780000000.0 0.6478874570579721 -0.14979199890190928
2800000000.0 0.6574094373274715 0.012808328399496388
2820000000.0 0.47357376425966485 0.4407334953850082
2840000000.0 -0.41626126326851026 0.47716375385579873
2860000000.0 0.027709218689656197 -0.6201012703305849
2880000000.0 -0.07881463278932323 0.599559908355189
2900000000.0 0.4505674902290556 -0.37805021218228735
2920000000.0 -0.5094763861334634 -0.24832501872889867
2940000000.0 -0.30624944681528554 0.44369230387076436
2960000000.0 0.0653906391678389 0.5112781930651086
2980000000.0 0.47511175538335276 0.13121067476159637
3000000000.0 0.14087557159790098 -0.44850509493627866
3020000000.0 -0.43567777706522237 0.07716175512544927
3040000000.0 0.4125331132589632 0.021554808410242245
3060000000.0 -0.13400977554343332 -0.3591591702656851
3080000000.0 -0.0658402882294763 0.3534937820244191
3100000000.0 0.07628562740341988 -0.33319643164331414
3120000000.0 -0.22135420428792787 -0.24327216553451694
3140000000.0 0.03642115484341256 0.32062088931149196
3160000000.0 -0.043765530100182685 -0.31815952233943157
3180000000.0 -0.1907400209508507 0.2561561548786207
3200000000.0 0.16906422672282514 -0.26858555113088484
3220000000.0 -0.3022165131987376 0.03327519828269427
3240000000.0 -0.28701295361315887 -0.0291136200122095
3260000000.0 -0.1916448903745008 -0.19354134711640475
3280000000.0 0.24556252387648986 -0.08441808974476427
3300000000.0 0.09389938350210456 0.22233098219534503
3320000000.0 -0.2222715270983293 -0.011660588248607532
3340000000.0 0.02878694769435953 -0.20282251954022606
3360000000.0 0.1548838855392449 0.08479356959316964
3380000000.0 0.04166970859847211 -0.14282730570313434
3400000000.0 0.08921171600928976 -0.0876896731498639
3420000000.0 0.05654758861322002 0.10394830586057266
3440000000.0 -0.00301034115894801 0.11191326164054433
3460000000.0 0.08140864973661689 0.058975719900570385
3480000000.0 0.07099294492130327 -0.05849690475064491
3500000000.0 0.07555396511581855 -0.025288893370173607
3520000000.0 0.011744203376860843 -0.06976344766222746
3540000000.0 -0.07509858648003993 0.0008295155124673675
3560000000.0 -0.07397025693709074 -0.012817245654177101
3580000000.0 -0.07915843181375408 -0.002187613112388924
3600000000.0 0.08091870472607342 -0.04367918289613521
3620000000.0 0.07759403321095724 0.07757558944412977
3640000000.0 -0.07402837969067881 -0.0876908720613654
3660000000.0 -0.07719775270433772 -0.09057485188402385
3680000000.0 -0.014769915879529177 0.11256425377458092
3700000000.0 0.05640621782043219 0.0938216786413754
3720000000.0 0.08577293022889047 0.04827433502703335
3740000000.0 0.08004059911154464 -0.009338745067732308
3760000000.0 0.062476204095046575 0.04429394864592592
3780000000.0 0.030176276745051772 -0.054668969295750026
3800000000.0 0.023350283772212783 0.032273436471811016
3820000000.0 -0.027733767173665633 -0.00787066391004606
3840000000.0 0.05156057207706547 -0.004742813127504217
3860000000.0 0.016995052743584316 -0.07458830833970757
3880000000.0 0.06222741809149943 -0.07394914905394699
3900000000.0 0.044893459520756296 -0.09391092939099575
3920000000.0 -0.07166275145873625 -0.07843687065892822
3940000000.0 -0.018855606703604946 0.10579639896221517
3960000000.0 0.10646568160382042 0.026858099162187437
3980000000.0 0.09766428089453988 -0.020350111285348475
4000000000.0 0.003671634313202988 -0.08471444971689258
