!Created with skrf (http://scikit-rf.org).
# Hz S RI R 50.0 
!freq ReS11 ImS11
400000000.0 0.20478607320423883 0.8608813746944013
420000000.0 0.6026623372494794 0.6061837552839594
440000000.0 0.7559104426160064 -0.3075229465358342
460000000.0 0.7676196753047299 0.18012265047470472
480000000.0 0.03807624284700083 0.7245807240496015
500000000.0 -0.6070402663337936 0.14979310241114152
520000000.0 -0.49660915979070075 0.08436273730520491
540000000.0 -0.2623299813146886 -0.3480748094526972
560000000.0 -0.24527374171905922 0.2905803747349375
580000000.0 -0.28763472889106245 0.24809601030256934
600000000.0 0.015227640071304994 0.3658758785648875
620000000.0 -0.3416998641183205 -0.08975663084350552
640000000.0 0.3853082846480515 -0.0709774095348082
660000000.0 -0.3534413501492247 0.1863053678447165
680000000.0 -0.3231104407375479 0.2608775714461037
700000000.0 0.2557092201818829 -0.3281495853191914
720000000.0 0.1887796317856205 -0.4082282180239683
740000000.0 -0.2668199374155655 0.35016796943626505
760000000.0 0.30056442775469633 -0.2363570905533421
780000000.0 -0.2750211741817634 0.22466907786665982
800000000.0 0.07854939106590143 0.28028058877201967
820000000.0 0.23262322323633533 -0.07631756486509352
840000000.0 -0.23113679485438984 0.02707797346592397
860000000.0 0.18699374386377457 0.09672939022030244
880000000.0 0.14575001319631903 -0.06476631076212404
900000000.0 0.10261540435151861 0.06168403639405785
920000000.0 -0.04861295074672123 0.0664012940356147
940000000.0 0.025151892089780165 0.030512250912206152
960000000.0 -0.012844920167598696 -0.03936958470571535
980000000.0 0.03692658222822592 -0.05585161025526619
1000000000.0 0.003331440298299901 -0.09109421429923306
1020000000.0 0.09461918153491922 -0.01651330799616427
1040000000.0 0.017014451812556373 0.1255246017396547
1060000000.0 -0.004412811525019271 0.15592135839753274
1080000000.0 0.05358329325352575 -0.1779441177963991
1100000000.0 0.06897547324230363 -0.20224579821342076
1120000000.0 0.2105010201983022 -0.09267691848897305
1140000000.0 0.2156524687779249 -0.14118939146699203
1160000000.0 0.2829005043955385 -0.05851450483674551
1180000000.0 0.03445151156447717 -0.3203318863472452
1200000000.0 0.2694266383335871 0.21114716013593
1220000000.0 -0.30006243908462593 -0.22572687251744913
1240000000.0 0.3910663443223905 -0.04086207485915498
1260000000.0 -0.34301174130398093 -0.20828026512642459
1280000000.0 -0.3748543901519978 0.19297117502617261
1300000000.0 -0.12138469296794374 0.4096158654943712
1320000000.0 0.18843113344527304 0.3931298265849372
1340000000.0 0.3465817439595763 -0.2824598643234942
1360000000.0 0.03721129999329563 -0.4390347593399138
1380000000.0 -0.23579333963517748 -0.357405597243682
1400000000.0 -0.2283533706948271 0.3438997720529222
1420000000.0 -0.3147407317301409 0.23550303906558698
1440000000.0 0.009812178321062738 0.3815947645083196
1460000000.0 0.18890600528581877 -0.309424779253237
1480000000.0 -0.2689882528406257 0.19080319804029797
1500000000.0 0.23980495026025891 -0.17270765109707864
1520000000.0 0.20093306469399566 -0.16574260678671832
1540000000.0 -0.22912376035818993 -0.0032587169960549118
1560000000.0 -0.16719448582824495 -0.11455534611766979
1580000000.0 0.15592636894027523 -0.05496292069364265
1600000000.0 -0.0006400091211579298 -0.1332039559980091
1620000000.0 -0.0939695047151303 -0.03766229761512025
1640000000.0 0.0832336433828121 -0.02326111019830703
1660000000.0 0.05789938735060064 -0.02518739994682243
1680000000.0 0.046528816891149696 -0.002723532539870286
1700000000.0 0.01579343703891348 -0.011457380249005836
1720000000.0 -0.009337231487701143 0.008359983846998934
1740000000.0 0.01172081708279261 -0.011255875229833066
1760000000.0 0.012613386482176268 0.03638357832809642
1780000000.0 -0.04152374823878862 0.04545822685253562
1800000000.0 -0.09447621723047898 0.026148354532431965
1820000000.0 -0.11542626436761173 0.05596149343483907
1840000000.0 0.1559866440253991 -0.026480380661048773
1860000000.0 -0.16443012728161802 -0.11399862831103065
1880000000.0 0.11983220807861432 -0.19911797284944774
1900000000.0 -0.23869236253992648 -0.13211596036073042
1920000000.0 0.31243748746231553 -0.013410072575460645
1940000000.0 -0.34674756586790134 0.02805460723211099
1960000000.0 0.35267066622197923 0.12351426108356092
1980000000.0 -0.23748624636594912 -0.32189912812186355
2000000000.0 -0.16529286459082693 0.37671558183748954
2020000000.0 -0.07384090862732508 0.4203642834152663
2040000000.0 0.41146941017175126 0.15386211416012455
2060000000.0 0.07650053398649509 -0.4375691950339424
2080000000.0 -0.3083018881105211 -0.3144215675915885
2100000000.0 -0.4357950883310041 0.008836995344219474
2120000000.0 -0.38838871572595884 0.16715590636018823
2140000000.0 -0.35786121492317025 -0.21205127460657766
2160000000.0 -0.29020629333232784 -0.2695932161693922
2180000000.0 -0.3338990455523642 -0.19531300556152184
2200000000.0 -0.30632851271203065 0.2097251682388899
2220000000.0 -0.2843979048617516 0.22469795761318237
2240000000.0 -0.19537385252399944 0.2979191722391368
2260000000.0 0.11203360067726989 0.3380477835483963
2280000000.0 0.3327093640266365 0.13611971217714477
2300000000.0 0.3677763370276418 -0.033552112142746664
2320000000.0 -0.09680896510365951 -0.3786314967872341
2340000000.0 -0.4123452414432963 -0.054121260523757674
2360000000.0 0.3843238815882296 0.25363716052325896
2380000000.0 -0.4732341695726344 -0.16276718486613725
2400000000.0 0.49187986928631283 0.2404924023365892
2420000000.0 -0.5769022262117641 0.15429164155923464
2440000000.0 0.30681070897995943 -0.5645149985223252
2460000000.0 0.27435015515586214 0.6208548274895224
2480000000.0 -0.5523208422635932 -0.4398900002993269
2500000000.0 0.5628585844869244 0.4585641623127649
2520000000.0 -0.43878566252318385 -0.5918948423210955
2540000000.0 -0.013514605802514153 0.7400513955809283
2560000000.0 0.496198630942143 -0.5443926293877589
2580000000.0 -0.689910432955852 -0.2227962535809119
2600000000.0 0.2003928368911178 0.6746407314894348
2620000000.0 0.5176307823954679 -0.4375583836116703
2640000000.0 0.32156091211654503 -0.559945497552925
2660000000.0 -0.6075499096321564 0.019764848888568425
2680000000.0 0.1909119002128163 0.5319394564329473
2700000000.0 0.2196948127860034 -0.4740986770252019
2720000000.0 -0.4327213004940297 0.20089693895998997
2740000000.0 0.4045374866983836 0.15469588618593907
2760000000.0 -0.17371691509353887 -0.3523685466078759
2780000000.0 0.08074464643290359 0.35167323370895115
2800000000.0 0.26888712226499234 -0.19774802000579106
2820000000.0 -0.09650739699727359 0.30423700995756714
2840000000.0 -0.2299042027647593 -0.1999116462799182
2860000000.0 0.2946082754215992 -0.04299894196263985
2880000000.0 0.07275568727127206 0.28484400414208255
2900000000.0 -0.20796620871287624 -0.2007230619422507
2920000000.0 0.09197987414988115 0.27357385070997964
2940000000.0 0.29001801281076955 -0.02158859089549109
2960000000.0 0.16250796969087128 -0.25044181619182604
2980000000.0 0.06269102679170645 -0.29855264187907066
3000000000.0 -0.28143613063626693 -0.13743268473447268
3020000000.0 -0.21094610553256618 -0.22895409047064189
3040000000.0 0.14394226851201714 -0.27697918123111814
3060000000.0 0.2838858992831056 0.11414565708236984
3080000000.0 -0.2912763250045244 -0.0767349205283061
3100000000.0 0.23676542059184771 -0.1737488282620083
3120000000.0 -0.2882405268056636 0.01496183821030037
3140000000.0 0.11857081103935653 -0.2608038674920982
3160000000.0 -0.1951071352101133 0.1895742457408964
3180000000.0 -0.168860704303643 -0.19658602881436338
3200000000.0 -0.03218199157222058 -0.23095496980682878
3220000000.0 0.19530683475999552 0.05977172461394336
3240000000.0 -0.16996848932014177 0.04613296920783003
3260000000.0 0.12196694604404845 0.07859073471788458
3280000000.0 -0.056212235208107614 -0.0999262770652757
3300000000.0 0.08423207703878503 0.04291355265701369
3320000000.0 0.016282766080180994 0.07236980648650651
3340000000.0 -0.02928782453044011 0.03945655432883719
3360000000.0 -0.023953352522926595 -0.009362865710018565
3380000000.0 0.010322359454998084 0.002246958048160669
3400000000.0 0.005888734929163446 0.010194355614803268
3420000000.0 0.010969966098650436 -0.013216865939884066
3440000000.0 0.014643152675363647 -0.012663121318031182
3460000000.0 0.028315191398227323 0.024590178663160617
3480000000.0 0.03850759603223346 0.02139536401856784
3500000000.0 -0.061358574695186005 -0.042350448332009134
3520000000.0 -0.08360882577562684 -0.022978625209867074
3540000000.0 -0.02731045167063975 0.09138702080170984
3560000000.0 -0.022517689647927427 0.09726666219382013
3580000000.0 0.10536902660522725 -0.04787327169685102
3600000000.0 -0.10575985733652107 0.07455605792378538
3620000000.0 -0.04122573071246366 0.14296998067314393
3640000000.0 -0.0231333972372382 0.1552225583851809
3660000000.0 -0.11407879185263126 0.1188125379689309
3680000000.0 -0.1514910324913585 0.08381162286602792
3700000000.0 0.10181207154474009 0.13658276770680602
3720000000.0 -0.16655125794211148 -0.026844193022923703
3740000000.0 -0.07238758496289563 -0.151964685120666
3760000000.0 0.11757092957351958 0.11381674494597946
3780000000.0 -0.13790402908893004 0.08095002079323693
3800000000.0 0.03687975960187964 -0.15160472735700406
3820000000.0 -0.13648530423496547 0.017089292558753643
3840000000.0 -0.04272585079080675 -0.12301331201213221
3860000000.0 0.07605679178984509 0.10106427193527015
3880000000.0 -0.13246676847802383 -0.006701844361504945
3900000000.0 -0.13754164317183584 -0.03870790462591113
3920000000.0 0.15108787709208524 0.003107727993697574
3940000000.0 0.13751062802817574 0.0826305593660074
3960000000.0 0.15525547891186872 0.028961899149249147
3980000000.0 -0.15602346082792684 -0.0355644148528372
4000000000.0 -0.1002534230710225 0.12211523779949447
