!Created with skrf (http://scikit-rf.org).
# Hz S RI R 50.0 
!freq ReS11 ImS11
400000000.0 0.21643389693012904 0.8558997595631226
420000000.0 0.5047487564805297 0.6883521333170277
440000000.0 0.7833886511990752 -0.2342265949665528
460000000.0 0.7851008704555084 0.08741575236534457
480000000.0 0.09239744054523175 0.7196560083707396
500000000.0 -0.6042039567317008 0.15255702608434765
520000000.0 -0.5035036312755194 -0.009549081814056766
540000000.0 -0.18107401446177995 -0.3968352881150998
560000000.0 -0.35381851000155023 -0.1485193284734909
580000000.0 -0.3006750973869525 0.22418375499925766
600000000.0 -0.21972502153785944 0.2860757740573088
620000000.0 -0.13024752261467448 -0.328965002268724
640000000.0 0.3917850935500994 0.04491819262696582
660000000.0 -0.36308462288071763 0.18117653951799648
680000000.0 -0.22982097673354035 0.34637291138883275
700000000.0 0.10555087105354577 -0.40220728877444145
720000000.0 0.1604268865794292 -0.4167511951459867
740000000.0 -0.3992169319663129 0.17780713705571494
760000000.0 0.3588438955847355 -0.1360848303320126
780000000.0 -0.34924111485639414 0.07606284281406049
800000000.0 0.11283505691676048 0.2682494397369673
820000000.0 0.21281983032135046 -0.12359738669239073
840000000.0 -0.17303184185812315 0.1572394478862689
860000000.0 0.1459279271816234 0.14651413732204357
880000000.0 0.1584516419948932 -0.005608007087809955
900000000.0 -0.10564354912932117 0.05303952140336116
920000000.0 -0.07977005913989858 -0.02293630622261389
940000000.0 0.04361449969505056 0.005170301358881609
960000000.0 0.016176058473653377 0.0408779579739653
980000000.0 0.015950259674891647 -0.06305677837382281
1000000000.0 0.07174825766848363 -0.05445572808219782
1020000000.0 0.09848217910755376 0.008710147014061469
1040000000.0 0.11601186798008026 0.05132396801338495
1060000000.0 -0.02599776171260692 0.15230417420618428
1080000000.0 -0.05268221233591333 -0.17806395032117014
1100000000.0 0.07493878485665785 -0.19820135340281184
1120000000.0 0.22821682582266695 -0.01765886640654622
1140000000.0 0.2579840695390697 0.006511132100194934
1160000000.0 0.2840660109075236 -0.066332104335165
1180000000.0 -0.061004640961928605 -0.3176686889985212
1200000000.0 0.3284914043461219 0.09105188122446999
1220000000.0 -0.2251189534025885 -0.2982995142107819
1240000000.0 0.39422820432467764 0.020392761716013338
1260000000.0 -0.35649498390883744 -0.18572463638539577
1280000000.0 -0.3497346038426257 0.23486133679718635
1300000000.0 -0.1880650602067628 0.38442551241840667
1320000000.0 0.19814888976148856 0.38838688695711204
1340000000.0 0.3045501491151803 -0.32596282971993834
1360000000.0 0.08995126056727473 -0.43062050113399347
1380000000.0 -0.22155311438077227 -0.36757298689436546
1400000000.0 -0.2114168900366412 0.35553539957398606
1420000000.0 -0.29060408242684055 0.2638293382749663
1440000000.0 -0.02359938881121669 0.3799882498220462
1460000000.0 0.22377278356859023 -0.286275288730897
1480000000.0 -0.24306822530285785 0.22372288139775873
1500000000.0 0.22981561845947684 -0.1844017152790402
1520000000.0 0.2043907709133073 -0.1615597718810065
1540000000.0 -0.2282916482357355 -0.009691512838747477
1560000000.0 -0.14732928204022633 -0.14099666828621496
1580000000.0 0.15354491366935805 -0.0629347269041105
1600000000.0 -0.04508729307205007 -0.12521196744722074
1620000000.0 -0.07986481199701234 -0.0610917969347108
1640000000.0 0.0866020290729382 0.0006053140134309058
1660000000.0 0.026639859772387746 -0.05699331064499063
1680000000.0 0.04215659408847223 -0.019035273707288886
1700000000.0 -0.01979253650453247 -0.006336801412921201
1720000000.0 -0.008349986653278513 0.008534072718060412
1740000000.0 -0.003072648174968654 -0.015579598616743405
1760000000.0 0.035793748209855814 0.015719533985588004
1780000000.0 -0.004976899828066306 0.061364690054659554
1800000000.0 -0.09610560854375 0.019533891278209863
1820000000.0 -0.09063501324893873 0.09155136772337359
1840000000.0 0.14097287604089842 -0.07013903014341483
1860000000.0 -0.12173912191444718 -0.15792344741597666
1880000000.0 0.1448112054669104 -0.18335897434604342
1900000000.0 -0.2637193134544642 -0.06819829630629846
1920000000.0 0.31165000810640464 -0.024785275355267995
1940000000.0 -0.348073398346908 -0.0018266196679876082
1960000000.0 0.3553948453335723 0.11472845518466736
1980000000.0 -0.23412074429139895 -0.3235087771151083
2000000000.0 -0.19197928575448384 0.3639246354113722
2020000000.0 -0.07040206101381154 0.4218620669270783
2040000000.0 0.42813329901250946 0.09646853281282976
2060000000.0 0.118005760460838 -0.4281365263945138
2080000000.0 -0.30511392085755407 -0.31779938658176715
2100000000.0 -0.4357469790654114 -0.014886166729479117
2120000000.0 -0.37246127054050565 0.20018202336810867
2140000000.0 -0.3643870868569012 -0.2003624058974165
2160000000.0 -0.2957515445136615 -0.2632480074880869
2180000000.0 -0.32420815708820583 -0.2104964487705781
2200000000.0 -0.3308342453596047 0.16971923501029085
2220000000.0 -0.2700566331294182 0.24144413295642883
2240000000.0 -0.13959111522315187 0.32707375907725866
2260000000.0 0.09469471495022029 0.3436285553274701
2280000000.0 0.3197452799155572 0.16373418782818644
2300000000.0 0.36316503309469056 -0.06668791230698971
2320000000.0 -0.05953993908213449 -0.3860762661644768
2340000000.0 -0.4127952173517607 -0.047964903857071126
2360000000.0 0.37392324694269363 0.2681294630843401
2380000000.0 -0.4796518472250642 -0.14168435978750163
2400000000.0 0.5036384846281513 0.21465832824160744
2420000000.0 -0.5682733073559679 0.18366183638930636
2440000000.0 0.29641193877507854 -0.5695762734354808
2460000000.0 0.2735281184654259 0.6213247069238127
2480000000.0 -0.5866480660858977 -0.39369242433701673
2500000000.0 0.5908555422408016 0.4215914090113253
2520000000.0 -0.42651033360120283 -0.6007618224972814
2540000000.0 0.06231464902623887 0.7371339844838753
2560000000.0 0.4980307432455631 -0.5427774689509078
2580000000.0 -0.6917623342333158 -0.21615910650749182
2600000000.0 0.18191471047952595 0.679651121871442
2620000000.0 0.532919369465659 -0.4186986459699456
2640000000.0 0.3228421822296231 -0.5593290131841602
2660000000.0 -0.6073610406717165 -0.022343061686497655
2680000000.0 0.24156308567710388 0.5109617376096882
2700000000.0 0.1824382991438078 -0.48924485484381064
2720000000.0 -0.42024726070306295 0.22437507428167988
2740000000.0 0.39167199798949004 0.1844642080211326
2760000000.0 -0.14711525712727858 -0.3649826853343909
2780000000.0 0.03706413142129817 0.35957061062333123
2800000000.0 0.27391980580972475 -0.19118075325898856
2820000000.0 -0.04197490895404349 0.31697603968853194
2840000000.0 -0.2279968199332962 -0.20086850351314428
2860000000.0 0.2928259290837183 -0.04278356617102808
2880000000.0 -0.023923179218102615 0.29282954640374687
2900000000.0 -0.19282283852778986 -0.2162816871067931
2920000000.0 0.10865985669090746 0.2674194786500525
2940000000.0 0.28521704555429317 -0.057404731979509994
2960000000.0 0.15036669700189959 -0.25733537565103565
2980000000.0 0.08403390203797603 -0.2910291483392466
3000000000.0 -0.25713710794147754 -0.1804637652797495
3020000000.0 -0.21149938800889997 -0.23036709309284412
3040000000.0 0.2283886382477462 -0.2128153319730394
3060000000.0 0.27805204553656654 0.127812055190901
3080000000.0 -0.2836179772552739 -0.09964546990472001
3100000000.0 0.239297883555879 -0.17241207663468142
3120000000.0 -0.28266958012247734 0.06065873775388304
3140000000.0 0.09659365756664026 -0.2697060986234015
3160000000.0 -0.17322424186030794 0.21031552796008954
3180000000.0 -0.1458335460866538 -0.21450953742243464
3200000000.0 -0.034891353114217954 -0.23070506767177615
3220000000.0 0.18185628108836172 0.09332123815314687
3240000000.0 -0.16954288525934932 0.04687648186484571
3260000000.0 0.10780142453430584 0.0983161953317259
3280000000.0 -0.07428427713446864 -0.08744693571042522
3300000000.0 0.059577140888334226 0.07238997099571767
3320000000.0 0.00998042990340816 0.07323945765336587
3340000000.0 -0.042769412132594053 0.022375350778845546
3360000000.0 -0.025349852862491935 0.006722001058687546
3380000000.0 0.009711768396170113 -0.00199428981383854
3400000000.0 0.004558019697179472 0.010634900887859207
3420000000.0 0.009784385654472703 0.01523741695056661
3440000000.0 0.01761067827544948 -0.010577418827172277
3460000000.0 -0.019241364586031966 -0.03157224159175085
3480000000.0 -0.011138770303960687 0.041469681654675634
3500000000.0 0.008529343885898764 -0.07511260324460105
3520000000.0 -0.08668828870837296 0.005616190923593014
3540000000.0 -0.005892347580315291 0.09709161971928135
3560000000.0 -0.00021528475607339264 0.09963742382626109
3580000000.0 0.07031800682806909 -0.09076347271131677
3600000000.0 -0.1250451699939853 0.03220090153188272
3620000000.0 -0.07723896610380084 0.1273744925707292
3640000000.0 -0.08002013961003122 0.13659511460438808
3660000000.0 -0.033661292529666494 0.16317112954133958
3680000000.0 -0.09763836929953479 0.14032696309158385
3700000000.0 0.04659261884508558 0.16301072911285885
3720000000.0 -0.1440044220807861 -0.08820896136163615
3740000000.0 -0.027090915946937567 -0.1673520392125762
3760000000.0 0.1421581108044889 0.08251549905776608
3780000000.0 -0.13817840741102985 0.07899852165730101
3800000000.0 0.01272184210683502 -0.15513405596666208
3820000000.0 -0.13609937812715422 -0.015234833504740369
3840000000.0 0.03891007698273528 -0.12450011167146004
3860000000.0 0.09660507281458881 0.08321461188351431
3880000000.0 -0.11947512498996622 0.05527890487920811
3900000000.0 -0.13683586213574925 -0.040476725942508875
3920000000.0 0.14498738842853284 0.042562395725140444
3940000000.0 0.10766392351831841 0.11888368123797365
3960000000.0 0.1555849552942355 0.0283591114053848
3980000000.0 -0.1590862622654332 -0.017937047789682862
4000000000.0 -0.07853948350897794 0.13708534064263767
