!Created with skrf (http://scikit-rf.org).
# Hz S RI R 50.0 
!freq ReS11 ImS11
400000000.0 0.22112216798868672 0.8569354355879634
420000000.0 0.5861786616777774 0.6212059808633336
440000000.0 0.7718093337652777 -0.26667994430488656
460000000.0 0.7677691907960915 0.183199110554306
480000000.0 0.037301073372497356 0.7239524716602285
500000000.0 -0.6007153240985609 0.17574111991880614
520000000.0 -0.4955010881266112 0.08609599906118187
540000000.0 -0.2702140200567151 -0.3417857070331893
560000000.0 -0.23156169583598193 0.3006752893967712
580000000.0 -0.3660240935196007 0.10180299694392737
600000000.0 0.000353260079134021 0.3660622080739898
620000000.0 -0.3342534503051705 -0.1158389119634555
640000000.0 0.35187918866417095 -0.1716047946335534
660000000.0 -0.36315207898957885 0.16650125237913735
680000000.0 -0.3513515912367423 0.21996968536176412
700000000.0 0.2442472086326012 -0.3374884770783175
720000000.0 0.198447396524655 -0.40131817263151787
740000000.0 -0.3419267452971853 0.2779002904192266
760000000.0 0.3063809542057363 -0.2318248227814107
780000000.0 -0.24850250409398134 0.2542578994909647
800000000.0 0.1329323624264264 0.257685740600644
820000000.0 0.23775446391434385 -0.05788596250954579
840000000.0 -0.21551933868004633 -0.08539895326077407
860000000.0 0.1683073054124555 0.12705854411775874
880000000.0 0.1508971646420876 -0.05671559615889054
900000000.0 0.1091092685095216 -0.04905867146433597
920000000.0 0.022247097951434352 0.0778550445977347
940000000.0 -0.0053875952931992325 0.03964585735091007
960000000.0 -0.038777336439153536 -0.011422167375236617
980000000.0 0.022687985020394996 -0.06164476054565152
1000000000.0 0.06761228904291837 -0.05883323335829001
1020000000.0 0.07877267204753842 0.05632014800837133
1040000000.0 0.017917479788327022 0.12687654712670918
1060000000.0 0.0601678880715833 0.14451478354302288
1080000000.0 0.013899490990389314 -0.18552946879356075
1100000000.0 0.04081179047209569 -0.20810769100000698
1120000000.0 0.2283071528302038 0.016760156493889265
1140000000.0 0.23426572828912823 -0.10974753138912795
1160000000.0 0.2877030765364078 -0.029322935943480483
1180000000.0 -0.03831361171345241 -0.3206256729536218
1200000000.0 0.2954332461897293 0.17220157076600276
1220000000.0 -0.30361833480679806 -0.21787653112814126
1240000000.0 0.39266894825224075 -0.011195387671355549
1260000000.0 -0.31492631975277857 -0.24988711508737424
1280000000.0 -0.3563265311969712 0.22789153521241134
1300000000.0 -0.061198549103165696 0.423312990920609
1320000000.0 0.15479639412790344 0.40594828215335765
1340000000.0 0.3729569044364572 -0.2475221519697025
1360000000.0 0.006947909612166316 -0.44079083823749254
1380000000.0 -0.22289858251390157 -0.36490791448439874
1400000000.0 -0.27147279284492426 0.31249506469646593
1420000000.0 -0.3067494762371965 0.24587523570574765
1440000000.0 0.019996523956499663 0.3811335697240287
1460000000.0 0.16180456864152024 -0.32392459932888246
1480000000.0 -0.29295355691542474 0.14976336512611726
1500000000.0 0.27655127859553597 -0.10645788756145577
1520000000.0 0.1750971798501058 -0.19435598666933582
1540000000.0 -0.2245361515754873 0.0451245042115265
1560000000.0 -0.15615927203953853 -0.12841926074491894
1580000000.0 0.14964896589033197 -0.06966293547519793
1600000000.0 0.003406595731140742 -0.13360612669690441
1620000000.0 -0.09731428954673568 -0.02678057607318591
1640000000.0 0.08518994541095955 -0.018530388689356695
1660000000.0 0.0538004231214695 -0.032439282126623024
1680000000.0 0.040286307029276394 -0.02433384971040592
1700000000.0 0.0013059890413727041 -0.019713068828311604
1720000000.0 0.00792751685615415 -0.009181401370190235
1740000000.0 0.008857366484202421 0.014132076499267232
1760000000.0 0.03594930942937494 0.01047388294312588
1780000000.0 -0.03600203868503928 0.04949017800741989
1800000000.0 -0.09824647809888573 -0.001378849764919768
1820000000.0 -0.10149282113129639 0.07898635488111591
1840000000.0 0.15748554974406162 -0.016803378967130987
1860000000.0 -0.15146759072315108 -0.13077599581606958
1880000000.0 0.0934852568310197 -0.21343761037293882
1900000000.0 -0.2595538313059064 -0.08024017323842166
1920000000.0 0.30676385323986644 0.05536406452391845
1940000000.0 -0.34795795965731324 -0.0274186202727728
1960000000.0 0.36492279050551546 0.08104132583533041
1980000000.0 -0.27984912135663864 -0.2852599225487158
2000000000.0 -0.15932260918972843 0.37823468541305744
2020000000.0 -0.04940679607537168 0.4238934558565016
2040000000.0 0.406145610336624 0.16760406512191744
2060000000.0 0.09053682346867663 -0.43514411628139127
2080000000.0 -0.3134469965388506 -0.3102323864903422
2100000000.0 -0.43606497338088346 0.0010747456719833366
2120000000.0 -0.38878704079024384 0.16644497295157887
2140000000.0 -0.3638925949440463 -0.20174321044895469
2160000000.0 -0.2856374850150324 -0.27456351251241123
2180000000.0 -0.32401778032633705 -0.21097199773113592
2200000000.0 -0.32298500172331135 0.1833432158293748
2220000000.0 -0.2963045932644295 0.20869786896374726
2240000000.0 -0.16133105383301055 0.31696845397949674
2260000000.0 0.144078082233696 0.3257346562339282
2280000000.0 0.316418920452778 0.16949093725311995
2300000000.0 0.3688575097994765 -0.009330871143777154
2320000000.0 -0.0916396622473838 -0.3802494588792885
2340000000.0 -0.4150379419759687 -0.03282637676220636
2360000000.0 0.38484834408510543 0.2513614635567884
2380000000.0 -0.46743634878836504 -0.17791095771513998
2400000000.0 0.5083667263530128 0.2031809902919316
2420000000.0 -0.5674903977696899 0.1855752308022629
2440000000.0 0.28607235621610605 -0.5753881804303855
2460000000.0 0.2851115448432855 0.6161946590720899
2480000000.0 -0.5866885289399648 -0.3933698153203067
2500000000.0 0.5246824937900842 0.5023122038585903
2520000000.0 -0.37145373808190013 -0.636436894645188
2540000000.0 0.06141123118785589 0.7371867533133072
2560000000.0 0.5141425579861038 -0.5274551463044211
2580000000.0 -0.7001303811005659 -0.18779679167428773
2600000000.0 0.1886782077989183 0.6782770097276659
2620000000.0 0.529452155379855 -0.4232720349501757
2640000000.0 0.3183101792964018 -0.5618221593984231
2660000000.0 -0.6080392207530916 -0.0102988434699653
2680000000.0 0.3036786554347879 0.47696365707268756
2700000000.0 0.1955134042968968 -0.4842212561043836
2720000000.0 -0.43461720525087894 0.19654470463287696
2740000000.0 0.3821921517548528 0.20417485503146363
2760000000.0 -0.15406456823075326 -0.3623535752238082
2780000000.0 0.11623419227233228 0.3417830424104389
2800000000.0 0.27013989717498094 -0.1948309768465026
2820000000.0 -0.09666971954902853 0.3039117660302473
2840000000.0 -0.2159247726230276 -0.21445383840954535
2860000000.0 0.29727361263844987 -0.016765940296850336
2880000000.0 0.01759791585538174 0.29412768502705844
2900000000.0 -0.22714618700905903 -0.18019147774741393
2920000000.0 0.15226535229873628 0.24533702268621924
2940000000.0 0.2877137603800088 -0.029317145219953884
2960000000.0 0.1884042240377015 -0.23037698436565787
2980000000.0 0.101106119453872 -0.2883508878746356
3000000000.0 -0.28364210892274905 -0.13490883529270825
3020000000.0 -0.21866541861388883 -0.2225197287500453
3040000000.0 0.13123538057551204 -0.2823039113009696
3060000000.0 0.26795156768064743 0.1450384398887068
3080000000.0 -0.26981713922302664 -0.13398262054134255
3100000000.0 0.21041937161396082 -0.20680994500863106
3120000000.0 -0.27441029075336654 0.08897730960534576
3140000000.0 0.11672190858176829 -0.26112369352076187
3160000000.0 -0.20944903104934512 0.17454421382914234
3180000000.0 -0.15237355276722525 -0.20907559486039304
3200000000.0 -0.05701979835285323 -0.22655672754737283
3220000000.0 0.1956675821459124 0.05831720227724197
3240000000.0 -0.16333385423282173 0.06394587689756653
3260000000.0 0.08891363568571792 0.11399723384590997
3280000000.0 -0.005928088413530625 -0.11499974038438437
3300000000.0 0.09169633295767976 0.025895702023467974
3320000000.0 0.06886822843833731 -0.025926751139738094
3340000000.0 -0.03308872687210308 0.034958035955164495
3360000000.0 -0.0177764578488534 -0.01668242886900243
3380000000.0 -0.00583035034682681 -0.007781451662753553
3400000000.0 -0.00345973287789039 -0.00988375487041146
3420000000.0 -0.012531385198592067 0.011174669625100416
3440000000.0 -0.0198181585485908 -0.005189014534601525
3460000000.0 -0.03753095511211051 0.012164830968469926
3480000000.0 0.008710635198645652 -0.041537862858120514
3500000000.0 -0.03452066475058391 -0.06503279897662817
3520000000.0 -0.016673684840504136 -0.08434505812783077
3540000000.0 -0.05163664646780014 0.08308396611193551
3560000000.0 0.0025220156733776404 0.10095264973218226
3580000000.0 -0.033836222106491676 -0.10990177928103748
3600000000.0 -0.10222955793407906 0.07711605018672336
3620000000.0 -0.1246750204084526 0.08081659966272968
3640000000.0 -0.0833249875370108 0.13418283058499575
3660000000.0 -0.05848496058803831 0.15578405818853247
3680000000.0 -0.10307509090872435 0.13850238569050496
3700000000.0 0.10928705804753261 0.12928678760283213
3720000000.0 -0.16047426505093595 -0.0489219342009717
3740000000.0 -0.004123005520326241 -0.168606517718694
3760000000.0 0.11806807248285074 0.11450910200111988
3780000000.0 -0.1013637170397241 0.12453347941699627
3800000000.0 -0.02563098888050929 -0.15324417284306172
3820000000.0 -0.13622504537998223 0.013969220890389971
3840000000.0 0.011944600225114765 -0.12942754612360935
3860000000.0 0.10786787117985176 0.06809378737922253
3880000000.0 -0.12557617783447203 0.04250904145743008
3900000000.0 -0.14276624871968024 -0.0023050618831610826
3920000000.0 0.15051142928362798 -0.001035591617960528
3940000000.0 0.1274275176663014 0.09719163586962228
3960000000.0 0.15323942249953226 0.039972968772159834
3980000000.0 -0.16033921835662546 0.008851020515215025
4000000000.0 -0.06704059778719303 0.14348814042336705
