!Created with skrf (http://scikit-rf.org).
# Hz S RI R 50.0 
!freq ReS11 ImS11
400000000.0 0.2498729090436339 0.8480230226450026
420000000.0 0.46541510579439943 0.7160217469230163
440000000.0 0.7701300622756309 -0.27844471776436175
460000000.0 0.7866278183506534 0.07113342217980914
480000000.0 0.13363856293978374 0.7124239884116956
500000000.0 -0.5757663851953813 0.23344001973192716
520000000.0 -0.3667103695052407 -0.35129813694065
540000000.0 -0.0547275304351641 -0.4389530423191095
560000000.0 -0.3660491097707298 0.11793168098149852
580000000.0 -0.18363849738108834 0.319272893835849
600000000.0 -0.18742006901722982 0.31128490936072956
620000000.0 -0.09485757427724037 -0.3426239693197337
640000000.0 0.3943511725579562 -0.02902496192942693
660000000.0 -0.25622514751303377 0.3170812106320589
680000000.0 -0.09673109139325205 0.39920923487629684
700000000.0 0.34375726451724176 -0.2318045493150366
720000000.0 0.285986937201333 -0.34484053075863913
740000000.0 -0.4055261528052045 0.17091418382555223
760000000.0 0.26531093624351143 -0.2799860233359321
780000000.0 -0.29540880079285303 0.19297539690264184
800000000.0 -0.08148971582298326 0.28045196696966845
820000000.0 0.07359411791506758 -0.23632628407767403
840000000.0 -0.2279419138134939 0.022145128168993253
860000000.0 0.2014260045091642 0.04143228900225056
880000000.0 -0.004019480784822986 0.15904949388667597
900000000.0 -0.02513499651827525 0.12148282455852458
920000000.0 -0.012138363270801126 0.07973228465238119
940000000.0 -0.004175523780746623 0.04368220074918576
960000000.0 0.04371206223323376 0.00942479521795957
980000000.0 -0.03730739218357518 0.05662643058298645
1000000000.0 -0.025811782280222805 -0.08078159787138885
1020000000.0 -0.09337454405887258 0.0314049874485286
1040000000.0 0.0855693285709427 0.0944824618861782
1060000000.0 -0.02110021842367437 0.15449075126856582
1080000000.0 -0.18087456850629832 -0.04756541456984881
1100000000.0 0.003377348006567813 -0.20939686350188316
1120000000.0 0.027358779884030307 0.22692788982275625
1140000000.0 0.2559787438868317 -0.05641807889633713
1160000000.0 0.18479033251780572 -0.22469491831721866
1180000000.0 0.05016149950870263 -0.31430549322204127
1200000000.0 0.27820052394208616 0.20767162653001867
1220000000.0 -0.3349769960555254 -0.15671185598457793
1240000000.0 0.3548592546893437 0.17033571914045695
1260000000.0 -0.3928890757595947 -0.09569431860031061
1280000000.0 -0.34826582118956884 0.23429453995257013
1300000000.0 -0.19737075373913804 0.3811576647671767
1320000000.0 0.3276159504731349 0.28758727518129096
1340000000.0 0.31645264376306487 -0.31411510953796123
1360000000.0 0.05921889673295004 -0.43530905258843294
1380000000.0 -0.24147916669729572 -0.3535558152960843
1400000000.0 -0.3049327453676503 0.2821805274381019
1420000000.0 -0.17024333177340328 0.3577118722303906
1440000000.0 0.15779487610500606 0.34397051150904406
1460000000.0 0.35594850203312667 -0.06610345803982452
1480000000.0 -0.19192653147483288 0.2708048453492499
1500000000.0 0.24748818586591806 -0.15993652634819575
1520000000.0 0.23666655194903966 -0.11205480929101075
1540000000.0 -0.18018784379071262 0.14320227959449502
1560000000.0 -0.08632613672268814 -0.18241575459624965
1580000000.0 0.1465830016560429 -0.07474456325417991
1600000000.0 0.05852783847252067 -0.1175154094633607
1620000000.0 -0.016768541703609408 -0.10201895090478166
1640000000.0 0.016835048309741266 -0.08711297167756916
1660000000.0 -0.05880636534502381 -0.010371066776050934
1680000000.0 0.01865538350871863 0.04032305467678197
1700000000.0 0.022486944060412357 -0.0005589884644009537
1720000000.0 -0.009931998730973614 -0.00634105086429376
1740000000.0 -0.01597338184786059 -0.002832791153265698
1760000000.0 -0.032851751471634424 0.019475171927581653
1780000000.0 0.003155756407020818 0.06322681312320635
1800000000.0 -0.04572122839206839 0.08684128707868025
1820000000.0 -0.10361110177774657 0.0738169510553974
1840000000.0 0.14747390033964866 0.0601498268953774
1860000000.0 -0.14287669064320918 -0.13906677672599546
1880000000.0 0.10880704692130874 -0.2069562967195964
1900000000.0 -0.255905056980655 -0.0917236786816645
1920000000.0 0.3117125743552017 -0.017051673576785116
1940000000.0 -0.34796718186087294 0.026836543786629592
1960000000.0 0.36263119484087053 0.08656300106616696
1980000000.0 -0.11599574126513915 -0.3823055654415452
2000000000.0 -0.10066805730043893 0.4009509635268919
2020000000.0 -0.016086857503990033 0.42418972943604194
2040000000.0 0.39009625405705417 0.20229716734295008
2060000000.0 0.09476847792862704 -0.4348658877005462
2080000000.0 -0.32984078429843816 -0.29177869837515735
2100000000.0 -0.4337190608824072 -0.04454411592770225
2120000000.0 -0.3919516838321246 0.16140406217973438
2140000000.0 -0.39828478340393025 -0.12224980519872712
2160000000.0 -0.29559935515865077 -0.26359455359769773
2180000000.0 -0.31235446211920487 -0.2297077883124387
2200000000.0 -0.2942797003278976 0.22679350600729095
2220000000.0 -0.29086621608949614 0.21503503726341316
2240000000.0 -0.1815015199520363 0.30650307073496397
2260000000.0 0.16034026890050979 0.3183922613159302
2280000000.0 0.2949743971142918 0.2059820015486053
2300000000.0 0.3567652881984174 -0.09447298994663701
2320000000.0 -0.054623939741222344 -0.3863769289115843
2340000000.0 -0.4119397680337832 -0.06058578679280839
2360000000.0 0.375405914701192 0.2665010044546994
2380000000.0 -0.47715644614654695 -0.15055432267224378
2400000000.0 0.5036551171961988 0.21151592942199543
2420000000.0 -0.5816975016514556 0.13591772821310188
2440000000.0 0.26245040504911354 -0.5865411705580857
2460000000.0 0.28085796260392365 0.6178725070047294
2480000000.0 -0.5882773941453134 -0.39106672903539025
2500000000.0 0.536968144481918 0.48886895326038293
2520000000.0 -0.43399924611314467 -0.5958169674003263
2540000000.0 0.07285585745590982 0.736349639449231
2560000000.0 0.5170039450190924 -0.5249545906060441
2580000000.0 -0.7029525232874264 -0.17836837269977568
2600000000.0 0.143947531701704 0.6890121568045794
2620000000.0 0.5688668217921732 -0.36933285471878186
2640000000.0 0.3211578902096943 -0.5606567354269415
2660000000.0 -0.6079471470066906 -0.0029008690629923617
2680000000.0 0.3104363213088435 0.47242336582648536
2700000000.0 0.213705792222145 -0.4757235990651514
2720000000.0 -0.4530608122129406 0.14894712827866768
2740000000.0 0.3952637425535333 0.1787031823364757
2760000000.0 -0.15158193343131918 -0.3625428513622125
2780000000.0 0.10621700613699846 0.34459876219434593
2800000000.0 0.2339828725830184 -0.23791850330351533
2820000000.0 -0.032590506137608964 0.3159837536474486
2840000000.0 -0.17343220135124496 -0.24991873857544772
2860000000.0 0.2901181073472451 -0.06637714190473802
2880000000.0 -0.03471572702777529 0.2933402294978048
2900000000.0 -0.25693871576758026 -0.1374693741654013
2920000000.0 0.22165327263704795 0.1861810235293488
2940000000.0 0.2804680241168578 -0.06829407190848762
2960000000.0 0.2603469880684492 -0.14293727131801126
2980000000.0 0.14462015025178315 -0.2701590731277356
3000000000.0 -0.2777915113213158 -0.14928343171011896
3020000000.0 -0.21610067545414358 -0.22475175475602585
3040000000.0 0.07004927755589625 -0.30318071859773343
3060000000.0 0.24600824916225394 0.17902810386144077
3080000000.0 -0.2842961437944881 -0.09853931197504869
3100000000.0 0.2710477609311011 -0.1126604104310015
3120000000.0 -0.28583163242115023 -0.039434021465740106
3140000000.0 0.0854173394402066 -0.27397193968462863
3160000000.0 -0.15660061603476327 0.22324054068281826
3180000000.0 -0.2162715740858804 -0.13887025392545685
3200000000.0 0.07922097281105374 -0.21815315172521862
3220000000.0 0.1970134524293695 0.06320230792750282
3240000000.0 -0.06189633726642765 0.1630562921639647
3260000000.0 -0.014482553324969751 0.1433714646261454
3280000000.0 -0.07482346336684044 -0.09047764376789495
3300000000.0 0.0789273023723121 -0.05143858096590938
3320000000.0 0.07025534219712692 0.01417311321820827
3340000000.0 0.04628813989092602 0.013940528383398303
3360000000.0 0.013230327757562502 -0.023742068622885342
3380000000.0 0.004994431667096037 -0.006374667477465318
3400000000.0 -0.009070108818318379 0.0029452432101862323
3420000000.0 0.012969901309461688 0.01257550715507864
3440000000.0 -0.00970856278751517 -0.018093625450672297
3460000000.0 -0.03500754767460257 0.014615258142039516
3480000000.0 0.034143203511471085 -0.024796171569730973
3500000000.0 0.022850905681767647 -0.0715054608111666
3520000000.0 -0.0878871524271914 -0.0023365551447265065
3540000000.0 0.05217743886066625 0.08204431700696567
3560000000.0 -0.0800410205649834 0.061037041605667954
3580000000.0 0.014724713242819485 -0.11534406375328458
3600000000.0 -0.07195430222046233 0.10710662367950631
3620000000.0 -0.10685275618059197 0.1029806413359655
3640000000.0 -0.07461114368371338 0.14012469776691674
3660000000.0 -0.07099363040103429 0.15105062518902793
3680000000.0 -0.10131239278137327 0.13976409795457154
3700000000.0 0.04791331136066235 0.1631251176073732
3720000000.0 -0.1586332928056979 -0.06041085054210465
3740000000.0 -0.0196939152725963 -0.16751928516143316
3760000000.0 0.08144064755392531 0.14177188353315764
3780000000.0 -0.15575673473412024 0.04287728137101984
3800000000.0 -0.02162855425817825 -0.1535342812537739
3820000000.0 -0.13417819347153576 -0.025447316353558666
3840000000.0 0.03950138874457935 -0.12328702928615955
3860000000.0 0.06968158430280694 0.10684600393744162
3880000000.0 -0.11828260191824025 0.05653353237276797
3900000000.0 -0.12510274521181072 -0.06747271364506364
3920000000.0 0.1495136073491137 -0.018642925518186814
3940000000.0 0.1382968285767704 0.0775846237067678
3960000000.0 0.15419520423549882 0.0341417224993548
3980000000.0 -0.1548818014334868 0.0413191620855147
4000000000.0 -0.02159473692032809 0.15580634006620245
