!Created with skrf (http://scikit-rf.org).
# Hz S RI R 50.0 
!freq ReS11 ImS11
400000000.0 0.2241500351125318 0.8548500092159801
420000000.0 0.6166369907865403 0.5914835780152087
440000000.0 0.7836040903678533 -0.23062338722476095
460000000.0 0.7847897676484312 0.08687270251470594
480000000.0 0.04474103205639306 0.7224102381571869
500000000.0 -0.6103320736970956 0.13147586918187967
520000000.0 -0.4404432292070357 -0.2477593091531414
540000000.0 -0.24299721394524307 -0.36931197789222503
560000000.0 -0.36615602055627827 -0.09495365684106677
580000000.0 -0.34136164213401904 -0.1413385362012788
600000000.0 0.08675324216696176 0.3607780314448728
620000000.0 -0.04028543311627914 0.3517464996879453
640000000.0 0.3594230113304073 0.1385107436759428
660000000.0 -0.3864253267707914 0.1227142171764034
680000000.0 -0.3113834944241996 0.27246670770457326
700000000.0 0.21329489532914955 -0.3618550792159314
720000000.0 0.051947292040640865 -0.4458607913331025
740000000.0 -0.34313379262233956 0.26904647549435873
760000000.0 0.34706537472537985 -0.17174684267267173
780000000.0 -0.14966677078634155 0.3223657247526572
800000000.0 -0.0025506757808178722 0.2852360324479851
820000000.0 0.24387660379106618 -0.04911647667611785
840000000.0 -0.1863021260840033 0.14122143106376053
860000000.0 0.1860141855435368 0.09320233782653355
880000000.0 0.14541322569691634 0.06763660269760705
900000000.0 0.11731524080470375 0.015838582253169645
920000000.0 -0.07194836329254356 -0.033710344988438265
940000000.0 0.015436688476789476 0.04060820156895391
960000000.0 0.008360150589898613 0.04276188380439391
980000000.0 -0.06051264337798941 0.027890040648492712
1000000000.0 0.00036775963251983767 -0.08317427117752192
1020000000.0 -0.10042930379197526 -0.0004151988617553198
1040000000.0 0.03176174907184148 0.12578885863705352
1060000000.0 0.13949885760642772 0.070671257597261
1080000000.0 -0.17145938897072577 -0.07229287890492946
1100000000.0 0.06929416898789606 -0.19792967231501465
1120000000.0 0.18512551180511777 0.137190042517022
1140000000.0 0.25254745020032643 0.049524605261843754
1160000000.0 0.221378922509663 -0.1905448701176322
1180000000.0 -0.07334784836071648 -0.3091804696170186
1200000000.0 0.18656949477653229 0.2919580534791643
1220000000.0 -0.29927132915852694 -0.22270149028031258
1240000000.0 0.3785033322568544 -0.11346605851015702
1260000000.0 -0.2984596391573237 -0.2683838504317033
1280000000.0 -0.39168643905400885 0.15058429064324705
1300000000.0 -0.1491164779214793 0.4035879244794428
1320000000.0 0.3884288644443157 0.1956354977153156
1340000000.0 0.3670874782796309 -0.2501774357378519
1360000000.0 0.08856533188696372 -0.43244991785671794
1380000000.0 -0.2816732131326815 -0.3224222755714018
1400000000.0 -0.2577541568354354 0.32338055426215984
1420000000.0 -0.2514375091984344 0.30234360193556536
1440000000.0 0.0297560476514805 0.3796068763003108
1460000000.0 0.2764652515673314 -0.2340126630897444
1480000000.0 -0.2730602277809335 0.18574316229814858
1500000000.0 0.22075748399606787 -0.19606206757997732
1520000000.0 0.16835320163183473 -0.20112363542028505
1540000000.0 -0.1675781532552475 0.15568455952468546
1560000000.0 -0.05531448534541461 -0.19188366871941484
1580000000.0 0.126549305888646 0.10695266813364186
1600000000.0 0.008050353625940452 -0.13586965172787535
1620000000.0 -0.05231713635048238 0.08834773785363968
1640000000.0 -0.011856428103808459 -0.08454770081643606
1660000000.0 0.05026724037163361 -0.031754167182035824
1680000000.0 0.016012785989789027 -0.042646207746982065
1700000000.0 -0.0014342166233573786 0.026034379694349463
1720000000.0 -0.005582653660611997 -0.007788832161437568
1740000000.0 -0.014808655970519495 0.01288807801428571
1760000000.0 -0.025500267191842216 0.026430167368255018
1780000000.0 -0.0465980726069961 0.04528737894365072
1800000000.0 0.004225806920514691 0.09918606958037375
1820000000.0 -0.07347388340874095 0.10155326617879172
1840000000.0 0.10355896962301955 0.1203825741520918
1860000000.0 -0.13523186810912505 -0.1476500212373528
1880000000.0 0.12395321756269108 -0.19925313145933699
1900000000.0 -0.27153726522657395 0.006620161347305307
1920000000.0 0.30150369134385285 0.07666001812457636
1940000000.0 -0.34681027006930676 -0.04255406244834152
1960000000.0 0.3739759613552291 0.012046687562284678
1980000000.0 -0.19455484613721855 -0.34675520366922896
2000000000.0 -0.26527263501190823 0.3160598717752927
2020000000.0 0.022116156553262246 0.4263890432339888
2040000000.0 0.4137940179833141 0.14658227292002385
2060000000.0 0.10770313843407675 -0.4303498355532399
2080000000.0 -0.2896226475020787 -0.3316682155252142
2100000000.0 -0.4359695182680966 0.00740455323997494
2120000000.0 -0.39605054929724487 0.14890985364648793
2140000000.0 -0.379262833764605 -0.17309414320597527
2160000000.0 -0.365877395630121 -0.15321679297526034
2180000000.0 -0.34674930582816144 -0.16885047129065658
2200000000.0 -0.33452179687137445 0.15928943603673643
2220000000.0 -0.33322357700407385 0.14545484239051618
2240000000.0 -0.13692022190097297 0.3301138168908077
2260000000.0 0.22381232102901313 0.27727068974415325
2280000000.0 0.23603063022500823 0.26770298432773026
2300000000.0 0.36922438773803185 -0.024500176571855565
2320000000.0 -0.009849911327397093 -0.3913945176070042
2340000000.0 -0.4109381715856503 0.06788090166017763
2360000000.0 0.34646972007568666 0.30111389263575306
2380000000.0 -0.4310127867193643 -0.25394898776129193
2400000000.0 0.5188416524955715 0.17532589090924228
2420000000.0 -0.5737134461931838 0.16541630113890832
2440000000.0 0.2997766632674984 -0.5680057603035974
2460000000.0 0.28259259909689993 0.6170855261970896
2480000000.0 -0.589696152042855 -0.389044709847061
2500000000.0 0.5965295292106036 0.4128713968211972
2520000000.0 -0.38277466981647834 -0.6298550512167946
2540000000.0 0.05721137938895367 0.7375657545408327
2560000000.0 0.4839402551815789 -0.5553331935963057
2580000000.0 -0.6953725647313984 -0.2043973605681242
2600000000.0 0.2088363647360014 0.6719315929744396
2620000000.0 0.5004840427015219 -0.4574485265057712
2640000000.0 0.31110079281919956 -0.566312401541623
2660000000.0 -0.608323926174798 0.015032753390131616
2680000000.0 0.30925418430975626 0.47328956984453124
2700000000.0 0.2001796438862975 -0.4830008419767003
2720000000.0 -0.43799578445722487 0.1891156408593468
2740000000.0 0.4021334409441739 0.16128176118020437
2760000000.0 -0.147053821769703 -0.36503675919390915
2780000000.0 0.002937310635493789 0.3614472389707553
2800000000.0 0.24553549135929806 -0.22741544884104828
2820000000.0 -0.019829330814789 0.3191243923415444
2840000000.0 -0.23529456314006186 -0.1909682859622659
2860000000.0 0.29575844576567073 0.006954546447362405
2880000000.0 -0.13939152083233355 0.2595394892303442
2900000000.0 -0.23993038016242102 -0.16542422863326806
2920000000.0 0.22087032786796773 0.1851319157624667
2940000000.0 0.26901562421629127 -0.10552646850941495
2960000000.0 0.20326530428986772 -0.21617433559831703
2980000000.0 0.09520675981490062 -0.2891333938947337
3000000000.0 -0.2685472991672162 -0.16375716979539356
3020000000.0 -0.25113816499432656 -0.18747573554901711
3040000000.0 0.10740762262768908 -0.29299053291955096
3060000000.0 0.2810429769356397 0.11728039128060003
3080000000.0 -0.29523461841664816 -0.06361110644173511
3100000000.0 0.23446997243606654 -0.17683183807725547
3120000000.0 -0.28919052375249077 -0.002899706795520681
3140000000.0 0.04855362693500608 -0.28321117972487286
3160000000.0 -0.1567992996058565 0.22210952928744732
3180000000.0 -0.11576218811331727 -0.2319645347397464
3200000000.0 -0.03298876564908145 -0.23299054291929377
3220000000.0 0.19729921224476993 -0.05340111736530921
3240000000.0 -0.16557837031136396 0.05328855796034171
3260000000.0 -0.02883525919262305 0.14331541285098243
3280000000.0 -0.047035958566731796 -0.1080082905292089
3300000000.0 0.09593001387425887 -0.010102631642216652
3320000000.0 0.0697676792344136 0.01911640955824272
3340000000.0 0.03268669794716591 -0.03406531332087714
3360000000.0 0.02380804138544146 0.01098872123377085
3380000000.0 0.0029441779651767077 -0.009525134627706008
3400000000.0 0.00916569903434356 0.0018016070334974698
3420000000.0 -0.01274296477052621 -0.01203407587811306
3440000000.0 0.020220269232251013 -0.005793388907335942
3460000000.0 0.02299834859481632 0.02988947674461673
3480000000.0 -0.0028605762024101265 -0.040151047973431254
3500000000.0 0.04895520179672451 -0.05524367087918891
3520000000.0 -0.044827572622648894 -0.07481284065964729
3540000000.0 0.04561856158570969 0.08703621758012552
3560000000.0 0.08997457030241555 0.043051030442391676
3580000000.0 0.019093737122088367 -0.11168628930131223
3600000000.0 -0.1252554187858528 0.03190100014128105
3620000000.0 -0.1026920793490595 0.10826783851403683
3640000000.0 -0.02895571136622156 0.15513341282622634
3660000000.0 -0.06355433090062464 0.1544420238264994
3680000000.0 -0.011166328132434494 0.17101508731857434
3700000000.0 0.02669025389555109 0.16680836360490361
3720000000.0 -0.15815397970566059 -0.058566838226275356
3740000000.0 0.004477566317908498 -0.1698520107311639
3760000000.0 0.15268627819749334 0.06231883682557893
3780000000.0 -0.11705211252702186 0.10933689429487314
3800000000.0 0.017203889744290463 -0.1530824367028053
3820000000.0 -0.1371869002929116 0.016673888913816645
3840000000.0 -0.017940001164721678 -0.12843114260583555
3860000000.0 0.04286417272967167 0.12078303230469749
3880000000.0 -0.0949365933114836 0.09177432663272635
3900000000.0 -0.12778193165655494 -0.06253599200746106
3920000000.0 0.14834754779511033 0.024857950598800128
3940000000.0 0.0877585891106457 0.13513387066779503
3960000000.0 0.15877637716545584 0.016586875887947446
3980000000.0 -0.15876945059401673 0.026337796417234535
4000000000.0 -0.09461004734498199 0.12600494065135256
