!Created with skrf (http://scikit-rf.org).
# Hz S RI R 50.0 
!freq ReS11 ImS11
400000000.0 0.5843606747936568 0.20401177781383703
420000000.0 -0.2186142371907123 0.5319165075711171
440000000.0 -0.4947189917306339 -0.17519672940607886
460000000.0 -0.2374122663455747 -0.41445252420258877
480000000.0 0.34845336532618165 -0.1712519866578387
500000000.0 -0.35932530052882633 -0.08893001729018529
520000000.0 -0.11698896844416068 -0.306111847785276
540000000.0 -0.1734071515492811 0.24641338496295534
560000000.0 -0.22858800778894361 0.10777254712379791
580000000.0 0.15582033015364238 -0.17872006500882118
600000000.0 0.23686680172687843 -0.07320848030061694
620000000.0 -0.23355471364480462 0.0836893325884931
640000000.0 -0.10678884907730533 -0.2314128549421064
660000000.0 0.09140107515335864 0.2097115362490811
680000000.0 0.22837941883587956 -0.01555125188487788
700000000.0 0.08372072564682914 0.17976360252219367
720000000.0 -0.1552798115314467 -0.11796679963292175
740000000.0 0.1259004332838229 0.15618144311538412
760000000.0 -0.07402195653121796 -0.16433671697353974
780000000.0 0.12729453396152587 -0.1269876210498109
800000000.0 0.10179806868832404 -0.14332692236331956
820000000.0 -0.11754400229636706 0.14373009677950976
840000000.0 -0.0830300307342122 0.15355907755028192
860000000.0 -0.15041865278309957 0.062149044729111425
880000000.0 0.07535122456144022 -0.11090369395656248
900000000.0 0.10373234907735394 -0.026924052687091186
920000000.0 0.09062187098118163 -0.011372448636392108
940000000.0 0.006645942110760728 -0.09094797103665403
960000000.0 -0.05067250674783234 -0.03830787644055722
980000000.0 0.05947719735208794 0.026580919328191115
1000000000.0 0.07828556901999338 -0.0253640120776015
1020000000.0 0.04014378684850496 -0.07860495515282344
1040000000.0 -0.09669788566255065 0.0003517985174136781
1060000000.0 -0.1306258385745791 -0.05719247875265824
1080000000.0 -0.0320242076739788 -0.14978059436644697
1100000000.0 0.11359339957214225 0.1349069736831853
1120000000.0 -0.1872762155895885 -0.018189243500802137
1140000000.0 -0.161123765495706 -0.1389577289566974
1160000000.0 0.13814899961217803 0.18767629971111852
1180000000.0 0.13990854787543147 0.17113097679968634
1200000000.0 0.21177904728166017 -0.06239565631341269
1220000000.0 -0.18377672322707306 0.15788957768943973
1240000000.0 -0.22092125260858342 0.003997344774259161
1260000000.0 0.002344659692236837 0.21854198037544773
1280000000.0 0.0720155282390233 -0.21219319693429095
1300000000.0 0.18401971034377565 -0.15083244899896342
1320000000.0 0.20739833701754629 -0.12926592903341375
1340000000.0 -0.06352599610628115 -0.23615575306579992
1360000000.0 -0.22412957266260836 0.13354974250905288
1380000000.0 -0.05463597115330792 -0.27289004769074876
1400000000.0 0.27455844162489 0.01571829509681245
1420000000.0 0.1596589062401188 0.22217110138147644
1440000000.0 0.21187239425863083 -0.1957759778961042
1460000000.0 -0.2165667087310822 0.1704375408823941
1480000000.0 -0.25678388694662474 0.0231508498226559
1500000000.0 -0.15238657067094916 -0.17967874159185337
1520000000.0 0.18169700402315714 0.13393747347401752
1540000000.0 -0.08014853989403338 -0.19088477823154476
1560000000.0 0.049000553867672554 0.160518233813003
1580000000.0 0.1379685534463705 0.06175556118101386
1600000000.0 -0.10394647168511466 -0.09104488479185693
1620000000.0 -0.017464550847490573 -0.11522595012058072
1640000000.0 0.036005048699554024 0.08981260860797306
1660000000.0 0.09517025123298044 -0.009608454832232152
1680000000.0 0.0936895359796886 -0.0008392096675645496
1700000000.0 0.06073104141699784 0.046812156894130534
1720000000.0 0.07117051720765712 -0.03745509363570895
1740000000.0 -0.043107014822122466 0.07933099738117057
1760000000.0 -0.052531870702785144 -0.08005236905472102
1780000000.0 -0.038153180164847034 0.09353221467986053
1800000000.0 -0.0814211750043956 0.07770198215471735
1820000000.0 0.12547663656010963 0.04662908776665879
1840000000.0 -0.08989135035807015 0.11245600918124886
1860000000.0 -0.1489222208502962 -0.03503536318641511
1880000000.0 0.1133349975201269 0.12918108212381438
1900000000.0 0.06967401422706457 0.1749472079371637
1920000000.0 0.03919597543375375 0.19041069724859006
1940000000.0 0.007304835250437676 0.19602243217718335
1960000000.0 0.08501501594932281 0.18466376401767734
1980000000.0 -0.15571712533734716 -0.12970866988641783
2000000000.0 0.1642792711536277 0.10586405018038215
2020000000.0 -0.1933255141237145 -0.026710994662843542
2040000000.0 0.16169425148069425 -0.10568932649291801
2060000000.0 0.03815118662450504 -0.18808940962038145
2080000000.0 -0.03832580583219725 -0.1840578492316703
2100000000.0 0.1131944902256612 -0.1533918064117751
2120000000.0 -0.023901404326097192 0.19290133071632687
2140000000.0 -0.12499315587409578 0.1501461550970786
2160000000.0 0.17229271847640093 -0.09314214081098816
2180000000.0 -0.17457371205774672 -0.09154793786418591
2200000000.0 0.17363652254655715 0.08675207012127013
2220000000.0 0.05276685179400164 0.18123669276613527
2240000000.0 0.17756896517492246 0.048860989236703456
2260000000.0 0.14771615486695722 0.09048869901567366
2280000000.0 -0.06729446615106478 0.1409876006807784
2300000000.0 -0.13176301303349885 -0.055092600278260274
2320000000.0 0.01745853367289869 -0.12869632441696946
2340000000.0 -0.0012019475823148008 -0.11634237624558326
2360000000.0 0.09240042140029005 0.030617458702904735
2380000000.0 0.03482219518987027 -0.08017339485233363
2400000000.0 -0.05866176132104009 0.05066593122401961
2420000000.0 0.06447635972744745 -0.017283079263899416
2440000000.0 0.011178711619576554 -0.06441532639055098
2460000000.0 -0.05893412253106388 0.03305163672490125
2480000000.0 0.059703041012181206 -0.04107359398947961
2500000000.0 0.07354032787046104 -0.026104777144569897
2520000000.0 -0.00851425462065754 0.08897116886400129
2540000000.0 -0.10113178614901938 -0.030888668266446123
2560000000.0 0.11023760200814997 -0.04045434110549701
2580000000.0 -0.11533402717337113 0.06888259092595377
2600000000.0 -0.12275646200551928 -0.08880557882918104
2620000000.0 -0.01984472141979131 -0.161931879550757
2640000000.0 0.17184095148570047 0.01730390677077019
2660000000.0 0.18320327258980842 -0.0014123860689463335
2680000000.0 0.075814891917178 -0.16838075030951183
2700000000.0 -0.18356403711099606 -0.013825334945894876
2720000000.0 0.1784778864385847 0.035090148764660156
2740000000.0 -0.07534679986448747 0.16283194824764427
2760000000.0 -0.07048673397165085 0.15997310282203925
2780000000.0 -0.14184978731543296 0.09213387259246983
2800000000.0 -0.17008707073151674 0.0243653348542705
2820000000.0 -0.142243786785249 -0.10216277742703306
2840000000.0 0.04363660403755809 -0.17410488536765278
2860000000.0 0.06897032411589576 0.17471875703422884
2880000000.0 0.07749759760687033 -0.1783637523954908
2900000000.0 -0.1918026772905227 -0.07173254113643084
2920000000.0 -0.13886832585306652 -0.15361875788787088
2940000000.0 0.16272429203494365 -0.1299793948949371
2960000000.0 0.02696419322293397 0.20781562147488472
2980000000.0 -0.20399401256660482 -0.0177806603226075
3000000000.0 0.19819629927596893 0.010763369863429559
3020000000.0 -0.1917839056607968 0.006547831135349833
3040000000.0 0.09127861306111286 -0.15695090747906779
3060000000.0 -0.02352591752953865 0.16894152235756632
3080000000.0 0.12054279902579604 -0.10377625992439346
3100000000.0 0.09754425106111467 0.11281445138049774
3120000000.0 -0.10647516047210205 0.09044469221378178
3140000000.0 -0.1299264678966023 0.006206623815020371
3160000000.0 -0.10836376159944053 -0.07082273498651567
3180000000.0 -0.09729275563155237 0.08388814350687963
3200000000.0 0.05475693078456264 0.11649157532052395
3220000000.0 -0.1109009210320279 -0.07901934238745446
3240000000.0 -0.1155980433284443 0.09433680519444398
3260000000.0 0.08016933090633399 0.1402693189705465
3280000000.0 0.11103845620072507 0.13600715791439838
3300000000.0 0.06130035671462679 0.18107585422035077
3320000000.0 0.17423218173815666 0.10550629944669607
3340000000.0 0.016741036938480162 0.21315228204071526
3360000000.0 -0.20995670825305146 -0.07792967479062993
3380000000.0 0.07180735554493019 -0.22293358641200198
3400000000.0 0.23726913052085913 0.007325187020525411
3420000000.0 -0.0535963644692002 0.2334349894640168
3440000000.0 -0.23841694916660233 -0.010947862073985239
3460000000.0 0.06468196743824323 -0.22750275633176992
3480000000.0 0.21974431851800716 0.0642720135075246
3500000000.0 -0.03651450505691529 0.21812617465590592
3520000000.0 -0.17897132607624644 0.11462334208330426
3540000000.0 -0.165906800937179 0.1189011413159163
3560000000.0 -0.02762689613798643 0.19027530264516007
3580000000.0 0.1828732835354867 0.02133589222461418
3600000000.0 0.1727710718468839 -0.04420517873991325
3620000000.0 -0.13131473021359497 0.11247398611674697
3640000000.0 0.16407376684751995 -0.040532141616596476
3660000000.0 -0.1526153463232888 -0.07638577251452718
3680000000.0 -0.1146504912805333 0.1317467342103425
3700000000.0 -0.09730001923086169 0.1537979051249642
3720000000.0 -0.1716118459936262 -0.0803332536512567
3740000000.0 0.16884536698715621 0.10491079948823569
3760000000.0 -0.20603291848116057 0.0504691191653182
3780000000.0 0.20866639133431994 -0.07641933781090944
3800000000.0 -0.07703194399114136 -0.21871040129892513
3820000000.0 -0.15235945658480504 0.18458379067469446
3840000000.0 0.09096434646369495 0.22511377963371548
3860000000.0 0.2424668810163295 -0.01938304811553604
3880000000.0 0.004136573571555411 -0.24548103493303097
3900000000.0 -0.23879176467268975 0.03930231818232906
3920000000.0 0.1673994919889042 0.15865095149817582
3940000000.0 -0.18284772155183673 -0.11754680120102676
3960000000.0 0.047443350925224885 -0.19276509956527865
3980000000.0 -0.1431827963532453 -0.10592367632945801
4000000000.0 0.14823368235711615 0.0427236805403048
