!Created with skrf (http://scikit-rf.org).
# Hz S RI R 50.0 
!freq ReS11 ImS11
400000000.0 0.8386366483318693 -0.25860892807951924
420000000.0 0.7749571404162062 -0.30146480032979495
440000000.0 0.4867269380978227 -0.5987660125713772
460000000.0 0.09382261768731456 0.6893439967475752
480000000.0 0.30907975069780397 -0.5050905300477032
500000000.0 0.563035676757052 0.2682035564568378
520000000.0 0.560142379041149 -0.30647179462590535
540000000.0 0.022678425281101696 -0.6069412783834025
560000000.0 0.599558953972408 0.15228756045157976
580000000.0 0.39539292898107614 0.34951187130114164
600000000.0 0.11333171002485978 0.5864455552337493
620000000.0 0.03643223931079256 -0.5994161002767858
640000000.0 -0.24536098123517489 -0.5117133135411215
660000000.0 0.2031946410792083 0.4808367358347556
680000000.0 0.16022192427514853 -0.4468637014853979
700000000.0 -0.052074735068209116 0.49344563329475444
720000000.0 0.47036358994711724 0.18350652851935617
740000000.0 0.47001153836123755 0.043451111675282574
760000000.0 -0.11592875532632968 0.44270629791704014
780000000.0 -0.35786786658657266 -0.271686970811273
800000000.0 -0.19412819371176804 -0.35662733364571997
820000000.0 0.15138596322959616 0.32215850774150084
840000000.0 -0.3069422883518565 -0.14174122051907842
860000000.0 0.09414270461824874 -0.30154407062875815
880000000.0 0.23609954661775587 0.1404181113556447
900000000.0 0.13562771964601605 0.23365632147977017
920000000.0 0.2609381788851803 -0.003995727384465868
940000000.0 -0.18025595154204127 -0.13034154220768682
960000000.0 0.12311690347641392 -0.11034305230848918
980000000.0 0.0678169363524285 0.11793078973905055
1000000000.0 0.1220725710628741 -0.056411768840497895
1020000000.0 0.08042797616366786 0.0788288356903889
1040000000.0 -0.12975683393031345 -0.028167455993420572
1060000000.0 -0.09034417189421218 -0.12671860965875745
1080000000.0 0.11025379214131936 0.16900705841440322
1100000000.0 -0.08054692222882465 -0.2296183225817077
1120000000.0 -0.2328914233682647 -0.1616460192966857
1140000000.0 -0.2542619350428579 0.17320699038416798
1160000000.0 0.3120484771827867 0.10960382120625174
1180000000.0 -0.03531976227189876 0.3367504995791085
1200000000.0 -0.33200770633478294 0.11698637631085539
1220000000.0 0.2922536613318196 -0.22464388521384543
1240000000.0 0.37985435852162747 -0.029973565492750476
1260000000.0 -0.13329773840659773 -0.3722274126302981
1280000000.0 -0.3061610573099883 0.22122033248030012
1300000000.0 0.15455970089969664 -0.33105821508666333
1320000000.0 0.3160966641624828 -0.20755379900053764
1340000000.0 -0.32923801098828054 0.16352046586163416
1360000000.0 0.14878127689474868 0.3525297442521904
1380000000.0 -0.18011705342985918 0.3502062945472438
1400000000.0 -0.06009332805229416 -0.3746113308876491
1420000000.0 0.33099439348459664 -0.19759535946382162
1440000000.0 -0.18756082200354574 -0.338832820218032
1460000000.0 -0.25261205388247454 -0.29211566798259375
1480000000.0 -0.2120531100832663 -0.33098209096236514
1500000000.0 -0.222116634993668 0.32110697303833086
1520000000.0 0.11290890988621743 -0.3671628796859399
1540000000.0 -0.06214272097235071 0.35950860217366515
1560000000.0 -0.3224174801949307 -0.07040646653948249
1580000000.0 0.28977566950366496 0.03146319818674894
1600000000.0 0.22388317949340936 0.1396985145145405
1620000000.0 0.17801222179205928 0.11913278929221278
1640000000.0 0.026877619104193683 0.183538221475615
1660000000.0 0.1165839948311655 -0.10865777383862409
1680000000.0 -0.052889587523425194 -0.10808115049848506
1700000000.0 0.09339668438300806 -0.07030216545090605
1720000000.0 0.09180184578707648 -0.007063882728165897
1740000000.0 -0.07226373845582966 -0.04101869557518832
1760000000.0 -0.02228600014779998 0.08877039959709933
1780000000.0 -0.10252840508286211 0.034940349844264834
1800000000.0 0.1013130450110461 0.08025046389859096
1820000000.0 0.14222794858874954 0.07383712729628986
1840000000.0 0.04356312019666241 -0.18610378748305717
1860000000.0 0.029169504163638043 0.21767273285632982
1880000000.0 0.24725797067146213 0.051419017114115076
1900000000.0 0.27085879610568636 0.01507240140519065
1920000000.0 0.0061320695801072665 -0.29447659315280217
1940000000.0 -0.30203836701289405 0.042155206467095974
1960000000.0 0.25554823403457716 -0.1731957117987168
1980000000.0 -0.3018702036169116 0.08396637839369041
2000000000.0 0.001685115790808045 -0.31871928809036965
2020000000.0 0.3186981844781271 -0.05083458506669097
2040000000.0 0.32308039207217715 -0.040608942939740614
2060000000.0 0.3201298909348942 0.026787270811872602
2080000000.0 0.04172215555509732 0.3223851543285503
2100000000.0 -0.05654106745607325 -0.31986724129431054
2120000000.0 0.31515193382696727 0.05778412713525688
2140000000.0 -0.25769091458043347 -0.18653073840988985
2160000000.0 0.12877846825487532 0.29228996982637234
2180000000.0 0.1836383910880543 -0.2514657680486528
2200000000.0 0.1835477611702437 -0.2419551296558026
2220000000.0 0.11205254660727246 -0.2771903333229872
2240000000.0 0.2850830984700809 -0.058351626052379126
2260000000.0 0.10869420209556381 0.25320845665207087
2280000000.0 -0.23265116291728583 0.12973537785863448
2300000000.0 0.04918022921386475 -0.24724437334315832
2320000000.0 0.04740784818325433 0.23887793760330242
2340000000.0 0.12642578092262963 -0.20817523747349367
2360000000.0 0.07560481682124454 0.2322985614136832
2380000000.0 -0.19635435590748915 -0.1631748611929689
2400000000.0 -0.27974589448612874 0.018668468724071834
2420000000.0 0.2871981762870927 0.09857713073080872
2440000000.0 -0.2908930537285976 -0.1494311883008231
2460000000.0 0.1738190876385558 0.31136302170855723
2480000000.0 0.0933811243700098 -0.38148794692903043
2500000000.0 0.35514456829138197 0.2367353969015208
2520000000.0 -0.4277871583343448 0.18024713168296477
2540000000.0 0.13291583526720208 -0.4775160030876006
2560000000.0 0.11501649940759646 0.513375348541951
2580000000.0 -0.24442556594365072 -0.4952663727727005
2600000000.0 0.3164064313988367 0.4807483559855081
2620000000.0 -0.41582804759519715 -0.42686598519541447
2640000000.0 0.5119913718160318 0.3326495939698508
2660000000.0 -0.6172297188564038 0.09769576518650128
2680000000.0 0.04260170299670867 -0.6323601377913203
2700000000.0 0.5903692983555873 -0.2539853818109013
2720000000.0 0.6461752247379389 0.03295799540647568
2740000000.0 0.6407157581061663 0.1076613591460005
2760000000.0 0.632317010743108 0.15397215122024976
2780000000.0 -0.3948812488332279 0.5100668330454718
2800000000.0 -0.6013056742541006 0.20525249277575167
2820000000.0 -0.4209941677417955 -0.45972481315528996
2840000000.0 0.5447694501644509 -0.2741168439460387
2860000000.0 -0.39253898320270364 0.44617336036482347
2880000000.0 0.5510121337291594 -0.1597044317880075
2900000000.0 -0.23810359122254252 -0.49819639029302354
2920000000.0 -0.5222117232459542 0.08332494953597251
2940000000.0 -0.30143013664202695 0.3953836570778019
2960000000.0 -0.3459177737475996 0.323570337180858
2980000000.0 -0.25399258097457333 0.3690210746297205
3000000000.0 -0.15340275707824158 0.3951820455080044
3020000000.0 0.08951554865226065 0.39389099657480414
3040000000.0 0.33475670585396666 0.18498885601480322
3060000000.0 0.23543725302213103 -0.2838527889548982
3080000000.0 -0.3538661165861328 -0.044814382182987875
3100000000.0 0.3138940178370861 0.1493341324536042
3120000000.0 0.23416807736774162 -0.2515311832253653
3140000000.0 -0.2787253667289359 0.1974410056006883
3160000000.0 0.3326020175356112 -0.08645519304172745
3180000000.0 -0.33761495305236644 0.06763300199384967
3200000000.0 0.08380670055391229 0.33335872799947946
3220000000.0 0.2662005875343206 -0.2111294330420199
3240000000.0 0.10427920605531091 -0.31751752218066104
3260000000.0 -0.23112294352327836 -0.23230650075728132
3280000000.0 -0.3119921143729854 -0.051653370040870145
3300000000.0 -0.23907989128578744 0.1812983977248408
3320000000.0 -0.041940167187305324 0.2686197869535286
3340000000.0 -0.24578400436838718 0.022695341383830402
3360000000.0 -0.2194528383067438 0.01613528283457735
3380000000.0 -0.07721166751665214 -0.17712847219804526
3400000000.0 -0.08551138127301834 -0.1447311317031628
3420000000.0 -0.05548683238509268 -0.1282388387523119
3440000000.0 0.04104864744619764 -0.11143380307730238
3460000000.0 0.06770773362693534 -0.06732761015463078
3480000000.0 0.016563224475832087 0.07559459952447099
3500000000.0 -0.060808670375589964 -0.0414305415052929
3520000000.0 -0.030432103495762922 -0.0665510571836945
3540000000.0 0.02217708828429085 0.07680740921797546
3560000000.0 -0.02444422399270308 0.08245256485072183
3580000000.0 0.031726979797697674 0.09108300836917359
3600000000.0 0.08573071744978703 -0.059562697440939186
3620000000.0 0.11358151795712418 0.03799213898409883
3640000000.0 0.028072203171953424 -0.1318935451795065
3660000000.0 -0.08558212358817453 -0.11986975627092998
3680000000.0 0.06673306326122184 0.1351792686197882
3700000000.0 0.1010459915480301 0.10467202824635774
3720000000.0 0.12817537516990482 -0.006982247037370349
3740000000.0 0.08690229181033252 -0.05691651501767327
3760000000.0 -0.0053845581004796335 -0.07979956615506074
3780000000.0 0.05308650942132763 0.029624959707392123
3800000000.0 0.012575080197138442 0.023689800940201466
3820000000.0 0.006688132223657063 0.010532533491983439
3840000000.0 -0.026354835603728657 -0.04122719926654675
3860000000.0 -0.07877743900613597 0.0032587321949188843
3880000000.0 -0.004971883957140261 -0.10642326912199242
3900000000.0 0.08493277045574356 0.09602713304531368
3920000000.0 -0.0499134785118313 -0.13500282422974644
3940000000.0 -0.006884069991252344 0.15285599398380295
3960000000.0 0.10757723746079752 -0.11492328054633036
3980000000.0 0.09968144787835675 0.10745200079689234
4000000000.0 -0.12201429588480513 -0.031189498048618165
