!Created with skrf (http://scikit-rf.org).
# Hz S RI R 50.0 
!freq ReS11 ImS11
400000000.0 0.6254560444949309 0.3357890964656438
406500000.0 -0.45906043109337236 0.5183380127991891
413000000.0 -0.3601229094407869 -0.563110296207605
419500000.0 -0.6579607860631893 -0.0227330174404069
426000000.0 0.5333908275336307 -0.3627620955387242
432500000.0 -0.4635351709545526 0.4479942009124721
439000000.0 -0.09640508820301004 -0.6294638020884383
445500000.0 0.51449741010894 0.36772966406732954
452000000.0 -0.45094315105815064 0.4247774901292051
458500000.0 -0.0906061184004594 -0.605427047290962
465000000.0 0.6015529602743136 0.10873270773070705
471500000.0 0.5556241278930963 0.23637137366869887
478000000.0 -0.22998488829387687 0.5396802498804942
484500000.0 -0.5062388695756641 0.28589056373353855
491000000.0 -0.5517720346624391 -0.11893406429762618
497500000.0 -0.5427144726134783 -0.09197718557993366
504000000.0 -0.4490425941271241 0.2726033465821022
510500000.0 -0.11953477031173239 0.4806536657339245
517000000.0 0.04703078616297492 0.46352571576500917
523500000.0 0.1022183031859291 0.4273916852017041
530000000.0 0.21253621295330824 0.3485669328466229
536500000.0 0.37051366278154396 0.03971647036080585
543000000.0 0.3390744061691236 -0.1181100917494837
549500000.0 0.3348632141113799 -0.02255472753639187
556000000.0 0.022434805837724812 -0.3164008607029915
562500000.0 0.30135210192868384 -0.03988811027940701
569000000.0 -0.0077083581248291195 -0.30042105351572296
575500000.0 0.11834044439267132 -0.2706742563366013
582000000.0 -0.21429055680379874 -0.20173727921750428
588500000.0 -0.29753816359085083 -0.050737914990521694
595000000.0 0.15243351544353587 0.2704744591708738
601500000.0 0.2234065369138332 0.20995812790416052
608000000.0 0.13038214837450848 0.27489501922082005
614500000.0 0.016563423461285122 0.3030841422258176
621000000.0 -0.28332357046598183 0.08466072445446501
627500000.0 0.2633196709986351 -0.13891859863688927
634000000.0 0.2896357926205937 0.09848320179439014
640500000.0 0.1551904976665787 0.25101406341420546
647000000.0 -0.1337193273904821 -0.26191372185602885
653500000.0 0.028047591762042016 -0.29552618887183085
660000000.0 0.23712811505491657 0.16066677926339856
666500000.0 -0.2734327992156753 0.08978470742113814
673000000.0 -0.21816426219632507 -0.17273457171553336
679500000.0 -0.25693129853879687 -0.10492509429265984
686000000.0 -0.03130710192623173 -0.269095686804602
692500000.0 -0.042728067660119676 0.2655953743176961
699000000.0 -0.014694066468199091 -0.26453723927814876
705500000.0 -0.2524853264103548 0.07794790692210073
712000000.0 0.2741535568717853 -0.010981667376536247
718500000.0 -0.09465797439734265 -0.25896887284350445
725000000.0 0.0488092805321181 0.28550757566797863
731500000.0 -0.07685079489536942 -0.2827624306162646
738000000.0 0.0720420617381056 0.2965881475412877
744500000.0 -0.12536420063275394 -0.2793646171669926
751000000.0 -0.13355339098005736 0.27988892975122326
757500000.0 0.2888950919754838 -0.13782959587156712
764000000.0 -0.32244452226689996 -0.07071485615066797
770500000.0 0.26911150109976345 -0.20869111323603165
777000000.0 -0.3265107048275065 -0.11958741505686807
783500000.0 0.2852240844723407 -0.20265948856167917
790000000.0 -0.2913688161189648 0.19740181587447272
796500000.0 0.3511485619057757 0.040524480123472824
803000000.0 -0.26297679842486155 -0.22809039775497078
809500000.0 -0.30159691863738286 0.1736853329391129
816000000.0 0.3468140450191017 -0.08041567316112272
822500000.0 0.004083222965717259 -0.35750746815310513
829000000.0 -0.302712655852094 0.21641561620688965
835500000.0 -0.15508326366125016 0.3461856422691493
842000000.0 0.32580807883845925 -0.21472289294086697
848500000.0 -0.24582818206883544 -0.3059327973146785
855000000.0 0.25958750283792675 0.30557235910136543
861500000.0 0.21665741338926936 -0.3439301217293532
868000000.0 -0.3310861785624485 0.2543917282527543
874500000.0 0.34151768491091006 -0.24639532517194457
881000000.0 -0.3741598133216407 0.1955613373005704
887500000.0 0.2656368486180268 -0.3313660576213137
894000000.0 -0.35470960343791536 0.23082451210014218
900500000.0 0.10519834238482174 -0.40701372220062565
907000000.0 0.29692325964107424 0.29282215062545897
913500000.0 -0.3359264711877433 -0.23285492146885753
920000000.0 0.21039912723259635 -0.3432447994204984
926500000.0 0.39669454283495464 0.019794411117641495
933000000.0 0.2203247277008829 0.3159662283907479
939500000.0 0.2675359632705999 0.25965908922037895
946000000.0 0.23336131831664014 0.2620809793124823
952500000.0 0.1823374723641509 0.27230000329665605
959000000.0 -0.12419974633122621 0.28167388591203274
965500000.0 -0.279383382022344 0.08126917806974056
972000000.0 0.2748505535684771 -0.040311078772344265
978500000.0 0.16987046458120242 0.2044493150618083
985000000.0 -0.0986761666705037 0.23269897143000104
991500000.0 -0.24209866048368525 0.007843688376918746
998000000.0 0.10719480509113789 -0.2018485648967374
1004500000.0 0.17855329787673235 0.12881366593500662
1011000000.0 -0.20528596212713085 0.051204388828831174
1017500000.0 -0.07833485879888852 -0.18304161834304072
1024000000.0 0.12952349317878706 -0.1279375943268811
1030500000.0 0.13332016959297172 0.10212911482511412
1037000000.0 0.032507604953602755 -0.14868128495113286
1043500000.0 0.11402218242715206 0.08047086671153761
1050000000.0 -0.04921881674406784 -0.12649866086277795
1056500000.0 -0.12275482615836049 -0.03717632000687112
1063000000.0 0.05257226985079819 0.10845567721411574
1069500000.0 0.11250851180408976 0.027079800160751486
1076000000.0 -0.0006959548246957229 -0.10546650902155051
1082500000.0 -0.004356196881610164 -0.0963828761151199
1089000000.0 0.034924512274039206 -0.08590770841415374
1095500000.0 -0.021951527662593076 0.08591198241609571
1102000000.0 -0.07140819059615755 -0.05957327317008234
1108500000.0 0.09577491841406872 -0.023322891163302134
1115000000.0 -0.09957845972515016 0.04871300136957214
1121500000.0 0.06081266570852349 -0.10989643584636886
1128000000.0 0.08903839394877687 0.11338268933270397
1134500000.0 -0.03595612704098293 0.15501522012604527
1141000000.0 -0.15614908878169512 -0.0903188468147882
1147500000.0 -0.06185442493305139 -0.18555358811443923
1154000000.0 -0.031014638627044292 -0.20245497349769367
1160500000.0 0.1755017011278659 0.11725032429932385
1167000000.0 -0.21451913810922343 -0.026029790596622557
1173500000.0 0.20704538398364425 0.06038374650101108
1180000000.0 -0.14175633052246708 -0.16373516112219658
1186500000.0 0.015132235671411915 0.22059425344085476
1193000000.0 0.17796378911310204 0.1441274003114978
1199500000.0 -0.13067062027436735 -0.20146754963494928
1206000000.0 0.0023251718805741596 0.25153817848621246
1212500000.0 -0.14770407147011394 -0.2178337953122443
1219000000.0 0.21889869145761473 0.16410434692417322
1225500000.0 -0.27320782518393993 -0.07361908692646627
1232000000.0 0.18447551957161676 0.22576375026896678
1238500000.0 0.14386455584819977 -0.2675316909220561
1245000000.0 -0.213419878106018 0.21929801068134458
1251500000.0 0.24584485343792753 0.19033894569954288
1258000000.0 0.047057055509377575 -0.31213933028039653
1264500000.0 -0.09827794434566584 -0.29821610892812866
1271000000.0 -0.3055545502677631 -0.09448539175043712
1277500000.0 -0.27541272315286086 0.17483071845198017
1284000000.0 -0.1025942878779208 0.31579133344573834
1290500000.0 0.2674766120883631 0.2045143239728927
1297000000.0 0.23893519113312253 -0.2417937621746002
1303500000.0 -0.055804080587807156 -0.33355797999664877
1310000000.0 -0.3294456058508484 -0.07689430470567132
1316500000.0 -0.10213243243122486 0.32201309151615387
1323000000.0 0.29417059364258075 0.1641221695474023
1329500000.0 -0.03944683159615281 -0.33294594391353494
1336000000.0 -0.33093309619934946 -0.029555721758361575
1342500000.0 0.008225293162258005 0.3292371670369201
1349000000.0 0.3161631048800484 -0.08754022956494056
1355500000.0 -0.03915415165192816 -0.3291519378239483
1362000000.0 -0.09308942613983656 0.32034450436715145
1368500000.0 0.3144206154777824 -0.13119171462536217
1375000000.0 -0.3414374049617443 0.06371897581531814
1381500000.0 0.34637955841462426 0.05580576523255863
1388000000.0 -0.27632181930831223 -0.23094171769284996
1394500000.0 0.21948818949854618 0.2888710823319711
1401000000.0 0.19013661634954698 0.3135651375801398
1407500000.0 0.22847168210122404 -0.29165698852760613
1414000000.0 -0.13187301967266438 -0.3494550275602433
1420500000.0 -0.36250830888696256 -0.10623490719232397
1427000000.0 -0.34953613902923686 0.14906035716711324
1433500000.0 -0.33045428612565514 0.19468650649448063
1440000000.0 -0.23261686900971637 0.30311258064120145
1446500000.0 -0.2581262535643746 0.28339201044334716
1453000000.0 -0.27890140876211944 0.26095030921594115
1459500000.0 -0.27529468509971794 0.26280009360487255
1466000000.0 -0.039094549577657574 0.3758755749101876
1472500000.0 0.053997190292104064 0.3688947223771975
1479000000.0 0.2613999193425513 0.25298294833094287
1485500000.0 0.31123301492805366 0.16158340337718965
1492000000.0 0.3409937221445719 -0.00018287931999265048
1498500000.0 0.2393541000375776 -0.22335666927141
1505000000.0 0.08322514761831777 -0.307839020028415
1511500000.0 -0.26415723154681137 -0.15921458504861832
1518000000.0 -0.2696891858232867 0.11943454876402787
1524500000.0 0.12769231661439698 0.2593673664532463
1531000000.0 0.12380778623571963 -0.2529053539347082
1537500000.0 -0.24615678055790868 0.13183881455961324
1544000000.0 0.10425836355087693 -0.2573640923710227
1550500000.0 0.11654893553998087 0.250560640879638
1557000000.0 -0.2484367162207802 -0.11165049397645765
1563500000.0 0.269648267732075 0.02783710653115086
1570000000.0 0.15743876982848815 -0.21980906016961804
1576500000.0 -0.25608457634045306 -0.07993185329657974
1583000000.0 -0.022866875581418727 0.2705258533441168
1589500000.0 0.2510120773385289 0.09824899081079111
1596000000.0 0.161134140179693 -0.21567612524125443
1602500000.0 -0.10475582715705976 -0.24530036238904895
1609000000.0 -0.11845671584462963 -0.2352128997049676
1615500000.0 -0.10094268062652094 -0.23560818164485894
1622000000.0 0.18138817114183622 -0.1747950357130615
1628500000.0 0.24313707537736948 -0.03460504726159263
1635000000.0 0.14330570925447972 0.191711970145123
1641500000.0 -0.057989376497667035 0.22467816519910758
1648000000.0 -0.19709914338711768 0.10597712126881606
1654500000.0 -0.10340336359027218 -0.18916139963337888
1661000000.0 -0.1707181960983169 -0.11711440907632394
1667500000.0 0.0848512344401071 -0.17585553939756224
1674000000.0 -0.1073624716406821 -0.14930569779024883
1680500000.0 0.09399048210748888 -0.13818722861311944
1687000000.0 0.15365580339897228 -0.03696015973654569
1693500000.0 0.07063879434047188 -0.13017261536238234
1700000000.0 -0.12913949395862706 -0.05948962931197011
1706500000.0 -0.03952418989048633 0.13088891113189302
1713000000.0 -0.09786294609348743 -0.09084643610495
1719500000.0 0.1305135714920791 -0.011122985809117076
1726000000.0 0.12574964081401768 0.027926446559557668
1732500000.0 0.09887730549959149 0.0794815183415097
1739000000.0 -0.10215422558920177 0.0700722286460886
1745500000.0 -0.00762118244232286 -0.11791280064280507
1752000000.0 0.052143926461249004 0.10261134512715336
1758500000.0 0.06108297268901624 -0.0930499889621973
1765000000.0 -0.0027060637009702587 -0.10971042409456248
1771500000.0 0.10073013392606511 -0.042016304820942804
1778000000.0 0.09988923135769298 -0.042828473692489356
1784500000.0 0.07668756821310842 0.08036754722867988
1791000000.0 -0.10931816241249022 0.019904475161166692
1797500000.0 -0.1103463313318413 -0.0075231205956916595
1804000000.0 -0.08325211819563977 -0.06655730602567984
1810500000.0 -0.09619365139727777 -0.033558670789053315
1817000000.0 0.07966245327517227 -0.039710905654398956
1823500000.0 -0.07855785571719988 0.009576907964900107
1830000000.0 -0.019249634145361086 -0.06301920711715232
1836500000.0 0.0605525627693143 -0.013887770742644603
1843000000.0 0.038541533292608315 0.03648822551337238
1849500000.0 0.012864304911882493 0.048894316595705326
1856000000.0 0.04177340690364754 0.006468699397922949
1862500000.0 0.03485521214093499 -0.01800046666572237
1869000000.0 -0.033873844084490796 0.009639921582292894
1875500000.0 0.003842973306838989 -0.029219455552912613
1882000000.0 0.01970872306636607 0.005932069612649906
1888500000.0 0.0089105237912788 0.008215068699432483
1895000000.0 -0.0006504156440020444 0.009201114117900812
1901500000.0 0.005245193232013494 0.015528890015369771
1908000000.0 0.007051618839396249 0.01941142472013158
1914500000.0 0.022181790949858688 0.015238740308104818
1921000000.0 0.02529643319206628 -0.012451648330164787
1927500000.0 0.027486030730269197 0.01188979624020214
1934000000.0 -0.027116087176236026 -0.015849904852461297
1940500000.0 0.029809806842980752 -0.012073630209889373
1947000000.0 -0.007157605706433555 -0.033435361507556924
1953500000.0 -0.013427231543819012 0.03232137443195203
1960000000.0 -0.03446380022595241 -0.014196874469169861
1966500000.0 0.022934147265157308 0.04070938930250091
1973000000.0 -0.01465766511745449 -0.05473095342500068
1979500000.0 -0.05707505087759306 0.036638646745552346
1986000000.0 0.03980395275703692 0.07380188310737493
1992500000.0 0.09478055296861126 0.0034191191683353088
1999000000.0 -0.09069185652303707 -0.05763977301221939
2005500000.0 -0.11463168140957274 0.03311065243365073
2012000000.0 0.047839790408996614 0.1201364953107911
2018500000.0 0.040751318734297166 0.1288337498548083
2025000000.0 -0.05362282606766359 0.12997624992198265
2031500000.0 -0.14159691431183738 0.02004953343429944
2038000000.0 -0.0857278200733971 -0.11418064621908683
2044500000.0 0.1154683917830043 -0.08740330124012502
2051000000.0 0.05290613982869342 0.13360507529985335
2057500000.0 -0.1437481347061209 -0.012765724748426518
2064000000.0 0.04292758472789408 -0.13524228771315866
2070500000.0 0.09894805950552664 -0.10578091043712026
2077000000.0 -0.012989263592932542 -0.14005234637697964
2083500000.0 -0.12031849921489395 -0.06896670479381381
2090000000.0 0.07178495703906765 0.11350668659466147
2096500000.0 -0.01237819081793673 -0.1331638742178378
2103000000.0 0.1281800253862583 -0.0006009482174951699
2109500000.0 0.020517303011531835 0.12560989002723727
2116000000.0 0.017578060046181922 0.12536075520941978
2122500000.0 -0.03135614990515116 0.12811171542193697
2129000000.0 -0.009387200448683514 0.13840550787436698
2135500000.0 -0.14002673396596257 0.040472384770417376
2142000000.0 -0.13065500821938342 -0.08739440213016593
2148500000.0 -0.1590920802765153 0.05722545918737589
2155000000.0 0.12406512030645908 -0.1365438952233822
2161500000.0 -0.13944210841682608 0.14274577813348163
2168000000.0 0.19992765616279984 -0.07598657159462986
2174500000.0 -0.06011266591410531 -0.21869897810286257
2181000000.0 -0.23720878396409645 -0.022089163850611375
2187500000.0 -0.1635848907206428 0.18501673621977266
2194000000.0 -0.1603986892575819 0.19676480404436875
2200500000.0 -0.10061285224917882 0.24134835135494595
2207000000.0 -0.07535257055797091 0.25172209976669435
2213500000.0 -0.13079712283423342 0.22922579497834691
2220000000.0 -0.19599188972981318 0.17385355522284382
2226500000.0 -0.2550310311253038 0.02488509723617395
2233000000.0 -0.19893052954231905 -0.1511310100460079
2239500000.0 -0.0357328423887962 -0.24157234481532922
2246000000.0 -0.05539304329101252 -0.2277775467834388
2252500000.0 -0.031240124101652875 -0.22215157330836507
2259000000.0 -0.04369546658303521 -0.2089880919646203
2265500000.0 -0.1643358621205301 -0.11648895992322345
2272000000.0 -0.17432001325866986 -0.07867308643503926
2278500000.0 0.1083669507719069 0.14313848558867137
2285000000.0 0.14134444751435443 -0.0940686601454976
2291500000.0 -0.14600585915318187 -0.062310668120732035
2298000000.0 0.005668797898298563 0.15055212537365295
2304500000.0 0.13288458379123544 -0.06148291359631109
2311000000.0 -0.14035912148119575 0.033026431120444906
2317500000.0 -0.09490170602917383 0.10950699839343525
2324000000.0 0.010324926896495234 -0.14898760575666503
2330500000.0 0.13729722151980533 0.06599820414044714
2337000000.0 -0.1279308502084303 -0.08698898273741204
2343500000.0 0.15310032096420853 0.04488055809044089
2350000000.0 -0.11875351174781461 -0.11302217977209149
2356500000.0 -0.08419422792920737 0.1425042810213175
2363000000.0 0.14460054916020362 0.08907119331747296
2369500000.0 -0.021102510390915912 -0.16772881117180463
2376000000.0 0.007874051316931991 -0.16802295620227548
2382500000.0 -0.08281866531555626 -0.1460801125675966
2389000000.0 -0.03025090707350451 -0.16400569727689593
2395500000.0 0.01391054309773384 -0.1628681821952673
2402000000.0 0.09757639602727185 -0.12689961454440457
2408500000.0 0.1456880203101987 -0.06497033613074861
2415000000.0 0.14664391832855414 0.049801134345537824
2421500000.0 0.06013856990322134 0.14071423638050368
2428000000.0 0.007656345097295049 0.14953394789499858
2434500000.0 -0.004602669676431741 0.14567067207113324
2441000000.0 -0.09084773418684378 0.11372011476178194
2447500000.0 0.020057599912314875 0.14353294945371953
2454000000.0 0.10210474547029581 0.103986330781224
2460500000.0 0.14255174725599892 -0.027611419682804856
2467000000.0 0.05025616034837543 -0.1371276115330547
2473500000.0 -0.04348582622788709 -0.13740849022493354
2480000000.0 -0.058542497358881423 -0.1310945778079764
2486500000.0 -0.053653077859858296 -0.13496040915893245
2493000000.0 0.14329695837447978 -0.02853311485686462
2499500000.0 0.12270541329293777 -0.08493848237722564
2506000000.0 0.13392161452414866 -0.07020780950322585
2512500000.0 0.11540271129517392 0.09844083195144399
2519000000.0 -0.11226310165665052 0.10220499360584183
2525500000.0 -0.04172458589406485 -0.14663532210405555
2532000000.0 0.14483966490160047 0.04088420984676271
2538500000.0 -0.13562271093476505 -0.06112724112567093
2545000000.0 0.14122073607435434 -0.03483749584743863
2551500000.0 -0.03786192577482578 -0.13472723434664935
2558000000.0 -0.12488524443255188 -0.05511365960564028
2564500000.0 -0.13171182759547803 -0.022902171769344858
2571000000.0 -0.1211240032885717 0.055689409442414316
2577500000.0 -0.10190511505630145 0.08565514164170815
2584000000.0 -0.0402764106001358 0.12468791732280383
2590500000.0 0.08145352684147605 0.10249565622633887
2597000000.0 0.12042722882712256 0.04535059062428847
2603500000.0 0.09426786747150372 -0.0862179902186047
2610000000.0 -0.10255185635157218 -0.07143929344321087
2616500000.0 -0.03451844045011713 0.11773525554503243
2623000000.0 0.06257262793801373 -0.09921388353342046
2629500000.0 -0.07443359217908199 0.08566763890221382
2636000000.0 0.09049820200609937 -0.05177158031043168
2642500000.0 -0.09081762311915878 0.0384796138937582
2649000000.0 -0.08251984378524736 -0.03853637784662556
2655500000.0 -0.025966828859299473 -0.07710850514050853
2662000000.0 -0.04699990209598144 0.05568031487746713
2668500000.0 -0.04337669206823502 -0.04680004742664812
2675000000.0 0.036935453268902234 -0.03876476792307991
2681500000.0 -0.02198835744033031 0.042478639377815916
2688000000.0 -0.03497991530809898 -0.027579689599316542
2694500000.0 -0.0180016884516261 -0.04211264088491643
2701000000.0 -0.01602709374985709 0.04711043069444647
2707500000.0 0.010512755353079363 0.06053151831660435
2714000000.0 0.06840423546525704 0.01974306524428698
2720500000.0 0.06252828264214112 -0.06166378467411706
2727000000.0 0.006551404160995004 -0.1008300767082588
2733500000.0 0.08680477698360055 -0.07844526724254294
2740000000.0 0.13170636297232205 0.002474523916395168
2746500000.0 0.12263188788581224 0.07695149888856817
2753000000.0 -0.1064330121758406 0.11620826224205107
2759500000.0 -0.11900327917571316 -0.11634640969511886
2766000000.0 0.09851476625708015 0.14566471030904646
2772500000.0 -0.08600002887843544 -0.16347776363400496
2779000000.0 -0.09784005317989672 0.17061934425954015
2785500000.0 -0.005485858282935042 -0.20712040674071597
2792000000.0 0.02865338859712226 0.21616182195850378
2798500000.0 -0.22179018793286706 0.051797642172757695
2805000000.0 0.02018533739059826 -0.2309732721849134
