!Created with skrf (http://scikit-rf.org).
# Hz S RI R 50.0 
!freq ReS11 ImS11
400000000.0 -0.7031625497176365 0.36385375318929053
420000000.0 0.711707305700527 -0.2225205016820664
440000000.0 0.04031553765531168 -0.7250589572795222
460000000.0 -0.07294237547825835 -0.639544921496871
480000000.0 -0.5047381357305879 0.1444342213236065
500000000.0 0.1912197027180468 0.3678695673218685
520000000.0 0.3433868385270642 -0.26760626485625283
540000000.0 0.18710201741844545 -0.4392210120356926
560000000.0 0.3317150931112997 -0.3012174885142732
580000000.0 -0.4197769744593991 0.1059218185463224
600000000.0 -0.3750638575469451 0.12300028489856957
620000000.0 -0.3402431440945124 0.1488500914890661
640000000.0 0.30733741608710957 0.17219475026338207
660000000.0 -0.3103847470440143 0.1340526532935174
680000000.0 0.3320805069938468 0.017468124771285256
700000000.0 -0.1217989523051308 -0.3207706635382084
720000000.0 -0.3245744343238522 0.1288486654660863
740000000.0 0.3302931965153806 0.05291279122541004
760000000.0 0.15643040873837696 -0.2517461438962236
780000000.0 -0.267472831913147 0.013068758796946241
800000000.0 0.15685208714740817 0.18785943388266435
820000000.0 0.046247895987397626 0.21193553580119587
840000000.0 -0.09012971182564739 -0.19687424034416526
860000000.0 -0.06945866166281822 -0.1848457969930251
880000000.0 -0.04984704962812387 0.18046695679826424
900000000.0 -0.1162598385245182 0.10775752037890562
920000000.0 -0.1289731470289878 -0.06485316340182595
940000000.0 -0.008209836270348029 0.14176199931568215
960000000.0 0.11901565461476789 -0.0019043544507381428
980000000.0 0.0625085144136633 0.04909612540007496
1000000000.0 -0.04752845582240652 -0.01734240564386121
1020000000.0 -0.03286510727302555 0.02545091660595869
1040000000.0 -0.06309816980106162 0.01931734623032128
1060000000.0 0.10507011518802235 -0.005151484735198497
1080000000.0 0.12862492792205704 0.043412572262461806
1100000000.0 -0.1244895346024033 0.1143386306891607
1120000000.0 0.02150643876968926 -0.20094727608252688
1140000000.0 0.06550103962619314 -0.23770550232021737
1160000000.0 -0.15927789730454167 -0.22376256009818707
1180000000.0 0.2713832937663381 -0.08247675949620623
1200000000.0 0.1730422259867598 0.25516260013718484
1220000000.0 0.2612171699292409 0.17425776699744994
1240000000.0 -0.15693651618132942 0.2869276061294611
1260000000.0 -0.02981982030254397 0.3240468958430007
1280000000.0 -0.31488122733270413 0.11155478496382608
1300000000.0 -0.197095634266725 -0.2818138169722244
1320000000.0 0.35412532618315334 -0.016250999895599375
1340000000.0 0.0063038054050498105 0.3717663468923519
1360000000.0 -0.3758595524575605 0.050327371675983945
1380000000.0 0.30586209145579 -0.22789675787252883
1400000000.0 -0.3219777001853657 0.1977170605013758
1420000000.0 0.1645419565653152 0.33712258431623604
1440000000.0 0.20963522700099957 0.30398342800232225
1460000000.0 0.3239558760075761 -0.1637859015979255
1480000000.0 -0.22465328652994454 -0.2721709124317569
1500000000.0 -0.054215687652747084 0.3340647482257645
1520000000.0 0.25875448584467475 -0.1716919858020408
1540000000.0 -0.2556941232221545 0.11192087824244791
1560000000.0 0.022974072224648222 0.2469754541203911
1580000000.0 0.04181464126254787 -0.21165414239018124
1600000000.0 -0.17873714623774872 0.04661810528332239
1620000000.0 0.16061093046885982 -0.03430800556804751
1640000000.0 -0.033998016908061854 0.13547184267537576
1660000000.0 -0.08985409914801246 -0.07157788711222075
1680000000.0 0.04245264888316774 0.07977642559505911
1700000000.0 0.0494801349566802 0.05263781629655833
1720000000.0 -0.0565184647638214 0.013361501675190523
1740000000.0 0.04860832311210668 0.029566954239763816
1760000000.0 0.02822279828354579 0.06253855710521554
1780000000.0 -0.0989734434840565 -0.026043221663704475
1800000000.0 0.12582054476540352 0.03445472228512474
1820000000.0 -0.006765683717453011 0.16438453750045645
1840000000.0 -0.06638903476621832 0.1852860549142436
1860000000.0 -0.08310349921804906 0.20806210179538567
1880000000.0 -0.020699575686580297 0.24514926250249744
1900000000.0 0.24008447338449393 0.1272669670619641
1920000000.0 -0.0035991408481257426 -0.28932875229671023
1940000000.0 -0.13358069660059674 0.273504942760144
1960000000.0 -0.23243040729726014 -0.208455795440619
1980000000.0 0.2893326036789092 -0.11623503662368424
2000000000.0 0.10130967085562134 0.29470980241323225
2020000000.0 -0.10534929743032925 0.29579907001078
2040000000.0 -0.22336719506790223 0.2110798868223725
2060000000.0 -0.30181677937358836 -0.019882701288419697
2080000000.0 -0.15917563899719708 -0.2559338023579031
2100000000.0 -0.039882941445322236 0.2958483143189891
2120000000.0 -0.26795487313485905 -0.12911408403090738
2140000000.0 0.2794139273919104 0.08269223265529879
2160000000.0 -0.2859654321886303 0.006184516245275699
2180000000.0 -0.04802845864801346 0.2716975042044794
2200000000.0 0.06581839233237056 0.2615857123195078
2220000000.0 0.10885450657946343 0.23791745924173027
2240000000.0 -0.10008007226091856 0.23604485020942953
2260000000.0 -0.21131882156287987 0.11865398030588732
2280000000.0 -0.07160012230059455 -0.22130773744153348
2300000000.0 0.1704742087439649 0.13948010362681662
2320000000.0 -0.04494137580602343 -0.21034758577152926
2340000000.0 0.20078410016339318 0.06665838799037034
2360000000.0 -0.20653775931383053 0.021734049052576997
2380000000.0 0.1849291455388994 0.10729523168973741
2400000000.0 -0.22541802885178416 -0.049112253446972454
2420000000.0 -0.1541641011479006 0.2083918585065044
2440000000.0 0.2729919037155175 -0.08835816109823141
2460000000.0 -0.20266228989270696 0.24791912737373883
2480000000.0 0.30043053771489353 -0.18250610935375725
2500000000.0 0.14271296437057995 0.36378110181257506
2520000000.0 -0.4239600870887291 0.04686357028907201
2540000000.0 -0.02162146532244843 -0.46368782201119746
2560000000.0 0.4428495483800292 0.23024694242806223
2580000000.0 -0.5320869332593324 -0.027069985711317985
2600000000.0 0.38993114663051487 -0.4066299835651566
2620000000.0 -0.1326425614739603 0.574010785154127
2640000000.0 -0.297791404510043 -0.5327768165645392
2660000000.0 0.6124974079331033 0.14382881995260866
2680000000.0 -0.32980323850959953 0.5510471195700546
2700000000.0 -0.6167141289867343 -0.2190941363814421
2720000000.0 -0.38990969480857585 -0.535062232084233
2740000000.0 -0.2958957452540827 -0.5977710928894422
2760000000.0 -0.20908438061444684 -0.635247419412843
2780000000.0 0.6648359220365978 0.0161556885798393
2800000000.0 0.6117404332217925 0.24017032521764267
2820000000.0 0.2531214156053113 0.5954210642593134
2840000000.0 -0.5494490580446467 0.3159660662268571
2860000000.0 0.18915847324606755 -0.5911605574086438
2880000000.0 -0.3406555550835793 0.49960567804219375
2900000000.0 0.5858826577718429 -0.043223793408213196
2920000000.0 -0.25963534333879346 -0.504918947007211
2940000000.0 -0.5431381750246905 0.02222293563458332
2960000000.0 -0.3317019982969254 0.3997385383523295
2980000000.0 0.08515754982763911 0.4890709452240214
3000000000.0 0.4585581981943848 0.11375431446179096
3020000000.0 -0.0012830974189820931 -0.4475452003670312
3040000000.0 -0.306434097208343 0.2861933754707703
3060000000.0 0.3755643410610624 -0.10762160481897684
3080000000.0 -0.362861697486401 -0.028235245586839416
3100000000.0 0.33075397941635154 0.0893760515276797
3120000000.0 0.25740585222287266 -0.20487207524493337
3140000000.0 -0.2799365080605027 0.154811074330983
3160000000.0 0.2177923578039375 -0.22954332173131237
3180000000.0 -0.2692464749091706 0.15797120209941123
3200000000.0 0.262756056247123 -0.16212081612979995
3220000000.0 -0.22436419613034522 -0.1937929463800786
3240000000.0 -0.2854442985197824 -0.005827414882090265
3260000000.0 -0.24907950384575964 -0.09132556181301706
3280000000.0 0.14326105199480685 -0.21007931255788403
3300000000.0 0.18943587196792203 0.14303843660770818
3320000000.0 -0.2027782898316618 0.08477260486841728
3340000000.0 -0.07976138045282992 -0.1814466478797322
3360000000.0 0.11498503360270763 0.1265949288778486
3380000000.0 0.060498640406765 -0.13111866560374832
3400000000.0 0.030047331372709107 -0.11669105178702895
3420000000.0 0.0944628837296629 -0.05434467212576952
3440000000.0 -0.09771472178461417 -0.014551306857256181
3460000000.0 0.009666109252830431 -0.08874255860622145
3480000000.0 0.07357563203321989 -0.03386051871150952
3500000000.0 0.014956043021805594 0.06584655482261009
3520000000.0 0.0018851587553292892 0.05794803318935817
3540000000.0 0.05423709475052882 0.01791470340177999
3560000000.0 -0.057166099766068276 -0.0004223097606010439
3580000000.0 0.0035808192693454143 0.06789347613995136
3600000000.0 0.0405329711659319 0.06417344696314818
3620000000.0 -0.06622881030344101 -0.06431913805797579
3640000000.0 -0.08723222732775249 0.04922385483418869
3660000000.0 -0.06391025815329211 0.08330647962185923
3680000000.0 0.02337188978063608 -0.09868514991902813
3700000000.0 0.08617184916586972 0.035802157403055056
3720000000.0 -0.02262438169982119 0.08179982332669737
3740000000.0 0.02539287524494358 0.07015539669198034
3760000000.0 -0.050550068955583824 -0.04553147971291714
3780000000.0 0.05515298509138669 -0.0039049496260943448
3800000000.0 0.03393360497742154 -0.01077707607901763
3820000000.0 0.008775592596631233 -0.030164914043271304
3840000000.0 0.04764926211853531 -0.011800341466023347
3860000000.0 -0.038901835006199356 0.05897609339303683
3880000000.0 0.0005482153452388183 -0.0892003346381712
3900000000.0 0.09569926742908405 0.03901476828828742
3920000000.0 0.07611807538907744 0.07559584703860396
3940000000.0 0.07376957799443101 -0.07508754960095002
3960000000.0 -0.029586427774096178 -0.10294230783912353
3980000000.0 0.013270918961200242 0.10079171790682458
4000000000.0 0.031154994432066225 -0.08544633160275898
