!Created with skrf (http://scikit-rf.org).
# Hz S RI R 50.0 
!freq ReS11 ImS11
400000000.0 -0.747169593314252 0.25855692506901523
420000000.0 0.7077456759578099 -0.23800301782060979
440000000.0 0.13167506115290675 -0.7178776854591993
460000000.0 -0.4385873729384765 -0.4687930880366575
480000000.0 -0.5252954201744203 0.037605080684636596
500000000.0 0.33562540658111395 0.23331066260140026
520000000.0 0.41928885979271363 -0.1226835945449085
540000000.0 -0.018771940595524547 -0.4756577641856059
560000000.0 0.43407018513203577 -0.1524424034994103
580000000.0 -0.3761111693231739 0.23068693174667834
600000000.0 -0.04430314111035584 0.3795211420991861
620000000.0 -0.017593465385999603 -0.35737354911359404
640000000.0 -0.11800489352258405 0.3373022913172962
660000000.0 -0.3341499027737726 0.08704156780066105
680000000.0 0.11848263960985693 -0.3166570709382269
700000000.0 -0.3390676379121978 -0.04537815814348533
720000000.0 -0.3091851047481311 -0.13263758251622895
740000000.0 0.3007692865547821 0.1459879241256903
760000000.0 0.2986075854450513 -0.0013290563327924192
780000000.0 -0.21540032618504037 0.16396743819294474
800000000.0 0.24544444171068674 0.025266844104971084
820000000.0 0.15526852441008243 0.14589596595052162
840000000.0 0.06256081654979107 -0.20239743389582995
860000000.0 0.1435043468434483 -0.1367759098152063
880000000.0 -0.1561370775879174 0.11726182892920131
900000000.0 0.10286265737087559 0.11424170700465777
920000000.0 0.06984501806610921 -0.12372809146480082
940000000.0 -0.14367419393579672 -0.010806641088897012
960000000.0 0.10093919959235619 -0.07272847901662793
980000000.0 0.07613484433819727 -0.004233133143219589
1000000000.0 -0.04363509877107341 0.0008309697600009204
1020000000.0 0.013739725975660207 0.039957493077741185
1040000000.0 0.06341812765638055 0.02082875617364551
1060000000.0 0.10963138341294677 0.010953557866508153
1080000000.0 -0.044229838285749626 -0.12724713371139695
1100000000.0 -0.13727590963930375 0.09470422675603359
1120000000.0 0.03487572722241823 -0.2009134331054596
1140000000.0 0.16008257678618318 -0.18804843065471416
1160000000.0 -0.13726004517240242 -0.2353905604302938
1180000000.0 0.27848384699433 -0.07976396192558272
1200000000.0 0.2735165001987431 0.13921352341109197
1220000000.0 0.2111776376204983 0.23288504694506837
1240000000.0 -0.22856887838069723 0.23438841856475218
1260000000.0 -0.1223701992670522 0.30282324556737783
1280000000.0 -0.2520161224693443 0.2185931683693548
1300000000.0 0.07479805901492383 -0.333863932956908
1320000000.0 0.3474516032683817 -0.0888475199912659
1340000000.0 0.13162076030642428 0.3458449629795923
1360000000.0 -0.3774504373441468 -0.030554382439573077
1380000000.0 0.30830586760072476 -0.22095321476015303
1400000000.0 -0.31711882115821377 0.20595070369563911
1420000000.0 0.1928767915615043 0.32552118651400297
1440000000.0 0.34437830864459623 0.13329282298902748
1460000000.0 0.3141168714772756 -0.18377387892478456
1480000000.0 -0.2003992307910245 -0.28969198167000804
1500000000.0 -0.02035778120114269 0.33963584304089334
1520000000.0 0.3057285006598617 -0.06125398884148088
1540000000.0 -0.2356373794048436 0.14956550669637655
1560000000.0 0.09695022635346176 0.22816314310148442
1580000000.0 0.09618205227845394 -0.19108483205495283
1600000000.0 -0.18165491774246564 0.02830406331079969
1620000000.0 0.14944886169213337 0.0681460934727585
1640000000.0 0.07846936629221289 0.11653544126915476
1660000000.0 -0.09197143975685827 0.0604959553951594
1680000000.0 -0.0809718720184106 0.039056993992282414
1700000000.0 0.07315031341013105 0.004326522472737705
1720000000.0 -0.057515323493074845 0.011069913196186984
1740000000.0 -0.04328674372946005 -0.03496953220717139
1760000000.0 -0.04033729968376631 0.054826290370771615
1780000000.0 -0.09743737818531825 -0.03680668245221779
1800000000.0 0.11535968606160851 -0.05808971588244917
1820000000.0 -0.0303438786897588 0.16084659710359742
1840000000.0 0.07291284441330947 0.18569037263942337
1860000000.0 -0.06404081893938852 0.21439296748241266
1880000000.0 -0.13095152510092004 0.20788532381883362
1900000000.0 0.25652979854656816 0.09823329487163189
1920000000.0 -0.16788440628929363 -0.23639954613899686
1940000000.0 -0.13805015857312147 0.26770783228125
1960000000.0 -0.09830886996556625 -0.29666178886566835
1980000000.0 0.2849190643964597 -0.13592523569043957
2000000000.0 0.21591217875377183 0.22321874089524144
2020000000.0 -0.1621798171396018 0.2642101097907964
2040000000.0 -0.2749293748873163 0.1388298397393624
2060000000.0 -0.30110714816731077 0.03165619418394542
2080000000.0 -0.11536010121694926 -0.27711140780839044
2100000000.0 -0.003835343052478396 0.29912896207353107
2120000000.0 -0.287153413076868 -0.07302789168501668
2140000000.0 0.2865446258406072 0.05041526607551858
2160000000.0 -0.2722444069423147 0.09019196859147363
2180000000.0 -0.05527698349429599 0.26888357898762266
2200000000.0 -0.020282041678225695 0.2702063315165935
2220000000.0 0.15341988653305091 0.21283942396346714
2240000000.0 0.040808913206547184 0.25260566496098247
2260000000.0 -0.2397177769025417 -0.015609778685332844
2280000000.0 0.06172694297279195 -0.22482633115842368
2300000000.0 0.21839882496115737 0.04713608226899593
2320000000.0 -0.1528283923241688 -0.15125672257000664
2340000000.0 0.1883412903992106 0.09143770121963508
2360000000.0 -0.18768141632144958 -0.09242106152539263
2380000000.0 0.1841353526344226 0.10950660983567824
2400000000.0 -0.2321101510458648 0.010574973395733368
2420000000.0 -0.12442378210994998 0.22652882660822046
2440000000.0 0.25839712583436875 -0.12223032200029975
2460000000.0 -0.171528134588353 0.269918099075793
2480000000.0 0.2913724752479529 -0.19881724048744667
2500000000.0 0.17053709006330725 0.3511773226800618
2520000000.0 -0.4236687684084926 0.04794479532024547
2540000000.0 -0.03175765212287188 -0.46382594204066746
2560000000.0 0.45425106955258987 0.20913490493675568
2580000000.0 -0.5316415332717899 0.03472650533908789
2600000000.0 0.41225589383225963 -0.38528760395129547
2620000000.0 -0.1402197627788973 0.5726521961418913
2640000000.0 -0.2612191914191365 -0.5523231385927072
2660000000.0 0.6208452122127821 0.09445959871300245
2680000000.0 -0.2769241925258308 0.5783045890573336
2700000000.0 -0.6448879045482272 -0.10049283640572755
2720000000.0 -0.46533139641660126 -0.46908310481822824
2740000000.0 -0.24037669141535944 -0.621470418404336
2760000000.0 -0.22158689338419513 -0.6305295167597837
2780000000.0 0.6586585414058463 -0.08788648416934806
2800000000.0 0.6442553122927518 0.1281355302238623
2820000000.0 0.2914454610441693 0.5760920762138579
2840000000.0 -0.5634725668797624 0.2895177191221433
2860000000.0 0.2509537835591774 -0.5677762503420382
2880000000.0 -0.30009701098219965 0.5249613501479683
2900000000.0 0.5840312800090699 -0.0634116334871309
2920000000.0 -0.2534971904104416 -0.5063960180129601
2940000000.0 -0.5226747835822574 -0.1370047709707728
2960000000.0 -0.3953809962854415 0.33616638760720335
2980000000.0 0.1605928356750502 0.47019839527203255
3000000000.0 0.46448279138328785 -0.06254007931846792
3020000000.0 -0.030237884543270553 -0.44220039434660535
3040000000.0 -0.1350601035371947 0.39685521787048855
3060000000.0 0.32710475059572947 -0.21230628999580398
3080000000.0 -0.35650301451560445 0.07900448816956893
3100000000.0 0.3405857498166855 -0.039795613041321155
3120000000.0 0.1262934336392345 -0.30342424685015323
3140000000.0 -0.2922815735709848 0.12839507927626517
3160000000.0 0.2630963905803465 -0.18150519287739478
3180000000.0 -0.20134990936565322 0.24172193471741793
3200000000.0 0.290928031212458 -0.09971827079705417
3220000000.0 -0.17647801928870363 -0.23895068833953823
3240000000.0 -0.2823902063757269 -0.020052773150491084
3260000000.0 -0.16054392329544465 -0.21212973503315918
3280000000.0 0.0911440767669005 -0.2369527809485031
3300000000.0 0.1391438104209578 0.19035696636696217
3320000000.0 -0.20299416688501748 0.07889904089781985
3340000000.0 -0.04307650623297385 -0.1920865497254759
3360000000.0 0.11566507986907926 0.12556082190280965
3380000000.0 -0.030023834554877196 -0.14063336836839369
3400000000.0 0.005196309937848879 -0.12003952274534138
3420000000.0 0.0414004513859699 -0.09935715053033335
3440000000.0 -0.08289593896775664 -0.05427049657473991
3460000000.0 -0.08047100236885557 -0.043038703843218354
3480000000.0 0.004298023814900169 -0.08007895042326807
3500000000.0 0.0569169392115338 0.03707259803975104
3520000000.0 0.052816213506086604 0.02396513322382642
3540000000.0 -0.04231503263714665 0.039565306615272834
3560000000.0 -0.0043606600027492 0.0593190987701568
3580000000.0 0.0561306004379194 0.039691820146636636
3600000000.0 0.07300078292555942 -0.021741625331943824
3620000000.0 0.0071623383664253 -0.0923995515666037
3640000000.0 -0.09952779468987911 -0.018072220245337323
3660000000.0 -0.08397241195165188 0.0662366358772101
3680000000.0 -0.049100401787689395 -0.08904234659003116
3700000000.0 0.03176821374569053 0.08635291965012644
3720000000.0 -0.00015325254143549942 0.08531524913752904
3740000000.0 0.03401393598793257 0.06770545490474099
3760000000.0 -0.0651267680764172 -0.019762017094194076
3780000000.0 0.054532065029228714 0.010252850994800866
3800000000.0 -0.004149761447349653 0.036332328153992
3820000000.0 -0.029745723442194248 0.009744393464569323
3840000000.0 0.019645208254963315 -0.04388318343823871
3860000000.0 -0.045366326814007 0.054371011253977364
3880000000.0 -0.07970350767617397 0.038608566037825386
3900000000.0 0.0765133508086703 -0.06838246219354202
3920000000.0 0.08087057868776451 0.0704886467874726
3940000000.0 0.06551006531165468 -0.08329917178433167
3960000000.0 -0.10558186393071826 -0.002756998118604383
3980000000.0 -0.04084818047297701 0.09164738195335057
4000000000.0 -0.019500037566353816 -0.08695482151968498
