!Created with skrf (http://scikit-rf.org).
# Hz S RI R 50.0 
!freq ReS11 ImS11
400000000.0 -0.7642061518477226 0.211761181179338
420000000.0 0.7058988876536715 -0.24732358755854744
440000000.0 -0.0661471208444204 -0.7243580165270369
460000000.0 -0.29285814617388284 -0.5723523584998105
480000000.0 -0.49741802408750374 -0.16161264810661297
500000000.0 0.15795366690892257 0.3802176696766755
520000000.0 0.42567534783462113 -0.11644291727497691
540000000.0 -0.04439702035776412 -0.471361906322147
560000000.0 0.21834923710077117 -0.3984169218136504
580000000.0 -0.367211217183209 0.22604389029647856
600000000.0 -0.37781680556150643 -0.09301495013419943
620000000.0 -0.34086926804168444 -0.14626549258899937
640000000.0 0.263930355772024 0.23068198282194463
660000000.0 -0.27195587619701833 -0.20648220156823677
680000000.0 0.29528127881643673 -0.16416998955712223
700000000.0 -0.3397845105540994 -0.02889033641387032
720000000.0 -0.3467214941867865 -0.016886725218111864
740000000.0 0.32805148440425663 0.0326129353876704
760000000.0 0.29407345680343155 0.02007446238703619
780000000.0 -0.14576030852426927 -0.22888047818579402
800000000.0 0.22545561466818254 0.11198246001851266
820000000.0 0.16264267105340208 -0.1405344614357324
840000000.0 0.05392896279267325 -0.20270048557943474
860000000.0 0.19393156698835043 -0.033546964347463376
880000000.0 -0.04965051256906617 0.18592200835651254
900000000.0 0.025515921339602378 0.15759043812232754
920000000.0 -0.04724126064732414 -0.13849070031119154
940000000.0 0.026763799110984667 0.1389234349969413
960000000.0 0.08844057929179516 -0.07568104465494872
980000000.0 0.041400402990367416 0.06555439544243027
1000000000.0 0.05293149642016975 -0.007279485892378899
1020000000.0 0.039975029102486154 -0.022015065996555505
1040000000.0 -0.0332828976914468 -0.062133362126661644
1060000000.0 0.08747760165448755 -0.04920530247584019
1080000000.0 0.05384960961952377 0.12265456021486429
1100000000.0 -0.15704468623080475 0.07171891735119791
1120000000.0 -0.15957691898006396 -0.12973075184899416
1140000000.0 0.12999225754890578 -0.20574879563118711
1160000000.0 -0.15031626547958815 -0.22719336749124297
1180000000.0 0.2705780393142302 0.0855520716960852
1200000000.0 0.19911250619818113 0.23987624832701215
1220000000.0 0.31314116868006103 -0.013083212061906093
1240000000.0 -0.21853634923495224 0.23967973345023796
1260000000.0 -0.12473154745341186 0.30134181968322654
1280000000.0 -0.2816825685628538 0.18193498688220164
1300000000.0 -0.20334285360061682 -0.27829330186103973
1320000000.0 0.3552129763810758 -0.016873746547970248
1340000000.0 0.05045838050320828 0.3698576206896745
1360000000.0 -0.35083889259960427 0.13683049808220993
1380000000.0 0.3794700287868199 -0.026465777443030032
1400000000.0 -0.31518190658513456 0.21181422876986694
1420000000.0 0.33678003690349756 0.1669217791485969
1440000000.0 0.24463686414200997 0.27315451379471284
1460000000.0 0.3621660286728752 0.020865703635674974
1480000000.0 -0.2320766313941415 -0.26740417577098063
1500000000.0 0.08322511452591062 0.3286524025230208
1520000000.0 0.26452215393487466 -0.16218653241021141
1540000000.0 -0.2717139011648038 0.06213393264472502
1560000000.0 -0.03776685021267269 0.24515823379460466
1580000000.0 0.038589523656866236 -0.21271429237568676
1600000000.0 -0.13502408072302158 0.12852809600626755
1620000000.0 0.16187742480466635 -0.013111874093119919
1640000000.0 -0.12223046288357886 0.0682181175573424
1660000000.0 -0.09581205777341323 -0.06327875368667055
1680000000.0 0.004808484152390052 0.08974691140892926
1700000000.0 0.07042232162719154 -0.01908827913760876
1720000000.0 -0.05773398140400786 0.0009097021756584388
1740000000.0 -0.0037453314637555762 0.05615715155975252
1760000000.0 0.037872042486009866 0.05896849861760298
1780000000.0 -0.0977086394674808 0.02464613663026668
1800000000.0 0.12259181772185104 0.04224042824998931
1820000000.0 0.031612233371677984 0.16146686698261084
1840000000.0 0.016204774726424225 0.19667881422478517
1860000000.0 -0.11638191395998557 0.19118352985917186
1880000000.0 0.008436049199131407 0.2460836008879111
1900000000.0 0.25574823111068234 0.09245707685743886
1920000000.0 -0.07252792352098719 -0.27965851993895735
1940000000.0 -0.18393354688508634 0.2408204303163263
1960000000.0 -0.18304907417029934 -0.25429916791071516
1980000000.0 0.29112682698595455 -0.11828267401702809
2000000000.0 0.20175904982636092 0.23625403195210734
2020000000.0 -0.1019256977297079 0.29409765826593787
2040000000.0 -0.28637500438736835 0.1091510201500638
2060000000.0 -0.28834882123040834 -0.09325789648496462
2080000000.0 -0.12249479559249514 -0.2763849417938041
2100000000.0 0.059722026092260135 0.2927980069069204
2120000000.0 -0.2665690191143716 -0.1301542874965899
2140000000.0 0.26795570249064615 0.11283128008115932
2160000000.0 -0.28509805018672263 0.02097327481355231
2180000000.0 -0.124987443457091 0.2453864200052109
2200000000.0 0.10023898977414135 0.25305037466098707
2220000000.0 0.18720735423137802 0.1820512374265285
2240000000.0 -0.12804912526642148 0.2214047400324517
2260000000.0 -0.22944246913822355 0.07536143195323618
2280000000.0 -0.026323059988975786 -0.2316641441310603
2300000000.0 0.18873706857265599 0.11601510484986995
2320000000.0 -0.1297639233153838 -0.17093889235082693
2340000000.0 0.20426567260769724 0.04957313022468402
2360000000.0 -0.207686989220867 -0.010339554116779523
2380000000.0 0.17443358223562752 0.12395437982339542
2400000000.0 -0.2318864077229011 0.0018450093958240358
2420000000.0 -0.0337397702434533 0.2558919705489879
2440000000.0 0.26965134396885476 -0.09314604782429664
2460000000.0 -0.2369721362231475 0.2164302666681561
2480000000.0 0.32587367183411053 -0.13443720620409058
2500000000.0 0.17182133074839817 0.35036888153538936
2520000000.0 -0.41672082407696937 0.08844440482468623
2540000000.0 -0.009042163371780008 -0.4633653955827633
2560000000.0 0.4054498077726235 0.291192056470249
2580000000.0 -0.5328734948820054 -0.004516319506005837
2600000000.0 0.3713108772859993 -0.4241132169750065
2620000000.0 -0.08182399711981118 0.5827693699852186
2640000000.0 -0.2866033109911895 -0.5388755746475031
2660000000.0 0.6094810096787898 0.1546538572601112
2680000000.0 -0.25174611421865967 0.5898541612848127
2700000000.0 -0.6430435734347579 -0.1128830106870752
2720000000.0 -0.40639479910633125 -0.5219743819900471
2740000000.0 -0.2610908468961989 -0.6135845912509286
2760000000.0 -0.17239797127813083 -0.6456857045831124
2780000000.0 0.6639338410388848 -0.01708176910130641
2800000000.0 0.6296642460454719 0.18720311597668854
2820000000.0 0.27226246398300535 0.5864934115357452
2840000000.0 -0.5373926826123389 0.33565687988748955
2860000000.0 0.20672659386499434 -0.5858623196190118
2880000000.0 -0.3439726158239004 0.49821915079756035
2900000000.0 0.5840455910705449 -0.06237395096291107
2920000000.0 -0.24112447706944148 -0.5127995360060209
2940000000.0 -0.5416010585200359 -0.0011872191553359915
2960000000.0 -0.3274166007373202 0.40094378709874046
2980000000.0 0.13827802400999942 0.4752310424985347
3000000000.0 0.4678923564854523 0.043253367586754174
3020000000.0 -0.1301994311341112 -0.42664003111060733
3040000000.0 -0.16618173926764945 0.3832704014937882
3060000000.0 0.34851171855873825 -0.17430632060569967
3080000000.0 -0.3622570240046131 0.03433826931872096
3100000000.0 0.33463220640883123 -0.0730105263523525
3120000000.0 0.17914135004459708 -0.27515145008566466
3140000000.0 -0.2107841006647759 0.24215247450646443
3160000000.0 0.1858774984780059 -0.2580942073340602
3180000000.0 -0.2659320071217705 0.16480584650368874
3200000000.0 0.2909826985633267 -0.1048994392023439
3220000000.0 -0.20842452732360897 -0.21175389781984555
3240000000.0 -0.2851112536170001 -0.028252941166850336
3260000000.0 -0.2284267330216769 -0.1362045857504237
3280000000.0 0.16764947886101378 -0.18993871015812766
3300000000.0 0.11021207233405157 0.21042750402683447
3320000000.0 -0.2183346460648289 0.029868578884154322
3340000000.0 -0.050948453205715546 -0.1914239734988108
3360000000.0 0.1315353758360728 0.10865042099282317
3380000000.0 0.10800830905591252 -0.0959167919634028
3400000000.0 0.002531723786183817 -0.12062366710691502
3420000000.0 0.0927621251596735 -0.056304434164132985
3440000000.0 -0.08347910056480434 -0.05276452392439569
3460000000.0 -0.04908471386008187 -0.07609243162727136
3480000000.0 -0.013766077159382958 -0.07961329265760456
3500000000.0 0.028251236857225675 0.06086578242466355
3520000000.0 0.03541205400332997 0.04647935703290039
3540000000.0 0.05670129777128569 0.010041991741959046
3560000000.0 -0.03628460378940197 0.045802370374398854
3580000000.0 0.06823621500393526 0.013978923979602037
3600000000.0 0.07243125673280532 0.023437937446048697
3620000000.0 -0.0668882036429821 -0.06561275431904075
3640000000.0 -0.09518538556050284 0.03357376486750986
3660000000.0 -0.08450143035847203 0.06443464542700918
3680000000.0 -0.022134034404091056 -0.09976345852331878
3700000000.0 0.07962517980225306 0.04874080989715996
3720000000.0 0.013967256031869662 0.0833842799364012
3740000000.0 0.029319906554519763 0.06863070615258679
3760000000.0 0.0013911986970945884 -0.069023941543781
3780000000.0 0.0412548819698425 -0.036997143601156704
3800000000.0 -0.005628670475762593 0.03482285213433691
3820000000.0 0.03163360159144705 -0.0036775782294996974
3840000000.0 0.046889754017953346 -0.012743630108434989
3860000000.0 -0.054116374799358415 0.04532260412623134
3880000000.0 -0.0672368154479368 -0.059322765290000475
3900000000.0 0.10294312814650562 0.01332858004562025
3920000000.0 0.06850749127763617 0.0825808876122664
3940000000.0 0.09272070434156195 -0.05069990416613558
3960000000.0 -0.06629403864351177 -0.08206457458069584
3980000000.0 -0.007710417220012585 0.09890773227738207
4000000000.0 0.018940159217813272 -0.08623781757666592
