!Created with skrf (http://scikit-rf.org).
# Hz S RI R 50.0 
!freq ReS11 ImS11
400000000.0 -0.7524701641192264 0.24999267384610618
420000000.0 0.6987101803163901 -0.26479680672948663
440000000.0 -0.014031071865790917 -0.7271160362165602
460000000.0 -0.16985392484685713 -0.6194135908297564
480000000.0 -0.5140289724315399 -0.10016769926736385
500000000.0 0.10418238315870691 0.4007026712398864
520000000.0 0.4174547781664678 -0.134654135420817
540000000.0 -0.004776600936454896 -0.47611830154218954
560000000.0 0.09984565612720545 -0.4413339050515792
580000000.0 -0.4002744495946437 0.15308726716603002
600000000.0 -0.3614425555884875 -0.15449854423766005
620000000.0 -0.3609275185557697 0.09049965093570021
640000000.0 0.16806628791007283 0.3076245597989705
660000000.0 -0.2769940519051426 -0.20141631657561673
680000000.0 0.2111704468205336 -0.26113324438873464
700000000.0 -0.23338226791447064 -0.2476837548385158
720000000.0 -0.35048815794167865 -0.006609983154864432
740000000.0 0.32562587702463835 -0.04061137344482549
760000000.0 0.289705397437092 0.03979895102826336
780000000.0 -0.13023218220677926 -0.23889054262702733
800000000.0 0.23147142414111901 0.10419834942316532
820000000.0 0.08564549594552615 -0.1962376932871027
840000000.0 0.004656540482952779 -0.2098783490369877
860000000.0 0.1893089498195763 -0.04916382828701057
880000000.0 -0.1915623767089431 0.012485394919845216
900000000.0 -0.0866100058894364 0.13581616370652622
920000000.0 -0.1344360489476479 -0.052946591553826625
940000000.0 0.06930947020927596 0.12222336039367886
960000000.0 0.07546680990175253 -0.08789695496421564
980000000.0 0.05631391415146596 0.054263554493389494
1000000000.0 0.0446469518119575 -0.02776807014898803
1020000000.0 0.01986131192485513 -0.04107270882329265
1040000000.0 0.06686579990586088 0.014518899258841072
1060000000.0 0.10222638204068012 -0.007749917116730075
1080000000.0 0.09669708574261403 0.09249566194576407
1100000000.0 -0.16639098848892123 0.03603817191142253
1120000000.0 -0.14498205660516594 -0.1440487703890953
1140000000.0 0.037675847926743236 -0.24249377056605825
1160000000.0 -0.20535942268868823 -0.17944331169684885
1180000000.0 0.26872576631927625 0.08942116167815345
1200000000.0 0.1774638525383675 0.2567402651873099
1220000000.0 0.313323967455765 0.012087928488624758
1240000000.0 -0.20450889764225455 0.2539565089019638
1260000000.0 -0.014082998668134243 0.325405592342563
1280000000.0 -0.30876284813982907 0.12461217881916405
1300000000.0 -0.07176586632405657 -0.3364541399155523
1320000000.0 0.3514435540455919 -0.06666983645220227
1340000000.0 0.16951965909465708 0.33061046791072435
1360000000.0 -0.36754935030157104 0.07592276075026827
1380000000.0 0.3805603373127956 0.00799428448507967
1400000000.0 -0.31380777701909796 0.21505212796162917
1420000000.0 0.3373408133221202 0.16693885453901713
1440000000.0 0.24984508861424376 0.270459392948898
1460000000.0 0.36136585015614736 -0.024751541698201096
1480000000.0 -0.11691671730784524 -0.3353928545499096
1500000000.0 0.018171955818457465 0.33980155399257744
1520000000.0 0.2692981941204672 -0.15437702625892316
1540000000.0 -0.27409375501992744 0.05195360700636131
1560000000.0 -0.03341760046204454 0.24573615124943055
1580000000.0 0.02824772766158623 -0.2130852495918652
1600000000.0 -0.1683063165342689 0.07797496414936976
1620000000.0 0.16209536639337288 0.024385772865361328
1640000000.0 -0.0197592105899 0.13900087770691272
1660000000.0 -0.10846749921100549 -0.03381162943123665
1680000000.0 0.009785898123369462 0.09067269255140652
1700000000.0 0.07281020542445374 -0.010400275215099968
1720000000.0 -0.041324324514605014 0.041166736527792375
1740000000.0 0.02668582985491349 0.05037738500670493
1760000000.0 0.03981453132135301 0.0579477442637976
1780000000.0 -0.09006888114083944 0.046267005371146246
1800000000.0 0.1010263697931133 0.07975774039238805
1820000000.0 -0.024193506646209412 0.16411397101751987
1840000000.0 0.05922601739860824 0.188839954190773
1860000000.0 -0.09263710458743955 0.20222633394002318
1880000000.0 -0.06755769475686534 0.2357493304578627
1900000000.0 0.23370073416377832 0.1408315262017926
1920000000.0 -0.13128799017264275 -0.25805008332043583
1940000000.0 -0.14617326853014345 0.26523619337107324
1960000000.0 -0.19040087847751822 -0.2477711204589888
1980000000.0 0.30681984486227837 -0.06647675738493754
2000000000.0 0.20254994780039093 0.23666474662989123
2020000000.0 -0.09019007822796499 0.29819383957171397
2040000000.0 -0.2803209601801377 0.12360071890776472
2060000000.0 -0.2596304628457228 -0.15533587973139817
2080000000.0 -0.13446096214640862 -0.2710987856806726
2100000000.0 0.06429762703900849 0.29163948680279395
2120000000.0 -0.2851550439326491 -0.07960991064211227
2140000000.0 0.2570151212288794 0.13498620179482396
2160000000.0 -0.28123246028639043 -0.057069841789799444
2180000000.0 -0.09072136621035168 0.2605813324394401
2200000000.0 0.1008694012654606 0.2513779696101507
2220000000.0 0.16690156436653178 0.200090648695059
2240000000.0 -0.11283542718286338 0.23018398585146188
2260000000.0 -0.21519314045099452 0.11060958552299949
2280000000.0 -0.0573025232599129 -0.22452608729955062
2300000000.0 0.15151256178022393 0.16282913310251387
2320000000.0 -0.14279558554735272 -0.1609751803575266
2340000000.0 0.20688294504381224 0.0354114618112717
2360000000.0 -0.20501781387733123 -0.02982015625021985
2380000000.0 0.1455364975414695 0.15650779336850457
2400000000.0 -0.23209835413528712 -0.013460528771894348
2420000000.0 -0.04979070609880232 0.2531513508526776
2440000000.0 0.270753860978228 -0.08828286024134888
2460000000.0 -0.249700969907237 0.2006180221689027
2480000000.0 0.2957151137866264 -0.1900794243179566
2500000000.0 0.1697722664919851 0.3509537479267777
2520000000.0 -0.41436574868253345 0.09989252825525242
2540000000.0 -0.02776930202688194 -0.4629804126136402
2560000000.0 0.43008179707800664 0.25301913893105815
2580000000.0 -0.5323983732330789 -0.023580494929157463
2600000000.0 0.3728977093517715 -0.42263184592963016
2620000000.0 -0.12332549343192485 0.5762375338008008
2640000000.0 -0.26935643298498296 -0.5477179776568369
2660000000.0 0.6037693591665556 0.17370147738945335
2680000000.0 -0.34313781587821157 0.5418732084308593
2700000000.0 -0.623835301009186 -0.19314878390140047
2720000000.0 -0.4301525732955026 -0.5020660335564506
2740000000.0 -0.28622719034432176 -0.6013274069613294
2760000000.0 -0.1916767450786785 -0.6403405588084816
2780000000.0 0.6638405989561635 -0.00781386656880842
2800000000.0 0.6417245617906457 0.14000761054416933
2820000000.0 0.29654106718475987 0.5748119528929053
2840000000.0 -0.5280629648248883 0.3514637149937572
2860000000.0 0.18810577073851253 -0.592336922781235
2880000000.0 -0.3237791536841965 0.5111946382623516
2900000000.0 0.5842958299390629 -0.05921476783709029
2920000000.0 -0.20767931502439976 -0.5272578139717017
2940000000.0 -0.5404968690928 -0.04860907712987867
2960000000.0 -0.3167290315737858 0.40989861306318204
2980000000.0 0.1418456140130508 0.47410147089201105
3000000000.0 0.4704167963172839 -0.019670642888822164
3020000000.0 -0.047452780052678854 -0.44233377954840913
3040000000.0 -0.1737642414657521 0.37990054561154885
3060000000.0 0.3491904597727993 -0.17527058669092296
3080000000.0 -0.3582640444151588 0.06990170799442044
3100000000.0 0.342573128868924 -0.0071925030674074054
3120000000.0 0.22717402573264378 -0.23736096772669998
3140000000.0 -0.28230972086899786 0.15608620452134034
3160000000.0 0.24011605786116252 -0.2092861751082363
3180000000.0 -0.27660262355281146 0.14671591868878542
3200000000.0 0.2899144588530796 -0.10481174102803782
3220000000.0 -0.1653312470236748 -0.24581805423133835
3240000000.0 -0.28221192578268844 -0.03950137689908841
3260000000.0 -0.21596462294372212 -0.1535987712248264
3280000000.0 0.14386635167919032 -0.20758466145208945
3300000000.0 0.17365256089564787 0.15909595843302565
3320000000.0 -0.18647562723599878 0.11568772420708481
3340000000.0 -0.13353520988038003 -0.1459192553157405
3360000000.0 0.15783753314264143 0.06364327538927114
3380000000.0 0.049908833759170546 -0.13544557881838196
3400000000.0 -0.027493042200345222 -0.11782515161408254
3420000000.0 0.02180535934324078 -0.10548683502831802
3440000000.0 -0.09897374563378315 -0.0033261194824103506
3460000000.0 -0.07315937278557674 -0.05287503858484422
3480000000.0 0.025928790006481076 -0.07678575062269989
3500000000.0 0.03289931151667734 0.060094643259204994
3520000000.0 -0.007116696620425786 0.05886574004765841
3540000000.0 0.01991022150121005 0.05434356930282158
3560000000.0 -0.03264967720627787 0.04853646431430765
3580000000.0 0.05712060783910312 0.03744742859596361
3600000000.0 0.07580678429125837 0.00038632524948802635
3620000000.0 -0.07490087018380406 -0.055401933360997115
3640000000.0 -0.0914914351873247 0.04087977651279154
3660000000.0 -0.07610329995072128 0.07435709301218939
3680000000.0 0.017674193659556216 -0.10079901706230632
3700000000.0 0.07825642210458746 0.05139270122778845
3720000000.0 0.012351429132291187 0.08365532633161915
3740000000.0 -0.02689621846521785 0.07017067410187451
3760000000.0 0.00795632800919136 -0.0681117174179882
3780000000.0 0.03760036739649677 0.03937082563690189
3800000000.0 -0.03402316587662424 0.008344408204118211
3820000000.0 0.012275040209962269 -0.029991023964702716
3840000000.0 0.021864384738712116 0.04353770700704529
3860000000.0 -0.06890727131625111 0.01786910181872423
3880000000.0 -0.03551106968203965 -0.08206830634864054
3900000000.0 0.09223012324885166 0.04277608130014848
3920000000.0 0.043441442042815005 0.0962520932214559
3940000000.0 0.09611067669224703 -0.04257284551987294
3960000000.0 -0.02315938880330656 -0.10299173652390455
3980000000.0 0.05272160154045984 0.08372999420452418
4000000000.0 0.02531652892309505 -0.08457165552189365
