!Created with skrf (http://scikit-rf.org).
# Hz S RI R 50.0 
!freq ReS11 ImS11
400000000.0 -0.7629691088368326 0.2147177085794693
420000000.0 0.7025009578826453 -0.25593766708041693
440000000.0 -0.02807161075105027 -0.7264714572789368
460000000.0 -0.25012125766942095 -0.5915738016193473
480000000.0 -0.5041687170529987 -0.1407738129644704
500000000.0 0.1619494619764193 0.3779347842418145
520000000.0 0.4354795380443433 -0.07612036143976396
540000000.0 -0.007477289433580957 -0.47641697059674365
560000000.0 0.10229812514460855 -0.4421520293522921
580000000.0 -0.3780196382247737 0.20098556714699325
600000000.0 -0.3307473339937731 -0.21049948643495842
620000000.0 -0.3621137163252259 -0.08992916051007203
640000000.0 0.30719840400088566 0.16613697180693288
660000000.0 -0.2848339349408793 -0.1834999071519743
680000000.0 0.335290816340232 -0.045549775557580385
700000000.0 -0.32680685102417445 -0.10339678437691514
720000000.0 -0.33684203932654383 0.09047941390535219
740000000.0 0.3260126852852292 0.028584524072636914
760000000.0 0.2871750089013294 0.06756898176551927
780000000.0 -0.13881692169093854 -0.2337877785121608
800000000.0 0.22590062771995909 0.10801229565794819
820000000.0 0.1829450055076931 -0.11182178350434896
840000000.0 -0.007478519546943207 -0.21028472206326557
860000000.0 0.18044412397839116 -0.07805407887382554
880000000.0 -0.12004491843870825 0.15070578436244364
900000000.0 -0.01665177422886435 0.15822694877908444
920000000.0 -0.061789623992115295 -0.13086565260211697
940000000.0 0.0032142225297783276 0.14017550697472933
960000000.0 0.10022781518787484 -0.059825115927443474
980000000.0 0.06909406555924166 0.039178164733499714
1000000000.0 -0.04882149609308321 -0.0222201341006442
1020000000.0 -0.044150919921897624 -0.0004661816239216331
1040000000.0 0.05567094353994415 -0.03990141526736109
1060000000.0 0.10080096433401983 0.014063994035270085
1080000000.0 0.024075148332219413 0.13387448648943964
1100000000.0 -0.07039534872660629 0.15591110659652657
1120000000.0 -0.09577953625126234 -0.17846762879859013
1140000000.0 0.21011943189341828 -0.1273563899919234
1160000000.0 -0.254462016954362 -0.10596325160835993
1180000000.0 0.2817533329615633 -0.0043518061919085044
1200000000.0 0.1817004763082093 0.25166815870199216
1220000000.0 0.30042763574091896 0.08762383169336106
1240000000.0 -0.22098950604710677 0.24118189042817775
1260000000.0 0.018485291135693898 0.3257457305763934
1280000000.0 -0.27230786563454085 0.19129646586893492
1300000000.0 -0.10988338510437053 -0.32565629324387446
1320000000.0 0.35651169164211505 -0.020399447274322274
1340000000.0 0.15685792062667503 0.33840229737885985
1360000000.0 -0.3431914919887727 0.15278968089477077
1380000000.0 0.37983769159414205 -0.01515295034054204
1400000000.0 -0.3388227522930483 0.1723230397567995
1420000000.0 0.28786836737645144 0.24329363941199336
1440000000.0 0.2796641663141301 0.23913339730448435
1460000000.0 0.36129645636581725 -0.002349907534691515
1480000000.0 -0.12802746362194667 -0.33069288150065773
1500000000.0 0.05872463026807523 0.3353103344429833
1520000000.0 0.25647743131965506 -0.17486012554233232
1540000000.0 -0.27213148921945723 0.05833710884244428
1560000000.0 -0.04395782726576481 0.24345539442538297
1580000000.0 0.018627116279617627 -0.21541737339809236
1600000000.0 -0.12300194898974236 0.1377413807845792
1620000000.0 0.1608598972926516 0.03005968021873322
1640000000.0 -0.03064576403631157 0.13672972604998562
1660000000.0 -0.11120814695772412 -0.02691197779946574
1680000000.0 -0.008956420673122285 0.0907970235645369
1700000000.0 0.07126296182768424 0.018776701875017062
1720000000.0 -0.04980720773702843 -0.03128320872259435
1740000000.0 0.03711040966647302 0.0435046415539482
1760000000.0 0.025510460166806574 0.06491912619585583
1780000000.0 -0.09956530543804532 -0.020965310047836347
1800000000.0 0.1212838420156916 0.04796364452431227
1820000000.0 0.0046983949493251 0.16518309985402366
1840000000.0 -0.029182921007079445 0.19459875072127056
1860000000.0 -0.14105586894302755 0.17307684963181888
1880000000.0 -0.07444715628202954 0.23405782965740846
1900000000.0 0.25039671515661444 0.10730018318599036
1920000000.0 -0.09831462413313442 -0.2714972648193617
1940000000.0 -0.15778528949539936 0.2581981548190775
1960000000.0 -0.17908150281526383 -0.25582775134115343
1980000000.0 0.30746873625822435 -0.06260082664333856
2000000000.0 0.18753748682134044 0.24907013161098773
2020000000.0 -0.047044104278985824 0.3086861009127288
2040000000.0 -0.261589876702185 0.160164992960674
2060000000.0 -0.27143872062326013 -0.1335720284364516
2080000000.0 -0.12984232144630564 -0.2732236436020521
2100000000.0 0.039584892870512214 0.296117472798871
2120000000.0 -0.27603278320599484 -0.10970284915658295
2140000000.0 0.24998203047098938 0.14848458406906867
2160000000.0 -0.28384636882657827 -0.040854650213162265
2180000000.0 -0.10737643507778827 0.25303435442147226
2200000000.0 0.061412294138637774 0.2635104533589277
2220000000.0 0.14460466080693254 0.21728058835957875
2240000000.0 -0.10828928683608749 0.23176403388500869
2260000000.0 -0.22648191654352817 0.0847408059674041
2280000000.0 -0.062278967753414426 -0.22386113978033056
2300000000.0 0.1879797490103144 0.11779363917100723
2320000000.0 -0.14404178908515894 -0.15822989756632497
2340000000.0 0.19284995150633918 0.08259181682671364
2360000000.0 -0.20546408352491088 -0.04004665816354046
2380000000.0 0.20606991771510427 0.05659858016862524
2400000000.0 -0.22989302078464777 -0.018582356088941324
2420000000.0 -0.1172880487579561 0.23104729616688735
2440000000.0 0.2659421923407413 -0.10404409585857936
2460000000.0 -0.2541935629560446 0.19589070668999164
2480000000.0 0.3209706572653115 -0.14435451560046936
2500000000.0 0.09172131797563546 0.37924592657378536
2520000000.0 -0.4234071913881349 0.04119724379911558
2540000000.0 0.010211935842283828 -0.46261661715707697
2560000000.0 0.40280848477039477 0.29401442553383295
2580000000.0 -0.5320523832634327 -0.027107887490081597
2600000000.0 0.3695164300876943 -0.42559208390532816
2620000000.0 -0.07699214046869403 0.5836332136010886
2640000000.0 -0.25757603452449246 -0.5533968633327148
2660000000.0 0.6138913270428672 0.13333472328155602
2680000000.0 -0.2927988792695636 0.5711569447361896
2700000000.0 -0.6397565084391996 -0.13337624563638348
2720000000.0 -0.3933685709922208 -0.5322689531589204
2740000000.0 -0.22061173756085722 -0.6290497949794228
2760000000.0 -0.1702998595427013 -0.6468324885526091
2780000000.0 0.6642492544877292 -0.018644994532553385
2800000000.0 0.6319196427017933 0.1785468664267304
2820000000.0 0.26951208618076145 0.587478232197522
2840000000.0 -0.5318694577543798 0.3446214597623608
2860000000.0 0.28827259867039473 -0.5497952320071077
2880000000.0 -0.3570880932009385 0.48893944244348236
2900000000.0 0.5858290151255681 -0.0523361053734999
2920000000.0 -0.21040006435370726 -0.5270197165544525
2940000000.0 -0.5410833269491073 -0.034026503190537856
2960000000.0 -0.36755416914945827 0.36478050684122365
2980000000.0 0.11222152070036973 0.4829941021840158
3000000000.0 0.47180965934790997 0.023761214552373847
3020000000.0 -0.05388371787128499 -0.4429324260856781
3040000000.0 -0.27522147706235023 0.3140189345450759
3060000000.0 0.38603140676913983 -0.052742131273026994
3080000000.0 -0.36507885824689756 0.009772964059354789
3100000000.0 0.3422672262562303 0.01960677167765144
3120000000.0 0.21575251648473295 -0.24849404993811935
3140000000.0 -0.26128124856776214 0.18755334330419673
3160000000.0 0.21940246580359254 -0.22977391429053148
3180000000.0 -0.2787953641623112 0.142358196616111
3200000000.0 0.29229439033328497 -0.0992265767337868
3220000000.0 -0.21514290915759549 -0.20369806484936445
3240000000.0 -0.2847817686162369 -0.018240464787953617
3260000000.0 -0.2303656588736569 -0.13177709050297587
3280000000.0 0.15111669653757326 -0.20291586462451341
3300000000.0 0.1771294830842333 0.1578568989671148
3320000000.0 -0.1971377204740199 0.0984347355427675
3340000000.0 -0.10688909755772719 -0.1669097021411877
3360000000.0 0.16855843211702243 0.02760416976488584
3380000000.0 0.06616714584161058 -0.12885731789856578
3400000000.0 -0.0381737152190197 -0.11517666162409722
3420000000.0 0.0671660072385246 -0.0845184622233309
3440000000.0 -0.07974768794655647 -0.0596471017518297
3460000000.0 -0.045794557160771715 -0.0779293458346955
3480000000.0 0.04677505262292331 -0.06569060276520958
3500000000.0 -0.00369190799535955 0.06713686491479115
3520000000.0 -0.0020459221051775524 0.05804956587614162
3540000000.0 0.03898143248136491 0.041619659858161476
3560000000.0 -0.017455254358555647 0.05470347030477801
3580000000.0 0.06787477711639217 0.004528602068521533
3600000000.0 0.07168807227635333 -0.023358611725633343
3620000000.0 -0.08025494393216048 -0.047632837610957726
3640000000.0 -0.06392991166576457 0.07901612535000987
3660000000.0 -0.05665483577824138 0.09016791253002639
3680000000.0 -0.014015865157209087 -0.10244925617110592
3700000000.0 0.08738834970674245 0.03606424943818108
3720000000.0 -0.05049361810814772 0.07017368002818088
3740000000.0 -0.011547385614275756 0.0744904133406107
3760000000.0 0.05772946317415018 -0.038631729268983644
3780000000.0 0.011062717663435771 0.05494121042093612
3800000000.0 -0.03565324551413737 0.005223339830909664
3820000000.0 0.031347874747357 -0.009918486074627336
3840000000.0 0.021990789650716096 0.04487203597413247
3860000000.0 -0.06593592557012329 0.030454439957721194
3880000000.0 -0.03752285006297323 -0.08240865841751054
3900000000.0 0.06734977792934095 0.07735139224253779
3920000000.0 -0.03328422039025244 0.10196137382576399
3940000000.0 0.09904885948915575 -0.03905741685315498
3960000000.0 -0.01756927020263689 -0.10495199881976205
3980000000.0 -0.07423151529968613 0.06480077773800914
4000000000.0 0.08437159861892737 -0.024918785606194895
