!Created with skrf (http://scikit-rf.org).
# Hz S RI R 50.0 
!freq ReS11 ImS11
400000000.0 -0.7554895852868033 0.23997662109717108
420000000.0 0.704696929519981 -0.25024266424000297
440000000.0 -0.0074244273182784955 -0.7280497990250975
460000000.0 -0.27553472818544034 -0.5799309700389659
480000000.0 -0.4906228954640628 -0.1775025682407426
500000000.0 0.15026217145996693 0.38414887293523814
520000000.0 0.4150356009102136 -0.14954688232663021
540000000.0 -0.0731490576267367 -0.4680971790270981
560000000.0 0.18587467391568857 -0.41403374459168724
580000000.0 -0.3680779262514649 0.22493749930370294
600000000.0 -0.3737737467967959 -0.11380620179614569
620000000.0 -0.34339933911330056 -0.13905061171106597
640000000.0 0.2568917847270563 0.23833981044452204
660000000.0 -0.2795465485808438 -0.1930174398299469
680000000.0 0.31214624614673586 -0.12846594776190295
700000000.0 -0.34069892775142485 0.014487834156278103
720000000.0 -0.34177018002557796 0.061466831876793145
740000000.0 0.32046954223649066 0.07763259327798966
760000000.0 0.29229073873326294 0.03740259799958159
780000000.0 -0.13157288546478318 -0.2379521937958139
800000000.0 0.2514208163748857 0.019486707482080878
820000000.0 0.18496239855909036 -0.10737977129165431
840000000.0 0.09576853282839991 -0.18808000154896828
860000000.0 0.18753158730760422 -0.06060978198233411
880000000.0 -0.05537724201867093 0.18413348048591427
900000000.0 0.017165549721846488 0.15798131916754504
920000000.0 -0.05785751309643184 -0.13407598845252336
940000000.0 0.024697293298660473 0.13999807037320144
960000000.0 0.07199431214743698 -0.09189220763625011
980000000.0 0.023144146498095167 0.07330344210852723
1000000000.0 0.05390082816053477 0.0032966636802577
1020000000.0 0.03537598240226797 -0.02838781908700471
1040000000.0 -0.04693779594263693 -0.05244326469031919
1060000000.0 0.07615457065248564 -0.06565466377591538
1080000000.0 0.04274893137082601 0.12747635120461623
1100000000.0 -0.16680623211016393 0.0437129309076626
1120000000.0 -0.16295217120624556 -0.12577740644256657
1140000000.0 0.13262383782887205 -0.20468336080485675
1160000000.0 -0.16391767724590028 -0.21830896620893708
1180000000.0 0.2634682881267736 0.10486994193447144
1200000000.0 0.20519703719483542 0.23494555994025726
1220000000.0 0.3131881257471313 0.007785221100410443
1240000000.0 -0.211005410338174 0.24622286351054354
1260000000.0 -0.1069190145253385 0.30823191567075486
1280000000.0 -0.2758353648218502 0.19030591316069304
1300000000.0 -0.21091827571784239 -0.2722010522484777
1320000000.0 0.3553364755691575 0.015836373837029835
1340000000.0 0.04161096171107327 0.37131354793220855
1360000000.0 -0.341021464073489 0.15986195742500384
1380000000.0 0.38011397374214334 -0.012250784241660572
1400000000.0 -0.3277381502855677 0.19194283706186635
1420000000.0 0.3310001494215746 0.17864200486104745
1440000000.0 0.2487668230768033 0.2694133333638067
1460000000.0 0.3618675801726553 0.024648243577098092
1480000000.0 -0.20239463268960697 -0.2902059349041619
1500000000.0 0.08709008997031897 0.3275071821817998
1520000000.0 0.2620765925431336 -0.1650571804614922
1540000000.0 -0.27353751055994185 0.0555737244105025
1560000000.0 -0.012495198206903958 0.2480248549363343
1580000000.0 0.009126672686958194 -0.21556594285977296
1600000000.0 -0.14941863796529214 0.11031270600812113
1620000000.0 0.16276028136285267 0.007707922735471767
1640000000.0 -0.1076647907766312 0.09038272279079491
1660000000.0 -0.10728227732879582 -0.04049225148589588
1680000000.0 0.007764311737039771 0.09037966708733505
1700000000.0 0.06998979890262526 0.020941994392243153
1720000000.0 -0.055896342005862305 -0.014386186217498936
1740000000.0 -0.011750080829144974 0.05547151183539186
1760000000.0 0.05627619083091847 0.042009939339298495
1780000000.0 -0.1003578357825555 0.00636141620370971
1800000000.0 0.07345437378510684 0.10665624870707036
1820000000.0 0.053200764354299095 0.15644623698761717
1840000000.0 0.03766694026164766 0.1932029800550192
1860000000.0 -0.12930089153271387 0.1824524128524886
1880000000.0 -0.03310409353802827 0.24343675870890671
1900000000.0 0.25268823754407016 0.10089729347601305
1920000000.0 -0.09145727383760648 -0.2739624067713792
1940000000.0 -0.1710534376767726 0.2499812298330398
1960000000.0 -0.1840285527401209 -0.2531451909830007
1980000000.0 0.2851801724222578 -0.13236712729563144
2000000000.0 0.2038019193417628 0.23442331116679507
2020000000.0 -0.13718682789184947 0.2797472949263166
2040000000.0 -0.2966577340045928 0.07913781717545376
2060000000.0 -0.2842226844819895 -0.10635451307085929
2080000000.0 -0.19174547424209215 -0.23378012306819668
2100000000.0 0.06583269154024944 0.29126876819205283
2120000000.0 -0.2568747029926171 -0.14846652114578648
2140000000.0 0.27311492526341163 0.1013769607027274
2160000000.0 -0.2857958550575479 0.011435034359069484
2180000000.0 -0.12093968054296794 0.24694933700801439
2200000000.0 0.08469510261473467 0.25843386073608865
2220000000.0 0.17589973094378036 0.193156393790009
2240000000.0 -0.11621763929715329 0.22819434310702416
2260000000.0 -0.22181120078290228 0.09534672619242356
2280000000.0 -0.006670620488625587 -0.23269780190668865
2300000000.0 0.17610246079813244 0.13597069237809303
2320000000.0 -0.1772243705076787 -0.12155393673405028
2340000000.0 0.19526112114451577 0.07524344664938694
2360000000.0 -0.2036710769323293 -0.043628486792869556
2380000000.0 0.18919257395201752 0.10018564742156535
2400000000.0 -0.23010609547505095 0.025617998866218718
2420000000.0 -0.041013105181848655 0.2546382833548466
2440000000.0 0.2738937777593938 -0.08114942154374107
2460000000.0 -0.24635490959474007 0.2059898483756718
2480000000.0 0.2910862473347081 -0.19932583890262198
2500000000.0 0.1200011536869234 0.37070872873109095
2520000000.0 -0.4227474602338135 0.05238566814606002
2540000000.0 0.004044147802000456 -0.4637172901234454
2560000000.0 0.4048645895833534 0.2917368170728724
2580000000.0 -0.5323478572778452 -0.011530873653441392
2600000000.0 0.3952749289860653 -0.40174309662715074
2620000000.0 -0.10596271012464764 0.5789728679039383
2640000000.0 -0.26588220842195903 -0.5492617510478316
2660000000.0 0.6170821682282958 0.11835447351665501
2680000000.0 -0.2781930615417413 0.5780105274610849
2700000000.0 -0.6444897542603185 -0.10548441160141234
2720000000.0 -0.44084255703171626 -0.493403410591808
2740000000.0 -0.3543945327683609 -0.5653145834748797
2760000000.0 -0.1671868510001924 -0.6475679709848047
2780000000.0 0.6638841068677331 -0.027470451503186007
2800000000.0 0.6231356722672686 0.20833495385398312
2820000000.0 0.2731231182731563 0.5860328180078274
2840000000.0 -0.5480365737545803 0.3175675532418716
2860000000.0 0.2638293280677399 -0.5619414393477539
2880000000.0 -0.35306802373922713 0.49134623055472626
2900000000.0 0.5825265834064761 -0.07574111329418842
2920000000.0 -0.2257667656975067 -0.5196853466736909
2940000000.0 -0.5409598993390882 0.02133288927242978
2960000000.0 -0.33212236227535 0.3970028200299021
2980000000.0 0.1515299554980983 0.47104178196068763
3000000000.0 0.47073514859814486 0.011690212688690405
3020000000.0 -0.11999202230940254 -0.4299242074077005
3040000000.0 -0.12759537938772786 0.39741029001526473
3060000000.0 0.35489499444145844 -0.16067158131168924
3080000000.0 -0.3617007338322903 0.04216924468115644
3100000000.0 0.34126863188211276 -0.027318847281652018
3120000000.0 0.16821428392599955 -0.2820510093728514
3140000000.0 -0.22716709076164263 0.22602181388091808
3160000000.0 0.18399554436290086 -0.2594255608505017
3180000000.0 -0.24619516850087347 0.1934062884829061
3200000000.0 0.28406623698549965 -0.12248794191286887
3220000000.0 -0.21892368944374163 -0.20089437521234405
3240000000.0 -0.2865598398810258 -0.0016601376247553602
3260000000.0 -0.2278055036358199 -0.13793787395584445
3280000000.0 0.18359247278270036 -0.17660999779185546
3300000000.0 0.13292937975221283 0.19542733866074513
3320000000.0 -0.21800087629145107 0.03151257143206408
3340000000.0 -0.013315107407047746 -0.19837804900483602
3360000000.0 0.0876309724033239 0.14706799354107936
3380000000.0 0.12599081622761088 -0.0699366683022982
3400000000.0 0.05767952831611796 -0.10613438007152994
3420000000.0 0.09065842173513916 -0.05881196536006795
3440000000.0 -0.08321788806348707 -0.05249117367235449
3460000000.0 -0.0356689398864345 -0.08271536253067983
3480000000.0 -0.014766753061813747 -0.0788387767872405
3500000000.0 0.04194528697991351 0.05233318227235596
3520000000.0 0.026454323667438773 0.05204166983611179
3540000000.0 0.056372370104727364 0.012037588728334114
3560000000.0 -0.016240482458265516 0.0560637593055032
3580000000.0 0.06397716330563369 0.026655677819253897
3600000000.0 0.07444576231406039 0.01947929352257816
3620000000.0 -0.056532551644110765 -0.07581159138379996
3640000000.0 -0.08823748729692645 0.049258205868956385
3660000000.0 -0.10003987047841736 0.03611260268265834
3680000000.0 0.003207871959061569 -0.10228295687977246
3700000000.0 0.08654381201286032 0.035172857601072534
3720000000.0 0.00391866156694862 0.08459752124646468
3740000000.0 0.02430392729342004 0.07051868467349566
3760000000.0 0.03268276325099403 -0.06068564091765043
3780000000.0 0.02512694152831962 -0.04952920828962891
3800000000.0 -0.013318169091235586 0.032959764360570264
3820000000.0 0.010950763492038596 -0.03039607079262924
3840000000.0 0.01036338993590633 -0.0471089695198608
3860000000.0 -0.052891669259682146 0.047042772935163985
3880000000.0 -0.06660892330708744 -0.060521415497169606
3900000000.0 0.09874408490873011 -0.032291361337592056
3920000000.0 0.07808795695641414 0.0736572552488645
3940000000.0 0.08103610003719366 -0.06878984114513756
3960000000.0 -0.10194261290626763 -0.030435882977224563
3980000000.0 0.028223524476808003 0.09613129616368424
4000000000.0 0.008763200412121615 -0.08926092701607828
