!Created with skrf (http://scikit-rf.org).
# Hz S RI R 50.0 
!freq ReS11 ImS11
400000000.0 -0.7532302976852377 0.24254989653731757
420000000.0 0.7159015594487002 -0.2207433010264579
440000000.0 0.0013681873335775181 -0.728747659941945
460000000.0 -0.4178087936262436 -0.48669274610922464
480000000.0 -0.5206450850361266 -0.009992715672054503
500000000.0 0.2210294975377739 0.34412263798175374
520000000.0 0.26236839159232395 -0.35664665228558934
540000000.0 -0.021363169070089446 -0.4750752899452996
560000000.0 0.26201079592781257 -0.37219996838254177
580000000.0 -0.4335546459085686 0.02467428728233382
600000000.0 -0.38422300614404276 -0.06116199416942419
620000000.0 -0.2740008093258266 -0.24620263004202123
640000000.0 0.271364519999265 0.22748004749231335
660000000.0 -0.3411150832055819 -0.003790877292255775
680000000.0 0.23494710633384647 -0.23763941031402497
700000000.0 -0.2465809653762693 -0.23484313514891514
720000000.0 -0.32232178844390796 0.12411218467390016
740000000.0 0.32915598299525606 -0.019879455110304492
760000000.0 0.2652725628635222 0.14084156025557362
780000000.0 -0.14535932377384733 0.23078677575124915
800000000.0 0.24400052509291684 0.04258102337002614
820000000.0 -0.09883504724904373 0.19168109767715658
840000000.0 -0.05506038564462273 -0.20832728862266853
860000000.0 0.07969658159126318 -0.17959053637526756
880000000.0 -0.09720070554905114 0.16731271147320698
900000000.0 -0.10726124987903389 0.11207463878402023
920000000.0 0.08154186853408707 -0.11940602875452305
940000000.0 0.05153563659424837 0.13313948092841088
960000000.0 -0.014285937949927146 -0.12033905613787879
980000000.0 -0.06390601274388959 0.03845004810212044
1000000000.0 -0.01588899732667454 -0.04557532482115071
1020000000.0 -0.04479695684748856 -0.0011866863068168499
1040000000.0 -0.06658302129041671 -0.018249568972920686
1060000000.0 0.03852417451836416 -0.09975464065304437
1080000000.0 0.10470282960913468 -0.08381599474516886
1100000000.0 -0.16695807033335117 -0.0027626417465862678
1120000000.0 -0.03516617211588989 -0.2051910266157963
1140000000.0 0.024355017856848432 -0.24461759010322462
1160000000.0 -0.2300665261895203 -0.1407755933701274
1180000000.0 0.26589998643888707 0.11705100812923516
1200000000.0 0.3105404626375002 -0.026360920203674573
1220000000.0 0.2747693620354189 0.14916449275356536
1240000000.0 -0.27448838217463967 0.17509890286290986
1260000000.0 -0.07884505067329477 0.3173168841162802
1280000000.0 -0.2771199693287628 0.18839942434646983
1300000000.0 -0.07884810457911474 -0.3318288072686703
1320000000.0 0.3569672265818597 -0.020723758504510522
1340000000.0 0.12178645699919313 0.35133834216627685
1360000000.0 -0.3620272836851384 0.1058350462538919
1380000000.0 0.32512320983399856 -0.19698522080715
1400000000.0 -0.30593888920371204 0.22193086510419402
1420000000.0 0.15382759027144877 0.3452859399669206
1440000000.0 0.3588951078947378 0.08888734109121786
1460000000.0 0.3321448426779666 -0.1410603984876007
1480000000.0 -0.12648950609209972 -0.3287513711440291
1500000000.0 -0.04920513969182423 0.3380103979640796
1520000000.0 0.25595720691605534 -0.1768499174404817
1540000000.0 -0.24493695662794046 0.13216001523649135
1560000000.0 0.016157289696170037 0.24697139038610716
1580000000.0 0.14968318522241697 -0.15395648030476147
1600000000.0 -0.17797253467628468 0.05088904497067457
1620000000.0 0.16180019348913077 -0.02494312713918093
1640000000.0 0.026717193644591537 0.13672162706543925
1660000000.0 -0.08241159206743459 -0.0750232017775392
1680000000.0 0.023918554407384014 0.08893368585136677
1700000000.0 0.05662125539598752 0.04640372343469667
1720000000.0 -0.058015393885920176 0.0002397044883068156
1740000000.0 -0.029547626685191685 -0.048541953805723646
1760000000.0 -0.05696776065849773 0.03754860541946794
1780000000.0 -0.10342790168550399 -0.0012972441283651884
1800000000.0 0.11033909059452236 -0.06722313899211092
1820000000.0 0.047601187996231774 0.1565819637674167
1840000000.0 -0.06233164579339327 0.1889193317861606
1860000000.0 -0.071743882823003 0.21177851313242355
1880000000.0 -0.08502394275475963 0.23042864107098146
1900000000.0 0.23787980803393846 0.13359481349695826
1920000000.0 -0.1729513256265258 -0.2334711484461223
1940000000.0 -0.15291814638299084 0.2607267472003111
1960000000.0 -0.1443587485927091 -0.27844572141945556
1980000000.0 0.2791759119775932 -0.14476508844641142
2000000000.0 0.1667976544095739 0.2615514758920361
2020000000.0 -0.1719608904480335 0.2599640322769946
2040000000.0 -0.2651770098670227 0.15605390287789028
2060000000.0 -0.2978218241934215 -0.05530656429712265
2080000000.0 -0.08913568415277284 -0.28728652807421345
2100000000.0 -0.017299215214441596 0.2981712916512413
2120000000.0 -0.27869166733325507 -0.10159792708506446
2140000000.0 0.2618205646855484 0.12564406654175897
2160000000.0 -0.2738237469691878 0.08459500466872273
2180000000.0 -0.10431566149606294 0.2541226777364405
2200000000.0 0.0010912142921623244 0.2712198999796538
2220000000.0 0.1952848227449224 0.17531856594461506
2240000000.0 -0.01947774303040227 0.25474612872129854
2260000000.0 -0.2397988081320577 0.029010719356796694
2280000000.0 0.011343061232045159 -0.2331930592324087
2300000000.0 0.19049289155294147 0.11614344000111883
2320000000.0 -0.14483784907730157 -0.15748720856110188
2340000000.0 0.1870370587561484 0.09515715128082258
2360000000.0 -0.20513065524372004 0.04180352044084386
2380000000.0 0.16294857893043085 0.13768769906027978
2400000000.0 -0.2306927292255079 -0.028025186214721658
2420000000.0 -0.08181666608460451 0.2446503956845851
2440000000.0 0.25974780167069245 -0.11857383889991606
2460000000.0 -0.17797087017184743 0.2666282404083551
2480000000.0 0.28061325892750444 -0.21331400351609853
2500000000.0 0.15646123390860278 0.35693533879052575
2520000000.0 -0.4192000112375558 0.07525153015027684
2540000000.0 -0.014963694096118843 -0.46358936342744944
2560000000.0 0.4360329604807254 0.24397173542387796
2580000000.0 -0.531298567468941 0.03733782835087998
2600000000.0 0.37767893450047907 -0.41876405812629314
2620000000.0 -0.06833122491853331 0.5853327905650287
2640000000.0 -0.2533118643691398 -0.5550813220087245
2660000000.0 0.6130774179771308 0.13614761358087507
2680000000.0 -0.3010436178617054 0.5658531803807744
2700000000.0 -0.6454179078714293 -0.10015300602542264
2720000000.0 -0.4447579530875372 -0.4891281279841425
2740000000.0 -0.3881538872656759 -0.5405242465726765
2760000000.0 -0.1681048493630756 -0.646072000448931
2780000000.0 0.6504582187911947 -0.13006893058787367
2800000000.0 0.650489870548185 0.08465272667464081
2820000000.0 0.3229285892315176 0.5598113941276293
2840000000.0 -0.5156992681439072 0.369377604199623
2860000000.0 0.16173192483161689 -0.5996285241341667
2880000000.0 -0.3476889232136771 0.4941634192506233
2900000000.0 0.5833560344512643 -0.06451357231879043
2920000000.0 -0.18562157699758783 -0.5360072978708995
2940000000.0 -0.5387497344877603 -0.05138246889891535
2960000000.0 -0.35553265748262547 0.3762579977691516
2980000000.0 0.20642121558439758 0.4502788953429479
3000000000.0 0.46609817197716025 -0.06030881335293236
3020000000.0 -0.07735431247676203 -0.4390402348142407
3040000000.0 -0.19392202182119173 0.3719784361029384
3060000000.0 0.29641495928366046 -0.2527271635137816
3080000000.0 -0.3609258920490101 0.04258448580732839
3100000000.0 0.34433452989862384 0.015323004763670961
3120000000.0 0.09965174078217802 -0.31415868487128323
3140000000.0 -0.30339824569468987 0.10399663898206628
3160000000.0 0.1987658680644673 -0.24912938011502594
3180000000.0 -0.27383862143066706 0.1514235146682838
3200000000.0 0.29088710830105446 -0.10257766488723553
3220000000.0 -0.19716345870519222 -0.2224136164199751
3240000000.0 -0.28386098997374826 -0.025016285789364368
3260000000.0 -0.19623988974586973 -0.17896504875717067
3280000000.0 0.17873425326475514 -0.1794161618768287
3300000000.0 0.14043439605512714 0.18971118994436487
3320000000.0 -0.2048503981628098 0.07448758558941693
3340000000.0 -0.1113940654848402 -0.1622043198956207
3360000000.0 0.1443278630945177 0.09102156626592373
3380000000.0 0.03259788501969186 -0.13952972177051765
3400000000.0 -0.019121991849102026 -0.11846074573125746
3420000000.0 0.04734749649419989 -0.09629867523723397
3440000000.0 -0.0775601831123107 0.06282893301386852
3460000000.0 -0.0846637118771179 -0.03232098930662955
3480000000.0 -0.013612445190649086 -0.0794617721065613
3500000000.0 0.0017569039703538862 0.06843367301921152
3520000000.0 0.03713715822150713 0.04468972127766605
3540000000.0 -0.024346194237757638 0.05211697886020357
3560000000.0 -0.0007454969719944238 0.05881064017762138
3580000000.0 0.05693237090421751 -0.0388524308323879
3600000000.0 0.056231766295433014 0.049641180935807924
3620000000.0 -0.051559932587502265 -0.07864852734028636
3640000000.0 -0.07693542189758212 0.06397916049055417
3660000000.0 -0.06967454846020155 0.08048223309519587
3680000000.0 0.005542173359932475 -0.10202336756483645
3700000000.0 0.05537025336876352 0.07419516814880879
3720000000.0 -0.056043873051655 0.06556637283970675
3740000000.0 0.007295026189383858 0.07553487590192934
3760000000.0 0.05195476402090215 -0.0460549829009983
3780000000.0 0.05554915453709522 -0.001456969282641467
3800000000.0 -0.036108326095509916 -0.00806917774355929
3820000000.0 -0.011828422123401358 -0.029122185819858464
3840000000.0 0.040675980626099215 -0.026602032028011344
3860000000.0 -0.06298612423090857 0.03478698558691362
3880000000.0 -0.0832709979534149 -0.032174048989324175
3900000000.0 0.08975430023872591 -0.051977897402316585
3920000000.0 0.010968541465793012 0.10595271239337375
3940000000.0 0.057392613632952186 -0.08980875136680584
3960000000.0 -0.09485670072991968 -0.04404153315161737
3980000000.0 -0.07737927706289546 0.062308204105109365
4000000000.0 0.055451715236038944 -0.0694391037223479
