!Created with skrf (http://scikit-rf.org).
# Hz S RI R 50.0 
!freq ReS11 ImS11
400000000.0 -0.5815621306943862 0.5418750248398027
420000000.0 0.6925880457839917 -0.26209704019258634
440000000.0 0.14829917204759988 -0.7081603303293139
460000000.0 0.1340267219293242 -0.6337294059836297
480000000.0 -0.43389120953306254 -0.29684343190033036
500000000.0 0.3688163110476379 0.1760960594683383
520000000.0 0.2605445133881273 0.3558463826153646
540000000.0 -0.07029148763054291 -0.4802527908350232
560000000.0 -0.2811928171263307 -0.3566643301298794
580000000.0 -0.40445645472176067 0.1287728400465712
600000000.0 -0.3859803685966667 -0.011140377566182972
620000000.0 -0.09715378114041867 -0.3502901712298639
640000000.0 0.19359647962568563 0.29244362864742834
660000000.0 -0.26720399270984363 -0.21724035132239106
680000000.0 0.3060135764672914 -0.1432276663227322
700000000.0 -0.32174948300287365 -0.12021833990819746
720000000.0 0.15033646050745933 0.31326547884037614
740000000.0 0.32867392881471663 0.003164262790604356
760000000.0 0.29031991512059246 -0.05405540920513335
780000000.0 -0.26506106584082545 0.05874602216330501
800000000.0 0.16415280932094037 0.18131613798359247
820000000.0 0.07780845052109749 0.20255133284915086
840000000.0 0.16234648552267283 -0.14867157428885525
860000000.0 -0.14834462626921419 -0.13212468713224557
880000000.0 0.15981078629093762 -0.10049108559453371
900000000.0 -0.057398837962576034 -0.14192911040053624
920000000.0 0.14240451842888027 -0.04635448930395027
940000000.0 -0.036001530645477064 0.13438033342569888
960000000.0 0.07301407068667719 0.100159656029232
980000000.0 0.004369326000439112 0.08143080834519179
1000000000.0 -0.030001484678609015 0.038334016770026194
1020000000.0 0.023530991276253365 0.03256996425966079
1040000000.0 -0.037546939167267666 0.047133549445120854
1060000000.0 -0.09286725868354054 -0.02114061228897823
1080000000.0 0.12456410414709179 -0.059869141428474285
1100000000.0 -0.1011650181369343 0.14826716381542382
1120000000.0 -0.035268709987617934 0.20709974067871745
1140000000.0 -0.18465162534511842 -0.1499366313164724
1160000000.0 -0.09835843682827937 -0.24881911050206645
1180000000.0 0.22719747770695872 0.17320271006452453
1200000000.0 0.2199559534246768 0.22234720493023002
1220000000.0 0.192495984796646 0.2514245820896519
1240000000.0 -0.09313509430000716 0.3157851424475387
1260000000.0 -0.005879468701527802 0.3273490545446527
1280000000.0 -0.3009392101777876 0.13801751644997418
1300000000.0 -0.13621205020458804 -0.31257011205542073
1320000000.0 0.34747923368308953 0.08267493678439083
1340000000.0 0.13112666083364516 0.34984873060472976
1360000000.0 -0.2577953834552674 0.2754454769993894
1380000000.0 0.33492731935914194 -0.17136877271870807
1400000000.0 -0.3810083442729004 -0.016689671643659913
1420000000.0 0.3085273815605068 0.2208869129921006
1440000000.0 0.3686124260126906 -0.000696572581983467
1460000000.0 0.3085336469393486 -0.1826069730974007
1480000000.0 -0.011167465035516001 -0.35167962349170706
1500000000.0 -0.04795052036484777 0.3384968150885457
1520000000.0 0.2878009739804027 -0.12128937626127355
1540000000.0 -0.25226664968334833 0.12242175374972036
1560000000.0 0.13062110332743018 0.20745174995061685
1580000000.0 0.030305379966211944 -0.21073176588274473
1600000000.0 -0.1830266779565719 0.029256288832473203
1620000000.0 0.16190050673576192 -0.02420157807900624
1640000000.0 -0.04592421943910597 0.13102891049956983
1660000000.0 -0.09235477458648905 -0.06784545452603515
1680000000.0 0.016893191892111324 0.09094749881828854
1700000000.0 0.008347434099457313 -0.07313571110551947
1720000000.0 -0.05170951604540792 -0.022329883650822693
1740000000.0 0.04167237398525194 -0.037955973675499896
1760000000.0 -0.052342293941862655 0.04903599786746969
1780000000.0 -0.06359251442159294 0.08345919641039429
1800000000.0 0.1266864713791249 0.01694355455619577
1820000000.0 0.04573034087287853 0.15724512795237336
1840000000.0 -0.08688311530471006 0.17543531151660452
1860000000.0 -0.13843542361440084 0.1772325000784833
1880000000.0 -0.04230037189429805 0.24297101776146185
1900000000.0 0.26791234999307684 0.04999551784706201
1920000000.0 -0.14810708630752203 -0.24849323975481516
1940000000.0 -0.17864623272619365 0.24375640818874345
1960000000.0 -0.214800031544257 -0.22668755761871187
1980000000.0 0.29598873681334437 -0.1010442009305035
2000000000.0 0.14474832603642482 0.2757255472116095
2020000000.0 -0.15415140173157904 0.27396185096057835
2040000000.0 -0.15623973299040067 0.2656922709038647
2060000000.0 -0.295093363748609 -0.05765853562008626
2080000000.0 -0.14001393128986503 -0.2652574898981126
2100000000.0 -0.054418090359170494 0.294661076423811
2120000000.0 -0.27889316719577034 -0.09874907753517531
2140000000.0 0.2839465122261397 0.057723494953227684
2160000000.0 -0.2856710672662078 -0.004529215812631067
2180000000.0 -0.09144197844101364 0.2597007752023946
2200000000.0 0.07515555722129166 0.26057872543249505
2220000000.0 0.20530649547635363 0.16489288857490186
2240000000.0 0.03378245386667035 0.25221041304243264
2260000000.0 -0.2404472337425032 -0.007677676523358086
2280000000.0 -0.08232027026026195 -0.21867840091521107
2300000000.0 0.19314491965121333 0.11059470286870716
2320000000.0 -0.12324906509099516 -0.17784484606775533
2340000000.0 0.2029302051476099 0.056673412812759935
2360000000.0 -0.20917212827785697 -0.004010097838552075
2380000000.0 0.19399927630874592 0.08899016786269671
2400000000.0 -0.22797305059920125 -0.03765481763704384
2420000000.0 -0.165656175664907 0.19632953724932095
2440000000.0 0.27111886098266175 -0.0944773676221321
2460000000.0 -0.20745664933186087 0.2448668048212367
2480000000.0 0.28345702871119777 -0.20668963720053737
2500000000.0 0.15464320734865908 0.3572905872122182
2520000000.0 -0.37635669233270796 0.20046689168659437
2540000000.0 -0.0723540648539498 -0.45778426241160286
2560000000.0 0.4527270978668039 0.21034835828199072
2580000000.0 -0.5321773711032164 -0.0288737583479929
2600000000.0 0.3870851883399915 -0.41082458020649
2620000000.0 -0.07619921629721542 0.5841785694349599
2640000000.0 -0.2951535696318217 -0.5340637199172849
2660000000.0 0.6100657438827871 0.15101417723174024
2680000000.0 -0.3144709030305869 0.5585828412370464
2700000000.0 -0.6391922106014444 -0.13341058863848948
2720000000.0 -0.4540250684593382 -0.47901256318924934
2740000000.0 -0.2787243344576788 -0.6035685960816474
2760000000.0 -0.24495857178368863 -0.6209001680350997
2780000000.0 0.6519195630107516 -0.12054165995251527
2800000000.0 0.6408086164159874 0.1412186285249231
2820000000.0 0.30889839149288256 0.5672337804525638
2840000000.0 -0.5245493331257621 0.355896534398257
2860000000.0 0.24046942173688088 -0.5723865903547644
2880000000.0 -0.3047776903561732 0.5229549017303345
2900000000.0 0.5818941997380274 -0.07983891688027372
2920000000.0 -0.2213904674970745 -0.521780057064599
2940000000.0 -0.5411591022952356 0.0037749936037904004
2960000000.0 -0.3667745477404419 0.3671558769053401
2980000000.0 0.08896211593886061 0.48945932616185345
3000000000.0 0.46647458922253454 0.07673143945757556
3020000000.0 -0.24906653435439158 -0.37037835030175714
3040000000.0 -0.17025912677652544 0.38205787129784513
3060000000.0 0.36974294617150133 -0.12519042377806935
3080000000.0 -0.35741921811380223 -0.0690360653401542
3100000000.0 0.29253721992541526 0.1824811435851375
3120000000.0 0.23286064684482705 -0.2354704487859778
3140000000.0 -0.2472120721829882 0.2060084792854575
3160000000.0 0.2124468748095711 -0.2345039783822724
3180000000.0 -0.2715721112645371 0.1519522351330472
3200000000.0 0.28647445451638914 -0.10913216077807565
3220000000.0 -0.18732641597339547 -0.22900853427799975
3240000000.0 -0.2840210288881122 0.016938348693517898
3260000000.0 -0.24460870687321043 -0.10395974510360903
3280000000.0 0.02050212443228382 -0.25230932599626776
3300000000.0 0.20357586008393921 0.11956233222210699
3320000000.0 -0.19141774679192392 0.10735991943296536
3340000000.0 -0.13744877586396068 -0.14236144576414697
3360000000.0 0.13702795338939192 0.10510106957617
3380000000.0 -0.0016776083717807762 -0.14433070024320657
3400000000.0 0.03766588893563072 -0.11563365985800486
3420000000.0 0.05511510404217552 -0.09498001765973824
3440000000.0 -0.0988764029275403 -0.017397708615092784
3460000000.0 -0.04217299755200029 -0.07967239290709403
3480000000.0 0.07421848841253455 -0.03170111894923277
3500000000.0 -0.038664431181443644 0.055361094578758346
3520000000.0 0.015967648238753077 0.05613799593785479
3540000000.0 0.05631781005061865 -0.0017184026672398727
3560000000.0 -0.049981943267021954 -0.028826060854010113
3580000000.0 0.03364071139969168 0.06026042327145676
3600000000.0 0.06894839068207906 0.03098095320868567
3620000000.0 -0.03740920560156805 -0.08424591371838074
3640000000.0 -0.08387070728634119 0.057691021442949166
3660000000.0 -0.07317419570929741 0.07713338200951654
3680000000.0 0.059791872196908805 -0.0817229433935203
3700000000.0 0.0874939240967392 0.036723655830331076
3720000000.0 0.06542382647307213 0.053521345392573624
3740000000.0 -0.0024547941573541576 0.07435783518830787
3760000000.0 0.011202765702798828 -0.06843707149227035
3780000000.0 0.03900020616902755 0.04055780020023632
3800000000.0 0.001052672228160259 -0.036953428803446674
3820000000.0 -0.024713718919282035 0.018249610898801876
3840000000.0 0.03939024416554267 0.03044492815951303
3860000000.0 -0.03560158614862631 0.06112915833571722
3880000000.0 -0.08921250229985525 -0.00610393501063639
3900000000.0 0.10153444910209737 -0.005847999961627024
3920000000.0 0.037655513106697375 0.10027545067359259
3940000000.0 0.07018825988973644 -0.0792630977781171
3960000000.0 -0.050881186966649825 -0.09238118765346616
3980000000.0 0.06743329607858711 0.07375109620763716
4000000000.0 0.025567261906888513 -0.08487567874002132
