!Created with skrf (http://scikit-rf.org).
# Hz S RI R 50.0 
!freq ReS11 ImS11
400000000.0 -0.751355562077025 0.25198773754795495
420000000.0 0.6940443010294157 -0.27827643737100854
440000000.0 -0.038995454973105484 -0.7259290967999985
460000000.0 -0.22940534316561917 -0.6000692761135902
480000000.0 -0.5050523874428188 -0.1383003035876907
500000000.0 0.15608450908594906 0.3802686748700417
520000000.0 0.43776714514271875 -0.06032444713058242
540000000.0 -0.017310304688969016 -0.47596821198199857
560000000.0 0.09381661804808489 -0.4439114919545064
580000000.0 -0.3827265721293079 0.19154103972702835
600000000.0 -0.33227020356011666 -0.20847345205062498
620000000.0 -0.36075195951721195 -0.0953785057888965
640000000.0 0.31026437467871143 0.16084327855675237
660000000.0 -0.2852789297629202 -0.18259050186409065
680000000.0 0.3321175138291049 -0.06562640930677362
700000000.0 -0.326755447506514 -0.1040065574769811
720000000.0 -0.3408106945262945 0.07524410153248683
740000000.0 0.3254985631415324 0.03336804201226781
760000000.0 0.2894526667360038 0.05655967995886369
780000000.0 -0.16350005675674983 -0.21753002483282513
800000000.0 0.23569566241551854 0.08539313620375709
820000000.0 0.1746811792628834 -0.12527109260473301
840000000.0 0.002930111031915783 -0.210676897314421
860000000.0 0.18116403737281392 -0.07644964031528013
880000000.0 -0.1174950824328227 0.1525739691763115
900000000.0 -0.014661662286840939 0.15863391033282334
920000000.0 -0.06657897723463785 -0.12880908161866525
940000000.0 -0.001782698355238272 0.14047165397861142
960000000.0 0.10695742129291479 -0.046752113234415554
980000000.0 0.057467799829542685 0.054760589638016326
1000000000.0 -0.0461957396697866 -0.027103821893080752
1020000000.0 -0.043018793063263484 -0.010441340385503543
1040000000.0 0.06052440214786996 -0.03205452491715653
1060000000.0 0.09861206364095547 0.02470811033163284
1080000000.0 0.02274936739597747 0.13391439839087305
1100000000.0 -0.07178708256284103 0.15513821427822605
1120000000.0 -0.10072498482701929 -0.1757250768291717
1140000000.0 0.1975551206331211 -0.14654859778313675
1160000000.0 -0.24011368131291644 -0.13454686752685271
1180000000.0 0.28178842740883103 -0.008125302524997467
1200000000.0 0.1769627600038899 0.25509328104147155
1220000000.0 0.30296711360572215 0.07901681279285198
1240000000.0 -0.22132991783113184 0.24087330262860854
1260000000.0 0.011640353560879555 0.326165002113072
1280000000.0 -0.2713127959825182 0.19274472710751733
1300000000.0 -0.10881270963348162 -0.32601528588375844
1320000000.0 0.3570367023203301 -0.010514669499777049
1340000000.0 0.12878092364044194 0.3506089200073053
1360000000.0 -0.34167910915131616 0.15652440356429406
1380000000.0 0.37895443996431044 -0.031870539602983784
1400000000.0 -0.3281974264084322 0.19212755841156706
1420000000.0 0.32314459151378455 0.19506001456183752
1440000000.0 0.2735358248671069 0.24621182688384646
1460000000.0 0.36125526165683747 -0.01068874690892565
1480000000.0 -0.08847225572808864 -0.34373842295754614
1500000000.0 0.044869265256241915 0.3374205633196129
1520000000.0 0.2472259771724023 -0.18776019244386374
1540000000.0 -0.26984164174229575 0.06787870728172911
1560000000.0 -0.04181443759107432 0.24376623680236315
1580000000.0 0.0013288500772128105 -0.21584559937210568
1600000000.0 -0.11709734090407474 0.1430052911737088
1620000000.0 0.16158974447931992 0.025838074730990087
1640000000.0 -0.029435432172847206 0.1371672532263177
1660000000.0 -0.11137514388841169 -0.026866955354485206
1680000000.0 -0.017840149275555592 0.08983147774384923
1700000000.0 0.07302733041516737 0.011814561361695028
1720000000.0 -0.058548537182325625 -0.005758829228638056
1740000000.0 0.023265020106406617 0.052311226356639706
1760000000.0 0.03265077168509916 0.06160074005010249
1780000000.0 -0.10138538839694948 -0.010703368537016063
1800000000.0 0.12078579948420982 0.0491564806649985
1820000000.0 0.005921476562661525 0.16518188286696026
1840000000.0 -0.02932874121019509 0.194763037680668
1860000000.0 -0.15006970395078867 0.1654353768236392
1880000000.0 -0.07754845739924633 0.23297246194760746
1900000000.0 0.24664304100804443 0.11513428322217467
1920000000.0 -0.09220019667809108 -0.2735793425436314
1940000000.0 -0.15756627856994063 0.25811608627221916
1960000000.0 -0.1813805407675569 -0.25410468207559644
1980000000.0 0.3068594984319262 -0.06505950720115594
2000000000.0 0.19122009485517494 0.24643306535520057
2020000000.0 -0.044180482630339295 0.3093274494010642
2040000000.0 -0.24524537186506828 0.1842640126766139
2060000000.0 -0.2715444104386019 -0.13395644228944456
2080000000.0 -0.11548935045654428 -0.2799169412833003
2100000000.0 0.02348789814420374 0.2980977541779461
2120000000.0 -0.2679059984725619 -0.12889181697683563
2140000000.0 0.23265280897880536 0.17438166691135326
2160000000.0 -0.2813376444183796 -0.05558031770910762
2180000000.0 -0.11055168441703489 0.2515075392411052
2200000000.0 0.05645099854419182 0.26450006964605877
2220000000.0 0.14770267462742342 0.2150527259491401
2240000000.0 -0.10198575177287998 0.23445945095600093
2260000000.0 -0.22349894170727055 0.09281405348303332
2280000000.0 -0.07465179632824258 -0.2200300822751664
2300000000.0 0.18986460701573094 0.11473845869698812
2320000000.0 -0.1468703898752326 -0.15591749087146003
2340000000.0 0.19497830697406382 0.07745689379972508
2360000000.0 -0.20692027379026912 -0.03239702092575037
2380000000.0 0.20445827895620436 0.06283086652596728
2400000000.0 -0.2300321812364778 -0.018105157505678628
2420000000.0 -0.1243901317088726 0.22750869100431081
2440000000.0 0.267743974097163 -0.09992071066972143
2460000000.0 -0.26427243838535913 0.18176974266731635
2480000000.0 0.32164354401706446 -0.14248958034347342
2500000000.0 0.16279070769429752 0.3551403164166281
2520000000.0 -0.4158214057677427 0.09216886953878232
2540000000.0 0.01342212559029471 -0.46250225719360083
2560000000.0 0.40750037815948453 0.28761689508682037
2580000000.0 -0.5315322650966845 -0.03667102093866162
2600000000.0 0.36330152999436716 -0.43083999751159513
2620000000.0 -0.08104845883404181 0.582872522446952
2640000000.0 -0.2743487290434965 -0.5456135096238626
2660000000.0 0.6140721345546188 0.13356646586159332
2680000000.0 -0.3015438819091847 0.5668913286137617
2700000000.0 -0.6357636034535651 -0.1522965097043241
2720000000.0 -0.4144285771338903 -0.515928191620109
2740000000.0 -0.32103799965539465 -0.5845375040288211
2760000000.0 -0.12834284533840556 -0.6562490422800592
2780000000.0 0.6641239811363988 -0.02799715044812338
2800000000.0 0.633553709752727 0.17393662840401808
2820000000.0 0.28254192670600603 0.5815293445409953
2840000000.0 -0.5524458187942638 0.3108788868329159
2860000000.0 0.26507349602999414 -0.5613453456221928
2880000000.0 -0.3522684786740878 0.49227350585190727
2900000000.0 0.5840165213855295 -0.06623706783871891
2920000000.0 -0.21755817787440268 -0.5236663266499171
2940000000.0 -0.5418166096107693 0.0047465449920081615
2960000000.0 -0.37147026684746826 0.36113641993882484
2980000000.0 0.12046327857049735 0.48072139618824467
3000000000.0 0.4722316964987988 -0.004491867971183291
3020000000.0 -0.0732754512505212 -0.43998867398420033
3040000000.0 -0.1707091712770577 0.38038673306761817
3060000000.0 0.38134983871279027 -0.08269370022900252
3080000000.0 -0.3652089991408293 0.009337139310264624
3100000000.0 0.3414156437748405 0.032735902119674164
3120000000.0 0.23367942455645435 -0.23157099629965072
3140000000.0 -0.2591948585529965 0.190681367208999
3160000000.0 0.2142503963953284 -0.23417548981100886
3180000000.0 -0.2843306873436718 0.12969671294774243
3200000000.0 0.2869118219416223 -0.1126436984111342
3220000000.0 -0.21957739373429758 -0.19883795944807864
3240000000.0 -0.2855448196206041 0.0042873039270313095
3260000000.0 -0.23798043688582013 -0.117265301204319
3280000000.0 0.12873564731852136 -0.21785075885949745
3300000000.0 0.17395262785955842 0.1624982612886246
3320000000.0 -0.20136633343056307 0.0903589632799318
3340000000.0 -0.09796096826740516 -0.1724281587262468
3360000000.0 0.15462355668665256 0.07415715802876574
3380000000.0 0.09160847978010139 -0.11236867313197883
3400000000.0 -0.005583028470303001 -0.12116129113159624
3420000000.0 0.08157366591350514 -0.07053420293145934
3440000000.0 -0.08524148069647222 -0.05134027238734152
3460000000.0 -0.03879219709401417 -0.08123251844173596
3480000000.0 0.0418073474471842 -0.06889081084443448
3500000000.0 -0.002267476363641412 0.06686924427899531
3520000000.0 0.005139329224271776 0.057710780643239167
3540000000.0 0.050436862249617805 0.026842131684236246
3560000000.0 -0.007688106637130021 0.056847738565462234
3580000000.0 0.06765359092721165 0.0005420583272062846
3600000000.0 0.06917150169612844 -0.031010288589499377
3620000000.0 -0.08826435726262212 -0.02934218585935628
3640000000.0 -0.03769491263789757 0.09384691303560908
3660000000.0 -0.05287379851183515 0.09223129158525305
3680000000.0 0.000807260803594533 -0.1031688785935991
3700000000.0 0.0815182500356874 0.047614567723770526
3720000000.0 -0.007988974634407252 0.0858630853649924
3740000000.0 -0.017614621895195776 0.0732408042088569
3760000000.0 0.04730338976365339 -0.05089823335370805
3780000000.0 0.009874906622203179 0.055228525321572734
3800000000.0 -0.03602549896546153 0.0018805372551888582
3820000000.0 0.03252294404176465 -0.006688289712607628
3840000000.0 0.031626984728821965 0.03886058473783224
3860000000.0 -0.0640434075502937 0.03428757161176734
3880000000.0 -0.01376624566645801 -0.08954632396541434
3900000000.0 0.04342389577802896 0.09294934409244301
3920000000.0 -0.050131264114161064 0.09450009419078115
3940000000.0 0.10462094907119801 0.01822972299639465
3960000000.0 0.022125570530272986 -0.10337591622721927
3980000000.0 -0.08846911964870761 0.04249547691761371
4000000000.0 0.08686094667269402 -0.011144960462061261
