!Created with skrf (http://scikit-rf.org).
# Hz S RI R 50.0 
!freq ReS11 ImS11
400000000.0 0.20802253730307185 0.4774542600223163
420000000.0 0.39392487179752705 0.16718612356297471
440000000.0 0.35879063351227786 -0.0008129177172674673
460000000.0 -0.13351111636779547 -0.28207974622504084
480000000.0 -0.00925039834977957 -0.20083022713709245
500000000.0 0.020219475715180093 0.13758229142746167
520000000.0 0.04597501870276832 0.14970392313489272
540000000.0 0.21264262287419383 0.040997870871188516
560000000.0 0.14306102434342322 0.23046708529208304
580000000.0 0.14478984852334706 -0.28078377261341886
600000000.0 -0.2781563465933707 0.13788511234760464
620000000.0 0.1996996667926613 0.22156388361458004
640000000.0 0.26371279093638844 0.08835202669080525
660000000.0 0.20983065038570822 0.20829861092073074
680000000.0 0.3033783401243625 -0.021575238303908343
700000000.0 0.24816084259404536 0.10556528345923172
720000000.0 0.20951170537153568 0.10465314982249994
740000000.0 0.17616680923564723 -0.1380081845344967
760000000.0 -0.2045729592388314 0.04818918127305541
780000000.0 0.05360721273929669 0.1660959547312478
800000000.0 0.15730580316704232 0.011901446953545367
820000000.0 0.15508495945318287 0.0578629892567319
840000000.0 0.034676797991659236 -0.12940109501764638
860000000.0 0.10818601588559823 0.04340443162897387
880000000.0 -0.0841955539216005 0.07327377343632753
900000000.0 0.050173161769726124 0.1005888896890534
920000000.0 0.036389836499281444 -0.09373775633983167
940000000.0 -0.08528951945879981 -0.038856362686921525
960000000.0 -0.06595852573386678 0.06414445257693732
980000000.0 0.09099396196955095 0.05061027103606441
1000000000.0 0.03456614625912737 -0.12491500569956919
1020000000.0 0.057768551519410745 -0.1349565548542628
1040000000.0 0.007123604886537245 0.17172215220554424
1060000000.0 -0.09669265325682211 -0.15349192003364767
1080000000.0 0.08446476793163135 -0.20214000837308738
1100000000.0 -0.23116032062220412 0.07318505311153972
1120000000.0 -0.2105649215116123 -0.1290505397678788
1140000000.0 -0.01560530948960721 -0.25737508457718533
1160000000.0 -0.056284142756412185 0.2580014205779925
1180000000.0 -0.2342778140757744 -0.12549960537115334
1200000000.0 0.2220242223259322 0.14040295234147712
1220000000.0 0.04933709401685037 0.264613669597384
1240000000.0 -0.050826437769912115 0.2550047523496611
1260000000.0 0.12567388174061328 0.22691555782341588
1280000000.0 0.21643810900428714 0.10690013361818178
1300000000.0 -0.22740492730120865 -0.051661015929181556
1320000000.0 -0.21978889917340963 0.05518610715213037
1340000000.0 0.138537436357682 -0.17767710537884515
1360000000.0 -0.08958499415375537 -0.20350239666316214
1380000000.0 -0.2098980970319816 -0.05668477929793251
1400000000.0 -0.13994853942847327 -0.1519077593240742
1420000000.0 0.016117457001613184 0.19782275331737076
1440000000.0 0.17643312893008548 0.06748057071354341
1460000000.0 0.047328837374819396 -0.19236566667678298
1480000000.0 -0.010458383427558691 -0.19192229340027236
1500000000.0 0.149800459503454 -0.06968019554319611
1520000000.0 -0.1395763141151844 0.05522768572965506
1540000000.0 -0.12557504245664752 -0.05793633231697227
1560000000.0 -0.021920487231791796 0.12631905765453746
1580000000.0 0.012354730672164707 -0.1311917443954728
1600000000.0 -0.09645303904699591 0.09647279002378442
1620000000.0 -0.13779257494586047 -0.042157906666265905
1640000000.0 -0.1308656897758307 0.06940217725770462
1660000000.0 0.14912426946123325 0.013471776011787746
1680000000.0 -0.1192408339433265 -0.09393684961234532
1700000000.0 -0.011499033392663454 0.16022284531384517
1720000000.0 0.03764310876332842 -0.1655589677742503
1740000000.0 0.13593274183245488 -0.10949327016679956
1760000000.0 -0.14374961452296967 -0.12437544412586472
1780000000.0 0.07990563993819493 0.188597055274371
1800000000.0 0.00047018935739000944 -0.21858099194538147
1820000000.0 0.014646287463142258 0.22500255267758243
1840000000.0 0.22172481311517686 -0.05307556168417696
1860000000.0 0.13006395571529977 -0.17919692551126246
1880000000.0 0.215322179671211 -0.031185010426032205
1900000000.0 0.052281553664587144 -0.20623774015809104
1920000000.0 -0.1931404199826601 0.06594022126058662
1940000000.0 0.18808761464725804 0.006268385214966024
1960000000.0 -0.16306991477019844 0.051191859240410975
1980000000.0 0.1480216862004606 -0.034743636704370175
2000000000.0 0.02700793941050356 0.13397961000062267
2020000000.0 -0.10499114017476756 -0.056460883596386846
2040000000.0 0.09619514030502029 0.04247471262712736
2060000000.0 -0.08271679464116431 -0.05235138614902783
2080000000.0 -0.0909989031843175 0.02067602062741836
2100000000.0 -0.027827149488910758 0.08686573335696667
2120000000.0 0.05946627860238009 0.06846933235986354
2140000000.0 0.0031915968437394066 -0.08617475789507646
2160000000.0 0.0623847150572533 0.0540502874050277
2180000000.0 -0.07644297538478516 0.007761708751271868
2200000000.0 -0.009471158745750032 -0.06881685146256514
2220000000.0 0.04263913024438427 0.05267777462714003
2240000000.0 -0.060399438770844825 0.02555262040133338
2260000000.0 -0.000262272820490011 -0.0705892591873113
2280000000.0 0.05957472422410154 0.05303018057361228
2300000000.0 0.07477480872976888 -0.04940956452100465
2320000000.0 -0.0972510263978028 -0.01020248368753889
2340000000.0 0.005708459101957321 -0.10592917583524387
2360000000.0 -0.07998515669637413 -0.07266910830186216
2380000000.0 -0.10847611529417903 0.01763621791233977
2400000000.0 0.07239989550009031 0.08434769859781024
2420000000.0 -0.0793623502704491 0.08290455518572123
2440000000.0 -0.08546629659191807 0.07957568978861736
2460000000.0 0.07174920116224284 0.10115241961467714
2480000000.0 -0.1311625766989084 -0.005890881575975169
2500000000.0 -0.1307804145193589 0.042064761739247614
2520000000.0 -0.08496715911201382 0.12282414099395804
2540000000.0 0.0003936932241238539 0.161961973215422
2560000000.0 -0.16704655580161795 0.03400015600385734
2580000000.0 0.16545368817132988 0.07076969558765057
2600000000.0 -0.14874750461635006 -0.11275914511564038
2620000000.0 -0.08745600684617061 0.16625915102154984
2640000000.0 -0.003969655235374342 0.18947181445943523
2660000000.0 0.1870093968630392 0.016373487318427294
2680000000.0 0.022382805773069888 -0.18030739943221288
2700000000.0 -0.13802873206633506 0.10504343346006445
2720000000.0 0.11415718106964272 -0.1157245606114076
2740000000.0 -0.14942938560731478 0.019702907328902536
2760000000.0 0.0876420531856176 -0.11401106582498276
2780000000.0 0.12012510903651442 0.06576551433181914
2800000000.0 0.08198587422328925 0.10328516578676328
2820000000.0 0.08382056541374294 -0.09727279306093851
2840000000.0 -0.12848759616818092 -0.0004811936908138806
2860000000.0 -0.12316019852378494 -0.036292219621768165
2880000000.0 0.07050890490687689 -0.11423416762765096
2900000000.0 -0.03950911726157406 0.1378480171728623
2920000000.0 0.10163543792494538 -0.11194955881253094
2940000000.0 -0.1608479059099693 -0.004696700647336478
2960000000.0 0.013334168068104996 0.16963933431284273
2980000000.0 0.17665599001592244 -0.024616419978906467
3000000000.0 -0.16824397661127885 -0.08254765423851616
3020000000.0 0.19398516545659938 0.028844335329909373
3040000000.0 -0.15768846493330016 0.12444546689337087
3060000000.0 -0.14113167073614732 -0.14779874133740792
3080000000.0 -0.03743202605326388 -0.2003885123303392
3100000000.0 -0.11213777049891384 -0.16462935607098267
3120000000.0 -0.18292801003196935 0.06791362216159931
3140000000.0 0.18935866091827228 0.014374798831891526
3160000000.0 -0.178197221244148 -0.05096364218658621
3180000000.0 0.1829450354397141 -0.013017699068604272
3200000000.0 -0.14969941081229332 -0.10717963050228939
3220000000.0 0.18220227452459334 -0.03975378617905765
3240000000.0 -0.18034804614826708 0.0612372571470702
3260000000.0 0.10331838198946078 0.16543280879387687
3280000000.0 0.19486920426871174 0.04748535667294193
3300000000.0 0.18176355848912124 0.09815295094157712
3320000000.0 0.08789449695353577 0.19058653486183683
3340000000.0 -0.2121615638370771 -0.009033909657224481
3360000000.0 0.18304991051576736 -0.1103368701703507
3380000000.0 -0.1584021378973452 0.14210169124126662
3400000000.0 0.15895296069250983 -0.135288528936969
3420000000.0 -0.18994428875400965 0.06753268816119302
3440000000.0 0.16181609740192368 0.10850673183850114
3460000000.0 0.051575971038007276 -0.1802727043639301
3480000000.0 -0.1800554424096122 -0.01163928403842024
3500000000.0 0.07336312956963069 0.15801502663396197
3520000000.0 0.07931610742551734 -0.14641574264824284
3540000000.0 -0.03522548855114515 0.1553403553730511
3560000000.0 -0.11827990218117032 -0.09642202155895593
3580000000.0 0.03341139574983035 -0.14414552529227717
3600000000.0 -0.032405084201190745 -0.14204130640674587
3620000000.0 -0.07077589583289937 -0.12678709972465774
3640000000.0 0.0033444171308929355 0.1480255903287135
3660000000.0 -0.026788946821985064 -0.15474279606945154
3680000000.0 0.023331268155315818 0.16778982720910823
3700000000.0 0.16200307057136823 -0.09156679652265173
3720000000.0 0.08329807144092091 -0.18605147838198086
3740000000.0 0.20976870212943163 -0.07845305342231021
3760000000.0 0.237166721510103 -0.05133158716563699
3780000000.0 0.14362871941949762 0.21696771190647038
3800000000.0 -0.2727297513025127 -0.021967201190942108
3820000000.0 0.24597807823275722 -0.13676358368179808
3840000000.0 -0.2744603509274387 0.07553787923639603
3860000000.0 0.28101321027705883 0.03898679363578568
3880000000.0 -0.24635274162914683 -0.12730133714327563
3900000000.0 0.22482606023326093 0.1450352923714485
3920000000.0 -0.24989965590243393 -0.008624953181598831
3940000000.0 0.11657943815614488 -0.1954933288200655
3960000000.0 0.19875288049640535 -0.026079032509854296
3980000000.0 0.14674085295163905 -0.09312019173906272
4000000000.0 -0.06365000244594565 0.13121851390176062
