!Created with skrf (http://scikit-rf.org).
# Hz S RI R 50.0 
!freq ReS11 ImS11
400000000.0 0.23777041778048452 0.4649015918299791
420000000.0 0.41585053235877273 -0.083284527860761
440000000.0 0.3390198449847516 0.09432040478206141
460000000.0 -0.00482056544665864 -0.3111699753222027
480000000.0 0.03825293791618145 -0.19890039838653933
500000000.0 0.0905905147815359 0.1061541229333917
520000000.0 0.06727551359871695 0.13701469336413924
540000000.0 0.20148933112009154 -0.07737428474474019
560000000.0 0.2327528231760819 0.14130265144147494
580000000.0 0.20401955420918264 -0.24103618052723244
600000000.0 -0.19336150399711877 0.24002957877113226
620000000.0 -0.11394745115008839 0.2719513627552363
640000000.0 0.2256039709334451 0.16858775697128706
660000000.0 0.29677668309068433 -0.03185795250787243
680000000.0 0.17999534652169785 -0.24459809903827331
700000000.0 0.2345109203379357 0.1271040084437364
720000000.0 0.12003370826137341 0.20206389626864993
740000000.0 0.18563967259862482 -0.12327548870815874
760000000.0 -0.18700192645404734 0.08907894342984408
780000000.0 -0.08936117966032962 0.15033635065367043
800000000.0 0.1445076869684879 0.06903960258672366
820000000.0 0.14263135225013215 -0.08165406885299942
840000000.0 0.12223983012418199 -0.0544473516389542
860000000.0 0.0036413598190793376 0.11794016037334609
880000000.0 -0.11175049505269825 -0.005431508889671535
900000000.0 -0.0541618171632952 -0.10010048268444989
920000000.0 0.09153535440598234 0.02949112344164498
940000000.0 0.05289634490626822 0.08262680875286342
960000000.0 0.018650894214763045 -0.08955708592629573
980000000.0 -0.09614822759065592 0.0447965049930763
1000000000.0 -0.11183226864328348 0.06467877684537092
1020000000.0 0.10579427612306196 0.09515596078816808
1040000000.0 -0.14465313757807255 -0.10387745314186053
1060000000.0 0.029181078398441748 0.18268840536921724
1080000000.0 -0.05157392613356884 -0.20278586843970248
1100000000.0 -0.025985444787091222 -0.24270344656264867
1120000000.0 -0.2440490998005 -0.04996201568735932
1140000000.0 0.019034795503745705 -0.2595842426854905
1160000000.0 0.211362667213042 0.15643334082667637
1180000000.0 -0.024204356452781406 -0.2622433260238405
1200000000.0 0.23852662858535725 0.12023366867224297
1220000000.0 0.022184532980394283 0.267342524267332
1240000000.0 0.07587321641986057 0.250984714908325
1260000000.0 0.13889045384750093 0.21728832086830585
1280000000.0 0.10373609100475845 0.21753588687306633
1300000000.0 -0.22993127621213447 -0.04524428303506547
1320000000.0 -0.20410317985381646 0.10029333494188124
1340000000.0 0.1901360585447661 -0.12117636074992588
1360000000.0 -0.11677142462667413 -0.18829072410648845
1380000000.0 -0.1740489646910857 -0.1311572588641394
1400000000.0 -0.16631027083043476 -0.12380595910446636
1420000000.0 -0.007973714369569831 0.19705403769555885
1440000000.0 0.18795198172123218 -0.025768544597326762
1460000000.0 0.08067678093598281 -0.17962013320246067
1480000000.0 -0.03999348204053533 -0.188385320524245
1500000000.0 0.12670650850112167 -0.10707840278540853
1520000000.0 -0.1418177296917723 0.045969497254052256
1540000000.0 -0.1180035048110407 -0.0717905545312337
1560000000.0 -0.039880522467994464 0.12123042393681197
1580000000.0 -0.055174118735949275 -0.12033734656769149
1600000000.0 -0.08012709632611731 0.10884376317473726
1620000000.0 -0.1068133250350607 -0.09568565333326519
1640000000.0 -0.13186460627782196 0.0687742222304092
1660000000.0 0.1505610888821875 -0.006547198449183848
1680000000.0 -0.13948763754573376 -0.05912508855541737
1700000000.0 0.018732960791422695 0.1591179540042545
1720000000.0 0.08030081659012638 -0.1485469722237196
1740000000.0 0.12009299857644103 -0.12730586699507826
1760000000.0 -0.1474840237569308 -0.11975731934100413
1780000000.0 0.06055260558354753 0.1966532077966757
1800000000.0 -0.03918943317868669 -0.21605489827918964
1820000000.0 -0.0021848499966924642 0.22530747890395258
1840000000.0 0.22400406117743857 -0.04021454409309848
1860000000.0 0.15882629473164467 -0.1559143104101822
1880000000.0 0.21382693193497812 -0.03853229457650015
1900000000.0 0.10027449132173816 -0.18700423573573896
1920000000.0 -0.18606164916024848 0.08510656030288191
1940000000.0 0.18731123821303974 -0.014122708893401965
1960000000.0 -0.16986674679065825 0.006912571422679941
1980000000.0 0.1510075491394107 -0.02316356487291019
2000000000.0 0.04929010430096194 0.12716993694638834
2020000000.0 -0.11029165854284759 -0.04639812192288892
2040000000.0 0.09909182598971893 0.03548863702950276
2060000000.0 -0.07935052178214443 -0.059017915374667336
2080000000.0 -0.08292425148412251 0.04125793753905017
2100000000.0 -0.06382072050105025 0.06626134022793631
2120000000.0 0.08154258078473854 0.04118303874821216
2140000000.0 0.010995130673943759 -0.08492342429503535
2160000000.0 0.06473516752978328 0.052534882967370786
2180000000.0 -0.06765988294164359 0.035068030136882936
2200000000.0 -0.014330272673004428 -0.06789683928681131
2220000000.0 0.04237428092734728 0.0520560341289529
2240000000.0 -0.06402330047340918 0.014494512145289972
2260000000.0 -0.03461773889534112 -0.062033176425763184
2280000000.0 0.06566594299361998 0.043794195384944175
2300000000.0 0.0854295032814303 -0.02681137666768865
2320000000.0 -0.09728196483772782 -0.00912304943101675
2340000000.0 -0.030224431136452897 -0.10152181899626705
2360000000.0 -0.0917729280858605 -0.05648813778747081
2380000000.0 -0.11000194642589076 0.0058835764889438825
2400000000.0 0.0931818312849758 0.06260230219441001
2420000000.0 -0.057042289891486866 0.09876295848382002
2440000000.0 -0.10351183910122494 0.053363493492615065
2460000000.0 0.0597602473889478 0.10873733218088515
2480000000.0 -0.12818257109715292 -0.02824103414082148
2500000000.0 -0.12271583547830862 0.06359006890509138
2520000000.0 -0.08238524684839181 0.12389614120501806
2540000000.0 -0.030256325122099692 0.15878465758689125
2560000000.0 -0.1666229207623008 0.03753486124392227
2580000000.0 0.16331974345800343 0.07569435701332242
2600000000.0 -0.14753628384291834 -0.1146249863543632
2620000000.0 -0.07945215830129225 0.17031356037799247
2640000000.0 -0.0007776125532431965 0.18941422654732876
2660000000.0 0.18739305444242485 0.009021678088225678
2680000000.0 0.015850528634320273 -0.1808217026908639
2700000000.0 -0.11993782822134065 0.1256875386946739
2720000000.0 0.11781151270886246 -0.11123242386395926
2740000000.0 -0.13981316451030662 0.05684807786072144
2760000000.0 0.1044532832883094 -0.09882761366928204
2780000000.0 0.11108783993936755 0.0807667453420343
2800000000.0 0.0806590929561075 0.1050418026437837
2820000000.0 0.08638239636774482 -0.09505374387845403
2840000000.0 -0.1268408153004493 -0.019975085117447274
2860000000.0 -0.11647262875146532 -0.05509500713329304
2880000000.0 0.07562500309106589 -0.11076497063360617
2900000000.0 -0.041596479847391114 0.1368928800502364
2920000000.0 0.12017951224275443 -0.09112940388210779
2940000000.0 -0.15980939609336184 -0.019990389553936887
2960000000.0 0.012143493871102308 0.16935056110753027
2980000000.0 0.17424495519206057 -0.03503346986607182
3000000000.0 -0.15041001338810592 -0.11194143359254421
3020000000.0 0.1955233512965807 0.01014993618534338
3040000000.0 -0.15425629766428275 0.12944945348396078
3060000000.0 -0.16442933312275568 -0.12041603877016105
3080000000.0 -0.030484278353928237 -0.20186966366587597
3100000000.0 -0.12726150012470488 -0.1538987539910253
3120000000.0 -0.1759222966238474 0.08381855804119318
3140000000.0 0.18393853545643424 0.048018245980360794
3160000000.0 -0.17169703859364036 -0.06983389834581993
3180000000.0 0.18236402050864994 -0.02506339458918159
3200000000.0 -0.14721654669533082 -0.11098771163603607
3220000000.0 0.18228170162267765 -0.03902432335269044
3240000000.0 -0.18783739327509977 0.03304661665407852
3260000000.0 0.08596640434605035 0.17511404810649264
3280000000.0 0.1992127318623651 0.021433264122742934
3300000000.0 0.1860789738876759 0.08751179849169341
3320000000.0 0.09420262756776848 0.1876410392411053
3340000000.0 -0.21261683728257122 0.008807202026207887
3360000000.0 0.1581431770603177 -0.1436880971677874
3380000000.0 -0.14058099345316843 0.15965222230989645
3400000000.0 0.1530006017579811 -0.14237775947720985
3420000000.0 -0.18871549152693384 0.07202990430324717
3440000000.0 0.1649262678080897 0.10442647036343654
3460000000.0 0.05234205903915206 -0.18039649415396036
3480000000.0 -0.17504170202377747 -0.04451603100852766
3500000000.0 0.05646356780394249 0.16506307643635718
3520000000.0 0.0789648586690708 -0.14669539770361048
3540000000.0 -0.03753158406649137 0.1547101278039318
3560000000.0 -0.10521321673090923 -0.11025923678315881
3580000000.0 0.052986782299108165 -0.13751531997899732
3600000000.0 -0.011407371931215332 -0.14471770055486885
3620000000.0 -0.05911382197043365 -0.13192412612888893
3640000000.0 0.013445854416835816 0.14741366966144212
3660000000.0 -0.05437045061002155 -0.1470992342233732
3680000000.0 0.04019010220235612 0.1641643776999385
3700000000.0 0.15026510364413703 -0.10922229556477066
3720000000.0 0.05792260823167433 -0.19560060387093414
3740000000.0 0.18855189516121776 -0.12053718645475779
3760000000.0 0.23463654647109694 -0.06273246443122743
3780000000.0 0.1654504552072054 0.2014043411015826
3800000000.0 -0.27170614993222525 -0.031714124894513036
3820000000.0 0.25769539999111596 -0.11402011909352261
3840000000.0 -0.270958771616916 0.08839851497734529
3860000000.0 0.2809000417005175 0.03788297887924824
3880000000.0 -0.2376981614475356 -0.14252146722055148
3900000000.0 0.21505032046292813 0.15924961604084278
3920000000.0 -0.246953457935399 -0.0376208544584566
3940000000.0 0.11679922578509587 -0.1947867195089488
3960000000.0 0.1999074420787366 -0.004736513698055018
3980000000.0 0.13965706439929343 -0.10246261598315912
4000000000.0 -0.017362408129515908 0.14421387492423587
