!Created with skrf (http://scikit-rf.org).
# Hz S RI R 50.0 
!freq ReS11 ImS11
400000000.0 -0.3526575374322386 0.47814943223159856
420000000.0 0.5095788989789686 -0.06210182084926545
440000000.0 0.08413260553626065 0.43656048942038583
460000000.0 0.12535643245696979 -0.331288368429072
480000000.0 0.23248297070923804 0.22790429202074933
500000000.0 0.09947559675054757 -0.2968503592569678
520000000.0 0.19359778913683384 -0.12777655348965725
540000000.0 0.22870265685007785 -0.1248343066497394
560000000.0 0.2153051215434423 0.10310474870458103
580000000.0 -0.22089582050533077 0.026836333652692147
600000000.0 -0.19093756192557318 -0.10246106527741174
620000000.0 0.2221596028469477 -0.1100545373888688
640000000.0 -0.23061716273058436 0.1352190927796388
660000000.0 -0.1463926439679861 0.2241044799044874
680000000.0 0.06061859838007559 -0.2517041702998362
700000000.0 0.2536110599637307 -0.08109232893896043
720000000.0 0.24170052194071007 -0.08248405587928342
740000000.0 0.19241202410509656 -0.16911242702352275
760000000.0 0.07910096665452657 -0.2556707500210762
780000000.0 -0.04627589556719942 -0.22415559176514205
800000000.0 -0.03288442370949512 0.22404656878405294
820000000.0 0.18506067454058703 0.04690798941696146
840000000.0 0.1554936158543346 -0.040671837614033854
860000000.0 0.06762678645422991 0.12270857540272384
880000000.0 -0.03331698083156951 0.10177330790512262
900000000.0 -0.053561090863217385 0.08801537763198089
920000000.0 -0.09406170406503814 -0.0031684158442297876
940000000.0 -0.03703991518512535 0.046422353708934716
960000000.0 0.00836359143700962 0.047159964870897866
980000000.0 0.010228949847706214 0.03529088301187769
1000000000.0 0.03779537087194149 0.027453819239215315
1020000000.0 -0.04592782081141855 -0.043158568580734316
1040000000.0 0.006856444071455939 -0.06898540400054606
1060000000.0 0.07205211668177247 -0.04459225120558298
1080000000.0 -0.10322175591327852 0.07658049358199437
1100000000.0 -0.08219428687143178 -0.13418514075113214
1120000000.0 0.17997428712523655 0.07548903990530652
1140000000.0 0.16070698076862783 0.18000464386204917
1160000000.0 -0.13364423878961826 -0.23148611080022774
1180000000.0 -0.12165547062729848 -0.2527704188391765
1200000000.0 -0.28004569368500565 0.10297011210057772
1220000000.0 0.2861487816183226 0.025770725071421353
1240000000.0 0.1635273075567211 -0.22755638199283237
1260000000.0 -0.2529057240592307 -0.06757673451296078
1280000000.0 0.23151564447375808 0.06740132729839039
1300000000.0 -0.21353852395558603 0.10785065578055421
1320000000.0 0.1698022727514687 0.16235861205496915
1340000000.0 -0.13906275980192534 0.18146871919551974
1360000000.0 0.003822065396692517 0.2214883005201024
1380000000.0 -0.1284789963758836 -0.19552968704699852
1400000000.0 -0.189772003763359 0.1300878777046012
1420000000.0 -0.16988962074157857 -0.15866620043675744
1440000000.0 0.024210143054439606 -0.22143772275107645
1460000000.0 -0.17453146346571638 0.12708616433039868
1480000000.0 0.17443854914968884 -0.11541748559283395
1500000000.0 -0.13827874922117728 0.1489754323043697
1520000000.0 0.08188100472652686 -0.17938959557145825
1540000000.0 -0.009882676669586173 -0.18177346030971506
1560000000.0 0.08578864523993769 0.13750844533425152
1580000000.0 0.13496976428022414 -0.04003191379065472
1600000000.0 -0.021028300161515533 0.11847327555233393
1620000000.0 -0.10067144771646744 -0.008622893390108797
1640000000.0 -0.07908297391513654 -0.05893828236274641
1660000000.0 0.02037876194991977 -0.10160231595248637
1680000000.0 0.0600061975368604 -0.10721065059453337
1700000000.0 -0.07605811333198147 0.11833738355923769
1720000000.0 -0.08143209895916152 -0.12919137098927913
1740000000.0 -0.15597808568231944 0.05180103630029611
1760000000.0 0.15217025915366994 -0.09945540730667421
1780000000.0 0.13449949019042304 0.13665796719320228
1800000000.0 0.08866814405942516 -0.17339665409324584
1820000000.0 0.10336478168183795 -0.17413874033872956
1840000000.0 0.18715854216675334 -0.09072208258417874
1860000000.0 0.20975319645415497 0.05324378286790893
1880000000.0 0.11779194866090409 -0.17704496886820476
1900000000.0 0.003217282760707387 -0.20664785273138817
1920000000.0 0.09616744769185313 -0.17302904435190622
1940000000.0 0.13488528837909597 -0.13636570952210977
1960000000.0 -0.1845853437519631 0.004612670434986271
1980000000.0 -0.15816235644040347 -0.07393298271948966
2000000000.0 -0.08187181351752108 -0.13422658432408827
2020000000.0 0.033070311841646806 -0.1332909687050295
2040000000.0 0.1211326411101884 0.019081241502027908
2060000000.0 0.10221302482123257 -0.047862315336490616
2080000000.0 -0.07762210698465347 -0.06594045750106842
2100000000.0 0.07595610150508006 0.05636621110483557
2120000000.0 0.05540944246321633 -0.06595110844088754
2140000000.0 -0.07945251951517533 0.019142853861221377
2160000000.0 0.07997279736196769 0.008642057999684635
2180000000.0 0.019738306444772386 -0.07508512836145113
2200000000.0 0.07581303169238529 -0.018753856798907315
2220000000.0 0.05074492617186521 -0.06106317228773314
2240000000.0 0.029520837719525492 0.07379414191175039
2260000000.0 -0.054880543397599825 -0.06195143098807283
2280000000.0 -0.004350889257775795 0.08490838595708709
2300000000.0 -0.05885866543708295 0.059497284475380344
2320000000.0 -0.06588287777346205 0.05846466121364135
2340000000.0 0.009673570437260855 -0.08924023480407112
2360000000.0 0.04733621629375058 0.0758170567472319
2380000000.0 -0.07388794214839738 0.053758989784037654
2400000000.0 -0.08149934923470611 -0.045724400794427106
2420000000.0 -0.025639148672116762 -0.0843233830752799
2440000000.0 0.08456159972740103 0.016918587017673417
2460000000.0 0.09247148683004112 -0.004717544902400683
2480000000.0 0.04255541562043526 -0.09014090066170674
2500000000.0 0.05594036310554389 -0.0979196651791488
2520000000.0 -0.1212539595458283 -0.04578341298848576
2540000000.0 -0.14295784391325234 0.009684019585207308
2560000000.0 -0.018267165332082023 -0.15529377359453675
2580000000.0 0.050716540234497356 0.1565078095578825
2600000000.0 0.16908253335639487 0.005331517697630504
2620000000.0 0.1154890422090757 -0.1329782575766879
2640000000.0 -0.07788744973572635 -0.16103106930616348
2660000000.0 -0.14600847551450785 0.09907440293454796
2680000000.0 0.06573239235121797 0.15547798292221163
2700000000.0 0.0677917577806304 -0.14325372780482218
2720000000.0 -0.08543630678223275 -0.11727991486383069
2740000000.0 -0.13831050653852792 -0.00013541405481488022
2760000000.0 0.1280599174559998 -0.04183672110075159
2780000000.0 -0.08108590620763814 0.10516129796513263
2800000000.0 -0.13094131915523927 -0.012785449120750275
2820000000.0 0.019158841597403387 0.13246560161058576
2840000000.0 -0.006281969959354564 -0.14010215216543576
2860000000.0 -0.14841340302209097 -0.004550296010518676
2880000000.0 -0.1241587862734229 0.09781180881739468
2900000000.0 -0.15174509049363355 -0.07012260797196398
2920000000.0 0.13078178567478346 -0.11657543681168442
2940000000.0 -0.15712715880926023 0.09151125710898023
2960000000.0 0.1686280327135854 -0.09002851702708105
2980000000.0 -0.15908869341573503 0.11609786325352725
3000000000.0 0.08709764623297363 -0.18022859352105297
3020000000.0 -0.04573425001182195 0.19671655576072775
3040000000.0 -0.13972273859960643 -0.14574786173856877
3060000000.0 0.1521139032625819 -0.1292353546398024
3080000000.0 0.1966287571142933 0.0035397482085674364
3100000000.0 0.16350295867337292 0.09999187684697004
3120000000.0 0.06930846197225692 -0.17484886012590903
3140000000.0 -0.16668351904773612 0.07323111101077093
3160000000.0 0.16499691083479223 -0.06791935953404167
3180000000.0 -0.12313673963305427 0.12489065028550159
3200000000.0 0.158598066606476 0.07356867459838717
3220000000.0 -0.13025449841286244 -0.11646921113273627
3240000000.0 -0.0958292209068825 0.14888768246501818
3260000000.0 -0.03792083156643161 0.17780505492441553
3280000000.0 -0.06654028492279572 0.17519184011086625
3300000000.0 -0.1678645253140248 0.09450203910322312
3320000000.0 0.018357928896621935 -0.19535760284193823
3340000000.0 0.005494312464136537 0.19980748580278201
3360000000.0 -0.013126629493636474 -0.20195903982543253
3380000000.0 -0.16163873472885026 0.12648447602125054
3400000000.0 0.20742267045687596 -0.0008335544410761188
3420000000.0 -0.20321105459827055 -0.04157853956595402
3440000000.0 0.19378264629462796 0.06653688190100665
3460000000.0 -0.09323181415876342 -0.17673858629510308
3480000000.0 -0.04561822119777212 0.19162084243116614
3500000000.0 -0.03959488117125444 -0.18841595053388618
3520000000.0 0.17019955343408277 0.07406983487771347
3540000000.0 -0.033173401714360735 0.17518976413815734
3560000000.0 -0.1491168967432842 0.07920175678171952
3580000000.0 -0.07034137202176581 0.14511734087255468
3600000000.0 0.06680862476587389 0.1403945920859698
3620000000.0 0.08325717108845232 0.13053581946610912
3640000000.0 -0.07972664092772949 -0.13532787593209378
3660000000.0 0.12175889568061815 0.11046240378865588
3680000000.0 -0.1711826071089157 -0.025002268766546886
3700000000.0 -0.0029824858418914303 0.1817416852703459
3720000000.0 -0.13035258557221105 0.145302968170784
3740000000.0 -0.17139312904609244 -0.12114458313230274
3760000000.0 0.0042529791841108 -0.22536747073157562
3780000000.0 0.22665756980994856 0.07781286029718398
3800000000.0 -0.21654579293267254 -0.1210628915417961
3820000000.0 0.08352478611094453 0.24117276152058595
3840000000.0 0.20927722119017897 -0.15199018737487993
3860000000.0 -0.25995177258605423 -0.018268885122039124
3880000000.0 0.18172582893162198 0.18288070844086887
3900000000.0 -0.0020054556176361004 -0.25098989800341653
3920000000.0 -0.10566318343719538 0.21286451976787696
3940000000.0 0.0035202739412677595 -0.2198449922898521
3960000000.0 0.1982485409415351 0.005541750521986053
3980000000.0 0.1739412096374891 0.014490242647433656
4000000000.0 -0.06528059314648675 -0.13430908511264533
