!Created with skrf (http://scikit-rf.org).
# Hz S RI R 50.0 
!freq ReS11 ImS11
400000000.0 -0.38373274997039925 0.45406334299704787
420000000.0 0.5081997976207662 0.08181041294409845
440000000.0 0.154243501765577 0.4181173906166035
460000000.0 0.09885918748637305 -0.3400676223493013
480000000.0 0.31844045743353594 0.06377063250222764
500000000.0 0.22556073220256348 -0.21511519078073432
520000000.0 0.18763905550147514 -0.1377666637800759
540000000.0 0.23309542968257543 -0.11840712035557759
560000000.0 0.21389193486336916 0.1064982985404785
580000000.0 -0.20129625793615327 -0.0925423409182977
600000000.0 -0.19157123833575984 -0.09969052005446716
620000000.0 0.2216616575395605 -0.1086713183284423
640000000.0 -0.23335920575330066 0.127711810538769
660000000.0 -0.1530424197694553 0.21886142297999642
680000000.0 0.13152165372023375 -0.22266034946990948
700000000.0 0.24317903144595948 -0.10737641754179467
720000000.0 0.23599418305419845 -0.10027186594286676
740000000.0 0.24089422264410904 -0.08485639934649453
760000000.0 0.020733665278005225 -0.2674922048187049
780000000.0 -0.055072174885982025 -0.22223381738520112
800000000.0 -0.04719050055654244 0.22128770433884073
820000000.0 0.19001407526089772 -0.023252195670946562
840000000.0 0.1592843077733053 -0.019994416571945128
860000000.0 0.0976790143899587 0.10082528715366972
880000000.0 -0.03352632143888268 0.10155991148955004
900000000.0 -0.036997358719901806 0.09598735516459388
920000000.0 -0.09121162587416384 0.025316520063532542
940000000.0 -0.049143475108076706 0.033293523760717605
960000000.0 0.018053195398802804 0.04377434338866167
980000000.0 0.02584541665581593 0.025736839415265948
1000000000.0 0.013740402988199524 0.04478337332605198
1020000000.0 -0.04894254098740343 -0.0401117625937328
1040000000.0 -0.008742143976228692 -0.06940820231121417
1060000000.0 0.06078617644795388 -0.05880705672593537
1080000000.0 -0.10250723319400462 0.07743995979361729
1100000000.0 -0.07895185300961749 -0.13632564882235768
1120000000.0 0.17940887967251348 0.07533867681477285
1140000000.0 0.1579603571830893 0.18244940457916717
1160000000.0 -0.14005876275278292 -0.22757079798898297
1180000000.0 -0.12648396794083172 -0.24996071061044225
1200000000.0 -0.27552866740959625 0.11449157808049637
1220000000.0 0.2845552107012616 0.03568818611691837
1240000000.0 0.16720213218380356 -0.2250784238250199
1260000000.0 -0.2535698972884457 -0.0659484760588899
1280000000.0 0.23406494060780664 0.058281934279348385
1300000000.0 -0.22007856193556213 0.09326160525188998
1320000000.0 0.17699885894779724 0.1537458587822571
1340000000.0 -0.14066520049889217 0.18004826022659853
1360000000.0 0.005934482715292287 0.22173509486523163
1380000000.0 -0.13558359755731675 -0.19100838731096353
1400000000.0 -0.18825797671026062 0.13197346936858315
1420000000.0 -0.18498560974858466 -0.1411722850319635
1440000000.0 0.009314607332560971 -0.22274334963318435
1460000000.0 -0.17831687611113953 0.12179874995855922
1480000000.0 0.17199288580869765 -0.11941427547611358
1500000000.0 -0.13398121256585768 0.1526450192891978
1520000000.0 0.0899194656278292 -0.17599292782942766
1540000000.0 -0.011788461296955995 -0.1815857911913105
1560000000.0 0.08187102671669227 0.13986281389357716
1580000000.0 0.136045665091936 -0.03725099156678969
1600000000.0 -0.02251948298325321 0.1184434664299762
1620000000.0 -0.09815710340201586 -0.023484293907310647
1640000000.0 -0.07792894200253361 -0.06059674664945462
1660000000.0 0.030174100172156895 -0.09916562223735477
1680000000.0 0.0652441675160765 -0.10415848662884118
1700000000.0 -0.09756161446187986 0.10127066927851429
1720000000.0 -0.08570995079419869 -0.12656440950053224
1740000000.0 -0.13449865681284665 0.09401079247002354
1760000000.0 0.16583187246702435 -0.07489125875883865
1780000000.0 0.1531660896496052 0.11538189346292774
1800000000.0 0.0809416821809227 -0.1771657415084404
1820000000.0 0.09687130797499002 -0.17781940639611776
1840000000.0 0.1834673696077758 -0.09871581559779247
1860000000.0 0.20867713621446804 0.05760473690379872
1880000000.0 0.1144018374758873 -0.17940439487210863
1900000000.0 0.015072607816743135 -0.20631108767435613
1920000000.0 0.10611404047119792 -0.16725252144104635
1940000000.0 0.1393298441143754 -0.1317981347047262
1960000000.0 -0.18458286329666923 0.0020261622783090574
1980000000.0 -0.15108093212473597 -0.08731212394498446
2000000000.0 -0.08604607056940589 -0.13143087379624616
2020000000.0 0.047373638074444356 -0.12881311293500952
2040000000.0 0.11775163900406282 0.03455416358465414
2060000000.0 0.10081246485371419 -0.05061207934627504
2080000000.0 -0.06608998103236687 -0.0774388675773342
2100000000.0 0.07042017268643545 0.06328717544633973
2120000000.0 0.06187381788012313 -0.060084864747003225
2140000000.0 -0.07945042485888394 0.019637757083891823
2160000000.0 0.07428394836066901 0.03065114220649717
2180000000.0 0.02679156554537566 -0.07264666708507
2200000000.0 0.0761148372273238 -0.017054045768755195
2220000000.0 0.05836079227030465 -0.053687431918753484
2240000000.0 0.042295278678361595 0.06742250847933143
2260000000.0 -0.059348303444605496 -0.05743961105910069
2280000000.0 -0.0028899520759727913 0.0848933679696728
2300000000.0 -0.06452250127199363 0.05327019935422635
2320000000.0 -0.06725184920718574 0.0568142842790969
2340000000.0 0.013263971445425803 -0.08867758349471419
2360000000.0 0.04133560003333906 0.07914787893204449
2380000000.0 -0.07896428652635894 0.04596645864220705
2400000000.0 -0.08046539763209173 -0.047993271281144514
2420000000.0 -0.022366987981296445 -0.08538120291218523
2440000000.0 0.08194858291839462 0.027340953529415846
2460000000.0 0.09180145049336291 0.010510080136035658
2480000000.0 0.04548626491663169 -0.08854379258890994
2500000000.0 0.07225255304839576 -0.08626717553259176
2520000000.0 -0.11555396111085231 -0.05735607408610878
2540000000.0 -0.1410001141847825 0.02436110193001957
2560000000.0 -0.023984211734850318 -0.15433237214356857
2580000000.0 0.04706482807052504 0.15738049565202475
2600000000.0 0.16910665466743352 -0.003176095179699923
2620000000.0 0.10855494873867128 -0.13883741288559814
2640000000.0 -0.07566211267110964 -0.162179241149547
2660000000.0 -0.14672546908320663 0.09783286118720035
2680000000.0 0.07984998879353236 0.148241369470381
2700000000.0 0.07951031575572724 -0.13699553125595454
2720000000.0 -0.07824900676911845 -0.12221099207242461
2740000000.0 -0.13788483045032932 0.010005395934699398
2760000000.0 0.12394656566471622 -0.05186858630012812
2780000000.0 -0.08423729663265402 0.10235014872180073
2800000000.0 -0.13094090690261034 -0.008199469721829672
2820000000.0 0.03599974001711884 0.12888497459901666
2840000000.0 -0.02482384898956423 -0.13781742847350753
2860000000.0 -0.1482757701516635 -0.004974233468507056
2880000000.0 -0.11700071390698825 0.10648954962680611
2900000000.0 -0.15524396617588454 -0.06229715319999002
2920000000.0 0.12911713036582131 -0.11866659470439817
2940000000.0 -0.16017984847232247 0.08629865456198316
2960000000.0 0.17339360740190113 -0.08095607943081755
2980000000.0 -0.14003369178674452 0.14048434233575974
3000000000.0 0.0850049718426996 -0.18096136539168117
3020000000.0 -0.06092863096672496 0.19231236269095403
3040000000.0 -0.13368482542657242 -0.15080034930015293
3060000000.0 0.14885680050861164 -0.1321434237884265
3080000000.0 0.19637054895076725 0.0061998483461801574
3100000000.0 0.16979213848917155 0.08833165773389309
3120000000.0 0.05855650331494344 -0.1785349985475917
3140000000.0 -0.16820614359718405 0.06978766979096221
3160000000.0 0.16993834405770003 -0.05491895403206461
3180000000.0 -0.09045418837234599 0.15083637612170542
3200000000.0 0.1575656931651308 0.07610575570753238
3220000000.0 -0.13506582108758733 -0.11128400559598524
3240000000.0 -0.09567207094132853 0.1494766977507164
3260000000.0 -0.04584851847986512 0.17619057812773312
3280000000.0 -0.07442923769417706 0.17217028712708504
3300000000.0 -0.17908497859111297 0.07046247375299941
3320000000.0 0.03707991952654886 -0.19237337441356947
3340000000.0 -0.011382860865719213 0.19975515068842148
3360000000.0 0.01008815522069221 -0.20301969295358682
3380000000.0 -0.16277445106726207 0.12448378440650769
3400000000.0 0.20652986359830844 0.02085522602826405
3420000000.0 -0.19168550112390337 -0.08027743596668802
3440000000.0 0.2039354600368505 0.013599200862113164
3460000000.0 -0.0403777401052989 -0.19622943410192484
3480000000.0 -0.06516771148361371 0.18599178064195415
3500000000.0 -0.029890714318826072 -0.19053528612079895
3520000000.0 0.17364616076944028 0.06632637440819075
3540000000.0 -0.06772551851832581 0.16499429750312314
3560000000.0 -0.14382965685011828 0.08938287036546562
3580000000.0 -0.09982720295076394 0.12672628416929227
3600000000.0 0.04749328940807548 0.14849540688819204
3620000000.0 0.0704624920864602 0.13747605502219776
3640000000.0 -0.06434317907185495 -0.14313071805384417
3660000000.0 0.1054477187247816 0.12593274645008462
3680000000.0 -0.16903465130116 -0.034113556125861165
3700000000.0 -0.009669397939992884 0.18124201705150095
3720000000.0 -0.1179373900480784 0.15525175999694799
3740000000.0 -0.17901525963201548 -0.10968552451897383
3760000000.0 -0.003960398688874203 -0.22547973496527596
3780000000.0 0.23669588491550167 0.03766385912844861
3800000000.0 -0.22216714289558173 -0.11141748475378613
3820000000.0 0.08950893929216867 0.2394394083426001
3840000000.0 0.1767305178758187 -0.18973149197315312
3860000000.0 -0.2556925431284568 -0.050973577936680246
3880000000.0 0.1589106629913598 0.2031576153516408
3900000000.0 0.027800127524449953 -0.2494452494607584
3920000000.0 -0.10801327013982587 0.21143818705165437
3940000000.0 0.017049761874990698 -0.21900509792835035
3960000000.0 0.1973040434003962 0.016888152345758363
3980000000.0 0.1732201092761643 0.019714129677261733
4000000000.0 -0.06455219829422926 -0.13419573871359886
