!Created with skrf (http://scikit-rf.org).
# Hz S RI R 50.0 
!freq ReS11 ImS11
400000000.0 -0.3437848651493763 0.4851814599287758
420000000.0 0.5116089270285211 0.04055961130486524
440000000.0 0.16029785333990657 0.4157649114705856
460000000.0 0.10309974353759109 -0.3388912978328704
480000000.0 0.30061727997167054 0.12302270112208363
500000000.0 0.26587497006506383 -0.16781486082722138
520000000.0 0.10977962135348215 -0.2043184999482889
540000000.0 0.23581644297100104 -0.10810678533647775
560000000.0 0.15097920952256635 0.18540807410777294
580000000.0 -0.22155913224774873 -0.029139222636411978
600000000.0 -0.17868342347121927 -0.11840396723332647
620000000.0 0.23046593849849772 -0.08964621163756165
640000000.0 -0.1729927917711235 0.20460718195673933
660000000.0 -0.18214972948089855 0.19398734768403114
680000000.0 0.15218224777954742 -0.2093933614248573
700000000.0 0.26188561006762473 -0.04739650234008543
720000000.0 0.2116270322133453 -0.1445512495183727
740000000.0 0.2174049130454784 -0.1347757805302396
760000000.0 0.06917544679406643 -0.25999610645241383
780000000.0 -0.06482734032560956 -0.21962533956261537
800000000.0 -0.03194086973411345 0.22413833523711557
820000000.0 0.1896670114483452 0.02667056666164324
840000000.0 0.1592118126459351 -0.026279235480570665
860000000.0 0.08386607656791907 0.11169156977878061
880000000.0 -0.011064766375729538 0.10627419336498367
900000000.0 -0.043837856542765584 0.09363610266551235
920000000.0 -0.0944502207702633 -0.00038257142409183696
940000000.0 -0.05954503512061687 0.007385051447132843
960000000.0 0.03166147851641485 0.034295671340175686
980000000.0 0.03529245827270946 0.004858075441247358
1000000000.0 0.04317236850954767 0.02046872962542075
1020000000.0 -0.05789775480853939 -0.02480299189702193
1040000000.0 -0.02664667777808058 -0.06429862939460385
1060000000.0 0.06978323240348612 -0.04880085886216235
1080000000.0 -0.08354258073876479 0.09723170181571067
1100000000.0 -0.043634066272304664 -0.15098051849852673
1120000000.0 0.1592926115898511 0.11230135566831664
1140000000.0 0.1411766214012932 0.1952468350716022
1160000000.0 -0.13872288461525883 -0.22831873159138538
1180000000.0 -0.11846841495641382 -0.25423618618857946
1200000000.0 -0.26949167533541973 0.12812355463405878
1220000000.0 0.2848094551909718 0.034874685775434525
1240000000.0 0.13964005616234748 -0.2425895651842998
1260000000.0 -0.25232658601079355 -0.0692717960897457
1280000000.0 0.23634836439459536 0.04780154737833596
1300000000.0 -0.2007865393309856 0.13060672927278688
1320000000.0 0.18169196561429637 0.14845626839712597
1340000000.0 -0.14448687270307775 0.1779522069034772
1360000000.0 0.007515475289907085 0.22199743369169755
1380000000.0 -0.11599311919585817 -0.2035397493531518
1400000000.0 -0.2067039536048176 0.10112528465308869
1420000000.0 -0.18408163672257877 -0.1422813445992512
1440000000.0 0.004673909378176284 -0.2229062874463733
1460000000.0 -0.18446212636724466 0.1130567345016089
1480000000.0 0.16491119334817525 -0.12945360277848378
1500000000.0 -0.13679317664970536 0.15058152123167126
1520000000.0 0.09203652632868292 -0.17465090092981833
1540000000.0 -0.004060521611276355 -0.18206626709214568
1560000000.0 0.07528485102924895 0.14351400017077157
1580000000.0 0.1346617255811631 -0.041315210411115556
1600000000.0 0.00794697700369647 0.1203316752816686
1620000000.0 -0.0986065611226554 -0.020904876248103235
1640000000.0 -0.07604746799530145 -0.06295983490483487
1660000000.0 0.017901220722403074 -0.10228027867949926
1680000000.0 0.03900645904336315 -0.11649016816167541
1700000000.0 -0.0818234422241409 0.11441513890832165
1720000000.0 -0.10057605898797621 -0.11470044709607083
1740000000.0 -0.1564519881243915 0.05010155993111292
1760000000.0 0.16775144490683638 -0.06956488900069527
1780000000.0 0.14148602123161758 0.12934140317864384
1800000000.0 0.07559182966617972 -0.17968314115781497
1820000000.0 0.0856320180920411 -0.18390784658592374
1840000000.0 0.19059441323724463 -0.08346000715907602
1860000000.0 0.21202894356114865 0.04343841811264631
1880000000.0 0.12037065464216624 -0.17546830093451773
1900000000.0 0.00616778721448453 -0.2067452623122949
1920000000.0 0.10872806354247358 -0.16539818407568216
1940000000.0 0.14631763377751555 -0.12398558601452837
1960000000.0 -0.18451905144043484 -0.008012476083474385
1980000000.0 -0.15359734585459853 -0.08278368479909239
2000000000.0 -0.08638555447408275 -0.13116032388601984
2020000000.0 0.03157114668400218 -0.13321135921103647
2040000000.0 0.10357286064480752 0.0660814061324282
2060000000.0 0.09721199796256329 -0.057047020988212925
2080000000.0 -0.09509411817145477 -0.036765022656330464
2100000000.0 0.08158840257284605 0.04801276361054734
2120000000.0 0.05936014270740225 -0.06241872972353212
2140000000.0 -0.08061364105819958 0.013911388674570237
2160000000.0 0.07735290743179045 0.021789423389449725
2180000000.0 0.016890784211601954 -0.07600072459760096
2200000000.0 0.07552339167977681 -0.01965363710129224
2220000000.0 0.057886523644389974 -0.05460004356903363
2240000000.0 0.01006821366869242 0.07896601888083837
2260000000.0 -0.047208163425216436 -0.06782010780766869
2280000000.0 -0.024938554797103708 0.08132992044516231
2300000000.0 -0.07035552295593009 0.045772387138840596
2320000000.0 -0.07530264083097413 0.045744962601269985
2340000000.0 0.02053533827675297 -0.08736245160806161
2360000000.0 0.026905149289598345 0.0850490005459908
2380000000.0 -0.07986270956830525 0.043867943895733216
2400000000.0 -0.08290334428483555 -0.042842082206962194
2420000000.0 -0.0065422310639700835 -0.08798256479949347
2440000000.0 0.08491713866295061 0.013699211440850501
2460000000.0 0.09182707069848761 0.011050546812031185
2480000000.0 0.03753199881213474 -0.09210454865671076
2500000000.0 0.026035466308560646 -0.10994938082926203
2520000000.0 -0.12379067467225502 -0.03834735515439556
2540000000.0 -0.14213208366689561 0.015142942671475212
2560000000.0 -0.011851551891436015 -0.15581102668345126
2580000000.0 0.039584497524957116 0.1593331370940854
2600000000.0 0.16883780814902907 0.002566204939805733
2620000000.0 0.11231581269260917 -0.13548692815124255
2640000000.0 -0.08438834208008741 -0.15735452561420396
2660000000.0 -0.14332029063079607 0.10299126034387536
2680000000.0 0.07749208287289924 0.14960781416993552
2700000000.0 0.05675939270643813 -0.14784395668531264
2720000000.0 -0.07841550864354857 -0.12225488667318657
2740000000.0 -0.1312998731623269 0.042088037415771926
2760000000.0 0.11186345966148159 -0.07472982837167433
2780000000.0 -0.09639208218124651 0.091065376183632
2800000000.0 -0.1314018212220255 0.0009375907696810687
2820000000.0 0.025188277019636274 0.13138207913259914
2840000000.0 -0.02365731026961354 -0.13818838174200446
2860000000.0 -0.14884670979617004 -0.0036530321268563558
2880000000.0 -0.1198927863361983 0.10289236097888384
2900000000.0 -0.15324549702211793 -0.06701936173541907
2920000000.0 0.12642417836261538 -0.12136315270385692
2940000000.0 -0.15398068220327346 0.09683921602458082
2960000000.0 0.1690444776285818 -0.0896545475736923
2980000000.0 -0.12962205378644917 0.15015555302410455
3000000000.0 0.07733492157675408 -0.18447255150730343
3020000000.0 -0.03503247448025869 0.1987695079374911
3040000000.0 -0.1456916168440688 -0.13940095991188262
3060000000.0 0.13821161680079674 -0.1438825746859872
3080000000.0 0.19596788602729182 0.018673725710988028
3100000000.0 0.1751739694968209 0.07774491810800001
3120000000.0 0.08110251769895258 -0.16965682491061596
3140000000.0 -0.17584182087829864 0.04661408187432118
3160000000.0 0.1718475136851951 -0.04819994218773355
3180000000.0 -0.12941136972610126 0.1179033867085744
3200000000.0 0.15862461003011274 0.07382453118355588
3220000000.0 -0.1333912078976193 -0.11283423283594408
3240000000.0 -0.08289888005459518 0.1568783853634761
3260000000.0 -0.03881286066833378 0.1777745700841093
3280000000.0 -0.05252681539738706 0.18028707131463242
3300000000.0 -0.16984761739019716 0.09138322692657895
3320000000.0 0.016807975619768257 -0.1956664266862956
3340000000.0 -0.007353706040278068 0.20026798444426377
3360000000.0 0.015482034710494197 -0.2029710899487899
3380000000.0 -0.1592767713273313 0.12878765585679938
3400000000.0 0.2038256877572433 0.042282279327030305
3420000000.0 -0.18416229826501396 -0.09672290380979653
3440000000.0 0.20108127049120206 0.03597444289961408
3460000000.0 -0.042266921592304656 -0.19550701563966477
3480000000.0 -0.08340644937691866 0.1783417355332375
3500000000.0 -0.05861597032932182 -0.18340611404614723
3520000000.0 0.166379424858636 0.08145285259273989
3540000000.0 -0.07212483011942061 0.16281179388061118
3560000000.0 -0.1385129010953425 0.09697971012250191
3580000000.0 -0.08127434750040774 0.13937309358776734
3600000000.0 0.05302275320226385 0.14639222509064323
3620000000.0 0.07663886171782765 0.13451173099063107
3640000000.0 -0.07054815034190623 -0.14053126149435108
3660000000.0 0.10247908690774608 0.12883277257352432
3680000000.0 -0.16721147789356178 -0.0428760123956916
3700000000.0 -0.025289914394819684 0.17998395466486508
3720000000.0 -0.11285389641679595 0.15809693214819268
3740000000.0 -0.17085353864600153 -0.12169082415577173
3760000000.0 -0.0100493793337181 -0.22521349044370856
3780000000.0 0.23525237538109572 0.04521792527678849
3800000000.0 -0.21855890608536988 -0.11714671549525706
3820000000.0 0.13037603681194004 0.21922133732176813
3840000000.0 0.17600897429197188 -0.1893872473903459
3860000000.0 -0.2592512703265601 0.0264606870847737
3880000000.0 0.19069141058977274 0.17362727953782964
3900000000.0 -0.0003056623279336727 -0.2510051834403344
3920000000.0 -0.10664521061323587 0.21268659479501173
3940000000.0 0.012242043615373467 -0.21958166000461898
3960000000.0 0.19834834803838197 0.009615089756268506
3980000000.0 0.1726425522613812 0.02263451114580474
4000000000.0 -0.07983917917599846 -0.12527334791781905
