!Created with skrf (http://scikit-rf.org).
# Hz S RI R 50.0 
!freq ReS11 ImS11
400000000.0 -0.7269661049834192 0.37584231147551245
420000000.0 0.49260552984815653 -0.5838206098121279
440000000.0 0.5476403082929263 -0.45911684062385527
460000000.0 -0.6473705975088874 -0.0009205527991233232
480000000.0 0.13898748728873772 -0.5438730845615644
500000000.0 0.5399676800226189 0.012264906771591769
520000000.0 -0.29683159782441887 -0.36173061781275434
540000000.0 0.38403828685920693 0.18573142745442664
560000000.0 -0.3924426343294443 0.14290693550282882
580000000.0 -0.39510429668603886 0.05523980147025137
600000000.0 -0.00943632946549797 -0.4018100720136774
620000000.0 -0.2997701289225988 0.2772820805050968
640000000.0 0.13221656311617125 0.3835677653498591
660000000.0 0.1759934646167284 0.34669510041124035
680000000.0 0.36131992427944115 0.10356890170981492
700000000.0 -0.36096121022006294 0.05092894000851974
720000000.0 0.012164991190527056 0.34545740839843986
740000000.0 0.3118823292439258 0.11065479390370236
760000000.0 -0.279413340093742 -0.02988521127865284
780000000.0 -0.032170564343968464 0.28843769834039096
800000000.0 0.008657742413927139 -0.25637698434253836
820000000.0 0.23048959965668372 -0.06719966081239839
840000000.0 -0.1992988421151145 -0.08488895053287031
860000000.0 -0.007824404278773315 -0.2067748790260272
880000000.0 0.1784101180238584 -0.08204033662099997
900000000.0 0.14694769658401202 0.04914331363368136
920000000.0 0.013173137707085078 0.1285761095279709
940000000.0 -0.0858924242330611 0.08435407286201774
960000000.0 0.061621768846463976 0.02014573319688009
980000000.0 -0.061031445166010764 -0.01694844588345885
1000000000.0 -0.05264092460802214 -0.021015203016381483
1020000000.0 0.010814234930880934 -0.03180086120936052
1040000000.0 -0.03142113204977005 -0.04964895376160734
1060000000.0 -0.06376226424256035 0.07672130942172511
1080000000.0 -0.019631399814840546 0.1272628317609164
1100000000.0 -0.06952453922224 -0.18048716819485633
1120000000.0 -0.033804711083573184 -0.2175847585774264
1140000000.0 0.21519068757179372 0.11783307447485358
1160000000.0 0.25045378675000185 0.11465429342005662
1180000000.0 -0.09162179685251909 0.2718518537460747
1200000000.0 0.22275000306789255 -0.20055252933815124
1220000000.0 0.24635542003155445 0.20708654864095677
1240000000.0 -0.1155041397534557 0.32768039094014734
1260000000.0 0.19579238610687325 -0.27268913231572084
1280000000.0 0.29828482953726415 0.1638632423752351
1300000000.0 0.34525244640752056 -0.04383935247175549
1320000000.0 -0.004459668354764991 0.3623127422429715
1340000000.0 -0.2522448254668219 -0.26944860153600403
1360000000.0 -0.014439993248160707 -0.37139184036742307
1380000000.0 -0.3679202367956001 -0.04483080056962852
1400000000.0 -0.09366744649076428 0.36797110230788044
1420000000.0 0.36862829779592476 -0.042485871025773045
1440000000.0 0.12803996600535258 -0.3538104103970458
1460000000.0 -0.3674244944242169 0.05408337462660954
1480000000.0 0.15371790090246082 0.32461190250192773
1500000000.0 0.2924728663900016 0.14935599759066684
1520000000.0 0.02143030740867416 -0.3129051180912467
1540000000.0 -0.25680872213706685 0.11599651611772784
1560000000.0 -0.056260987008659044 0.25479389066423636
1580000000.0 -0.15140003419375636 -0.15983866097162241
1600000000.0 -0.008558141702171937 0.1983861583240942
1620000000.0 -0.1593891348760512 -0.04920127291540781
1640000000.0 -0.1330625108568876 0.01996405400610822
1660000000.0 0.10821263985943774 -0.031256839122756175
1680000000.0 0.03527756206922071 -0.09333610191206523
1700000000.0 0.08122975377896506 0.011717649604054881
1720000000.0 -0.06668842118239922 -0.016341558174378948
1740000000.0 -0.027612421387685836 0.06183401608740022
1760000000.0 0.020115190803855994 -0.07744145958001017
1780000000.0 0.10860583462412839 -0.024102134117331905
1800000000.0 0.0568775667561613 -0.12687659329444298
1820000000.0 0.1582154044469214 -0.05032923535335778
1840000000.0 -0.0008388303052244251 -0.20572579749758918
1860000000.0 -0.11559464549020756 0.2126404365581145
1880000000.0 0.2659389860694309 0.02277032035076434
1900000000.0 -0.2843306201654085 -0.06348736017651621
1920000000.0 0.25969195566896097 0.14147665402058535
1940000000.0 0.2505375282738731 -0.18843546509405978
1960000000.0 -0.25328611824653563 0.18744815370533643
1980000000.0 0.2667515274233153 -0.18078190366397154
2000000000.0 0.14842760101520042 0.28220728530982336
2020000000.0 -0.058763851287855745 0.3120024006294457
2040000000.0 -0.04592192313855514 -0.3041217047067915
2060000000.0 0.2520844209210014 -0.18764469559451624
2080000000.0 -0.14964485803389208 -0.2735091362789836
2100000000.0 -0.03922274592475746 0.30235550784109283
2120000000.0 0.12504795716506562 -0.27389956414639016
2140000000.0 0.20273130920137963 0.2159801315345073
2160000000.0 0.19364324693625207 -0.18842651713383862
2180000000.0 0.17691061900294716 -0.2148762490096522
2200000000.0 -0.22811639168034087 -0.1386842814648418
2220000000.0 -0.09251975765602925 -0.23988293465540078
2240000000.0 0.13683103549805298 -0.20123503347047667
2260000000.0 0.2235093993352182 -0.0979613553366624
2280000000.0 0.1306707167900337 0.17089733893847822
2300000000.0 -0.200896565283778 -0.014617580983951309
2320000000.0 0.18515449128092298 -0.03909769900915483
2340000000.0 -0.11675001920184284 -0.1307277992318345
2360000000.0 -0.10878268690769476 0.13084962028491065
2380000000.0 0.052079733017752566 0.1702521958847937
2400000000.0 -0.18788311276115857 0.008963868028346528
2420000000.0 0.14220540612006843 0.15070413974345365
2440000000.0 -0.19266763092802566 -0.12484337903792503
2460000000.0 -0.0013564942397149163 -0.25437438266658474
2480000000.0 0.00361267713489285 0.2832791369226005
2500000000.0 0.24818135250978454 0.1946101208732521
2520000000.0 0.01433829547255355 0.34026014929416487
2540000000.0 0.11498139460498766 0.35688058546753676
2560000000.0 -0.35707660199901836 0.1764395317722038
2580000000.0 -0.24371911935406523 -0.3380344050122677
2600000000.0 0.4015396796487969 -0.1748867668839915
2620000000.0 0.07547431622574134 0.44761403720058945
2640000000.0 -0.4598148321185204 0.05099369424626023
2660000000.0 -0.09316778807523213 -0.4607439784867984
2680000000.0 0.33414584020257476 -0.33450031900195926
2700000000.0 0.45385897934330593 -0.14836155775157187
2720000000.0 0.4435835674725082 -0.18585657055824661
2740000000.0 0.33687409466738577 -0.3482518305310727
2760000000.0 0.3027184857149798 -0.38516527645729354
2780000000.0 0.23354548472093345 0.43501417082366567
2800000000.0 -0.1170544864436229 0.4841386731238091
2820000000.0 -0.4987952942316091 0.06061625396241127
2840000000.0 0.26027898426462137 -0.43418409182329687
2860000000.0 -0.2896206197862089 0.41763751724288156
2880000000.0 0.4844664398713347 -0.1570601665936433
2900000000.0 -0.31863059962253043 -0.39315448501422784
2920000000.0 -0.4015693746897621 0.2990447930476221
2940000000.0 0.20352894420511172 0.44801456775605814
2960000000.0 0.40482440050779434 -0.2578756293995135
2980000000.0 -0.1497173138213029 -0.43992523934996003
3000000000.0 -0.4138114374861344 0.17796381211474072
3020000000.0 0.39987593241654346 0.1687728825550741
3040000000.0 -0.06554136351166735 -0.4131866822681025
3060000000.0 -0.03611035673675746 0.40560266646257953
3080000000.0 0.14532286666937944 -0.3666465607094582
3100000000.0 -0.2589557658459557 -0.28280463427449426
3120000000.0 0.1426882133843637 0.3534678023409408
3140000000.0 -0.01992040380234691 -0.37737924836768627
3160000000.0 -0.3669130532615364 0.08772228676338745
3180000000.0 0.1846859810123956 0.3292177817033736
3200000000.0 0.36310411582855556 0.09099723569814447
3220000000.0 0.364990696145667 -0.06029312384558912
3240000000.0 0.3119556745041831 -0.1964504817969291
3260000000.0 0.33773305638215706 0.11153426552114706
3280000000.0 -0.06853103017227345 0.33244702827978645
3300000000.0 -0.27556556288938305 0.16528981985591276
3320000000.0 -0.14735376701702038 -0.266342980446285
3340000000.0 0.08911529178522413 0.2726310560636771
3360000000.0 -0.2600676573629586 -0.05137685521722141
3380000000.0 0.0957465844119742 -0.22343754432892196
3400000000.0 -0.03198857492217369 0.22269202245095426
3420000000.0 0.03770407886785808 -0.20954557393704362
3440000000.0 0.036530267895537934 0.19676201922302253
3460000000.0 0.08125038944228179 0.1685137029804181
3480000000.0 0.12083063051376859 0.13442620564133764
3500000000.0 -0.16806313135847642 -0.042363786237767855
3520000000.0 0.15187486385041987 0.07687171073573966
3540000000.0 0.1458174693269569 -0.08314598823443649
3560000000.0 0.04864964398739627 -0.16576288852920307
3580000000.0 0.174166816236505 -0.024679720329571258
3600000000.0 0.17981338492858684 -0.02228555950780628
3620000000.0 -0.09431306016758834 0.16225122128351013
3640000000.0 -0.19637415959633933 0.035017673761970354
3660000000.0 0.15833331738666234 -0.128791000299835
3680000000.0 -0.08301331802362934 0.18168403729285887
3700000000.0 0.19922434755902044 0.025704114402035835
3720000000.0 -0.017917262925235895 -0.19160308559991587
3740000000.0 0.17455850331615538 -0.05654405644948515
3760000000.0 0.14586072916722168 -0.09473711846353623
3780000000.0 0.16783547178009614 0.008665573689303216
3800000000.0 0.1499136750102293 0.020427576841617875
3820000000.0 -0.1307834369848806 0.028776278902611394
3840000000.0 0.06223358296093356 0.09748799933570033
3860000000.0 0.05456560747192042 0.0838396495151072
3880000000.0 -0.0675645288035965 0.049615823477487955
3900000000.0 -0.041572025883130276 0.06718087723190372
3920000000.0 -0.04005866778402857 0.06116917754512916
3940000000.0 -0.015957349593938106 0.05939729087536877
3960000000.0 0.05465691251311326 -0.00027995118671072004
3980000000.0 -0.04414504415766146 -0.007357904952354775
4000000000.0 0.03266139255284409 -0.013177271290787386
