!Created with skrf (http://scikit-rf.org).
# Hz S RI R 50.0 
!freq ReS11 ImS11
400000000.0 -0.6617997583449563 0.4806730204056887
420000000.0 0.5198458430628112 -0.5591911789921725
440000000.0 0.587405292401041 -0.4088085412510473
460000000.0 -0.6489961899015154 0.011508321770337683
480000000.0 0.02041343956061711 -0.5588015568510404
500000000.0 0.519809760151768 0.14287517784590306
520000000.0 -0.2675924786442535 -0.3839718916592865
540000000.0 0.3741118370797925 0.2076619676298057
560000000.0 -0.38928224253372473 0.1544446556380229
580000000.0 -0.3938119695063264 0.054406203801881395
600000000.0 0.05046471958796338 -0.39648290388670315
620000000.0 -0.33704865069480444 0.2304405151919766
640000000.0 0.2400086994185735 0.32657617439048436
660000000.0 0.2233002669099821 0.3190694389279613
680000000.0 0.36830855395671513 0.0795047997233901
700000000.0 -0.3656994833957742 0.026714458219945857
720000000.0 0.03062503545815829 0.34538324204333226
740000000.0 0.26608298903545247 0.19771485886126652
760000000.0 -0.27133891042248826 -0.07441286398250628
780000000.0 -0.1406968487787407 0.2551618733224542
800000000.0 0.05330493145476753 -0.24955092415445426
820000000.0 0.23479783900800805 -0.040302805013000334
840000000.0 -0.21297126587665435 -0.03186495091737135
860000000.0 -0.09844357004657764 -0.18170398130041907
880000000.0 0.13192220597272752 -0.14560535386255685
900000000.0 0.15520680720746158 -0.020181746365107212
920000000.0 0.08901826153872153 0.09623588452234039
940000000.0 -0.1177916046363831 0.035332917867253254
960000000.0 0.01816146237152363 0.06400893007740606
980000000.0 0.009550349648066232 -0.06432664260461554
1000000000.0 0.041021662429734373 -0.03820011732365391
1020000000.0 0.021453247916914855 -0.024582160771973588
1040000000.0 -0.045418958082661165 0.03588923145956223
1060000000.0 -0.030383228392891953 0.09667022661294532
1080000000.0 -0.007824286407061079 0.1298242670222065
1100000000.0 -0.14295660058628765 -0.1328538949065173
1120000000.0 0.0074178535398808625 -0.2223716295913917
1140000000.0 0.1393120374937102 0.20276408876118185
1160000000.0 0.19951946288325886 0.19142814735622438
1180000000.0 -0.15737192739754297 0.23986280842725988
1200000000.0 0.2543291124519537 -0.15982093572301076
1220000000.0 0.22365791143837824 0.2308634676922251
1240000000.0 -0.12718452734929608 0.3228101223645245
1260000000.0 0.18745530761653503 -0.278074449195047
1280000000.0 0.30741724435837914 0.14568077546668998
1300000000.0 0.33699504172529404 -0.0862026619613867
1320000000.0 0.0046077668974986745 0.3628476359493218
1340000000.0 -0.259619981049139 -0.2639877547172923
1360000000.0 -0.001261288359116481 -0.37236677788274036
1380000000.0 -0.3686926359629864 -0.042335089449718456
1400000000.0 -0.15449244117624544 0.34785372215478977
1420000000.0 0.3716927172218019 -0.011157165104909448
1440000000.0 0.12582359180699043 -0.3552096481958003
1460000000.0 -0.37121026847668703 0.005451591198063619
1480000000.0 0.15922894609989563 0.32184528525599293
1500000000.0 0.2956139377255632 0.1424512033633922
1520000000.0 0.08160687657734965 -0.30203857789368554
1540000000.0 -0.2519357529219614 0.12655936433654788
1560000000.0 -0.04396902260161197 0.2566170520888935
1580000000.0 -0.16615284209567527 -0.14418505460417338
1600000000.0 0.035814418501730984 0.19573657991599652
1620000000.0 -0.15808281261279752 -0.05452745449805631
1640000000.0 -0.13095081330344518 0.03315695033539806
1660000000.0 0.09237824121106433 -0.06509788627331904
1680000000.0 0.0276704841883552 -0.0957468219864091
1700000000.0 0.07989745631932728 0.019829724835409346
1720000000.0 -0.06224046854593493 -0.030324863830878943
1740000000.0 -0.05765599128721063 0.03585741798813628
1760000000.0 0.017391685759465553 -0.07821759863073087
1780000000.0 0.1110559145019108 -0.011441993485637724
1800000000.0 0.11046891790451999 -0.08408481721558932
1820000000.0 0.1637946156428562 -0.025644509259047918
1840000000.0 0.010916181248974467 -0.20515915612981653
1860000000.0 -0.09040638730443433 0.22363374192764496
1880000000.0 0.26569179071334814 0.01984748095261264
1900000000.0 -0.28859260055447233 -0.03757156650834162
1920000000.0 0.2560173433203061 0.14737508890823897
1940000000.0 0.24940057137477506 -0.18961452039144583
1960000000.0 -0.23479861545749556 0.21027589222490253
1980000000.0 0.25015748299782836 -0.2031862853408557
2000000000.0 0.16920199721985169 0.26998370919140524
2020000000.0 -0.10053754466975835 0.30188378959562023
2040000000.0 -0.04034645339619933 -0.3047348205250638
2060000000.0 0.27744564739715893 -0.1483859113178298
2080000000.0 -0.16201314263240987 -0.26606097587268235
2100000000.0 -0.07352830083947859 0.29551684559483066
2120000000.0 0.15232871979632467 -0.2584589081383596
2140000000.0 0.1671154172035637 0.24326033796263755
2160000000.0 0.18544781349889067 -0.19598565698543555
2180000000.0 0.13578256008496886 -0.2418313839963654
2200000000.0 -0.2464067619399039 -0.10377878968965228
2220000000.0 -0.11779238814736166 -0.22757439928277123
2240000000.0 0.10994548378958728 -0.21768039007168333
2260000000.0 0.21463712430261142 -0.11841900214474321
2280000000.0 0.16666439997765325 0.1377411383463473
2300000000.0 -0.2018060159211027 0.009763603196382427
2320000000.0 0.18859852985237802 0.02046061273125949
2340000000.0 -0.04883023923715365 -0.169555099338407
2360000000.0 -0.12349433059153574 0.11798876738273578
2380000000.0 0.019456835379210155 0.17723835859237944
2400000000.0 -0.18347181679673819 -0.03857667805122035
2420000000.0 0.037933623079658314 0.20321290467038225
2440000000.0 -0.1890462037116486 -0.1297813571567992
2460000000.0 -0.02365205181491173 -0.2522299823604505
2480000000.0 0.07153786610000183 0.27325490976659683
2500000000.0 0.2738380533444955 0.15442039494804588
2520000000.0 0.01869477820428686 0.339660710345774
2540000000.0 0.15008519313292965 0.34340231432863144
2560000000.0 -0.34041177876358786 0.20774206424521832
2580000000.0 -0.25533775407605425 -0.3294961095295542
2600000000.0 0.3955816246463338 -0.18751752866812646
2620000000.0 0.07319060425550668 0.44843911381612117
2640000000.0 -0.46148703400881713 0.03906269458531594
2660000000.0 -0.049618981570701305 -0.4678578851086553
2680000000.0 0.3922227205555532 -0.2650768399928106
2700000000.0 0.4680693746422754 -0.09122658920842372
2720000000.0 0.4379322232354993 -0.1973509332699945
2740000000.0 0.374010916054342 -0.30667359151885487
2760000000.0 0.31897555485998247 -0.37090624544999107
2780000000.0 0.24527799778296103 0.4276257769606693
2800000000.0 -0.07865774328479395 0.49134875090402413
2820000000.0 -0.4973273915436277 0.06886712306443443
2840000000.0 0.24099622086623473 -0.4448268658455434
2860000000.0 -0.2242519675318004 0.4563981883513184
2880000000.0 0.482862279226039 -0.16212187509216267
2900000000.0 -0.3311768953450081 -0.3829898818692716
2920000000.0 -0.3788610944809013 0.32741041746396415
2940000000.0 0.23165569723655335 0.434431285912428
2960000000.0 0.4266046963492103 -0.22140834896569814
2980000000.0 -0.09743569130018208 -0.4547994242923152
3000000000.0 -0.43432765459494826 0.12125339205689654
3020000000.0 0.3922385419575196 0.1867435221485107
3040000000.0 0.033887773675050865 -0.4169648212356521
3060000000.0 -0.039371142446453594 0.4050872126202834
3080000000.0 0.16555385964851502 -0.35692676052945405
3100000000.0 -0.2659891983409289 0.2750359955230293
3120000000.0 0.14676277037017935 0.3508037834719475
3140000000.0 -0.06791054596907475 -0.3715751776494063
3160000000.0 -0.353832659791646 0.1296450408858207
3180000000.0 0.2105679236951867 0.31336330922435046
3200000000.0 0.36619985746030526 0.07864808126553809
3220000000.0 0.3649930781846108 -0.06584448488702928
3240000000.0 0.30951678619148504 -0.201484022682061
3260000000.0 0.3424860109924345 0.09698996014337054
3280000000.0 -0.09623269756938757 0.3261343234403831
3300000000.0 -0.293974318381519 0.13141636389171973
3320000000.0 -0.10667479745879312 -0.2854183570800491
3340000000.0 0.043940360541980986 0.28333360577933897
3360000000.0 -0.2472573394908037 -0.09488699587532953
3380000000.0 0.14033245848824072 -0.19807867279817368
3400000000.0 -0.08504297700370368 0.20776385875439343
3420000000.0 0.05708277340079256 -0.20458813794750796
3440000000.0 0.03552876198225889 0.19621207203321864
3460000000.0 0.05957259185441349 0.17629617442751147
3480000000.0 0.13643056180568852 0.11763139702566977
3500000000.0 -0.17228972328761752 0.00064029989527634
3520000000.0 0.1661996512414805 0.038466113220486764
3540000000.0 0.11760120174886556 -0.11981884224616807
3560000000.0 0.02521014339769622 -0.17150203260257046
3580000000.0 0.1693425115099045 -0.05036464405259996
3600000000.0 0.18086253630087112 -0.006521162627063007
3620000000.0 -0.10978878928327016 0.15308240459290196
3640000000.0 -0.19146541090643093 0.054320400502788635
3660000000.0 0.18198648755230723 -0.09347555952558607
3680000000.0 -0.1148621331662822 0.16323206236370377
3700000000.0 0.18183938437927033 0.08510368850027132
3720000000.0 -0.05008679648734485 -0.18568050058118557
3740000000.0 0.1811922298346579 -0.028775136258030742
3760000000.0 0.14712772979480768 -0.09237268059011922
3780000000.0 0.162172270398234 0.040746766531786195
3800000000.0 0.14507792963989163 0.042114039686592046
3820000000.0 -0.12684124624938667 0.040762885842009086
3840000000.0 0.081112530853249 0.08213984695266548
3860000000.0 0.05541895497748483 0.08194657466687648
3880000000.0 -0.0593013140744267 0.05828394967611475
3900000000.0 -0.008657156367233172 0.07810553056480495
3920000000.0 -0.031544328310617264 0.06565947771312215
3940000000.0 -0.002122716783930312 0.060906179702777154
3960000000.0 0.04945581001554165 -0.021569425607102993
3980000000.0 -0.04434164957885021 0.0029550893312723604
4000000000.0 -0.0006536627397349947 -0.035254426608974966
