!Created with skrf (http://scikit-rf.org).
# Hz S RI R 50.0 
!freq ReS11 ImS11
400000000.0 0.7328262532418116 0.23434513495542023
420000000.0 0.28615843156830667 0.6313312073442072
440000000.0 0.25702992335632285 0.5736883766704672
460000000.0 0.014831617690090513 -0.5454446149282597
480000000.0 0.16803378842946065 -0.40486699077807325
500000000.0 0.3541310097267794 0.10235579871170525
520000000.0 0.35279480529809404 -0.1536429522779869
540000000.0 0.3465396737651816 0.22243538929774037
560000000.0 0.17590781806848282 -0.37813552471349493
580000000.0 -0.2291008821540258 -0.3091111871402046
600000000.0 0.17672058238553137 -0.3011569921511773
620000000.0 0.3275950546100918 -0.02513611989338429
640000000.0 0.314807807310042 0.1314162973339709
660000000.0 0.17189409144509674 0.3178333960832301
680000000.0 0.3451029386033223 -0.04792406532811628
700000000.0 0.2706642349062645 -0.2231810563240923
720000000.0 0.04188554240247419 -0.3318489572280464
740000000.0 -0.1953231311267579 -0.24962649933637046
760000000.0 0.20373386269327048 -0.20822155229592434
780000000.0 -0.2680705393236588 -0.028156278442449445
800000000.0 0.24548280668320105 0.04159101955977445
820000000.0 -0.22005318353560946 0.0493914855379162
840000000.0 -0.19673970628281814 0.07705884541784509
860000000.0 -0.19316845907241229 -0.03188694566658061
880000000.0 0.17460803741303477 -0.08729201163795816
900000000.0 0.1557241894272347 -0.057291107792061084
920000000.0 0.16233206185576365 -0.007521336387140831
940000000.0 0.04352402332002066 -0.13986907367512094
960000000.0 -0.028902951613536513 -0.12579938769939358
980000000.0 0.032727924388023584 -0.11781881797934164
1000000000.0 0.10030983686691652 -0.07286955481839498
1020000000.0 0.045474531272861406 0.12242370982941653
1040000000.0 0.090950839394875 -0.13891271339533617
1060000000.0 0.18285769535720303 -0.05537405240257053
1080000000.0 -0.2083945319309934 -0.0859038577236575
1100000000.0 -0.0006801938483118598 0.2607194126179114
1120000000.0 0.23778650428037038 0.17290423362030632
1140000000.0 0.3188109871003314 -0.015379594678525085
1160000000.0 0.2930357364852791 0.1788424533916628
1180000000.0 0.35029032045652553 0.00030210423121221293
1200000000.0 -0.1726321570033536 0.31210604841504136
1220000000.0 -0.36018518165586433 -0.05296405351852616
1240000000.0 -0.1034990607534418 -0.3474619950327671
1260000000.0 0.35377048898901065 -0.11817244678258745
1280000000.0 0.30100156496788777 -0.23472121047951366
1300000000.0 0.2888749012817421 -0.2642910947400744
1320000000.0 0.3489890075242096 -0.1807222696501646
1340000000.0 -0.2351650662766559 0.31630239003371036
1360000000.0 0.017185540630754798 -0.3951519437287143
1380000000.0 -0.05209596008833736 0.3876431795278161
1400000000.0 0.3061681098882793 -0.24356200162757793
1420000000.0 -0.22212422344606234 -0.3186503133638093
1440000000.0 0.06930508035620214 0.3768205528012183
1460000000.0 0.3599957763708154 0.07544481435615968
1480000000.0 0.08310475504419873 -0.34227843631188104
1500000000.0 -0.15531684380059585 0.290834276254972
1520000000.0 0.3004405930439637 0.02107662152971515
1540000000.0 0.03888509081428901 -0.2640300743990196
1560000000.0 -0.1965724029662581 0.1330464112916129
1580000000.0 0.07632892838117712 -0.1893071651875091
1600000000.0 -0.14566701099732995 0.09054510699553188
1620000000.0 0.03081996228171282 -0.14738246478184852
1640000000.0 -0.004842179095405792 -0.12266536129545792
1660000000.0 0.06960274835946609 -0.06608518760163352
1680000000.0 -0.024056092962945908 0.06611910934301386
1700000000.0 0.030589745866417998 0.04350747042709826
1720000000.0 -0.023552324291138897 0.01940802443526521
1740000000.0 0.04029116413296922 0.013128254626661064
1760000000.0 -0.06065270526404198 0.02138863482923488
1780000000.0 0.07880833214814327 -0.06427176485769112
1800000000.0 0.11318881122676926 -0.06537508300981637
1820000000.0 0.03542261533054218 -0.16112048454705216
1840000000.0 0.16907500826183125 -0.10343582337727186
1860000000.0 0.0441328593799056 -0.2256995228811587
1880000000.0 -0.23217216752833952 -0.10806850760916037
1900000000.0 0.022674806474952833 0.27847282574856186
1920000000.0 0.031916830943381685 -0.30106033502056856
1940000000.0 -0.037540934945063005 0.3065799761808522
1960000000.0 -0.18572170792371615 -0.2557443856179961
1980000000.0 0.3165586340355816 -0.021832638979822273
2000000000.0 -0.1619052671860506 0.2706082719262471
2020000000.0 -0.3183763641252541 -0.027849033458652698
2040000000.0 -0.2378032006968994 -0.2083393954379854
2060000000.0 -0.15266357165329347 -0.27379445377477835
2080000000.0 0.198497645563468 -0.24178848455969607
2100000000.0 -0.18261424799593431 0.25444417261406704
2120000000.0 -0.1175088187971347 -0.2861449228856426
2140000000.0 0.22196378870177177 0.21109591749712933
2160000000.0 -0.17061779977837654 -0.24883962079352293
2180000000.0 -0.23333048873825576 0.18523555343343667
2200000000.0 0.08558023142184613 0.28366098909018544
2220000000.0 0.2816301524943809 0.06606969822474866
2240000000.0 0.2839235873406589 -0.012690606345137226
2260000000.0 0.09802176012136252 -0.2554148563189057
2280000000.0 0.11335318232533578 -0.22667944918829894
2300000000.0 0.19771058569907624 0.13276926637468264
2320000000.0 -0.15106596356013188 0.1663879988283235
2340000000.0 -0.1565888147684621 -0.13866497303501546
2360000000.0 -0.16177830015371483 0.12069303311577552
2380000000.0 0.17448088889977845 -0.09762150444982758
2400000000.0 -0.10515412164036425 -0.17711495889649076
2420000000.0 0.22574512040013817 -0.03130630167944467
2440000000.0 0.22754752556297714 -0.1119426853835495
2460000000.0 -0.13349393276309415 -0.25748860795365636
2480000000.0 -0.24451880800377987 0.21849865526444645
2500000000.0 -0.008938595674284247 -0.37055007738713525
2520000000.0 0.3826777758843627 0.1562969392585215
2540000000.0 -0.04804842292210372 0.4526002786186833
2560000000.0 -0.4308602917596341 -0.2428176276896494
2580000000.0 0.44394293207910207 -0.28757362165886047
2600000000.0 -0.07363625336119817 0.5567521780567932
2620000000.0 -0.28779343317283557 -0.5132233129852533
2640000000.0 0.5786326255074987 0.19664337605720958
2660000000.0 -0.45570459732010105 0.4371781106112453
2680000000.0 -0.4079962662146 -0.4983253547383828
2700000000.0 0.3960852104210094 -0.5223159767248704
2720000000.0 0.6549031207018582 -0.11016338606647565
2740000000.0 0.6677463406409793 0.056082681358999714
2760000000.0 0.6173876724441998 0.2666557426657291
2780000000.0 -0.3804577310196726 0.5512894802193037
2800000000.0 -0.5349455201518335 0.39493583972492824
2820000000.0 -0.6550446914442147 0.0336564776160796
2840000000.0 -0.1757490559627315 -0.619689119448079
2860000000.0 0.5845254885169558 0.2387005310163377
2880000000.0 -0.5779403359757335 -0.21107265411578724
2900000000.0 0.21711469308829964 0.5563899508117688
2920000000.0 0.4514321698445532 -0.36049802018311494
2940000000.0 -0.33335189226593254 -0.44377991428256536
2960000000.0 -0.5122106285636199 0.14925522976081337
2980000000.0 -0.00445466049636617 0.504598864335024
3000000000.0 0.47635187050902983 0.06848230492410448
3020000000.0 0.02800135528066821 -0.4511277720641124
3040000000.0 -0.35573146364411246 0.23193746101834872
3060000000.0 0.399721510586194 0.04076091365074142
3080000000.0 -0.3239130066850476 -0.19803412893465228
3100000000.0 0.3448531605908192 -0.10846574536444722
3120000000.0 -0.17506286275907637 -0.29706431939332306
3140000000.0 0.2735909390022406 0.19473353541903918
3160000000.0 -0.32542510640525274 -0.0039724370887472245
3180000000.0 0.1716503877959026 0.26410670540189446
3200000000.0 0.22554798401182236 -0.2118063509732649
3220000000.0 -0.03993987003236432 -0.2954412038380249
3240000000.0 -0.021524803138422973 -0.2907005063802825
3260000000.0 -0.028752604782348985 -0.2726710748464376
3280000000.0 0.2358772343144862 -0.109234821026832
3300000000.0 0.06286292749033763 0.2331631982875341
3320000000.0 0.019325824684763283 -0.219817705967553
3340000000.0 0.06353787327041506 0.19366042766929278
3360000000.0 0.18110222053064978 -0.027629994565020848
3380000000.0 -0.05176132457099984 -0.1619179679309058
3400000000.0 0.09449763152104847 0.11739232274628406
3420000000.0 -0.13943719082508912 0.027015062727749967
3440000000.0 0.01582766071140305 0.12751648250987302
3460000000.0 0.1083390228471921 0.03123030361370047
3480000000.0 -0.03566730169302425 0.09439499995746393
3500000000.0 -0.012679007931365581 -0.09018051552974851
3520000000.0 -0.06954809872188958 0.04689166150833083
3540000000.0 -0.010774987865825994 0.08362293159814789
3560000000.0 0.03882746437658649 0.07755489063934068
3580000000.0 -0.04771113425229054 -0.07682232651131621
3600000000.0 -0.05033082406111837 0.08504287301157694
3620000000.0 0.06808272121236342 -0.07727723171214966
3640000000.0 -0.0024114854253615508 0.10236321526349516
3660000000.0 -0.06921225344274884 -0.07420799401962765
3680000000.0 -0.08857340373193559 -0.036501460276652825
3700000000.0 -0.085277311917598 -0.015227893329294086
3720000000.0 -0.06919230329590602 -0.017718898447736997
3740000000.0 0.05452366074726051 0.0013888860429701107
3760000000.0 -0.02777805672901975 0.029633707166312005
3780000000.0 0.036913218224522565 -0.012159850832317692
3800000000.0 0.04012107310608042 -0.01647612467282678
3820000000.0 0.05412084155087726 0.030625537888104112
3840000000.0 -0.020462837169768874 -0.07643873014892152
3860000000.0 0.08228111202421551 -0.05183967883722568
3880000000.0 0.015827296668236138 0.10351368827709342
3900000000.0 -0.09974476723921955 0.05611917520390054
3920000000.0 -0.061315031851995376 -0.09181856267403024
3940000000.0 0.06808916768978591 -0.07616343448532964
3960000000.0 -0.08027456252476216 0.03259617134032723
3980000000.0 -0.06503615037585822 -0.022529088119264993
4000000000.0 -0.04276450705560022 0.017650215933370562
