!Created with skrf (http://scikit-rf.org).
# Hz S RI R 50.0 
!freq ReS11 ImS11
400000000.0 -0.5863911259446416 0.5697488151378872
420000000.0 -0.14621417335387074 -0.7566221543584217
440000000.0 -0.46602776877794616 -0.5378594875918042
460000000.0 -0.4958122165744148 -0.40057910632779403
480000000.0 0.10004146193754147 -0.509531152498453
500000000.0 -0.41342482945679565 -0.07288511981258743
520000000.0 0.45062018810747506 0.011828975693160238
540000000.0 -0.42535640465195695 -0.21386439937739016
560000000.0 -0.4152813819197239 -0.19778967655569749
580000000.0 0.39060355764519417 0.14875357853515117
600000000.0 -0.3665577835858773 -0.10579458202491729
620000000.0 0.1542411034568985 -0.3185159652923729
640000000.0 -0.06935221816682542 0.35064960145289675
660000000.0 -0.3350409257481078 0.1111377619396084
680000000.0 -0.3042682511002788 -0.15104839176715285
700000000.0 -0.33666060918349766 0.11106122765544367
720000000.0 0.2618876629164982 0.21889243095594912
740000000.0 0.027233361396522937 0.32230628417507967
760000000.0 -0.06891412593678849 0.2959031987993049
780000000.0 -0.24905071275633964 -0.1416570779760842
800000000.0 0.1882577539412193 0.1723770103288636
820000000.0 0.07875878165527586 0.22051705541096633
840000000.0 -0.04044161008158028 0.2061857347250389
860000000.0 0.0494686090441036 -0.18568593593290736
880000000.0 -0.19118607784810593 0.042418780048775175
900000000.0 0.1486087688400322 -0.04351133002279524
920000000.0 0.11253432968773396 -0.10163273952399746
940000000.0 -0.0679718207351888 -0.12324774050852387
960000000.0 0.06544571089075614 -0.07517959035911893
980000000.0 0.06499220407717264 -0.029187605248440655
1000000000.0 -0.04136192678839643 -0.026438011018381533
1020000000.0 0.047772093642778415 -0.013877994356950427
1040000000.0 0.018247407749786306 -0.0853964987154774
1060000000.0 0.0449447008169506 -0.09310344729380753
1080000000.0 -0.019915386844911846 0.140106146094177
1100000000.0 0.15223920761837428 0.1004509177172962
1120000000.0 -0.20853112532181928 0.006355585152416957
1140000000.0 -0.24636137983882758 -0.0019157546881554896
1160000000.0 0.08937956363315752 -0.2615720300994827
1180000000.0 0.1675542490824132 -0.24226338781094883
1200000000.0 0.11441807525911768 0.290637386164107
1220000000.0 0.280605938514827 0.1658841228060811
1240000000.0 0.037856301176487195 0.3170430697938469
1260000000.0 -0.32346409784812263 -0.05946783540158219
1280000000.0 -0.3150643290867073 -0.1250249066546396
1300000000.0 -0.06896065470963404 -0.3434025624844963
1320000000.0 0.18611917321034205 -0.3077779913905821
1340000000.0 0.03066486766930633 0.3662437965529219
1360000000.0 -0.3539112034415735 -0.1403455714796963
1380000000.0 0.32922283734058755 -0.18612922903391507
1400000000.0 -0.3790473424345013 -0.022007733878987412
1420000000.0 0.10384367602155037 0.3581327126067745
1440000000.0 0.2482270792437081 0.2702889597365806
1460000000.0 0.2795485091607966 -0.23653402749028044
1480000000.0 -0.299649182040326 -0.18101990040311075
1500000000.0 -0.03644588070495191 0.3291090285788418
1520000000.0 0.2837652753142151 -0.1272802912667022
1540000000.0 -0.2591080546022579 -0.10407170976717293
1560000000.0 0.1571544798745957 0.19340756803182452
1580000000.0 -0.07235931737940948 -0.19913039461136203
1600000000.0 -0.043494075366382744 0.17977386169747558
1620000000.0 0.12953756851068174 -0.09674995349430358
1640000000.0 0.12096951056141317 -0.06412631413565373
1660000000.0 -0.07294543875788806 0.08314022400543278
1680000000.0 0.08730577694379094 0.03144160364500253
1700000000.0 0.07197129323582498 -0.010219250615200829
1720000000.0 0.024758508630308252 -0.045292014019924914
1740000000.0 0.018780536851827134 0.05192858970029743
1760000000.0 0.0033630938489939673 -0.06307661033795593
1780000000.0 -0.08852482865889648 -0.030118718572644115
1800000000.0 -0.11692857796408779 0.04061172078098811
1820000000.0 -0.00023278657644745587 0.1643041608598106
1840000000.0 -0.008669902142059796 0.19465048949506092
1860000000.0 0.13802781829917124 0.17119561678257647
1880000000.0 0.03905259417978764 0.23876571477441066
1900000000.0 0.2565688477609613 0.07405945092755283
1920000000.0 -0.14515817825910107 -0.24879277798849583
1940000000.0 -0.12717473929519976 0.2722007822799875
1960000000.0 -0.22831457877563235 -0.21343255983094744
1980000000.0 0.1671202564478609 -0.265782416775312
2000000000.0 0.3098713322392356 0.025717435015150444
2020000000.0 0.134589507399753 0.2798381672214888
2040000000.0 -0.1670512533471214 0.2578328040316236
2060000000.0 -0.291153300300865 0.07723487283697544
2080000000.0 -0.1250526347036345 -0.2768171258846528
2100000000.0 0.19042352060261042 0.23391555914856244
2120000000.0 -0.29932122501674363 0.007441240534392456
2140000000.0 0.20204574344660411 -0.21445978910941094
2160000000.0 -0.1437103762372849 0.24949159689081402
2180000000.0 0.07209825744695364 0.2717647081358119
2200000000.0 0.271872365997013 0.05144817454301466
2220000000.0 0.2577134424508911 -0.051785229031438625
2240000000.0 -0.12346163109718232 0.22552956129173515
2260000000.0 -0.1549895300815988 0.19547173579993757
2280000000.0 -0.22747630924046242 -0.06497322827157596
2300000000.0 0.22523108848850867 0.01300365779577003
2320000000.0 -0.16645622480137276 0.14067222287449194
2340000000.0 0.09680774088654664 -0.18603508752426692
2360000000.0 -0.20406641294343203 -0.04637427012145522
2380000000.0 0.20716029221031923 -0.054459094179266955
2400000000.0 -0.21434896567739536 0.08104590507235142
2420000000.0 -0.25110233414116 0.05616469118380075
2440000000.0 0.28457820602240996 0.02175481146239131
2460000000.0 -0.3073707749683216 0.08567765049182235
2480000000.0 0.3255740094848628 0.1302688469086663
2500000000.0 -0.2750310652517791 0.2748046007379361
2520000000.0 -0.12530956548459246 -0.4075065532645252
2540000000.0 0.43938697450943764 -0.14600086214161795
2560000000.0 -0.2578863581575391 0.42679179851709864
2580000000.0 -0.10614707390620529 -0.5207436160416598
2600000000.0 0.49139676840248697 0.27018636150556735
2620000000.0 -0.5797157792376818 -0.08975317079445222
2640000000.0 0.5668199745961028 -0.21892127103307843
2660000000.0 -0.20517170744070923 0.5924945090700954
2680000000.0 -0.469035278459113 -0.4351444661705207
2700000000.0 0.3421071209617465 -0.5556614529964058
2720000000.0 0.6626763896829608 -0.0093753838969486
2740000000.0 0.6614349363758798 0.10416314405935029
2760000000.0 0.6105349351578697 0.2840194515815754
2780000000.0 -0.48916607857561406 0.45873764672435113
2800000000.0 -0.5419848865344236 0.3876967531194661
2820000000.0 -0.6574235088150115 0.005384604838720631
2840000000.0 -0.17751751231660248 -0.6211109438100977
2860000000.0 0.5835555339668754 0.24981971979492354
2880000000.0 -0.566881358212348 -0.24864877180881473
2900000000.0 0.3405632907060203 0.49648387668588245
2920000000.0 0.24387524188544865 -0.5271367496711561
2940000000.0 -0.4508177480704893 -0.32503450589890065
2960000000.0 -0.4810939511780739 0.22923252635688615
2980000000.0 -0.04450258563489192 0.5054804538774023
3000000000.0 0.47271828907978886 0.10866026817499845
3020000000.0 -0.10886755096451947 -0.445277131765054
3040000000.0 0.07629903719342905 0.423151898401058
3060000000.0 0.2270640505176138 -0.3312534173505165
3080000000.0 -0.33691659079211034 0.16303533650125937
3100000000.0 0.27702855343588156 -0.22183584065523215
3120000000.0 0.05757737126534106 -0.3357974220927173
3140000000.0 -0.0484453369780823 0.3293971006043682
3160000000.0 0.030563296622213368 -0.32652747517766273
3180000000.0 -0.2000257919929491 0.25406697741319606
3200000000.0 0.28520656294560237 -0.1450624610698364
3220000000.0 -0.2724259814826491 -0.14411485589378578
3240000000.0 -0.28663486536535504 -0.07552986761190364
3260000000.0 -0.25834771089278163 -0.09911735722387523
3280000000.0 0.10742085347260039 -0.24192889569024834
3300000000.0 0.2478401704671233 0.004802183396007116
3320000000.0 -0.14239916455572357 0.1792572881849929
3340000000.0 -0.1990911713620616 -0.06494022981859927
3360000000.0 0.13008718162202976 -0.12623530591866017
3380000000.0 -0.15056144177202185 -0.03661389383311786
3400000000.0 -0.036114195261222545 0.12214058692111611
3420000000.0 -0.11247535504114455 0.027279409884621995
3440000000.0 0.07528741005753717 -0.07398146922436942
3460000000.0 0.09162843222949582 -0.031227442986677553
3480000000.0 -0.008527000116550634 0.08326063627065473
3500000000.0 -0.05607055765329251 -0.05176418393330331
3520000000.0 0.022180085873658623 0.06007552730602
3540000000.0 -0.04788251795767658 -0.03980430571757185
3560000000.0 0.05197812851868854 0.036597158016478046
3580000000.0 -0.01658844846054955 0.06926787206806881
3600000000.0 0.07303078781354798 0.04771280899467281
3620000000.0 -0.09484619756615399 -0.02884675787194577
3640000000.0 0.01037023629479563 -0.10601745854826966
3660000000.0 0.02775512417493842 -0.10737641249399517
3680000000.0 -0.05502596303334042 0.09342402739433558
3700000000.0 -0.04656871460093703 0.09038364614685236
3720000000.0 -0.09202240142156365 0.005651389833079341
3740000000.0 0.029952489885894853 -0.07513059034647097
3760000000.0 -0.06448334203130948 -0.030466077322958144
3780000000.0 0.02017679841240993 -0.05810295964729492
3800000000.0 0.03736765546986503 -0.006173171492148008
3820000000.0 0.009513466029942639 0.029508439084250104
3840000000.0 0.04017612399858633 -0.021639152175989305
3860000000.0 0.07133435825756326 -0.002047120324215446
3880000000.0 -0.08134931753666716 0.034601891490748514
3900000000.0 -0.08427515291564586 -0.058247135959590766
3920000000.0 0.0973991112695109 0.03412695102251491
3940000000.0 -0.025582670650343465 -0.1003872012297463
3960000000.0 -0.0701827087455422 -0.0759863532951673
3980000000.0 0.0428134844180838 0.09047947122811367
4000000000.0 0.03185572136193497 -0.08335740374842907
