!Created with skrf (http://scikit-rf.org).
# Hz S RI R 50.0 
!freq ReS11 ImS11
400000000.0 -0.8515588431645682 -0.21123433566511968
420000000.0 0.3076498033151278 -0.7550759079255209
440000000.0 0.7412383956429233 0.20768812679173398
460000000.0 -0.7254057059640325 0.08763993772210989
480000000.0 0.3812855348107004 0.5729843811187132
500000000.0 -0.5775022385500675 0.19525472805030972
520000000.0 0.48063972613903416 0.14119602952959112
540000000.0 0.38711247897244166 0.1310614109617474
560000000.0 -0.071475500493253 -0.3157284682964082
580000000.0 0.17688639282729504 0.2625119195164591
600000000.0 0.23445124636848408 0.20861588855333732
620000000.0 0.21927664506202865 0.25934816916568776
640000000.0 -0.14719857749217172 -0.3629075133227941
660000000.0 -0.10019842391011223 0.39503458554194953
680000000.0 0.3717610845752329 0.0807777092957103
700000000.0 -0.26890501193504807 -0.22229801124102316
720000000.0 0.10885234997485366 0.30014374138770034
740000000.0 -0.2957758057380941 -0.043703176788832454
760000000.0 -0.20810087968619906 0.14626038842171815
780000000.0 0.27506143524484555 -0.023316637605527348
800000000.0 0.26174443056337465 -0.07191461153799213
820000000.0 0.11513465379727239 -0.21714844155417098
840000000.0 0.0003661424508757128 -0.2212992277240075
860000000.0 0.20922152660574192 -0.03764920293499762
880000000.0 0.11748105860492965 0.14454523394505275
900000000.0 0.13304759328030777 0.005469166987021004
920000000.0 0.010997710750134374 0.09870100734478728
940000000.0 0.04555246825599886 -0.09185039651581176
960000000.0 -0.06096924117780632 0.030947765694262837
980000000.0 -0.006956450034153715 -0.03684781655848321
1000000000.0 -0.0007107352865286823 0.022061030265238774
1020000000.0 0.04548647490450582 -0.020437631924905813
1040000000.0 -0.055440108154710996 -0.057661393759070284
1060000000.0 -0.04808313681688558 -0.09527923372846608
1080000000.0 0.13304407486597036 0.04867821468510297
1100000000.0 0.15135495617826125 -0.06785163845850138
1120000000.0 0.16976082851956484 0.06585725688014082
1140000000.0 -0.15236067362754108 0.18071560022373162
1160000000.0 -0.06799148372123395 0.25352252066695247
1180000000.0 -0.013029233288663433 -0.2872031591738963
1200000000.0 0.17005032862942415 0.2701192583243788
1220000000.0 0.3396614373145848 0.04387242998485511
1240000000.0 0.3517879915004122 0.028116556910250657
1260000000.0 0.19333851450845943 -0.30806307805899386
1280000000.0 0.04176268507717124 -0.3608995217346084
1300000000.0 -0.3632664287325944 0.05700091962261227
1320000000.0 -0.19159513015512747 -0.3107745198998978
1340000000.0 0.354990056447562 0.10399328444301313
1360000000.0 0.04042291438246262 0.36804286230231587
1380000000.0 0.225873557009181 -0.2823203997637379
1400000000.0 -0.12147359426889845 -0.34032162088887935
1420000000.0 -0.33535833557689954 -0.14143306904818675
1440000000.0 -0.33246073213790195 0.1329429480825979
1460000000.0 -0.35176404890027896 0.06907417950767682
1480000000.0 0.20153257870524416 0.2970699010160471
1500000000.0 -0.2017336709589147 -0.2803486389052403
1520000000.0 0.18992901689294198 0.27297328605765037
1540000000.0 -0.27776080142149795 -0.1330724238885886
1560000000.0 -0.27194725591847824 0.018116239022085475
1580000000.0 -0.22252156391427735 0.05789572916215707
1600000000.0 -0.15085727243087793 0.11354704134794998
1620000000.0 -0.07197453339082678 0.12893058664309914
1640000000.0 0.030488154764337343 -0.10831536740252591
1660000000.0 -0.03325997190915829 -0.07095302175555215
1680000000.0 0.05541413303632777 -0.0006628849971213497
1700000000.0 0.003668549548965071 -0.051182166309516205
1720000000.0 0.02966075626814698 0.03960332445746444
1740000000.0 0.019715366693858528 0.06788934820023199
1760000000.0 -0.019363291320269763 -0.08260637805821633
1780000000.0 0.07274772898199164 -0.07705906935071584
1800000000.0 0.0868087691081308 -0.10217217750406969
1820000000.0 -0.09431805938280956 0.1212195553955498
1840000000.0 0.09784967198828642 -0.14959446260832002
1860000000.0 -0.02630895918657746 0.20349075808273756
1880000000.0 -0.21519285129188112 0.09942372507642573
1900000000.0 0.14286952198768466 0.22125194971648834
1920000000.0 0.1245446961201212 -0.26198807079233344
1940000000.0 0.3056648792787079 -0.048291878617635633
1960000000.0 -0.210680560467639 0.2336906992168872
1980000000.0 -0.31781704915434056 -0.018236499245122644
2000000000.0 -0.24898345206637984 -0.2008958758665113
2020000000.0 -0.14870195033945555 -0.27198300730012875
2040000000.0 0.3034962307529054 0.01949507347928041
2060000000.0 0.1061702355632789 0.28516183341718704
2080000000.0 -0.2534708344217028 0.16272943683141597
2100000000.0 0.02459041140484204 0.305375492066757
2120000000.0 -0.29746344858366053 0.08073960100955965
2140000000.0 0.14900064872888386 -0.266442849851955
2160000000.0 -0.29016191584488005 -0.04625724589375069
2180000000.0 -0.17327587782932755 0.23395506822438814
2200000000.0 -0.16589311965903106 0.23506977925007105
2220000000.0 -0.11372597974514566 0.26096465386536605
2240000000.0 -0.10023951244064004 0.26069594609575164
2260000000.0 -0.07403959665020535 0.2539886783808869
2280000000.0 -0.2341327016467883 -0.07515400343236946
2300000000.0 0.013894597263497321 0.23053634620889332
2320000000.0 0.20302051939249277 -0.10898657192342437
2340000000.0 -0.231707127501272 -0.017151713567098447
2360000000.0 0.1310239245045838 -0.1949189982555045
2380000000.0 0.16384967077806745 0.18134980603061035
2400000000.0 0.14851233159486485 0.21119313225687877
2420000000.0 0.2747467767386749 -0.04428868861879784
2440000000.0 -0.14557951018426513 -0.2599825546508146
2460000000.0 -0.06746426881838363 0.32100150766138913
2480000000.0 0.3383331795148078 0.12280044390720328
2500000000.0 -0.386014911246413 0.09351487215267378
2520000000.0 0.15921739872607657 -0.4095239979073667
2540000000.0 0.2956693868235099 0.37637710753374864
2560000000.0 -0.5099556066073676 0.08211540412799666
2580000000.0 0.2850382385218281 -0.47017000332067
2600000000.0 0.17792611111216455 0.5502233434287586
2620000000.0 -0.46644510608548206 -0.38526810566863484
2640000000.0 0.6238652071989904 0.0030809940487917043
2660000000.0 -0.29447447894098344 0.5674317809456155
2680000000.0 -0.5227767930202999 -0.38624538299514877
2700000000.0 0.17916288516144424 -0.6344823874053147
2720000000.0 0.49703584739851414 -0.4421858854898653
2740000000.0 0.6058312581058352 -0.28585767929932326
2760000000.0 0.6217787257103599 -0.2553055599509399
2780000000.0 0.10037992900441127 0.6615756741802933
2800000000.0 -0.06845276206788468 0.6585252274618634
2820000000.0 -0.46535650572499365 0.45762278703006504
2840000000.0 -0.5339719446733205 -0.35259521882104183
2860000000.0 0.6249610828098068 -0.04007739119424301
2880000000.0 -0.5936765224977432 0.13706649300604604
2900000000.0 0.4979641547469187 0.3166899221060987
2920000000.0 0.3510097198023983 -0.4498977404694357
2940000000.0 -0.4379318641881518 -0.32911622660444084
2960000000.0 -0.48215380001295893 0.20715752757375958
2980000000.0 -0.07275482131723378 0.49875222589595103
3000000000.0 0.4600361920130824 0.14582914541243586
3020000000.0 -0.10105695148061962 -0.44796589567916045
3040000000.0 -0.15834106316680904 0.4071467815532674
3060000000.0 0.10835145086984485 -0.3968807505225909
3080000000.0 0.06353925339197775 0.38032699241839774
3100000000.0 0.0009267237597934037 -0.36350638928503415
3120000000.0 -0.33807967893228486 -0.08053971249737192
3140000000.0 0.3221271781973345 0.09577240800175518
3160000000.0 0.020827087644060212 -0.329652718157201
3180000000.0 -0.02904279279718275 0.32534321394431986
3200000000.0 0.3116187956978524 -0.07190045358220867
3220000000.0 -0.03556282278789822 -0.31154762933354674
3240000000.0 -0.08049084228695441 -0.2916068363408448
3260000000.0 -0.20474683974940955 -0.20863707504424783
3280000000.0 -0.08236095388707844 -0.2662830494740862
3300000000.0 0.1318152809590088 -0.22382239354774727
3320000000.0 0.18241546010047954 -0.14804536955236752
3340000000.0 0.17574588251533071 0.10306427720114049
3360000000.0 0.1308663106511371 0.11618818545000607
3380000000.0 0.12531444965238958 -0.0894307054401616
3400000000.0 0.05531713163065928 -0.12347113803287431
3420000000.0 0.10196590560499331 -0.07531543474651586
3440000000.0 0.1073931570710325 0.05379059928697425
3460000000.0 0.0743097286129194 -0.07418678556861223
3480000000.0 -0.050527688973308095 -0.08188519311789273
3500000000.0 0.03861298699807263 -0.07584440228468232
3520000000.0 0.07318297574070243 -0.005132405186725514
3540000000.0 0.014636338388384688 -0.07392338526260044
3560000000.0 -0.05618097513758489 -0.05811346382784545
3580000000.0 0.08154315364603418 0.009586872869437841
3600000000.0 -0.05440923088767618 0.07132252467172043
3620000000.0 -0.014302167911937147 0.09929791036980463
3640000000.0 -0.0941693145173744 0.0428056038600482
3660000000.0 0.1038889070934917 0.02416161408669453
3680000000.0 0.10152414905621039 -0.0578803993099005
3700000000.0 0.09097692338209948 -0.06944290414811419
3720000000.0 0.09401346614325261 -0.0326218825367279
3740000000.0 -0.0625008970918862 0.06014259087697175
3760000000.0 0.015433029598867028 -0.06673473627682189
3780000000.0 0.007458501176699711 -0.05380643032996073
3800000000.0 0.032828852813262 0.03851749196470011
3820000000.0 -0.004472975384771292 0.05529124998163608
3840000000.0 -0.057593646957554756 0.012526102752302799
3860000000.0 0.06050121556982778 -0.017175984768575195
3880000000.0 -0.00808485274376219 0.07002846822214766
3900000000.0 -0.010675906160840142 0.08898962161582251
3920000000.0 -0.08587911632106388 -0.061513632764846816
3940000000.0 0.04186801887937219 -0.10489681001999696
3960000000.0 -0.04360924867571019 -0.10679525191875214
3980000000.0 -0.06013620934915381 0.0848931468267308
4000000000.0 0.03431287519815974 0.07583535915678329
