!Created with skrf (http://scikit-rf.org).
# Hz S RI R 50.0 
!freq ReS11 ImS11
400000000.0 -0.2234967796608036 -0.8125235857648592
420000000.0 0.6056999857636887 0.5046053127925616
440000000.0 -0.47861165304680925 0.5873234678448346
460000000.0 -0.6899408297873512 0.16456746449567974
480000000.0 -0.5820002163425965 0.24251175470984712
500000000.0 -0.28714210439665466 -0.4315618357617212
520000000.0 -0.1460516347932198 -0.3703301978562666
540000000.0 0.44769755023533314 0.0011216801521328798
560000000.0 -0.32520056311231377 -0.3481802159135903
580000000.0 0.025276717005188992 -0.43737758527469944
600000000.0 -0.17878514361388523 0.33425213485619465
620000000.0 0.2360110078315769 0.28234033188651814
640000000.0 -0.23235549314409254 -0.28980857388098374
660000000.0 -0.33935626110669426 0.004157030987792266
680000000.0 0.3236446180528717 -0.017793867957109893
700000000.0 0.14031954684781867 0.3076921901947586
720000000.0 0.24380659779733885 -0.24297912941853392
740000000.0 0.15730312491666149 -0.28352672633426657
760000000.0 0.2838703498674128 0.1201415164345705
780000000.0 -0.27071151790345466 -0.06912341451106528
800000000.0 0.06057225487082527 0.2341244598711571
820000000.0 -0.18415740408744835 -0.11457090847597072
840000000.0 -0.18709595400338805 0.06845544360852297
860000000.0 0.15448129313607206 -0.10817487280466993
880000000.0 -0.12034262083133873 -0.13586933013976105
900000000.0 0.11323712281482708 0.1162310275118244
920000000.0 -0.057275982740027494 -0.13016108579843744
940000000.0 -0.12954660412112196 -0.004954001823372972
960000000.0 0.0981060295118732 0.058922883621066686
980000000.0 -0.021462226328611212 0.05581187801335059
1000000000.0 0.03639321498879871 0.016877513580101276
1020000000.0 -0.037703445973300935 0.021320349258867336
1040000000.0 0.04601502376113385 -0.06216874805494186
1060000000.0 -0.04878162768591452 -0.10142234386304559
1080000000.0 -0.06579790548638036 -0.13033663038404286
1100000000.0 -0.003541432308975551 -0.179695645995248
1120000000.0 -0.0024403556659389858 0.23375707040566462
1140000000.0 0.14617464964998478 -0.22903411907480023
1160000000.0 0.20525357798051513 -0.2119044456492045
1180000000.0 0.3126080048929096 -0.08399419391205375
1200000000.0 0.33022560537220336 0.02922282006672711
1220000000.0 0.2709485122685649 0.20380051905754504
1240000000.0 -0.16899791129796873 0.2855917355402063
1260000000.0 -0.106243768221089 -0.3193974582072623
1280000000.0 -0.1296643806204669 -0.32221979513316273
1300000000.0 0.3103000883928423 -0.17539919688769662
1320000000.0 0.1979805771158908 -0.29767304165838954
1340000000.0 -0.1466818935619624 0.3348672660429002
1360000000.0 -0.28302886461273946 -0.2531041379868637
1380000000.0 0.08862503742512794 -0.3645889688822381
1400000000.0 -0.2010789932573717 0.3174261674910353
1420000000.0 0.367600893821023 -0.013037739693867602
1440000000.0 0.2475037668038992 -0.26169480808572165
1460000000.0 0.1221081080364421 -0.3289319330886478
1480000000.0 -0.04163152626010188 -0.34068323530786315
1500000000.0 -0.24950288643177662 0.22573534982392932
1520000000.0 0.2675003150847059 -0.15689347593187955
1540000000.0 -0.2762011209465548 -0.045394252831967984
1560000000.0 0.20633457402996813 0.1322053269935745
1580000000.0 -0.15666646403336662 -0.142326999842224
1600000000.0 0.0182008703935412 0.17560178006835772
1620000000.0 -0.12142196984963041 -0.09605591853386647
1640000000.0 -0.04541363502526573 -0.12186830384480214
1660000000.0 0.038339192445190566 -0.09585701340196205
1680000000.0 -0.022679698094098304 -0.07700213286284693
1700000000.0 0.05781410208306192 -0.017448133632362244
1720000000.0 0.03648725895287213 -0.02990421879827114
1740000000.0 -0.01462729048776484 0.04927311674595296
1760000000.0 0.05917557276312073 0.03075942789766381
1780000000.0 0.08692007687037427 -0.005562986899785531
1800000000.0 0.0693696299938077 -0.10112976009424975
1820000000.0 0.03058630356595048 -0.15439920307536403
1840000000.0 0.07672293238192106 0.17850990856063456
1860000000.0 0.1433887341283384 -0.1735784801269033
1880000000.0 0.1147611277474215 -0.21709000781712892
1900000000.0 -0.23005983587013484 -0.1344824933923131
1920000000.0 -0.22735939748179235 0.1705241416444411
1940000000.0 0.19796274903392094 0.22261094553596203
1960000000.0 -0.2177814629944612 -0.22165788878433842
1980000000.0 0.1660582686998907 -0.2711274709848908
2000000000.0 0.30240308654872233 -0.09354338261901779
2020000000.0 0.17183638972259013 0.2675320905383965
2040000000.0 0.3084517766899232 -0.072958455939733
2060000000.0 0.3076003139808402 0.038128939749708615
2080000000.0 -0.13511859137741608 0.27597009141159423
2100000000.0 0.10485597095551252 -0.2938379264368685
2120000000.0 0.19077858721356783 0.24100940541670468
2140000000.0 -0.09415334017421774 -0.28927645664807605
2160000000.0 -0.1476499677246197 0.2643550570253001
2180000000.0 0.26106459055738906 0.14305822442110627
2200000000.0 0.23732059000336023 0.1733878514233467
2220000000.0 0.23364354478864735 0.17045339936481427
2240000000.0 0.040628933469370576 0.27760357652120066
2260000000.0 -0.07011761543326689 0.2596252929744492
2280000000.0 -0.1446241716991372 -0.20913135513664902
2300000000.0 0.23295843350386256 0.07374984546484196
2320000000.0 -0.2297961271440034 0.04156335993289508
2340000000.0 0.1484591954759652 0.16699350924668635
2360000000.0 0.05043900493770069 -0.22482926043776177
2380000000.0 0.19772464565202572 0.14279676139947264
2400000000.0 0.2219744672328235 0.1339138531059487
2420000000.0 0.2832570254948957 -0.04278845328227161
2440000000.0 -0.2837000831723677 0.14151982815599326
2460000000.0 0.17430985124165277 -0.30189346264260086
2480000000.0 -0.38357738829693167 -0.012246610067840929
2500000000.0 0.17443412542868417 -0.38420428125450506
2520000000.0 0.38150880685921923 0.25718099798660277
2540000000.0 -0.45213404816935343 0.20638871049862245
2560000000.0 0.1469238772770776 -0.5100340933500106
2580000000.0 0.18134123645509495 0.5313716515645414
2600000000.0 -0.4723849494070844 -0.35006364234407705
2620000000.0 0.602983098459116 0.08871798290630317
2640000000.0 -0.5170544192060946 0.35452715206799235
2660000000.0 -0.1611100757220065 -0.6193114232364434
2680000000.0 0.6377294417718777 -0.11375927921450972
2700000000.0 0.5812097335146489 0.3031485621663218
2720000000.0 0.4238289475884334 0.5011320344528969
2740000000.0 0.5159990915247761 0.40864305774257376
2760000000.0 0.581010920321428 0.3074491526868575
2780000000.0 -0.4908779771530298 0.42368494590079775
2800000000.0 -0.6084577965098201 0.19527696159616015
2820000000.0 -0.4066237123502717 -0.47683963891845565
2840000000.0 0.5779315647410636 -0.2060612858518867
2860000000.0 -0.5490565921803494 0.24254528954433208
2880000000.0 0.5796539205297063 0.0859618655805195
2900000000.0 -0.030017557437036414 -0.5688154249003327
2920000000.0 -0.5305425519124168 0.14187679799441463
2940000000.0 -0.06602347017086722 0.5208346041010677
2960000000.0 0.2272533660200717 0.4467979392294339
2980000000.0 0.37987417184094074 -0.2942824985691032
3000000000.0 -0.2421796420766228 -0.3828357051965253
3020000000.0 -0.34878470474176837 0.25074969946985326
3040000000.0 0.3002483115164785 -0.27710448149188577
3060000000.0 -0.2221627426888708 0.3043217781750111
3080000000.0 0.3438203814914179 0.09407815082479977
3100000000.0 -0.3407051024906172 -0.010752587873984244
3120000000.0 -0.23093029349484176 0.2367654634925894
3140000000.0 0.3242756466131387 -0.01099078546360689
3160000000.0 -0.3272683816062793 -0.014206261390418275
3180000000.0 0.3221438767150187 -0.0008464348744543918
3200000000.0 -0.17528804813351284 -0.26047059908872705
3220000000.0 -0.17797449324474962 0.2466991327351402
3240000000.0 -0.12867226016764854 0.25460799229725656
3260000000.0 -0.258117092875023 -0.0756596972284143
3280000000.0 0.23201045696292777 -0.09628371021711417
3300000000.0 -0.08022992296832122 0.2226534295302375
3320000000.0 -0.10890274979066739 -0.19064523759758162
3340000000.0 0.1456219730887654 -0.1420255827294098
3360000000.0 0.17234650762466736 -0.04393623799215405
3380000000.0 -0.0614287271355231 -0.13265073067844235
3400000000.0 -0.07533131693393393 -0.10142692907403597
3420000000.0 -0.04391582817050669 -0.10744421661078708
3440000000.0 0.09002216249551838 0.06073777224774283
3460000000.0 0.06483548846891063 0.07669415642180977
3480000000.0 0.03464478530883934 0.08183668505452887
3500000000.0 0.04669743816988003 -0.06194200943141793
3520000000.0 0.007664483188743378 0.06528489133409765
3540000000.0 -0.039306963190031206 0.049418069813252
3560000000.0 -0.018061391241288593 -0.06970629334842748
3580000000.0 -0.085008071481711 0.00922917677175454
3600000000.0 0.08932752897740057 -0.02489280552821363
3620000000.0 -0.09860202882269842 0.03791109517556309
3640000000.0 0.09866962377568163 0.0435274824231242
3660000000.0 -0.05872449254625475 0.09159536990048726
3680000000.0 0.06963482263212109 -0.07988447554616944
3700000000.0 0.09144211878805557 -0.0372970694108449
3720000000.0 0.025508980437608828 0.08597550248978647
3740000000.0 -0.02268066522649857 0.07436329083007048
3760000000.0 -0.02187500869687463 -0.0625416232766606
3780000000.0 -0.007505043771628565 -0.06077629738410093
3800000000.0 -0.008069412340544441 -0.04898706017654621
3820000000.0 0.027139887598919058 0.030088614754588575
3840000000.0 0.0440074753720355 -0.034989704880325045
3860000000.0 -0.01197795555071119 -0.07605305408393334
3880000000.0 0.09088908717570432 -0.016431141802534962
3900000000.0 0.060039185744788275 0.08375308561238923
3920000000.0 -0.027885666805078403 -0.10080024042866377
3940000000.0 -0.04887216345425602 0.09002850686853246
3960000000.0 -0.0983229591016606 0.00431585893364881
3980000000.0 0.062253288891523234 -0.0733638748113094
4000000000.0 -0.07635326171677952 0.03753526333688023
