!Created with skrf (http://scikit-rf.org).
# Hz S RI R 50.0 
!freq ReS11 ImS11
400000000.0 -0.21826451718763368 -0.8139302789477557
420000000.0 0.6127280857663954 0.4962094269419397
440000000.0 -0.4626799835354366 0.599484918511695
460000000.0 -0.6928421037407007 0.15440674769002546
480000000.0 -0.590909748753178 0.2184263823826276
500000000.0 -0.3330877420458024 -0.3980987613250139
520000000.0 -0.10159170265539313 -0.38455107671041755
540000000.0 0.4475998200965353 -0.011759650337904957
560000000.0 -0.3429937266349668 -0.3306951539234032
580000000.0 0.12165413134437139 -0.41974868989618946
600000000.0 -0.14319113112657011 0.3526973958585411
620000000.0 0.15729237543676097 0.33348935374962496
640000000.0 -0.24254515597345344 0.2794692145960133
660000000.0 -0.33907109202929625 -0.0021552028670130145
680000000.0 0.3216926811832326 -0.031959195539714436
700000000.0 0.145471989236003 0.30594556966711994
720000000.0 0.19435074022517482 -0.28314835765418433
740000000.0 0.13774959585920354 -0.294583071199408
760000000.0 0.3021277960053445 0.05855952846569296
780000000.0 -0.26622073373331834 -0.08644321654130313
800000000.0 0.031400521868783934 0.238865381505523
820000000.0 -0.1943030868994575 -0.09453670891955367
840000000.0 -0.18697061944002732 0.06533860288551303
860000000.0 0.1396392098557519 -0.1250338777830858
880000000.0 -0.06803417429191257 -0.1683496198688013
900000000.0 0.09840298583070356 0.12752545013128067
920000000.0 -0.10836244017463179 -0.09124138599190638
940000000.0 -0.1162085722311384 -0.05843477965866157
960000000.0 0.09521992204802357 0.06141898823451281
980000000.0 -0.05344825008773901 0.02872567246821287
1000000000.0 0.03914693603268547 -0.008283259263865429
1020000000.0 0.029390336422873694 -0.030729200185625034
1040000000.0 0.06710549593306035 -0.039783910639459616
1060000000.0 -0.09058806256392278 -0.06482117302883254
1080000000.0 -0.022747323218576296 -0.14533284700915702
1100000000.0 -0.04593051318636512 -0.17356717098747473
1120000000.0 -0.053695072337329466 0.227383726262782
1140000000.0 0.15862360571403225 -0.22043244638633946
1160000000.0 0.15701589359315593 -0.2499698848375058
1180000000.0 0.3201915313383032 -0.05272649487548514
1200000000.0 0.3309389095127252 -0.02548648377291842
1220000000.0 0.25910618219301673 0.21772759150456933
1240000000.0 -0.1404438535672645 0.3014824463242841
1260000000.0 -0.15412009655713296 -0.29912068178329365
1280000000.0 -0.11085123455840352 -0.32867738814563857
1300000000.0 0.3187823115618884 -0.16152230004463974
1320000000.0 0.19578490445928265 -0.2993825584041744
1340000000.0 -0.14559961969705199 0.33498416853279644
1360000000.0 -0.31372837409100307 -0.21405591662972176
1380000000.0 0.07212488106149996 -0.36786012626073467
1400000000.0 -0.24054002543138575 0.2901525719088691
1420000000.0 0.36637365346442097 -0.03546843538650374
1440000000.0 0.20576708907569874 -0.29514698467671036
1460000000.0 0.12541056502206727 -0.32818489092075187
1480000000.0 -0.05286848816155941 -0.3391382506438489
1500000000.0 -0.2326925648487918 0.2421424493067351
1520000000.0 0.2731145670857596 -0.14856587356287712
1540000000.0 -0.27567292433834545 -0.042130485938342004
1560000000.0 0.1562733845203432 0.19020019815511943
1580000000.0 -0.1557001023787888 -0.14327410339801752
1600000000.0 -0.028696427276523273 0.17245445067993626
1620000000.0 -0.13056032779281435 -0.08519483765063553
1640000000.0 -0.06037295710263679 -0.11529763257846254
1660000000.0 0.0977591186583108 -0.03491933031087913
1680000000.0 -0.0802854156226263 0.00010830790188658842
1700000000.0 0.03904773758064847 0.04552180656643241
1720000000.0 -0.02528183225755472 -0.04030425014747188
1740000000.0 0.004502770768861315 0.05070328570085109
1760000000.0 0.04677850078151766 0.0479932997449056
1780000000.0 0.08577589099561643 -0.01541585920708009
1800000000.0 0.0400761964852018 -0.11674239370852049
1820000000.0 0.12012564652680817 -0.10105829369514181
1840000000.0 0.12725248734969974 0.1492317147932211
1860000000.0 0.19496759850881526 -0.11213420900872309
1880000000.0 0.059795767876522674 -0.2395060089512796
1900000000.0 -0.2546120818851333 -0.0801821442259185
1920000000.0 -0.25184220847736616 0.1309440127256006
1940000000.0 0.22473322285994632 0.19532061439905932
1960000000.0 -0.19997860838697357 -0.2378618842749537
1980000000.0 0.141289514052856 -0.2841613203352353
2000000000.0 0.30885761342802226 -0.06952627303932252
2020000000.0 0.15767834776329193 0.27596152225709697
2040000000.0 0.31586950402444175 -0.029487422565271214
2060000000.0 0.3087874447119701 0.015654682688749418
2080000000.0 -0.12853780040668983 0.27939944607310285
2100000000.0 0.12485451796892406 -0.2858554456904932
2120000000.0 0.20014031706226754 0.23373790125580568
2140000000.0 -0.09775228843786046 -0.2878413592623158
2160000000.0 -0.14162986164983302 0.2675978576771284
2180000000.0 0.25060626486899595 0.16132273312654338
2200000000.0 0.21422092928269637 0.20086172073730219
2220000000.0 0.25144096772419766 0.14170133393836806
2240000000.0 0.011749349710499802 0.2804119793229238
2260000000.0 -0.08602300373915873 0.2552326385255707
2280000000.0 -0.1199312066790504 -0.2247923216475144
2300000000.0 0.2437495677422044 0.006933621193834248
2320000000.0 -0.22973899021542507 0.04070593841100064
2340000000.0 0.10428571798016877 0.19927197569942068
2360000000.0 -0.02191870618317166 -0.22958842695289747
2380000000.0 0.19230909601876064 0.1494907091342918
2400000000.0 0.21103185187306717 0.1521012313298022
2420000000.0 0.28072125980939083 -0.05750167327070999
2440000000.0 -0.2958018590415375 0.1155706269507995
2460000000.0 0.2092771667291616 -0.278221141304482
2480000000.0 -0.38050856292451096 -0.048135724610010804
2500000000.0 0.053739121642976985 -0.4191764625526295
2520000000.0 0.40387383290939166 0.2214213107278581
2540000000.0 -0.4497440837646903 0.2107130107432857
2560000000.0 0.1564525528849698 -0.5075757780812121
2580000000.0 0.19577024089176967 0.5267198705049639
2600000000.0 -0.46712853893854506 -0.3567352772274804
2620000000.0 0.6016497322511268 0.09918481175346247
2640000000.0 -0.501930275131268 0.37569971815640824
2660000000.0 -0.15472373625047833 -0.6208670380068596
2680000000.0 0.6120053699056621 -0.21063145614108156
2700000000.0 0.5791623810264042 0.30470050427625267
2720000000.0 0.516347052196227 0.4048988651449159
2740000000.0 0.4234539415246659 0.5041046679812313
2760000000.0 0.5110106926700615 0.4124694148272622
2780000000.0 -0.5068352124913023 0.40447839968488886
2800000000.0 -0.6139069860791218 0.17765007123721158
2820000000.0 -0.41320929319877187 -0.47093957298138317
2840000000.0 0.5772887595794571 -0.20840806545514198
2860000000.0 -0.5537920554008581 0.23166263544240528
2880000000.0 0.5784951594456416 0.09028191011433756
2900000000.0 -0.052952153829744004 -0.5666615271275094
2920000000.0 -0.542138493574117 0.09240346164698005
2940000000.0 -0.08325197153838149 0.5186597961184657
2960000000.0 0.20639416477117883 0.4565667907513145
2980000000.0 0.39814875002355843 -0.26888292950357817
3000000000.0 -0.24205283753651183 -0.38290864210502257
3020000000.0 -0.31099350032092055 0.295275225899247
3040000000.0 0.3029260161413017 -0.27362249662252014
3060000000.0 -0.18978517831542938 0.3250232858809609
3080000000.0 0.33850440112539915 0.11404521534538689
3100000000.0 -0.33978470686978474 -0.020684369899072966
3120000000.0 -0.21720652881483365 0.24824867526319166
3140000000.0 0.32539963276671935 -0.013640421871289847
3160000000.0 -0.3222425524968398 0.06030954275931934
3180000000.0 0.32167439851035073 0.020530182548042612
3200000000.0 -0.23199391860298896 -0.21030359363984666
3220000000.0 -0.24573816101164594 0.18051666147194456
3240000000.0 -0.10442120666845038 0.26592083960841706
3260000000.0 -0.2677365517091798 -0.014681705072717635
3280000000.0 0.24803767032378146 -0.0382680998746126
3300000000.0 -0.1289089932692621 0.19829436875924372
3320000000.0 -0.06014661860721735 -0.21160581432879386
3340000000.0 0.10289723192044728 -0.17351442569756073
3360000000.0 0.17046812373190082 -0.04790064550427911
3380000000.0 -0.0660042633543371 -0.1315660786660472
3400000000.0 -0.1177486174576331 -0.04769524378838061
3420000000.0 -0.11530691657251922 -0.006988908486932446
3440000000.0 0.0502984476635298 0.09666253201045763
3460000000.0 0.10218264117008773 -0.004775538453915708
3480000000.0 0.05861580393526816 0.06620917153916082
3500000000.0 0.03307953065728877 -0.07055063677099714
3520000000.0 -0.01339147668217648 0.0631870709134774
3540000000.0 -0.05103971403743437 0.03841986720487833
3560000000.0 -0.046016712655595975 -0.05455008554001564
3580000000.0 -0.07276078038617724 -0.04349757886337315
3600000000.0 0.09060928252455207 0.019700272301704857
3620000000.0 -0.10285872290968599 0.02602181886267826
3640000000.0 0.10602351164896033 0.019854649657515502
3660000000.0 -0.06221147472721493 0.08946190325140295
3680000000.0 0.09502008827788334 -0.04667813264298272
3700000000.0 0.07962760290782465 -0.06102111613520086
3720000000.0 0.025514479319216455 0.085897731597225
3740000000.0 -0.07044204915715335 0.030971542473445204
3760000000.0 -0.056652350894803735 -0.03600487356102477
3780000000.0 -0.04458607791190777 -0.04254007764670459
3800000000.0 -0.022494651762891473 -0.042923421376574296
3820000000.0 -0.03231668484412264 0.02608151884595447
3840000000.0 0.03592673624798761 -0.04318902158230597
3860000000.0 0.019759260265068312 -0.07393353746021068
3880000000.0 0.09034116455773498 0.01924960598047647
3900000000.0 0.0752806579772598 0.07165873725982519
3920000000.0 -0.08146575045362206 -0.06511062981610972
3940000000.0 -0.06960191797648854 0.0741762027556928
3960000000.0 -0.0817105995247639 0.05747075295664273
3980000000.0 0.012370935402985802 -0.09425399971310626
4000000000.0 -0.08439815215625503 0.00532971325587535
