!Created with skrf (http://scikit-rf.org).
# Hz S RI R 50.0 
!freq ReS11 ImS11
400000000.0 -0.317899836957119 -0.7801796313552416
420000000.0 0.6343642273164142 0.46662388073797334
440000000.0 -0.38649287790107784 0.6511313514161985
460000000.0 -0.6054207816436209 0.36237769244684387
480000000.0 -0.6204374211850937 0.068680495790973
500000000.0 -0.16260634899187879 -0.492326985646172
520000000.0 -0.062403132988283046 -0.39570761489269796
540000000.0 0.4398197393887247 -0.07476153383830256
560000000.0 -0.2886904701865842 -0.3785600693009167
580000000.0 0.20898882259472046 -0.3816066002443973
600000000.0 -0.09581330141400288 0.367485983160811
620000000.0 0.21012301104941025 0.300372625950146
640000000.0 -0.2801618499272119 0.2353287884114365
660000000.0 -0.07000323445382613 -0.3267358515050506
680000000.0 0.267800444046177 0.19299754578024486
700000000.0 0.2709563652692684 0.20845085043515552
720000000.0 0.15002463706120203 -0.30840597455415353
740000000.0 0.20892991703695815 -0.2507426555685362
760000000.0 0.3046500656935199 0.047727742426892844
780000000.0 -0.20443583097578236 -0.1910228354910955
800000000.0 -0.02177746670055019 0.24130170759940184
820000000.0 -0.19110766189613498 -0.10170659763603579
840000000.0 -0.1880499241999054 0.054989892424261375
860000000.0 0.18753969297712744 -0.01963904423020703
880000000.0 -0.026230511272304507 -0.17984462748584107
900000000.0 -0.06577276635188951 0.14952898317962762
920000000.0 -0.024191666596797265 -0.14335410311689945
940000000.0 -0.10454933772621848 0.08631530584605564
960000000.0 0.08819352735165446 -0.07620307370120624
980000000.0 -0.00989650219560344 -0.06346585580458096
1000000000.0 0.04245895158024272 0.004259302158752583
1020000000.0 0.0454263868103455 -0.009926953717160463
1040000000.0 -0.08227407948197571 -0.019352634151577203
1060000000.0 0.06785980407532341 0.09314891103415497
1080000000.0 -0.13012691079104188 0.06811240641460638
1100000000.0 -0.1777732147832702 -0.009031425117900838
1120000000.0 0.09155552537663124 0.21266166167556738
1140000000.0 0.05190337633578322 -0.26481858116327883
1160000000.0 0.10598396819898748 -0.2736129612419941
1180000000.0 0.29506274173824476 -0.1265773151301903
1200000000.0 0.2625306750802973 0.19592645329969996
1220000000.0 0.0732985411819541 0.3289391993438152
1240000000.0 -0.29355124014981976 0.1588334820604319
1260000000.0 -0.017292261447451166 -0.3404937879631901
1280000000.0 -0.23618828541224646 -0.26001275464410994
1300000000.0 0.00023328348396807873 -0.35753778343420867
1320000000.0 0.058672870317997415 -0.3474148302774061
1340000000.0 -0.1343817471278289 0.3343953731303241
1360000000.0 -0.09056887821161867 -0.36474740220424473
1380000000.0 0.31208315723802593 -0.20739702828427134
1400000000.0 -0.36052753422390305 0.12234450726177187
1420000000.0 0.3732486336794194 0.02784040263040796
1440000000.0 0.06575146166094839 -0.35741906804326623
1460000000.0 -0.0700067215430851 -0.3460082855401327
1480000000.0 -0.2833763615862821 -0.18932317361452738
1500000000.0 -0.2280972172044822 0.23994504303495962
1520000000.0 0.3080486445818153 0.011435234783428519
1540000000.0 -0.1556705722143662 -0.23465245495717793
1560000000.0 0.1307854424035887 0.214422638394528
1580000000.0 -0.187390959800385 0.10367077656061247
1600000000.0 0.17177918969615652 -0.026856783703465004
1620000000.0 -0.14854581906136988 0.02648377355294174
1640000000.0 -0.04851339386687572 -0.11416342304151351
1660000000.0 -0.048015455382129285 0.08740772154751092
1680000000.0 0.07696700856301034 0.026211216703173137
1700000000.0 0.03186659478213527 0.05518462991019675
1720000000.0 -0.046595577986883935 0.01189362189010133
1740000000.0 0.032240543836869785 0.04038667696946522
1760000000.0 0.00868923305916859 0.06682812521975555
1780000000.0 0.0795091969496147 -0.04140510843211558
1800000000.0 -0.09912082954161103 -0.07455674669486691
1820000000.0 -0.06742988647008949 -0.14081968509560255
1840000000.0 0.15411804619494587 0.11057168182396898
1860000000.0 0.19708305484202834 0.10099984047621924
1880000000.0 0.23296251761991132 -0.07780658079675833
1900000000.0 -0.08237463577744258 -0.25826237125941315
1920000000.0 -0.23117599891241294 0.17222959392175413
1940000000.0 0.2867402461255842 0.09189660620786283
1960000000.0 -0.2999706124516932 0.08405573710988967
1980000000.0 0.02279966198726436 -0.3132291469730948
2000000000.0 0.2790298746510952 -0.14228194718567652
2020000000.0 0.08043710825704857 0.3033766151135214
2040000000.0 0.229263592908769 0.2163129250681954
2060000000.0 0.20165911086227867 0.23616136027501675
2080000000.0 -0.2585671165103508 0.17194121218699263
2100000000.0 0.13958311611946625 -0.2815115985696599
2120000000.0 0.2123024668054908 0.22623871081376362
2140000000.0 -0.22010568510205653 -0.21400469109330303
2160000000.0 -0.005810614190715962 0.30255689469022234
2180000000.0 0.2946113370004068 0.04158356352924882
2200000000.0 0.27512109718710603 0.09805638772341177
2220000000.0 0.2530474895497479 0.13769972837532016
2240000000.0 0.048978253844529494 0.2741230181471023
2260000000.0 -0.18643476705915862 0.1924322162706593
2280000000.0 -0.046934776608587386 -0.2515766821795655
2300000000.0 0.2417993414081834 0.021174269117268822
2320000000.0 -0.22314134914450534 -0.07030927266622378
2340000000.0 0.0986963733640758 0.2032791898401749
2360000000.0 -0.07101755455802958 -0.2196008679520194
2380000000.0 0.17713160931744878 0.16626348307030386
2400000000.0 0.16166703974378624 0.20624094107857102
2420000000.0 0.26476578482692603 -0.11053981322392105
2440000000.0 -0.286165290947006 0.139935870775178
2460000000.0 0.09201322509772365 -0.3365426466207905
2480000000.0 -0.3733753870967148 0.08785098027544519
2500000000.0 0.013470527048446137 -0.42125122255629216
2520000000.0 0.3994945439526971 0.22416638266672503
2540000000.0 -0.45006468777522624 0.2071058972829365
2560000000.0 0.22768450511327357 -0.47857905684724067
2580000000.0 0.18179273147675556 0.5323211064467284
2600000000.0 -0.45178324943029746 -0.37660587452099076
2620000000.0 0.6048516369492797 0.08066667896783407
2640000000.0 -0.5060206142123207 0.3698340713860746
2660000000.0 -0.13655826689972173 -0.6247060133578858
2680000000.0 0.629825548616623 -0.14826555488582455
2700000000.0 0.5715759466059507 0.31806209670925495
2720000000.0 0.49680986059488536 0.42888806929438594
2740000000.0 0.4121589949711912 0.5134273625554592
2760000000.0 0.5151530529093324 0.4071982272493797
2780000000.0 -0.5084937189494572 0.4020745490211554
2800000000.0 -0.6178369603071755 0.16416576818251769
2820000000.0 -0.3945791396896089 -0.48690791709290593
2840000000.0 0.5839510507795735 -0.19023788398651673
2860000000.0 -0.5315803957701516 0.2808414744607687
2880000000.0 0.5772038636908338 0.10033754695488944
2900000000.0 -0.029006696998791277 -0.5687312291456985
2920000000.0 -0.5398657251759645 0.10666902478941127
2940000000.0 -0.02836943620944023 0.525359989440916
2960000000.0 0.25839141559389284 0.4315976394237921
2980000000.0 0.2788497722190788 -0.3923233856537407
3000000000.0 -0.3661212667525303 -0.2655520846600393
3020000000.0 -0.1737955286863978 0.39063858757221853
3040000000.0 0.2611710736147554 -0.309854178816057
3060000000.0 -0.23430328877752046 0.29173471942103424
3080000000.0 0.31045554510512297 0.173705069346551
3100000000.0 -0.3300869561449589 -0.08092735404276576
3120000000.0 -0.2509791178423877 0.2146529250896791
3140000000.0 0.30905686512392094 0.10123984061731865
3160000000.0 -0.3184419725263565 -0.07808437164813876
3180000000.0 0.2766670386774568 0.16630555750841872
3200000000.0 -0.09974444766981416 -0.2991022683500966
3220000000.0 -0.2593017086642297 0.16435760062813817
3240000000.0 -0.04658524877418094 0.2846270420248156
3260000000.0 -0.2695807991005283 0.009760033239887599
3280000000.0 0.13909673020837424 -0.20944232267257237
3300000000.0 -0.06300884525747386 0.22927424475095168
3320000000.0 -0.2101264094204851 -0.060624179571555636
3340000000.0 0.02387920871829676 -0.19777690900996925
3360000000.0 0.15132322046472144 -0.08610158464161294
3380000000.0 -0.059971231486110936 -0.13101747854435747
3400000000.0 -0.09094262786770348 -0.08622864201916747
3420000000.0 -0.050749305422604765 -0.10116183352694638
3440000000.0 -0.06845438525950413 0.08170083185032763
3460000000.0 -0.09556764404521355 0.03017605369776203
3480000000.0 -0.05916275957745133 -0.06986327547455679
3500000000.0 -0.027830238967438203 0.07760470161363194
3520000000.0 -0.054713489095145444 0.04903700185129858
3540000000.0 0.06499663365310775 -0.026883917646150623
3560000000.0 -0.030187218526689083 -0.06808956386341622
3580000000.0 0.0529430434870099 -0.06362976684414443
3600000000.0 0.06544408481092859 -0.06114360852931385
3620000000.0 -0.10341290000519106 -0.006280773832659838
3640000000.0 0.10706030377615447 -0.004993346144092987
3660000000.0 -0.013396406243208233 0.10694709759316798
3680000000.0 -0.006084223416369807 -0.10537596954709202
3700000000.0 -0.026622853160934545 -0.09328729661336266
3720000000.0 0.017786641950788815 0.08146800471160309
3740000000.0 0.06786145932243239 0.02999520014764837
3760000000.0 -0.04666533366461955 0.05140313056407266
3780000000.0 -0.019560488417848586 -0.06395195824650456
3800000000.0 0.0477486376256883 -0.0193036668732208
3820000000.0 -0.03441636392580435 -0.02152231525693441
3840000000.0 -0.053360425656941796 0.0014861471828081434
3860000000.0 0.023999665104852408 -0.06943945956150863
3880000000.0 0.021108012319139186 0.08760490930896929
3900000000.0 0.04464798721188365 0.09128778501884727
3920000000.0 0.09015038709317176 -0.04782656973749304
3940000000.0 0.06755732083930861 -0.07856287203595082
3960000000.0 -0.07245889661607315 -0.07559654702693919
3980000000.0 -0.0006048259121524778 -0.10160456045828302
4000000000.0 0.08923910673488845 -0.009880120426413048
