!Created with skrf (http://scikit-rf.org).
# Hz S RI R 50.0 
!freq ReS11 ImS11
400000000.0 0.7054328066148198 -0.5822716391653158
420000000.0 0.8610625501590243 -0.12917728571000797
440000000.0 0.5024644620342804 0.6622259261221559
460000000.0 -0.42953542018078905 -0.6687326307703366
480000000.0 0.013703566815601443 -0.7784463881638494
500000000.0 -0.6259204489022309 0.4562345680721982
520000000.0 0.6990075764431891 0.1751012914489222
540000000.0 -0.14596800176390456 -0.6716102348900773
560000000.0 -0.3713001039720625 0.5346702992344609
580000000.0 -0.4797849842437381 0.286692744388939
600000000.0 -0.2247073952377201 0.531755455741462
620000000.0 -0.11116056033547406 0.5499250112277978
640000000.0 0.07618932127689947 -0.5416610423671933
660000000.0 -0.36067634499729295 -0.3765180056618977
680000000.0 -0.471125498925176 0.11014200817280978
700000000.0 0.3673607977369627 -0.29867892387027123
720000000.0 0.3720520857219712 0.2999246978072288
740000000.0 -0.4587700954662764 -0.051958483055502165
760000000.0 -0.42801432257627353 -0.14750403504449147
780000000.0 -0.39872913806647836 -0.17464252207385342
800000000.0 -0.39054297663833376 0.020891901435928627
820000000.0 -0.13204219041585913 0.30943407947393775
840000000.0 0.04190383136834963 -0.3138157407339337
860000000.0 0.27414668593914515 -0.06174617710496041
880000000.0 -0.251613923298544 0.06139386242758991
900000000.0 -0.040539451215430795 -0.2401212358723946
920000000.0 0.09969191592970396 0.1947719938014628
940000000.0 0.1372365038268408 0.1443541118566184
960000000.0 -0.0167574277573631 -0.15269559500724567
980000000.0 0.0014365938512056423 0.10934193020385385
1000000000.0 -0.07304425747540781 0.017338838670087727
1020000000.0 -0.04047998806174079 -0.06450970265947698
1040000000.0 0.07184025220599426 0.06691673634023537
1060000000.0 -0.0900363342443268 -0.10123069727508159
1080000000.0 -0.17495973136228343 -0.058432426438401186
1100000000.0 0.029907224307360876 0.21872294448805937
1120000000.0 0.21864525518727937 -0.15551271423683483
1140000000.0 -0.27216852181916795 -0.06763130132049976
1160000000.0 0.27552214719701035 0.12142821460168393
1180000000.0 0.2823292407434052 0.1758977747640131
1200000000.0 -0.049418310168990676 0.3481107764176865
1220000000.0 -0.3032167784940688 0.17984697618001189
1240000000.0 -0.14429173195028447 -0.32763078583480987
1260000000.0 -0.2639611074784339 -0.2428076655574414
1280000000.0 0.3609705205549135 -0.053768366533688716
1300000000.0 -0.0712960550279339 -0.37403026851836324
1320000000.0 0.36708734767372503 -0.04205982594322885
1340000000.0 -0.37982504197657335 -0.0026057352841293165
1360000000.0 -0.07956167518902603 -0.37320551367844834
1380000000.0 -0.10397613852390072 0.3686134120118893
1400000000.0 0.23174351309635918 -0.3137861372969425
1420000000.0 -0.3688475107919895 -0.11375976683194527
1440000000.0 -0.09435490002935558 -0.3642823433239027
1460000000.0 -0.16063198564483994 -0.3402719879447209
1480000000.0 -0.37348119413827335 0.04361510074671417
1500000000.0 -0.37511481208810965 0.04867125510353024
1520000000.0 0.35106343847978977 -0.13442607865874973
1540000000.0 -0.06257545733770348 0.35746909406481553
1560000000.0 -0.33354308428720025 0.008158688396078142
1580000000.0 -0.24005189069387117 0.17557527690557362
1600000000.0 -0.24180960031386647 0.0839651793044503
1620000000.0 -0.21003098352210356 -0.03770655013521837
1640000000.0 0.1251606145809389 0.1292024876416733
1660000000.0 -0.010954051055346515 0.14862388142750652
1680000000.0 0.05999910237510193 0.10047386284232887
1700000000.0 -0.0949543437259191 0.009645849957450249
1720000000.0 0.04150618381713471 -0.07216855619305644
1740000000.0 -0.04879790234258073 0.043583290240146656
1760000000.0 -0.032159202496461155 0.08737520619781376
1780000000.0 0.0601648642486446 0.08103537166177056
1800000000.0 0.12494447083672881 0.0003325572543005184
1820000000.0 0.14886804394899997 0.05166337197039513
1840000000.0 0.18292013540709737 -0.03379781909319784
1860000000.0 0.1298926879225998 -0.16800872143856838
1880000000.0 -0.21170854453975627 -0.1277164883499503
1900000000.0 -0.25072931006418026 -0.08750154236451552
1920000000.0 0.2507994988263062 0.153139634240812
1940000000.0 -0.19029762725416038 -0.23601197106617736
1960000000.0 0.30519286422132913 0.06401684322906666
1980000000.0 -0.3075369950461405 0.07189382777808459
2000000000.0 -0.06862816580602889 -0.3169395823230042
2020000000.0 -0.019434862314504107 -0.3202400073601302
2040000000.0 0.29631997667125504 -0.12103079006961516
2060000000.0 0.27059478899843464 0.17672292276257923
2080000000.0 0.2963708101845086 0.11902388604235577
2100000000.0 -0.029746981651720957 -0.31171135218228563
2120000000.0 -0.19537659377794941 0.242696546901865
2140000000.0 0.1973457646512339 -0.2416898544793661
2160000000.0 -0.3066525277018631 0.04474511379179044
2180000000.0 0.01936524684115258 0.3039937390875306
2200000000.0 0.16905006382852636 0.24332769828259987
2220000000.0 0.0007341835755854585 0.28597759490634495
2240000000.0 -0.26220274340510236 -0.09280930521205417
2260000000.0 0.07454934915182625 0.26469877184520296
2280000000.0 -0.04194893093850152 0.27063684310083097
2300000000.0 -0.24985672718031077 -0.11685394609498506
2320000000.0 -0.2728248553884628 -0.004200873630172963
2340000000.0 -0.19489917745887925 -0.17050364433440407
2360000000.0 0.22132321698220142 -0.12502383207948006
2380000000.0 0.08638189923975023 0.2444113576396375
2400000000.0 0.0837656430424137 0.2512593548633316
2420000000.0 -0.24208867860109246 0.1544793871990037
2440000000.0 0.3106349347152296 -0.0072323589852818825
2460000000.0 -0.20511513674732956 -0.2718588016315748
2480000000.0 -0.1690336583908184 0.3286907218685134
2500000000.0 0.17565420044311403 -0.3632281043542948
2520000000.0 0.01207888960509165 0.44545269120190756
2540000000.0 -0.2641687278429909 -0.40100858306605025
2560000000.0 0.4902418847399925 0.16321024955695054
2580000000.0 -0.5458830383231222 0.051540871101901156
2600000000.0 0.4978677321210356 -0.2897750403623698
2620000000.0 -0.4788144161235666 0.3562307675534867
2640000000.0 0.33547790641151043 -0.5198665704991989
2660000000.0 0.22639876801033343 0.5937316969874122
2680000000.0 -0.6442928396469897 0.03544605475424907
2700000000.0 -0.17341069638011616 -0.6316684054327246
2720000000.0 0.19572937600028403 -0.6336767879923654
2740000000.0 0.3529220220615731 -0.5654776226971292
2760000000.0 0.4058476899856685 -0.5309725421430795
2780000000.0 0.4295529372743271 0.5081870193090742
2800000000.0 0.2706321801896502 0.5991629774414605
2820000000.0 -0.1913661652409873 0.6185082742749118
2840000000.0 -0.6283384258385301 -0.07148253437942181
2860000000.0 0.5414343903507137 -0.2988479981868259
2880000000.0 -0.53570279143209 0.2673082429285453
2900000000.0 0.4553712632179587 0.35200776815215007
2920000000.0 0.3706879403272304 -0.41194058524971966
2940000000.0 -0.22154803905148254 -0.47803562289278534
2960000000.0 -0.16784911130890245 -0.4704215021109759
2980000000.0 -0.3291630293342814 -0.34451853597229504
3000000000.0 -0.37894109533170267 -0.2538447106223767
3020000000.0 -0.43118622686937524 -0.005961248742994523
3040000000.0 -0.19814102317281854 0.37119684947498055
3060000000.0 0.38482670684255127 -0.1103664034310443
3080000000.0 -0.18272856722169506 -0.34216208493583805
3100000000.0 0.017910063001961966 0.37512216986538954
3120000000.0 0.26491063010244686 -0.2640517277959733
3140000000.0 -0.05918357576151034 0.35998625465039635
3160000000.0 0.11142705755683643 -0.3483080069789917
3180000000.0 0.19688878103767085 0.3046892428087591
3200000000.0 0.05080529341012426 -0.3526701066684042
3220000000.0 -0.2385263520828078 0.2530054697742007
3240000000.0 -0.21687105995254802 0.2610236887844685
3260000000.0 0.2849623661440493 0.15242727936116998
3280000000.0 -0.032918542749593736 0.3029829989166004
3300000000.0 0.14150491448619 0.2537412544433295
3320000000.0 -0.07483637594544108 0.2517100088179256
3340000000.0 -0.004305367614165043 -0.2344644937498594
3360000000.0 -0.01999342521068037 0.21157384808701754
3380000000.0 -0.1916426223971225 -0.01363160961185195
3400000000.0 0.15256379116564456 0.07345922386710706
3420000000.0 0.03709574884922022 0.1517719168075033
3440000000.0 0.09778241498518526 0.09693779899034242
3460000000.0 -0.04356989123145017 0.10225685347976597
3480000000.0 0.09792729995856914 0.03567678191605867
3500000000.0 -0.10512809526163733 0.002569037714992154
3520000000.0 0.08877649986094874 0.020639968394222382
3540000000.0 0.09557810339840718 -0.029886182643968577
3560000000.0 -0.10497635034404293 0.001871632972368622
3580000000.0 0.09450005708068296 0.05081966200052393
3600000000.0 0.11097625753428533 0.013326512232621398
3620000000.0 -0.09472581684734313 0.08232344538586032
3640000000.0 0.07655515272914283 0.10557230049912145
3660000000.0 -0.10983114411909373 0.09055067053912907
3680000000.0 0.0849526201335803 0.11848840535376025
3700000000.0 -0.038476442320491876 0.1271475185176439
3720000000.0 0.10171424130821025 -0.06042959960553025
3740000000.0 -0.10012973083513611 -0.007971204407850872
3760000000.0 -0.07598285894659601 0.026503560898622013
3780000000.0 -0.036915758278177516 -0.0507176280402192
3800000000.0 -0.023155363767803645 0.027361699162213773
3820000000.0 0.003979603186656925 0.003439358147446387
3840000000.0 -0.03585026433055088 -0.013065096881949087
3860000000.0 -0.0700882694987613 -0.004881500783799681
3880000000.0 0.07596635073563611 -0.0532115851270641
3900000000.0 0.051376471764684926 -0.09787959660645759
3920000000.0 -0.0048738413440776885 -0.1241229979321698
3940000000.0 -0.03767847758204788 -0.12638900199207817
3960000000.0 -0.11499379347671257 -0.06775941405321788
3980000000.0 0.036214781905360226 0.12404552418015402
4000000000.0 0.052674891342459174 0.09074635520544846
