!Created with skrf (http://scikit-rf.org).
# Hz S RI R 50.0 
!freq ReS11 ImS11
400000000.0 -0.81375401660885 0.022689173899949313
420000000.0 0.5371745132567479 -0.5384664139239157
440000000.0 0.7112347015798484 -0.028555780624384602
460000000.0 -0.4822933708907314 -0.42743617588827926
480000000.0 0.5628628082189883 -0.08154139891978208
500000000.0 0.5553774383405692 -0.030935601039570854
520000000.0 0.0639620060682648 0.4664654232188251
540000000.0 0.35388410089929884 -0.22650743485855887
560000000.0 -0.0719230214296353 0.3992349432536961
580000000.0 -0.2756379692991894 -0.27929850456646477
600000000.0 -0.02873488840727956 -0.4022073081429334
620000000.0 -0.40351383540729313 0.03299904774312712
640000000.0 -0.24938101626806886 0.3183768448864958
660000000.0 0.161136228067515 0.35791844516532784
680000000.0 0.3746043318948091 0.03262154175529299
700000000.0 -0.36296118189857884 0.02305290587349977
720000000.0 0.11872005898618596 0.32812367238079637
740000000.0 0.2907612673592898 0.15900070366005026
760000000.0 -0.26423965285737133 -0.09603901137984906
780000000.0 -0.05861101143514552 0.28473932104747285
800000000.0 0.08110508249188686 -0.23793001238685677
820000000.0 0.24144101419921293 -0.023477505178055264
840000000.0 -0.1259998801383957 0.1763871645544725
860000000.0 -0.09646804625451078 -0.17813181346629237
880000000.0 0.16844376943153844 0.09749424296539771
900000000.0 0.06018756524589654 0.14590586353040394
920000000.0 0.09419740450512841 0.08979416455617209
940000000.0 -0.042074250486394564 0.11061354533521507
960000000.0 0.06534010343329112 0.010221741389600364
980000000.0 -0.04041739001422259 0.04777446346918746
1000000000.0 0.011710849376262057 -0.05351660124557118
1020000000.0 -0.005571495994434631 0.03278264330851567
1040000000.0 0.028819052929637132 0.05016036075253675
1060000000.0 -0.09992754565350408 0.004181024312791239
1080000000.0 0.012300479430214258 0.12754727494660914
1100000000.0 -0.18504416664724024 0.049677932663526644
1120000000.0 -0.04576616188311632 -0.21162182367874285
1140000000.0 0.06579698551753896 0.23597659632441623
1160000000.0 0.2713862939575976 0.06364383244601136
1180000000.0 -0.07385299003130166 0.27426844694092745
1200000000.0 0.2185984813181711 -0.20913177273876143
1220000000.0 0.2874558464327052 0.15083060563837722
1240000000.0 -0.06266117719740392 0.3385411169893719
1260000000.0 0.2557380476987974 -0.22008957393064402
1280000000.0 0.31756175456116076 0.1171247177940438
1300000000.0 0.34754856201995915 -0.03650989295863774
1320000000.0 0.11457726720232178 0.34131906192352474
1340000000.0 -0.17117639252970057 -0.32342170598231584
1360000000.0 0.14170825570372703 -0.3421788942064463
1380000000.0 -0.359569553948143 0.08849972949423413
1400000000.0 -0.11711222724495743 0.361386460622417
1420000000.0 0.36952010170905136 0.039493147543424895
1440000000.0 0.022724328712052346 -0.37715720634909394
1460000000.0 -0.3704010877929739 0.0011207520778459643
1480000000.0 0.2091653348024448 0.2964796468377452
1500000000.0 0.32606880354470186 0.04102084262411342
1520000000.0 -0.020710915089423236 -0.31348886802684295
1540000000.0 -0.28122806603664957 0.011348078502495983
1560000000.0 -0.06233185491829239 0.2547268445123252
1580000000.0 -0.18035655397150535 -0.12485902072468162
1600000000.0 -0.10238068496646918 0.17156506540452837
1620000000.0 -0.1561103795829814 -0.05073664293187434
1640000000.0 -0.11513365289874238 -0.07523572214879048
1660000000.0 0.04725166815077039 -0.1026759741041669
1680000000.0 -0.08225141609268725 -0.05456866976160124
1700000000.0 0.06790377175456642 0.040365427806620446
1720000000.0 0.04082547058417098 -0.058552063793230455
1740000000.0 0.06367795523024986 0.019086688637049112
1760000000.0 0.015255049480241513 -0.07601946422731773
1780000000.0 0.10499581781643968 0.03293740206661439
1800000000.0 -0.01929574643076181 -0.1393705079231754
1820000000.0 0.06625761210372405 -0.15040384383348454
1840000000.0 0.031053048606049332 -0.20463026829825717
1860000000.0 0.08928423347184347 0.22280956102936972
1880000000.0 0.24759451429784063 0.09752776596164749
1900000000.0 -0.28141336363333963 -0.08430251938139421
1920000000.0 0.28544995087607866 0.07461428906597967
1940000000.0 0.2251176986423243 -0.21741212483204367
1960000000.0 -0.29022191634780486 0.12180435710726582
1980000000.0 0.31829564536398647 -0.05716348779504488
2000000000.0 0.1539145068892085 0.2815323956631104
2020000000.0 0.034514584002186946 0.31442461315107584
2040000000.0 0.10480828793314019 -0.2874132882759933
2060000000.0 0.2873874579374519 -0.12687082209426645
2080000000.0 -0.25525829613814943 -0.18396297181637203
2100000000.0 0.1516513347836909 0.25937930432892886
2120000000.0 0.11821759369789829 -0.27319911142189074
2140000000.0 0.06612486930045852 0.2875042275591812
2160000000.0 0.16930381839553518 -0.21273449694865765
2180000000.0 0.052967749721255 -0.2728999895175496
2200000000.0 -0.246923500373898 -0.09515419503985892
2220000000.0 0.055243597181002725 -0.2524895774939736
2240000000.0 0.03160207061423748 -0.2447626130870817
2260000000.0 0.2013309562580812 -0.13586825029363633
2280000000.0 0.1552667559560615 0.14871545833271724
2300000000.0 -0.1865693213027431 -0.0770811619517503
2320000000.0 0.17790413227093285 -0.06791445931582159
2340000000.0 -0.10736881990857032 -0.1366170555909407
2360000000.0 -0.1379735598583456 0.09792642570230875
2380000000.0 0.019279680052178 0.17676284986130095
2400000000.0 -0.18644365193435908 -0.019368896395818107
2420000000.0 0.034383997400895025 0.20214337387497705
2440000000.0 -0.2007878769984977 -0.10947601699317745
2460000000.0 -0.039297768316973083 -0.2507149680600031
2480000000.0 0.13731722190416035 0.24688300153324727
2500000000.0 0.29588340030534777 0.10491397648521641
2520000000.0 0.09805214747640909 0.32649541166801876
2540000000.0 0.09089712470702525 0.36353034376749693
2560000000.0 -0.35687430602741665 0.17943985092060546
2580000000.0 -0.22474828906142877 -0.35247021081399194
2600000000.0 0.432280905443567 -0.07270133731995014
2620000000.0 -0.03341093515102872 0.45318229621242817
2640000000.0 -0.46127715054711915 -0.016019057007205153
2660000000.0 -0.0023795292741006996 -0.46909534316410356
2680000000.0 0.3677546260252928 -0.29620974039576325
2700000000.0 0.45124671962652846 -0.15085051201944522
2720000000.0 0.4105625801559865 -0.24913214503276251
2740000000.0 0.3339355970186941 -0.3508316301524563
2760000000.0 0.29096293154376873 -0.3946029745862875
2780000000.0 0.24904262874067107 0.42745856173754865
2800000000.0 -0.08217368712586354 0.4926765772806433
2820000000.0 -0.5037465607246525 0.011980137477171993
2840000000.0 0.348088834865304 -0.36880522271122934
2860000000.0 -0.33197166212544366 0.38523855122448125
2880000000.0 0.5071564973651088 -0.05320915300414352
2900000000.0 -0.24171093206438685 -0.44423699795174443
2920000000.0 -0.40864387314581807 0.28541246051894503
2940000000.0 0.1743059324574199 0.45832335426834875
2960000000.0 0.43700324575542493 -0.1950745925103371
2980000000.0 -0.2043221893465435 -0.4167328323244815
3000000000.0 -0.3563720979860006 0.2709983288754912
3020000000.0 0.41825838589687214 0.10931163468363057
3040000000.0 -0.18353948424427705 -0.3752111134642151
3060000000.0 0.06784379558489982 0.40137983896957075
3080000000.0 -0.007270876204865289 -0.3945086345154907
3100000000.0 -0.3281498373122806 -0.1996224072629128
3120000000.0 0.1548051906676275 0.34890650094986864
3140000000.0 0.038914347580069064 -0.37653148958665417
3160000000.0 -0.3765100236410378 0.04332461937349358
3180000000.0 0.20304251154535596 0.3193477085924623
3200000000.0 0.36598889374943167 0.07439374700593643
3220000000.0 0.3665800393656857 0.03820080152592687
3240000000.0 0.3423486041357036 -0.13422987901225997
3260000000.0 0.3510355429188504 0.04773756618469077
3280000000.0 -0.029537012906468634 0.3367436295670288
3300000000.0 -0.2762202995923665 0.15878698052275575
3320000000.0 -0.13289014225568113 -0.2719088228862938
3340000000.0 0.13464742271024274 0.2521419126020583
3360000000.0 -0.2363291546182165 -0.11433031350368834
3380000000.0 0.10001635653710252 -0.21843856208373533
3400000000.0 -0.0030399157959024262 0.2230791283676553
3420000000.0 -0.04001682454975053 -0.2079117712229774
3440000000.0 0.07680665196135342 0.18268717067038848
3460000000.0 0.02316606607419 0.18594750252614806
3480000000.0 0.1722845299826005 0.049617655197225004
3500000000.0 -0.17178705439282876 -0.017928346483716166
3520000000.0 0.11170169315810603 0.12971602974073831
3540000000.0 0.10683452553145156 -0.1290573699738992
3560000000.0 0.04263150506458687 -0.16609449740186966
3580000000.0 0.17257059777686568 0.03896942693130714
3600000000.0 0.1641792779005162 -0.07592478069106084
3620000000.0 -0.043465464811445205 0.18176041873837143
3640000000.0 -0.19389675776174403 0.03582409600426547
3660000000.0 0.20300005796962303 -0.033638479059294235
3680000000.0 -0.032767792891124324 0.19751631709657974
3700000000.0 0.19614724100074832 -0.03287610880138154
3720000000.0 -0.0214069727774657 -0.18989526169830406
3740000000.0 0.18167267035887177 -0.022426559569401143
3760000000.0 0.08172156927222346 -0.1541938090869746
3780000000.0 0.16376409850591067 -0.024560838462244435
3800000000.0 0.09610372727383162 0.11551048687486967
3820000000.0 -0.13117607788764704 -0.028655694229722067
3840000000.0 0.10172573255110608 0.05416207142818423
3860000000.0 0.08498617954017111 0.045625955938893445
3880000000.0 -0.0771201812660512 -0.02765220294351567
3900000000.0 0.07432563896916163 0.021082950756778712
3920000000.0 -0.04872739558822513 0.05203500520852871
3940000000.0 -0.008944223661742903 0.05967706140361253
3960000000.0 0.034243357525773704 -0.042386995299810125
3980000000.0 0.020045844328697243 -0.037539942005081185
4000000000.0 -0.02916612686141321 -0.021705297356225117
