!Created with skrf (http://scikit-rf.org).
# Hz S RI R 50.0 
!freq ReS11 ImS11
400000000.0 -0.8140444198354018 0.003806822118033534
420000000.0 0.5123345914164954 -0.5626538988580992
440000000.0 0.7093672664084745 -0.04580342081697912
460000000.0 -0.4477670611890474 -0.46345356436475965
480000000.0 0.565938821406773 -0.06624757929763998
500000000.0 0.5526599487664372 -0.0658357570582892
520000000.0 0.0766805141906306 0.4643805013478102
540000000.0 0.37885577863775666 -0.18045621306002596
560000000.0 -0.08548194251220063 0.3968769996604256
580000000.0 -0.3013337628626161 -0.2529234624591074
600000000.0 -0.05212414008394643 -0.4002274680859035
620000000.0 -0.39820620257732764 0.07038696403569968
640000000.0 -0.2756047681279902 0.29501221778696174
660000000.0 0.14291116375192733 0.3663607347026269
680000000.0 0.3728447399100138 0.04608675489407384
700000000.0 -0.36348653455843194 0.02239808108963527
720000000.0 0.13047716380904117 0.3237918677823096
740000000.0 0.297612622346558 0.1449172697831232
760000000.0 -0.25692582732194336 -0.11433036582393259
780000000.0 -0.02036697140557599 0.2900352153085157
800000000.0 0.092179989263218 -0.2340333418654195
820000000.0 0.24032820870158436 -0.03101768983359898
840000000.0 -0.1366213328600824 0.1681864620657143
860000000.0 -0.09595080738344412 -0.1778021991521874
880000000.0 0.1646881147636435 0.10484907963211894
900000000.0 0.07883535907249972 0.13723861271786658
920000000.0 0.061180696140370354 0.11427519728331473
940000000.0 -0.07001615599521327 0.09563665286247534
960000000.0 0.06311303012123606 0.018968946362996897
980000000.0 -0.06060844579914378 0.015505266582105643
1000000000.0 0.0074303535914977785 -0.054558149628273746
1020000000.0 0.008522808598334475 0.032295001914276734
1040000000.0 0.010394803502563171 0.056590902585729005
1060000000.0 -0.09957318871735797 -0.003793106245606165
1080000000.0 0.03729864746090531 0.12246522778552164
1100000000.0 -0.18204629575753858 0.05975603305242866
1120000000.0 -0.07872796316177763 -0.20173724843615498
1140000000.0 0.07257952959190168 0.2339413428053512
1160000000.0 0.2749262128765072 0.04664883323334779
1180000000.0 -0.06514269733292237 0.27627298606815154
1200000000.0 0.20951609124871068 -0.2178276318767454
1220000000.0 0.279901785720654 0.16465758796432897
1240000000.0 -0.08233887379202624 0.334102532815108
1260000000.0 0.24644972611482246 -0.23069527069612977
1280000000.0 0.32821129744264954 0.08268824564801569
1300000000.0 0.34919563073810905 -0.01360765876540891
1320000000.0 0.137222908640639 0.3328381555975536
1340000000.0 -0.15168479495236004 -0.33319485556618866
1360000000.0 0.10543429400111677 -0.3550604486846043
1380000000.0 -0.3597522709177609 0.08598386585312123
1400000000.0 -0.11050914521344163 0.36359682310172986
1420000000.0 0.3711309972850281 0.019021845795468856
1440000000.0 0.045270669892061396 -0.37460693823005403
1460000000.0 -0.3703615249341192 0.018216196846503142
1480000000.0 0.2536579462167716 0.2591479014595079
1500000000.0 0.3256438884588898 0.043543735944982453
1520000000.0 -0.009346127028088123 -0.3142734852914306
1540000000.0 -0.28022003194319667 0.018512487930810548
1560000000.0 -0.0868661873875446 0.2474103908186797
1580000000.0 -0.18854141805814306 -0.11279288569463952
1600000000.0 -0.09529479021536225 0.1753650866465224
1620000000.0 -0.1504864183052445 -0.06555599665507457
1640000000.0 -0.11338023835825259 -0.07812458306491706
1660000000.0 0.042571594360412184 -0.10439237348457751
1680000000.0 -0.07646336433610791 -0.0616428970237738
1700000000.0 0.079409889433006 0.004151552976142161
1720000000.0 0.03579565424992202 -0.06150109112988241
1740000000.0 0.06610839010361041 0.009284801588206775
1760000000.0 0.0036714490308912807 -0.07774411543352602
1780000000.0 0.1089760442105804 0.01355618052216871
1800000000.0 -0.027619079829428368 -0.1381249566875072
1820000000.0 0.11378021577215205 -0.11761241062910542
1840000000.0 0.04196376623792044 -0.20287295048143208
1860000000.0 0.07398739339671938 0.22751296119755215
1880000000.0 0.2613689124069677 0.04971574797239878
1900000000.0 -0.2874907343352902 -0.05901464448741042
1920000000.0 0.2861023749894271 0.07331419720915429
1940000000.0 0.2217339884828258 -0.2208050585562665
1960000000.0 -0.28903854017597064 0.12467970334263505
1980000000.0 0.30522161626248473 -0.10507303878857757
2000000000.0 0.18467225924403233 0.26238617041138557
2020000000.0 0.03411597596928429 0.31491535373639534
2040000000.0 0.1519431198224607 -0.2657320435570616
2060000000.0 0.2896211361435657 -0.12092343141756912
2080000000.0 -0.24414807880534467 -0.19785898005685082
2100000000.0 0.16802632555873392 0.24951810240567546
2120000000.0 0.1189235440927044 -0.2724309022961457
2140000000.0 0.05844071430421045 0.28974767696507076
2160000000.0 0.18055423401979645 -0.20343196188360843
2180000000.0 0.10086273976960312 -0.25895726714351985
2200000000.0 -0.25489558987519395 -0.07067245215396659
2220000000.0 0.09438659571907206 -0.23929371421848158
2240000000.0 0.06418551581840742 -0.2382572543639252
2260000000.0 0.19432473809487494 -0.14625642485962542
2280000000.0 0.16491930504326793 0.13844252951754496
2300000000.0 -0.19129927057567395 -0.06434477850798902
2320000000.0 0.18142402128326154 -0.057244972387496
2340000000.0 -0.0779707804591726 -0.15520244797516602
2360000000.0 -0.1251134552468284 0.1142633244120389
2380000000.0 0.03143246883074253 0.1753121260120067
2400000000.0 -0.18657858435914024 -0.022093028670257517
2420000000.0 0.0273396525367318 0.20296051373215154
2440000000.0 -0.1992082430948857 -0.11253111453499996
2460000000.0 -0.03346334943851081 -0.25117211773837583
2480000000.0 0.14441720835728158 0.2434083070693406
2500000000.0 0.2958718892228003 0.1021549945749279
2520000000.0 0.0779931136847587 0.3320352066892841
2540000000.0 0.11602348299204514 0.356718075766975
2560000000.0 -0.34983199477049565 0.1932372996322612
2580000000.0 -0.23554961898646679 -0.34546892294782255
2600000000.0 0.4295619471725996 -0.0865809727093592
2620000000.0 0.03164772957200718 0.4526407026964511
2640000000.0 -0.45868998594786764 -0.05296349792548058
2660000000.0 -0.007242464992334109 -0.4691241960433587
2680000000.0 0.36224072050368383 -0.3033042263199241
2700000000.0 0.44726984276498216 -0.1618043077322224
2720000000.0 0.4071313825282799 -0.2544612506930606
2740000000.0 0.38822618688564997 -0.28961584068220264
2760000000.0 0.3368798442977795 -0.35550352582102523
2780000000.0 0.24787295218383146 0.42803791052782164
2800000000.0 -0.0853173119807293 0.4921977309845035
2820000000.0 -0.503648283404382 0.015387016075693236
2840000000.0 0.2986814667390002 -0.4098909643800731
2860000000.0 -0.3058173506070195 0.40749247458738447
2880000000.0 0.5062874356404007 -0.059529114735642166
2900000000.0 -0.24827765471003277 -0.44062259709059115
2920000000.0 -0.4192546657244934 0.26954673832060394
2940000000.0 0.17012274700859256 0.45982643101455284
2960000000.0 0.4505085604403194 -0.1618180461949632
2980000000.0 -0.2231866957607632 -0.40695514606743777
3000000000.0 -0.36068980044208554 0.26558100269023377
3020000000.0 0.424934282698284 0.07944619437693262
3040000000.0 -0.12340690174155461 -0.3992306773552024
3060000000.0 0.09782468306488439 0.3948853590606662
3080000000.0 -0.027987533352344184 -0.39359794864098296
3100000000.0 -0.277763928447726 -0.26484154326589515
3120000000.0 0.2098371986077029 0.31854512663719076
3140000000.0 0.024048146064760415 -0.37791681837955066
3160000000.0 -0.3711270794287083 0.07610706963177204
3180000000.0 0.22589950913727488 0.3035463590289492
3200000000.0 0.36803617849358106 0.06474873780688428
3220000000.0 0.36816258609085284 0.019710598371747698
3240000000.0 0.34074406682390934 -0.1382754009815186
3260000000.0 0.3505965303497674 0.052503603846776756
3280000000.0 -0.008279335133606071 0.33827740863473155
3300000000.0 -0.2745323572710932 0.16222999857364706
3320000000.0 -0.14110660411122375 -0.2679975622121159
3340000000.0 0.13846585194751473 0.25011783049846825
3360000000.0 -0.22713866383576023 -0.1320011678597681
3380000000.0 0.1185444361674346 -0.20963469945475885
3400000000.0 0.014068767706961766 0.2230535981849633
3420000000.0 -0.026742563512074012 -0.2098274025112577
3440000000.0 0.05723928299985993 0.19023957836117816
3460000000.0 0.0019946345239352462 0.18731412911189715
3480000000.0 0.14538991209238117 0.103915608842883
3500000000.0 -0.17190540462612033 -0.015396326085457627
3520000000.0 0.11178378753836485 0.1293063979043481
3540000000.0 0.10785842901715077 -0.128078090005166
3560000000.0 0.04621458412689128 -0.16525149309102172
3580000000.0 0.17307139696064108 0.03568977635361421
3600000000.0 0.1714308070550469 -0.06031609522746787
3620000000.0 -0.049853627152916094 0.18065085261785271
3640000000.0 -0.1946226837718586 0.03193583863988734
3660000000.0 0.20452975393207384 -0.021730291427584772
3680000000.0 -0.033420320381690884 0.19723288781103865
3700000000.0 0.19274245694477743 -0.051787658159717254
3720000000.0 -0.039936460625401286 -0.18642066533276536
3740000000.0 0.1827238960248151 -0.0028568280685123282
3760000000.0 0.09011323114279 -0.14960411703746768
3780000000.0 0.16370011130873133 -0.025588881727382617
3800000000.0 0.07852418105276632 0.12839415186959943
3820000000.0 -0.13435465653507944 0.009180228551453696
3840000000.0 0.08347711265514128 0.07924165057303534
3860000000.0 0.07507360197357112 0.06093335066872844
3880000000.0 -0.07883141444351882 -0.023036794145360532
3900000000.0 0.07430072101689005 0.021105287135440864
3920000000.0 -0.03679817316238779 0.061162339139269856
3940000000.0 -0.01656315392686938 0.058335891048419936
3960000000.0 0.033575685393640364 -0.043389732987497945
3980000000.0 0.03823022698197494 0.02054534075600155
4000000000.0 0.03525044664512455 0.0076799329404515825
