!Created with skrf (http://scikit-rf.org).
# Hz S RI R 50.0 
!freq ReS11 ImS11
400000000.0 -0.81181047039093 -0.04761735103211422
420000000.0 0.5522464394483502 -0.5255141592255576
440000000.0 0.6961279260734796 -0.14814630463879058
460000000.0 -0.5148387296010563 -0.3828246926411737
480000000.0 0.5504602845361387 0.13798928911982733
500000000.0 0.5599681859347506 0.008605087704183353
520000000.0 0.14713010948779498 0.44775777462349897
540000000.0 0.24093613307638986 -0.3433984899176974
560000000.0 -0.15812124165386618 0.3708262008194476
580000000.0 -0.36114336293482197 -0.1555631907812066
600000000.0 0.23450636456266527 -0.32812741893722747
620000000.0 -0.40607857207183773 -0.004428470363618364
640000000.0 -0.11814383676313506 0.3857482380498013
660000000.0 0.21802170340984875 0.32455354636101763
680000000.0 0.31213585376887004 0.20634027269603133
700000000.0 -0.34924221291560587 0.10267340798569202
720000000.0 0.05155608704300826 0.34454309362430346
740000000.0 0.31293702244178895 0.09968260534412782
760000000.0 -0.24521262323300697 -0.13924649566593578
780000000.0 0.017812782212188513 0.29079802253448817
800000000.0 0.11275292208294833 -0.22325370744571654
820000000.0 0.24491315566191593 -0.01434061998645773
840000000.0 -0.16206012629628722 0.14380821731885648
860000000.0 -0.17162857308675428 -0.10443388932505265
880000000.0 0.18371124540861822 0.06729452734714386
900000000.0 0.05175342102328931 0.15086039914119198
920000000.0 0.12798626775197927 0.013374072646252183
940000000.0 -0.07321090300032956 0.09122195273064436
960000000.0 0.06169813606810478 0.027482495920920696
980000000.0 -0.06075443902536714 -0.0158014666206629
1000000000.0 -0.05143988641876234 0.023072736307375857
1020000000.0 -0.006873873116913333 0.030504695433286464
1040000000.0 0.045370669763829766 0.03831672916865231
1060000000.0 -0.09589106222338387 -0.03216722916304599
1080000000.0 0.03195119769291707 0.1254731590525986
1100000000.0 -0.1923205407330034 0.006697562071345277
1120000000.0 -0.11379572097729772 -0.1842974333017428
1140000000.0 0.07121512031759147 0.23583240646755566
1160000000.0 0.27872434110860483 0.004241163726359984
1180000000.0 -0.08997322356633869 0.2705105343407345
1200000000.0 0.23247478424497126 -0.19251582648709425
1220000000.0 0.3010066387853398 0.12054420841862512
1240000000.0 -0.01811388551493219 0.34404155746183906
1260000000.0 0.20734005640806175 -0.26487307256606696
1280000000.0 0.3345887943364208 0.055901359076312385
1300000000.0 0.34799163399212996 0.03659057731905192
1320000000.0 0.1102752466381025 0.34211012307481764
1340000000.0 -0.2048250648032452 -0.30272276073199345
1360000000.0 0.048340800034529785 -0.36736291327699117
1380000000.0 -0.36915086699252386 0.02196313260023866
1400000000.0 -0.14627580026896972 0.350012453507095
1420000000.0 0.36645790036340853 -0.0696830347465195
1440000000.0 0.04185991746640315 -0.37521917970663793
1460000000.0 -0.37217176402321794 -0.0017301365269098306
1480000000.0 0.2305201341138619 0.27937778111730566
1500000000.0 0.3076826057491858 0.11410818039707271
1520000000.0 -0.013575188435179108 -0.31296403519550564
1540000000.0 -0.2806806734442588 0.030934099677825934
1560000000.0 -0.015779335450549093 0.26056557477492415
1580000000.0 -0.14168300525633154 -0.16908527732509518
1600000000.0 0.006235227516499702 0.19960172392074774
1620000000.0 -0.12713922280571982 -0.1024386128888606
1640000000.0 -0.07177587615923117 -0.11967977385151099
1660000000.0 0.04857938049960835 -0.10104353917562549
1680000000.0 -0.09045277318556888 -0.03858607236825073
1700000000.0 0.007436820869617074 0.07833271645617068
1720000000.0 0.010457080459550839 -0.07143311409632944
1740000000.0 0.06468991565933092 0.008716550586252113
1760000000.0 -0.044648378468195485 -0.06582914275585028
1780000000.0 0.08314508500846375 0.06879210206076705
1800000000.0 0.025528318706695224 -0.1375639678838241
1820000000.0 0.06145752882678496 -0.15263180693061915
1840000000.0 0.05960179282583934 -0.19901095194182647
1860000000.0 0.038936335202455104 0.23507668363693227
1880000000.0 0.26179424827368514 0.04869542390447039
1900000000.0 -0.2905653912297347 -0.042652010280502174
1920000000.0 0.27000810693516747 0.11570285456278606
1940000000.0 0.19139870407946288 -0.24829901983540126
1960000000.0 -0.28030909775967283 0.14132394599327092
1980000000.0 0.30213223066566336 -0.11493261594660345
2000000000.0 0.15356012810580416 0.28251341227495946
2020000000.0 -0.0624394251819108 0.3092503581842439
2040000000.0 0.05747653838486566 -0.3006059106993309
2060000000.0 0.2980127559586638 -0.10325023625580418
2080000000.0 -0.2694742560167518 -0.15996958026932087
2100000000.0 0.15351849193109096 0.25913387169469443
2120000000.0 0.06261804068372386 -0.29125261797059065
2140000000.0 0.09446626316326974 0.2800231900944799
2160000000.0 0.1491814742069609 -0.22681055408940998
2180000000.0 0.032377107320277515 -0.2760660311792393
2200000000.0 -0.24749578470910094 -0.09418542686671481
2220000000.0 0.0532425760933 -0.2516417594450383
2240000000.0 0.10678634506370649 -0.22202950973466343
2260000000.0 0.2013761183091791 -0.13664211355458714
2280000000.0 0.14266302654493165 0.16366443661824276
2300000000.0 -0.19172224525315673 -0.06183268256379808
2320000000.0 0.17860126251237363 -0.06495730233988127
2340000000.0 -0.04298709341223148 -0.1685693626996925
2360000000.0 -0.12868038459581188 0.11138749514870379
2380000000.0 0.08013845937807006 0.1578288505793059
2400000000.0 -0.1748222435781546 -0.06942904682580112
2420000000.0 0.01673297492437142 0.2038187314321651
2440000000.0 -0.19041909996734005 -0.12607942994798985
2460000000.0 -0.0508394797297878 -0.24957815601194197
2480000000.0 0.1788289977145701 0.21843831573725475
2500000000.0 0.2987185604646685 0.09249395703225774
2520000000.0 0.06317006880881794 0.3355472379632472
2540000000.0 0.0870098145371021 0.36549484284038586
2560000000.0 -0.3511464783857291 0.19045064405042592
2580000000.0 -0.18574603350116484 -0.3745272821525673
2600000000.0 0.4329989643488973 -0.065481666911939
2620000000.0 -0.024286022874572617 0.4531821715443501
2640000000.0 -0.4569190145758468 -0.06824043358261174
2660000000.0 -0.023098766949223932 -0.46832061244705486
2680000000.0 0.3488465071512194 -0.31778303916073525
2700000000.0 0.4542195862199159 -0.1412328605564474
2720000000.0 0.419791221886602 -0.23309489504030614
2740000000.0 0.3241525998315556 -0.35994170539069914
2760000000.0 0.28777507968485294 -0.3966848102244369
2780000000.0 0.23719144669879177 0.4340737805860431
2800000000.0 -0.12605978009889207 0.4832053060363538
2820000000.0 -0.5034666558753438 -0.01601487607334696
2840000000.0 0.31913151733913003 -0.39386030857192483
2860000000.0 -0.32192389663416243 0.39404651386121015
2880000000.0 0.5052036921400851 -0.06596010466115505
2900000000.0 -0.245981640753523 -0.4415697405194044
2920000000.0 -0.41685867202358634 0.27382776380595186
2940000000.0 0.18953826615581038 0.45190711788961213
2960000000.0 0.44741853471048904 -0.169642606604636
2980000000.0 -0.20573105692530028 -0.4169418002281482
3000000000.0 -0.3886357869710399 0.22301944419309555
3020000000.0 0.4216553412040145 0.09407414288335544
3040000000.0 -0.043568541516410854 -0.41591392822523
3060000000.0 0.0980658196886318 0.39479085743231307
3080000000.0 0.04205976673556993 -0.3920971821221316
3100000000.0 -0.3273118058416768 -0.20145397310864627
3120000000.0 0.2446953545129391 0.29242169776947285
3140000000.0 0.03202059657441782 -0.37778781991541244
3160000000.0 -0.36900552068620024 0.08397248391869541
3180000000.0 0.2236785306898159 0.30576853230661816
3200000000.0 0.36346013356495344 0.08722683133117283
3220000000.0 0.36708733186054804 0.025164873136649286
3240000000.0 0.34060660506582224 -0.14150028371455806
3260000000.0 0.33668853457686554 0.1141420049334614
3280000000.0 0.05488279168763654 0.33262425496684245
3300000000.0 -0.28083460130796967 0.150511270066651
3320000000.0 -0.11131466515100888 -0.28231319766287444
3340000000.0 0.14932457173830663 0.24380395700610857
3360000000.0 -0.25256310929088555 -0.07163085884932444
3380000000.0 0.15305555617590588 -0.18640405488314002
3400000000.0 -0.02677330925101218 0.2224190232454356
3420000000.0 -0.03639509300506656 -0.208920372350531
3440000000.0 -0.020599148448223577 0.1990974471343355
3460000000.0 0.006963577371581425 0.1870703432833997
3480000000.0 0.1352261220837505 0.11697552471615655
3500000000.0 -0.15547211098677396 -0.07807231704985693
3520000000.0 0.0795900929558623 0.15035870856534128
3540000000.0 0.09235135859100159 -0.13984638406824798
3560000000.0 0.026817493563426043 -0.16928468542890804
3580000000.0 0.16990101949430914 0.04945461915148695
3600000000.0 0.1797829932984812 -0.014149137613778971
3620000000.0 -0.01906688733389316 0.18588669009835312
3640000000.0 -0.19585370578984646 0.019390291342291484
3660000000.0 0.19641046863720055 -0.05835686925259999
3680000000.0 -0.039317918531108595 0.19639612515867666
3700000000.0 0.1729238602742032 -0.09960633746239814
3720000000.0 -0.06675194948410708 -0.17814020302341224
3740000000.0 0.17179712231521643 -0.06641464157239468
3760000000.0 0.11710224115438049 -0.12814498196135732
3780000000.0 0.14643755644868894 -0.07926843758365992
3800000000.0 0.11279713932425661 0.099487362853936
3820000000.0 -0.13502877847295103 0.011605148481102796
3840000000.0 0.09393046972375925 0.06526988098356411
3860000000.0 0.07285806242183758 0.06501831933501734
3880000000.0 -0.08056489158328052 -0.012452966152600674
3900000000.0 0.048251235771492366 0.060123581558073486
3920000000.0 -0.03690081248802628 0.06096278098763618
3940000000.0 -0.004978405592149693 0.06079613468209798
3960000000.0 0.04756073750949772 -0.025604905032945196
3980000000.0 0.04171341004579712 0.008912167682248458
4000000000.0 -0.028991138222621025 -0.0209446122435991
