!Created with skrf (http://scikit-rf.org).
# Hz S RI R 50.0 
!freq ReS11 ImS11
400000000.0 -0.7997433898928658 -0.17201950984125405
420000000.0 0.7656174875462739 0.034112851767609885
440000000.0 0.6212376777585272 -0.4066009472483886
460000000.0 0.4137266925962663 -0.497867143005822
480000000.0 0.3614240955081504 -0.4053470507961321
500000000.0 -0.3092363041354608 -0.2539174367106571
520000000.0 -0.4482763088305913 0.06418515974222605
540000000.0 0.44100818761009525 -0.16348508783896748
560000000.0 0.415232927476104 0.17331653919295015
580000000.0 -0.08648553933115959 -0.4070925991302987
600000000.0 0.11256697759321456 0.35414444441549325
620000000.0 -0.10147885789860381 0.3461796883349599
640000000.0 0.22276982241962667 -0.2958124312592956
660000000.0 0.3629896568146076 0.008671011972295369
680000000.0 0.3578582971845496 -0.040665092187283425
700000000.0 0.32791520528642204 -0.14104554968112282
720000000.0 0.3621658444838628 -0.07649390979881232
740000000.0 0.16569009099488835 -0.31285925988793806
760000000.0 0.2711293526004272 0.22173908278443114
780000000.0 -0.09949731553507611 0.3178025716177684
800000000.0 -0.30596566840710837 -0.04967539385057703
820000000.0 0.20182171393553358 -0.20271465633778887
840000000.0 0.2708461865830315 0.0036347719158960163
860000000.0 -0.23993671513139977 -0.04596118481209851
880000000.0 0.1851431201337411 -0.12638720133123277
900000000.0 0.1365358916287925 -0.1116551293939247
920000000.0 0.06508442389150632 0.13533233734148836
940000000.0 -0.07235181275893927 0.11479857922133986
960000000.0 0.09084086776563534 0.05871151978844011
980000000.0 0.07398413023226012 0.006408078026200505
1000000000.0 0.05701792678023561 -0.00061181885592303
1020000000.0 -0.06033118971308719 0.06402224186902439
1040000000.0 0.11456519577000844 -0.019295429367036876
1060000000.0 0.13900925442039758 -0.012414011361698908
1080000000.0 0.14031172944399245 -0.09654695205674149
1100000000.0 -0.19737680926062898 -0.03015901619883872
1120000000.0 -0.08539566931797817 0.205726396077531
1140000000.0 -0.2332953211281224 0.09146326704204406
1160000000.0 0.2523633416266963 -0.07267144642522444
1180000000.0 -0.26959585823729126 -0.08675448247968642
1200000000.0 0.12082062444685225 -0.27137437293795713
1220000000.0 0.2313908446524729 0.19111893282291523
1240000000.0 -0.31082222380351276 -0.008749501737064378
1260000000.0 -0.02895674411583547 -0.3239289787723152
1280000000.0 -0.18411881479970837 -0.2687780221945051
1300000000.0 0.13275144555052382 0.3109987544117543
1320000000.0 -0.08910029972424433 0.34293167146558845
1340000000.0 -0.3244348960106935 -0.16470374528188783
1360000000.0 0.3734319539342408 -0.006476604219865737
1380000000.0 -0.21387231815310923 0.31815686375469276
1400000000.0 -0.016625997902839838 -0.3839967232595077
1420000000.0 -0.2287329259198998 0.310880154296467
1440000000.0 0.37227160782985885 0.06915577343751066
1460000000.0 0.16130916633029332 -0.3260304055635905
1480000000.0 -0.17841521360403018 -0.3048413188127227
1500000000.0 -0.1264904198931998 0.31259199856047915
1520000000.0 0.25119014953249363 0.18988352616113924
1540000000.0 -0.28581854756844116 -0.009538664834174544
1560000000.0 0.1490949044364215 0.2034084642322393
1580000000.0 -0.22308328755821769 -0.043870433616881345
1600000000.0 -0.11757231221102185 -0.1447150584139225
1620000000.0 0.10846110698501155 0.1269173678677437
1640000000.0 0.070221766914812 -0.12040140405331287
1660000000.0 0.035681531949773075 0.10131871792006544
1680000000.0 0.08058578141027244 -0.030773560528785056
1700000000.0 -0.0627594135071914 -0.02105704163933114
1720000000.0 0.012887214320612883 -0.03614920496602822
1740000000.0 -0.038842842420083665 -0.0026545049943117694
1760000000.0 0.05823818133441882 0.022193092340994848
1780000000.0 -0.09645378007020948 -0.031821768177636926
1800000000.0 -0.13803635775355175 -0.00025459651478354343
1820000000.0 0.028903612865597176 0.16939186226597877
1840000000.0 0.20082409217688063 -0.04545594515866516
1860000000.0 0.1830356134656239 -0.13889014207326236
1880000000.0 -0.04895917537412668 -0.2502650762459481
1900000000.0 -0.25076904603901606 0.10914198694435516
1920000000.0 0.2714362306027393 0.094112726991101
1940000000.0 0.17028872736929918 -0.2432568332556356
1960000000.0 0.08554020869977676 0.2942080243980286
1980000000.0 -0.3061191039593111 0.021985673365510994
2000000000.0 0.0731267124510059 -0.2951059805552584
2020000000.0 0.3056295259201504 0.028046170457152037
2040000000.0 0.30104714066024557 0.04546372354355753
2060000000.0 0.05622996538068901 0.29208483059657714
2080000000.0 -0.2866423932115183 0.08130446219326666
2100000000.0 0.08033713030068143 0.28589870705469733
2120000000.0 -0.21814456132957682 -0.20669044880290993
2140000000.0 0.18009137473362644 0.2355519727865964
2160000000.0 0.19369503166088115 -0.2275593419013536
2180000000.0 -0.2865051807139621 -0.08211567777911284
2200000000.0 -0.09118213595513038 0.2811481532116587
2220000000.0 0.17485065663593327 0.2281957806090603
2240000000.0 0.12096983091117092 0.2575180974596694
2260000000.0 0.22003124997487544 0.15958602252917614
2280000000.0 -0.06732130309957692 0.2465906103809901
2300000000.0 -0.20721579651774946 -0.1231899064323271
2320000000.0 0.19021507520193903 -0.12831373982434233
2340000000.0 -0.19960891354258958 -0.07929113583903828
2360000000.0 -0.06405775954683397 0.2105824587553731
2380000000.0 -0.02017038307293511 -0.22195265194095862
2400000000.0 0.07468862188554092 0.22639333670712547
2420000000.0 0.05904726098834763 0.25852100356570695
2440000000.0 0.11541114439346203 -0.2721905300417362
2460000000.0 -0.24200846057370415 0.22372261701049095
2480000000.0 0.3510607439967448 0.1016802112631007
2500000000.0 -0.0972183459751419 0.39607959614795396
2520000000.0 -0.4022797721357958 -0.19776536513174925
2540000000.0 0.12709312775433945 -0.4693709225620104
2560000000.0 0.4760415229209264 0.21462351055225057
2580000000.0 -0.5256283018193975 0.16754894865474218
2600000000.0 0.29590990558611896 -0.498688224895061
2620000000.0 0.11470497681629671 0.59312348472406
2640000000.0 -0.48068178407392187 -0.39406198082764393
2660000000.0 0.6064615910916292 -0.1967936279390545
2680000000.0 0.15103754772011038 0.629716600041448
2700000000.0 -0.5464483909783185 0.3643615876171064
2720000000.0 -0.6604457183951288 -0.03945638755220074
2740000000.0 -0.5988279327471929 -0.2869458388574872
2760000000.0 -0.5912092862871886 -0.30499338563684886
2780000000.0 0.3781334742343891 -0.5425725077372664
2800000000.0 0.5478430063223477 -0.35605293145346306
2820000000.0 0.6278676189640846 0.14211735610830667
2840000000.0 -0.13246579172977344 0.6167985616554804
2860000000.0 -0.25434757441120825 -0.5626899094392352
2880000000.0 0.0834340100707702 0.5945380372151631
2900000000.0 0.4614832904070462 -0.35740377387889893
2920000000.0 -0.4328306210028811 -0.3627950851886598
2940000000.0 -0.3959037710913744 0.3674748886833568
2960000000.0 0.026135469587855557 0.5188841991005346
2980000000.0 0.49497997641755687 -0.05133853850505178
3000000000.0 -0.14300146671111835 -0.44630560486851073
3020000000.0 -0.4114647217674791 0.16306728623241962
3040000000.0 0.4048510137842415 -0.09829847968566771
3060000000.0 -0.2946632448777481 -0.2519600821022152
3080000000.0 0.1399387628862322 0.3380242006208662
3100000000.0 -0.2293884053327797 -0.25895205313828545
3120000000.0 -0.3298400614722934 0.031899091039407315
3140000000.0 0.08428991613263882 0.3122904889880864
3160000000.0 0.16510109682093396 -0.27655612733463725
3180000000.0 -0.3160369612821603 0.05363952202041148
3200000000.0 0.01346924666758061 0.3168719085339555
3220000000.0 0.3171597946992931 0.008185035026349399
3240000000.0 0.08414805057132632 -0.3005451955257612
3260000000.0 -0.11809055488152266 -0.2749242603880954
3280000000.0 -0.2666172629478532 -0.10320016872957083
3300000000.0 -0.14328468030668381 0.22114068631183606
3320000000.0 -0.22984707937467097 -0.04850720513658902
3340000000.0 -0.18171296724517405 -0.09816956007814881
3360000000.0 0.11416325055704221 -0.1228841857165354
3380000000.0 -0.06081071680100647 -0.12117252144047004
3400000000.0 0.10707559971107147 -0.01793945913076807
3420000000.0 0.07093401561833373 0.06221518974604177
3440000000.0 0.05775802513939426 0.06962963511632214
3460000000.0 0.03126410495381816 0.08291943002560521
3480000000.0 0.0016018104365664435 0.08946731921072885
3500000000.0 -0.0691169793149482 -0.053061462501341215
3520000000.0 0.06638074957550016 -0.05558564953366115
3540000000.0 0.07246720787044508 0.05956696437030754
3560000000.0 -0.005681748715841663 0.09409611801178171
3580000000.0 0.023207029953393226 -0.09739715726879847
3600000000.0 -0.012496860339460195 -0.10793532568917968
3620000000.0 0.10390623464985968 -0.04422890456978224
3640000000.0 0.11103187472505827 0.00630010294989412
3660000000.0 0.013192817274091521 0.11110929908202317
3680000000.0 0.0933352179192193 -0.0496262386166377
3700000000.0 0.0012170006035847874 0.10024126175615007
3720000000.0 0.08013319679389051 0.0345558437475166
3740000000.0 -0.061768880096312866 0.03422052996742443
3760000000.0 0.029881967629645827 -0.056664808848600944
3780000000.0 -0.02889734110425025 0.045332968399838185
3800000000.0 -0.038839728826227916 -0.03214201407682136
3820000000.0 0.013839173553542534 -0.05028309690955893
3840000000.0 0.009974202899088179 -0.0602389240657363
3860000000.0 0.048497401651336314 -0.060695263214246044
3880000000.0 0.0782787520574346 -0.04090347975298063
3900000000.0 0.050647283355983716 -0.0876004661686937
3920000000.0 0.06742369178120777 0.08081509726725607
3940000000.0 -0.10414019726122237 -0.0026071340618631176
3960000000.0 0.014807824159428941 0.09617948559581929
3980000000.0 0.0853042436521116 0.01515712360172134
4000000000.0 -0.0014798341613818083 -0.07440507234605376
