!Created with skrf (http://scikit-rf.org).
# Hz S RI R 50.0 
!freq ReS11 ImS11
400000000.0 -0.5731198353863334 -0.5923930759314185
420000000.0 0.7698628710081739 0.04750468748290399
440000000.0 0.7253993383878109 -0.16727972499997873
460000000.0 0.5885375072297736 -0.29795155790488675
480000000.0 0.5436885610303451 0.02420270568434475
500000000.0 -0.34675720912231767 -0.22991322692889407
520000000.0 -0.44500284021216946 -0.04403445564448489
540000000.0 -0.13644521473820928 0.47138140234178016
560000000.0 0.43892774373986276 0.1819211779637071
580000000.0 -0.1771998151429823 -0.39880636196930813
600000000.0 0.37496047553616024 0.11031434832243737
620000000.0 0.20906111363463262 0.3208452194357815
640000000.0 -0.24841089966287835 -0.3087313573662256
660000000.0 -0.10297993793848567 -0.37731400015794453
680000000.0 -0.32243319489043537 0.20703051794994012
700000000.0 -0.36278850482497904 0.13368710575306644
720000000.0 0.323240685952466 -0.22969709685928233
740000000.0 -0.3511374645597523 0.08495656214290993
760000000.0 0.2543655132307586 -0.2323355499059956
780000000.0 0.23110281296593443 -0.20781323096589627
800000000.0 -0.13063270377491412 0.24112676289486454
820000000.0 -0.07495062939553254 0.2302048977137304
840000000.0 -0.22003759617236252 0.07894450103180005
860000000.0 0.19380773567600207 0.03481940957956481
880000000.0 0.18033638966751409 -0.014739426716290952
900000000.0 -0.09649855767075322 -0.09544256614590213
920000000.0 0.09569722881420081 0.0616080606793622
940000000.0 -0.011213055624669663 -0.09790747049961196
960000000.0 0.013116750833791064 -0.07448910552303925
980000000.0 -0.03244678350529012 -0.01999739401583962
1000000000.0 -0.00820802245258481 -0.011989008542701598
1020000000.0 0.011261275119841749 0.046110124049513396
1040000000.0 0.005467004849319547 0.0781394863297213
1060000000.0 -0.029888539718888992 -0.11076553924832779
1080000000.0 -0.04543835025873259 -0.13255272123122155
1100000000.0 0.15518613123024336 0.0774491469487309
1120000000.0 0.05122132304222157 0.1909098014180857
1140000000.0 0.22364729759811847 0.09197640063000471
1160000000.0 -0.11593146765494514 -0.2223238835162309
1180000000.0 -0.20555141136946953 0.1922631379275583
1200000000.0 -0.2849837613074979 -0.10736245841130897
1220000000.0 -0.29600738265865073 -0.09321801016166302
1240000000.0 0.24445656899124274 0.21781293270514113
1260000000.0 0.2556974183765107 -0.23051206662156337
1280000000.0 -0.1250849853355994 -0.3206347344855736
1300000000.0 0.21568598458207827 0.27724436126630464
1320000000.0 0.10913832436707754 0.3499942005709874
1340000000.0 -0.3320074138323461 0.1737616185220291
1360000000.0 0.14118604762267156 -0.35484007605292067
1380000000.0 0.2978361560743992 0.24447590425961355
1400000000.0 -0.032910475367257705 -0.3856862791889923
1420000000.0 -0.22832478689235675 0.3164787133486864
1440000000.0 0.3551790379354053 -0.1381392518648454
1460000000.0 -0.055659302914268634 -0.3661583434411246
1480000000.0 -0.30790027005024495 0.18521195821792633
1500000000.0 0.3233367913942642 -0.09369165194188649
1520000000.0 -0.06891163533026182 -0.301102579201234
1540000000.0 0.197527483002181 0.19674546840526622
1560000000.0 0.16187483081165133 -0.17961327424931528
1580000000.0 -0.1218799970264976 0.178118534538556
1600000000.0 -0.09899402579223134 -0.14565541973397975
1620000000.0 -0.08575905673765843 0.12343267740372282
1640000000.0 -0.011322011580594357 -0.12723876735948386
1660000000.0 0.09143589677173625 -0.04356769344429382
1680000000.0 -0.01794428823503857 -0.07732256399419142
1700000000.0 0.014790573371511531 -0.07084471661288659
1720000000.0 0.03069573318143369 0.04115606128641306
1740000000.0 -0.042599908081419884 0.0286209310126742
1760000000.0 -0.0021370832143137344 -0.0675187150098273
1780000000.0 0.0940953892124519 -0.005009991092686807
1800000000.0 0.02064853233281302 0.11811273729380273
1820000000.0 0.08743917199615017 0.13468233354000758
1840000000.0 0.18323270907249561 0.06233796791984356
1860000000.0 0.08140582700704137 0.2018596672196705
1880000000.0 0.2147411828825678 0.13168596934971827
1900000000.0 -0.2377094063891771 -0.13377284147896212
1920000000.0 0.015137041121035687 0.2887763114968499
1940000000.0 0.1481912518323853 -0.26014432791449754
1960000000.0 0.0007601871922338569 0.3085342551898947
1980000000.0 -0.2407746489891451 -0.19370930817107432
2000000000.0 0.23499524416144707 -0.19601311432351853
2020000000.0 0.26133435825673773 0.1661009210340867
2040000000.0 0.23975843010733477 0.19250163999898845
2060000000.0 -0.11456852155637343 0.277964370760601
2080000000.0 -0.2640892671412363 -0.14909553596732528
2100000000.0 0.1909725830064648 0.23851658831194467
2120000000.0 -0.28779711934073865 -0.097800755851168
2140000000.0 0.29830195245445007 0.020048242342217557
2160000000.0 -0.17838302654132007 -0.24613909923724517
2180000000.0 0.004210780163205929 0.299711596399877
2200000000.0 0.2836322009091722 0.07059603636681547
2220000000.0 0.2765773595023078 -0.07315570731198581
2240000000.0 0.2782925367026054 -0.004569679197617924
2260000000.0 0.2647235505951818 -0.0045301177020766765
2280000000.0 -0.008111934985891057 0.24566905162503005
2300000000.0 0.08634251928843723 -0.2179974716040495
2320000000.0 0.07193014549850581 0.20887867761559897
2340000000.0 0.2107915103430752 -0.015127559862396169
2360000000.0 -0.011086831894202814 -0.2208513625416676
2380000000.0 0.14745256922160632 0.17356358042351638
2400000000.0 -0.2467957545476412 0.043993806772757396
2420000000.0 0.002273097798414361 0.2789804689362393
2440000000.0 -0.17412989530525216 -0.25532571241514695
2460000000.0 0.32062592046746735 0.11405895314841485
2480000000.0 -0.25794802543249157 -0.268622578511911
2500000000.0 0.3775842213352282 -0.1492267287149046
2520000000.0 -0.0831281993123435 0.43224679422271794
2540000000.0 -0.3345748643646867 -0.33755791721921524
2560000000.0 0.5020901035622658 0.09294931666048822
2580000000.0 -0.5177904568011895 0.15764967641050828
2600000000.0 0.4852179962314082 -0.30248101296744373
2620000000.0 -0.23969300809807734 0.5492982621597493
2640000000.0 -0.22547441172731789 -0.5767635674817626
2660000000.0 0.631134985694573 0.08600704543687207
2680000000.0 -0.0877341890126182 0.6414135380257268
2700000000.0 -0.6177828647331763 0.22293968035815875
2720000000.0 -0.6545664630844653 -0.10236819803935675
2740000000.0 -0.6387142079218432 -0.18796098604195552
2760000000.0 -0.5594570563034085 -0.3628711936185041
2780000000.0 0.44701924455703024 -0.48885904604852326
2800000000.0 0.598889814399509 -0.26397721729877666
2820000000.0 0.5879457716166311 0.26276839298718996
2840000000.0 -0.2734697778176325 0.5700206259293188
2860000000.0 -0.10968446846457464 -0.6101945007713524
2880000000.0 0.0856168580231292 0.5975830942756027
2900000000.0 0.3490880691423046 -0.47248797051407987
2920000000.0 -0.5568573288817513 -0.1051702922764728
2940000000.0 -0.1483359412556475 0.5182160896662957
2960000000.0 0.2808889318053545 0.43094191851107505
2980000000.0 0.4883407743966257 0.021277196444170112
3000000000.0 0.2349452451641688 -0.39718056386557044
3020000000.0 -0.2505777096521738 -0.36191083268425667
3040000000.0 -0.21110819103595135 0.36237598473426585
3060000000.0 0.2359329760371604 -0.3211262022889419
3080000000.0 -0.17480585109800267 0.335536003383431
3100000000.0 -0.17060903191501559 -0.3188055449568292
3120000000.0 -0.1516269971990652 0.3110295169552471
3140000000.0 0.22766094308033358 -0.24794644052054388
3160000000.0 -0.12491363063949694 0.3067074252166527
3180000000.0 0.18837220075811084 -0.2624088634867277
3200000000.0 -0.26681307584641895 -0.1642514926282649
3220000000.0 -0.27481807613825854 0.1328148873692355
3240000000.0 -0.21273802789185606 0.19788114816574093
3260000000.0 -0.22771015356834334 -0.14793034899397312
3280000000.0 0.24060221692201006 -0.09553460018799062
3300000000.0 -0.06685386060130107 0.23180776601195072
3320000000.0 0.1247504208395241 -0.18664480048655693
3340000000.0 0.2024795828604263 0.0727161535532794
3360000000.0 -0.030129683213691232 0.18676759682064537
3380000000.0 -0.1630653233619182 -0.04118167203076925
3400000000.0 -0.04460268277796994 -0.1318277732236858
3420000000.0 -0.07781283875838003 0.09011457822449773
3440000000.0 -0.07126915581958908 -0.07119619618175416
3460000000.0 0.056184220341470886 0.06102978713444678
3480000000.0 0.006437762974417291 -0.07577370702217172
3500000000.0 -0.062311514150769444 0.029258230121758825
3520000000.0 -0.012829726405316553 -0.06628387964718889
3540000000.0 -0.042929084572072736 0.06157682197540995
3560000000.0 0.06500772010320276 0.0354343680135961
3580000000.0 0.06934805484645773 0.046396084863577845
3600000000.0 -0.09293821350948529 -0.005746918060122646
3620000000.0 0.05688202541244778 0.0855509658179541
3640000000.0 -0.01622336955290119 0.1046268893320392
3660000000.0 -0.0822814288075642 0.07521563778079436
3680000000.0 0.0876804094050871 -0.05833119321132665
3700000000.0 -0.016744327037353967 0.1015859420146553
3720000000.0 0.08545489093508375 0.040056683320407155
3740000000.0 0.044471406263181405 -0.06650611242376787
3760000000.0 0.054752401071107126 -0.05279009593781468
3780000000.0 -0.029438663928462387 -0.057701451970189784
3800000000.0 -0.04097037942375004 -0.028803945571080996
3820000000.0 -0.0003375412204956615 -0.0382772387914158
3840000000.0 0.0017333576568066514 0.044409237092470376
3860000000.0 0.008056678735500753 -0.06506085646708219
3880000000.0 0.06296341818398356 -0.0605927998494934
3900000000.0 0.09939708725581964 0.03922097097253577
3920000000.0 0.061322532514699775 -0.10230509339128079
3940000000.0 -0.025506313742917137 -0.11505114627536685
3960000000.0 0.07489057367811296 -0.0809090284066632
3980000000.0 0.07182843215840223 0.06437793382793751
4000000000.0 0.0696109309409805 0.026096131620750126
