!Created with skrf (http://scikit-rf.org).
# Hz S RI R 50.0 
!freq ReS11 ImS11
400000000.0 0.860867050972722 0.15851767174746417
420000000.0 0.8306848583786781 -0.045114441700575145
440000000.0 0.780850353852754 0.02424693806280053
460000000.0 -0.20164251250922233 0.6843188790757556
480000000.0 -0.41678167882000783 -0.48409613039695426
500000000.0 -0.5086658090785131 -0.3753711151099297
520000000.0 -0.36188720423383597 -0.5256780784131678
540000000.0 -0.5523289752384528 -0.24600171159408107
560000000.0 0.3122663710782072 -0.49674132213491007
580000000.0 0.038676833342863176 -0.5251310525880204
600000000.0 -0.14186243789363978 0.6036414100861244
620000000.0 -0.6177529103791856 0.03524758396933791
640000000.0 -0.432682145638601 -0.3931060717343898
660000000.0 0.3411134154429599 0.4050675118717958
680000000.0 0.05353718235524721 -0.4872315941111582
700000000.0 0.4499917796573033 -0.24751948794209547
720000000.0 -0.1664088979855675 -0.4752975898149291
740000000.0 0.4451567313603902 -0.15331914078586137
760000000.0 0.1170506831222956 0.4447673015651153
780000000.0 -0.3963890118218039 -0.1911970970058147
800000000.0 0.10829004973324025 -0.3882895037479587
820000000.0 -0.2652263213221117 0.25429282211080173
840000000.0 -0.16819305661132639 0.2911747519690896
860000000.0 0.31031363863157796 0.07072361051590328
880000000.0 0.28058860871911695 -0.005353524865990065
900000000.0 0.16794663797766218 0.2300381490313491
920000000.0 -0.23984518790462495 -0.115206693473584
940000000.0 -0.17623683120435754 -0.1344548325203583
960000000.0 0.14925748918407236 0.08440086686908044
980000000.0 0.03606009341874003 -0.14150820802696837
1000000000.0 -0.012282097008161257 0.14650034654613217
1020000000.0 0.02512689460474071 0.11037631601695785
1040000000.0 -0.04389211223053098 0.12033786128392548
1060000000.0 -0.017537376597454146 -0.15766549356339565
1080000000.0 -0.04567665800412178 0.19969223867683764
1100000000.0 -0.1078454473471809 -0.22501695819082904
1120000000.0 -0.16133449019187332 -0.23362334190759557
1140000000.0 -0.273771278591576 0.15243230507850683
1160000000.0 0.2622643461045135 0.2028270348861494
1180000000.0 0.05052475349814897 0.34096832278426925
1200000000.0 -0.12630770860035678 0.3327564685508133
1220000000.0 0.14712492268729885 -0.33360401813253515
1240000000.0 0.3416538159816028 -0.16447089791657643
1260000000.0 -0.23526295408696446 -0.31521036517900425
1280000000.0 -0.10605705469746861 0.36365270820499307
1300000000.0 0.06407177983544173 -0.3553540060349504
1320000000.0 0.2486413105086028 -0.28294644425986193
1340000000.0 -0.05984963613010941 0.3616949157495754
1360000000.0 0.11007258927056333 0.35684111614380937
1380000000.0 -0.3196136159014361 0.21779059672354334
1400000000.0 0.11305520026127086 -0.36160511671472856
1420000000.0 0.33899394686368467 0.1748632950837425
1440000000.0 0.2971655539653744 -0.24305856175529683
1460000000.0 0.15118510512920189 -0.3547847101431809
1480000000.0 0.13383141644287389 -0.37377170370697316
1500000000.0 -0.3942760803840419 -0.02837397927366941
1520000000.0 0.28197681586223217 -0.27160203992363857
1540000000.0 0.053249309120772914 0.36495542101240097
1560000000.0 -0.32662698485256547 -0.04233968351382231
1580000000.0 0.2696572521697431 0.11438042494724808
1600000000.0 0.26064378442084807 0.054160097908018415
1620000000.0 0.18084478374149934 0.120195119522513
1640000000.0 0.1157749402503244 0.1449050978214245
1660000000.0 0.1329968585794794 -0.09728919417940511
1680000000.0 -0.037929102870615065 0.11529616393731479
1700000000.0 0.09628117462314496 -0.057556406915081494
1720000000.0 -0.09127697212496971 -0.006909576424050642
1740000000.0 0.07926015503919052 -0.022833712250807096
1760000000.0 -0.020450638992941507 0.08399493654027074
1780000000.0 0.03913319311106602 -0.10134343263096532
1800000000.0 0.12698849447943594 0.010094386197740722
1820000000.0 -0.0556229888408474 0.14542974044153775
1840000000.0 0.17599829213644955 -0.06606170514275118
1860000000.0 -0.07078948729614927 0.2061105474156827
1880000000.0 -0.03841845583191744 0.24681470756391422
1900000000.0 0.0340583762404398 0.27022236152037427
1920000000.0 0.18810664302071445 -0.2299782592652242
1940000000.0 -0.2822946106157009 -0.1155147035503716
1960000000.0 0.3109923693688328 0.04383466820654981
1980000000.0 -0.25618409900983463 0.1871722755702184
2000000000.0 0.14135423953333515 -0.2874949046757819
2020000000.0 0.32419719621396414 0.0033547216933714017
2040000000.0 0.3187384694817808 0.07243986520314231
2060000000.0 0.31510398224857333 0.06917572581329598
2080000000.0 -0.13665826459348474 0.2929191714681158
2100000000.0 0.028611407014616442 -0.32228972689013113
2120000000.0 0.2536384925506859 0.193507975835827
2140000000.0 -0.18315587435953343 -0.2631294148349551
2160000000.0 0.14412414132827872 0.283353854579802
2180000000.0 0.2905006624634987 -0.10002327584620443
2200000000.0 0.2622356949277316 -0.1520509495894116
2220000000.0 0.0024138089072697167 -0.2969306763252529
2240000000.0 0.2851249631754724 0.025832742930710462
2260000000.0 -0.07738824947861084 0.26138691516384505
2280000000.0 -0.21729124867142668 0.15651992833136358
2300000000.0 0.04442515690809624 -0.24558482175372623
2320000000.0 -0.1822541725642538 0.16186357035637325
2340000000.0 0.09243421349973223 -0.22272935894185147
2360000000.0 -0.0933843702110794 0.2228378986449275
2380000000.0 -0.028054016462766795 -0.25151355994188374
2400000000.0 -0.10178765677053901 -0.26030022036139894
2420000000.0 0.14964262056633487 0.2675044722122108
2440000000.0 0.08989624158838291 -0.31203306334877273
2460000000.0 -0.1907648037750961 0.30037182688707176
2480000000.0 0.372008355465365 -0.12309134330984425
2500000000.0 0.09109508369256028 0.41930973805219013
2520000000.0 -0.43995341278239036 -0.14479894911391852
2540000000.0 0.37178197704183213 -0.3284672113248102
2560000000.0 -0.09671820614672437 0.5163568412147477
2580000000.0 -0.015739923322383033 -0.5515126155569238
2600000000.0 0.03186891201037927 0.5751616240853579
2620000000.0 -0.19210594185988375 -0.5646308085132756
2640000000.0 0.30465033775026973 0.5300153013405735
2660000000.0 -0.5724093335821919 -0.25399556031013987
2680000000.0 0.4251449751426532 -0.47233984118082234
2700000000.0 0.5875982627347028 0.26694501196587
2720000000.0 0.3753737510163726 0.5309624132696267
2740000000.0 0.36861071984182664 0.5365430579081838
2760000000.0 0.22698114376960915 0.6103985607919946
2780000000.0 -0.6372847171109278 0.10079771181396353
2800000000.0 -0.6171368112565268 -0.1550860345746102
2820000000.0 -0.20458067381129405 -0.5898066811267781
2840000000.0 0.6046075232573845 -0.09204723844826948
2860000000.0 -0.4726007751366218 0.3627463748500201
2880000000.0 0.5617380424021453 -0.12518279360347945
2900000000.0 -0.2569504837042499 -0.492981709854044
2920000000.0 -0.5311636340020461 0.02800151665696902
2940000000.0 -0.3891100760467855 0.31796300324455357
2960000000.0 -0.3898421068624523 0.27376420471159546
2980000000.0 -0.38310519167588303 0.23931559242843004
3000000000.0 -0.3541120760279035 0.23831736540329412
3020000000.0 -0.20388257131604307 0.35105274599284186
3040000000.0 0.011197182144178022 0.3852089811431268
3060000000.0 0.3713356477713902 0.003981566629554018
3080000000.0 -0.161212454419151 -0.3206227741115422
3100000000.0 0.0603188049299633 0.3420573648398717
3120000000.0 0.32905252594364737 -0.09685220042158386
3140000000.0 -0.33874789377960673 0.03576269408520721
3160000000.0 0.32411899758417784 -0.10476736268657806
3180000000.0 -0.3251774479998172 0.10013845988958742
3200000000.0 0.17279410613260868 0.29255997809142126
3220000000.0 0.18815995917055098 -0.2784099043344144
3240000000.0 -0.02566054845320187 -0.33009067729124064
3260000000.0 -0.1932694509862521 -0.2629657374804887
3280000000.0 -0.3061268177851025 -0.07612804495763537
3300000000.0 -0.30075721084661144 0.008199886358091829
3320000000.0 -0.1771474768178002 0.2119621214093911
3340000000.0 -0.22742624901930583 -0.10670607286168537
3360000000.0 -0.2237446594547314 -0.027430124393089964
3380000000.0 0.07714607720184256 -0.18222699619698163
3400000000.0 0.16442792865512307 -0.05970891096291024
3420000000.0 0.11752337482371705 -0.08911913764458235
3440000000.0 0.11476468022968465 -0.04236690420260623
3460000000.0 0.013723648218207658 0.09626479996555366
3480000000.0 0.07047608846268101 -0.03660124172957858
3500000000.0 0.025796782280610782 -0.06851917098101225
3520000000.0 0.06236102348266941 -0.036448805302186506
3540000000.0 -0.06278523382272751 -0.04399057721588292
3560000000.0 -0.04525009774537994 0.06839032148449833
3580000000.0 -0.06351106310890728 0.0682014763800316
3600000000.0 0.05418026099003474 -0.08553174177991217
3620000000.0 0.11131306349744063 -0.041380209096598085
3640000000.0 0.0017046670885988865 -0.13537560097003806
3660000000.0 -0.14502271922551627 0.02135626295671737
3680000000.0 0.0991415836386092 -0.11761714872912814
3700000000.0 0.06722747312965734 -0.1273338620119104
3720000000.0 0.05099660706081654 -0.11989449391985675
3740000000.0 0.027987397107494438 -0.10290159300639241
3760000000.0 -0.08168897836839814 -0.014122594574477463
3780000000.0 0.04572340955921195 -0.04185428001756304
3800000000.0 0.02381512890055995 0.014139278933517239
3820000000.0 -0.008306467353948148 -0.009272254947230869
3840000000.0 -0.022117452578081984 0.04218261875257165
3860000000.0 -0.03243748393431206 0.07416527341979745
3880000000.0 -0.08816761634037898 -0.06093793051630237
3900000000.0 0.0900792923891675 0.09418300687910854
3920000000.0 -0.1377286350100548 -0.05498502531562629
3940000000.0 0.017127856947440144 0.154387825135484
3960000000.0 0.1596073624019783 0.011490229400849468
3980000000.0 0.07332444902112642 0.1341258891380058
4000000000.0 -0.06076986869868466 -0.11188117842824843
