!Created with skrf (http://scikit-rf.org).
# Hz S RI R 50.0 
!freq ReS11 ImS11
400000000.0 0.8595527752356813 0.16608381716799137
420000000.0 0.8305092825046833 -0.0513138262405851
440000000.0 0.7806336892513405 -0.019473648594047134
460000000.0 -0.17812405460416494 0.6907501052151522
480000000.0 -0.4082583947062634 -0.49142513069528515
500000000.0 -0.5107139163195177 -0.3727566930647611
520000000.0 -0.3228432842368002 -0.5501359889917632
540000000.0 -0.5469027127208337 -0.2585380108683397
560000000.0 0.3315923120114812 -0.4833925293873791
580000000.0 -0.05414174206092209 -0.5240492926282804
600000000.0 -0.1487828120203317 0.6016145233655361
620000000.0 -0.6142579593028307 0.077966864445209
640000000.0 -0.4174791934134616 -0.40857667433897016
660000000.0 0.3602983137347704 0.3889288217239804
680000000.0 0.05222949247258273 -0.4887000723025438
700000000.0 0.45528272782986057 -0.2385651260630689
720000000.0 -0.15270603081422188 -0.4788358193601751
740000000.0 0.44214343969097897 -0.16331647737335414
760000000.0 0.1284310490861441 0.44116469309041845
780000000.0 -0.4021249885258445 -0.17991012021066446
800000000.0 0.1189892368299491 -0.38529157969453687
820000000.0 -0.27737408446621986 0.24140088729480205
840000000.0 -0.1802043941659868 0.2845562663224805
860000000.0 0.3156468610988582 0.043167883399015006
880000000.0 0.2765634651421542 -0.049135223048138235
900000000.0 0.19714041735521765 0.20594751743361403
920000000.0 -0.23370819913384833 -0.12727218410109783
940000000.0 -0.17641646344176531 -0.13274652546212726
960000000.0 0.16202167804349435 0.052645450774193206
980000000.0 -0.006091555362497826 -0.14603975596054797
1000000000.0 -0.0016652975956401549 0.14731295401025124
1020000000.0 -0.013290281478619883 0.11217743139656014
1040000000.0 -0.018149854289013473 0.1270552576897456
1060000000.0 -0.013601708663803155 -0.158561047502894
1080000000.0 -0.07050467500545188 0.19238045816975205
1100000000.0 -0.11829571480113528 -0.21956603697481328
1120000000.0 -0.16655828091002403 -0.22922727204567014
1140000000.0 -0.2689269267875963 0.16175910271620908
1160000000.0 0.2380848600226432 0.23064858509171787
1180000000.0 0.04755625936204716 0.341552383215932
1200000000.0 -0.12857682476317359 0.33234651566767015
1220000000.0 0.12856242252725375 -0.34146935074302043
1240000000.0 0.34331306629713443 -0.16123697048459487
1260000000.0 -0.249915714462124 -0.3040850544569255
1280000000.0 -0.11191868212831461 0.3618569490160876
1300000000.0 0.054064546814557156 -0.35699974618513386
1320000000.0 0.2721706496779719 -0.26136320390216694
1340000000.0 -0.05512316905308389 0.3620696855471065
1360000000.0 0.11439408089730865 0.3555518762851153
1380000000.0 -0.31122119146416805 0.22980233182857213
1400000000.0 0.12942623530585295 -0.3566942150644815
1420000000.0 0.34854267364612623 0.1548471547461812
1440000000.0 0.2878534517573616 -0.25300711178515445
1460000000.0 0.11815848547382318 -0.36724793640875875
1480000000.0 0.12850662333186536 -0.37589043365609076
1500000000.0 -0.3918409153744842 -0.04813345091256885
1520000000.0 0.28210577416550237 -0.2709252274535436
1540000000.0 0.028039961215717297 0.36791002679504686
1560000000.0 -0.32339280281557314 -0.06330130423951214
1580000000.0 0.27316225132687555 0.10552342156893951
1600000000.0 0.25522345498123084 0.07616422723871806
1620000000.0 0.1852339010369021 0.11302391296377438
1640000000.0 0.13180970389746405 0.1296819706485779
1660000000.0 0.12928183518744904 -0.10197718929619382
1680000000.0 -0.03667290311899239 0.11583243282759305
1700000000.0 0.062127168228078546 -0.09430318738557322
1720000000.0 -0.091792019379172 0.004729396972841006
1740000000.0 0.08163532767882391 -0.011511904446361177
1760000000.0 -0.009684440252981983 0.0859783394535709
1780000000.0 0.039704647213076746 -0.10114555080529476
1800000000.0 0.12571223821044494 -0.023248161772392705
1820000000.0 -0.07333881093692406 0.13745565441470922
1840000000.0 0.1783281415411171 -0.05954041076486445
1860000000.0 -0.09507665480919374 0.19599812279360387
1880000000.0 -0.04118338813089674 0.24634354186721222
1900000000.0 0.03289214317946209 0.26978808320820874
1920000000.0 0.17460595646261165 -0.24111953570693023
1940000000.0 -0.2734220078596855 -0.13484889637825107
1960000000.0 0.311116427751388 0.04117445656587499
1980000000.0 -0.24678254178362763 0.19927627826797525
2000000000.0 0.12748451985380013 -0.2934227619750795
2020000000.0 0.32385950544479725 0.019538591780869304
2040000000.0 0.32227868375615887 0.05451825919544001
2060000000.0 0.30711968170136605 0.0990738939857321
2080000000.0 -0.16400488806885358 0.2785957145645872
2100000000.0 0.0436387407740938 -0.3206540522098892
2120000000.0 0.2640608210281693 0.1795420664403862
2140000000.0 -0.1512335329911597 -0.2824448411641609
2160000000.0 0.14508610124042676 0.2829408478085229
2180000000.0 0.29337748252994533 -0.09025319835997807
2200000000.0 0.265855883869337 -0.14475397586911187
2220000000.0 0.005126460447584187 -0.2967534234324256
2240000000.0 0.28474133400726176 0.03194054639785898
2260000000.0 -0.07037738541214619 0.2628852121306789
2280000000.0 -0.1876061977684324 0.19072732248981203
2300000000.0 0.04038475213705304 -0.24675081893534004
2320000000.0 -0.18443477420426452 0.15965563217354237
2340000000.0 0.05685990915877063 -0.23377399075680189
2360000000.0 -0.08895226502368146 0.2250621845288057
2380000000.0 -0.010326118192611597 -0.2529783062525198
2400000000.0 -0.08216418695871394 -0.2670944001274513
2420000000.0 0.12014562942467673 0.2821827198747938
2440000000.0 0.10486357297326156 -0.30742635959089903
2460000000.0 -0.19908796380480043 0.2950083037126212
2480000000.0 0.3785788859049553 -0.10016075990940139
2500000000.0 0.05771647293634566 0.42516134499136465
2520000000.0 -0.43082213296957916 -0.1700023985515847
2540000000.0 0.38795604850336507 -0.3090522132641236
2560000000.0 -0.08068638586183226 0.5192163378283614
2580000000.0 -0.028265122342247092 -0.551055455613843
2600000000.0 0.04703079913134053 0.5741146765755504
2620000000.0 -0.17966651218605226 -0.5686091500146552
2640000000.0 0.2876032389966716 0.5396176652957898
2660000000.0 -0.5709034742388486 -0.25746176447377367
2680000000.0 0.38751059797146253 -0.5036429607758363
2700000000.0 0.6023999271913033 0.23066034657228449
2720000000.0 0.42812680071684356 0.48904056730105416
2740000000.0 0.2563204655327118 0.5984776470817732
2760000000.0 0.22006667078762593 0.6132191760293765
2780000000.0 -0.6318165426951065 0.13132794955845786
2800000000.0 -0.6237598778453769 -0.12719785108568482
2820000000.0 -0.2191424388019255 -0.5846071858972417
2840000000.0 0.604711174766694 -0.09172967159261228
2860000000.0 -0.47114851171645217 0.3649043769515508
2880000000.0 0.5641603818592364 -0.11491990812575989
2900000000.0 -0.258191839876167 -0.4922989872354129
2920000000.0 -0.5311786954199829 0.027078595979367393
2940000000.0 -0.3825198229222722 0.3259244387181023
2960000000.0 -0.38678683764868177 0.27767104607789894
2980000000.0 -0.3898695275699842 0.22789886834130654
3000000000.0 -0.3311075763336576 0.2694904904003271
3020000000.0 -0.25500457551350264 0.31667988667984437
3040000000.0 -0.012155840739411807 0.38594356676462355
3060000000.0 0.3715112154712243 -0.015896670152640038
3080000000.0 -0.12088237978535289 -0.3380253542201289
3100000000.0 0.09048893419332313 0.33554954315247815
3120000000.0 0.3310725639758548 -0.09005589234980045
3140000000.0 -0.34047805781854756 0.006798265259924987
3160000000.0 0.32935517626363753 -0.08745052019331184
3180000000.0 -0.32331651805046696 0.10589380551507148
3200000000.0 0.16757078956095023 0.2951061451685244
3220000000.0 0.19087982865382785 -0.27612005411988183
3240000000.0 -0.029205425083832857 -0.32969289894531045
3260000000.0 -0.19715334659021616 -0.2598976472615661
3280000000.0 -0.30735195354843126 -0.07046775377186767
3300000000.0 -0.29614373155324275 0.05026997656721205
3320000000.0 -0.18456128267538738 0.20613279723545994
3340000000.0 -0.24030140438596712 -0.07277515442416649
3360000000.0 -0.1951326557736114 -0.11473900954492522
3380000000.0 0.043130188865485614 -0.1930229810834869
3400000000.0 0.1738747699312887 0.021738866739749656
3420000000.0 0.13268107316189798 -0.06452264792151811
3440000000.0 0.11676424933371587 -0.036442057347510416
3460000000.0 0.00255164634903401 0.0972300485839153
3480000000.0 0.07879298496693586 -0.01132425700481884
3500000000.0 0.021873680824277472 -0.06981574755991161
3520000000.0 0.06222891450019039 -0.03654640820226264
3540000000.0 -0.06850454881397237 -0.03461970784903414
3560000000.0 -0.03612632143922984 0.07369627986099518
3580000000.0 -0.05190490263992477 0.07693297055679359
3600000000.0 0.05563248586904369 -0.08476222190826645
3620000000.0 0.11339517281622677 -0.03413821594974822
3640000000.0 -0.04918041509037694 -0.12514475339279912
3660000000.0 -0.14422488783614415 0.027411639581918733
3680000000.0 0.10643244303659055 -0.11130503670996189
3700000000.0 0.061971524478119475 -0.13021096872224083
3720000000.0 0.01321634052336733 -0.12986435543666183
3740000000.0 0.04119546640675465 -0.09801640072625283
3760000000.0 -0.07859918642834163 -0.02558872749517956
3780000000.0 0.030319881504267166 -0.05380122394568903
3800000000.0 0.026328928844620104 0.008636074029807683
3820000000.0 -0.009031910749960499 -0.008508218988311042
3840000000.0 -0.03856780968887774 0.02851132362177035
3860000000.0 -0.01927259940017212 0.07864994075809195
3880000000.0 -0.0771913888247441 -0.07472957525260909
3900000000.0 0.08043105491940838 0.10274816449319422
3920000000.0 -0.13638804463960486 -0.05904628567290848
3940000000.0 -0.01610039605525102 0.15451347721651756
3960000000.0 0.15898024466936464 0.011311191362773818
3980000000.0 0.061371022653302895 0.13955432891109437
4000000000.0 -0.0687899547751984 -0.1067841147498069
