!Created with skrf (http://scikit-rf.org).
# Hz S RI R 50.0 
!freq ReS11 ImS11
400000000.0 0.3557410178299611 -0.6823328366715024
420000000.0 0.158891152656335 0.687167660359489
440000000.0 0.08115650143916817 -0.6692535311824994
460000000.0 -0.22000895918023594 0.5717631353147498
480000000.0 0.5540547613280346 -0.054911257141302315
500000000.0 0.5298585449426101 0.09052654447681543
520000000.0 0.2683364130527277 0.3925006450443032
540000000.0 -0.35472180047883695 0.16986131117799733
560000000.0 -0.347060681434015 0.0845980878504963
580000000.0 0.17538554286411157 0.28418870691207654
600000000.0 -0.02039091559709303 0.2994762944912193
620000000.0 0.24030703172479803 -0.19011638192924013
640000000.0 -0.2831256083701435 0.07838733200059711
660000000.0 0.19291829937764574 -0.19585543607841038
680000000.0 0.20965189111701085 -0.18195732495394054
700000000.0 -0.019788064316634255 -0.2760935413524253
720000000.0 0.05652906089899062 -0.28229537422780887
740000000.0 -0.28997981941179074 0.009398019881213466
760000000.0 -0.1985012755342543 -0.1719206462491749
780000000.0 0.23793606918296578 -0.09810180385957924
800000000.0 0.07531200215018324 0.2349393310907608
820000000.0 0.11784645185056851 -0.1862112864760662
840000000.0 -0.22215848464756213 -0.0755845590851075
860000000.0 0.22797088763474438 0.07125118644315165
880000000.0 0.021701488779534876 0.24144176650449345
900000000.0 0.16921428129290508 0.18348203912533506
920000000.0 0.07751799892567601 -0.20283583628315424
940000000.0 -0.0020884736490546477 -0.21031041915225185
960000000.0 -0.11492842198353191 -0.15611776066167515
980000000.0 -0.16224579726847255 -0.08006172917312919
1000000000.0 0.12796034636203876 -0.11296356163930829
1020000000.0 0.11964409181580471 0.07507124752444538
1040000000.0 -0.04219330763804122 0.11920832330406331
1060000000.0 0.09287016234551583 0.0954140340910103
1080000000.0 -0.08413721888220652 0.15973865354450809
1100000000.0 -0.16824335876184293 -0.09629106768534003
1120000000.0 -0.07009162088105915 -0.20945846794995687
1140000000.0 0.1982036256734183 0.14148210920688428
1160000000.0 -0.18232356429349136 0.20782023304794295
1180000000.0 0.2113370017552542 0.18120560681165987
1200000000.0 -0.24139014183977545 -0.16831885433116436
1220000000.0 -0.0779260198884072 0.2879070941101796
1240000000.0 -0.039952248588671524 0.299648676925953
1260000000.0 -0.128174747007563 0.2686782930432349
1280000000.0 -0.2528582986545542 -0.17533069008729305
1300000000.0 -0.30289215122656726 0.06029681687845416
1320000000.0 -0.31716199489049035 0.002822677146158605
1340000000.0 0.3192509109298359 -0.07656979510895819
1360000000.0 0.04040141037500745 0.3316311936635594
1380000000.0 -0.3216790798616474 -0.09696433872711262
1400000000.0 0.11472152120895898 0.31252522644387926
1420000000.0 0.33248987256822954 0.08215783262172034
1440000000.0 -0.1525022747210268 -0.3007280430720923
1460000000.0 -0.28462771455171254 0.15365534545087614
1480000000.0 -0.10602664328727437 -0.2999064859945312
1500000000.0 0.034077657023368464 -0.2975681628187254
1520000000.0 0.2258031936784128 -0.15434312574234663
1540000000.0 -0.07884719815648297 0.24342170816063027
1560000000.0 -0.09924015362746691 -0.19783094524274838
1580000000.0 -0.11961166422697993 0.14102707244903648
1600000000.0 -0.14092887789887332 0.08424653569577448
1620000000.0 0.07727387320925401 0.11169875338890635
1640000000.0 -0.0828608988272401 -0.07146961903601473
1660000000.0 0.001235428069613379 -0.10559268684552334
1680000000.0 -0.02655796078990905 -0.08678043021379739
1700000000.0 0.0570963683315247 0.02859925304569141
1720000000.0 0.0388413911143515 0.02986177856130426
1740000000.0 0.01012014712571723 -0.03225529097974345
1760000000.0 -0.0008437270635357071 0.0075829594871186816
1780000000.0 -0.002108145025275835 0.024899555973923557
1800000000.0 0.03875730527662237 -0.0414837589364831
1820000000.0 -0.03358357856092155 -0.06991720682455999
1840000000.0 -0.11707536999394912 -0.04179033554626391
1860000000.0 0.1521758159646256 -0.011717520833718888
1880000000.0 -0.16752504347328787 -0.0323598250029
1900000000.0 -0.16899901701808914 0.0727961361276638
1920000000.0 -0.12830303339779328 0.1651568230136504
1940000000.0 -0.17402948699655574 0.12669772174186958
1960000000.0 0.15268786114348767 0.14369790895466747
1980000000.0 0.11413209852067108 -0.17651323822511433
2000000000.0 -0.13229743657105442 -0.1594281376911291
2020000000.0 0.07000256491571355 0.18418472592613638
2040000000.0 0.10697406117486732 0.15881176895079888
2060000000.0 0.17106640351173777 -0.07751828790016514
2080000000.0 -0.09567541114662659 -0.1571555936214404
2100000000.0 -0.13835273113367005 -0.10994191407023095
2120000000.0 0.15077232918326358 0.0792933157674178
2140000000.0 -0.1656305935741591 -0.010706351036270068
2160000000.0 0.10431772248714077 -0.12611249441891473
2180000000.0 -0.11967426014404728 0.10014780314437224
2200000000.0 0.026929564570711616 0.14083839553244037
2220000000.0 -0.11782511759385479 0.07015215978822918
2240000000.0 0.1133193586186114 -0.07951536971848036
2260000000.0 -0.09329349126632602 0.089879163070878
2280000000.0 0.1040519521064475 0.008670310667365455
2300000000.0 -0.08863212948786847 -0.014343812789503241
2320000000.0 -0.061920064841688174 -0.0600187462082383
2340000000.0 -0.016712402954031886 -0.06295800103039581
2360000000.0 0.002947821656001628 -0.05961664149470333
2380000000.0 0.007514773560661356 -0.05359994038217468
2400000000.0 -0.0193394445165499 -0.05347050754490456
2420000000.0 -0.04756231852123377 0.02855311404420307
2440000000.0 0.03574165153057561 0.021232400102137415
2460000000.0 -0.029137593042006794 -0.03945375597476211
2480000000.0 0.046366350088034254 0.01774759396426693
2500000000.0 -0.0070388060045481005 0.04950724092382438
2520000000.0 0.05912306632488007 -0.03648676026638312
2540000000.0 0.03048674126706663 -0.0872039353919988
2560000000.0 -0.08675737125573076 -0.05937668625821872
2580000000.0 0.10235965348192602 0.07373814128093016
2600000000.0 0.13482611100904018 -0.011671002470015276
2620000000.0 0.13926234145861313 0.07080979215167656
2640000000.0 0.10581769368960142 0.13039430255138204
2660000000.0 0.12941412151098036 -0.12254079324432952
2680000000.0 0.07685513599602105 -0.1723493067521089
2700000000.0 -0.1868991651547048 0.03810810046079862
2720000000.0 0.1171433881625087 0.15399700084184464
2740000000.0 -0.17602657882044104 -0.07781152689230081
2760000000.0 0.1283205357817183 -0.14027967558651197
2780000000.0 0.10153017410086486 0.17793667664798
2800000000.0 0.1623267230383314 -0.13664712916098284
2820000000.0 -0.20825211642751157 0.031139289811066277
2840000000.0 0.1783655637124385 -0.12964899978911543
2860000000.0 0.009165942804335478 0.23280096589275326
2880000000.0 0.2374691706115099 0.03263435346567034
2900000000.0 0.21435152647443545 -0.11401676856626913
2920000000.0 -0.1927265543308755 0.16062763999019447
2940000000.0 0.25098643181134384 0.03377883017525048
2960000000.0 0.24107313514792017 -0.015547381264597543
2980000000.0 0.22667230344620626 -0.016650725906474668
3000000000.0 -0.02488822953212859 0.21148632391122343
3020000000.0 -0.1024427603340497 -0.17465756228441678
3040000000.0 -0.1772725467527189 -0.03459809672095723
3060000000.0 -0.0651180049618718 0.14404861449356182
3080000000.0 0.12405392674433159 -0.06692286812218554
3100000000.0 0.11332524961755477 -0.058158685549893785
3120000000.0 0.049896753906324955 0.08786963364679838
3140000000.0 0.07698927949321215 0.06510849872872458
3160000000.0 -0.08297914142440399 -0.0555429990312787
3180000000.0 -0.10022129537477624 0.018896726707888264
3200000000.0 -0.06457578707096866 0.08897224121711114
3220000000.0 -0.08410697048608556 -0.08966283151871524
3240000000.0 -0.13790689547862506 0.0214354204208157
3260000000.0 0.08732753759977113 0.12940120071095013
3280000000.0 0.15934971059599565 -0.06610712943853289
3300000000.0 0.16366810042344218 -0.09279919884300457
3320000000.0 0.20023786684704098 -0.05264437509570007
3340000000.0 0.17261008701897293 -0.13829811359893177
3360000000.0 0.22856572365838 -0.026495233667357534
3380000000.0 -0.2092523042225143 0.11482231766236888
3400000000.0 -0.18532039434948563 0.16684283968569333
3420000000.0 -0.11346862152899431 0.2161424450885495
3440000000.0 0.006856127102961258 -0.23830520861151186
3460000000.0 0.19976881309013078 -0.13113663519197455
3480000000.0 0.06568837138240259 -0.21747387664994006
3500000000.0 0.0019345484932484286 0.210371869969659
3520000000.0 -0.19901650115024122 0.02760186990307266
3540000000.0 -0.05893655036254141 0.1784217440250958
3560000000.0 0.024155315930496156 0.16225937566521756
3580000000.0 -0.10587531617581414 0.10858396842252774
3600000000.0 -0.13904919256836176 0.04376934544142204
3620000000.0 0.061762687015576516 0.11443004046856914
3640000000.0 -0.07565663500909471 -0.101453771473277
3660000000.0 0.013449096996425585 0.13282589791744845
3680000000.0 -0.10979089770263592 -0.0723126089565285
3700000000.0 0.04274592401127294 -0.14443517748484283
3720000000.0 0.1236732432981637 -0.11073388908281528
3740000000.0 -0.16720008278238 -0.06275558549518968
3760000000.0 0.20716452167914395 0.0001439164748257161
3780000000.0 0.12703055501471172 0.18938702683210765
3800000000.0 -0.117020967933763 -0.21509054632617491
3820000000.0 -0.14211626873095437 0.22087473004696884
3840000000.0 -0.021025892896907265 -0.2791004594680074
3860000000.0 0.2240167303601806 0.17504963424323844
3880000000.0 0.1660922287065258 -0.2337688708829486
3900000000.0 0.1155346798024874 0.2713958368712267
3920000000.0 -0.2275208611566019 0.16640280946422514
3940000000.0 -0.07243932391834432 -0.25475583720730727
3960000000.0 -0.021727699356558067 -0.2473592727634524
3980000000.0 0.0038029926696093817 0.22579215007053258
4000000000.0 -0.003111117323764887 -0.19847910059455207
