!Created with skrf (http://scikit-rf.org).
# Hz S RI R 50.0 
!freq ReS11 ImS11
400000000.0 -0.7208174384087724 0.04846377040018923
406500000.0 -0.49867787175707146 -0.5114141104912396
413000000.0 0.3390692625560251 -0.602740581408781
419500000.0 -0.6707917451238607 0.09502671647978506
426000000.0 0.3665718681392722 -0.5482083579091405
432500000.0 -0.3032269019614438 0.5745086470561008
439000000.0 -0.2154510411059085 -0.6069203079995148
445500000.0 0.6290447280571254 -0.012206771214180288
452000000.0 -0.4364900183812545 0.4230117956220755
458500000.0 0.2265514826814137 -0.5487521718695823
465000000.0 -0.15664298520095327 0.5720540374868904
471500000.0 -0.5875967936805485 0.002024916133049559
478000000.0 0.1825032712676259 -0.5494911433035468
484500000.0 0.5813097742639806 -0.06042500271890748
491000000.0 0.435675145033988 -0.3791290624892024
497500000.0 0.021261643663085014 -0.5641895609376062
504000000.0 -0.5377062993561907 -0.027862578166721278
510500000.0 -0.08890646879180765 0.501317349871054
517000000.0 0.4392901948429727 0.1639421021927121
523500000.0 0.3999763450232891 0.1824336872638432
530000000.0 0.3727168580468093 0.1611085969928944
536500000.0 0.2953892196657624 -0.21471708777419304
543000000.0 0.2744916684712676 0.21466739024122108
549500000.0 -0.03019000311973296 0.32890870727734506
556000000.0 0.278704242795397 0.14218675816915521
562500000.0 0.01416433613706274 0.2968084076474014
569000000.0 0.12714718368276579 0.2648633776926931
575500000.0 0.16709135659251637 0.2345753874167456
582000000.0 0.25657271956290334 -0.12774313971865864
588500000.0 -0.0402272565428784 -0.2898005340248049
595000000.0 -0.1785922124401091 0.24047114089730526
601500000.0 -0.14162723290084314 0.2621290193214337
608000000.0 -0.22784634062407233 0.18885551850730434
614500000.0 -0.28766393307996063 -0.07618167520534104
621000000.0 -0.08270283338450743 -0.2777688341693853
627500000.0 -0.06920161869619496 0.28639858143796343
634000000.0 -0.2993576940615293 0.050927809619044535
640500000.0 -0.2188983067449939 -0.20497451872503158
647000000.0 0.24189641183693086 -0.183313615335049
653500000.0 0.30441253999140705 -0.03253373553514736
660000000.0 -0.07059746316133217 0.2894832428715087
666500000.0 -0.16222357193509612 -0.24780582518120267
673000000.0 0.2909883209050356 -0.036994515566309456
679500000.0 0.11350027536903042 -0.26854964778354584
686000000.0 0.09411306460329218 0.2687063650609436
692500000.0 -0.22755865996940763 -0.169302828702276
699000000.0 0.28277169646214284 -0.016236279129155855
705500000.0 -0.28092959124978373 -0.026808039266141642
712000000.0 0.17747004885962653 -0.22331735948035264
718500000.0 -0.2527176225940333 -0.1268482285128012
725000000.0 0.048415018934177816 0.2864874895311412
731500000.0 0.16553195271339696 -0.2434865610562897
738000000.0 -0.21289529158026 0.22190798190180522
744500000.0 -0.1622740349137699 -0.2644614593812104
751000000.0 0.01118984136559953 0.31661725329680956
757500000.0 0.14419272922018167 -0.29198273979645245
764000000.0 -0.33828145692637956 -0.026223701597642122
770500000.0 0.17414931732217043 -0.30582604381875417
777000000.0 -0.2530605174200015 0.2531127214555818
783500000.0 -0.020518519581626014 -0.35951276162476936
790000000.0 -0.2547884762935186 0.2586397504057783
796500000.0 0.3654615475698491 -0.01879122651868267
803000000.0 -0.2550073212859405 -0.2595782456213806
809500000.0 -0.08432093673375007 0.36155858838485927
816000000.0 0.1266532931832063 -0.35531519447459525
822500000.0 -0.3826876267952529 0.03254514860509264
829000000.0 -0.3434220102315216 0.19038425502738116
835500000.0 0.3553576090629972 0.17914671690093398
842000000.0 -0.11730621029311125 -0.3947755010932365
848500000.0 -0.3008844575311255 0.2793871790756095
855000000.0 0.3899925958794849 -0.15645598973843738
861500000.0 -0.3585256348555725 -0.21553348869558472
868000000.0 0.03549910588102638 0.42844714015635793
874500000.0 -0.0633671957966106 -0.42588223545147535
881000000.0 -0.183600969467395 0.3954319819060136
887500000.0 0.17088079143091603 -0.40445793682245157
894000000.0 -0.08578488713239171 0.4323173114271197
900500000.0 -0.38798503492606495 -0.2053625926752055
907000000.0 0.1447207353837909 -0.41099882444530816
913500000.0 0.33766865462390777 0.25726424139616777
920000000.0 0.03416145828535117 0.4143446115326629
926500000.0 0.10384853011213015 0.3910464967206006
933000000.0 -0.10597590443379167 0.36982105660811854
939500000.0 -0.027907340544105895 0.36560826987733175
946000000.0 -0.058214387657946426 0.33867437766397696
952500000.0 -0.14834661008677624 0.28107053842845575
959000000.0 -0.2510272965055455 0.1600529862604284
965500000.0 -0.2747478730582798 -0.052957546510025724
972000000.0 0.18505686541996777 0.19260716898490143
978500000.0 -0.15895348209553992 0.20233591776834878
985000000.0 -0.21033998819834068 0.12686154296066968
991500000.0 -0.2329484361454448 0.022234978924793536
998000000.0 0.16804198499000017 -0.137509075290373
1004500000.0 0.029636882978422614 0.2031753003859558
1011000000.0 0.06529465031577804 -0.18505281547401692
1017500000.0 -0.026353456427629755 0.18360747894045298
1024000000.0 -0.08560225681419184 -0.14885690007357583
1030500000.0 0.1529016797659518 -0.04631362668465543
1037000000.0 -0.14666992587352565 -0.0006727496297439665
1043500000.0 -0.11152504270877953 -0.07566280825756722
1050000000.0 0.10056155956791409 -0.08065711534923925
1056500000.0 -0.04120966021040334 -0.11623683815692934
1063000000.0 -0.04842424193239053 0.10717753020116648
1069500000.0 0.10311499602485992 -0.04652306266846862
1076000000.0 -0.10640111004864762 -0.01643196301206108
1082500000.0 -0.09581000186642723 0.03935678185126923
1089000000.0 -0.09851775116056499 -0.025360727264621522
1095500000.0 -0.09979676861731063 0.0073609215599120545
1102000000.0 0.08808760840003416 -0.061051822618870495
1108500000.0 -0.00951247070028115 0.11265572002982767
1115000000.0 0.04929068051086319 -0.11553841809721653
1121500000.0 0.00541472897987948 0.1394277722198766
1128000000.0 -0.06670206154078355 -0.138452827603445
1134500000.0 0.05856651644108243 -0.15765545102140632
1141000000.0 0.10994807759133887 0.1431338712006775
1147500000.0 0.14517569652271928 0.1259816276549201
1154000000.0 -0.1611855657514562 0.11689266900342142
1160500000.0 0.07020021715908577 -0.19552133259558116
1167000000.0 0.12052495373467394 0.17751946523647408
1173500000.0 -0.15491112726618303 -0.15203602024030413
1180000000.0 0.04893211053293244 0.21496648881257668
1186500000.0 0.021106845483226975 -0.2226912128918649
1193000000.0 -0.19879022397891896 -0.12066240502629301
1199500000.0 0.21626641429124002 0.10578787637955468
1206000000.0 -0.017138571600944442 -0.24735818973081705
1212500000.0 -0.021227498656924523 0.2577752648568595
1219000000.0 0.09082835144708833 -0.2558737215152082
1225500000.0 -0.07520076906026851 0.2679061644080456
1232000000.0 0.23161739420945426 0.17450407396060094
1238500000.0 0.18276314603001925 -0.23773175793011864
1245000000.0 -0.2625023189685721 -0.15668308381328933
1251500000.0 -0.2265723070044744 0.2196021643767653
1258000000.0 0.07793202559244951 0.31312399784713923
1264500000.0 0.18343434341241044 0.2673137417806679
1271000000.0 0.3184977510258676 0.0870036824723111
1277500000.0 0.3322418249177531 -0.044552096730941786
1284000000.0 0.3282590646345171 -0.09133923555353171
1290500000.0 0.049102788614347116 -0.3403952168712249
1297000000.0 -0.28468843954979217 -0.2024510611442669
1303500000.0 -0.34755090564833885 0.030070562901106313
1310000000.0 0.009306552829352674 0.35002668827119576
1316500000.0 0.3474344225409708 -0.02494722282996824
1323000000.0 -0.06777590778046172 -0.34027282865390246
1329500000.0 -0.17205435652929923 0.2993701662748429
1336000000.0 0.3353811183782348 0.06754254563936797
1342500000.0 -0.1362004352824191 -0.31007348544695823
1349000000.0 -0.08292633522080779 0.3262518444933251
1355500000.0 0.3355256868311554 0.006829989383896518
1362000000.0 -0.252150964825768 -0.221339324223057
1368500000.0 0.01015762126085358 0.33813979164091795
1375000000.0 0.19168540242372875 -0.2859827693423086
1381500000.0 -0.2617002209263317 0.2273611997815808
1388000000.0 0.3495509634289588 -0.04653399721235696
1394500000.0 -0.2598535829015031 -0.24220187742892474
1401000000.0 -0.2069042690531162 -0.29203285221774833
1407500000.0 -0.30359548008457704 0.1981203519575678
1414000000.0 0.02110150261997768 0.3664773362635191
1420500000.0 0.32624927283040733 0.17940658860578643
1427000000.0 0.3558855978285239 -0.11918913652342294
1433500000.0 0.34251015317865086 -0.16211016646438223
1440000000.0 0.1949256910606489 -0.32368755615887923
1446500000.0 0.2159213427420825 -0.31242854379780594
1453000000.0 0.16692691038686866 -0.3389444263075766
1459500000.0 0.16811900410697495 -0.3373058782720959
1466000000.0 -0.08819626644380762 -0.3636027634837415
1472500000.0 -0.29009766875308635 -0.22898052349591613
1479000000.0 -0.3260998659742992 0.15277554485249883
1485500000.0 -0.110764087115006 0.33260602622784124
1492000000.0 0.2735148979305688 0.20266521558516143
1498500000.0 0.20532177670312274 -0.25529280392298603
1505000000.0 0.0006145039243349171 -0.3158326645214442
1511500000.0 -0.29503449530593434 0.08258289949514805
1518000000.0 -0.18462818018672567 0.22861073529310963
1524500000.0 0.24182154708105252 0.15715463639202476
1531000000.0 0.07097742649127216 -0.26994600323207
1537500000.0 -0.26131095178629565 0.08683064902652597
1544000000.0 0.2685185585415022 -0.030761073140371915
1550500000.0 -0.264345501659401 0.055715988126925305
1557000000.0 0.24313677094960306 -0.10634674668340253
1563500000.0 -0.2585105996702151 -0.056493278728796316
1570000000.0 -0.22873945994266323 0.13266462605118393
1576500000.0 0.11392500174215381 0.2383601032343247
1583000000.0 0.19830485617654003 -0.17677315868956373
1589500000.0 -0.042719637918672684 -0.2590302545719283
1596000000.0 -0.18600789604839915 -0.18203744941741223
1602500000.0 -0.23760023928111648 -0.09692120192469318
1609000000.0 -0.1607604286893575 -0.19859423981560614
1615500000.0 -0.1787629967199966 -0.17633526496369453
1622000000.0 0.15809496684983568 -0.19152000950514986
1628500000.0 0.15043255145700077 -0.1933787460414564
1635000000.0 0.2399418811863603 0.0064535935676839455
1641500000.0 0.23198977566157816 -0.02167331714653923
1648000000.0 0.20996094375807492 0.07917063964256961
1654500000.0 0.13255440314501477 0.16738524185517756
1661000000.0 0.16743863049695035 0.1149983495708718
1667500000.0 0.14920132055870883 0.11580206108331118
1674000000.0 0.14954791611059373 -0.08939355473380459
1680500000.0 0.1563005704200232 0.008257148479626835
1687000000.0 0.1283617688338621 0.06528452488312987
1693500000.0 0.13257059430745094 -0.0049602336857997725
1700000000.0 0.00308263868880115 -0.12531869619688923
1706500000.0 -0.11735467066919945 -0.024792659225411393
1713000000.0 0.029071361265684468 -0.11228287315486
1719500000.0 0.06681757642191569 0.09103438781649367
1726000000.0 0.07153153739934545 0.08475373688206578
1732500000.0 0.041897753889844146 0.09962690509173376
1739000000.0 -0.10017572676837273 0.035522020917730594
1745500000.0 0.09336584896848181 -0.04290777514110073
1752000000.0 -0.06103383186611338 0.08010847123234961
1758500000.0 -0.03232048387141352 0.0948059477934695
1765000000.0 -0.019725261369965042 0.0991440747191873
1771500000.0 -0.10104560159788334 0.016997600650293595
1778000000.0 -0.09353689738282993 -0.046655393348313735
1784500000.0 -0.027916607881574358 -0.10396622322938824
1791000000.0 0.051444863622625264 -0.0972403785922307
1797500000.0 0.02799781359414302 -0.10782030456982171
1804000000.0 -0.07992927689833193 -0.07365011669286982
1810500000.0 -0.028568022904177977 -0.10011022880464897
1817000000.0 -8.488613286953073e-05 -0.09535050169772734
1823500000.0 -0.0015368798926995186 -0.08421297648341329
1830000000.0 0.016676071453254872 0.07076897915720697
1836500000.0 0.013400639871517898 -0.06283166968176966
1843000000.0 -0.04246561973483779 0.030823859521525932
1849500000.0 0.030942581502853422 -0.03315357557884109
1856000000.0 0.03628417645099046 0.0027097389768660357
1862500000.0 -0.02612196897520378 -0.016297179531607787
1869000000.0 -0.023134014916538527 0.013924709548556189
1875500000.0 0.022544123909676354 -0.0007937048079528752
1882000000.0 -0.00847739896565305 -0.010886549118736908
1888500000.0 -0.00951806698297765 -0.007931372310014064
1895000000.0 -0.004258081943910562 0.012477086219955422
1901500000.0 0.015019123526935933 -0.011176636707744485
1908000000.0 -0.014510282433625328 0.014488255141182472
1914500000.0 -0.01586478697284864 0.017484765536677754
1921000000.0 0.021978183371579623 0.0021395550764535375
1927500000.0 -0.020082382083075265 -0.0069729269279859285
1934000000.0 0.019580122678851813 -0.003099114191683343
1940500000.0 -0.01626234367512138 0.0130389470690123
1947000000.0 0.01580794082194486 0.019119558152641276
1953500000.0 -0.01371242155790489 0.024866159752317495
1960000000.0 -0.022229383610978422 -0.02246357495652667
1966500000.0 -0.04215044207912135 -0.0013426303170643267
1973000000.0 0.013930919961436949 0.05149086035751388
1979500000.0 -0.06352460459796881 0.0019162824790649043
1986000000.0 -0.0011190094653797367 0.07818363573300416
1992500000.0 -0.0009541243442360166 0.08927818502767705
1999000000.0 0.0727600632298303 0.07065037054135925
2005500000.0 0.10480749762088389 0.03874479968857713
2012000000.0 0.10470108570222475 0.05853183978674042
2018500000.0 -0.0019498908730652413 0.12405122502563887
2025000000.0 -0.1296512167217659 -0.023763969286629147
2031500000.0 0.022635035586992328 -0.13397291448593676
2038000000.0 0.05032824262420746 -0.1292808808263936
2044500000.0 0.13486196798386216 0.040318429669409364
2051000000.0 0.04512014762470243 0.13406068703190063
2057500000.0 -0.13613216919959192 0.038321395283649896
2064000000.0 0.13381064929812295 -0.021299652866155674
2070500000.0 0.12323768834771068 0.057307979767729264
2077000000.0 0.03364564216904414 -0.12801312432675174
2083500000.0 -0.1257505922914895 -0.02993329538421665
2090000000.0 0.12313365887130441 -0.024998304361617558
2096500000.0 -0.08477630358508652 0.09107152597614546
2103000000.0 -0.09106720196399638 0.07910427463603922
2109500000.0 -0.0660228545578963 0.09923992178497272
2116000000.0 0.11312088338556829 -0.03498901429273857
2122500000.0 -0.00473218157681024 -0.12196610692613705
2129000000.0 -0.12181472006528207 -0.04030932467062402
2135500000.0 -0.13628621643496663 -0.0076481992708406134
2142000000.0 0.13530982614557618 -0.06220832014947293
2148500000.0 -0.14948818161724306 0.05847339289334089
2155000000.0 0.1369598243784078 -0.10708028276919584
2161500000.0 -0.17602926956420473 -0.05995978760455243
2168000000.0 -0.03010129968205002 0.19631004971268837
2174500000.0 0.07990410153156052 0.19384565682357893
2181000000.0 0.18900239911690186 0.11372754872293782
2187500000.0 0.23041130577087013 -0.015711273211666852
2194000000.0 0.23655254743461393 0.02183845717090026
2200500000.0 0.2442811215333924 0.027865696940514502
2207000000.0 0.24804037016166514 -0.014074250879649758
2213500000.0 0.1876958165175982 0.16535784348425323
2220000000.0 0.06558672311409575 0.23979863402257523
2226500000.0 -0.11531066475935992 0.214425483473159
2233000000.0 -0.23636413975312215 -0.04080996709845919
2239500000.0 0.004291041339261577 -0.23587438853488865
2246000000.0 0.0487639317350721 -0.22469646343822922
2252500000.0 0.11276902294605755 -0.19443401011379033
2259000000.0 -0.05588643677617735 -0.21264038512442984
2265500000.0 -0.2050031396941075 -0.05299226493580738
2272000000.0 -0.020485071503256798 0.20108988610440295
2278500000.0 0.08174840310145838 -0.17356938006953804
2285000000.0 -0.18093928076476146 0.008717004166337998
2291500000.0 0.16984159205734842 0.011945114264949704
2298000000.0 -0.0531388623690728 -0.15114330336167145
2304500000.0 -0.08710316036362327 0.12835594894946134
2311000000.0 0.12115052494624813 -0.0860433089553297
2317500000.0 0.13484197665742423 -0.06186358230356794
2324000000.0 -0.12253098632897065 0.0884804283796952
2330500000.0 0.03380754081874031 -0.14760038018857297
2337000000.0 -0.0043306122932353615 0.1524952277310854
2343500000.0 0.023893819012188695 -0.1520455950812845
2350000000.0 -0.09687160038096956 0.1204394165738256
2356500000.0 0.05438355012983252 0.14479104030907816
2363000000.0 0.15607704335303849 -0.018880049493489932
2369500000.0 0.014121442501172234 -0.15428816408556703
2376000000.0 0.11795795502786283 -0.1001712829580804
2382500000.0 0.08525577290568985 -0.12905500269377412
2389000000.0 0.15470141575802135 -0.014532020984302535
2395500000.0 0.11167865041377589 0.10555155281321396
2402000000.0 0.048928438501369034 0.1455942074012725
2408500000.0 0.021604820930519398 0.15454955555448452
2415000000.0 0.06704641313126417 0.14083659171388682
2421500000.0 0.09672944740050068 0.12317326529871675
2428000000.0 0.14253043399217954 -0.05872281896620539
2434500000.0 0.07765268020421129 -0.1298960278459574
2441000000.0 0.00786573296744321 -0.14904341354967385
2447500000.0 -0.1428344959578278 -0.03746205532637479
2454000000.0 -0.13928652288793883 0.04635852325062963
2460500000.0 -0.09043615283396186 0.11372032693868792
2467000000.0 -0.07731483971261482 0.12394923488980875
2473500000.0 0.03269748740495065 0.1408440152258423
2480000000.0 -0.08073058631235129 0.12042119221895288
2486500000.0 -0.14358008483993312 0.01904736214630709
2493000000.0 0.04356876772032073 -0.13936298105304487
2499500000.0 0.13190886018546383 -0.06402817184261564
2506000000.0 0.08464028900280028 0.12485469051262633
2512500000.0 -0.1290296338916955 -0.07705247317976169
2519000000.0 0.12290148684862993 -0.09063709638379351
2525500000.0 -0.09027018577235564 0.12551390726015849
2532000000.0 -0.004601748129173602 -0.15688711735091115
2538500000.0 -0.07733802508660531 0.1354542972773058
2545000000.0 -0.0776231353583569 -0.13619638932444422
2551500000.0 -0.140433613645497 0.059857559105448224
2558000000.0 -0.045568154022442214 0.14340935864994753
2564500000.0 0.14452294472172328 -0.05094700461591241
2571000000.0 -0.12396379481359539 -0.09025497024158317
2577500000.0 -0.049626758953920255 0.14366012349979856
2584000000.0 0.13735219203740856 -0.0629768027315571
2590500000.0 -0.13575368132480511 0.06460199857295695
2597000000.0 0.14613329222145546 0.015920782384618408
2603500000.0 -0.06230589672212363 -0.12874177058524194
2610000000.0 0.005072486548612545 0.1364312844944519
2616500000.0 0.11354985120693721 -0.06739489674113051
2623000000.0 -0.12172237047657093 -0.02915181797852888
2629500000.0 -0.04188381830145841 0.11278532799599926
2636000000.0 0.05814610501994515 -0.09567062408901442
2642500000.0 -0.06381756194443614 0.08306473413937578
2649000000.0 -0.07615580572987991 -0.06304551690186157
2655500000.0 0.0922771020787852 0.004488265002307238
2662000000.0 -0.009069535078228693 -0.08674905590909607
2668500000.0 -0.00458871616742319 0.08070627326176716
2675000000.0 -0.07173345668318169 0.018564894373608833
2681500000.0 -0.052687155196572605 0.04576470823389772
2688000000.0 0.007139792087001772 0.0684735985927609
2694500000.0 0.058859936534502895 0.03763593783539806
2701000000.0 -0.03342775316493099 -0.06471294825185646
2707500000.0 0.04228771223786858 -0.06938348262534096
2714000000.0 -0.020080230497575312 0.08705209276550896
2720500000.0 0.08303816037147058 -0.06104884713854208
2727000000.0 -0.06078642112801713 -0.09992932812486958
2733500000.0 -0.1094415438820659 -0.07309846627528584
2740000000.0 -0.12872710430519932 -0.06902137449556466
2746500000.0 -0.15007048100606374 -0.05044313333643993
2753000000.0 0.014785844046677953 -0.17009106054926074
2759500000.0 0.16153554071326096 -0.07905831683719082
2766000000.0 -0.03896914525534031 0.18691672808146187
2772500000.0 -0.11892118660821163 -0.15856723513046017
2779000000.0 0.10506571655261654 0.17829672029413915
2785500000.0 -0.2093808603395323 -0.05040842868697253
2792000000.0 0.21752435135900955 0.04883814223290325
2798500000.0 -0.1759896933481282 0.15072233531818785
2805000000.0 0.020826754475944648 -0.23590923713083506
