!Created with skrf (http://scikit-rf.org).
# Hz S RI R 50.0 
!freq ReS11 ImS11
400000000.0 -0.6205785316953133 0.36356341811548193
406500000.0 -0.6660526160436488 -0.24101885349559288
413000000.0 -0.007919569382526137 -0.6878363437970404
419500000.0 -0.622452610705045 0.25664811292110756
426000000.0 0.32138491658247487 -0.5730722311142392
432500000.0 -0.26267900049420945 0.5926962268847662
439000000.0 -0.44071848327149205 -0.46402556507903586
445500000.0 0.6247526712537167 -0.025178949204524275
452000000.0 -0.28172123408393057 0.5349331226133978
458500000.0 0.1729126659929114 -0.5656021476554255
465000000.0 0.05550777179426344 0.591083969106069
471500000.0 -0.5299324452817182 0.25400807526651015
478000000.0 -0.09735744446171156 -0.5731813170371263
484500000.0 0.4445432575431715 -0.3798823852473652
491000000.0 0.17684823528871735 -0.5498370610989007
497500000.0 -0.30543618589624866 -0.47285652680797563
504000000.0 -0.45182714544276353 0.28729016942412794
510500000.0 -0.0006214926394429658 0.5042016309552438
517000000.0 0.4632779204951905 -0.03062529748631515
523500000.0 0.4151979362942337 0.12482254812248669
530000000.0 0.39823382769190363 0.0453789364311388
536500000.0 0.2531472757129441 -0.25907975302573183
543000000.0 0.3454328283616601 0.02803459947820073
549500000.0 0.2007817194158731 0.25778553382722014
556000000.0 0.2757394637106658 -0.14120101344440994
562500000.0 0.07652655890091009 0.28245483313349246
569000000.0 0.24921615345844592 0.15256164337941278
575500000.0 0.22882181573110685 0.17374074160965072
582000000.0 0.13647534585844492 -0.2531012444277642
588500000.0 -0.2276101901013875 -0.18104102589011428
595000000.0 0.02746988804757551 0.29625077084872825
601500000.0 -0.07220978777285528 0.28664951853238413
608000000.0 -0.07786556544978378 0.28444784117183636
614500000.0 -0.26410414100831864 0.13397340000826125
621000000.0 -0.2466052521575176 -0.14863236061060356
627500000.0 0.05837481610372721 0.2867601475005543
634000000.0 -0.26412302837795093 0.1453412754637946
640500000.0 -0.24024668388911408 -0.17558175397028639
647000000.0 0.24594403193059028 -0.17705577262191613
653500000.0 0.3045310437203638 -0.026638657246575288
660000000.0 -0.020783244389525446 0.29831180875547
666500000.0 -0.2621014966114982 -0.133992950709122
673000000.0 0.21578581619810322 -0.19665891915562927
679500000.0 -0.020104411371728664 -0.2886833681964313
686000000.0 0.20474065732867225 0.1977564758412739
692500000.0 -0.24666203073771023 -0.1406184951917897
699000000.0 0.25026235856434165 -0.13229600791854218
705500000.0 -0.26546277243304156 -0.09212690236857579
712000000.0 0.1712165417251853 -0.2293303192106087
718500000.0 -0.24670497490934118 -0.138493514783168
725000000.0 0.11320468121014342 0.2702689640783726
731500000.0 0.08363218174884285 -0.2839577141578271
738000000.0 -0.24245464276116477 0.18978690642740625
744500000.0 -0.023514857605301812 -0.30966527797330873
751000000.0 -0.05322600369719965 0.31307611414590225
757500000.0 0.17791259180990485 -0.27487089008577237
764000000.0 -0.3402126081628959 0.008605969374657747
770500000.0 0.02018852372586874 -0.349357900259728
777000000.0 -0.19849655283801804 0.2947505121045767
783500000.0 -0.08008968332126727 -0.34750234829525
790000000.0 -0.2495676196427705 0.25988936884030445
796500000.0 0.34195679878729446 -0.1289389461246946
803000000.0 -0.32445402787736766 -0.16455123692247628
809500000.0 0.09643846903651433 0.3574923126925082
816000000.0 -0.14357321041723622 -0.3470005125741207
822500000.0 -0.25640191603256346 0.2809982748514643
829000000.0 -0.19152743601918054 0.33900719107851135
835500000.0 0.39170014341069065 -0.039911044417241213
842000000.0 -0.3261024333521653 -0.2488111879095284
848500000.0 0.016225903089276 0.4088103502040967
855000000.0 0.03965124150844886 -0.41526032108474314
861500000.0 -0.3330087920838723 0.24845305569559448
868000000.0 0.4136081235266315 0.108322933443944
874500000.0 -0.41447428149073184 -0.09769404264730562
881000000.0 0.31917476705495385 0.29057982434399365
887500000.0 -0.3050725650784578 -0.30776061339646654
894000000.0 0.30986185847751857 0.3073621552850514
900500000.0 -0.3955273246994707 0.18129623288892324
907000000.0 -0.2413433768480089 -0.3579625604518291
913500000.0 0.4070500123194943 -0.10963478070441936
920000000.0 0.2672326562703103 0.3139942701982159
926500000.0 0.2945877179869279 0.27451866309033846
933000000.0 0.057992432112597726 0.3796016113530165
939500000.0 0.12158244350751855 0.34527727815455234
946000000.0 0.05964622855880168 0.3377870846185548
952500000.0 0.0019018531241385564 0.31805675133268324
959000000.0 -0.2246371492490529 0.19622501078517604
965500000.0 -0.2778671180009273 -0.03525128611205064
972000000.0 0.22357657568277142 0.14680472022457616
978500000.0 -0.10005529280944706 0.23766867029463795
985000000.0 -0.23768400502991438 0.058870122899292394
991500000.0 -0.1406178735736357 -0.18460945493079456
998000000.0 0.207144466813365 0.06011110359084637
1004500000.0 -0.18866297726355163 0.08343720344211765
1011000000.0 0.15946776887997333 -0.11746615349755807
1017500000.0 0.06498481231069309 0.1751176634559136
1024000000.0 -0.15116788896869618 -0.08142232633082112
1030500000.0 0.11506997822306118 -0.10850525818799428
1037000000.0 -0.1450618496846513 -0.007825193510714985
1043500000.0 -0.05140982544643238 -0.12402524450186848
1050000000.0 0.09984580291133 0.0830075405442187
1056500000.0 0.12427621530525466 -0.0063475345410917315
1063000000.0 -0.012930773112242855 -0.11872917965090725
1069500000.0 -0.11425043459599941 0.01649275738091543
1076000000.0 -0.0693695971869472 0.08632345523118137
1082500000.0 -0.0853249156069488 0.06088671323404169
1089000000.0 -0.08946493306905769 0.049424507656040326
1095500000.0 0.0442863847079268 0.08964857698718007
1102000000.0 -0.07585987300308432 0.07488172228286935
1108500000.0 -0.09809568569834184 -0.0531081633965951
1115000000.0 0.0878019584462644 0.0861267653524543
1121500000.0 -0.13694894724122875 -0.008487582948633327
1128000000.0 0.13260812925125473 -0.07818678068469335
1134500000.0 0.155106352010909 0.06297628962936841
1141000000.0 -0.1498216789193038 0.10395249849399242
1147500000.0 -0.12313530751428216 0.15082991330946166
1154000000.0 -0.16376725337899045 -0.11906082774283414
1160500000.0 0.17621431460346904 -0.11150909952433666
1167000000.0 0.09188913087931096 0.1924210778284846
1173500000.0 -0.14961022246163982 -0.15155323507415497
1180000000.0 0.2036283333601878 0.06466603810007905
1186500000.0 -0.06341777003882591 -0.20796979425987927
1193000000.0 -0.228374470951556 -0.03660099887649853
1199500000.0 0.2244066508944538 0.08568259658113525
1206000000.0 0.09184551992257922 -0.2325520064507292
1212500000.0 -0.1665531805877949 0.202791065552168
1219000000.0 0.25711203206760547 -0.10012593055868978
1225500000.0 -0.27179309743647045 0.07516214572089719
1232000000.0 0.011923499966379852 0.2957126116983659
1238500000.0 0.3033001615476449 -0.04466093848735973
1245000000.0 -0.17227948740371168 -0.2583225309527764
1251500000.0 -0.17403295855774753 0.26436383070994635
1258000000.0 0.167847750423096 0.27444118225613523
1264500000.0 0.2597605302059949 0.18908016253547502
1271000000.0 0.32737904802199563 0.01839833778172388
1277500000.0 0.26784041303800027 -0.1991188077631586
1284000000.0 0.18311492065372728 -0.2843957982101406
1290500000.0 -0.09744947414649742 -0.32770822659746707
1297000000.0 -0.34593593927596833 -0.010730813794027058
1303500000.0 -0.2472943882338851 0.24255697911795593
1310000000.0 0.2715525940941915 0.21571521448669537
1316500000.0 0.13286710907983273 -0.31711401518966376
1323000000.0 -0.3414509770994431 -0.03677548717658358
1329500000.0 0.27266544962122413 0.20417343078119066
1336000000.0 -0.006944431762600737 -0.33618723300623143
1342500000.0 -0.21052918686950187 0.2563548289328096
1349000000.0 0.28738559852349105 -0.1594475185881405
1355500000.0 -0.1051910742000513 -0.3117194075002389
1362000000.0 -0.11179951088554782 0.3094738816618409
1368500000.0 0.3274014088132331 -0.06350220392367631
1375000000.0 -0.2840082132132553 -0.18807963955690274
1381500000.0 0.27166919879888113 0.2116509861467867
1388000000.0 -0.12167049164082587 -0.3281594607524898
1394500000.0 -0.13564730765351113 0.32408181665682845
1401000000.0 -0.34091162021008853 0.09547951073843013
1407500000.0 -0.07818017091589613 0.3505595896719661
1414000000.0 0.2652650444158105 0.2534199612664386
1420500000.0 0.37268548537435314 -0.006970591791867029
1427000000.0 0.28974077538729465 -0.23857172106660893
1433500000.0 0.2650105083285761 -0.2706634130808233
1440000000.0 0.09119316651843178 -0.36694087049271457
1446500000.0 0.16363993978957922 -0.34280867306192647
1453000000.0 0.10463070848627601 -0.3643542995953621
1459500000.0 0.09730027783861675 -0.36471607586990507
1466000000.0 -0.14631709519529995 -0.34536589196070705
1472500000.0 -0.24201965263655378 -0.28222210313932455
1479000000.0 -0.35757388498584575 0.06577051602206664
1485500000.0 -0.26660922393417835 0.23395616124406735
1492000000.0 0.09991442377043189 0.32984557859860275
1498500000.0 0.32899040928363954 -0.04501641977887709
1505000000.0 0.2690515954670006 -0.17381052903206415
1511500000.0 -0.22990587842584886 -0.20840299388375605
1518000000.0 -0.25499614977559004 0.15384018648304232
1524500000.0 0.27088017924244934 0.10651310537422715
1531000000.0 -0.05894546607001216 -0.2747018192673921
1537500000.0 -0.12910763471365844 0.24443394733114945
1544000000.0 0.1746443860364699 -0.20758093539952696
1550500000.0 -0.10850215827771335 0.24911555521806222
1557000000.0 -0.10571133718443834 -0.24511052008403977
1563500000.0 0.05238230314517083 0.2623068046261839
1570000000.0 0.16380902542630682 0.20968334260984992
1576500000.0 0.25945924317398683 -0.05591086524674448
1583000000.0 -0.04518495853224192 -0.26246289947605844
1589500000.0 -0.2190747323761594 -0.1481532189284161
1596000000.0 -0.26216990754878394 0.004238548544828787
1602500000.0 -0.23512120090331035 0.11068701382451612
1609000000.0 -0.24287427318541605 -0.08878791219074261
1615500000.0 -0.24743094671700822 -0.05627010276321951
1622000000.0 0.04645550483010395 -0.2451595099583583
1628500000.0 0.01156551270949796 -0.24621791755433645
1635000000.0 0.22258286263512253 -0.09053168584655157
1641500000.0 0.22813001901744176 -0.04955251765358371
1648000000.0 0.2107414750909947 -0.08185172775110593
1654500000.0 0.21225816904060857 0.04286393701212735
1661000000.0 0.2024856435023027 -0.039014258770580276
1667500000.0 0.18836549886875495 -0.030936595936065292
1674000000.0 0.06613041158992596 -0.16193152682763648
1680500000.0 0.1564589767638244 -0.01367458475141228
1687000000.0 0.1416370937846744 0.030142713175720526
1693500000.0 0.1250027950714894 -0.04488741509821452
1700000000.0 -0.046971456692262575 -0.115625619318516
1706500000.0 -0.10722446790212978 0.0493915616277929
1713000000.0 0.013285921520428826 -0.11342951216114851
1719500000.0 0.04465235821088428 0.10191778842340184
1726000000.0 0.029930347527917848 0.10664873310412147
1732500000.0 -0.01665193605356135 0.10723867923647502
1739000000.0 -0.10256593301624481 -0.029371800896218322
1745500000.0 0.10375027722073737 -0.007753541049925154
1752000000.0 -0.06993359988724393 0.07570224773283593
1758500000.0 0.025708263416990382 0.09915503471560834
1765000000.0 0.07113514017772302 0.07381858181057972
1771500000.0 -0.052610397590249144 0.08782882258308423
1778000000.0 -0.09166704988254688 -0.049714304754342395
1784500000.0 0.07221106560851463 -0.08139340087023374
1791000000.0 0.09779809006866479 0.05478058124170725
1797500000.0 0.11449398898061974 0.0051304629499110315
1804000000.0 0.005309790948237273 -0.11254678265244066
1810500000.0 -0.02466749584081968 -0.10400762255426718
1817000000.0 -0.019566914649864233 -0.0955082964455146
1823500000.0 -0.005498189421252824 -0.08533710278669628
1830000000.0 -0.017240930439376374 0.0719790966792712
1836500000.0 0.05055003717293025 -0.041155919494101696
1843000000.0 -0.008676559268590624 -0.05299577865792507
1849500000.0 -0.01997495556359993 0.04248467393528132
1856000000.0 -0.037353914735299365 0.00719544009280919
1862500000.0 0.029656073118751004 0.014757176356802421
1869000000.0 0.02556488079476514 -0.015066177081553226
1875500000.0 0.012288418454341562 -0.022174812561091602
1882000000.0 0.011234905276240449 -0.011622403836013855
1888500000.0 0.011577928577818874 0.005931083820654121
1895000000.0 -0.004024005767572266 0.009143368614364822
1901500000.0 0.006046892363550016 -0.010578005290036887
1908000000.0 -0.010679727234385915 0.010452777288382162
1914500000.0 0.014304184417747048 0.013460476562702668
1921000000.0 0.017061509023269937 -0.01022475228122546
1927500000.0 0.01700040076701221 0.010443127296423809
1934000000.0 -0.015976368822040794 -0.013953941900435514
1940500000.0 -0.012209470999745477 -0.021330778467306428
1947000000.0 0.026235297135037233 0.014993650960932293
1953500000.0 0.03196167137967754 0.011104761229569495
1960000000.0 -0.033868683949737424 -0.01408325308103792
1966500000.0 0.03605726832534932 -0.029104052081300062
1973000000.0 0.04975713261382003 0.02765362358218825
1979500000.0 -0.05911469024894565 0.03161160225858428
1986000000.0 0.06328117361170806 0.05160191549065495
1992500000.0 0.057494225822498045 0.07183934634439422
1999000000.0 0.10153211004347969 -0.01564492574944169
2005500000.0 0.10568753956009519 -0.03682096663996988
2012000000.0 0.1118256766514243 -0.04463968685997967
2018500000.0 -0.036087034336725624 0.11776643573248559
2025000000.0 -0.020070988557153103 -0.12818750107318735
2031500000.0 0.1227573241013929 -0.05557351337112178
2038000000.0 0.13448597352140126 -0.0405526694688029
2044500000.0 0.05915530316621302 0.1293921258360907
2051000000.0 -0.02610718528028291 0.1404401381448928
2057500000.0 -0.13065019870956207 -0.05293309198737749
2064000000.0 0.03687295298020967 -0.13261892720048646
2070500000.0 0.09231049993551821 -0.10274120182728659
2077000000.0 -0.10524155277608141 -0.08515038785064673
2083500000.0 -0.10369413238171686 0.0811510072678209
2090000000.0 0.019373256159669096 -0.1272312254024814
2096500000.0 0.09118290283411352 0.09094202479608346
2103000000.0 0.01064333103006394 0.12408827157256876
2109500000.0 0.028305987396197125 0.12026389310085561
2116000000.0 0.085104688003914 -0.08896169071905498
2122500000.0 -0.0646902276907303 -0.11028465642154275
2129000000.0 -0.11580497341068333 -0.06669176232863211
2135500000.0 -0.07182282142020087 -0.12073265871554369
2142000000.0 0.12384655662987196 0.08634720045044932
2148500000.0 -0.11305697491732203 -0.11773586380683312
2155000000.0 0.16550869098917204 0.0608322433862745
2161500000.0 -0.1158911898384784 -0.15195610550164954
2168000000.0 -0.15904197106658152 0.12328254023050539
2174500000.0 -0.015385791722493526 0.21269059220606243
2181000000.0 0.13677125300433857 0.17771519575436723
2187500000.0 0.20982489239045027 0.10376180091996337
2194000000.0 0.19657499669381356 0.1427726310146568
2200500000.0 0.22767499110791084 0.10132243007563027
2207000000.0 0.24463979201490757 0.049728935802813456
2213500000.0 0.14756680966793545 0.20304209401819276
2220000000.0 0.02135601205795493 0.2479567784886953
2226500000.0 -0.14667271589067182 0.19440081372381332
2233000000.0 -0.2358399422374908 -0.040332904522764855
2239500000.0 0.006481411064849267 -0.2354167757323816
2246000000.0 0.035405263672691076 -0.2263258132223266
2252500000.0 0.09889856263584007 -0.20025025126188578
2259000000.0 -0.04098516164076207 -0.2137049441308614
2265500000.0 -0.18820834967447067 -0.09200775791022635
2272000000.0 -0.11820738997919636 0.1617908436401693
2278500000.0 0.1585887517237535 -0.10510984586815689
2285000000.0 -0.15250611011092174 -0.09486466659103403
2291500000.0 0.15649536677556192 0.06378987991651185
2298000000.0 0.02317913976726176 -0.15754938230733478
2304500000.0 -0.10302810890364508 0.11444162737523304
2311000000.0 0.14310779851114097 -0.029017572893656318
2317500000.0 0.1451969890231301 -0.006587553291155834
2324000000.0 -0.14709893690957598 -0.012775012471482971
2330500000.0 0.14635089522071484 -0.021326653820937846
2337000000.0 -0.14896245272946793 -0.013766013799409864
2343500000.0 0.150984036484708 -0.009936098113101107
2350000000.0 -0.14130053073108922 -0.05601946992985598
2356500000.0 -0.08359173413489701 0.12709179071127874
2363000000.0 0.09167965892533025 0.1239930567491093
2369500000.0 0.13803593683643067 -0.06376987532482425
2376000000.0 0.1321936290155366 0.07409238548282958
2382500000.0 0.1499409925635946 0.01990648878773357
2389000000.0 0.053578957253506095 0.14219190469552406
2395500000.0 -0.06956039491162405 0.13447742408696126
2402000000.0 -0.1357205029107489 0.0680048201472489
2408500000.0 -0.14193371506594246 0.058874949692762454
2415000000.0 -0.1270314589316157 0.08399545260770559
2421500000.0 -0.10718226242720942 0.10944398535861607
2428000000.0 0.05499890475766315 0.14006547605674596
2434500000.0 0.12432224090839278 0.07940216379850912
2441000000.0 0.1445374576513397 -0.009719074312684596
2447500000.0 0.002083666343815743 -0.1431450758878455
2454000000.0 -0.12969639823669912 -0.05788386319887292
2460500000.0 -0.13372111556663677 0.04184484851120433
2467000000.0 -0.094861127162087 0.10377275623345623
2473500000.0 -0.013952973401693922 0.13886981107172802
2480000000.0 -0.11698425003903021 0.07765482522650376
2486500000.0 -0.13859610056663585 -0.027971243841796185
2493000000.0 0.0512152631040298 -0.1340547157147132
2499500000.0 0.13724130416043245 -0.04873300405594424
2506000000.0 0.1192895992924261 0.08871302932463526
2512500000.0 -0.1362258642360046 0.05672948796881446
2519000000.0 0.07837572062777316 -0.12805029472843604
2525500000.0 -0.08882265718792669 0.12559672621700851
2532000000.0 -0.029650869615166657 -0.15430022297900134
2538500000.0 -0.04855349337794543 0.14679203255976694
2545000000.0 -0.042972538523894904 -0.1508440689093777
2551500000.0 -0.10766360309138791 0.10881704649086675
2558000000.0 0.08769381438445926 0.12645765287622357
2564500000.0 0.066291454627651 -0.13852427777877674
2571000000.0 -0.15417156620891725 0.005547144983911689
2577500000.0 0.06254666938697978 0.1411718994680202
2584000000.0 0.09777744502955509 -0.11666090941859743
2590500000.0 -0.1490933708527557 0.010538810886550249
2597000000.0 0.06608206655575383 0.1295598440424252
2603500000.0 0.11996062407031127 -0.07496522031685943
2610000000.0 -0.13163377667677634 -0.03111027340575916
2616500000.0 -0.015162360930617978 0.13018880305597744
2623000000.0 0.08541738969527338 -0.0907100317990293
2629500000.0 -0.07310009399405462 -0.09630212706756651
2636000000.0 0.006424936389610029 0.11327370844800598
2642500000.0 0.10695043680709351 -0.004993615755133991
2649000000.0 -0.025848915949460136 0.0982699327218171
2655500000.0 -0.018646937652666666 -0.09219520478072311
2662000000.0 -0.0848144494563368 0.025417873908602683
2668500000.0 0.0693270068906561 -0.04735739976836358
2675000000.0 0.05229475992667321 0.05719296327772768
2681500000.0 0.057665754471035925 0.0423824266181349
2688000000.0 0.06531224152085309 -0.019701133016511697
2694500000.0 -0.0668360101099431 -0.004338706413385496
2701000000.0 0.03305134689500673 -0.06064414093847331
2707500000.0 0.006789694135851504 -0.07667951789957195
2714000000.0 -0.04805707108507256 -0.06689819403845612
2720500000.0 0.051165622850566396 0.08300145939974801
2727000000.0 0.10815070083190272 0.009514547548953919
2733500000.0 -0.03121265452499359 -0.12359782034221937
2740000000.0 -0.045807684933150405 -0.13596514577286428
2746500000.0 -0.14263363223190942 -0.057422215915233527
2753000000.0 -0.01774301437972648 -0.1652709516586359
2759500000.0 0.15083080845111532 -0.08905475424103403
2766000000.0 -0.09323427169837716 0.16083393373949992
2772500000.0 -0.003999866236302211 -0.19188281033539878
2779000000.0 0.12196671512711396 0.1645820090917776
2785500000.0 -0.21421394686356604 -0.005921343996696968
2792000000.0 0.21877809846023655 -0.03968377561619318
2798500000.0 -0.0828645005721826 0.21718173359185122
2805000000.0 -0.08314034814395255 -0.22368555177324606
2811500000.0 0.2332811900891418 0.08133923083326984
