!Created with skrf (http://scikit-rf.org).
# Hz S RI R 50.0 
!freq ReS11 ImS11
400000000.0 -0.7201189002735825 0.08323020642202732
406500000.0 -0.5536385693675304 -0.45213833811350324
413000000.0 0.3162031162000589 -0.615100970084078
419500000.0 -0.675802525185393 0.03554556615666096
426000000.0 0.3926561159781226 -0.5301847207232864
432500000.0 -0.2811201685647251 0.5871631707932314
439000000.0 -0.26464254602369697 -0.5874572240886826
445500000.0 0.6236869972474898 -0.07872919734275721
452000000.0 -0.44301114393376095 0.4169558615424843
458500000.0 0.24122751108940108 -0.5443272435592321
465000000.0 0.07070689812115229 0.5913332609164876
471500000.0 -0.5183920106157547 0.2750078295020782
478000000.0 -0.2149463045673365 -0.5361088433496205
484500000.0 0.3985108957121377 -0.425656027140094
491000000.0 -0.13298703482184826 -0.5654800157581852
497500000.0 -0.5425312252231285 -0.16567705392382756
504000000.0 -0.2480076890703935 0.4769130282337679
510500000.0 0.21381963097701187 0.45905559792662287
517000000.0 0.4626785743601533 -0.06126334397829164
523500000.0 0.4324354902414626 0.08021504547825292
530000000.0 0.40535417087016024 0.027232321179719018
536500000.0 0.15192886215337634 -0.33482098341127803
543000000.0 0.3400057631008928 -0.08875431840826122
549500000.0 0.30475544602079263 0.12836493915286484
556000000.0 0.27612618536938066 -0.14406450030654766
562500000.0 0.052425859383659956 0.2912224187474723
569000000.0 0.21232624531463107 0.20267329169630788
575500000.0 0.10026046443054762 0.2711306966114635
582000000.0 0.24786954178704357 -0.1470529548803209
588500000.0 -0.09005452733646649 -0.27937280806766296
595000000.0 -0.15910512243975233 0.2551919401279951
601500000.0 -0.16566483190761142 0.24771115663958784
608000000.0 -0.23152083360192247 0.18380929324095593
614500000.0 -0.29649874682941285 0.024841692015811913
621000000.0 -0.17203440369392017 -0.2321627182958357
627500000.0 0.03512731751125897 0.29223929757597605
634000000.0 -0.2864375441996785 0.09646592512819958
640500000.0 -0.193120372487991 -0.22496712800521634
647000000.0 0.274634404819077 -0.12547314870512458
653500000.0 0.3061171956545246 0.012043619062099475
660000000.0 -0.06638246254134433 0.28985733637734207
666500000.0 -0.19662818185711772 -0.21939469833988573
673000000.0 0.2792958386000729 -0.08238215575358757
679500000.0 0.09719433135453857 -0.27440107584112994
686000000.0 0.11238691231513173 0.26066161370596047
692500000.0 -0.20870263237542913 -0.1918379678131798
699000000.0 0.2837276821808178 -0.003052355181293191
705500000.0 -0.2638415638103001 -0.10322704851778008
712000000.0 0.13896165030637417 -0.25023504736003715
718500000.0 -0.27605018163259587 -0.06948025355491955
725000000.0 0.13716845767179692 0.2593244643045188
731500000.0 0.07694843489546345 -0.28530043196474403
738000000.0 -0.1907201479551758 0.24132957781713366
744500000.0 -0.01509784536800214 -0.3086497282331076
751000000.0 -0.13822444348092908 0.2857240346711462
757500000.0 0.17510741341741073 -0.2764284843340092
764000000.0 -0.337011314919823 0.049161861738086406
770500000.0 -0.07196352215293722 -0.3437328980325563
777000000.0 -0.04423106770501737 0.3526381754762363
783500000.0 -0.22992379168461174 -0.2723871435733662
790000000.0 -0.00906485883441422 0.35919287751984685
796500000.0 0.1526900890943105 -0.3298805227307551
803000000.0 -0.3565297899889727 0.0512927610903802
809500000.0 0.26278586902801293 0.25739229021966586
816000000.0 -0.1142546505226874 -0.3551072990094979
822500000.0 -0.3508061586853649 0.14894771864445938
829000000.0 -0.3278140541302774 0.21112010359153166
835500000.0 0.3564805807403945 0.1787333343397974
842000000.0 -0.1684124219682782 -0.378504349227435
848500000.0 -0.15516876412360014 0.38339337390264366
855000000.0 0.1979772900075375 -0.37388798121764194
861500000.0 -0.41402215996543607 0.05933115996669151
868000000.0 0.30088680882559043 0.30694778736204725
874500000.0 -0.23627536092706808 -0.35867936450986837
881000000.0 -0.07102606508838723 0.42873736193043743
887500000.0 0.11697167795770269 -0.42247538757048947
894000000.0 -0.09282491189957538 0.4310638461639499
900500000.0 -0.41924366919265776 -0.13514616644921082
907000000.0 0.15040109763830273 -0.4106087348767248
913500000.0 0.39270661331261236 0.1652100522956406
920000000.0 0.1596140927119609 0.3849894419932604
926500000.0 0.18572070109675612 0.3598050058727836
933000000.0 -0.03620519300877748 0.3829495821911654
939500000.0 -0.016678795106478586 0.3655991939108619
946000000.0 -0.13054353274680244 0.317480680156505
952500000.0 -0.1624472511152702 0.27424899392737073
959000000.0 -0.27746279521963724 0.11035277056430416
965500000.0 -0.2595475750613891 -0.10888748455605425
972000000.0 0.1771241713173743 0.20254847624712846
978500000.0 -0.11215168014627648 0.23328120786861073
985000000.0 -0.2073009598141195 0.1309131587503187
991500000.0 -0.23268613697908286 -0.0034865130486330807
998000000.0 0.17599657263303595 -0.12690176809407774
1004500000.0 -0.12133392364124333 0.16942287050767396
1011000000.0 0.1802781504691781 -0.08620901870174394
1017500000.0 -0.07852076881669005 0.17218268611914828
1024000000.0 -0.023883616810319173 -0.17381038099778626
1030500000.0 0.16271316110796985 0.005282200988264348
1037000000.0 -0.07254759289970401 -0.12974798767997034
1043500000.0 0.09284444991118956 -0.09969263329298883
1050000000.0 -0.030452331057419152 0.1270779862851816
1056500000.0 -0.006634180765534685 0.12418622572571995
1063000000.0 0.11551668013153482 -0.02706056080937135
1069500000.0 -0.01783388029625923 -0.11159399918608454
1076000000.0 -0.0833558856856694 0.06586138515384891
1082500000.0 -0.032386487580589006 0.09503357261440425
1089000000.0 0.00041918837626224643 0.09848703325796201
1095500000.0 0.0958926089168698 0.004357448499069935
1102000000.0 0.0034221804511068796 0.10158782553777165
1108500000.0 -0.10623699114523595 -0.002695397828638518
1115000000.0 0.1136529720435952 -0.031511676786984175
1121500000.0 -0.051336063414985235 0.12021187428114635
1128000000.0 -0.028462267811152443 -0.1435409233800798
1134500000.0 0.10340536578100128 -0.125207103388108
1141000000.0 0.02192861053449245 0.1768964750337342
1147500000.0 0.0037785226530314686 0.19213173009062082
1154000000.0 -0.20063702380941958 0.008387385287940181
1160500000.0 0.0944183753017143 -0.18753754006044687
1167000000.0 0.14507024170060093 0.15996306774733973
1173500000.0 -0.18344058891345622 -0.11768422627945274
1180000000.0 0.17091944175325555 0.141150945985976
1186500000.0 -0.10735782500632896 -0.196455249000427
1193000000.0 -0.23171428609372566 0.018435874617701437
1199500000.0 0.23956136844539483 0.018167669880379652
1206000000.0 0.0369705134010021 -0.24677406059984197
1212500000.0 -0.16822005781281743 0.20058074388606809
1219000000.0 0.2629158162646551 -0.08593368394192873
1225500000.0 -0.27123088735971473 0.0889865314271554
1232000000.0 0.12276830692687654 0.2687264995149194
1238500000.0 0.2360947678567656 -0.1913466516042218
1245000000.0 -0.252275431650736 -0.1807039686250454
1251500000.0 -0.2212843814304614 0.2289592047114182
1258000000.0 0.19966613122106616 0.25453316787894975
1264500000.0 0.235455602101919 0.22252245921022598
1271000000.0 0.32381556356835095 -0.05924436924683214
1277500000.0 0.19873896579026995 -0.2688556287196427
1284000000.0 0.08594135469613232 -0.32726523363689886
1290500000.0 -0.10775241510244554 -0.3248152574300323
1297000000.0 -0.34218344394003514 -0.056857735758405054
1303500000.0 -0.2881100938229612 0.19446096393552048
1310000000.0 0.21664414008224855 0.27539305272733744
1316500000.0 0.25149414776023005 -0.24377302750145932
1323000000.0 -0.3163053705320581 -0.14830219697069624
1329500000.0 0.23392411737403457 0.25614037011490093
1336000000.0 0.12425141735266577 -0.3188696717263144
1342500000.0 -0.32719954559399117 0.08415109263142281
1349000000.0 0.2845594475025367 0.1760870466726843
1355500000.0 0.13940263053102905 -0.30299774616966607
1362000000.0 -0.31997768885477745 0.09400473188609933
1368500000.0 0.2959767008347281 0.16089849579800003
1375000000.0 -0.053714686892824146 -0.33980520018468036
1381500000.0 0.061759881984245375 0.34192837363130657
1388000000.0 0.11483127896023396 -0.3345537602534396
1394500000.0 -0.31402037489765217 0.1655785885954618
1401000000.0 -0.35604739407513064 0.022044269564373473
1407500000.0 -0.01715161381007744 0.35994087162249155
1414000000.0 0.24751214607876784 0.26769520891628995
1420500000.0 0.3669255740752655 0.0451467920504748
1427000000.0 0.32038204329469006 -0.18910190391041654
1433500000.0 0.32436036793423606 -0.18980731822656907
1440000000.0 0.16625368074786123 -0.3360182301521516
1446500000.0 0.23361323658064487 -0.2958920524976144
1453000000.0 0.14737412585740306 -0.34627172972383646
1459500000.0 0.1551695894166522 -0.3412566260332254
1466000000.0 -0.12017071485908863 -0.3522838991042256
1472500000.0 -0.2745963028827817 -0.2457634032842478
1479000000.0 -0.34945542097158766 0.0827523236275682
1485500000.0 -0.2298776792131612 0.26327047891052513
1492000000.0 0.16447464396414502 0.2960466331942553
1498500000.0 -0.018455591234790493 -0.3271490079482466
1505000000.0 -0.243044320806128 -0.2051988983871472
1511500000.0 -0.24285790594864162 0.18972809145532482
1518000000.0 0.02967842928216178 0.29324488652775665
1524500000.0 0.258369163662975 -0.12909504101990985
1531000000.0 -0.21491319986431023 -0.1806949043818606
1537500000.0 0.2741255406549946 0.05269151853638282
1544000000.0 -0.24310019710635217 -0.12893431397378963
1550500000.0 0.25352819078341365 0.10883238253047467
1557000000.0 -0.24192482697492274 -0.12074004495756038
1563500000.0 0.09273119606079527 0.25407783513806353
1570000000.0 0.16717050941985834 0.2117811829382446
1576500000.0 0.23799871689930835 -0.12639031633617262
1583000000.0 -0.1288800337232299 -0.23761651094156613
1589500000.0 -0.2485363256463317 -0.10175417743299903
1596000000.0 -0.2565244202020845 0.07316459985608326
1602500000.0 -0.18891010097397617 0.18415068567749587
1609000000.0 -0.26233987350937654 0.0026277687537239027
1615500000.0 -0.25224791330415164 -0.04890189546544605
1622000000.0 0.04555725526935423 -0.2487380572694104
1628500000.0 0.03189953223274926 -0.24560473397199759
1635000000.0 0.2352902084520302 -0.05028407319287157
1641500000.0 0.23280793365432995 -0.014838746666593548
1648000000.0 0.19089464599607886 0.12023626866059946
1654500000.0 0.14060660468225689 0.16336142379588622
1661000000.0 0.18742266410750558 0.08340504109568889
1667500000.0 0.19189473977311217 0.007496738061615944
1674000000.0 0.07326638910151437 -0.1611310646803099
1680500000.0 0.13457549862214438 -0.08302746062101808
1687000000.0 0.14441878482751672 0.01300928455249535
1693500000.0 0.13217455430061725 0.008905632411863752
1700000000.0 0.025279115888160803 -0.12253878932085897
1706500000.0 -0.10552489999567946 -0.05489735134374221
1713000000.0 0.07599177184089027 -0.08596399133034022
1719500000.0 -0.0016302134955049339 0.1125853314583339
1726000000.0 0.026842489408343106 0.10856163620463212
1732500000.0 0.010986028152383408 0.10909901185228255
1739000000.0 -0.10778077209180284 0.0050623892603498775
1745500000.0 0.09312719022430747 -0.04654986337524748
1752000000.0 -0.06987440716075372 0.07470742417663748
1758500000.0 -0.056008809903402935 0.08465259524475002
1765000000.0 -0.036547750980960074 0.0959888638393261
1771500000.0 -0.1023683891998602 -0.019520376461874413
1778000000.0 -0.06559786881020715 -0.08231567191596982
1784500000.0 0.03820111702893647 -0.10155049899612835
1791000000.0 0.11063827772774588 0.006624921829572333
1797500000.0 0.11189930594001245 -0.013765638656844749
1804000000.0 -0.00946347549938604 -0.10962777035606597
1810500000.0 0.03521360314658803 -0.0993184604299051
1817000000.0 0.06156413762337147 -0.07454475392956035
1823500000.0 0.02520483163889552 -0.08159996887395288
1830000000.0 -0.048658306362754186 0.05566287528099026
1836500000.0 0.06327519864881888 0.016828683088676032
1843000000.0 0.047196549477565734 -0.02599086564529255
1849500000.0 -0.044503213256358094 0.0146939586372021
1856000000.0 -0.027972199548918057 -0.02414389715672466
1862500000.0 -0.01920115781725521 0.025459380287625167
1869000000.0 -0.01923376776314745 0.02136168788777605
1875500000.0 0.016743048137071545 0.017572557155485707
1882000000.0 0.012779260419291144 0.0071102770655369
1888500000.0 -0.010566557603493565 0.0034277473325328217
1895000000.0 0.007050927668074061 -0.0031264080447550623
1901500000.0 -0.002383987714022197 0.008589900492677415
1908000000.0 -0.01075348871466883 -0.008455910332013634
1914500000.0 0.0003386793758448397 -0.017885423761299868
1921000000.0 0.0082811551515859 0.017218170403585555
1927500000.0 0.0133200116105399 -0.015139560717088739
1934000000.0 0.012962209627786743 0.016414630787040547
1940500000.0 -0.0005791435273768873 -0.0233950501395349
1947000000.0 -0.014413785375000862 0.024683890545219248
1953500000.0 0.02928083893566684 0.01313354849080046
1960000000.0 -0.0032711946032122447 -0.03534032281347362
1966500000.0 0.042496180290589824 0.017705854992908315
1973000000.0 0.011485049753640406 -0.055901054889069456
1979500000.0 0.05797145472245659 0.03361306655159562
1986000000.0 0.05301084729470886 -0.06270409468243333
1992500000.0 0.07492752581234792 -0.05412301146415159
1999000000.0 0.001601991060729786 -0.10301063195722882
2005500000.0 -0.006936135667279136 -0.11265517433898672
2012000000.0 0.040535487840073554 -0.11379651697101081
2018500000.0 0.10741937133139993 0.06493159390471755
2025000000.0 -0.09420407652366453 0.09308372490626134
2031500000.0 -0.07047329997067614 -0.11716073726161857
2038000000.0 -0.02500073451860363 -0.1371288172078823
2044500000.0 0.07557377439004229 -0.12086535709121582
2051000000.0 0.11138153350002677 -0.09726878891952784
2057500000.0 0.05847449970483626 0.13491873859071662
2064000000.0 -0.11995675544535696 0.08857454245321104
2070500000.0 -0.1501158206871908 -0.00040481108369805807
2077000000.0 -0.03415927211003417 0.14121144563503898
2083500000.0 0.1258128992909258 0.06611090238195913
2090000000.0 -0.13173073910164548 -0.043808212081847646
2096500000.0 0.1359994483510281 -0.0207560037163587
2103000000.0 0.09888210438938067 0.08800566077871186
2109500000.0 0.042060523921940485 0.12481198714534886
2116000000.0 0.12199199614832944 -0.0475123920512792
2122500000.0 0.05621376020446648 -0.12306696747750855
2129000000.0 -0.01913620933034878 -0.1397099414647718
2135500000.0 0.015182128498639494 -0.14667422601607147
2142000000.0 0.027480615045508375 0.15432731450641263
2148500000.0 -0.11784697408250257 -0.1172411323211315
2155000000.0 0.1733781481622067 0.03394316780697577
2161500000.0 -0.12125423432392651 -0.14236874565144697
2168000000.0 -0.14408050058811797 0.1384536480811838
2174500000.0 -0.01951903372610802 0.21125986564415122
2181000000.0 0.11794755127579751 0.18867600061005443
2187500000.0 0.218433735455431 0.08180358921540629
2194000000.0 0.22091783631556836 0.09680983907361616
2200500000.0 0.22899748978853093 0.09400331297943183
2207000000.0 0.24016299133633157 0.06699918493993748
2213500000.0 0.12170754156053852 0.21890016497767992
2220000000.0 0.013598149525493835 0.2479986125391664
2226500000.0 -0.15120470645843456 0.19071611168196873
2233000000.0 -0.2343326640074247 -0.04983967470104909
2239500000.0 0.0016221786959901047 -0.2354758373392301
2246000000.0 0.04078978997537381 -0.22537979705636382
2252500000.0 0.09850631741210152 -0.20082888357824238
2259000000.0 -0.05588738677657984 -0.21108013209140425
2265500000.0 -0.18391118377190777 -0.10281729617487168
2272000000.0 -0.12996306874322888 0.15437441864633875
2278500000.0 0.17279011587003512 -0.08283807691477309
2285000000.0 -0.1380957647284763 -0.11688340885377634
2291500000.0 0.13482913190833695 0.10258212844779618
2298000000.0 0.020449161776813687 -0.15784427696779232
2304500000.0 -0.12345342651111703 0.09241087845087612
2311000000.0 0.1451096794359531 -0.021763342588184544
2317500000.0 0.14555179102100163 0.018113056738029758
2324000000.0 -0.14896122175957233 0.0006582735238960804
2330500000.0 0.14471908492476754 -0.036899659889917266
2337000000.0 -0.15074864632668886 0.00492107812085186
2343500000.0 0.15045284221066907 -0.023188987353096387
2350000000.0 -0.1415424669812533 -0.05672479843268318
2356500000.0 -0.11209761275098376 0.10219849739174965
2363000000.0 0.07988449573477803 0.13086086805009284
2369500000.0 0.1492327727182139 -0.017002672836822857
2376000000.0 0.07082385990241488 0.12953894476996786
2382500000.0 0.11727783384126508 0.08802843902280355
2389000000.0 0.011572529580247038 0.14708077848786322
2395500000.0 -0.05703791619277253 0.1336381297786292
2402000000.0 -0.11144385583321516 0.09229801012039843
2408500000.0 -0.10233709492313418 0.10451535006312081
2415000000.0 0.002656390815113234 0.14443945430614127
2421500000.0 -0.021997612879614013 0.14349095454743124
2428000000.0 0.13630681919721543 0.040403149267069255
2434500000.0 0.12796876737791651 -0.05488639882986866
2441000000.0 0.07003106710013395 -0.11776366523826161
2447500000.0 -0.1081514769071281 -0.08115527988355178
2454000000.0 -0.1314619633934173 0.02649039976982483
2460500000.0 -0.07668450477453871 0.10769424466627037
2467000000.0 -0.11572201172115483 0.06646065483738822
2473500000.0 -0.053508806316855895 0.12160307059867216
2480000000.0 -0.12198929761212589 0.050522253980805704
2486500000.0 -0.10986556530595783 0.06885085603598766
2493000000.0 -0.05368492106648795 -0.11925979951462115
2499500000.0 0.049727376414078435 -0.12235316250830404
2506000000.0 0.13508716205657947 0.017550139949880455
2512500000.0 -0.13545810166392758 0.007556262460507377
2519000000.0 0.07442955119470383 -0.11665527402938679
2525500000.0 -0.09681184986404372 0.10201359107952566
2532000000.0 0.015061684010556594 -0.14227649237905873
2538500000.0 -0.12693034701120245 0.06415755345141243
2545000000.0 0.09256997016494795 -0.11075192842488288
2551500000.0 -0.11611319975046083 -0.08148585221554892
2558000000.0 -0.11392954480452094 0.08611722246839465
2564500000.0 0.11820869476858233 0.08082577769119097
2571000000.0 0.0754938082789236 -0.12584435117234335
2577500000.0 -0.027976092748775494 0.14813520007086406
2584000000.0 0.10627703701652219 -0.10336608482479186
2590500000.0 -0.1447860915711936 -0.0014489955623524866
2597000000.0 -0.10473613822158914 -0.0754733815018506
2603500000.0 -0.08827837359615179 0.08850229388943119
2610000000.0 0.10825411193522172 0.04871067331251329
2616500000.0 0.0681068561345949 -0.0929173858301886
2623000000.0 -0.1003030704933104 -0.04709130266211176
2629500000.0 -0.10503598861323582 0.02365083082402577
2636000000.0 0.028061465014376917 0.09581435900540536
2642500000.0 0.07607329663527311 -0.05836449942018156
2649000000.0 0.06552736405284272 0.06384885298852802
2655500000.0 -0.0848422957759982 -0.009242157154589902
2662000000.0 -0.0016502031315827079 0.07881449889547915
2668500000.0 0.04469092394730197 -0.055799969898255156
2675000000.0 0.00438404941660522 0.0624323790710446
2681500000.0 0.013840585795898188 0.054247524566184736
2688000000.0 0.044867786754229574 0.02836841925102373
2694500000.0 -0.021975676518509506 0.048511016162506436
2701000000.0 -0.055952924710840825 0.0005572679393385889
2707500000.0 0.0560591425269155 0.034308963941269956
2714000000.0 -0.04497985876433048 0.05747985503972297
2720500000.0 0.058006992814974366 -0.06561182606716308
2727000000.0 -0.07446028213459197 -0.06457125533935704
2733500000.0 -0.09442924584719559 -0.06506296432910465
2740000000.0 -0.12495056885363641 -0.03178019475368084
2746500000.0 -0.1255248389104319 -0.06640611934517857
2753000000.0 0.13013228418991765 -0.08855279957569007
2759500000.0 0.13170710049612475 0.10517373263612101
2766000000.0 -0.1749537642182266 0.04166231137920533
2772500000.0 0.07802652384949231 -0.17276259680081069
2779000000.0 -0.07276468272569266 0.18742095255141578
2785500000.0 -0.21395825954754402 -0.00871195336722806
2792000000.0 0.21766178853130647 -0.04887070002430145
2798500000.0 -0.09326907897712967 0.2133503785678865
2805000000.0 -0.07839104303659135 -0.22585070916286112
