!Created with skrf (http://scikit-rf.org).
# Hz S RI R 50.0 
!freq ReS11 ImS11
400000000.0 -0.8523378852604735 0.0937819781222427
420000000.0 0.3040734460056308 0.7807560886690179
440000000.0 0.2607866068501726 0.7313684478954166
460000000.0 -0.42663243850231225 0.5735502728664867
480000000.0 -0.17232147541714044 -0.6365894872373131
500000000.0 -0.15000746340629878 -0.6060675052816987
520000000.0 -0.12815951145330323 -0.5335175825890885
540000000.0 -0.4553359164613793 0.13844253200297926
560000000.0 0.040846291265118705 -0.4470216175012473
580000000.0 -0.3277270651396119 -0.24088553582490238
600000000.0 0.003990161195600244 -0.3713856533706111
620000000.0 0.3586788875017922 0.0008480472916203417
640000000.0 -0.3375448704556757 0.21967278598203097
660000000.0 -0.06350360716980825 -0.43056188361743725
680000000.0 -0.4024393687563569 0.160499511191831
700000000.0 0.2515299840473269 -0.34349509798759675
720000000.0 -0.3906925635757821 -0.10152610442904846
740000000.0 0.10168677661116982 -0.3577442241299917
760000000.0 -0.2476322064978463 0.23851864066117873
780000000.0 -0.09276753209169934 -0.33107313027238144
800000000.0 0.1962216887092419 0.24547805958092025
820000000.0 0.2711056598123229 -0.03803916075532693
840000000.0 -0.21099944465254117 0.10618383564222655
860000000.0 0.18236893765161244 0.0663416317321166
880000000.0 -0.1428809750794642 0.004546414834061805
900000000.0 0.08836538934698074 0.010192730130938153
920000000.0 -0.04028266719988879 0.03970773490327577
940000000.0 -0.042453668680241766 0.003901174453391267
960000000.0 -0.022013372885858307 0.040636281280286186
980000000.0 0.00704613269246628 -0.04403059532784092
1000000000.0 -0.03576776613458644 0.03722926931779129
1020000000.0 0.07129388248486648 -0.004539618480736765
1040000000.0 -0.06972531804765177 0.0780324217589954
1060000000.0 0.08435686388533464 0.11986957356935102
1080000000.0 -0.13203782871322 -0.12296926567971289
1100000000.0 0.2151199302782603 -0.010998836203527398
1120000000.0 -0.07070395390906285 -0.23281004939361
1140000000.0 0.22446248862036544 -0.15759858859896156
1160000000.0 -0.23064091764686534 0.1999415756207942
1180000000.0 -0.15601947625486828 0.28925484986817274
1200000000.0 -0.19695353376184993 -0.28804721929257115
1220000000.0 0.05122797170913456 0.36517177009433593
1240000000.0 0.11811187700451832 -0.3751091246850375
1260000000.0 -0.22098506415742467 0.33348879412974836
1280000000.0 0.1506213349595448 0.37502327700148896
1300000000.0 0.2752024695444333 0.2982493815982841
1320000000.0 0.14792367528093497 0.38236418474956274
1340000000.0 0.20247699504619504 0.3608740114339242
1360000000.0 0.3634260865182471 0.19353970717934682
1380000000.0 0.3830843873866013 -0.11501437218746799
1400000000.0 0.31854697677108307 -0.21645656188264323
1420000000.0 0.06810136512013218 -0.3650843186577965
1440000000.0 -0.2882237790279009 0.2019041792666062
1460000000.0 0.31012115397294476 0.08212216210340526
1480000000.0 -0.20090398719413785 -0.20762401062434727
1500000000.0 0.16243957004340448 0.19822402584051255
1520000000.0 -0.18546253058198892 -0.11252451307375032
1540000000.0 0.1419263846157204 0.09229427420646882
1560000000.0 -0.07911653169550772 0.09919077868016642
1580000000.0 -0.009428741935724728 -0.10409063800465428
1600000000.0 0.052832632526376745 -0.06244618228101263
1620000000.0 0.03868082073253713 -0.04974182897754694
1640000000.0 -0.01333386576739388 -0.040623463445721195
1660000000.0 -0.013012059267502952 0.01259650101348393
1680000000.0 0.007963159049835074 0.007708535205443028
1700000000.0 -0.011025175294977601 -0.026939740354730835
1720000000.0 -0.003328968162075983 0.04525829441960223
1740000000.0 -0.06611205279529836 0.019050138789080556
1760000000.0 0.09527681862749397 0.0013294523241722486
1780000000.0 -0.09589736744138366 0.08349163820782919
1800000000.0 0.1440051324202256 0.08125600317794737
1820000000.0 0.19670070000913079 -0.004161019879270766
1840000000.0 0.04346495620490466 0.22262712777284943
1860000000.0 -0.2355031942646685 0.11451558278122462
1880000000.0 -0.10616918273913713 -0.2727476275263919
1900000000.0 0.22985834898172808 0.21481648449397647
1920000000.0 0.24407532658496345 -0.23171993634064916
1940000000.0 -0.1306249103755984 -0.3393240673143282
1960000000.0 -0.3529224137548635 0.15905080866356833
1980000000.0 0.09155330484169065 0.3991973347991523
2000000000.0 0.3816145295037612 -0.19529886862876933
2020000000.0 -0.3465336450300793 -0.2740339362709575
2040000000.0 0.11918067974805997 0.4301794395298111
2060000000.0 0.14020303637036186 -0.41404600731941155
2080000000.0 -0.38954195755052323 -0.1573156271114288
2100000000.0 -0.30377730077042353 0.2590104162868167
2120000000.0 -0.34380443756303275 0.15136974107012402
2140000000.0 -0.2904133625837809 -0.20845085830771198
2160000000.0 0.3400547431944115 0.05357422531428754
2180000000.0 0.3341439574903365 0.004921519155689472
2200000000.0 0.32305238611396303 -0.041327449562667914
2220000000.0 0.32094236504162515 -0.00825788546747804
2240000000.0 0.12039792670555066 -0.30560036563917603
2260000000.0 -0.3366972481586955 -0.003980724573793994
2280000000.0 0.2935708186373622 0.19341611907627596
2300000000.0 -0.29140386564959464 -0.22547059930351335
2320000000.0 0.23539009812692654 0.31892069426097847
2340000000.0 -0.31964218671832223 -0.2962952629691633
2360000000.0 0.4768744550851828 -0.08786428554527181
2380000000.0 0.2585734920251021 0.4741052798271958
2400000000.0 -0.3336738078090078 0.48796083917458594
2420000000.0 -0.6244867359362695 -0.12895624041207773
2440000000.0 0.06337912135935653 -0.6736268335411301
2460000000.0 0.659019878461716 0.2529643611677782
2480000000.0 -0.6250025211867773 0.3693508759563675
2500000000.0 0.5441774011398852 -0.4973665893957883
2520000000.0 -0.5430291117268101 0.5025511077914413
2540000000.0 0.6585885752687763 -0.32634854540137254
2560000000.0 -0.7201214303218314 -0.0755426460959828
2580000000.0 0.5412762040947192 0.4507664490138422
2600000000.0 -0.08286794752993099 -0.6732030589467184
2620000000.0 -0.5058051517913283 -0.405653073557135
2640000000.0 0.3195151608840289 0.5238862185019618
2660000000.0 -0.0961426827964012 -0.5667572096317224
2680000000.0 -0.0965822650910039 0.525205613441269
2700000000.0 0.3493002399977057 -0.3494561792677654
2720000000.0 -0.4556427652391343 0.022334210886261138
2740000000.0 0.23353143134006513 0.35734090973228494
2760000000.0 0.033477358811552484 -0.40493074234164284
2780000000.0 -0.039419858450863196 0.3906046008767588
2800000000.0 -0.03908489411164401 -0.38045142225793593
2820000000.0 0.17435366155150805 0.3334999109099911
2840000000.0 -0.25991025972010956 -0.2659348043057486
2860000000.0 0.049279681770766894 0.3654648846166868
2880000000.0 0.31619176894620943 -0.18449651840056416
2900000000.0 0.091379602352737 -0.3545621471121994
2920000000.0 -0.01307229763031994 -0.36788455315300606
2940000000.0 0.08577913193466256 -0.36205545380141657
2960000000.0 0.11962562461500267 -0.3551923972869222
2980000000.0 0.37243567033196534 -0.05437252944757385
3000000000.0 0.13930741966361526 0.35443979879347914
3020000000.0 -0.22732950235080618 0.3016868956407743
3040000000.0 -0.2747752965301812 -0.24831229100170282
3060000000.0 0.35872718893271716 -0.027134820438789616
3080000000.0 -0.3466649320206962 -0.017857472702567247
3100000000.0 0.31322480941995995 0.11316128015174243
3120000000.0 -0.16425348009763213 -0.2732512532096046
3140000000.0 0.07276335642774796 0.29761732600388885
3160000000.0 0.02252670667372608 -0.2878071035357102
3180000000.0 -0.2590731004674518 -0.07026149511296714
3200000000.0 0.23368903478708442 0.057891893695283
3220000000.0 -0.10735359138203827 -0.1814924822545901
3240000000.0 -0.17138695494567907 0.05650470696764541
3260000000.0 -0.12865632358770102 -0.0758302313558058
3280000000.0 0.011839571368928976 0.1194684834846892
3300000000.0 -0.07167273088021281 -0.0727971643428533
3320000000.0 0.09215493255403231 -0.018250546290032428
3340000000.0 0.08221173377789236 -0.03944355700013808
3360000000.0 0.07962374478304073 0.03869957747694455
3380000000.0 0.04284560640665586 -0.07173058065064086
3400000000.0 0.05981400477671762 -0.04798596166219439
3420000000.0 -0.009391349903835127 -0.0636258987460571
3440000000.0 -0.04502556842205634 0.02675637618624193
3460000000.0 -0.008241689272194092 0.043937754013151926
3480000000.0 0.03938364167255397 0.008427720081235766
3500000000.0 -0.020933569924245096 -0.0379031580717274
3520000000.0 -0.02148337127845063 0.048980405887790325
3540000000.0 0.0005048775159113071 -0.06632263773608037
3560000000.0 -0.032959765481305664 -0.07577589857099105
3580000000.0 0.08151189385768673 -0.05997952089278749
3600000000.0 0.11183973418038691 0.045612167979786
3620000000.0 -0.11290944427852984 0.08529188987341232
3640000000.0 0.06028498197245322 -0.15131595335489897
3660000000.0 -0.08070078237835766 0.15976884550023163
3680000000.0 0.17298562580666568 0.08269332112372989
3700000000.0 0.19747525605890773 -0.04790657089030421
3720000000.0 0.11778247389075978 -0.18249277155282462
3740000000.0 -0.007253379474695869 -0.23054117078356529
3760000000.0 0.10668566748279167 -0.22121679937095307
3780000000.0 0.21297534833489434 -0.15071061454306314
3800000000.0 0.14062907657372187 -0.23406908584751146
3820000000.0 -0.09234769659692885 -0.2647116614101182
3840000000.0 -0.24434604493951184 -0.14390615833960593
3860000000.0 -0.25755156090451303 -0.12101071169274742
3880000000.0 -0.28195523992567245 -0.04686929076168144
3900000000.0 -0.28307547013488266 -0.011994015344578769
3920000000.0 -0.2537134336397376 0.11761321499864262
3940000000.0 -0.13815762067410922 0.2400432205990738
3960000000.0 0.24201427024352276 0.12233320715542352
3980000000.0 0.2615177943404934 0.024253673994270235
4000000000.0 -0.19771870144860018 0.14864299459122685
