!Created with skrf (http://scikit-rf.org).
# Hz S RI R 50.0 
!freq ReS11 ImS11
400000000.0 -0.7042888792044983 0.13565430111301185
406500000.0 -0.3405081807667981 -0.6084616677971643
413000000.0 0.6592290324394626 0.13302065833121823
419500000.0 -0.6491978342856697 -0.13393274718318054
426000000.0 -0.004905388290345695 0.6526910220456947
432500000.0 -0.27252917429250206 -0.5843280542009032
439000000.0 0.5423057656175932 0.32643004049546237
445500000.0 -0.5092233372813649 -0.3628569510403339
452000000.0 0.6027186401214353 0.15220237867236494
458500000.0 -0.49621091994485317 0.3839854123820516
465000000.0 -0.42704032506842204 -0.4617160848549123
471500000.0 -0.25749629181524786 -0.5708217072323185
478000000.0 0.0714600215864102 -0.6140400060886407
484500000.0 0.28535682670235496 -0.5379348182189616
491000000.0 0.061278527504825826 -0.5908310090092755
497500000.0 -0.25692360679971155 -0.5130558308824248
504000000.0 -0.4611738308763535 0.28685511279265774
510500000.0 -0.03815528849249819 0.5030686363426974
517000000.0 0.31993370317843917 0.3327958329083837
523500000.0 -0.06923614378829165 0.42829597254891794
530000000.0 -0.2250346134603253 0.3317979697384915
536500000.0 0.11765254845998899 0.35135902244124534
543000000.0 0.3150541486224544 0.1723590530436851
549500000.0 0.31800021268013773 -0.13432837041609555
556000000.0 -0.3147765456220105 -0.050013734264537923
562500000.0 -0.294031616870203 0.05898092324970788
569000000.0 0.025410134099439857 0.27685027162303677
575500000.0 -0.262596068769986 0.0031584269494247612
582000000.0 -0.16327168345770715 0.19569994352889425
588500000.0 0.18084083465807396 -0.1878942713298657
595000000.0 -0.24107174008875898 -0.13533208788804404
601500000.0 0.22206839334761602 -0.18047373331893113
608000000.0 0.292774875997145 0.001898233757068574
614500000.0 0.22449895156162655 -0.19970680936255844
621000000.0 0.12845316858758218 -0.2738182332842587
627500000.0 0.30273038274798775 -0.003915456495449316
634000000.0 0.1553767046355188 0.26293084297498753
640500000.0 -0.22101486097159215 0.19480454615062273
647000000.0 0.10662023652639135 -0.28261052032509076
653500000.0 0.2609633000872083 -0.1453414683591996
660000000.0 -0.21667799485956726 0.20243489262499986
666500000.0 -0.21510075142560106 -0.2059863500217895
673000000.0 0.2423647762899829 0.16018545594362257
679500000.0 0.28073260224584584 -0.10963495280382932
686000000.0 0.2569852118641519 -0.14564780800338867
692500000.0 -0.27101924001552474 -0.1121775170039291
699000000.0 0.28028289236295206 -0.07228281555762646
705500000.0 -0.29188035927446576 -0.025251611498309276
712000000.0 0.2921604146101822 -0.02285291195391785
718500000.0 0.11886820726247602 -0.27534947349545413
725000000.0 0.06727119138822572 0.3039518436523972
731500000.0 0.05403225366081573 -0.31410587194269096
738000000.0 0.29180107306874736 0.15707595667464727
744500000.0 -0.29027447135494494 0.14607999826124593
751000000.0 0.3185490526575632 0.07674126674370127
757500000.0 -0.2582477804171104 -0.209641196736725
764000000.0 -0.2644166368501123 0.21830035362590253
770500000.0 -0.13838933366537834 -0.3232043168514301
777000000.0 -0.1948288495015821 0.3008721975844745
783500000.0 0.09694680555700091 -0.3437581380879186
790000000.0 -0.27988256117970317 0.23732261043893407
796500000.0 0.21370130508200935 -0.3010075045448529
803000000.0 -0.3563626201329794 -0.08109359410736884
809500000.0 0.23999679464996568 0.27685345441865133
816000000.0 0.12772008243495087 -0.341499829050424
822500000.0 -0.23278968211551865 -0.29265592512287864
829000000.0 -0.29321373469038936 -0.24576377925266618
835500000.0 -0.26190467231177805 0.292302432398893
842000000.0 0.38267533361662237 -0.14793170969045194
848500000.0 -0.32534296515975164 -0.25591144530932475
855000000.0 0.20141885931330036 0.36988306158999124
861500000.0 0.16998273025595403 -0.3905262366576174
868000000.0 -0.15497133739889832 0.4050352372424003
874500000.0 0.4004417701542868 -0.16964463616299397
881000000.0 -0.3060001116697742 0.32093068518608936
887500000.0 0.09776548280319775 -0.43396704942119413
894000000.0 0.22231755905331746 0.3852587191032053
900500000.0 -0.3334071684768964 0.2833962481191002
907000000.0 -0.33814991594538785 -0.26034818510533014
913500000.0 0.3615360608731164 -0.18505563852575543
920000000.0 0.1463578841189902 0.36349116275396953
926500000.0 -0.3532721707588927 0.12325817143114616
933000000.0 -0.006279721449984828 -0.3624431695993421
939500000.0 0.2191234416308694 -0.27432613877401657
946000000.0 0.2793600259814054 -0.1831916046726974
952500000.0 0.3105477155582877 -0.05988045987460292
959000000.0 0.22744479218186267 -0.19224373016404006
965500000.0 0.2532148062381436 -0.12354011945904733
972000000.0 -0.22027733084468779 0.15073736422975056
978500000.0 -0.19907201858761944 -0.16066005495405158
985000000.0 -0.003003312650505681 -0.23979887508753114
991500000.0 0.21460685399527232 -0.08010521331490437
998000000.0 0.13804936103130985 0.16786403029775704
1004500000.0 -0.17258315312186467 0.1134426059152691
1011000000.0 0.092513583968937 -0.17385885978555327
1017500000.0 0.15485523280829205 0.10699210706534901
1024000000.0 0.04158134850294633 0.16724842216714103
1030500000.0 -0.09844916358587572 0.12590189963351817
1037000000.0 0.053623391767140406 -0.13421915334584836
1043500000.0 0.06976200345550952 -0.11373849947466302
1050000000.0 0.09377033577779938 0.08452223819267082
1056500000.0 0.09309274786090735 -0.07591716599186768
1063000000.0 -0.1023225814579155 -0.05477353334687097
1069500000.0 -0.10931565808036249 0.022884649361526906
1076000000.0 -0.10654585959505038 0.032422444686482754
1082500000.0 -0.10904606859472642 0.02330693489399755
1089000000.0 -0.06612388260690859 -0.09379078057551414
1095500000.0 -0.09088852203238962 0.07108646120418664
1102000000.0 -0.11528671168923774 0.04362661525006831
1108500000.0 -0.10777185483675464 0.06717663558560558
1115000000.0 0.12783641100981538 -0.0228457789452726
1121500000.0 -0.1312302894748525 -0.05349254803549084
1128000000.0 0.12954496783242078 0.07809605518471383
1134500000.0 0.11498244584565642 -0.11382287790993853
1141000000.0 -0.1633571701448009 0.07108593556794889
1147500000.0 0.16236258367710954 -0.11029917910383093
1154000000.0 0.03164229390911275 0.20782249830744692
1160500000.0 -0.19991394646001792 0.09762927796767258
1167000000.0 -0.054751996907650057 -0.22541702469292643
1173500000.0 0.23095488467537847 -0.04933204053957682
1180000000.0 -0.08209774752442896 0.22322768032260604
1186500000.0 0.09876127885453037 -0.2137182001871267
1193000000.0 -0.19479927350689072 0.14034621887091625
1199500000.0 0.24139151390317112 -0.003938225938261882
1206000000.0 0.22139016513294885 -0.10833092460683294
1212500000.0 -0.18984709453714707 -0.17441829458036848
1219000000.0 -0.09045454566030349 0.2551757641807302
1225500000.0 0.26184370859535766 -0.09787145630333605
1232000000.0 -0.19788787500483548 -0.21453964737496314
1238500000.0 -0.29503441115237833 0.0687325904616769
1245000000.0 0.09586594874801063 0.2961626434658395
1251500000.0 0.31380251245992963 -0.06290145119253594
1258000000.0 0.06646296115919763 -0.31958255532526
1264500000.0 -0.16952045993878137 -0.2867279637284698
1271000000.0 -0.33110911166545104 0.08800712349420188
1277500000.0 -0.14525979106530323 0.31604004585230294
1284000000.0 0.31295040833949556 0.16626411022040377
1290500000.0 0.3255096067580956 -0.13926002047502273
1297000000.0 0.07999511178267237 -0.3513172733238019
1303500000.0 -0.3372580881885541 -0.11748720886189574
1310000000.0 -0.29126293842541234 0.2075953867324871
1316500000.0 0.17932906612729546 0.31280119976398724
1323000000.0 0.3211496010136555 -0.16461095379670335
1329500000.0 -0.35443743069694084 0.05919850102629841
1336000000.0 0.3452450552956746 0.08669736538346715
1342500000.0 -0.33810337608836505 -0.10050150556742184
1349000000.0 0.29617257427027427 0.1765277965694042
1355500000.0 -0.048803374527289375 -0.3370594205622726
1362000000.0 -0.07654038561992622 0.3227658767157315
1368500000.0 0.26979262363576406 0.183310857543904
1375000000.0 0.19555952475543975 -0.2651761443309338
1381500000.0 -0.23197836945701425 -0.23412346604776307
1388000000.0 -0.235844084547766 0.24024480329460196
1394500000.0 0.2907637727138309 0.18304797497031058
1401000000.0 0.19141432892868093 0.29566723140956847
1407500000.0 0.32599298152763045 -0.1488066338760975
1414000000.0 -0.011945736049912918 -0.3685557947668012
1420500000.0 -0.3738147415012346 0.04487962483868289
1427000000.0 -0.28687322815939975 0.24899575679603644
1433500000.0 0.021142887137212886 0.38329525821520793
1440000000.0 0.14689424913421467 0.3506829149002731
1446500000.0 0.1542482179418254 0.35208292654140505
1453000000.0 0.2959865134556096 0.24052714383506935
1459500000.0 0.20406323086673658 0.32018889562281216
1466000000.0 0.37587879196980883 -0.027776761327477507
1472500000.0 0.3667918117668655 0.057385403871237216
1479000000.0 0.2975249312351262 -0.21402428141349972
1485500000.0 0.03814783624141362 -0.357062383358507
1492000000.0 -0.3013082761261686 -0.178426046606212
1498500000.0 -0.16789054267557071 0.29317184486019154
1505000000.0 0.2670895113417877 0.18299075506540186
1511500000.0 0.101015495259148 -0.29568925462606127
1518000000.0 -0.2518145940664662 -0.1661155050963775
1524500000.0 0.24404003979037203 0.15754161172690212
1531000000.0 0.153781559090678 -0.2329122698348334
1537500000.0 -0.19907661676751803 0.18967402220228577
1544000000.0 0.25905833141880596 -0.05643011133125822
1550500000.0 -0.19575414142030834 0.18277829383300837
1557000000.0 -0.010064857416813922 -0.2602147663232739
1563500000.0 -0.20411350065015207 0.15701536595437796
1570000000.0 -0.17427246805616778 0.18465852635142868
1576500000.0 0.05559497314193197 0.24973154644605364
1583000000.0 0.2380990474948328 0.10144764237715093
1589500000.0 0.2612790052754625 -0.033501928953331706
1596000000.0 -0.0848109087646873 -0.24837087351388742
1602500000.0 -0.24180574333050067 -0.10761678977749821
1609000000.0 -0.23418159587588896 0.11586777262017255
1615500000.0 -0.1175450089958758 0.22586450935599894
1622000000.0 -0.2456091665807865 0.008524255286837597
1628500000.0 -0.21480796511796113 -0.10620170098807091
1635000000.0 -0.06976768004350485 -0.21942573206887295
1641500000.0 0.1910959659105421 -0.10854986960539706
1648000000.0 -0.07228424810527026 0.19949495085977995
1654500000.0 -0.11258901557743081 -0.17161755292429492
1661000000.0 0.04970465536040144 -0.1958235240858736
1667500000.0 -0.08206578471517045 -0.1784793029016208
1674000000.0 -0.1770089104669524 0.06477673712266267
1680500000.0 0.11904462162956005 0.1255458463709959
1687000000.0 0.07440050605614648 -0.14367771700805435
1693500000.0 -0.010714634007116875 0.14453750138611457
1700000000.0 0.0374513654559239 -0.13008345772356017
1706500000.0 0.1172277801617621 -0.029032951853561764
1713000000.0 -0.10825481939677345 -0.02155640181805918
1719500000.0 0.10610054301247052 0.0026404885098259903
1726000000.0 -0.08889680963788288 -0.04934884604368573
1732500000.0 0.020219350776164165 -0.09752292217917935
1739000000.0 -0.0869342178404536 -0.0489247945795144
1745500000.0 0.0393794361041898 0.0927615900763427
1752000000.0 0.031230158082441607 -0.10118676177442043
1758500000.0 -0.0979722623165273 0.05002598175135881
1765000000.0 0.11030912296509014 -0.029942721253055096
1771500000.0 -0.11007902008878484 -0.03358946554148543
1778000000.0 -0.03961608883102289 0.10755619350774218
1784500000.0 0.11334899996273726 0.006324590506317177
1791000000.0 0.10825443671271266 -0.020388031025891568
1797500000.0 -0.04152652424266554 0.09579860281566988
1804000000.0 -0.046306564116609404 -0.08640584644451241
1810500000.0 0.004290653005495165 0.09157235238147304
1817000000.0 0.05013617082752578 -0.07263775717725462
1823500000.0 0.06617616290007183 0.04953726147342217
1830000000.0 -0.03998130633340774 0.06764440659335798
1836500000.0 -0.05070271439165519 0.04882929204808941
1843000000.0 0.018017540378697506 -0.05794207390975825
1849500000.0 -0.018954775534996724 0.04337293271083638
1856000000.0 -0.012463364183960811 -0.03362016794436359
1862500000.0 -0.021202268848519897 0.003011770025269528
1869000000.0 -0.014388523295178212 -0.002380181399194973
1875500000.0 -0.006783369103718049 0.0006186633071077642
1882000000.0 -0.0007439971244784925 -0.0039356052203947745
1888500000.0 -0.0003718960866874075 0.0014831959842527874
1895000000.0 0.005808346997568793 0.000667041958591567
1901500000.0 0.010706150938317227 -0.0002684233967827543
1908000000.0 -0.012012523683399359 -0.006393752894640041
1914500000.0 0.01571075904389436 -0.00013602587620184937
1921000000.0 0.003862928943319423 -0.019120511639747272
1927500000.0 -0.005634121564156006 0.016711641607851525
1934000000.0 0.0018102107224388065 -0.016916670795198256
1940500000.0 0.013061627370185989 0.008155547379581882
1947000000.0 0.012991338633000792 -0.010842201336204765
1953500000.0 0.023434379145760856 -0.005296943611315579
1960000000.0 0.010916196694326457 0.022724014476810196
1966500000.0 -0.03510857655032156 -0.006229790382637728
1973000000.0 0.006191960136328168 0.04041842033230776
1979500000.0 0.046510377988793476 -0.021201360972261267
1986000000.0 0.05300241943472678 -0.03238210924009731
1992500000.0 0.07246861140253527 -0.01084203581242063
1999000000.0 -0.0723871084218306 0.03888099616865854
2005500000.0 -0.09093841680011305 -0.020526673782692954
2012000000.0 0.07675710914475321 -0.070746998868191
2018500000.0 0.08497925416587249 0.07419071364254218
2025000000.0 -0.10171962319574927 0.07167674088062467
2031500000.0 -0.12721462193740124 -0.01986644250582937
2038000000.0 -0.05083834037146453 -0.12545471563173563
2044500000.0 0.07376400234259622 -0.11721524424307038
2051000000.0 0.1425565629016552 0.015504025011036243
2057500000.0 0.10687853783225437 -0.09459629622041003
2064000000.0 0.1140200360776932 -0.08837357113155957
2070500000.0 -0.08297657508190859 -0.11219514327915724
2077000000.0 -0.1030350680810384 0.08815091830974543
2083500000.0 0.1272744073693717 -0.021269094613234774
2090000000.0 -0.11528570985062489 0.0424784038026107
2096500000.0 0.08009533038110273 -0.08125837751776607
2103000000.0 0.09801119845294186 0.05036180088882718
2109500000.0 0.004306150448499714 0.10573879066909564
2116000000.0 0.013306669085105027 0.10718363146685313
2122500000.0 0.09263906504347899 0.06345093637221368
2129000000.0 0.07878559034046172 0.0950328817895069
2135500000.0 0.13282411011208523 0.015377043023110984
2142000000.0 -0.14735107401017483 -0.011326202875364205
2148500000.0 -0.08218106738584605 -0.13990549186071505
2155000000.0 0.14614192913731242 0.10030660936117694
2161500000.0 -0.17916135056411409 0.061246138201770696
2168000000.0 0.1690167717101146 0.11166726769555489
2174500000.0 0.17677596973374093 -0.11631329897640849
2181000000.0 0.1061720798443853 -0.1911038628222972
2187500000.0 0.1239530735689135 -0.19100128029316804
2194000000.0 0.23588788005015113 -0.005363661049596697
2200500000.0 0.1633380458500832 0.18023926787457262
2207000000.0 0.18929415774124372 0.1631195832429514
2213500000.0 0.11442747025957561 0.22727848256162364
2220000000.0 0.06284559408900021 0.24855522384842285
2226500000.0 0.06288816949260972 0.24554451322446175
2233000000.0 0.18249249889002694 0.17138509066436688
2239500000.0 0.00865353010406472 0.2447250252039584
2246000000.0 0.12430353793372191 0.20016324413566472
2252500000.0 0.09722715155331527 0.19893564362668692
2259000000.0 -0.0340569891723474 0.21189231877272935
2265500000.0 -0.005565407713614423 0.20501613853622688
2272000000.0 -0.07598617587527398 0.18134632215996122
2278500000.0 0.19128151826921358 0.02523317145806736
2285000000.0 -0.09831781191670713 -0.16025137812119294
2291500000.0 -0.033615706524794745 0.1767800495873128
2298000000.0 -0.09588711519525017 -0.14626610404133517
2304500000.0 0.16338541073301066 0.05158678512934331
2311000000.0 -0.16035515281392926 0.026248650095872045
2317500000.0 -0.11015889292256846 0.11588877571920932
2324000000.0 -0.05321509524746929 -0.1476847593706774
2330500000.0 -0.13671682714624322 0.07313158301073244
2337000000.0 0.15355915891488808 -0.00790777289410401
2343500000.0 0.0513866137589108 -0.14455352399452404
2350000000.0 -0.15522454112768427 0.017478513595246135
2356500000.0 -0.1557953726553392 0.016242965754999
2363000000.0 -0.13516859676054735 0.08636300894158475
2369500000.0 0.014667169256935597 0.16169038844998265
2376000000.0 0.05532648615879448 0.15493378520395587
2382500000.0 0.15776439592332056 0.045436773238597676
2389000000.0 0.16354019076407128 -0.004402477976803358
2395500000.0 0.12396242439552199 0.10459253092406258
2402000000.0 0.015463332100337382 0.16065387580393536
2408500000.0 0.11180354945886269 0.11463218450245112
2415000000.0 0.08222956882060815 0.13595307820650257
2421500000.0 0.023354621915751043 0.15496958605668
2428000000.0 0.12216912591536915 0.09404570479501782
2434500000.0 0.12150040515393452 0.08879880602848195
2441000000.0 0.0835774608664761 0.1262551166186804
2447500000.0 0.1432702648817858 0.04155927691843003
2454000000.0 0.07774718972835207 -0.1257322034920163
2460500000.0 0.04743933599394701 -0.13832694357891012
2467000000.0 0.08556325258602648 -0.11726430053814897
2473500000.0 0.11201770888655432 -0.09189599765843282
2480000000.0 0.13343996834748736 0.06287506322387533
2486500000.0 0.0816040985195079 0.12961620007551253
2493000000.0 -0.15002460028470987 0.0359709965405861
2499500000.0 -0.15619503609699248 0.013076985568061354
2506000000.0 -0.11446832375384881 0.112042465817715
2512500000.0 0.0919884948967615 -0.13365095734917148
2519000000.0 0.1614011028501514 0.027564848243378296
2525500000.0 -0.1665433698979386 0.013635850225001604
2532000000.0 0.00521344865252063 -0.16944196133118253
2538500000.0 -0.013414380212153233 0.16742378633511337
2545000000.0 -0.12229351989461211 -0.11683749656240665
2551500000.0 0.09349295976090075 0.14114453416900624
2558000000.0 0.09308935821457408 -0.1390400556486304
2564500000.0 -0.1254437315862083 0.11117454470893148
2571000000.0 0.13767532027517898 -0.09311592129543257
2577500000.0 -0.1454053624292529 0.06966767237244134
2584000000.0 -0.07769615777126182 0.13727215290157244
2590500000.0 0.13906374949588404 -0.061643873771390204
2597000000.0 0.06433146057534803 -0.1333239209727771
2603500000.0 -0.0944594420156351 -0.11033818849802168
2610000000.0 -0.08407068538182406 0.11576751342635752
2616500000.0 0.13935052888370206 0.01693093356937189
2623000000.0 -0.13790517482848327 -0.01379521417555689
2629500000.0 0.09705874787155444 -0.09034512238729886
2636000000.0 0.037474202488974546 0.12235959372065638
2642500000.0 -0.0746323475278692 0.09186331715826232
2649000000.0 -0.08908436214964793 0.06541401223920837
2655500000.0 -0.09774966975557045 0.016257886868032208
2662000000.0 -0.028150841072540282 0.08703340191632496
2668500000.0 0.011197171608931567 0.08252026481031707
2675000000.0 0.06518997948548626 -0.044521657925611385
2681500000.0 0.029192485931854743 0.07085011693145928
2688000000.0 -0.07380170242160344 -0.028760882900387856
2694500000.0 -0.05639133589538133 0.060924795273878306
2701000000.0 0.012203996019279231 -0.08615863284189836
2707500000.0 0.09750772094928241 -0.005015856702208472
2714000000.0 -0.0558237499049179 0.0909861276070774
2720500000.0 0.11606155253408822 -0.02368140335328936
2727000000.0 -0.10531760424970986 -0.07864929715859056
2733500000.0 -0.13784110024153934 -0.04122434878769383
2740000000.0 -0.15556185709525128 0.020884047974523173
2746500000.0 -0.05371220398639317 -0.15707521539172953
2753000000.0 0.15826320619052325 -0.08372262974794403
2759500000.0 0.039692782213593514 0.18471760560683892
2766000000.0 -0.15519034190962583 -0.12981505653053377
2772500000.0 0.11429043647412708 -0.17905152190278606
2779000000.0 -0.05018407955156777 0.21695098658758044
2785500000.0 -0.2114839704179283 -0.08930666549036176
2792000000.0 0.214910727626597 -0.09962035059425091
2798500000.0 -0.03436538525588394 0.240679491490151
2805000000.0 -0.13005134298642568 -0.210486175033816
2811500000.0 0.2518017680363459 0.0198463049797879
