!Created with skrf (http://scikit-rf.org).
# Hz S RI R 50.0 
!freq ReS11 ImS11
400000000.0 0.8429359137638549 -0.24678339983185113
420000000.0 0.7887814280946773 -0.2631246579656471
440000000.0 0.49308056092852 -0.5931330303357092
460000000.0 0.2923095593123534 0.6308953475613427
480000000.0 0.32147394080959174 -0.49648359487237065
500000000.0 0.470821652012333 0.4094259728142269
520000000.0 0.39200338353519376 -0.505711153769381
540000000.0 0.21889328011385586 -0.5655694685951813
560000000.0 0.6215843738792768 0.009292064544846627
580000000.0 0.4849488052701428 0.19260580757559667
600000000.0 -0.19145391214072 0.5670040269488376
620000000.0 -0.4464214437799538 -0.4071631498447446
640000000.0 -0.28215428063204717 -0.4820852840018759
660000000.0 -0.26933621005326575 0.4432730543872622
680000000.0 0.31854816869662267 -0.36298584389949956
700000000.0 0.48308707100689946 0.1041278907794579
720000000.0 0.4880951993254534 0.07620940745179725
740000000.0 0.19614645793833896 0.4267298126439435
760000000.0 -0.2106719566183233 0.4064230605470036
780000000.0 -0.4411855555219544 0.1019705398205641
800000000.0 -0.18501287812002762 -0.359142424893652
820000000.0 0.303963956293137 0.1943566910143657
840000000.0 -0.3202010531335717 -0.09613927542468063
860000000.0 0.27334422165378963 -0.14780838569984467
880000000.0 0.26667035056735916 0.097034511084229
900000000.0 0.11019602300726104 0.2463694108878566
920000000.0 0.1589070821089702 -0.20207788660789658
940000000.0 -0.009410391129193472 -0.22146400267540478
960000000.0 0.07877145685008513 -0.14614712898633783
980000000.0 -0.056450048674362374 0.12498031107292623
1000000000.0 0.035864366638686286 -0.12680688027588033
1020000000.0 0.06938294230176124 0.08911155405562367
1040000000.0 0.048514804340657885 0.12136432327495901
1060000000.0 0.06101989027912365 -0.1457237106087813
1080000000.0 0.07620829516227254 0.18728592254267448
1100000000.0 -0.1872091859575458 -0.1603064664680588
1120000000.0 -0.10273234834883047 -0.25825418199174055
1140000000.0 -0.14831474054191984 0.2715354918818506
1160000000.0 0.29742884052905827 0.15096110436825438
1180000000.0 0.1731628606246278 0.28820276595278194
1200000000.0 -0.3199450903238638 -0.15014429350707872
1220000000.0 0.19180628030877944 -0.3163081910359057
1240000000.0 0.3424790853475773 -0.1632427130378031
1260000000.0 -0.05080063987644058 -0.3917753785896772
1280000000.0 -0.2660268406316423 0.2695061591929366
1300000000.0 0.19624692114045775 -0.3049931769370476
1320000000.0 0.3646330107346798 -0.10073131068215516
1340000000.0 -0.32826478435844586 0.169353133171745
1360000000.0 0.3170306489959665 0.21338224624780233
1380000000.0 -0.16750384950847885 0.35399319525853457
1400000000.0 0.0015451559936880467 -0.38066349281491907
1420000000.0 0.2892396177465748 -0.2534800501930965
1440000000.0 -0.16429458166610905 -0.3518057364716358
1460000000.0 -0.30413823721311994 -0.23849400521623235
1480000000.0 -0.18375061582773008 -0.34804462148093934
1500000000.0 -0.3444185078591419 0.1843393804333422
1520000000.0 0.10377725067981176 -0.3735342028049176
1540000000.0 0.05528278398283042 0.35892977263234227
1560000000.0 -0.24575567681679644 -0.21828872519906398
1580000000.0 0.28970317822489233 0.04695461391834251
1600000000.0 0.2498808359790349 0.08102112868624392
1620000000.0 0.14035213228827567 0.15814982017980553
1640000000.0 0.01718027028253413 0.188427780324996
1660000000.0 0.034002292116120006 -0.154863597864224
1680000000.0 -0.05308099608888803 -0.10814109770636567
1700000000.0 0.11724069315667171 0.009292913395143392
1720000000.0 0.086932045565003 -0.031872827366463324
1740000000.0 -0.08149491138954287 -0.00817105878567198
1760000000.0 -0.006870828062464559 0.09028255019292897
1780000000.0 -0.10823386258997086 -0.0025723695992834104
1800000000.0 0.062126787798062175 0.1137047279131555
1820000000.0 0.15829580642953647 -0.017161899058950998
1840000000.0 0.02881697735521273 -0.18867341379242758
1860000000.0 0.03781141817447835 0.21533910746266627
1880000000.0 0.2531489103096677 0.016137807089473787
1900000000.0 0.2672986351259879 -0.05156917597364342
1920000000.0 0.01172134971003189 -0.2920476475117674
1940000000.0 -0.3046626159219233 -0.0256012872575929
1960000000.0 0.14231403612491975 -0.2774771482956722
1980000000.0 -0.29789764964375914 0.08951959446130597
2000000000.0 0.18276451212694408 -0.26169910202775587
2020000000.0 0.29841974691771905 -0.1277999991935156
2040000000.0 0.32382357313107935 -0.002090100744617685
2060000000.0 0.3104488017713895 0.08146574262755114
2080000000.0 0.07907503187904832 0.315416212003476
2100000000.0 -0.10066072411601364 -0.3073813616267818
2120000000.0 0.2957939526670034 0.11971286015459114
2140000000.0 -0.28442014428218076 -0.14560451140882885
2160000000.0 0.196611538564149 0.2502091558120233
2180000000.0 0.1967450721038146 -0.24058896964933835
2200000000.0 0.14428617811647226 -0.2694163669864527
2220000000.0 0.018969622648226037 -0.2983127431535168
2240000000.0 0.2887775923631318 -0.02481182656733792
2260000000.0 0.007213264833335721 0.2758459368763972
2280000000.0 -0.1664964243322605 0.21157169679876037
2300000000.0 -0.09283947295149005 -0.2325293571820297
2320000000.0 -0.16541365831272517 0.17910065886309987
2340000000.0 0.03328754454990932 -0.24160885741258661
2360000000.0 0.07146044242662167 0.23370394895024665
2380000000.0 -0.14678385015085965 -0.208798907204743
2400000000.0 -0.2790956854547614 0.030470732537673663
2420000000.0 0.2595540937785062 0.15575651045114539
2440000000.0 -0.298019834227069 -0.13349784799461883
2460000000.0 0.1839529534266894 0.30390143752538823
2480000000.0 0.18477775558771115 -0.3446703574095454
2500000000.0 0.33433452470190855 0.26652324296926644
2520000000.0 -0.41462866417491123 0.20599957570392055
2540000000.0 0.07557897383854818 -0.48975677671588086
2560000000.0 0.1191578539542376 0.5123391995010853
2580000000.0 -0.24058594140647327 -0.4983398487013839
2600000000.0 0.28880243431880614 0.4987020627854539
2620000000.0 -0.38109049470912965 -0.45754763690154787
2640000000.0 0.5125611792712058 0.3314768585586813
2660000000.0 -0.6199030080205611 0.07790716892696742
2680000000.0 0.013299280325441852 -0.6331151422752725
2700000000.0 0.6147132969558322 -0.1862296286872111
2720000000.0 0.6432610518215975 0.0655059986907661
2740000000.0 0.6244215666751767 0.17394602886374122
2760000000.0 0.6121495987120089 0.2160987094809422
2780000000.0 -0.4318647221707379 0.4780028421865297
2800000000.0 -0.601183539011141 0.20383847458255022
2820000000.0 -0.4549568814608964 -0.42621220306817004
2840000000.0 0.5275304258348925 -0.30684221975385023
2860000000.0 -0.37349270637604093 0.46283402643453336
2880000000.0 0.5439498061913469 -0.18434173653935396
2900000000.0 -0.2227155109955669 -0.5057211992714153
2920000000.0 -0.5264213911766471 0.04880125315705045
2940000000.0 -0.2999646076840214 0.3968898624617681
2960000000.0 -0.32370823288878187 0.34411655910602573
2980000000.0 -0.28738291425891327 0.34446472514200227
3000000000.0 -0.15200611424648364 0.3959098288194468
3020000000.0 0.06154080973905838 0.3976675570718726
3040000000.0 0.3076049542892642 0.22709110814424752
3060000000.0 0.17608887957451974 -0.32298806033081257
3080000000.0 -0.35679665275169653 -0.008205812932603408
3100000000.0 0.31753909339346387 0.14189359491211312
3120000000.0 0.14867030440155204 -0.3091016681390266
3140000000.0 -0.3015638479798168 0.1628422059722393
3160000000.0 0.30768425171047736 -0.1533545247960531
3180000000.0 -0.3431254899568628 0.03247153274906208
3200000000.0 0.05170078101917272 0.3404298582921858
3220000000.0 0.2827767599918272 -0.1880441022294676
3240000000.0 0.09351994246801687 -0.3213944617332595
3260000000.0 -0.1812693629408163 -0.2725400057831463
3280000000.0 -0.30770564062735994 -0.06550459646507714
3300000000.0 -0.21582688171755304 0.20668247441496762
3320000000.0 -0.021104650799598983 0.2706528498408595
3340000000.0 -0.23192381753436844 0.08580594696995526
3360000000.0 -0.21906124298459434 0.014283757181702028
3380000000.0 -0.11126310502591581 -0.1570554578666952
3400000000.0 -0.08127807999203705 -0.14580343469848064
3420000000.0 -0.08235011077679706 -0.11386784844346723
3440000000.0 -0.06915112653565811 -0.09612785467981244
3460000000.0 0.04186912002366645 -0.08548629187494687
3480000000.0 0.03706655854914609 0.0685643036342661
3500000000.0 -0.07341516883861218 0.0008020611264031491
3520000000.0 -0.06698357111950483 -0.028481896132956867
3540000000.0 0.05628149597329201 0.057655254989041546
3560000000.0 -0.051365520742345024 0.06940695428646665
3580000000.0 -0.00952124684583108 0.09659856297777625
3600000000.0 0.06628182846682774 -0.08286746884674033
3620000000.0 0.08491565130647104 0.08528149590568673
3640000000.0 0.08682732798850752 -0.10136245052851167
3660000000.0 -0.06447083448629465 -0.13319470645962714
3680000000.0 0.11546637094259819 0.09743675056650128
3700000000.0 0.0471068589379728 0.13457760813564237
3720000000.0 0.12794730028801338 0.0024785871573479662
3740000000.0 0.05606116629832245 -0.08654843094685757
3760000000.0 -0.07902793813193074 -0.013073093057799886
3780000000.0 0.059219231756919066 -0.008309173672832237
3800000000.0 0.020971793607671922 0.019417684803972247
3820000000.0 0.007585505277717974 -0.010387755263245394
3840000000.0 -0.04194136502180637 -0.02364800688096682
3860000000.0 -0.06329847767301623 0.04437600039475461
3880000000.0 0.026703131068790114 -0.10148829905380279
3900000000.0 0.1152592680788628 0.05590250554101544
3920000000.0 -0.12288135464624653 -0.07231096546482896
3940000000.0 0.05955395418075103 0.14062444886774947
3960000000.0 0.03465703579599515 -0.15371364449681968
3980000000.0 0.14675102562067469 0.0006593297030552621
4000000000.0 -0.12329567336596768 -0.02321934183884499
