!Created with skrf (http://scikit-rf.org).
# Hz S RI R 50.0 
!freq ReS11 ImS11
400000000.0 0.8515872987560555 -0.21498081424728796
420000000.0 0.7784134447077549 -0.29315309472859086
440000000.0 0.4328047943512132 -0.6396125188723862
460000000.0 0.27184586298806246 0.6411419341837279
480000000.0 0.3263988900724826 -0.492639063652584
500000000.0 0.5403751167466967 0.3134482148057017
520000000.0 0.44399130709156703 -0.4578326583790608
540000000.0 0.11077283665983136 -0.5980700555814312
560000000.0 0.6143268026716633 0.09899439451918562
580000000.0 0.5081121895587483 0.12514303191856327
600000000.0 -0.14020687060347597 0.5810793237300628
620000000.0 -0.3280648079857269 -0.5049598069431871
640000000.0 -0.2917158039557268 -0.4785493162861688
660000000.0 -0.13418115351427168 0.5019255414996578
680000000.0 0.2294405827039639 -0.42270026820839296
700000000.0 0.43598217499274755 0.23145320898043822
720000000.0 0.4934197226146324 0.055187986463211984
740000000.0 0.1641128698768935 0.4432693857166999
760000000.0 -0.11926583100052231 0.44481675278754373
780000000.0 -0.44163816473324236 0.07752538607651409
800000000.0 -0.009723444740847745 -0.4028831567410592
820000000.0 0.2400213380462983 0.2725738823724968
840000000.0 -0.3313010277917501 0.06444093078145605
860000000.0 0.23649330555664627 -0.19821264406241068
880000000.0 0.10977774765119484 0.25723819083709687
900000000.0 0.0467834406720515 0.2711974999279848
920000000.0 -0.06196912261217036 -0.2520870476592848
940000000.0 -0.03745151039326395 -0.21774558055194837
960000000.0 0.12553266200838256 -0.10628565501562817
980000000.0 -0.12578127081456714 -0.0555832961617532
1000000000.0 0.08695915239908959 -0.10403458182217343
1020000000.0 0.10576024464990465 -0.04200431283807772
1040000000.0 0.048640925347703194 0.11944492951516367
1060000000.0 -0.04064724430642599 -0.14968858907827523
1080000000.0 -0.1318318773134034 0.15254468057105167
1100000000.0 -0.18931341209537603 -0.16037879443262038
1120000000.0 -0.17605337484594066 -0.21681271825102486
1140000000.0 -0.2201329831739461 0.21758748018971882
1160000000.0 0.3118225558539153 0.11410723671798162
1180000000.0 0.09011856091421425 0.32354878345262206
1200000000.0 -0.3432724522317695 -0.09273844912820207
1220000000.0 0.2077494934632094 -0.30406010738464895
1240000000.0 0.3669687329168594 -0.09990760689256796
1260000000.0 -0.045082841727338785 -0.39209853284097307
1280000000.0 -0.28918367339821716 0.2440765690448711
1300000000.0 0.11437974773471966 -0.34421334675576876
1320000000.0 0.36314031803296926 -0.11007643139138894
1340000000.0 -0.3502607287883451 0.11962682280521471
1360000000.0 0.29974674380124045 0.2366930061984282
1380000000.0 -0.21437153446374313 0.32780693950320916
1400000000.0 -0.0016538289691484806 -0.3828372314222162
1420000000.0 0.28024876680235655 -0.2622925879343867
1440000000.0 -0.09097818455555026 -0.37600605286944944
1460000000.0 -0.3223523410070655 -0.2134589178833287
1480000000.0 -0.16688159110558143 -0.3559061883163306
1500000000.0 -0.3673512182933283 0.13789185325738088
1520000000.0 0.06074440981319752 -0.3819166720295866
1540000000.0 0.038718991064619124 0.3608088987317679
1560000000.0 -0.2543949437606747 -0.20816174094389922
1580000000.0 0.2745827054984717 0.1043331577647371
1600000000.0 0.26330554336339485 -0.012240561977243594
1620000000.0 0.15974460610826766 0.13963240778417282
1640000000.0 0.011353267216734778 0.18581911527498393
1660000000.0 0.11430099281968775 -0.11279807227199294
1680000000.0 -0.0890477110772892 -0.08085256464522861
1700000000.0 0.11496691925336695 0.024516007889533935
1720000000.0 0.059619541122193594 -0.07204783976378688
1740000000.0 -0.017903796031074056 -0.08182962142195487
1760000000.0 -0.012566105163722346 0.09123758569994343
1780000000.0 -0.10785863978137288 -0.0008875912215541292
1800000000.0 0.054711154572791854 0.11804750479748186
1820000000.0 0.15775482593423634 0.009972400662293334
1840000000.0 0.11326064511532387 -0.15612383551656733
1860000000.0 0.046454450673468296 0.21393221738542584
1880000000.0 0.24427093940160818 0.062493322981749144
1900000000.0 0.2705857021547023 -0.024339823803424913
1920000000.0 0.06264003339398942 -0.2851925306029877
1940000000.0 -0.303698006121353 0.043869233475495734
1960000000.0 0.1422891430033169 -0.27487900603860727
1980000000.0 -0.3111441880334644 0.0043372835939752795
2000000000.0 0.12701413992944094 -0.2936654435016072
2020000000.0 0.2641237118304486 -0.18862939897479186
2040000000.0 0.32353181551303617 -0.011398541354986472
2060000000.0 0.26295871583915403 0.18409987852627996
2080000000.0 0.006098378774175076 0.3268810805028577
2100000000.0 -0.18235569634451013 -0.26841627019259373
2120000000.0 0.3085901199441696 0.08035147841347887
2140000000.0 -0.2538009191801634 -0.19394413862610116
2160000000.0 0.1700449832385742 0.27156504024273587
2180000000.0 0.17393510942461693 -0.25722610081801583
2200000000.0 0.17156777763713688 -0.25226358919628383
2220000000.0 0.09550158874638102 -0.2831689810276445
2240000000.0 0.27997715686339736 -0.07633230081775809
2260000000.0 0.04896340345371847 0.27158238253683586
2280000000.0 -0.1872837965505191 0.19157438281652217
2300000000.0 -0.006903189104420914 -0.25098166066221284
2320000000.0 -0.10231166055321489 0.22147253446944903
2340000000.0 0.03562120083754189 -0.23983772127476752
2360000000.0 0.02167855516592421 0.24267445828228573
2380000000.0 -0.1554254554668574 -0.2041956116622134
2400000000.0 -0.26524733093370173 0.09240778481388186
2420000000.0 0.28309603151369767 0.10394666121810879
2440000000.0 -0.22069648423604385 -0.24267843071005646
2460000000.0 0.19502515036542603 0.2979625103227758
2480000000.0 0.15721990139463332 -0.3584849291823474
2500000000.0 0.34129082061031374 0.25792492849378446
2520000000.0 -0.4272740525077624 0.18008820656364014
2540000000.0 0.1458712116861397 -0.4737025394897479
2560000000.0 0.0833727989846838 0.519091640201931
2580000000.0 -0.21802576985996203 -0.5081553405233031
2600000000.0 0.26954965475034864 0.5088138091431824
2620000000.0 -0.35163619942534735 -0.4803273364191446
2640000000.0 0.5221737198371724 0.31590509243321624
2660000000.0 -0.618777254510823 0.0839724340996934
2680000000.0 0.025816039388321863 -0.6323674774697661
2700000000.0 0.5918424448731439 -0.24934635221310336
2720000000.0 0.6455082012004588 0.05292621107883068
2740000000.0 0.5962449240053517 0.25641091379685377
2760000000.0 0.5779920957827729 0.29554875599220165
2780000000.0 -0.44818854785764034 0.463539881874416
2800000000.0 -0.6112187147671069 0.17295705353059831
2820000000.0 -0.4473889942203985 -0.4344241182697879
2840000000.0 0.516072432117826 -0.32662310559116253
2860000000.0 -0.36494519968685996 0.46921852788903784
2880000000.0 0.5487944921688395 -0.1663080431707692
2900000000.0 -0.24694821905996445 -0.49332818759795893
2920000000.0 -0.5202429350774593 0.0936827574229227
2940000000.0 -0.27817623673240366 0.41373780206238187
2960000000.0 -0.30509338916647427 0.36100401151946143
2980000000.0 -0.300140932027801 0.333520250305185
3000000000.0 -0.129454552608747 0.40438316970776594
3020000000.0 0.1220462428522363 0.38392340849236617
3040000000.0 0.3174900256502907 0.21556707521410337
3060000000.0 0.20621212707698602 -0.3062698269500658
3080000000.0 -0.3520923226145206 -0.05584443512388199
3100000000.0 0.28699785491009183 0.1972416675626219
3120000000.0 0.17785676504864112 -0.294737572726321
3140000000.0 -0.286951476956675 0.1858274216174511
3160000000.0 0.34225895906824905 -0.03266245448636247
3180000000.0 -0.3427908417299792 0.040912575238199085
3200000000.0 0.0834429551802427 0.33376809992088124
3220000000.0 0.2626138220900676 -0.21430784071596085
3240000000.0 0.16518312055778867 -0.29093866611963914
3260000000.0 -0.1996074408662481 -0.2591487662625362
3280000000.0 -0.31042628593399724 -0.060790623766239324
3300000000.0 -0.22416806776249618 0.19827582638334537
3320000000.0 -0.011478990079716998 0.27122503765030603
3340000000.0 -0.23578626622807478 0.07917775453109704
3360000000.0 -0.21100385539672786 0.06878543843449247
3380000000.0 -0.1176734188148024 -0.15357863306170247
3400000000.0 -0.07075854265683779 -0.1524809727235817
3420000000.0 -0.07949337705692727 -0.11794127595424773
3440000000.0 -0.022719816997908183 -0.11737815239615365
3460000000.0 0.07540213536880813 -0.05880047663517674
3480000000.0 -0.07184813155704065 0.033262599152834846
3500000000.0 -0.06752449348945139 0.026590639400933255
3520000000.0 -0.010842149235204723 -0.07104013290100161
3540000000.0 0.03575395882789957 0.07201540158126711
3560000000.0 0.029823642735333746 0.07861095210612755
3580000000.0 0.06457295192666679 0.0703974841066713
3600000000.0 0.030589235153966905 -0.10174126597564193
3620000000.0 0.1185801525937042 0.021829269518810347
3640000000.0 0.009149582558406668 -0.1335588884461571
3660000000.0 -0.0699596008544596 -0.13047400688413466
3680000000.0 0.07072243015106151 0.13530689828523174
3700000000.0 0.11452301942460304 0.08774623395402967
3720000000.0 0.11366438253198645 0.061156164163262194
3740000000.0 0.1027590063048655 0.004761601918254058
3760000000.0 0.027031875610723316 -0.0762765329408832
3780000000.0 0.051658059895910755 0.02944278132955002
3800000000.0 0.00462853747251253 -0.027550185127448473
3820000000.0 -0.009902032342295735 -0.004600039404304963
3840000000.0 -0.013437055283157463 0.04612508958195234
3860000000.0 -0.05067463925622283 0.06110393587385604
3880000000.0 -0.05851140633028705 -0.09003559916138512
3900000000.0 0.12872360101669023 0.003399355566814948
3920000000.0 -0.04076455274757014 -0.13799931108673005
3940000000.0 -0.0015333207137139774 0.15201105268272658
3960000000.0 0.0945202090667005 -0.12565548874899413
3980000000.0 0.14664777641752466 -0.013917187072458093
4000000000.0 -0.11794017523502819 0.03918976157335034
