!Created with skrf (http://scikit-rf.org).
# Hz S RI R 50.0 
!freq ReS11 ImS11
400000000.0 0.8114116061174458 -0.33365565137070363
420000000.0 0.7596631125385099 -0.3383678135506875
440000000.0 0.4374370750526261 -0.6362509944878376
460000000.0 0.20106078920888154 0.6657176227583286
480000000.0 0.3122678779311911 -0.5020036824904077
500000000.0 0.4166803731438174 0.4635879197787779
520000000.0 0.47216364432471175 -0.4350240762683795
540000000.0 0.14897565258993375 -0.5867472669971365
560000000.0 0.6125916712520206 0.11570444571354233
580000000.0 0.49833868915383606 0.15636127244732004
600000000.0 -0.25028203145484645 0.5409760894443814
620000000.0 -0.38363028451064785 -0.46489112632707985
640000000.0 -0.3325722163466542 -0.45000049317158397
660000000.0 -0.17424791619257132 0.4917843526705693
680000000.0 0.1332993348216035 -0.46514573337081955
700000000.0 0.4825062942127737 0.11097084318520156
720000000.0 0.48704431417699456 0.10163651395798841
740000000.0 -0.058859842514866756 0.47165495535156254
760000000.0 -0.24772968907141613 0.3906888078491518
780000000.0 -0.44087390552744454 -0.09064187852351524
800000000.0 0.007716995494738942 -0.4027592403736278
820000000.0 0.22995617498888196 0.2772594988708022
840000000.0 -0.33358832354632295 0.008049630786634699
860000000.0 0.10821393206339852 -0.29090436757526233
880000000.0 0.2247730824107486 0.16530451328307777
900000000.0 0.10056969445349086 0.25942552105365996
920000000.0 -0.09023319765619972 -0.24569239484129157
940000000.0 -0.006372128037212328 -0.22398634713926413
960000000.0 0.1529680520928788 -0.06548915873051415
980000000.0 -0.06726565975543365 -0.11944295290877942
1000000000.0 0.07212557400249263 0.11205341521706504
1020000000.0 0.10571046437874539 0.03589494426120727
1040000000.0 0.12453409504272495 0.038132531884565314
1060000000.0 -0.14713243761750772 -0.050234027045771186
1080000000.0 -0.16835736178832797 0.11399363549421797
1100000000.0 -0.20027069392821412 -0.1488014251601064
1120000000.0 -0.15759362863156698 -0.2339735001621134
1140000000.0 -0.22179850950613975 0.21686173316489518
1160000000.0 0.25183818309547334 0.21691418920096178
1180000000.0 -0.03339234218089325 0.3337651053760905
1200000000.0 -0.2942464516902421 -0.2013392293507027
1220000000.0 0.2048114508439551 -0.30487710980538196
1240000000.0 0.35821183151710767 -0.12072411712611915
1260000000.0 -0.12077517480738137 -0.3752171510874546
1280000000.0 -0.29999347109262486 0.2322661048660147
1300000000.0 0.14676052817181903 -0.33315197075762587
1320000000.0 0.3202339411284516 -0.2030400005917312
1340000000.0 -0.3154952892081696 0.1921615313583702
1360000000.0 0.31831934484182384 0.21460333889374306
1380000000.0 -0.2009667973065478 0.33639051985027074
1400000000.0 0.015657712772019276 -0.3825875339122877
1420000000.0 0.2573898008502031 -0.2858506808993419
1440000000.0 -0.049761382603344624 -0.38388633423678686
1460000000.0 -0.2851840735932841 -0.2603703905068085
1480000000.0 -0.16727685404990453 -0.35347039724159074
1500000000.0 -0.3156782556744608 0.23354239783548986
1520000000.0 0.09482935114040988 -0.37484363563059375
1540000000.0 0.06151663322036838 0.357713049805434
1560000000.0 -0.21203081181912456 -0.24997979587220728
1580000000.0 0.2925018083264436 0.025854476258580183
1600000000.0 0.26399810625574854 0.012967395259964308
1620000000.0 0.179346109423057 0.11402940277345394
1640000000.0 -0.0011070124824133323 0.18664434470606778
1660000000.0 0.12173327402381892 -0.10577702029256164
1680000000.0 -0.07926500867304244 -0.09181483083819125
1700000000.0 0.11688455304843146 -0.010464544935020725
1720000000.0 0.07956659780051215 -0.04886568484118045
1740000000.0 -0.056848926037572994 -0.060633581160494186
1760000000.0 0.002244688375979477 0.09059155454624233
1780000000.0 -0.10044227983425394 -0.04120204620079776
1800000000.0 0.07670028123958747 0.10473579137855964
1820000000.0 0.15734554914657992 0.004679579955749425
1840000000.0 0.10837560081417176 -0.15858606143665324
1860000000.0 0.04042167689901977 0.21494059871156493
1880000000.0 0.24863994009620652 0.04499493849021206
1900000000.0 0.263947912862861 -0.05945496470474667
1920000000.0 0.05314104002838794 -0.2879623179413257
1940000000.0 -0.2902191220576238 0.09952041144969692
1960000000.0 0.16107307993640207 -0.26504454017218976
1980000000.0 -0.3068371369956674 0.05617838981443388
2000000000.0 0.1341086888508386 -0.2899570544761227
2020000000.0 0.3113008642666585 -0.09541169662319873
2040000000.0 0.32370327050622105 0.011637846137810326
2060000000.0 0.2961679562314496 0.12627078698695773
2080000000.0 -0.006774960992740919 0.32589730074945245
2100000000.0 -0.06194566039435671 -0.3173778306592162
2120000000.0 0.26392205260349033 0.1794315046482449
2140000000.0 -0.28261878480345276 -0.15040252000815277
2160000000.0 0.1268632404144551 0.29216943699138986
2180000000.0 0.20852872392615984 -0.22972623128972705
2200000000.0 0.13508805025661344 -0.2731143986401231
2220000000.0 0.04651963025975846 -0.2933887900459917
2240000000.0 0.28831565869933523 -0.03021473235346991
2260000000.0 0.06971460243106134 0.26861191778128146
2280000000.0 -0.1669155085869132 0.2097684174557834
2300000000.0 -0.09794482294317358 -0.22999156013257346
2320000000.0 -0.20935622140737972 0.12682792490593722
2340000000.0 0.01771926812728708 -0.244539398162984
2360000000.0 0.035505715300223006 0.2413628159124821
2380000000.0 -0.09780562003480595 -0.23780548537125978
2400000000.0 -0.2760397908829444 0.05434730067747623
2420000000.0 0.21252342522187428 0.2144973132797833
2440000000.0 -0.18733044005118132 -0.26773001103271643
2460000000.0 0.16697385388838307 0.31329508986798704
2480000000.0 0.19981515610064937 -0.33565284343818746
2500000000.0 0.3363452405056136 0.2613557243768031
2520000000.0 -0.41338304719941404 0.20772315056710833
2540000000.0 0.13785050727956524 -0.47459411805867846
2560000000.0 0.12430527993737371 0.510021337301814
2580000000.0 -0.22657235226074968 -0.5043342740334033
2600000000.0 0.35689364232141013 0.45290578617397337
2620000000.0 -0.36101579029720987 -0.47429723435924026
2640000000.0 0.46320095464755684 0.3986702465715657
2660000000.0 -0.622723297621303 0.05822860454780784
2680000000.0 0.05653618161003696 -0.6308740740578759
2700000000.0 0.6181422091768903 -0.17510844826428412
2720000000.0 0.6229999435620421 0.1746418171579503
2740000000.0 0.6140976647403654 0.20714348248122116
2760000000.0 0.6002095565918255 0.24527686908060473
2780000000.0 -0.4589346651623711 0.44980147485569766
2800000000.0 -0.5946579666327155 0.2202608712932419
2820000000.0 -0.4442193123033545 -0.43651494054645634
2840000000.0 0.5560420986933363 -0.2497980465402986
2860000000.0 -0.39681009175224674 0.4434397177394551
2880000000.0 0.5207894142120775 -0.23936784090752736
2900000000.0 -0.25625913379044013 -0.4888875442733361
2920000000.0 -0.5218752318515489 0.08401872479451755
2940000000.0 -0.24441821771040267 0.4359168378326539
2960000000.0 -0.31864947846829794 0.3502543199717016
2980000000.0 -0.31925704780002634 0.3132424912917922
3000000000.0 -0.19964467515813572 0.37669083548010307
3020000000.0 0.1171433464663362 0.3866858543749827
3040000000.0 0.2998871637292445 0.23709899107278828
3060000000.0 0.2914021615580002 -0.22491134448993055
3080000000.0 -0.32126279672784774 -0.15652011311895225
3100000000.0 0.2787166624773535 0.20811406641926872
3120000000.0 0.22558830325675336 -0.25852989628434947
3140000000.0 -0.314609883895115 0.13100698137763725
3160000000.0 0.34204101379337043 -0.026604469303552356
3180000000.0 -0.34051177367347435 0.04046674550160333
3200000000.0 0.15027575545154673 0.309702125103726
3220000000.0 0.22055295365142671 -0.25725256960602944
3240000000.0 0.10832753614357496 -0.31763441876748777
3260000000.0 -0.22938186187084972 -0.2357932223228348
3280000000.0 -0.3153683369438073 0.027780902634625057
3300000000.0 -0.21354211021635 0.21193625372781125
3320000000.0 -0.053530381113781424 0.2677529252824215
3340000000.0 -0.24549758616231873 -0.046216037450314267
3360000000.0 -0.2202427568665532 -0.02577158423724742
3380000000.0 -0.03796420936565251 -0.18905681122856846
3400000000.0 0.018591845851223265 -0.1655194403141979
3420000000.0 0.04164695746267008 -0.134674128426554
3440000000.0 -0.01213801726157727 -0.11776743570303994
3460000000.0 0.06753777462162726 -0.06431849132994785
3480000000.0 -0.03221579095273491 0.07063125596631831
3500000000.0 -0.06573031391447094 -0.029975921332541962
3520000000.0 -0.07030407406744119 -0.011663950594193258
3540000000.0 0.07884766913397752 0.0029122668615407014
3560000000.0 0.03671645181129337 0.0772906401669145
3580000000.0 0.08442358944536885 0.04718198846548158
3600000000.0 0.012035458451052566 -0.10400177067929581
3620000000.0 0.09172478716266642 0.0808267973757835
3640000000.0 -0.007386385284899827 -0.13511239064306207
3660000000.0 0.015034609291576418 -0.1460718324561402
3680000000.0 0.06355244025238661 0.13909976520353637
3700000000.0 0.02675314781372485 0.14183434540463108
3720000000.0 0.1086168659565413 0.0686061017120838
3740000000.0 0.10064636131353283 0.018592374011050666
3760000000.0 0.040526254228519264 -0.06889320127933078
3780000000.0 0.04438944135223638 0.03761058114815219
3800000000.0 -0.024339469026967382 0.010183140450587227
3820000000.0 -0.00869418890502533 0.0076968747862882474
3840000000.0 -0.02993740244169919 -0.03950245505525962
3860000000.0 -0.06529321375561513 0.04562062379641252
3880000000.0 0.07054105491735804 -0.07981089959984473
3900000000.0 0.059534291497357485 0.11352639467872404
3920000000.0 0.060305939752302695 -0.13089178820204075
3940000000.0 -0.09802532219133582 0.11591397637562882
3960000000.0 0.15430640539603527 -0.024973319052201785
3980000000.0 0.05142198109821995 0.13505143514884377
4000000000.0 0.0020546687125205664 -0.12216381355776793
