!Created with skrf (http://scikit-rf.org).
# Hz S RI R 50.0 
!freq ReS11 ImS11
400000000.0 0.8214291084993859 -0.31051536091974286
420000000.0 0.7813154168603008 -0.2848231741246357
440000000.0 0.44629500565865965 -0.629802787076553
460000000.0 0.2476252605020394 0.6510026661712273
480000000.0 0.31077324212971974 -0.5024373231411856
500000000.0 0.4569959344376823 0.42645402573801167
520000000.0 0.40224990668434113 -0.496997099771211
540000000.0 0.08687003459879214 -0.6001375136904449
560000000.0 0.6142286561077862 0.0908048821849425
580000000.0 0.5062364102516309 0.12923592414554044
600000000.0 -0.18711139819863845 0.5687287031186274
620000000.0 -0.44661286205569706 -0.4056405424803498
640000000.0 -0.27488629884394183 -0.4864653751819972
660000000.0 -0.2793173354208142 0.4373578545250921
680000000.0 0.33290771127135294 -0.34929284094386437
700000000.0 0.48138783884094527 0.11700766215270686
720000000.0 0.4936430224429019 0.002567255312028331
740000000.0 0.09407771101101388 0.46037877973316094
760000000.0 -0.21240228385463547 0.40590487586072516
780000000.0 -0.43221254770691525 0.13151081632274536
800000000.0 -0.19466925664670495 -0.3536141375356011
820000000.0 0.2790737006590246 0.22996073072963333
840000000.0 -0.31277900329705977 -0.11718466253918068
860000000.0 0.26894786133947995 -0.15762000549127192
880000000.0 0.2531551485619766 0.1284867161694016
900000000.0 0.13218401248114894 0.23617143831343337
920000000.0 0.11809411030325034 -0.2277970858314423
940000000.0 0.025988497297002155 -0.22007060229189962
960000000.0 0.13503092402933875 -0.09694878998078718
980000000.0 -0.11346825213935298 0.07780721895749561
1000000000.0 0.02700858365570526 -0.12957118967561806
1020000000.0 0.113370703741314 0.003896374923195138
1040000000.0 0.010193718113445082 0.12816574555063653
1060000000.0 0.01815575374317845 -0.15550089670984552
1080000000.0 -0.05010148140308342 0.1951998028212892
1100000000.0 -0.18630226514435552 -0.16265397878749213
1120000000.0 -0.13530862410472944 -0.24334294342373772
1140000000.0 -0.14868026602658213 0.2716130785881979
1160000000.0 0.29876989426775 0.14458904446383092
1180000000.0 0.18939340492905316 0.27838690894897805
1200000000.0 -0.315970584630215 -0.16023016019628467
1220000000.0 0.21074075830102879 -0.30407297112551646
1240000000.0 0.3430743081925305 -0.1618007565907854
1260000000.0 -0.038375248701942484 -0.3927028381410736
1280000000.0 -0.2946608865372947 0.23864977151019295
1300000000.0 0.13420229944524154 -0.3374368355422698
1320000000.0 0.35025162191181075 -0.14226607364017488
1340000000.0 -0.35599460915309084 0.09788245370203019
1360000000.0 0.30569925834500294 0.23177567104558297
1380000000.0 -0.17173943172667527 0.3507119229326597
1400000000.0 0.02374751758983971 -0.3800159209410475
1420000000.0 0.267199576112926 -0.27673754779664156
1440000000.0 -0.1395876298014686 -0.3624069361802164
1460000000.0 -0.31470663471727434 -0.22602061958742337
1480000000.0 -0.29558358526183964 -0.25499051978984416
1500000000.0 -0.34376327981620786 0.1856069361849704
1520000000.0 0.12464646963148762 -0.36644053999054976
1540000000.0 0.09984409935814986 0.3501853638854824
1560000000.0 -0.23725062830839116 -0.22703092482338347
1580000000.0 0.2833706769723036 0.07345329267567925
1600000000.0 0.2453922633610909 0.0992500301589445
1620000000.0 0.15937087412794476 0.1393301269632814
1640000000.0 -0.010723115459494748 0.18687017999450536
1660000000.0 0.09314127233423508 -0.12937225746185016
1680000000.0 -0.08116010320702564 -0.08939814245572682
1700000000.0 0.11669102515453347 0.005188958161534196
1720000000.0 0.06433183055018622 -0.06702752784181992
1740000000.0 -0.08006794630942383 -0.01750274512871115
1760000000.0 0.02990470374783442 0.08546286268901743
1780000000.0 -0.10624860916921434 -0.021956852783461902
1800000000.0 0.06164559198264787 0.11353507913342921
1820000000.0 0.15527443311511754 -0.029990361540582645
1840000000.0 0.027895407113281156 -0.18890506519874858
1860000000.0 0.045198743637635465 0.21383415554632734
1880000000.0 0.25420849334312123 0.005788098074565576
1900000000.0 0.24974780717266634 -0.10866943174395088
1920000000.0 -0.0030548373777446254 -0.29286661102812467
1940000000.0 -0.3057873759462446 -0.0012295458141152744
1960000000.0 0.20562194929285352 -0.23492544082161523
1980000000.0 -0.3014930332180449 0.07950333588638966
2000000000.0 0.15515365627666566 -0.2784759592430581
2020000000.0 0.3080021620375995 -0.10025777605654043
2040000000.0 0.322252934002876 0.04049165582500155
2060000000.0 0.31161282980079447 0.0752759489797006
2080000000.0 0.09186745703458102 0.31153422680309045
2100000000.0 -0.053745875672761886 -0.3191352521776468
2120000000.0 0.3088035896833759 0.08205811861825388
2140000000.0 -0.2974868034347515 -0.11964292521054565
2160000000.0 0.1996409927847377 0.246963114319714
2180000000.0 0.22032460187107786 -0.21861474745861983
2200000000.0 0.13877454625343993 -0.2727055158199593
2220000000.0 -0.011440969446141045 -0.29911812512570185
2240000000.0 0.2858532331071295 -0.042420559879587934
2260000000.0 -0.027817165848481307 0.27492972186894377
2280000000.0 -0.1606294422309451 0.21566682226230313
2300000000.0 -0.08043847660335313 -0.2367370115257869
2320000000.0 -0.18403337020666655 0.15997632311307505
2340000000.0 0.03516000186799085 -0.24130546863842908
2360000000.0 0.09523323772555292 0.2244840920638039
2380000000.0 -0.13487987755379924 -0.2165099750780172
2400000000.0 -0.2808070735803486 0.010183657243294977
2420000000.0 0.23664784671410632 0.18887421679447114
2440000000.0 -0.2700939292885886 -0.1844398035226381
2460000000.0 0.18599448957147954 0.30206215720525886
2480000000.0 0.11183190760069928 -0.37470088274318586
2500000000.0 0.3009119798323275 0.3037911434671159
2520000000.0 -0.4106934682686341 0.21422639228568355
2540000000.0 0.11214314386350399 -0.4826935596904925
2560000000.0 0.09906302061553951 0.5161708824254492
2580000000.0 -0.23793312070789072 -0.4995653298422933
2600000000.0 0.2863345598977898 0.499848944253436
2620000000.0 -0.33168312437459807 -0.4944117941035368
2640000000.0 0.4895007658595489 0.3649745689456508
2660000000.0 -0.6178165181082937 0.0941973556426867
2680000000.0 0.0533123077552063 -0.6307400582221402
2700000000.0 0.6070333861514957 -0.20976611506285328
2720000000.0 0.6423719959850661 0.07211698612442312
2740000000.0 0.608850293178851 0.22112968520235032
2760000000.0 0.5876585328452089 0.274134609378103
2780000000.0 -0.3855906773997058 0.5161424299395518
2800000000.0 -0.5829002509455548 0.25090421993925816
2820000000.0 -0.4702609013635329 -0.40868402112385155
2840000000.0 0.543842234126594 -0.2765618756550272
2860000000.0 -0.38478509578278164 0.45423267561967295
2880000000.0 0.5475526023929959 -0.17146404096139117
2900000000.0 -0.22608576702634783 -0.5035451882932361
2920000000.0 -0.5274270097023541 0.0318243421940043
2940000000.0 -0.2730266909034717 0.41580829716318723
2960000000.0 -0.35342226710057295 0.31364826774815446
2980000000.0 -0.32042730660507746 0.3130933527069015
3000000000.0 -0.12566620896768965 0.405226849332236
3020000000.0 0.040917595357691336 0.39895715588062725
3040000000.0 0.26139314172075023 0.2787861765341028
3060000000.0 0.18621020984183467 -0.31848953846384004
3080000000.0 -0.3559894616747149 0.0010669466058675406
3100000000.0 0.3146187481510036 0.14540512018723198
3120000000.0 0.2016229541053668 -0.2786300875677612
3140000000.0 -0.24115370883937565 0.24271242371824295
3160000000.0 0.32311813241982845 -0.1176982325393115
3180000000.0 -0.3393474700982304 0.05813531363413653
3200000000.0 0.025451289226680142 0.3441218205281708
3220000000.0 0.28238538981377775 -0.1897048929390005
3240000000.0 0.12086450260542249 -0.31215455944360126
3260000000.0 -0.124306989829474 -0.30267488359061095
3280000000.0 -0.3009436674842417 -0.09474730142629893
3300000000.0 -0.24710996753643868 0.16883251403661068
3320000000.0 -0.06734354581752318 0.2626384055649888
3340000000.0 -0.24616126184987405 0.02445896494919621
3360000000.0 -0.2165196688302001 0.035912874427857316
3380000000.0 -0.11340242928339762 -0.1549628522774205
3400000000.0 -0.09235576203774334 -0.13749303504114602
3420000000.0 -0.07688475559266653 -0.1179737697238771
3440000000.0 -0.07294826319455353 -0.0937185482859156
3460000000.0 0.025187361935158872 -0.09173338038634031
3480000000.0 0.048369957564933314 0.060820880095151325
3500000000.0 -0.07277072047532893 0.0024326907894162866
3520000000.0 -0.06287494081503575 -0.03799445416792899
3540000000.0 0.047975621077188536 0.0649915733053821
3560000000.0 -0.05208364157041183 0.06820787176577617
3580000000.0 -0.01897572959210299 0.09491358793070945
3600000000.0 0.08702259743531743 -0.06059294111937492
3620000000.0 0.10072475310396574 0.06632340960607541
3640000000.0 0.11110680425080997 -0.07150284732735335
3660000000.0 -0.03576446029115472 -0.14359787128381254
3680000000.0 0.11181120083695618 0.10072798219356174
3700000000.0 0.0700866692357766 0.12349807658305915
3720000000.0 0.12570737470955215 0.021651556521191818
3740000000.0 0.0388787631364478 -0.09541423300497891
3760000000.0 -0.0764317678656282 0.025470830224080223
3780000000.0 0.055182408131550044 -0.022237796225677002
3800000000.0 0.0046345717250663035 0.02820069484144087
3820000000.0 -0.0030034681167282868 -0.011515585698414895
3840000000.0 0.018541657082544565 -0.044449433464649364
3860000000.0 -0.05315770506875479 0.05621603629258808
3880000000.0 -0.011356100370573429 -0.10298984128276133
3900000000.0 0.09350248956818256 0.08594412085625018
3920000000.0 -0.09780112579812687 -0.10464384132016546
3940000000.0 0.060936710107506835 0.1392105438771301
3960000000.0 0.10668567362047525 -0.11318683352219534
3980000000.0 0.13424160514849776 0.059844337303817205
4000000000.0 -0.12450303335023859 -0.005840288890224644
