!Created with skrf (http://scikit-rf.org).
# Hz S RI R 50.0 
!freq ReS11 ImS11
400000000.0 0.8338829433267197 -0.2742339768404869
420000000.0 0.7636071514848181 -0.32960517831963493
440000000.0 0.426078646831022 -0.6433614932803212
460000000.0 0.22414634611863277 0.6590880970664461
480000000.0 0.2860064548279871 -0.517497029826281
500000000.0 0.4301763915531488 0.45115089349316584
520000000.0 0.41202449490829984 -0.4917642325154578
540000000.0 0.10335772299032413 -0.5953835833525529
560000000.0 0.6211314889100368 0.05133356267273557
580000000.0 0.5130252001949402 0.10160000775017071
600000000.0 -0.19859181117969243 0.5628071853078624
620000000.0 -0.3992507458142077 -0.4519964055382354
640000000.0 -0.30455220054240223 -0.4688229027416617
660000000.0 -0.2496993636234604 0.456611516779097
680000000.0 0.17561236052624013 -0.44891919229904226
700000000.0 0.47654121031018154 0.12602952798357916
720000000.0 0.4944154721268791 0.044043991251031325
740000000.0 0.11534018528394423 0.4584344561922314
760000000.0 -0.1460367243734788 0.43765698725250723
780000000.0 -0.4477443446153679 0.035097075618001385
800000000.0 -0.03666642334274567 -0.401108593550713
820000000.0 0.2174952936604594 0.2900247206873559
840000000.0 -0.33568765325104233 0.015595754686636463
860000000.0 0.1822069444017213 -0.2513705255422193
880000000.0 0.13976292165266305 0.24133810997845923
900000000.0 -0.007122368089677779 0.2762190998500517
920000000.0 0.0037019762626452355 -0.2603623137764153
940000000.0 -0.0884999828839287 -0.20428631365583858
960000000.0 0.06258746181662231 -0.1512753852275272
980000000.0 -0.1293563015722399 -0.04510319177289608
1000000000.0 0.13045698734999503 -0.03621995355201595
1020000000.0 0.10403881288020285 -0.043596598615579726
1040000000.0 0.05769224548487951 0.11607391923996226
1060000000.0 -0.0670071620181659 -0.1407828606231758
1080000000.0 -0.177931890816513 0.09624895410202358
1100000000.0 -0.23484912990856305 -0.07784359585014304
1120000000.0 -0.15783892354285592 -0.23065362879304582
1140000000.0 -0.18394533943026758 0.24839748086225316
1160000000.0 0.320801253940661 0.08685624998024645
1180000000.0 0.08738106489821872 0.3236203981914946
1200000000.0 -0.34344795424512115 -0.09609233652909543
1220000000.0 0.2102247510429819 -0.30266526250469844
1240000000.0 0.3572523917085101 -0.127953954069228
1260000000.0 -0.09351347006005287 -0.3835754217264223
1280000000.0 -0.3401041773508379 0.16963361442589234
1300000000.0 0.14695408182416997 -0.33278886358157
1320000000.0 0.33670090527787133 -0.1722455428880624
1340000000.0 -0.359300722316957 0.08361997924887565
1360000000.0 0.33060489562560735 0.1938553956236398
1380000000.0 -0.140099757958023 0.36469072536446545
1400000000.0 -0.06558622548341991 -0.376637756217036
1420000000.0 0.2304651154557607 -0.3075471647659677
1440000000.0 -0.13751137189690948 -0.36189788586081667
1460000000.0 -0.2999931051509371 -0.24345717453789326
1480000000.0 -0.18884382742816752 -0.34310216326051984
1500000000.0 -0.30430710816064604 0.2474729038634783
1520000000.0 0.09851428452854046 -0.37423745945917125
1540000000.0 0.03235647672873025 0.36233227380505034
1560000000.0 -0.23469133919056923 -0.22928338984811936
1580000000.0 0.29095389240538927 0.03376601867378262
1600000000.0 0.25615857756773236 0.0629576567443355
1620000000.0 0.16594910633336646 0.13226797294517692
1640000000.0 0.020398529032400473 0.18478957684885222
1660000000.0 0.10566131408718692 -0.12077503469183044
1680000000.0 -0.09231739890444832 -0.07892043203947036
1700000000.0 0.11419655447532698 -0.024290862427991982
1720000000.0 0.0868876962435461 -0.035493812628169974
1740000000.0 -0.04872966717298533 -0.06757895509944506
1760000000.0 0.0572041365650457 0.07003566567659396
1780000000.0 -0.10705593030330411 -0.021918904196080155
1800000000.0 0.0806724655725233 0.10149623232240838
1820000000.0 0.1563994189858231 -0.02007804003490775
1840000000.0 0.12723756022406463 -0.14494176209346274
1860000000.0 0.03011770826044452 0.21702381370942186
1880000000.0 0.2454403850042516 0.05805994903485402
1900000000.0 0.268487861500651 -0.03263691605248616
1920000000.0 0.07295471240247052 -0.28394401863901253
1940000000.0 -0.2898864817571958 0.09838706221714928
1960000000.0 0.15737133240921605 -0.2677178838845239
1980000000.0 -0.3087831428058538 0.039808431658588155
2000000000.0 0.16484268334368507 -0.2732181048253977
2020000000.0 0.30330944092941386 -0.11661699404159079
2040000000.0 0.32220399294828367 -0.01664981246287947
2060000000.0 0.29405980771231377 0.13178682701581043
2080000000.0 0.011236862170115226 0.3252831846587229
2100000000.0 -0.08945611713700795 -0.3106286779405769
2120000000.0 0.26869163184236355 0.17310444154069196
2140000000.0 -0.2938618792696911 -0.12656845156600877
2160000000.0 0.16126676414684693 0.2744967118263717
2180000000.0 0.2253573750227527 -0.2136801891723356
2200000000.0 0.16224286726628853 -0.2586462293168053
2220000000.0 0.022077150841226766 -0.29722836282341075
2240000000.0 0.28992360921724836 0.0008920283198349018
2260000000.0 0.01487694402969265 0.276601997242158
2280000000.0 -0.17280787940461975 0.20536222980272148
2300000000.0 -0.05860717237619484 -0.2432074882803481
2320000000.0 -0.18801092102133485 0.15536371854756
2340000000.0 0.024761569492441748 -0.2423143739028928
2360000000.0 0.07713141947165703 0.23067844733471862
2380000000.0 -0.10350417765479725 -0.23376755581299488
2400000000.0 -0.2662815356764199 0.08890900663077944
2420000000.0 0.28144653613894155 0.11068566979207657
2440000000.0 -0.20046492011114228 -0.25792058315298305
2460000000.0 0.24227988403787964 0.2600409422539878
2480000000.0 0.14633274726468556 -0.3630999985675616
2500000000.0 0.34179651247485904 0.25679946837262285
2520000000.0 -0.39935420048687065 0.23553115619992512
2540000000.0 0.0957077522807921 -0.4864186262346389
2560000000.0 0.07340958197065678 0.5208828729088
2580000000.0 -0.17684435521999053 -0.5241561191860556
2600000000.0 0.33189045385791216 0.47138767628463507
2620000000.0 -0.374328994337165 -0.462504650659908
2640000000.0 0.5067066445926276 0.3402281280787278
2660000000.0 -0.6219407573629778 0.06133382901161333
2680000000.0 0.10782367917101648 -0.6235389980870985
2700000000.0 0.5753875047359442 -0.28369129052588404
2720000000.0 0.6467078789511636 0.03645671426386692
2740000000.0 0.6005012737235613 0.2450929002705062
2760000000.0 0.6055081169109818 0.23388382969376598
2780000000.0 -0.46882556323631364 0.4418629733620439
2800000000.0 -0.5885123916387376 0.24001105763126365
2820000000.0 -0.4481066858670469 -0.4341836193261147
2840000000.0 0.5525858996545371 -0.2609867808204671
2860000000.0 -0.38451569529388835 0.45435318477232917
2880000000.0 0.5506222685421731 -0.16156133252460572
2900000000.0 -0.20636620701275352 -0.5119900475992522
2920000000.0 -0.5276881217594316 0.03200274438405035
2940000000.0 -0.30226721092678804 0.3973017095790171
2960000000.0 -0.3223257395885999 0.344773269332307
2980000000.0 -0.32022529442573916 0.31172352242022117
3000000000.0 -0.12774844690399068 0.40521140412806594
3020000000.0 0.19185811657498322 0.35346691215131876
3040000000.0 0.31663964298945907 0.21357831335633481
3060000000.0 0.25732095646668224 -0.26491762253891665
3080000000.0 -0.35668688420571304 -0.014000394063897042
3100000000.0 0.3014403265263732 0.17175338027531187
3120000000.0 0.21733516729715457 -0.26683273694515314
3140000000.0 -0.2964491851088769 0.17235379702505765
3160000000.0 0.3324346003891588 -0.08820629381541953
3180000000.0 -0.34410445440265397 0.009714987896767514
3200000000.0 0.06370460767036892 0.33827822711974553
3220000000.0 0.2700293815672997 -0.2064527000311337
3240000000.0 0.12536724868649649 -0.3108067456149527
3260000000.0 -0.1810733293522188 -0.2723587402775347
3280000000.0 -0.30503997867588184 -0.08158735785074456
3300000000.0 -0.23823196176885614 0.18235475189336653
3320000000.0 -0.010921509611977284 0.27150536018509586
3340000000.0 -0.24101747831915704 0.06074654474651824
3360000000.0 -0.21927050608165174 0.030381870359327934
3380000000.0 -0.08994796950851786 -0.17106076542004856
3400000000.0 -0.06657037229109301 -0.15430844319397616
3420000000.0 -0.03976850354064048 -0.13598662254405358
3440000000.0 -0.0509256904334971 -0.10823166473113809
3460000000.0 0.09274662400659638 -0.021228997508104315
3480000000.0 -0.05809334092350651 0.053839677363924275
3500000000.0 -0.06601615434509314 -0.03257199902387641
3520000000.0 -0.04048324825801211 -0.059292948268041976
3540000000.0 -0.0009362494464930148 0.07847251369897632
3560000000.0 -0.019238159615792123 0.08270393818056149
3580000000.0 0.09038770427113861 0.032494148858113726
3600000000.0 0.01923412862499249 -0.10257337419492932
3620000000.0 0.1059530932506161 0.05828106135541051
3640000000.0 0.000340640542406545 -0.13464557390557877
3660000000.0 -0.034878031187369596 -0.14316381594032274
3680000000.0 0.08498603983289926 0.12611962162561388
3700000000.0 0.07712414226012282 0.12185155486031854
3720000000.0 0.12867040433326923 0.004319846669218788
3740000000.0 0.10253993155821799 0.009102482508742207
3760000000.0 0.019424105893906553 -0.07822499721725823
3780000000.0 0.0574876894712537 0.014249155956582585
3800000000.0 -0.01803095266105129 0.021258605222167447
3820000000.0 -0.008270781033614168 -0.006733164122766701
3840000000.0 -0.0301321658353163 0.037268962040866604
3860000000.0 -0.03777863451231022 0.06886063462442886
3880000000.0 -0.022446480319725088 -0.10435774439534602
3900000000.0 0.11905947466690547 0.04742600458538146
3920000000.0 -0.09875594427313988 -0.10420813418818263
3940000000.0 -0.05564940863475225 0.14018264147827503
3960000000.0 0.12146542293595718 -0.0984548488113967
3980000000.0 0.1305919498610452 -0.06793926374199301
4000000000.0 -0.11945418374041712 0.0343370157564469
