!Created with skrf (http://scikit-rf.org).
# Hz S RI R 50.0 
!freq ReS11 ImS11
400000000.0 0.8530181539832371 -0.21231952881996916
420000000.0 0.7809707171136288 -0.28522585302292675
440000000.0 0.4010639259584915 -0.661296336638016
460000000.0 0.23077128437862482 0.652596721789885
480000000.0 0.41317181019500154 -0.4206623895161226
500000000.0 0.4888978094517884 0.39948560450237236
520000000.0 0.23162472166453588 -0.5979255782195065
540000000.0 -0.024626736814748643 -0.6069752214623864
560000000.0 0.6120495373666699 0.07869098114608378
580000000.0 0.34755177819334954 0.38877055730834925
600000000.0 -0.39490170756027093 0.4533296158364821
620000000.0 -0.3482146708016256 -0.4990386077804771
640000000.0 -0.46838486837797066 -0.3077401471714018
660000000.0 0.034122476687949564 0.516076357760948
680000000.0 0.37843336798933613 -0.28645190458910336
700000000.0 0.3235276934216513 0.3804036719775552
720000000.0 0.4940960150450269 -0.021751646391347326
740000000.0 -0.012145274382834997 0.4747077717494209
760000000.0 0.05913003424630048 0.45436029888255863
780000000.0 -0.43206598246729405 0.13346981289424276
800000000.0 -0.31487245432960775 -0.24924161036659023
820000000.0 0.11376369467880172 0.3389371618089894
840000000.0 -0.26606757261163155 -0.2014363061571357
860000000.0 0.31544740456552667 0.010736425642617137
880000000.0 0.14526829693714566 -0.2490168347367958
900000000.0 0.2426087611202737 0.11288360887882676
920000000.0 0.1966238225008417 -0.15971443574467012
940000000.0 0.18795377651191744 -0.11823722481453326
960000000.0 0.07501337762678668 -0.15172477463284675
980000000.0 -0.13261459198862124 -0.024810212763307575
1000000000.0 0.1299600923059577 0.03815504028759422
1020000000.0 0.04534184677568382 0.10872201265666612
1040000000.0 0.11740577179599428 0.0638654080019382
1060000000.0 -0.046398699076025035 -0.1448851262990059
1080000000.0 0.0828760934092857 0.18384450319342918
1100000000.0 -0.11358215805171813 -0.21723125933063306
1120000000.0 -0.08093839622974522 -0.26682416840457585
1140000000.0 -0.28924758994538113 0.11435067074009922
1160000000.0 0.33388722609738086 0.029936010729381995
1180000000.0 0.296548283372298 0.15999843629962537
1200000000.0 -0.3393912935256867 -0.08455387413280643
1220000000.0 0.3691188152137657 -0.02492106647037284
1240000000.0 0.2902286597131104 -0.24832257708195798
1260000000.0 -0.02390389749492108 -0.3939653543303263
1280000000.0 -0.3106459696350973 0.2139560002488831
1300000000.0 0.11339526187340813 -0.34830352376508655
1320000000.0 0.2868000835946233 -0.24167626754987
1340000000.0 -0.36641400317093314 0.028857413024349014
1360000000.0 0.16736918592429922 0.34686477480874683
1380000000.0 -0.03376992843862904 0.39129103288909933
1400000000.0 -0.006828830457491957 -0.3831812796198424
1420000000.0 0.28292033830884555 -0.2577505714090261
1440000000.0 -0.08279904344438549 -0.3783836678265096
1460000000.0 -0.32615850306545213 -0.20866956512639073
1480000000.0 -0.15732194637864091 -0.3617648854727257
1500000000.0 -0.254572956325056 0.2986760892526822
1520000000.0 0.13027594464620312 -0.36220571878655683
1540000000.0 -0.007482111851135244 0.3624560272601776
1560000000.0 -0.24262864376478901 -0.22339384499825485
1580000000.0 0.28994325799473347 0.04990869488655634
1600000000.0 0.25662472198130215 -0.04431721040629458
1620000000.0 0.00717100488446064 0.21408602267503668
1640000000.0 0.12842625032227983 0.1374031260931246
1660000000.0 0.09991011751395122 -0.12311220654036693
1680000000.0 -0.07535146716877564 -0.09263877277008206
1700000000.0 0.02315769824962175 0.11693946841614186
1720000000.0 -0.09324795085261306 0.006736852168645022
1740000000.0 -0.0056561368980723075 -0.0801375508916585
1760000000.0 -0.08612310744239018 0.034703977157328085
1780000000.0 -0.07692117892691208 0.07872268583787033
1800000000.0 0.1260816378934976 -0.021771584887358874
1820000000.0 0.006839697101893686 0.15863153149003387
1840000000.0 0.005107502951627514 -0.19283154494804872
1860000000.0 0.05054907855357429 0.21300781585568246
1880000000.0 0.2528944366103728 0.012844400706850424
1900000000.0 0.26441877494033933 -0.052723070859347944
1920000000.0 0.088616564681902 -0.27896016534296364
1940000000.0 -0.3076448476279148 -0.009708587415234279
1960000000.0 0.09067889040107707 -0.29636288196046945
1980000000.0 -0.3028459079762438 0.06787852974125563
2000000000.0 0.14914837179974016 -0.2827546109767565
2020000000.0 0.28206700247717553 -0.15880874613429755
2040000000.0 0.31927459814249376 -0.05070158857788835
2060000000.0 0.26730663239158003 0.17790659674214118
2080000000.0 0.059756357708310226 0.320588119366515
2100000000.0 -0.19604582010339056 -0.2585355703417207
2120000000.0 0.277464426857999 0.15667862444708597
2140000000.0 -0.2434413446308845 -0.20607428692339957
2160000000.0 0.1442753396916549 0.2852937994474651
2180000000.0 0.23937848669085432 -0.1981072329325879
2200000000.0 0.242052877432047 -0.18660153729638165
2220000000.0 0.0053276818313224335 -0.2966362960924588
2240000000.0 0.2867590691766358 0.040546594785261444
2260000000.0 -0.030345959048425807 0.2747353037708361
2280000000.0 -0.15451990507500615 0.2207019172970353
2300000000.0 -0.10649403822008983 -0.2264607195944361
2320000000.0 -0.13566501569432146 0.20167465544544308
2340000000.0 0.09428253354314398 -0.2248731105714917
2360000000.0 0.09555374334976847 0.2257833538044445
2380000000.0 -0.16663027021484844 -0.194422352490652
2400000000.0 -0.2711367240828474 0.07521847723873291
2420000000.0 0.26939386653332753 0.13614524138188644
2440000000.0 -0.19202267767931183 -0.2647806700523508
2460000000.0 0.08970347717812503 0.3449129627416111
2480000000.0 0.11559352145050533 -0.3756488973427147
2500000000.0 0.299186547172777 0.30293107735319796
2520000000.0 -0.4231022376761757 0.187460203735834
2540000000.0 0.21311108976087342 -0.4466467944166012
2560000000.0 0.09387659535801764 0.5178362484313499
2580000000.0 -0.2319377428541961 -0.5016605718150879
2600000000.0 0.31534414162524554 0.48189508166608747
2620000000.0 -0.3921550207995085 -0.44696490481398027
2640000000.0 0.5107295314579706 0.33404336948438984
2660000000.0 -0.6242734332472991 0.040636084436207864
2680000000.0 0.05643624519551227 -0.6311607248537795
2700000000.0 0.625569542288145 -0.14560021874040543
2720000000.0 0.6250641335476905 0.1663107859592888
2740000000.0 0.570650543752654 0.3083837870649285
2760000000.0 0.6051288874956234 0.2371067045765734
2780000000.0 -0.47545617243922683 0.43407584108236
2800000000.0 -0.6235759027944632 0.11966825432114594
2820000000.0 -0.3852973072657524 -0.48965997698864255
2840000000.0 0.5677584524719215 -0.22341976455942344
2860000000.0 -0.40955837180600096 0.4305703100257411
2880000000.0 0.5534510020555204 -0.15236577109283972
2900000000.0 -0.23232506718580798 -0.5001403905058737
2920000000.0 -0.5272419102969937 0.036818835691003624
2940000000.0 -0.3068477750403856 0.39216124299697536
2960000000.0 -0.3257370701668723 0.3426384413307621
2980000000.0 -0.30455812091107815 0.3290633391141612
3000000000.0 -0.11154375392290879 0.4105561649294497
3020000000.0 0.0860498136270532 0.39370687341068017
3040000000.0 0.32370841906522646 0.2052758744159013
3060000000.0 0.29140715009038853 -0.22700065142088585
3080000000.0 -0.3522424102007087 -0.06609018094995657
3100000000.0 0.26472646845304476 0.22453722716201774
3120000000.0 0.25707592063523155 -0.22741780890705093
3140000000.0 -0.31320146546205124 0.13847075238233994
3160000000.0 0.3425961993547815 0.003195087037233016
3180000000.0 -0.32707452879530513 0.11243744971032976
3200000000.0 0.006778990126255978 0.34154342527643267
3220000000.0 0.2804052098796263 -0.19087438270930085
3240000000.0 0.11003009724606502 -0.31588740901327017
3260000000.0 -0.19543089671501226 -0.2619854538518358
3280000000.0 -0.31542358996187525 0.016275177237069744
3300000000.0 -0.18947738747085133 0.23240476423546044
3320000000.0 -0.058908513141681516 0.26568300232343467
3340000000.0 -0.24786572688309444 0.023365972742495685
3360000000.0 -0.18984463380515587 0.11551597850976802
3380000000.0 -0.13439401949152133 -0.13897972577553086
3400000000.0 0.015508688696874594 -0.16751863426198987
3420000000.0 0.028334162154773895 -0.14020845686343644
3440000000.0 -0.020123377124017884 -0.11798623501701083
3460000000.0 0.0668711879223801 -0.0686334260389718
3480000000.0 -0.07489972311800211 -0.02241968359800875
3500000000.0 -0.048387354711803575 -0.05495230473614168
3520000000.0 -0.060040073643828 -0.03847243303011453
3540000000.0 -0.03723212346608682 0.07065589378928491
3560000000.0 -0.02211528907608742 0.08196228697763906
3580000000.0 0.062156443158860666 0.07178104185462746
3600000000.0 0.04176811210249277 -0.09565113129542989
3620000000.0 0.11901724177499744 0.006284767635369599
3640000000.0 0.04842641720031406 -0.1267797953356094
3660000000.0 -0.1077204243727284 -0.09902759385467326
3680000000.0 0.0774573741451233 0.13040870546566474
3700000000.0 0.09233754265148586 0.11198391504988296
3720000000.0 0.10397891537262269 -0.07598506440187557
3740000000.0 0.09185200850405895 0.04504186952014765
3760000000.0 -0.026676686801447518 -0.076950690456811
3780000000.0 0.04898755173741668 -0.03426575497980041
3800000000.0 -0.02662293908862337 0.0015846554176913302
3820000000.0 -0.011883588697323633 0.00046503291899620155
3840000000.0 -0.02056393245749431 0.04241962467193038
3860000000.0 -0.0015558296068252464 0.0777192576917361
3880000000.0 -0.04659598699992795 -0.0958356222638517
3900000000.0 0.12680352032740913 0.019575585646638274
3920000000.0 -0.13289590142664157 -0.05546678412088153
3940000000.0 -0.043706011187867676 0.14629924579338363
3960000000.0 0.1047273564745868 -0.11737371210515254
3980000000.0 0.11015957478316532 0.09673610818942974
4000000000.0 -0.06180450403357455 -0.1073454691582998
