!Created with skrf (http://scikit-rf.org).
# Hz S RI R 50.0 
!freq ReS11 ImS11
400000000.0 0.8387989874911111 -0.2600818647472561
420000000.0 0.7755086431408678 -0.29783498629461
440000000.0 0.46726543704606216 -0.6151611779663785
460000000.0 0.22326881232450838 0.6580483401659294
480000000.0 0.30501013463087373 -0.5054305083090479
500000000.0 0.3767658718256525 0.5010474359571304
520000000.0 0.29308760755962565 -0.5680627731697598
540000000.0 0.2075077641777874 -0.5703476321191996
560000000.0 0.621624515826754 0.020562096430236695
580000000.0 0.5036552624537229 0.13394702761000157
600000000.0 -0.27589362379906884 0.5298913737755093
620000000.0 -0.34551316944452104 -0.4947541951991472
640000000.0 -0.24318179479080526 -0.507709877827877
660000000.0 -0.042178675750369383 0.5169016016854546
680000000.0 0.2949884447197198 -0.3811360974393837
700000000.0 0.48524346043495264 0.07655199016202918
720000000.0 0.4458273606142465 0.21477637623943918
740000000.0 -0.040981840186959786 0.47447581365130126
760000000.0 -0.020841225922951716 0.4609501315663727
780000000.0 -0.4068255121241155 0.19160847666592232
800000000.0 -0.0692880648453804 -0.39321497756081436
820000000.0 0.005319850556587133 0.36333416052342715
840000000.0 -0.32928366444681867 0.06924918388206804
860000000.0 0.20298925595419634 -0.23589426363068638
880000000.0 0.2152995836764506 0.17951220005976384
900000000.0 0.03900673892628949 0.2717307335800126
920000000.0 -0.0007436527075140631 -0.26008659111596366
940000000.0 -0.16174803439812296 -0.14771131104711652
960000000.0 0.15324398714724607 -0.05841034837543885
980000000.0 -0.10122104457016877 -0.09186012977431575
1000000000.0 0.11159063474628192 -0.07701806973516347
1020000000.0 0.0965018290008789 -0.06038686868006863
1040000000.0 0.04938139114558783 0.12105337478092773
1060000000.0 -0.04840723170337695 -0.14684134672355226
1080000000.0 -0.13096574022661336 0.15476367475764644
1100000000.0 -0.155886160463307 -0.19170318181772308
1120000000.0 -0.15833850955844203 -0.23257948154309951
1140000000.0 -0.13822620152586224 0.27511462043125073
1160000000.0 0.25505421461802935 0.21089478906073642
1180000000.0 0.0541338895170668 0.33278981348579073
1200000000.0 -0.35328093029802776 -0.028657996205517764
1220000000.0 0.15913941502772055 -0.33259155915743227
1240000000.0 0.3502381070873354 -0.14324426171527435
1260000000.0 -0.08551522431202437 -0.3851733762599249
1280000000.0 -0.32374444585292284 0.19802790030184386
1300000000.0 0.1783204428361288 -0.3192980887519068
1320000000.0 0.28592200175020044 -0.2475039723034901
1340000000.0 -0.3345416383224021 0.15322143457618614
1360000000.0 0.2956706488665595 0.24337390782887655
1380000000.0 -0.15828159264533823 0.35779939517661885
1400000000.0 0.07567308087568461 -0.37517531678989724
1420000000.0 0.22511351583154673 -0.3117480647402328
1440000000.0 -0.09768658752500115 -0.37316849382471046
1460000000.0 -0.2632052609279848 -0.28378809826568674
1480000000.0 -0.1659874323170656 -0.35612466569039103
1500000000.0 -0.34126142005708127 0.1940110018050201
1520000000.0 0.06264274005540482 -0.38202490207446105
1540000000.0 0.10472353388724809 0.34697697027205526
1560000000.0 -0.17596649340239423 -0.2778706885526582
1580000000.0 0.2860985770313402 0.07058222802929945
1600000000.0 0.2611350209833744 -0.034963477878076736
1620000000.0 0.15659101557477278 0.14562892918433804
1640000000.0 0.028423462497755996 0.18359750677429454
1660000000.0 0.1420787090975828 -0.07447018821404834
1680000000.0 -0.1026142337414547 -0.06452981653650564
1700000000.0 0.09900172422053362 -0.06223657568391856
1720000000.0 0.07348728684476875 -0.05625276238510209
1740000000.0 -0.048099437995427395 -0.06693262798134994
1760000000.0 -0.016546046210599852 0.08936691179115523
1780000000.0 -0.10469028155400789 0.029595908962930764
1800000000.0 0.0821819583075392 0.10035685559135966
1820000000.0 0.15527024145151944 -0.0254001724341301
1840000000.0 0.11702916820987914 -0.15260736117171056
1860000000.0 0.07699365821096522 0.2053534451586164
1880000000.0 0.24168013212768288 0.07282430356543329
1900000000.0 0.2674766726298229 -0.0511766728169947
1920000000.0 0.06523447155010755 -0.2851531684904692
1940000000.0 -0.2974708090838563 0.07309753410346656
1960000000.0 0.14858990968502192 -0.2724635705971898
1980000000.0 -0.310834126341686 0.01675397172453459
2000000000.0 0.14513412447776985 -0.2860231543611902
2020000000.0 0.26357801151336746 -0.19051907623470205
2040000000.0 0.3208071374888 -0.041936870416472226
2060000000.0 0.2988609174073375 0.11533017096364362
2080000000.0 0.07240009399114361 0.3173609926928444
2100000000.0 -0.055007702667547335 -0.3202640572358452
2120000000.0 0.2868090721894647 0.14335546605950153
2140000000.0 -0.30982476770372225 -0.07826222224357082
2160000000.0 0.11380643592167701 0.2975354900765732
2180000000.0 0.22067467573636576 -0.21901035822903223
2200000000.0 0.1799379673798986 -0.24531384427433972
2220000000.0 0.1545072989784358 -0.2532817043257576
2240000000.0 0.2799026566974373 -0.08352040836737762
2260000000.0 0.12415998719434432 0.2471664076277614
2280000000.0 -0.17999039733304484 0.19702268166131814
2300000000.0 0.01766925498883126 -0.24780695516281032
2320000000.0 -0.198859549290065 0.14484086893036938
2340000000.0 -0.10472877269929087 -0.22217981740775
2360000000.0 0.09894833201168225 0.22141953673091888
2380000000.0 -0.08124679278264735 -0.24208037633188562
2400000000.0 -0.2806529411877865 -0.029903125222506856
2420000000.0 0.2546330566384185 0.16562855854153266
2440000000.0 -0.23457568410260682 -0.2267926455365925
2460000000.0 0.19185792562846543 0.2984259659213803
2480000000.0 0.2549443219043115 -0.297268171372297
2500000000.0 0.3556814923243153 0.23593863734055207
2520000000.0 -0.4107192951936123 0.21377523610921348
2540000000.0 0.1831909884063386 -0.45902608744388274
2560000000.0 0.1157081823111626 0.5133262236085752
2580000000.0 -0.23154635245730185 -0.5016788883110601
2600000000.0 0.3451013148652995 0.46092055837941914
2620000000.0 -0.3665469376519548 -0.46940238233486636
2640000000.0 0.4795663988253292 0.3783291316929576
2660000000.0 -0.6205801726190138 0.07117239539377056
2680000000.0 0.054629582082293376 -0.63075370929716
2700000000.0 0.6070997305101523 -0.20924172369182498
2720000000.0 0.6392411312628341 0.09867231468395228
2740000000.0 0.6199292637748197 0.18983423692247264
2760000000.0 0.6114804622125748 0.21760105338032534
2780000000.0 -0.41305086433965177 0.49337586622304713
2800000000.0 -0.5924782164382594 0.2287164785499081
2820000000.0 -0.46259786326628644 -0.41802738634423064
2840000000.0 0.5446604535689197 -0.2762071463773168
2860000000.0 -0.3898844991030204 0.4493208458601106
2880000000.0 0.5565787286000456 -0.1400010768110751
2900000000.0 -0.22769002227621596 -0.5025684074911269
2920000000.0 -0.5282965064642803 0.022069210468335584
2940000000.0 -0.30575012171105004 0.3941474569493162
2960000000.0 -0.35379236363960964 0.3129300767933426
2980000000.0 -0.2983957679541952 0.3342586861075231
3000000000.0 -0.12840546530827 0.4047673507555257
3020000000.0 0.09635669985589274 0.39111683393489755
3040000000.0 0.324617375929937 0.20392861583969096
3060000000.0 0.2537151054042401 -0.26594896606050494
3080000000.0 -0.35444981739563575 -0.04987634774358861
3100000000.0 0.26840979299603707 0.22144928960855292
3120000000.0 0.2004529502042606 -0.27894096707626204
3140000000.0 -0.3093983382467294 0.14828655298047264
3160000000.0 0.3412165450238744 -0.03655135187795515
3180000000.0 -0.3434691250567728 0.01887674103034124
3200000000.0 0.044146065393328056 0.34060476555110647
3220000000.0 0.23205516087698014 -0.2473401800231158
3240000000.0 0.13949054127021718 -0.3047952587795764
3260000000.0 -0.20090754488923854 -0.2587319304794295
3280000000.0 -0.3165066989857902 -0.0013313232634611584
3300000000.0 -0.22578809939247574 0.19810359321389676
3320000000.0 -0.038682902651905146 0.2710704438458525
3340000000.0 -0.2410909404114811 0.058494025431691916
3360000000.0 -0.22207733234715482 -0.01126162783220458
3380000000.0 -0.06394520079266387 -0.18196406999179135
3400000000.0 -0.049631607725785926 -0.16095034282064857
3420000000.0 -0.015224830279251114 -0.14050301875968946
3440000000.0 0.005252476353053226 -0.11877302304148837
3460000000.0 0.08005047504118086 -0.05202057655703203
3480000000.0 -0.053179535688802654 0.05669693100993997
3500000000.0 -0.06016321849505458 -0.04078437621278248
3520000000.0 -0.041322695385548565 -0.058841325055299695
3540000000.0 0.05902845044927418 0.053472470629129965
3560000000.0 -0.046416022758455404 0.0701054796366832
3580000000.0 0.03367197650781332 0.0909025365122439
3600000000.0 0.004927906522457821 -0.10489405119269687
3620000000.0 0.11345612690199319 0.03662967208625238
3640000000.0 0.02235110359804462 -0.132324593614348
3660000000.0 -0.06423428344619081 -0.13295287988266904
3680000000.0 0.07774733649187333 0.13058908137052877
3700000000.0 0.09193237070125315 0.1107619461647163
3720000000.0 0.10430201885910283 0.07709118242847363
3740000000.0 0.09138776991698917 -0.049357217154943234
3760000000.0 -0.03846717957324877 -0.06936176609361072
3780000000.0 0.028213278100758424 0.05217391620417853
3800000000.0 -0.00972036649504636 -0.026064839876394835
3820000000.0 0.005821978958805475 0.01001840155386986
3840000000.0 -0.04598780661898668 -0.016119555087294637
3860000000.0 -0.016574356753372606 0.07723228226092686
3880000000.0 0.033096590956975584 -0.09973214460938382
3900000000.0 0.08969139598123908 0.09389861149655854
3920000000.0 -0.13317978612431672 -0.05505516848732179
3940000000.0 -0.10354860739276277 0.11007419910574986
3960000000.0 0.13292111188244513 -0.08444067758571566
3980000000.0 0.08882882246269454 0.11888219228448133
4000000000.0 -0.11964192162240941 -0.03595198307137657
