!Created with skrf (http://scikit-rf.org).
# Hz S RI R 50.0 
!freq ReS11 ImS11
400000000.0 0.8171621042687987 -0.3209911265431753
420000000.0 0.7711163765287073 -0.31216636053843105
440000000.0 0.4600776186109073 -0.6218519489914281
460000000.0 0.2426158855817221 0.6499478366862826
480000000.0 0.33496317154200494 -0.485354056074617
500000000.0 0.49979985094474594 0.37818401696130016
520000000.0 0.44330934248021525 -0.4622423797846228
540000000.0 0.03135819763649408 -0.6102227494571552
560000000.0 0.6097196985610583 0.1112038473500976
580000000.0 0.4746402193242422 0.22061098099255516
600000000.0 -0.35712804143946153 0.47747438347511156
620000000.0 -0.21220221701631659 -0.5655033633830041
640000000.0 -0.3644703048128865 -0.42630726578002104
660000000.0 0.07517420618561495 0.5159902818894695
680000000.0 0.23180258694669303 -0.4179777333260218
700000000.0 0.3412879457872363 0.3661652684712834
720000000.0 0.48474407349893167 -0.11647129892783122
740000000.0 0.05597354715995347 0.4680767071851779
760000000.0 -0.15464120413408697 0.43186320430672825
780000000.0 -0.22181516484612945 -0.39046031358339467
800000000.0 -0.05945351192694981 -0.4084823087380559
820000000.0 0.3326558285842037 -0.13209122988565639
840000000.0 -0.32059597123153377 -0.057163896151533035
860000000.0 0.2877786940181023 0.11372585700260213
880000000.0 0.17062617229292432 0.23494355572446082
900000000.0 0.24195824265576146 -0.1324176264981368
920000000.0 -0.13476226438668235 -0.21799408060458794
940000000.0 0.2089820923533963 -0.0701189876346137
960000000.0 0.11992662275152081 0.12403443067736285
980000000.0 -0.020440039401580637 0.13410145156347505
1000000000.0 0.12485551913143017 0.036153825889950975
1020000000.0 -0.08570716365523849 0.07077521044674379
1040000000.0 -0.01257136632839444 0.12922812272635514
1060000000.0 -0.12380867887299817 -0.09726092280289517
1080000000.0 0.03705401394888187 0.20185932292151945
1100000000.0 -0.2431994675045497 -0.05954230602698463
1120000000.0 -0.2622288604038085 -0.0933054638281585
1140000000.0 -0.3082624407125976 0.0028404315202607807
1160000000.0 0.1469698743630202 0.29987607236749225
1180000000.0 0.11075071621233604 0.32285874276014814
1200000000.0 -0.3473670701470559 0.0680668749960305
1220000000.0 0.3334422896477507 -0.14786933134396701
1240000000.0 0.3780214292410937 -0.04678564924557496
1260000000.0 -0.08428627741204575 -0.3864222630278864
1280000000.0 -0.2740677675015194 0.25750582507550646
1300000000.0 0.1399599072444017 -0.33599319666332944
1320000000.0 0.26668596152116547 -0.26879682935378374
1340000000.0 -0.3220871672132437 0.1811937875537712
1360000000.0 0.2491415406180526 0.29109894029467226
1380000000.0 -0.20643467413395827 0.3328096961620135
1400000000.0 0.048194767339302474 -0.3830444786583669
1420000000.0 0.24123494599542347 -0.2976544893747922
1440000000.0 -0.036954644532454034 -0.3854017042754227
1460000000.0 -0.28313179394252025 -0.2662941996902343
1480000000.0 -0.23824978024316776 -0.3074573043649085
1500000000.0 -0.3658316847287919 0.13754634647824673
1520000000.0 0.07365207115187891 -0.3789539342774626
1540000000.0 0.13234656280274326 0.3384512664014374
1560000000.0 -0.24942181002930244 -0.2144959346271473
1580000000.0 0.25297855855953316 0.14748541597046547
1600000000.0 0.25834929864882894 -0.059103781802888715
1620000000.0 0.0867868274622243 0.1941452975737647
1640000000.0 0.034386991881833764 0.18531687960804855
1660000000.0 0.1103488458992956 -0.11572930450598663
1680000000.0 -0.10712769505835712 -0.055263973381176425
1700000000.0 0.08033961503190085 0.08795512302129957
1720000000.0 -0.011496377342347718 -0.09430412506562871
1740000000.0 -0.052827168453627484 -0.06237434178137449
1760000000.0 -0.09001539728737498 -0.015047655606515442
1780000000.0 -0.06804434639810428 0.08626316539295947
1800000000.0 0.11916212204691544 0.04525459479936067
1820000000.0 0.06563022866244554 0.14450985185219345
1840000000.0 -0.016244208380340228 -0.1928296865029705
1860000000.0 0.0787409968633019 0.2026183919069585
1880000000.0 0.23235929682765755 0.09624423469218756
1900000000.0 0.26449368384481786 -0.06994880996129318
1920000000.0 0.0005793948047619151 -0.29271822814628395
1940000000.0 -0.302735807869303 0.04229069876722543
1960000000.0 0.1702112905654068 -0.25951719768928766
1980000000.0 -0.28738278752230284 0.12073154034064494
2000000000.0 0.17743476496813496 -0.26637052707079245
2020000000.0 0.3023974642966954 -0.11824252547852553
2040000000.0 0.3239456036416645 -0.01876790860972398
2060000000.0 0.2703617342305828 0.1735654668794045
2080000000.0 0.013474147798657781 0.3241911719406304
2100000000.0 -0.07765592939536874 -0.31424051277123743
2120000000.0 0.24753458513187487 0.1997289953815902
2140000000.0 -0.27457822317959724 -0.16511694620394962
2160000000.0 0.20511317076403968 0.24382971088661184
2180000000.0 0.22923207760540393 -0.20727298254792254
2200000000.0 0.21701424019264048 -0.21504363103340163
2220000000.0 0.024945942046754106 -0.29605842633302276
2240000000.0 0.2906969566085124 -0.012188504216330857
2260000000.0 0.047948763133539636 0.27262950429062804
2280000000.0 -0.10432842807093304 0.24812950363276612
2300000000.0 -0.030835364761072955 -0.24591002370305665
2320000000.0 -0.23268242057385746 0.08022079418279723
2340000000.0 0.04719205722538919 -0.24032845149823065
2360000000.0 0.1297102499041016 0.20719732379199993
2380000000.0 -0.15048710290712491 -0.20468007254152462
2400000000.0 -0.26173946168192425 -0.1037758994411242
2420000000.0 0.27401018884295053 0.12978420466091348
2440000000.0 -0.22679109289509972 -0.23580838068735108
2460000000.0 0.1485272885699858 0.3223159021730014
2480000000.0 0.1852225456291745 -0.34460249695394984
2500000000.0 0.2627764318482898 0.3361301474214109
2520000000.0 -0.4150923840410765 0.20333909857061874
2540000000.0 0.20599381526033067 -0.449786780690635
2560000000.0 0.11756619350610018 0.5120952781436405
2580000000.0 -0.22489373219791856 -0.5047437014304593
2600000000.0 0.2859323009331612 0.4998415866053137
2620000000.0 -0.41273646452869406 -0.42851798854538364
2640000000.0 0.49671379060476145 0.35562996829571747
2660000000.0 -0.6242653110580644 0.0476822607781248
2680000000.0 0.08748750060940777 -0.6278965142110906
2700000000.0 0.6314532672199574 -0.12026282031159309
2720000000.0 0.6185685568651984 0.1901725842292377
2740000000.0 0.5999595264456771 0.24623143113304644
2760000000.0 0.5763750156851399 0.2994376540477976
2780000000.0 -0.4947822189202282 0.4109890793361713
2800000000.0 -0.6195682325538224 0.13561580155598663
2820000000.0 -0.4166152213372458 -0.462225321501415
2840000000.0 0.565809097169939 -0.22589103836120192
2860000000.0 -0.3924631385079922 0.4455459218318566
2880000000.0 0.546716165749916 -0.17397825786127746
2900000000.0 -0.26277382266487176 -0.48546748620655106
2920000000.0 -0.5171505087326965 0.10527358475808911
2940000000.0 -0.34894762596277057 0.35707756192555046
2960000000.0 -0.3333660714496979 0.337812275590239
2980000000.0 -0.30131698736773427 0.3313999764678575
3000000000.0 -0.14040949625869867 0.4032207293086493
3020000000.0 -0.005034156435314755 0.40383320095506126
3040000000.0 0.2623856055878697 0.2803989419268049
3060000000.0 0.2300135591752423 -0.29037180481919084
3080000000.0 -0.3465950585962633 -0.08378401258411092
3100000000.0 0.2024911682277578 0.2803615484971887
3120000000.0 0.27921090149323546 -0.2005179389284221
3140000000.0 -0.28920036858294884 0.17977890999798515
3160000000.0 0.3410175327512584 -0.029543440715273872
3180000000.0 -0.3345106728646308 0.08054665473847258
3200000000.0 0.037575740940001746 0.34038319381953885
3220000000.0 0.2341384749149855 -0.24613437457293938
3240000000.0 0.06123258796110129 -0.32884697850375577
3260000000.0 -0.200811398738566 -0.25818949852916473
3280000000.0 -0.31569196391922194 -0.028168796228296676
3300000000.0 -0.2208423133065161 0.20372024862446403
3320000000.0 -0.06629570692311708 0.2648467205070674
3340000000.0 -0.2477023819310568 0.018172015129304706
3360000000.0 -0.19409001611980975 0.10421897766558284
3380000000.0 -0.002540111296543705 -0.19395444660954714
3400000000.0 -0.039900697436994176 -0.1644346322228403
3420000000.0 -0.016601702661105753 -0.1400875689029896
3440000000.0 0.044444198793221944 -0.10933647933247993
3460000000.0 0.09150495831582145 -0.026409487373343508
3480000000.0 -0.0769821693397914 0.008976165637312601
3500000000.0 -0.06261457523697037 0.03713070009855692
3520000000.0 -0.06800479498170121 -0.019640258054485375
3540000000.0 0.013448825555330474 0.07812015872589062
3560000000.0 -0.03627709441396228 0.07736528860968885
3580000000.0 0.09403658713111987 0.019566108218887344
3600000000.0 0.017518643586214345 -0.10356395388379379
3620000000.0 0.11738738592263481 0.02391748107525109
3640000000.0 0.045006060203083315 -0.12810546615604215
3660000000.0 -0.08943498403800357 -0.11742720684675104
3680000000.0 0.018783110784478134 0.15089120524427171
3700000000.0 0.046385591200906046 0.13746564655455684
3720000000.0 0.12106451664034502 0.04412227228326249
3740000000.0 0.09698109098670073 0.0354415134851861
3760000000.0 -0.00874573566326715 -0.07863646839073682
3780000000.0 0.05756370921643377 0.011316446566451713
3800000000.0 0.006555181509475255 -0.026037733309973023
3820000000.0 -0.011590704988251824 0.00469009933549379
3840000000.0 -0.04645394514049485 0.012341625767306076
3860000000.0 0.00785192113631551 0.07904097276691308
3880000000.0 -0.0012723529225222813 -0.10625965971599693
3900000000.0 0.10591535560469932 0.07340247817350597
3920000000.0 -0.09418145250763113 -0.10962282084097393
3940000000.0 -0.10163497995129386 0.11368600992165667
3960000000.0 0.1254124586860012 -0.09254576191385573
3980000000.0 0.006374927244304364 0.14517192218327835
4000000000.0 -0.021306282825496414 -0.12126700000776201
