!Created with skrf (http://scikit-rf.org).
# Hz S RI R 50.0 
!freq ReS11 ImS11
400000000.0 0.8550448654671973 -0.20101151962819486
420000000.0 0.7847710634707293 -0.2749568710635179
440000000.0 0.4736577105953396 -0.6106433665738217
460000000.0 0.24127534295289058 0.6521165850332291
480000000.0 0.3765705604319111 -0.45496030252267233
500000000.0 0.5546968356050321 0.29060384832052727
520000000.0 0.44990702986083314 -0.4537913346512038
540000000.0 0.12362164009329747 -0.5929845147335739
560000000.0 0.5625992512430933 0.26215141596726077
580000000.0 0.5258809330638363 0.009213594491652334
600000000.0 -0.06144897166514042 0.5937549162687319
620000000.0 -0.36829604823373335 -0.4749699087504813
640000000.0 -0.19101799187846902 -0.524639158098775
660000000.0 -0.31243208295094177 0.4173896172979173
680000000.0 0.14365723004182224 -0.4601173813527573
700000000.0 0.4250984165421363 0.2524482481637407
720000000.0 0.4935960830888026 0.0660353876984424
740000000.0 0.3386336574775532 0.3263060689078014
760000000.0 -0.019564969262985545 0.45686265034854917
780000000.0 -0.3996718192061622 -0.20214250735715153
800000000.0 0.007943482810058067 -0.4117061846521132
820000000.0 0.3632952822524789 -4.050423229237809e-05
840000000.0 -0.32967910408084705 -0.011306929319753776
860000000.0 0.3011819314496261 -0.07039355106954756
880000000.0 0.17097090867224607 0.22640391278285849
900000000.0 0.07784531458320688 0.2635695329668415
920000000.0 -0.08722027193146942 -0.2417122938001424
940000000.0 0.07109849134340208 -0.20495843280799753
960000000.0 0.10113008667001384 0.13264067806320465
980000000.0 0.022245698720155947 0.13996295125988378
1000000000.0 -0.13071384912477915 0.021524045439005508
1020000000.0 0.006153725789305233 0.10774128365199885
1040000000.0 -0.12261346240172608 -0.03539261683632146
1060000000.0 0.14687430250602684 -0.05668227876667731
1080000000.0 -0.016870179733666803 0.20500310473001718
1100000000.0 -0.24460973017735058 -0.038353601102360094
1120000000.0 -0.17577354228734002 -0.2150449228387819
1140000000.0 -0.2609855593167138 0.167231126249214
1160000000.0 0.3282082476252021 0.036141108772696676
1180000000.0 0.040952486431098896 0.33542408822633946
1200000000.0 -0.3387633292071673 -0.10970915669083466
1220000000.0 0.3084598826423709 -0.20098425716111631
1240000000.0 0.27129082426057927 -0.2683401348023585
1260000000.0 -0.14440345304938712 -0.36601482131861607
1280000000.0 -0.37686107734084867 -0.010217570073616088
1300000000.0 0.05548744048751662 -0.36256961917188396
1320000000.0 0.2724939480135169 -0.26071804921331726
1340000000.0 -0.342566928828267 0.13403739576710824
1360000000.0 0.22610646295133155 0.30982428665207884
1380000000.0 -0.17965951852096151 0.3477034957660208
1400000000.0 -0.00012879266351507917 -0.38380857641534055
1420000000.0 0.27027776398985975 -0.27110896047524335
1440000000.0 0.0005772253952213843 -0.3858484303519654
1460000000.0 -0.2986603117284447 -0.25072177346508967
1480000000.0 -0.19641446352159184 -0.34070081015549475
1500000000.0 -0.30849337004059435 0.2376421402698082
1520000000.0 0.15900876040932715 -0.3520601643534707
1540000000.0 0.06538147794370269 0.3584200218513175
1560000000.0 -0.28680643326487426 -0.16062783381824122
1580000000.0 0.27326373852246755 0.11010115094413855
1600000000.0 0.2639883493265078 0.017509379136790668
1620000000.0 0.11358294496840513 0.17773500073056636
1640000000.0 -0.046110576300636544 0.18083379423103
1660000000.0 0.11083742324008057 -0.11756245475538706
1680000000.0 -0.11909529639831774 0.0020283874831331073
1700000000.0 0.10510125739767728 0.05265528110865645
1720000000.0 0.09335583187966247 -0.006167182818929882
1740000000.0 -0.08031423813745966 -0.020151416856895536
1760000000.0 -0.08906027809222142 0.01632727774937831
1780000000.0 -0.09488417246836467 0.054048855387500615
1800000000.0 0.11422400036137142 0.05899989578798904
1820000000.0 0.11914265792158579 0.10467881938987239
1840000000.0 0.05543382002728674 -0.18526394645683658
1860000000.0 0.07286783057510995 0.20569998745712822
1880000000.0 0.24316454677454952 0.06266645572820422
1900000000.0 0.2720550708418894 0.030041147104960243
1920000000.0 -0.022503084390240926 -0.2910768410905092
1940000000.0 -0.2999564693795306 0.060907181559985694
1960000000.0 0.2034946419636082 -0.23256127954036876
1980000000.0 -0.31040093437274935 0.04229129397071807
2000000000.0 0.017908351793538207 -0.3185826755496824
2020000000.0 0.3086111625408474 -0.09890544656942918
2040000000.0 0.31040266988378795 0.09147024009885822
2060000000.0 0.26123458096018665 0.18757544946822488
2080000000.0 0.10188819867352343 0.3094020050736084
2100000000.0 -0.06738362231398132 -0.3162644497169767
2120000000.0 0.2859016002026092 0.14067848058970744
2140000000.0 -0.28260665848276556 -0.14946869782300243
2160000000.0 0.16760492450380762 0.27057919794811985
2180000000.0 0.2749118851407179 -0.1425880837410914
2200000000.0 0.1949562577781171 -0.23648251252901667
2220000000.0 -0.031614027986021385 -0.29631003530831845
2240000000.0 0.28924853752511387 0.004970737490141689
2260000000.0 0.006357292243930848 0.27477215799752996
2280000000.0 -0.23068944733218444 0.1375748238731014
2300000000.0 -0.033270255370312946 -0.24913133588581912
2320000000.0 -0.09913373599253258 0.2236231152294067
2340000000.0 -0.0399392261149557 -0.23930112966613187
2360000000.0 -0.04615790036638367 0.23887659778443157
2380000000.0 -0.05695368344620059 -0.2507115787427886
2400000000.0 -0.26379464806752906 0.09968221149515687
2420000000.0 0.2980389841023595 0.04350418775654677
2440000000.0 -0.2335290757225695 -0.22738546743765228
2460000000.0 0.13856495961812537 0.3283725240033585
2480000000.0 0.18800617181402757 -0.34367230308720265
2500000000.0 0.2745140704013835 0.3274878678208301
2520000000.0 -0.43683917765462543 0.15242345099143872
2540000000.0 0.16484992457324688 -0.46705162068640727
2560000000.0 0.08581045368365647 0.5186522808806082
2580000000.0 -0.19286409119631895 -0.5173168301388656
2600000000.0 0.3170496673252325 0.4809196042162804
2620000000.0 -0.34119701417772275 -0.48741659963828954
2640000000.0 0.488595025064524 0.36640899418009465
2660000000.0 -0.6228868676382388 0.06149072447993334
2680000000.0 0.061744315855916145 -0.6303612013092367
2700000000.0 0.6147738773998396 -0.18825700044620156
2720000000.0 0.6371915341512955 0.11210929726354271
2740000000.0 0.6051515058783498 0.2330842430634669
2760000000.0 0.5720916943348828 0.30698354067187034
2780000000.0 -0.4581440514763266 0.4520574190551795
2800000000.0 -0.6141545906893628 0.1602354127857134
2820000000.0 -0.43800298833364637 -0.44338239079565067
2840000000.0 0.53546745582274 -0.29071667236421267
2860000000.0 -0.42554334986848 0.4143320212841465
2880000000.0 0.541610901133356 -0.18886445218255393
2900000000.0 -0.25435545475247867 -0.4899014847260544
2920000000.0 -0.522504209198141 0.07572216871550976
2940000000.0 -0.2907640685306795 0.405777467485167
2960000000.0 -0.32638287028021273 0.34304059245107693
2980000000.0 -0.29268145352324837 0.3378002564342409
3000000000.0 -0.22444665939429934 0.36260121095274894
3020000000.0 0.08010148329468371 0.3966385376172586
3040000000.0 0.28419628779150463 0.25757216745892786
3060000000.0 0.22474127589526677 -0.29203505643007766
3080000000.0 -0.32727116134886924 -0.1442219118446575
3100000000.0 0.25299433452840747 0.24027360516145765
3120000000.0 0.2510872680705278 -0.23389155830526862
3140000000.0 -0.3095185306706647 0.1469487490434426
3160000000.0 0.340353572033464 -0.04019702375578717
3180000000.0 -0.3408385396310406 0.047298648937506814
3200000000.0 0.011656939682863575 0.34312520134857394
3220000000.0 0.22976343829654625 -0.2513840918786879
3240000000.0 0.07777071465744881 -0.3245446231873354
3260000000.0 -0.18208192682033747 -0.27131767734966356
3280000000.0 -0.3162449691426285 0.008726642262878127
3300000000.0 -0.15797579342683066 0.2550986373689948
3320000000.0 -0.012663238600049831 0.27186573222125204
3340000000.0 -0.2472698052841591 0.0252313635869059
3360000000.0 -0.19071189430989702 0.1143656553236352
3380000000.0 -0.09109350136365776 -0.1698903752085609
3400000000.0 -0.017052752364222375 -0.1663993692967636
3420000000.0 -0.035535030646807755 -0.13795724889711503
3440000000.0 -0.046243814110360604 -0.11009067596081934
3460000000.0 0.06004615449084319 -0.07332930824603213
3480000000.0 -0.07840245690803842 0.00012919886356734016
3500000000.0 -0.046853496504115945 -0.056161526255231756
3520000000.0 -0.06947361241534494 -0.01780398440649523
3540000000.0 0.03922465787594326 0.06878678976776659
3560000000.0 -0.06725190506770211 0.05329247295859013
3580000000.0 0.04644431823210263 0.08440999685679196
3600000000.0 0.0934664764146488 -0.04617570442065898
3620000000.0 0.09785898102272586 0.07020590796124503
3640000000.0 0.06658846815909404 -0.1155042664399621
3660000000.0 -0.10670844517033834 -0.10054323017982227
3680000000.0 0.09039267772053197 0.12119894007058073
3700000000.0 0.06172311987015286 0.13039235968633414
3720000000.0 0.1233542937031352 -0.03459293067318206
3740000000.0 0.07733317081517321 -0.0673241466439738
3760000000.0 -0.05715380276516673 -0.05712732565483211
3780000000.0 0.05971621234637665 0.0004781859437576149
3800000000.0 -0.006699851770300146 0.028437693357980545
3820000000.0 -0.004733154573372479 0.010989007974382375
3840000000.0 -0.03024121526861314 -0.0364390409186469
3860000000.0 -0.03633516671192722 0.06865879760106727
3880000000.0 0.0159735631928573 -0.10436278996066523
3900000000.0 0.12557225964827148 0.026582195300686
3920000000.0 -0.11751240192553211 -0.08196962929489775
3940000000.0 -0.05319438719907061 0.14368187952804012
3960000000.0 0.1388574032130802 -0.0753295079382459
3980000000.0 0.1361346721194298 0.05810836675141203
4000000000.0 -0.03343523328198386 -0.11992991975254329
