!Created with skrf (http://scikit-rf.org).
# Hz S RI R 50.0 
!freq ReS11 ImS11
400000000.0 0.8442851118630706 -0.24157869682886993
420000000.0 0.7683663542490953 -0.3173167242383561
440000000.0 0.4396174857126641 -0.6343462502695524
460000000.0 0.19688376236096766 0.6672643949670014
480000000.0 0.30590520577048 -0.5057806642049595
500000000.0 0.3806151688824994 0.4965708479240931
520000000.0 0.3296576976466605 -0.5494724910152798
540000000.0 0.15919631952522756 -0.5830120259801996
560000000.0 0.6206668752639434 0.004927966677867566
580000000.0 0.495601013252038 0.16575166150565723
600000000.0 -0.24784295469406478 0.5441479718738846
620000000.0 -0.378293212820787 -0.472310177045114
640000000.0 -0.2827246982443477 -0.4841443319265204
660000000.0 -0.1339942877196646 0.5026087385359721
680000000.0 0.2649852375812423 -0.39984484437574136
700000000.0 0.464326556025676 0.16491746629568355
720000000.0 0.4927060548576643 0.04422717949007607
740000000.0 -0.06433258553300597 0.4712998193564913
760000000.0 -0.002846435339571626 0.46205475317229094
780000000.0 -0.3751755039188634 0.24642001467558003
800000000.0 -0.05714345441450655 -0.39654402041894365
820000000.0 0.1422171689852325 0.33459850031931393
840000000.0 -0.33429275132643854 0.03114743867673753
860000000.0 0.18993477734981432 -0.2467361149267337
880000000.0 0.18583874053129393 0.2091987618716554
900000000.0 0.034302258405322486 0.2744244181624774
920000000.0 -0.05857093246959546 -0.2523276460462808
940000000.0 -0.1483498351923504 -0.1648359414057724
960000000.0 0.11263075617774118 -0.1193013359328311
980000000.0 -0.056695525308768646 -0.1250640827771875
1000000000.0 0.10212252794046364 -0.08976229205847255
1020000000.0 0.11309903205270576 -0.013966773646364934
1040000000.0 0.04442897778388939 0.1225065974694453
1060000000.0 -0.06875774974635059 -0.1380667918257166
1080000000.0 -0.17699451963080978 0.09791516200998054
1100000000.0 -0.23475064670313966 -0.07865954644103093
1120000000.0 -0.17551078351576035 -0.21853967131622246
1140000000.0 -0.11631936581103361 0.28522744689727797
1160000000.0 0.25594971346371714 0.2097568402554546
1180000000.0 0.07141256377103959 0.3300985707863576
1200000000.0 -0.3560679662876747 -0.00977604084879728
1220000000.0 0.20892316593604002 -0.3030737081496217
1240000000.0 0.3708096618992299 -0.07792119435054679
1260000000.0 -0.12138739691105752 -0.37558684389448743
1280000000.0 -0.3513428679496279 0.14286807461938006
1300000000.0 0.1619144351390802 -0.3275571646256988
1320000000.0 0.29594558258239545 -0.23659441660171515
1340000000.0 -0.34495251358567325 0.126651614539274
1360000000.0 0.24791423644864247 0.29196204971863243
1380000000.0 -0.16867040416450962 0.35355489661618483
1400000000.0 -0.09002797686718983 -0.37311116840848724
1420000000.0 0.27227274760159276 -0.26987268181281465
1440000000.0 -0.09549834236584911 -0.374316756832259
1460000000.0 -0.2855697616201505 -0.2607472201873579
1480000000.0 -0.1241101456919379 -0.37407019655586576
1500000000.0 -0.2968970603999404 0.2550709386513204
1520000000.0 0.14758226359529708 -0.3577991101040227
1540000000.0 0.06125666389094869 0.3571118122976386
1560000000.0 -0.21223014643310198 -0.252601988863403
1580000000.0 0.29314544507105617 -0.004273661740830151
1600000000.0 0.2614516570727912 0.025122528607179135
1620000000.0 0.13920083629608537 0.1610369133701673
1640000000.0 0.03976564390862037 0.1816478525583381
1660000000.0 0.12000524571445775 -0.10602562745237065
1680000000.0 -0.11325570005060852 -0.0446001041450997
1700000000.0 0.10888663781375553 -0.04310475921833128
1720000000.0 0.04807863420938578 -0.07952096103586519
1740000000.0 -0.016289867754058378 -0.08165377776954094
1760000000.0 0.008573784703727237 0.09071973161675462
1780000000.0 -0.09617243101510115 0.0520197176902605
1800000000.0 0.07079915877347062 0.10861223965612674
1820000000.0 0.15340535653399423 0.03534012817823241
1840000000.0 0.10432920512534513 -0.1618180781494238
1860000000.0 0.07277527203161731 0.20582733463819425
1880000000.0 0.242667441780961 0.0698519630267276
1900000000.0 0.26048426909751005 -0.07549433583780377
1920000000.0 0.07850876277493836 -0.28150982120090673
1940000000.0 -0.3016936840900637 0.0561160787248143
1960000000.0 0.12267930061727961 -0.2846262757397649
1980000000.0 -0.31097409858894665 -0.012714397211448942
2000000000.0 0.1648133168442775 -0.27499901518500486
2020000000.0 0.2753059814704889 -0.1737863121853434
2040000000.0 0.32038528059253185 -0.036816041767567136
2060000000.0 0.26313759916975776 0.18365349565249248
2080000000.0 0.02723025810221199 0.3257807734365689
2100000000.0 -0.08075443043616388 -0.3133579907798576
2120000000.0 0.27714439405087904 0.1583462518768858
2140000000.0 -0.3075142857613947 -0.0870843734842857
2160000000.0 0.14881411835215808 0.28143945876961546
2180000000.0 0.16341740329689683 -0.2647897481071468
2200000000.0 0.14757040761644946 -0.2657577871255088
2220000000.0 0.10855838278641439 -0.27760232402052587
2240000000.0 0.2784132395056135 -0.08819006047254245
2260000000.0 0.1034121086341843 0.2570477561129936
2280000000.0 -0.13988601700572978 0.22796528679269593
2300000000.0 0.08808403210689045 -0.23240928743638525
2320000000.0 -0.20264939213653177 0.1414923617326905
2340000000.0 -0.07261179568015046 -0.23227696859391722
2360000000.0 0.07410716503837922 0.22964858570021562
2380000000.0 -0.03739807576176293 -0.25257586281162003
2400000000.0 -0.2775966499929718 0.05304206325928713
2420000000.0 0.28049502626799205 0.11278622727020775
2440000000.0 -0.21545800670250065 -0.2444213044997028
2460000000.0 0.19066719121007336 0.29965865976944495
2480000000.0 0.16682212169907243 -0.3543116608661826
2500000000.0 0.3867711121517533 0.1821020803130949
2520000000.0 -0.4147891569189499 0.2067489690081559
2540000000.0 0.14886504807633605 -0.47310489472669215
2560000000.0 0.12813616174338457 0.5103252748341099
2580000000.0 -0.1872881966707595 -0.5202410166719406
2600000000.0 0.33434667088326514 0.46866817237618213
2620000000.0 -0.36391278558437873 -0.47131612988308363
2640000000.0 0.4924756034477734 0.3607798554327588
2660000000.0 -0.6206724441201761 0.06755272571690879
2680000000.0 0.02490797864807473 -0.632219718930829
2700000000.0 0.6036498743018941 -0.2176901455401033
2720000000.0 0.6451278358219563 0.04898684640814993
2740000000.0 0.6367950116037929 0.1231789647548614
2760000000.0 0.6226798608608899 0.1850649214445865
2780000000.0 -0.433421355308629 0.4764257800469095
2800000000.0 -0.6057813633936991 0.1913097895158642
2820000000.0 -0.4463273429422356 -0.43537740813683223
2840000000.0 0.5231356166072451 -0.31514970516096263
2860000000.0 -0.3788158510301533 0.45813777267717626
2880000000.0 0.5409156950454181 -0.19096269312069358
2900000000.0 -0.21151767265263346 -0.5099311673801258
2920000000.0 -0.5221349389937769 0.0831090404130649
2940000000.0 -0.31178885741126156 0.38860563655500846
2960000000.0 -0.3478753741389485 0.32014366262472016
2980000000.0 -0.2964290136115159 0.33463881702440756
3000000000.0 -0.14360756336360317 0.3992963049413021
3020000000.0 0.14169380684212435 0.37637810598427235
3040000000.0 0.2994517336728084 0.23744669099295415
3060000000.0 0.21494676743126614 -0.2994764002337111
3080000000.0 -0.35256443878134597 -0.05115051148013738
3100000000.0 0.2912834406193027 0.1894278765946312
3120000000.0 0.19170260870021605 -0.2853468097742641
3140000000.0 -0.26179566763949474 0.22051483849596684
3160000000.0 0.32520204153923093 -0.11032155444642788
3180000000.0 -0.3447177406582664 0.0070812484560589485
3200000000.0 0.10525525639574813 0.32856386961566403
3220000000.0 0.2765943732930688 -0.1971038558936989
3240000000.0 0.13873152766558802 -0.30575740417771197
3260000000.0 -0.13787844779003447 -0.2969806699401971
3280000000.0 -0.3013577351120789 -0.09706594041747985
3300000000.0 -0.23529916991760028 0.18608038520815548
3320000000.0 -0.06815375027802181 0.26241155442825487
3340000000.0 -0.24440573089820536 0.045776820754064244
3360000000.0 -0.22000457863500889 0.02731197411906748
3380000000.0 -0.07999675638925827 -0.17567121106134465
3400000000.0 -0.07112394483161016 -0.15183172321208513
3420000000.0 -0.047046507517114346 -0.1337809215618272
3440000000.0 -0.030769052259200232 -0.11574441984921681
3460000000.0 0.08763583370400502 -0.03687247527821974
3480000000.0 -0.04940485552270823 0.06180787529089731
3500000000.0 -0.07290701235782063 -0.007436690997354241
3520000000.0 -0.034891623814986665 -0.06281624507534612
3540000000.0 0.03669433537934919 0.06991818161801606
3560000000.0 -0.040997366676937645 0.07440043307180898
3580000000.0 0.08557910857932542 0.044496775228913925
3600000000.0 0.019456335420645933 -0.10284509726553472
3620000000.0 0.07943688702824732 0.09156049340880013
3640000000.0 0.03686076415065127 -0.12934929175293958
3660000000.0 -0.06571382616610777 -0.13165890740230135
3680000000.0 0.05148868608039305 0.14243469715041987
3700000000.0 0.0956805807545334 0.10794070938930281
3720000000.0 0.11987551865695224 0.04768548743953504
3740000000.0 0.10221511597275246 0.001983558136162538
3760000000.0 -0.018042683854935605 -0.07850310915874925
3780000000.0 0.049982984614073196 -0.031627522185144405
3800000000.0 -0.02429365361594205 -0.01257274681154725
3820000000.0 -0.0005106421037460035 0.01075160608040147
3840000000.0 -0.038831004081213885 -0.028355667612255473
3860000000.0 -0.02406924952672226 0.07552039464305327
3880000000.0 -0.0663700871720165 -0.0825489855905152
3900000000.0 0.10282421294775988 0.07613288190285632
3920000000.0 -0.0681830419776815 -0.12647397025833898
3940000000.0 -0.023112904050683305 0.14979818813102302
3960000000.0 0.0626650642614175 -0.1430781448787482
3980000000.0 0.1427038283889499 0.03656920666680589
4000000000.0 -0.12499161404977348 0.012601489606454358
