!Created with skrf (http://scikit-rf.org).
# Hz S RI R 50.0 
!freq ReS11 ImS11
400000000.0 0.5317663747721997 0.4669891139893007
406500000.0 -0.4561438030233987 0.5086302006636306
413000000.0 0.09098379539321573 -0.651702036358532
419500000.0 -0.3995270298399478 -0.5121142259281808
426000000.0 0.44888596647807344 0.4569966908061241
432500000.0 -0.418162275299183 -0.4811597586905233
439000000.0 0.6230943331726616 0.15087151498309925
445500000.0 -0.6135752645694742 0.19563625428844636
452000000.0 -0.5057482895361239 -0.38926077147434435
458500000.0 0.548904145446898 -0.31446427002765215
465000000.0 0.46073950724931834 0.428915095878919
471500000.0 0.255209535522077 0.5749079218537765
478000000.0 -0.17456563036759815 0.5912299230716228
484500000.0 -0.29076429402103404 0.5333729161075754
491000000.0 -0.2251510338404608 0.5409783399086757
497500000.0 -0.17657254100819583 0.539717091680572
504000000.0 0.3743987667736342 0.39152433623808613
510500000.0 0.46601916038185937 -0.19755623212266382
517000000.0 0.3421745712887366 -0.3195771047953276
523500000.0 0.4272517325991817 -0.07483484721755226
530000000.0 0.05494019310238832 0.40776394019678613
536500000.0 0.2502494799056686 0.29653351234913117
543000000.0 0.2521537063921105 -0.2838275828649094
549500000.0 0.03910223919216754 -0.36735012780400583
556000000.0 0.2621025296646866 0.22716621236254472
562500000.0 0.25145245288947365 -0.2112789756419474
569000000.0 -0.3049771129582211 -0.06621653487427777
575500000.0 -0.2460332450877599 0.15298601413109056
582000000.0 -0.23853222797474014 0.13981627402219793
588500000.0 -0.09737025837841733 -0.2578283160991132
595000000.0 -0.26149859253730456 -0.0891393106726877
601500000.0 0.026616312558242084 0.2742762852710678
608000000.0 -0.281774882402195 -0.03276203079958548
614500000.0 -0.29246528857192583 -0.030242312718922533
621000000.0 -0.03964332760979181 -0.28741142755203813
627500000.0 0.26214334863204014 -0.14128037599714083
634000000.0 0.22748959882994815 0.19073206471115914
640500000.0 -0.29301694335071327 0.05359826273268043
647000000.0 -0.19888792701790525 -0.2228531698488225
653500000.0 0.05047081932330906 -0.2921711901467657
660000000.0 0.28404721056563925 -0.045063462510960196
666500000.0 0.11196252734244942 0.26516877815683604
673000000.0 -0.2508348973757569 0.11513650963379939
679500000.0 -0.10537634615620602 0.25716971104188135
686000000.0 -0.25431861206993917 0.09772709496034068
692500000.0 0.20787842162195475 0.15979705193641774
699000000.0 -0.03404863234588194 -0.25700398205630015
705500000.0 -0.25755513677444325 0.010858365874024856
712000000.0 0.11324524443326141 0.24069137169730287
718500000.0 0.1210488350526719 -0.2461752720649634
725000000.0 -0.28264052754703145 -0.004831794518952938
731500000.0 0.2836759321556906 0.10940595179247886
738000000.0 -0.17065326244468235 0.2606345681430297
744500000.0 -0.08776562913255365 -0.30415294080039534
751000000.0 0.31323135202137764 0.06440914684208088
757500000.0 -0.30647859559188534 -0.10576755592077018
764000000.0 0.0762283347726744 0.3207692831477021
770500000.0 -0.17096665084065263 -0.28941176149727443
777000000.0 0.03712122449927255 0.33934285497747424
783500000.0 0.1567923176066439 -0.30172500650221035
790000000.0 -0.08670994682374042 0.33654033660714505
796500000.0 0.30464472721183383 -0.1508723753149312
803000000.0 -0.3186589574916087 -0.13584671573304632
809500000.0 0.03426821216001923 0.34332101072635923
816000000.0 0.3453939295458057 -0.027189214475717597
822500000.0 -0.15594628423035695 -0.3138162565867849
829000000.0 -0.23039459084067154 -0.2703224628675954
835500000.0 -0.32605658431981605 0.16735940069162875
842000000.0 0.3392414169978698 0.1586717423156703
848500000.0 0.21281602998331556 -0.3223843568805637
855000000.0 -0.38260934775206656 0.0853578020741466
861500000.0 0.2783715491306011 0.2932256246989495
868000000.0 -0.34189611908136447 -0.22494691579579887
874500000.0 -0.1075843786697254 0.4062711914369125
881000000.0 -0.1299368651890136 -0.40328289313936
887500000.0 0.27367689086266006 0.32791313798306704
894000000.0 -0.3918470253318825 -0.1885208346045742
900500000.0 0.17824842428078638 -0.392826586231993
907000000.0 0.1365232703655929 0.40225289430388783
913500000.0 -0.2861829349204513 0.2990331559620902
920000000.0 -0.07607794270640886 -0.3897768496432896
926500000.0 0.38007380369106025 0.06642033235304454
933000000.0 -0.14709674464843586 0.34549361544516466
939500000.0 -0.35549416707838477 -0.07210600150596336
946000000.0 -0.11481737947791978 -0.3337644881532956
952500000.0 0.09049525680066636 -0.3265450716577454
959000000.0 -0.08056428156941345 -0.3167500597395211
965500000.0 -0.2319322836280929 -0.20428290975911423
972000000.0 0.2416960781902346 -0.16949613326156623
978500000.0 0.2527159613106111 -0.11268328727844334
985000000.0 0.2431353601392833 0.09287484840867283
991500000.0 0.05665791500662887 0.23386664617231623
998000000.0 -0.2024823826098008 -0.09081044776740439
1004500000.0 0.20256066975201298 0.044557548541587194
1011000000.0 0.1914613004706166 0.03887572338326579
1017500000.0 -0.05532087051512082 -0.18869847765394865
1024000000.0 0.19089037675668277 0.020306134394628774
1030500000.0 0.03407449256230849 0.1859581721613003
1037000000.0 0.038342266328556134 0.17855357924396933
1043500000.0 0.16570158153121325 -0.04162317722403536
1050000000.0 -0.14946988372044817 -0.04966807782745183
1056500000.0 -0.13041873712654972 0.04782171878121995
1063000000.0 0.08399770102162427 0.0931937008614094
1069500000.0 -0.10811699118970959 0.022048258437605668
1076000000.0 -0.10273473233271717 -0.017558268067759678
1082500000.0 -0.09600128598677041 0.032303070942985346
1089000000.0 0.09756783664610494 -0.03390113379912492
1095500000.0 -0.08642276300843013 0.06388582216292982
1102000000.0 0.11263186673440025 -0.006778600060304664
1108500000.0 -0.09494886285856677 -0.08188378119710074
1115000000.0 -0.13308885418649777 0.012318936374563591
1121500000.0 -0.1219985900834855 -0.07635826482841
1128000000.0 -0.027322688908035877 -0.15207927729325094
1134500000.0 0.06842778079383062 -0.14826307896009838
1141000000.0 -0.1705218334315555 0.009220825638162575
1147500000.0 0.1803024695986299 0.0143196251338442
1154000000.0 -0.19121002964446882 -0.02168320420041963
1160500000.0 0.11150121565254942 0.16730272119462086
1167000000.0 0.09626876379655072 -0.18708621491845795
1173500000.0 -0.013833682790565053 0.22049783463351647
1180000000.0 -0.07171974789274081 -0.21758317319752785
1186500000.0 0.20056126182444703 0.12274409595540241
1193000000.0 -0.22586424757004797 0.07647301089644352
1199500000.0 0.23925338044263472 -0.039212223638793876
1206000000.0 -0.2428088373057983 0.026926293973176585
1212500000.0 0.14451157775363563 0.20426382313000116
1219000000.0 -0.03139670517572679 -0.253825234240865
1225500000.0 -0.18725149925345913 0.1796493145582537
1232000000.0 -0.03542984676267728 0.26754427501911876
1238500000.0 0.003929879458486072 0.28247689698396317
1245000000.0 0.2038822119587741 -0.2145806208409908
1251500000.0 -0.3077502871759873 0.019135407575137528
1258000000.0 0.058944712346618126 0.3115340640745118
1264500000.0 0.19486918406112214 -0.2556770376917488
1271000000.0 -0.0241059827036716 -0.32413060413225264
1277500000.0 -0.33324171708727873 0.019318316199227893
1284000000.0 -0.009193022360490714 0.33651839060513394
1290500000.0 0.29513845721516646 0.17024990988097244
1297000000.0 0.2120902930969705 -0.2701031616826994
1303500000.0 -0.2229056730209804 -0.25924383836937015
1310000000.0 -0.33763276721834684 -0.056965193031788736
1316500000.0 -0.05102368385868338 0.33747490719302825
1323000000.0 0.3158661767243205 0.12482097734958997
1329500000.0 0.07978222318925278 -0.3268154015460317
1336000000.0 -0.32372503537892006 0.0877398188340793
1342500000.0 0.021990307620405655 0.33167315761349503
1349000000.0 0.32889039424863564 -0.070259602073179
1355500000.0 -0.328031390440566 -0.07768121859882006
1362000000.0 0.29240929305356683 0.1724061381355399
1368500000.0 -0.288035623897541 -0.18260897287187644
1375000000.0 0.04205100707699844 0.33942510267973913
1381500000.0 0.06136758955160027 -0.34010951511886556
1388000000.0 -0.2561658586855053 0.23396821536383394
1394500000.0 0.2889565479855071 0.19949682161894974
1401000000.0 0.2846791136624737 0.21120526525140354
1407500000.0 0.23293614478074662 -0.26920143642213923
1414000000.0 0.17062139043069277 -0.3176083437945801
1420500000.0 -0.049247515116715795 -0.3635044647064311
1427000000.0 -0.14875557583637786 -0.34258212668025106
1433500000.0 -0.2176713732282643 -0.31124316300888144
1440000000.0 -0.3292849759457084 -0.20436325544934872
1446500000.0 -0.3853752659978278 0.051421170436019695
1453000000.0 -0.3274563443596853 0.21067094046181428
1459500000.0 -0.1002464016931815 0.3734471404074238
1466000000.0 0.07257460308888347 0.3705223058598118
1472500000.0 0.001969231896158738 0.3692233274167973
1479000000.0 -0.09457635499811413 0.3475489508387986
1485500000.0 -0.0917939851250762 0.34103807253244894
1492000000.0 0.04967419037212667 0.34306412245739887
1498500000.0 0.3198200855374881 0.11095767550429458
1505000000.0 0.11624365717119259 -0.3103460560969809
1511500000.0 -0.3100326116876187 -0.07944568633926077
1518000000.0 0.20312846167168364 0.23247075591001298
1524500000.0 0.02562446435946337 -0.2956972306275319
1531000000.0 -0.030655666429548405 0.2853361516183626
1537500000.0 0.18447991689683965 -0.20349745824746351
1544000000.0 -0.20491751455318635 0.1741088854693141
1550500000.0 0.20017570893196307 -0.16912518510953647
1557000000.0 -0.2576346734794447 0.010334478372013825
1563500000.0 0.21604640197324923 0.14205367991579929
1570000000.0 0.20743171806897637 0.1571312649032455
1576500000.0 0.030482407872113173 -0.26282565661508905
1583000000.0 -0.2534704706277672 0.08476225076429561
1589500000.0 0.09872835623772323 0.2500935812662728
1596000000.0 0.2669744245829456 0.007082993417319288
1602500000.0 0.11911658640704136 -0.23612083299462808
1609000000.0 0.22196905008879908 -0.13716901064142095
1615500000.0 0.23982472178403125 -0.09834145507731513
1622000000.0 0.24992964794480432 0.03233631959230578
1628500000.0 0.14462749283311555 0.201172562467265
1635000000.0 -0.12291985287023842 0.20822497422247654
1641500000.0 -0.23353838199624652 -0.04381505750705429
1648000000.0 -0.13296003340208834 -0.19093528066180315
1654500000.0 -0.10725588522540955 -0.1972043674703313
1661000000.0 -0.13139721864066642 -0.16988492346131015
1667500000.0 -0.17852927323471204 -0.099131285537949
1674000000.0 -0.19008688899171733 0.002433522806136531
1680500000.0 -0.1353294511760727 0.11321549561230136
1687000000.0 -0.09823145669297415 0.12951910076545725
1693500000.0 0.020715163988776403 0.14805828867915466
1700000000.0 0.13210025751020232 -0.04399228971477691
1706500000.0 -0.062474277039295215 -0.11538014937414719
1713000000.0 0.09028628021261975 0.08638046261108523
1719500000.0 -0.11992222273309738 -0.0019028566242342481
1726000000.0 0.0979343508322899 -0.0645481763829135
1732500000.0 -0.025222455888628703 0.11101694312187951
1739000000.0 0.10031248591644537 -0.049602764478100594
1745500000.0 -0.013033001552971381 0.11152800968633719
1752000000.0 -0.04723728253986577 -0.10250445820900643
1758500000.0 -0.10025203320833052 0.05053557306565733
1765000000.0 0.050106837543767 0.10011985574202352
1771500000.0 0.09041560947743671 -0.06618199065861212
1778000000.0 0.05798610812898722 -0.09716764494725641
1784500000.0 0.11161092225469374 0.006130384062294317
1791000000.0 0.028811378369691887 0.1072704184190175
1797500000.0 -0.10887899900399262 0.028076609013460603
1804000000.0 -0.0074240913176873745 -0.10702230997716951
1810500000.0 0.08882554594002458 -0.04524162181015971
1817000000.0 -0.056271262043971926 0.07431446009204352
1823500000.0 0.08360588533984994 0.013357678767870817
1830000000.0 -0.047032975920346026 0.061682596636274595
1836500000.0 -0.009857050044598081 -0.06768311074306778
1843000000.0 -0.040326581678048784 0.03932043779915623
1849500000.0 -0.043240458560413864 -0.014418427141534372
1856000000.0 -0.03144182153855381 0.018131678178113914
1862500000.0 0.026583895369792703 0.012139460318858182
1869000000.0 0.0193974000781573 0.015594799715871549
1875500000.0 -0.009057640735886803 -0.014180298270976782
1882000000.0 0.0032379659246922357 -0.011329124057472323
1888500000.0 -0.009366643263179644 0.0014681287723095847
1895000000.0 0.0028896934843899557 -0.012500663883612016
1901500000.0 0.010252521830763804 -0.012163728353284393
1908000000.0 0.01542836466575125 0.01089228360695599
1914500000.0 0.02197285572855949 0.0016238538386800904
1921000000.0 -0.024170549600775 0.004715594973877985
1927500000.0 0.006236122078873065 0.02531855076596059
1934000000.0 0.020550055026797895 -0.014243753060882464
1940500000.0 0.02145215035522321 -0.010021414062784263
1947000000.0 -0.016575438564634795 -0.0176419714804879
1953500000.0 -0.02431692745552297 0.008550835520032125
1960000000.0 0.006950072512111025 -0.029861917439460404
1966500000.0 -0.04149074282499328 0.002789238090429095
1973000000.0 0.034707699682298636 0.03910504990317633
1979500000.0 0.053142443245798233 0.035610824594571745
1986000000.0 -0.00269414752561093 -0.07846051334203516
1992500000.0 -0.018720242847915288 0.08677094333074038
1999000000.0 0.07553492643247763 0.06363514850610046
2005500000.0 0.00659099248139459 0.10787204386480047
2012000000.0 -0.039349905623345345 0.11015029979179979
2018500000.0 -0.1106249313937353 -0.052655845124687066
2025000000.0 0.12833455832108812 0.01264348764868824
2031500000.0 -0.032660828049104584 0.1325210795593446
2038000000.0 -0.13107161577726797 -0.05597988984380636
2044500000.0 0.08366661393483445 -0.12305876650253748
2051000000.0 0.15301018290250676 0.028485320761379978
2057500000.0 0.15818584734897717 -0.007141476547120936
2064000000.0 0.13908165713209839 -0.07611695803029152
2070500000.0 -0.05479819810536186 -0.14533811698851065
2077000000.0 -0.14962016873560702 0.010416149510007166
2083500000.0 -0.04692101126950853 0.1365066340661189
2090000000.0 0.13960563061000428 0.023542758912678617
2096500000.0 -0.12056860014549432 0.06326595915196871
2103000000.0 0.029854787729175273 -0.12898673547030642
2109500000.0 0.09942393519500417 -0.08345302866892615
2116000000.0 0.10497944448208753 -0.07533268745122736
2122500000.0 0.0694882674319612 -0.1114536950395646
2129000000.0 0.12451180082381669 -0.057542556385196515
2135500000.0 0.1457772023660649 0.0007729405419077386
2142000000.0 -0.14997721198718292 -0.0455980278341756
2148500000.0 0.16308114166713014 0.04362492324925136
2155000000.0 -0.1848860927235077 0.010793537578063854
2161500000.0 0.19828695106527117 -0.014515717978347116
2168000000.0 -0.146602360913289 -0.15126758406123791
2174500000.0 -0.20653173489417725 0.08128175581631342
2181000000.0 -0.11740742004797838 0.19971409494621836
2187500000.0 -0.13687230150848453 0.19724766002801897
2194000000.0 -0.20654789768633838 0.14134435347418325
2200500000.0 -0.1577357987371406 0.20193179813179776
2207000000.0 -0.24952282203320228 0.07547807046837826
2213500000.0 -0.2490561320650332 0.07799421950976951
2220000000.0 -0.24929327074238258 -0.06892573145642694
2226500000.0 -0.07863675889741396 -0.23997429256916022
2233000000.0 0.18095202016302522 -0.17196363525208638
2239500000.0 0.24084507047663037 -0.04676920733819566
2246000000.0 0.23697504904801792 -0.02290909370553343
2252500000.0 0.22104558659839443 -0.05351767530954295
2259000000.0 0.18818885134244354 -0.10843830230502792
2265500000.0 0.01512933131586569 -0.20608297899388264
2272000000.0 -0.16487920661520125 -0.10233697697312967
2278500000.0 -0.0359716766053983 0.1824858577616343
2285000000.0 0.11965335935302475 -0.12871072747899492
2291500000.0 -0.16229545937454118 0.03023849620630638
2298000000.0 0.1576193180584702 -0.02471751669490311
2304500000.0 -0.035270018454211204 0.1481480848200962
2311000000.0 0.08389171188402428 -0.1198132462234579
2317500000.0 -0.0977124863068462 -0.10693351605546628
2324000000.0 0.12255081190475431 0.07686294222193311
2330500000.0 -0.1268575136970492 -0.07111540865378192
2337000000.0 0.02162142719688387 0.14601988942349767
2343500000.0 0.09135963819303547 -0.1208929766314393
2350000000.0 -0.12757172261172253 -0.09079569366338093
2356500000.0 -0.1437709277497671 0.07032182403663212
2363000000.0 0.006914666278378849 0.1632090440789933
2369500000.0 0.16110609112898813 0.035878916185625206
2376000000.0 0.16545306193629114 0.007514901796593478
2382500000.0 0.1643964485819344 0.01204452908103289
2389000000.0 0.10678148294602258 0.1263209853270557
2395500000.0 0.057247549703482115 0.15270343302054684
2402000000.0 -0.1022893442695735 0.12676878119892845
2408500000.0 -0.06617799886681948 0.14805885328320328
2415000000.0 -0.10694871827970882 0.11793784088745135
2421500000.0 -0.14292583556577512 0.06918646565838686
2428000000.0 -0.048902439772760445 0.14824481376434315
2434500000.0 0.0857866554296221 0.1261983473069139
2441000000.0 0.11072165507765841 0.10214456272965462
2447500000.0 0.09607535380163196 -0.1145096696356434
2454000000.0 -0.12062360035152966 -0.0840439662937205
2460500000.0 -0.13371344129951307 0.05319030522786852
2467000000.0 -0.050219458005779836 0.13290183481528076
2473500000.0 0.026905163164874502 0.13655750232277647
2480000000.0 -0.11808331573898657 0.07223876377360407
2486500000.0 -0.13774060832898907 0.023938407176572193
2493000000.0 0.0668182581470983 -0.12652852625161445
2499500000.0 -0.022179841129338268 -0.14303327147487302
2506000000.0 0.10140691264915314 -0.10584297865763612
2512500000.0 0.1407805497193766 0.04088142086706964
2519000000.0 -0.13898670174217062 0.04457826554635496
2525500000.0 0.13595889960854246 -0.05474597922290471
2532000000.0 -0.12565182010197795 0.07780751047660459
2538500000.0 0.14019920392882904 0.04352258264318363
2545000000.0 0.04610023299025231 -0.14098761269210666
2551500000.0 -0.046048226752435945 0.14209946121819983
2558000000.0 0.14489376239060894 -0.030231247130070464
2564500000.0 -0.08648964014023242 -0.11808184475924045
2571000000.0 0.006425423171554419 0.1445834390149844
2577500000.0 0.13367304249557987 -0.0373314360013038
2584000000.0 0.08902152504682592 -0.10251013512078325
2590500000.0 -0.04609024081088624 -0.12353390339629187
2597000000.0 -0.03992939559686062 -0.11966525868945088
2603500000.0 -0.04091171020319887 -0.11811856661034766
2610000000.0 -0.12154749573489718 0.007012144854759673
2616500000.0 -0.007192712531178746 0.11688438754235109
2623000000.0 0.10808852901618535 -0.034641908088222685
2629500000.0 -0.10245570289125629 0.034736902913853784
2636000000.0 0.09745285578551392 -0.022986793913292104
2642500000.0 -0.08139461677159349 -0.044798943411248314
2649000000.0 0.03135434665784971 -0.07872506458575378
2655500000.0 0.07003024048509074 -0.025248762097708537
2662000000.0 0.05651936973221461 -0.03238534487750335
2668500000.0 0.054717342311475466 -0.01750860049591426
2675000000.0 0.050595496888522704 0.004617006031202928
2681500000.0 0.045416513465974556 -0.00023373152963357977
2688000000.0 -0.04727594479102628 -0.0011243462699485598
2694500000.0 -0.05095943550291937 -0.004519088004820424
2701000000.0 0.05144628085855238 0.02738388612416807
2707500000.0 0.06786442658218844 0.008768696047658267
2714000000.0 0.05138084097655075 0.06363291617426889
2720500000.0 0.0016897950954261063 -0.09481630774750693
2727000000.0 -0.10604232703263192 -0.01539569229985583
2733500000.0 -0.11991665850767841 -0.00918485434155854
2740000000.0 -0.04677109161412544 -0.12274129681956367
2746500000.0 0.11616841591956353 0.08169868536182151
2753000000.0 -0.15363067336172906 0.009651010397176505
2759500000.0 0.16207733750942052 -0.024834512662725898
2766000000.0 -0.16549068824476967 -0.06021871443624729
2772500000.0 0.18704700956605075 0.017645575992972104
2779000000.0 -0.19932126816386472 0.005088501003251378
2785500000.0 0.14054442526995947 -0.1555620587422733
2792000000.0 0.03586595374643311 0.21622292906139268
2798500000.0 -0.22610208444751642 0.015030488901913093
2805000000.0 0.034738007280716486 -0.22897315951829225
