!Created with skrf (http://scikit-rf.org).
# Hz S RI R 50.0 
!freq ReS11 ImS11
400000000.0 -0.6991900817019453 0.16053644212950982
406500000.0 -0.3235084778027495 -0.6178334794518069
413000000.0 0.6617866560968135 0.11973382494843632
419500000.0 -0.6497653584133737 -0.13066804355753003
426000000.0 0.014599598444961635 0.6525711346570614
432500000.0 -0.2880207339266591 -0.576581802762795
439000000.0 0.5450863687671252 0.32170302343010504
445500000.0 -0.49062570051451976 -0.3881190922764497
452000000.0 0.5981101685021314 0.17088216247111943
458500000.0 -0.4898710925020395 0.39157993506808997
465000000.0 -0.43162976118068835 -0.45781554379068845
471500000.0 -0.2698783039270986 -0.5654292520498053
478000000.0 -0.0017421906843631137 -0.6177161149658101
484500000.0 0.25998871979510585 -0.5505245489859757
491000000.0 0.0916667348783758 -0.5870645814179162
497500000.0 -0.24598649376303702 -0.5182912188156024
504000000.0 -0.47339024659690143 0.26641439386384785
510500000.0 -0.03654794296066586 0.5033810708309305
517000000.0 0.30138645719514956 0.3500176292279024
523500000.0 -0.0672596886540067 0.42898136794248487
530000000.0 -0.22927893244373282 0.3292151954489246
536500000.0 0.13101313944045903 0.3463789242249427
543000000.0 0.30879307296208375 0.18307279527834253
549500000.0 0.3229359117042336 -0.1218420511043789
556000000.0 -0.310525759060803 -0.0699659682966067
562500000.0 -0.28989419642027325 0.07642314009380045
569000000.0 0.05483864739246148 0.27291865621341505
575500000.0 -0.2622693737210473 -0.01931584673506344
582000000.0 -0.17466375107439816 0.18498006705439113
588500000.0 0.1739797650984381 -0.19376163019178985
595000000.0 -0.24793869914895106 -0.12148152471054288
601500000.0 0.22768417433745286 -0.17295926424440047
608000000.0 0.29299391424385357 -0.0020659103825477953
614500000.0 0.20586315027708835 -0.21932341338923353
621000000.0 0.13154774100248212 -0.2730410400820235
627500000.0 0.3025450192635171 -0.02066656693232845
634000000.0 0.16872744939651077 0.25502461241747576
640500000.0 -0.22802779121773356 0.18737891422654726
647000000.0 0.1253652275294632 -0.27473774656637207
653500000.0 0.2635507911588943 -0.14080681429973124
660000000.0 -0.2261988434445516 0.19191660936166546
666500000.0 -0.19683811257255965 -0.22327855547261874
673000000.0 0.2335150656158694 0.1723934883918146
679500000.0 0.28173115869494764 -0.10625815232727008
686000000.0 0.26213662066270055 -0.13556482122653576
692500000.0 -0.2695071642425932 -0.11515777864116143
699000000.0 0.276124864122941 -0.08636479771168812
705500000.0 -0.292853211799317 -0.00027924186578695955
712000000.0 0.29171759810895287 -0.02852989172218603
718500000.0 0.0764860363475799 -0.28988777388593795
725000000.0 0.10245125291063349 0.29384203746500415
731500000.0 0.031391622488772884 -0.31691118551974423
738000000.0 0.29911599991826926 0.1412486675729888
744500000.0 -0.26726966423188514 0.1851258153298445
751000000.0 0.32789765428373413 0.018327541286154356
757500000.0 -0.27451864485024413 -0.18877183607449263
764000000.0 -0.24213077725384852 0.2435025822911722
770500000.0 -0.14597120110427816 -0.32064352152439163
777000000.0 -0.19847695622722633 0.2990713836328929
783500000.0 0.0939914240483442 -0.34487017612444715
790000000.0 -0.26915123188219114 0.24983679306944478
796500000.0 0.22875542068489266 -0.2896510898944217
803000000.0 -0.3504697051064184 -0.10370484300551236
809500000.0 0.22893889021774907 0.28623041413945255
816000000.0 0.15456050163132493 -0.3303305142326033
822500000.0 -0.19840664574003256 -0.3169243866096195
829000000.0 -0.3038752950091072 -0.23254060719259126
835500000.0 -0.24024446172000266 0.31008187070680004
842000000.0 0.3930901354232997 -0.11561906306771662
848500000.0 -0.3475466036325972 -0.22330873030502477
855000000.0 0.23670435964606362 0.3473521635057076
861500000.0 0.13052376765778242 -0.40454007182258306
868000000.0 -0.08591844335229433 0.4241711522026673
874500000.0 0.36514975123380966 -0.23551946678786814
881000000.0 -0.2865642739310984 0.33858028215093106
887500000.0 0.06403284754623657 -0.44086983121372125
894000000.0 0.2041863355591614 0.39615900840718943
900500000.0 -0.3500430628335571 0.2632390948127108
907000000.0 -0.3286241301636723 -0.2730306331330639
913500000.0 0.3747334478090009 -0.15763561476875068
920000000.0 0.13191326214644603 0.3696047284462959
926500000.0 -0.3564234043096091 0.11424699076906021
933000000.0 0.009707857256936426 -0.36273325115041677
939500000.0 0.23251954411677647 -0.26375269591856376
946000000.0 0.29681403178931465 -0.15388537738807098
952500000.0 0.31398274491833067 -0.03680269302331135
959000000.0 0.2504387182599546 -0.1604966602418697
965500000.0 0.2629743146448148 -0.10040199280610428
972000000.0 -0.22978502694007052 0.13454965006645303
978500000.0 -0.19621035960001815 -0.16386966141578926
985000000.0 0.0065131990536953155 -0.24006579919066853
991500000.0 0.2083881416263181 -0.09529928281616555
998000000.0 0.1439046072168357 0.16256301171591672
1004500000.0 -0.1441907618524041 0.14800278914010292
1011000000.0 0.06313439870344001 -0.18660366422993954
1017500000.0 0.1761486209220273 0.0655710931852656
1024000000.0 0.09811749313750079 0.1417628816524885
1030500000.0 -0.07191539909107644 0.1431726610276366
1037000000.0 0.02273973257240244 -0.1431698737089579
1043500000.0 0.038499096184981756 -0.12848776480833224
1050000000.0 0.09405633830781342 0.0850306516219515
1056500000.0 0.09793931952160193 -0.07020428020904951
1063000000.0 -0.10303386204309811 -0.054004268119583636
1069500000.0 -0.10986555510336628 0.02075571893587912
1076000000.0 -0.11060428913701185 0.014368090165100175
1082500000.0 -0.11121426107456732 0.005632337577387256
1089000000.0 -0.04823297276235069 -0.10405369916346618
1095500000.0 -0.09404645990229749 0.06623142732165843
1102000000.0 -0.11831642929433382 0.03317080198853547
1108500000.0 -0.07801535591489296 0.09987124596113198
1115000000.0 0.12284476623033466 -0.0418656987953519
1121500000.0 -0.14073529630898898 -0.015673638131315858
1128000000.0 0.13641606380280497 0.06475648147211303
1134500000.0 0.09743215399328124 -0.12894151133207893
1141000000.0 -0.1557308695106683 0.08662384110941358
1147500000.0 0.15556792930938657 -0.11993861755036968
1154000000.0 0.03605224944120245 0.20668758245494503
1160500000.0 -0.19495321933293425 0.1070589331416718
1167000000.0 -0.057616541042681 -0.22468791642664618
1173500000.0 0.23041267207644547 -0.05300368714898708
1180000000.0 -0.071731907027769 0.22713111629824642
1186500000.0 0.11646984605076934 -0.20474645596028854
1193000000.0 -0.2065353308212022 0.12246668141020012
1199500000.0 0.2413905563369834 0.008884532061855611
1206000000.0 0.23055345833957758 -0.08689249161229082
1212500000.0 -0.18610618556825206 -0.17816497618139898
1219000000.0 -0.10520667686961542 0.249385829604074
1225500000.0 0.2709402755872521 -0.06760328304464241
1232000000.0 -0.20616592983028748 -0.20599002446327733
1238500000.0 -0.2985762924776638 0.05096838333494473
1245000000.0 0.06379826111784413 0.30465897521357443
1251500000.0 0.30589826129241454 -0.09251727809482088
1258000000.0 0.03153226908448245 -0.3244943758734825
1264500000.0 -0.16306160837947964 -0.2905063076532055
1271000000.0 -0.32851938072784753 0.09610687727778772
1277500000.0 -0.11208962810742823 0.3290189599335266
1284000000.0 0.32143532571643524 0.14851683461347337
1290500000.0 0.3287321119800405 -0.13027231743916806
1297000000.0 0.06395350707529683 -0.3539258195179506
1303500000.0 -0.3426534649736062 -0.10108649495091672
1310000000.0 -0.3043038102782571 0.18826097058909644
1316500000.0 0.1877903719859425 0.3083068278618874
1323000000.0 0.31448038651581817 -0.1770806551715659
1329500000.0 -0.3440430195989461 0.10447269943643969
1336000000.0 0.3473840189337126 0.077650845787981
1342500000.0 -0.3329436543909203 -0.11742162401923054
1349000000.0 0.28887302425247413 0.18842043523227336
1355500000.0 -0.06083408531272603 -0.335044558515447
1362000000.0 -0.0829046952383544 0.32129818307000596
1368500000.0 0.26550501140884003 0.1892772892397501
1375000000.0 0.1725483456542276 -0.28034299835206344
1381500000.0 -0.22975183905320792 -0.23628549754499148
1388000000.0 -0.2301674124025782 0.2455996973695987
1394500000.0 0.30392846158845344 0.1601054366764415
1401000000.0 0.1923526162049233 0.29498626712879955
1407500000.0 0.3357000049207777 -0.1263678320872203
1414000000.0 0.05073939114224466 -0.36548067632580805
1420500000.0 -0.37547847783260196 0.02384172678134438
1427000000.0 -0.2874088855031835 0.24735175997513892
1433500000.0 0.0018052806409098972 0.3834146278314532
1440000000.0 0.11433512821611007 0.3628083609796836
1446500000.0 0.13645970477531208 0.359034423281726
1453000000.0 0.2930956974527962 0.24388311554584213
1459500000.0 0.21851294419352751 0.31048950598799235
1466000000.0 0.37371147324691145 -0.05051237683194343
1472500000.0 0.36486721050885507 0.06917733799230831
1479000000.0 0.28067226921301464 -0.23621509783178016
1485500000.0 0.022530694117252646 -0.3584305781934986
1492000000.0 -0.3198012083673333 -0.14292624354756234
1498500000.0 -0.1657921234703605 0.2944079896454264
1505000000.0 0.262711763343752 0.18908944810096273
1511500000.0 0.08376400350851289 -0.30121492625474705
1518000000.0 -0.25637116625316575 -0.15903866171149225
1524500000.0 0.23332928055337201 0.17407088692663744
1531000000.0 0.14754926104407778 -0.23665295686781962
1537500000.0 -0.19284665344074772 0.19588506871264116
1544000000.0 0.2595797491961862 -0.054583984737874555
1550500000.0 -0.17658584866315524 0.20142632741639074
1557000000.0 -0.014878147317879844 -0.25999914262973073
1563500000.0 -0.22226839218282293 0.12951106779797078
1570000000.0 -0.17408305186275283 0.1846944036514134
1576500000.0 0.03756363658903936 0.25287056507754224
1583000000.0 0.24651179957478947 0.07807891332777232
1589500000.0 0.25189442964465275 -0.07625135962004248
1596000000.0 -0.10859181168796218 -0.2391702804335221
1602500000.0 -0.23889360106185306 -0.11347035872369804
1609000000.0 -0.24246445889687657 0.09749885621065689
1615500000.0 -0.0970309818223364 0.23590068272467568
1622000000.0 -0.24586462659350228 0.005634206241630517
1628500000.0 -0.22623875855897332 -0.07869117283788397
1635000000.0 -0.08830722016445461 -0.2126301274929382
1641500000.0 0.183821045236742 -0.12091493385332926
1648000000.0 -0.09927894564446291 0.18745584701278567
1654500000.0 -0.11050958774383156 -0.17276188214089605
1661000000.0 0.04817127853275747 -0.19597801113584243
1667500000.0 -0.0999481699879891 -0.16884054872976265
1674000000.0 -0.17281993392056338 0.07485466938979408
1680500000.0 0.11999405148315918 0.12446867323029702
1687000000.0 0.060580979399064115 -0.15001903497051194
1693500000.0 -0.005189535346799857 0.14481280673501642
1700000000.0 0.03676602832213694 -0.1300184169032141
1706500000.0 0.118313658741802 -0.025361297034650176
1713000000.0 -0.10400470232260234 -0.03808316369630603
1719500000.0 0.10511767750962897 -0.01136968477625603
1726000000.0 -0.08764008343311457 -0.0512168215502272
1732500000.0 0.0472332844906999 -0.08790231380620679
1739000000.0 -0.07620126520979373 -0.0641788391464246
1745500000.0 0.04203281010135213 0.09140916202977965
1752000000.0 0.04601372752958285 -0.09527917017607619
1758500000.0 -0.06347935481096013 0.0892203950098846
1765000000.0 0.11326649833223118 -0.011090164507017936
1771500000.0 -0.10915331191485725 -0.03559031219879913
1778000000.0 -0.04844685666869522 0.1040713662535086
1784500000.0 0.11225918655023438 0.016868890076788167
1791000000.0 0.10607146688165299 -0.028761625830406857
1797500000.0 -0.040678643392138614 0.09616962432212853
1804000000.0 -0.06860041032586219 -0.06959667295163395
1810500000.0 0.0037761498212204973 0.091288836609009
1817000000.0 0.0424475434458429 -0.0771757378598481
1823500000.0 0.07704296777171783 0.02973567421280488
1830000000.0 -0.02725430084905271 0.07339430312232208
1836500000.0 -0.03890725807962562 0.05910075128270596
1843000000.0 0.0074574501048334865 -0.060651348598767724
1849500000.0 -0.010770186668334463 0.04654019357767308
1856000000.0 0.0037023618864777874 -0.0366438848970256
1862500000.0 -0.013593777820108085 0.01767298468137736
1869000000.0 -0.015111806367938742 -0.0006248664866689768
1875500000.0 -0.0005390266118092655 0.007313652022704718
1882000000.0 0.003916012510126165 0.0022202422936792305
1888500000.0 -0.0005190031056874582 -0.0012934899488445133
1895000000.0 -0.004647128302737835 -0.003227632443293874
1901500000.0 0.005927645482221551 -0.008371683549257053
1908000000.0 -0.01005818341278119 -0.008272577297112487
1914500000.0 0.010443657825809572 -0.01083190896225382
1921000000.0 -0.0006309901178525074 -0.018639695025472396
1927500000.0 0.017186802095637162 -0.0010794275314790383
1934000000.0 0.005330338387886482 -0.01593956532045135
1940500000.0 0.014019304569714047 -0.0076442117412104955
1947000000.0 0.010325070280688237 -0.013762893631727694
1953500000.0 0.014882073299133304 0.019196696956265795
1960000000.0 0.018223503978256658 0.01720808926659949
1966500000.0 -0.01179084957247508 -0.03382402844548985
1973000000.0 -0.029780787459214714 0.028129850265370942
1979500000.0 0.04208443842854275 0.028479043167119335
1986000000.0 0.05298607156043426 -0.03236224227199337
1992500000.0 0.07324381449897696 0.000588501447061187
1999000000.0 -0.0663336036715066 0.0485626573038629
2005500000.0 -0.09297849400861564 0.005310537829804788
2012000000.0 0.06916173136667364 -0.077923597693159
2018500000.0 0.10014652612853539 0.05120797661718564
2025000000.0 -0.09439204180757794 0.08107398718521153
2031500000.0 -0.12795787623632887 0.01531312080337749
2038000000.0 -0.05584027976906272 -0.12365341732075091
2044500000.0 0.06856393879241493 -0.1208407229419676
2051000000.0 0.1432329562137279 -0.013187750691714965
2057500000.0 0.09735510498397108 -0.10477467642520179
2064000000.0 0.11116705294299095 -0.09240582826694302
2070500000.0 -0.09275169888347533 -0.10466697008878798
2077000000.0 -0.08824132474006077 0.10299736703525775
2083500000.0 0.12866337076627998 -0.013274105898767312
2090000000.0 -0.1127473941455088 0.04817336776042999
2096500000.0 0.07629013210858451 -0.08512580347623787
2103000000.0 0.0794376019062492 0.07688074920498626
2109500000.0 -0.026922165251207827 0.10264240008757104
2116000000.0 -0.03710315325899462 0.10157493754171017
2122500000.0 0.09508562076881719 0.05856678696462207
2129000000.0 0.07951226949373572 0.09377531988164907
2135500000.0 0.13282952552722774 0.009559614370782598
2142000000.0 -0.14623257296164643 0.017038086624135307
2148500000.0 -0.09557130776519983 -0.13065027559718434
2155000000.0 0.16889089410196595 0.05336013243007676
2161500000.0 -0.17454845757333137 0.07281392480737157
2168000000.0 0.19232964248158327 0.061213804905331584
2174500000.0 0.13897289016342915 -0.15939402773082473
2181000000.0 0.062077912615756715 -0.20914044639138438
2187500000.0 0.09802518990306552 -0.2055022199800678
2194000000.0 0.23441546256137324 -0.028042504334001458
2200500000.0 0.17778764108910497 0.16660800188058678
2207000000.0 0.19302614796888942 0.15969581975027167
2213500000.0 0.13126063392864068 0.2182318759730932
2220000000.0 0.07155323448509324 0.24663496969554313
2226500000.0 0.05734862550185551 0.24739905114800093
2233000000.0 0.17233901699672036 0.18207788981046863
2239500000.0 0.015439380529622317 0.24420242572150686
2246000000.0 0.10956672497904747 0.20812530996680115
2252500000.0 0.0962241265945442 0.1990027102817261
2259000000.0 -0.09007844719100085 0.19546534793639728
2265500000.0 -0.016489011703307903 0.2040944271344668
2272000000.0 -0.0864550412204054 0.17624598373983025
2278500000.0 0.18890224739481953 0.0358426515193312
2285000000.0 -0.11738892085665086 -0.14523961405785077
2291500000.0 0.006678929454089474 0.17893121865031372
2298000000.0 -0.11320252024952437 -0.133011579508651
2304500000.0 0.16620269074806845 0.039455898893088696
2311000000.0 -0.15852455370912455 0.034706622584685334
2317500000.0 -0.08316130906242497 0.13616236465176312
2324000000.0 -0.07344803024529016 -0.13885202873586164
2330500000.0 -0.11265427120992984 0.10639797425778914
2337000000.0 0.1479719903420224 -0.04373500996877822
2343500000.0 0.03158338670026181 -0.1502094527878859
2350000000.0 -0.14645038197826485 0.055891967441944156
2356500000.0 -0.14736973041362247 0.054610133264762176
2363000000.0 -0.1320872837915379 0.09202600918811611
2369500000.0 0.028727102408988157 0.1604487838737961
2376000000.0 0.07230381820827446 0.14835727515669048
2382500000.0 0.15002699246190496 0.06831432003170201
2389000000.0 0.16352116675404604 0.014999509015840235
2395500000.0 0.09019570770674011 0.13569977403715916
2402000000.0 -0.03220819153754428 0.15883757306339163
2408500000.0 0.09033607661570854 0.13289337141014854
2415000000.0 0.07381287356122106 0.14061683498092956
2421500000.0 -0.012787663182394745 0.15640411448243355
2428000000.0 0.0908742759415506 0.12422332366563799
2434500000.0 0.11464095649531754 0.09644624401786504
2441000000.0 0.08289145152246796 0.12600390722423185
2447500000.0 0.14606849370861466 0.02677664472961795
2454000000.0 0.07307381246706382 -0.12777523628474316
2460500000.0 0.03785750437472385 -0.14064547501223706
2467000000.0 0.04494845070587335 -0.13688536681975938
2473500000.0 0.06462855798553471 -0.12846160055188602
2480000000.0 0.14575973688305 0.01572202958572449
2486500000.0 0.11892634428374091 0.09543371771048963
2493000000.0 -0.1271162395232881 0.08646985350830312
2499500000.0 -0.13289032741057977 0.08342980312523586
2506000000.0 -0.09439302037157685 0.12929735332997602
2512500000.0 0.054854737554301806 -0.15293369189597858
2519000000.0 0.15818526609099298 -0.044681656538599686
2525500000.0 -0.14130123070857614 0.09038010107450913
2532000000.0 -0.04892176667394324 -0.1628373408460298
2538500000.0 0.014346866229161448 0.16810318933138957
2545000000.0 -0.14894563275244407 -0.08153878877095676
2551500000.0 0.11543659766240333 0.12443019599264171
2558000000.0 0.074284524966778 -0.15056367238338955
2564500000.0 -0.11172101480837361 0.12579826752009385
2571000000.0 0.13146926656564123 -0.10247723052116331
2577500000.0 -0.14956273284945762 0.06141496272245408
2584000000.0 -0.07481156108946059 0.13908290742156698
2590500000.0 0.14466776114763008 -0.048114813693295205
2597000000.0 0.07096202509245757 -0.13028112157481972
2603500000.0 -0.054881295739198636 -0.1346285481315457
2610000000.0 -0.10897740468720933 0.09255149168800275
2616500000.0 0.13188895768565415 0.04777982931343326
2623000000.0 -0.1335276614741142 -0.03731456481460558
2629500000.0 0.11095130540058531 -0.07179128091002235
2636000000.0 0.046618949212654116 0.11865583901990294
2642500000.0 -0.06750794937364424 0.09704187641916376
2649000000.0 -0.08951799386310481 0.06520313619304265
2655500000.0 -0.09488362976604788 0.028742827049655067
2662000000.0 -0.019765145557580962 0.08907608095599837
2668500000.0 0.018858857893349814 0.08061865126981546
2675000000.0 0.06639436344812007 -0.041993155532701824
2681500000.0 0.012022577974330893 0.07545841495544768
2688000000.0 -0.0654801699525703 -0.04420843136680081
2694500000.0 -0.05746981523859281 0.05981956860391699
2701000000.0 0.025491522350556677 -0.08301183273545387
2707500000.0 0.09782761589178089 0.0020409684827477174
2714000000.0 -0.024295359284495256 0.10388922195761646
2720500000.0 0.11355575209675514 -0.034252101682321935
2727000000.0 -0.10936424756102978 -0.07350338639026857
2733500000.0 -0.13958193588232687 -0.03677887260907633
2740000000.0 -0.15560056319510387 0.024208638173514315
2746500000.0 -0.054547539644528395 -0.15717791105974876
2753000000.0 0.17179113473973506 -0.052152331225346925
2759500000.0 0.018890134472265268 0.1878295685140876
2766000000.0 -0.1524416319108469 -0.13238203530675663
2772500000.0 0.11818589112106376 -0.17636725407464093
2779000000.0 -0.07235906214389644 0.21023469838098185
2785500000.0 -0.19553719826151073 -0.11952025731256792
2792000000.0 0.2298086469186057 -0.05768516305186799
2798500000.0 -0.03040339078954894 0.24054482967510188
2805000000.0 -0.12050266191373525 -0.2157279555512334
2811500000.0 0.2516914789301913 0.02265184695630931
