!Created with skrf (http://scikit-rf.org).
# Hz S RI R 50.0 
!freq ReS11 ImS11
400000000.0 -0.7816391256103121 -0.3488106098611362
420000000.0 -0.4303659781143627 0.7221780374588396
440000000.0 0.4643784666274461 0.6330069978492173
460000000.0 0.05042116693541895 0.712428944898808
480000000.0 -0.6161476966829101 0.20473441071436746
500000000.0 -0.5134189221901913 -0.28135606837518284
520000000.0 0.47718562686114285 -0.19637433077654182
540000000.0 -0.0019371170403535796 -0.4600742592524374
560000000.0 0.23035965193528243 0.37057631320240764
580000000.0 0.32590689998632194 -0.23185910194138787
600000000.0 -0.26717837293724633 0.24679420529617616
620000000.0 -0.19098945393050729 -0.31729634194243983
640000000.0 0.3311487202760036 -0.25776645845741186
660000000.0 0.42370331563676283 0.18190597556804391
680000000.0 -0.402092896991154 -0.2417698612951874
700000000.0 0.24264755561193185 -0.39474233245245083
720000000.0 0.15357145321068533 0.4132641733207257
740000000.0 -0.046868646433643184 0.3897055813806052
760000000.0 -0.3039231576384659 -0.18459813426785704
780000000.0 0.19541774754703162 0.2608096907466069
800000000.0 0.2575128561817599 -0.15670117824633617
820000000.0 -0.2257436979241899 0.0669493989604892
840000000.0 0.07714428805444189 -0.16265826359665156
860000000.0 -0.13160970507822375 -0.08537201202227777
880000000.0 0.1317817079259799 -0.000491747566233333
900000000.0 -0.11014214104420025 -0.003906331100962164
920000000.0 -0.05753687826293608 0.04058336729717333
940000000.0 0.024719301298419954 0.040735948943145237
960000000.0 -0.02477409527659279 0.04664331586047306
980000000.0 0.05271484420332359 -0.02189078441059911
1000000000.0 0.04978144530950265 0.06135369923655709
1020000000.0 -0.04364592012628194 0.09781124288160546
1040000000.0 -0.12153310498570055 -0.059001547590151616
1060000000.0 0.16593994587783034 0.0014349196617858527
1080000000.0 0.10060683269280866 -0.1762139640134241
1100000000.0 0.13901353376518233 0.19388556726612963
1120000000.0 -0.20964345420982133 -0.1618220011396527
1140000000.0 -0.2800048354420279 -0.0028608757362718774
1160000000.0 0.10414293050101554 0.2701058909353835
1180000000.0 -0.2903232285002359 0.08995584506779482
1200000000.0 0.3149025102139497 0.07405630487046938
1220000000.0 -0.20482289236080325 -0.27563160956106414
1240000000.0 -0.2266595162121209 0.2892781010661917
1260000000.0 0.2112356517809933 -0.3139344764240717
1280000000.0 0.0737108384453083 -0.3706839933502761
1300000000.0 0.32579428859262793 -0.21100053944900427
1320000000.0 0.1808933095467495 -0.3561577810383356
1340000000.0 -0.32406037035250423 -0.24330538575428354
1360000000.0 -0.35788188530203663 0.17014503831501765
1380000000.0 -0.3634524745791241 0.13688603264341442
1400000000.0 0.29225191066053213 0.24122412775288612
1420000000.0 0.082056791516123 -0.3429707066137341
1440000000.0 -0.3240808352414856 -0.047617904865790615
1460000000.0 0.022997229835733157 0.29446511454494106
1480000000.0 0.03967876570475256 -0.25960648897722133
1500000000.0 -0.18626900837060456 0.11788305694771353
1520000000.0 -0.08065022274966187 0.16245949217218297
1540000000.0 -0.14098526940529862 -0.014158140466177551
1560000000.0 0.1036381586911043 -0.051921691552935315
1580000000.0 0.09254760805613481 -0.02571940402967717
1600000000.0 0.06759708393569128 0.027224470709473137
1620000000.0 0.03840143183877236 -0.040403330337882085
1640000000.0 -0.012836475568071864 -0.03099968220588901
1660000000.0 -0.00969688879101723 0.006887356523335936
1680000000.0 0.0033706435757704352 -0.02028268453514373
1700000000.0 0.0059901720283179576 -0.03565759498437337
1720000000.0 0.024691944068518115 0.036971696297361176
1740000000.0 0.03755118900579095 -0.047171534017194025
1760000000.0 -0.0690055616636757 -0.03776942480806511
1780000000.0 -0.1133987307994889 -0.017870663421892297
1800000000.0 0.11332616713239178 -0.11281351896174839
1820000000.0 -0.1870971487930466 -0.0341860712045073
1840000000.0 -0.08449567165901409 -0.20202261148879694
1860000000.0 0.2403263297348378 -0.0715662490693554
1880000000.0 -0.21744632685796836 0.18338544696766437
1900000000.0 0.02364000529439708 -0.31739524072528447
1920000000.0 0.15511155650417882 0.3102950815890954
1940000000.0 -0.23677332702739146 -0.28207366249962723
1960000000.0 0.05909774903339203 0.37576984475066355
1980000000.0 0.36392734118648723 0.13156159025003397
2000000000.0 0.36301897198795985 0.1618434350047902
2020000000.0 0.40150300433649416 0.0890062251098742
2040000000.0 0.1761737294369293 -0.3866263705064916
2060000000.0 -0.39191443157558 0.16452611196053094
2080000000.0 0.29928834964601414 0.2861346104079208
2100000000.0 0.35522258163559955 -0.16922374492562234
2120000000.0 0.3624098864058689 0.09002269581704703
2140000000.0 -0.2623532279661347 0.24387808158547605
2160000000.0 -0.34102604850604806 -0.020265318154980724
2180000000.0 -0.29112053292445683 -0.15184545955974324
2200000000.0 -0.15586979085574304 -0.27485906268876653
2220000000.0 0.15189463050385116 -0.2673710544962301
2240000000.0 0.30629286951434254 -0.02679178891146848
2260000000.0 0.17878881624775836 0.2592369025857058
2280000000.0 0.002736513882071521 0.333023936532634
2300000000.0 0.35712225514509177 -0.06079060685511128
2320000000.0 -0.3554513414768928 -0.17571348925129313
2340000000.0 0.4303712396210467 0.07718685174014302
2360000000.0 -0.46122888149974434 0.14218900416333544
2380000000.0 0.08061487582105753 -0.529888927870705
2400000000.0 0.5719117736488706 0.13927241519430858
2420000000.0 -0.16242614155657195 0.6168031064158277
2440000000.0 -0.6105347613591433 -0.2993954444391004
2460000000.0 0.6339736851678106 -0.3285878211564906
2480000000.0 -0.32175637225764836 0.6653722219212752
2500000000.0 0.3595273693976194 -0.6654061438897227
2520000000.0 -0.44085404423131086 0.6247533752447749
2540000000.0 0.6412315177548318 -0.41891350519992426
2560000000.0 -0.7579051463495802 -0.05314759238446648
2580000000.0 0.5296224887946698 0.5256357503532023
2600000000.0 -0.03300555746353033 -0.723325596979038
2620000000.0 -0.4158533598258409 0.557521849829393
2640000000.0 0.16252265165500362 0.6411805135836756
2660000000.0 0.10178193389095211 -0.6122430124886684
2680000000.0 -0.2769174191957919 0.505214376729552
2700000000.0 0.3552426384912163 -0.3930814443329117
2720000000.0 -0.3347245819170102 0.34912471548143875
2740000000.0 0.42943511924139266 -0.09155396394356811
2760000000.0 -0.32814448389294 -0.23758948294090315
2780000000.0 0.34325652746158064 0.16962405884809928
2800000000.0 -0.29703708406019347 0.21077520786339735
2820000000.0 -0.1957967899671174 -0.28807919358158535
2840000000.0 0.3319768296266804 0.003005517257481544
2860000000.0 -0.28963639878278713 -0.14359571414599792
2880000000.0 -0.02474236633370732 0.32314504956248846
2900000000.0 0.2735110324691561 -0.1863636387767766
2920000000.0 -0.32826020449901083 0.08200530699045704
2940000000.0 0.3005278515145189 0.1559444218773788
2960000000.0 0.33062507564302424 -0.008239753412379428
2980000000.0 -0.12191480438493994 0.3038550419302552
3000000000.0 -0.0052924911362171746 -0.33871479367155843
3020000000.0 0.1821424918236868 -0.3019885059238715
3040000000.0 0.017742419997093622 -0.3536730983206384
3060000000.0 0.26362313962312495 -0.2211828410047274
3080000000.0 0.014140273957447679 0.3276334630160045
3100000000.0 0.1674819470736789 -0.2686702560554012
3120000000.0 -0.14235871570599504 0.27603833278146966
3140000000.0 -0.20470255185867658 -0.22902187079140462
3160000000.0 0.2665980282886309 -0.13106165100666056
3180000000.0 -0.04421889018980799 -0.2678447840183373
3200000000.0 0.07192640258610494 -0.22559340356625776
3220000000.0 0.08319622991670603 0.18540093787039674
3240000000.0 -0.04377092940496867 -0.1716872455828331
3260000000.0 0.14825276635980905 -0.05958595554128728
3280000000.0 -0.04915802394357613 0.13111097333644525
3300000000.0 0.052485256342673696 -0.10344279226429076
3320000000.0 0.06695571491267444 -0.05692932229699114
3340000000.0 0.050200351075497814 -0.041822324005702086
3360000000.0 0.025624937473186303 0.049142917272255275
3380000000.0 -0.04563130350083499 -0.036709615875734916
3400000000.0 0.02957302275381597 -0.07041463765852131
3420000000.0 -0.08793677534957192 -0.043281663273401716
3440000000.0 0.005676409027269423 -0.11533581288743966
3460000000.0 -0.11799979689367546 0.04170197554157202
3480000000.0 0.09019108289113598 0.09184395048870705
3500000000.0 -0.06393282844686446 0.12400629506781911
3520000000.0 -0.146693257525152 -0.05740253495791371
3540000000.0 0.1776870752250451 0.01655124249963878
3560000000.0 -0.06203593048881748 0.17387334135525198
3580000000.0 0.03280349183283043 -0.17710671572193762
3600000000.0 0.047617876770812285 -0.1648641205198571
3620000000.0 0.04933158598081127 0.15620009237342658
3640000000.0 0.016188494236573345 -0.16021108481576704
3660000000.0 0.07976642836049849 0.13991952109436478
3680000000.0 -0.022517473541920314 0.15655777975025004
3700000000.0 -0.06128379364378433 0.13319932847067267
3720000000.0 0.0858915474169739 -0.09630053490319998
3740000000.0 -0.014516953883254151 0.11617010253440609
3760000000.0 0.10750516067377558 -0.036051655301722656
3780000000.0 -0.08793401086061313 0.07335611907612967
3800000000.0 -0.11137553468608945 0.024121546577186265
3820000000.0 0.11059303899387556 0.0031183032340565725
3840000000.0 0.11019038101703636 -0.04254957272562287
3860000000.0 0.07645916726943633 0.11618412907797422
3880000000.0 0.113168986009378 0.11753442308080256
3900000000.0 -0.16312222843614238 0.05534878936417836
3920000000.0 -0.006425728244110072 -0.16413216529847047
3940000000.0 -0.146747928789743 -0.02622882746924939
3960000000.0 -0.1330413826906058 -0.034288264086488926
3980000000.0 -0.08605827832039141 -0.09351245873966117
4000000000.0 -0.07374002120456839 -0.08733912763305633
