!Created with skrf (http://scikit-rf.org).
# Hz S RI R 50.0 
!freq ReS11 ImS11
400000000.0 -0.7421502299771123 0.37649490174552547
420000000.0 0.1770998383893234 -0.7435523561934296
440000000.0 0.4270392454742145 -0.6078283984732076
460000000.0 -0.03088039072475925 -0.6511595585808221
480000000.0 -0.3708950005972906 -0.3990105161594342
500000000.0 -0.35364464401191426 0.1917654760367827
520000000.0 -0.40570961321119203 0.17939420300066353
540000000.0 0.41381979475864966 -0.2612763841207978
560000000.0 0.07160456505854253 -0.46412468431791803
580000000.0 0.4221924209073214 0.04945516802119525
600000000.0 -0.3547527275631818 0.09765252184314477
620000000.0 -0.2773665415708905 -0.21947849709764694
640000000.0 -0.14152360707289904 0.33577453359678916
660000000.0 -0.305334506688867 0.18643735918637916
680000000.0 -0.002939304320470505 0.34761759076261745
700000000.0 -0.2748994434195054 0.2025519060959272
720000000.0 -0.027092610607045584 0.3538221639225201
740000000.0 0.22683951254946963 0.23763815630598378
760000000.0 -0.2928114547852805 -0.1378938701563861
780000000.0 -0.25816717828245467 -0.14141445369204192
800000000.0 0.2502818687469656 0.06476903188190652
820000000.0 -0.18992722891211217 0.12136116480048804
840000000.0 0.19386545726847584 -0.11521872084927429
860000000.0 0.17075836855207255 0.08621132775825613
880000000.0 -0.12621855531394227 -0.1484948511367267
900000000.0 0.024977600086693332 0.1531085625464521
920000000.0 -0.0703122067309534 0.12667191946993486
940000000.0 -0.015851550278331673 0.13603652030054453
960000000.0 0.10782904538171416 0.00955681404169487
980000000.0 -0.03504375790805543 0.05759660832178464
1000000000.0 -0.039298092915396786 -0.004957853609170458
1020000000.0 0.027234222613947305 0.040324023143270125
1040000000.0 -0.06259298848745351 -0.04956270087577112
1060000000.0 0.06440641708569043 0.09125039050926918
1080000000.0 0.08560529495028457 0.13586644814503962
1100000000.0 -0.05709725797159309 -0.1766144197410013
1120000000.0 -0.20956127370983257 0.025067554146160357
1140000000.0 0.05835334355422231 -0.24291149530755762
1160000000.0 0.1979157296390064 0.20151907191741023
1180000000.0 0.2802575363444445 0.13069861282423148
1200000000.0 0.27194835875777934 0.1697918610733357
1220000000.0 0.27422218241199453 0.17008711880701322
1240000000.0 -0.22157227206948304 -0.2494264888137105
1260000000.0 -0.29967358061710975 0.16611577398589292
1280000000.0 -0.339924038085812 0.026972094885803523
1300000000.0 0.31413779827767563 -0.15206974761478087
1320000000.0 0.35643650377771535 -0.07240762863003215
1340000000.0 -0.23396699776530072 0.2859362825242445
1360000000.0 -0.13705463306740634 -0.3600700192958965
1380000000.0 0.14767099762856367 -0.3522809258986626
1400000000.0 -0.3747757533287162 0.03490672084450204
1420000000.0 0.007556497815083938 0.3777535024790812
1440000000.0 0.3521491319667908 -0.10710868307589917
1460000000.0 0.06108303718703504 -0.3531931660240526
1480000000.0 -0.0157327237911987 -0.3468987415010733
1500000000.0 -0.06856952539723529 0.32910079011795196
1520000000.0 0.1904451671533207 -0.24904757261230445
1540000000.0 -0.09489805481361133 0.2591987141622678
1560000000.0 0.20119142117722602 0.13366855947498998
1580000000.0 -0.00794256993848939 -0.21381468660231642
1600000000.0 0.09034179885620931 0.15660369710061037
1620000000.0 0.04686928422737467 -0.15422382848862753
1640000000.0 -0.0787972888231009 -0.11200797661740276
1660000000.0 0.07368915330889961 -0.07479932618647774
1680000000.0 -0.029700895180697975 -0.08103976326601302
1700000000.0 0.05677433022734314 0.05381290425190865
1720000000.0 -0.053964857984821 0.004062059896985554
1740000000.0 -0.04778383699272637 -0.0027365848327424113
1760000000.0 0.038501416960350476 -0.04856652432186523
1780000000.0 -0.03472270322984913 0.08583119936100736
1800000000.0 0.12090122584471542 0.003595296087792324
1820000000.0 0.1279113348986074 0.08694244429713509
1840000000.0 0.17772637407179084 0.07688861878794684
1860000000.0 0.20637852864734957 -0.0662903326353718
1880000000.0 0.1462914122035479 0.19096226139124012
1900000000.0 0.2657140636581372 -0.022534337845204075
1920000000.0 -0.2811690155944043 -0.06725561765483123
1940000000.0 0.22124327836299554 0.2064279857499952
1960000000.0 -0.30729601464926276 0.06579839439289067
1980000000.0 -0.10937721678167987 -0.2977279171422332
2000000000.0 0.2900826017600631 -0.11712150272675678
2020000000.0 0.2921916899362514 0.1187672319831551
2040000000.0 0.2019013381012645 0.2399169326207401
2060000000.0 0.03403234440792633 0.30602884855208534
2080000000.0 -0.26691078691421094 0.1499506289847394
2100000000.0 0.2735285240492833 0.14217121081708559
2120000000.0 -0.23343931629356912 0.20327598986427345
2140000000.0 -0.02372169975948144 -0.30002575416568084
2160000000.0 -0.12773287870716832 0.2718424521222651
2180000000.0 0.24340789537051943 0.16014461584688297
2200000000.0 0.2852976240773735 0.005076807684254085
2220000000.0 0.27535747083190637 0.028741276966430394
2240000000.0 0.05709804990275488 0.26770921137492704
2260000000.0 -0.022924900676521354 0.25940939869654506
2280000000.0 -0.2434628060476353 -0.043398592749608035
2300000000.0 0.22832161619436186 0.061990709573790846
2320000000.0 -0.14574625235032748 0.1793862591914852
2340000000.0 0.1454845744637549 -0.16677834558453306
2360000000.0 -0.1700786309603172 0.142871084144005
2380000000.0 0.1578439380826193 -0.16211327467653813
2400000000.0 -0.14492722252889337 0.19865023148979327
2420000000.0 0.18140315822150532 0.2074466055312721
2440000000.0 -0.24931187730747034 -0.16959028178346644
2460000000.0 0.18387522783928476 0.2771817801820401
2480000000.0 0.26442634767790957 -0.25448342528362766
2500000000.0 0.340803567502678 0.22547395270153606
2520000000.0 -0.3347943271531532 0.2920963769935585
2540000000.0 -0.26195275198877255 -0.40252443680240324
2560000000.0 0.48334194845677103 0.1798434052640494
2580000000.0 -0.5137322420943986 0.18518131884171882
2600000000.0 0.3391277063038883 -0.4656297932291401
2620000000.0 0.009126965430155077 0.6003696324508635
2640000000.0 -0.3819984304003412 -0.48669192548507867
2660000000.0 0.6286398311120424 -0.08386825685843367
2680000000.0 -0.027571628117984408 0.645020251710928
2700000000.0 -0.6045860647199783 0.2527610795066871
2720000000.0 -0.6546481644694964 -0.09521125940352876
2740000000.0 -0.5835534754772406 -0.31918329332050266
2760000000.0 -0.5314406942429054 -0.4016083695385586
2780000000.0 0.4394727996599666 -0.49455830598454636
2800000000.0 0.5978054419720825 -0.2646826072163587
2820000000.0 0.5964120844511708 0.2409809706394435
2840000000.0 -0.2640466191013826 0.5728908122592584
2860000000.0 -0.08116174411157845 -0.6123438514972935
2880000000.0 0.012293739949309273 0.6013001467583462
2900000000.0 0.47507508891006106 -0.34370007154265664
2920000000.0 -0.5016501723211417 -0.2630565481923524
2940000000.0 -0.3617095743806311 0.39883467437220876
2960000000.0 -0.04023010365144198 0.5159858658650002
2980000000.0 0.4662768515021802 0.17192085111163227
3000000000.0 0.012253070500821375 -0.4703681589489863
3020000000.0 -0.444834677718825 -0.02826894068981545
3040000000.0 0.39324752687011905 0.14809289622241814
3060000000.0 -0.20663799744161426 -0.3324470525938988
3080000000.0 0.04542189291680736 0.3642727790502477
3100000000.0 -0.2005683144060611 -0.2896311877917577
3120000000.0 -0.33698893266543667 0.004616508772357503
3140000000.0 0.2714483782128792 0.18666633145786884
3160000000.0 -0.1953267668646502 -0.26447265896107386
3180000000.0 0.14983251275890339 0.29063691316831364
3200000000.0 -0.04141393364013187 -0.3193099470104755
3220000000.0 -0.30400929489501766 0.06658811690051755
3240000000.0 -0.26240113970338064 0.1392329927637339
3260000000.0 -0.2634013062446359 -0.09029494319336724
3280000000.0 0.006241391728715136 -0.26530870664268175
3300000000.0 0.24356170578202463 0.039641358486816804
3320000000.0 -0.15338451346755747 0.16720399234383257
3340000000.0 -0.20182860848263015 -0.04596434998689609
3360000000.0 0.08589612971189949 -0.1546185703956239
3380000000.0 -0.13518726721931354 -0.06994705295387568
3400000000.0 -0.037202337640518585 0.12067175490874864
3420000000.0 -0.06563992018417773 -0.09441647750301224
3440000000.0 0.09205196990719874 -0.052914904423052085
3460000000.0 0.0973669502771751 -0.019858896552790842
3480000000.0 -0.07091411299356898 -0.055716597076450144
3500000000.0 -0.053691632172838476 -0.05768905453048372
3520000000.0 0.012093930992478706 0.0687140759569768
3540000000.0 -0.0682030597764237 0.019030524627394338
3560000000.0 0.05795503226234203 -0.03957236549270727
3580000000.0 0.0739437243323118 0.026495051193767532
3600000000.0 0.0909539564024604 0.0016957286184100067
3620000000.0 -0.0661207890021918 0.07979250760610736
3640000000.0 -0.05858517338460559 0.09147735422169936
3660000000.0 0.06321002676410485 0.09291857459748923
3680000000.0 0.01381454799314835 -0.10568330745472605
3700000000.0 0.09569778767427105 -0.03561815131478454
3720000000.0 0.0919451788712238 0.01126648362064751
3740000000.0 0.03294451814771392 -0.07364834002439664
3760000000.0 -0.03788652737601326 -0.06525194643799331
3780000000.0 -0.06208978875949932 0.011020301982106878
3800000000.0 0.02249276790999941 -0.03990135018111799
3820000000.0 0.015164557377271556 -0.03418496347132243
3840000000.0 0.045994774680164455 0.021311680806875347
3860000000.0 0.011392485124548666 0.07443760202885158
3880000000.0 -0.06318941899533145 -0.06788000858283312
3900000000.0 0.0464535663752358 -0.09234962375404404
3920000000.0 -0.053512893882473815 0.09033701296268502
3940000000.0 0.023825263952630106 0.10279457498991808
3960000000.0 -0.027358718067393782 -0.1021438450835665
3980000000.0 0.09122807626908616 0.029345083991196876
4000000000.0 0.06300533199703964 -0.054734138946680944
