!Created with skrf (http://scikit-rf.org).
# Hz S RI R 50.0 
!freq ReS11 ImS11
400000000.0 0.4554440123139885 0.22904154954808742
420000000.0 -0.38040354744081484 0.11235841924084905
440000000.0 0.27245499156407493 -0.1836622253591564
460000000.0 0.2739837160004968 -0.02545527948874412
480000000.0 0.09967436717297458 0.15020814579657707
500000000.0 0.03721341826683823 -0.1290834280676339
520000000.0 -0.11508604676550215 -0.11137265600262096
540000000.0 0.21604357748284098 0.023707231864070522
560000000.0 0.0817963212774206 0.2708467520845389
580000000.0 -0.283761406039585 0.16447000332233305
600000000.0 -0.008080178790520844 -0.31442527032555156
620000000.0 -0.08255548848485457 -0.27768075427556976
640000000.0 0.1813605904652878 -0.20803985763179392
660000000.0 -0.28739927418102956 -0.016232817316094418
680000000.0 -0.2952652669682687 -0.05994638261135657
700000000.0 0.04604918828177123 -0.25355883599322254
720000000.0 -0.2206669405708012 -0.07501932391887708
740000000.0 -0.2105054418710293 0.029639467538602693
760000000.0 0.0778101795023402 0.18248910925948142
780000000.0 -0.13492474679271685 0.10794762019513464
800000000.0 -0.16127312039976155 0.04391615289264556
820000000.0 0.08357043158650182 0.13486070016881405
840000000.0 0.11733983039835554 -0.04212898007137563
860000000.0 0.10001749260878638 -0.002625261581633869
880000000.0 0.03720609814791394 -0.10065241663974672
900000000.0 -0.1129012296804489 0.014112811896172991
920000000.0 -0.07762649354903414 0.05973250415155484
940000000.0 0.09285428831372951 -0.05588070452920668
960000000.0 -0.03906642308953194 -0.09168543720922158
980000000.0 -0.0041049843706822365 0.11229992145811869
1000000000.0 0.029599199912974987 0.12971354504943652
1020000000.0 -0.11078611720525137 -0.06832821730859504
1040000000.0 -0.15398175585257973 0.0339311108489279
1060000000.0 0.15999981678708364 0.03336633930035514
1080000000.0 -0.025684033753769903 0.19137801350734726
1100000000.0 -0.1757144570074273 0.14963442299792754
1120000000.0 0.06940661556520512 0.24278014910980852
1140000000.0 0.06290148053136697 0.26415560296733254
1160000000.0 -0.1267955066065426 0.25185349218057484
1180000000.0 -0.2543402818015283 0.12238895754500223
1200000000.0 -0.14549508598309682 -0.24060952146320685
1220000000.0 -0.16688818087508456 -0.22524997822772316
1240000000.0 -0.25884131565776525 -0.0636095673987552
1260000000.0 -0.19204176041968615 0.17082004925778246
1280000000.0 -0.2309657119969348 0.02315765509164191
1300000000.0 0.05174740617851597 0.2156518972201174
1320000000.0 0.08456870875641766 0.19990615513150142
1340000000.0 0.05650241901932438 -0.20941640891878027
1360000000.0 -0.20203897124672973 -0.06966269294499967
1380000000.0 -0.18539508689040365 -0.09836229855572053
1400000000.0 -0.183876584426005 -0.07619395915943672
1420000000.0 -0.004923569388450316 0.1890109331002435
1440000000.0 0.17591579293043266 -0.04945151692693316
1460000000.0 0.12480344923936793 0.13012913925169295
1480000000.0 -0.18140197368877337 -0.018913232549711858
1500000000.0 0.09299247966351125 0.14144445959606328
1520000000.0 -0.07303926867718223 0.14533880921389972
1540000000.0 0.15237233343829457 -0.03391893586400692
1560000000.0 -0.023606380009954284 0.14631731443105275
1580000000.0 0.14662966257876228 0.02860400895670224
1600000000.0 0.10227694178656711 0.10563554844517248
1620000000.0 -0.10979097021860906 0.08894232441009664
1640000000.0 -0.13612851256629874 -0.028331825618416566
1660000000.0 -0.0883016083052732 -0.1101995388650462
1680000000.0 0.07286698034287784 0.12085313142167783
1700000000.0 0.09984824178662668 0.10827817740226345
1720000000.0 0.16057000133110022 0.010151461648491195
1740000000.0 0.03404252611052825 0.16502075987736214
1760000000.0 0.14062205832759092 -0.12688329273045906
1780000000.0 0.01047910581772542 0.20611495969341923
1800000000.0 -0.042958395299842585 -0.21739176743930544
1820000000.0 0.01737865036590277 0.22826628554896528
1840000000.0 0.14598072698739722 -0.1814217335605695
1860000000.0 -0.12564264755584134 -0.18678993213444245
1880000000.0 -0.02896033592095302 -0.21268355748903345
1900000000.0 -0.02101264414060298 -0.20742913261643203
1920000000.0 -0.18427109080968712 0.07194638888446901
1940000000.0 0.04447151158170781 0.17778812090177712
1960000000.0 0.06939788384370589 -0.1532549429218521
1980000000.0 -0.05489024298231725 0.14150622949681982
2000000000.0 -0.1376296997377291 -0.008092271617720803
2020000000.0 -0.035357840823375904 -0.1161364378713476
2040000000.0 0.09980777718178777 0.03895839767230113
2060000000.0 -0.04123442991496286 0.09105177074286477
2080000000.0 0.005507008889374751 0.09280263247538936
2100000000.0 0.0040064440827860155 0.09033734442507847
2120000000.0 0.0877559417469097 -0.016475445545285843
2140000000.0 0.04862400132181891 0.06955500641276868
2160000000.0 -0.07740137307875512 -0.035430484982497665
2180000000.0 0.06922287318308644 -0.04174558897337048
2200000000.0 0.047512984829362254 -0.06153156042694924
2220000000.0 -0.06028341051924151 -0.045143870305297824
2240000000.0 0.021101780236012845 0.06781274624796771
2260000000.0 -0.06214369107347278 -0.03413003876329614
2280000000.0 -0.06611636844944775 0.032450939972878325
2300000000.0 0.08160253207309816 -0.015093990714713026
2320000000.0 -0.0085572776684048 -0.09211481174945428
2340000000.0 0.10248035238643194 0.008803170637694714
2360000000.0 0.09998116856811341 -0.03624187724739398
2380000000.0 0.055018864221672126 -0.09442873126847141
2400000000.0 -0.060154804776036075 0.0926553509988843
2420000000.0 -0.11090244784126001 -0.024563113332144847
2440000000.0 -0.10313548906731225 0.04923527600799712
2460000000.0 -0.004623441948677087 0.12173201105060916
2480000000.0 -0.09973242589307528 -0.08287639668034413
2500000000.0 -0.13493813397787627 -0.023586907023344487
2520000000.0 -0.1475206110652126 0.0053418959394910745
2540000000.0 -0.16132712523810397 -0.02110333318722982
2560000000.0 -0.12000675159355358 -0.12690702183105307
2580000000.0 0.09092968833592942 0.16121169018880735
2600000000.0 -0.10115736555875167 -0.16439075996172067
2620000000.0 -0.046016840080152735 0.18926329248453366
2640000000.0 0.1535728622838485 0.11951311370926275
2660000000.0 0.0713906798647638 -0.17672353829854076
2680000000.0 -0.18129840809395537 -0.016261386718620575
2700000000.0 0.06968362539759795 0.15630887322484086
2720000000.0 0.02340084870699186 -0.1580356415523608
2740000000.0 -0.14738117238916118 0.0025124540589001984
2760000000.0 0.13620858267082664 -0.03209470638098053
2780000000.0 0.017778552109584084 0.1337708565662661
2800000000.0 -0.0559011016162557 0.11887390485234949
2820000000.0 0.12815595121553103 0.014916740764486573
2840000000.0 -0.05803665728089549 -0.11478352805567632
2860000000.0 -0.1262273828246808 -0.03520810554457389
2880000000.0 0.042804838399404486 -0.12973207186623492
2900000000.0 0.06457938321715155 0.13170278762410473
2920000000.0 -0.05955436985144774 -0.14212459755834675
2940000000.0 -0.06423457203836448 0.1503809764544797
2960000000.0 0.17145552401399622 -0.017323331716634804
2980000000.0 -0.06504384646547849 -0.16576481731833392
3000000000.0 -0.1025610068723131 0.15409187330780516
3020000000.0 0.16421035087678207 -0.0991171535587481
3040000000.0 -0.16424452593586975 0.1075545720516101
3060000000.0 -0.04040818070196682 -0.19545531026384733
3080000000.0 0.1644653058230013 -0.11605316337327785
3100000000.0 0.11611672057987056 -0.16156818721457225
3120000000.0 -0.18620982325514432 -0.05846255290505738
3140000000.0 0.11254251794779291 0.15344563687161009
3160000000.0 -0.09260226303286284 -0.16225667871942187
3180000000.0 0.1844928049226577 0.016786910181665903
3200000000.0 -0.17985313413989373 -0.04643138223708734
3220000000.0 0.12398765343574229 -0.14169076415860815
3240000000.0 -0.10953401176049306 0.16010675454488035
3260000000.0 0.19761987962743946 -0.006696179564561302
3280000000.0 0.16091031439885242 -0.12187254704591419
3300000000.0 0.19691157349266322 -0.06379303129061008
3320000000.0 0.1486658953000677 0.1498220338155587
3340000000.0 -0.2111540557043124 0.038700142196130174
3360000000.0 0.15658878928738515 -0.14887976273685533
3380000000.0 -0.15133810426666558 0.15347641916817611
3400000000.0 0.15593952726943486 -0.14366276163530625
3420000000.0 -0.172372567489068 0.11236843931777081
3440000000.0 0.1977157410708267 -0.003295804222926531
3460000000.0 0.012995861361439952 -0.19036236094335823
3480000000.0 -0.18277966109212895 0.01169845616515533
3500000000.0 0.12454452543930579 0.1252267754248249
3520000000.0 -0.0032996338702731293 -0.1688065464598549
3540000000.0 0.08016439649345695 0.13835193092356773
3560000000.0 -0.13966988723113752 0.062490912742594044
3580000000.0 -0.13371994460941813 -0.06402249019716753
3600000000.0 -0.14362914137481472 -0.01340158714121503
3620000000.0 -0.13786650067730608 0.03877958274268981
3640000000.0 0.10018652521161457 0.10476939255588452
3660000000.0 -0.10140416895752488 -0.11394444081052445
3680000000.0 0.06587810448651302 0.15113055348862625
3700000000.0 0.15902505901708694 -0.08846973717381233
3720000000.0 0.1314066797739007 -0.15254530341569322
3740000000.0 0.21972775412516185 0.02781019412288694
3760000000.0 0.2275153095327269 0.08643691207073943
3780000000.0 0.03160268338062119 0.2602882546484673
3800000000.0 -0.2617964987520297 -0.08754074054340308
3820000000.0 0.2841360087028173 -0.007438486822872107
3840000000.0 -0.2863094122943885 0.011736149303878207
3860000000.0 0.28405428998709603 -0.00908877350322567
3880000000.0 -0.27326740298678376 -0.04777774113575845
3900000000.0 0.26155761413110784 0.05228337652845469
3920000000.0 -0.24667052850070934 0.029646982953278094
3940000000.0 0.12369384167617163 -0.18896087381054086
3960000000.0 0.19883967308457967 -0.01126140419149531
3980000000.0 0.12893079351810893 -0.11542518904676445
4000000000.0 -0.02096948701126558 0.14447028372784748
