!Created with skrf (http://scikit-rf.org).
# Hz S RI R 50.0 
!freq ReS11 ImS11
400000000.0 0.46849209371595596 0.19786835903045322
420000000.0 -0.37515679014533765 0.1242350056318808
440000000.0 0.30008482805762676 -0.13357398845193502
460000000.0 0.27482553579503594 0.01418839021998576
480000000.0 0.12954778199483966 0.12562091806617495
500000000.0 0.04026334370673034 -0.12806374351878805
520000000.0 -0.13487835189127345 -0.08668065257786935
540000000.0 0.2161379942771477 -0.025566162374481553
560000000.0 0.08963436642435478 0.2682695760441945
580000000.0 -0.26013687481480646 0.20005268345531274
600000000.0 0.03306223698036183 -0.31102833632600035
620000000.0 -0.014225029329500965 -0.28867844356637407
640000000.0 0.21243015603223547 -0.18083357978734094
660000000.0 -0.18897375895321544 0.21919114781223026
680000000.0 -0.2650312054944968 0.13939570867086684
700000000.0 0.12747232175421586 -0.22257188749584517
720000000.0 -0.17315926549626162 -0.15506300590393526
740000000.0 -0.21093201064685277 -0.03446134585303565
760000000.0 0.1133439837360826 0.1650439114570359
780000000.0 -0.14039094990086862 0.10065292679870515
800000000.0 -0.1297243278655369 0.10636051275088977
820000000.0 0.11956836042958276 0.10063436534932617
840000000.0 0.12267883705032039 -0.021511432069160962
860000000.0 0.10037062201035149 0.005366434117232804
880000000.0 0.043758962757382266 -0.09858269777822834
900000000.0 -0.1141990443039295 -0.011142336879596886
920000000.0 0.02919860325522414 0.0936492982016252
940000000.0 0.10115142400241488 -0.040091133284703914
960000000.0 -0.02190906543011941 -0.09680176685367084
980000000.0 -0.029346837369698568 0.10916642876915295
1000000000.0 -0.008858678422395017 0.1332445351946674
1020000000.0 -0.11617374251026812 -0.058233244550356604
1040000000.0 -0.1266909288968437 0.09233279761965202
1060000000.0 0.16079402523242015 -0.022636547784798747
1080000000.0 4.106278704148332e-05 0.1936199924064275
1100000000.0 -0.18170396209958192 0.1442381022105614
1120000000.0 0.12332155255101072 0.22177128975571034
1140000000.0 0.08903690722915088 0.25636987781219317
1160000000.0 -0.15534913465561814 0.23495632000571592
1180000000.0 -0.27885733235405935 0.04020140076906121
1200000000.0 -0.1391513838664942 -0.2442716682246765
1220000000.0 -0.15227877899723136 -0.23570083669030545
1240000000.0 -0.2660764688322968 -0.020615859013221403
1260000000.0 -0.18529532940617097 0.17552661728713867
1280000000.0 -0.23150877652084836 0.012812564762033955
1300000000.0 0.03449518884479981 0.21930052133556488
1320000000.0 0.09753806545409159 0.19404653143405265
1340000000.0 0.07768399958433972 -0.20304846776382734
1360000000.0 -0.2048016063724288 -0.06281390304099219
1380000000.0 -0.18407343462674447 -0.10131898951056655
1400000000.0 -0.190869965205914 -0.05781296702267599
1420000000.0 -0.05043560020258293 0.18300091530275928
1440000000.0 0.1794265042024994 -0.03492446233198265
1460000000.0 0.12863039560203993 0.1257748850421361
1480000000.0 -0.1785295791918819 -0.03142196364856922
1500000000.0 0.10214040935322671 0.1350871672219975
1520000000.0 -0.04501568041641224 0.15683918657217222
1540000000.0 0.15383783401325307 -0.02423229700364351
1560000000.0 -0.035506759285526726 0.14403809099892337
1580000000.0 0.14950330999981498 -0.0075683337827578195
1600000000.0 0.11836543164541294 0.08641634699242477
1620000000.0 -0.10806812343869052 0.09033093562652396
1640000000.0 -0.11993123536327732 -0.06979709096539839
1660000000.0 -0.09705668641953208 -0.10386144609076015
1680000000.0 0.11323269872023822 0.08513293371533089
1700000000.0 0.0889834429185781 0.11663690181931322
1720000000.0 0.1587453199843593 0.023017533066940505
1740000000.0 0.007384428719686871 0.1678850613519857
1760000000.0 0.16317331432778456 -0.09722814891986058
1780000000.0 0.035965326519708136 0.20256573685045953
1800000000.0 -0.05667559830299689 -0.2131538537413763
1820000000.0 0.009357638306754653 0.2283023744828953
1840000000.0 0.11473864369255912 -0.20243138933313004
1860000000.0 -0.13787464337419414 -0.1780745433782683
1880000000.0 -0.0424185454366826 -0.21131256341521099
1900000000.0 -0.04672646764448028 -0.20354340406482269
1920000000.0 -0.18693932572993904 0.06708507502538584
1940000000.0 0.08220371859188111 0.1636195991859981
1960000000.0 0.08208862173687348 -0.14674203635491728
1980000000.0 -0.08404905957847775 0.1269032993616652
2000000000.0 -0.13753871138493468 -0.013860647069867622
2020000000.0 -0.021417586300332376 -0.11969935196883265
2040000000.0 0.08860209517937871 0.06044832420499232
2060000000.0 -0.020749642387303036 0.09624548663020042
2080000000.0 0.006428654032669822 0.09197646441069213
2100000000.0 0.02809544047337312 0.0855302414209435
2120000000.0 0.07334877105072618 -0.050716541278426265
2140000000.0 0.08467342598085491 -0.007894485250964612
2160000000.0 -0.08391782850266159 0.013434474579299157
2180000000.0 0.05647743603349658 -0.05912497645557421
2200000000.0 0.02393011035540777 -0.07461209537152702
2220000000.0 -0.06717776277874304 -0.034997982112165794
2240000000.0 0.014249481073223932 0.06989666251462649
2260000000.0 -0.056519506725478626 -0.042113747832147976
2280000000.0 -0.07221083742828957 0.016076962745191548
2300000000.0 0.07766278077930368 -0.030440679190180755
2320000000.0 0.005593575193301107 -0.09359512329368613
2340000000.0 0.10198176958458534 0.017101689986206346
2360000000.0 0.10555767696398473 0.014639510867936021
2380000000.0 0.07573102972698466 -0.0792965734007421
2400000000.0 -0.08398025450477159 0.07123989757880309
2420000000.0 -0.11083028208086962 -0.022099838978837404
2440000000.0 -0.09042557989444976 0.06939579954898333
2460000000.0 0.007432887194614938 0.1216027563491876
2480000000.0 -0.10370831779722353 -0.0781395569407284
2500000000.0 -0.12846663654695 -0.04541819437773706
2520000000.0 -0.14687158361113467 0.012712967553188374
2540000000.0 -0.1628403407310188 0.008437916413782755
2560000000.0 -0.1133829546729972 -0.1333549135591515
2580000000.0 0.0596658896636795 0.17587324176636782
2600000000.0 -0.08145595001987058 -0.17535291011519757
2620000000.0 -0.0843464224238579 0.17587489694142874
2640000000.0 0.13670550653485186 0.13815375137846658
2660000000.0 0.08492893004348569 -0.17014292497901334
2680000000.0 -0.17612096058380372 -0.043076268711854535
2700000000.0 0.055460614836177924 0.1613229468638725
2720000000.0 -0.0037097507213754116 -0.15923323492395422
2740000000.0 -0.12870092385362542 0.07068662871128796
2760000000.0 0.1129370550034185 -0.08341632073884761
2780000000.0 0.02730845726265823 0.1325874982158886
2800000000.0 -0.06065026588773894 0.11696578993626781
2820000000.0 0.12794749764886346 0.019910451183203174
2840000000.0 -0.08802890103260734 -0.0951767812734207
2860000000.0 -0.12693899775315148 -0.03572873838245069
2880000000.0 0.06325475275039404 -0.12189899969530602
2900000000.0 0.05122018570349306 0.13770270563573592
2920000000.0 -0.04279804816876584 -0.14820897251423526
2940000000.0 -0.08907220823262718 0.13711468094481638
2960000000.0 0.17168467836572052 0.001751592241182114
2980000000.0 -0.05034779577178205 -0.1706681165527468
3000000000.0 -0.11774133079141672 0.14222516046025319
3020000000.0 0.177560678650801 -0.07241886129924478
3040000000.0 -0.1661011775137343 0.10416420466758503
3060000000.0 -0.031066379459199045 -0.19720614201689673
3080000000.0 0.14778243115207643 -0.13631482809090356
3100000000.0 0.10397531645132001 -0.169382563870351
3120000000.0 -0.14963573366083277 -0.12610770010331848
3140000000.0 0.08956233690341799 0.16797448900251735
3160000000.0 -0.06864108047937384 -0.17330211350552993
3180000000.0 0.17934377382153585 -0.04871196662356574
3200000000.0 -0.18286248764117946 -0.03519494430234002
3220000000.0 0.14462816692334635 -0.12063841191407414
3240000000.0 -0.14060694033906412 0.133294998809396
3260000000.0 0.19651543341315317 0.0188688785962419
3280000000.0 0.17168372331192686 -0.10608343253620627
3300000000.0 0.2004631528497843 -0.04902818795103674
3320000000.0 0.15528611780936424 0.14162900519328356
3340000000.0 -0.21038663467200303 0.03696282828541579
3360000000.0 0.16042263258998404 -0.14390553983133203
3380000000.0 -0.12759098547563505 0.17232993534103724
3400000000.0 0.15218078242819918 -0.1476479052711446
3420000000.0 -0.14292149691805442 0.14753272416704127
3440000000.0 0.19285442298770059 -0.04405215480290984
3460000000.0 -0.0057799262746032285 -0.19108760390944782
3480000000.0 -0.1827604953743559 0.012064622340122394
3500000000.0 0.11643504613700778 0.13312222904829252
3520000000.0 -0.03299291526397218 -0.1660133053369318
3540000000.0 0.10570648744786706 0.12079709437066365
3560000000.0 -0.1419718771438009 0.05759643319679447
3580000000.0 -0.11964672608976669 -0.08681841157322194
3600000000.0 -0.14370130288430263 -0.015611621107099991
3620000000.0 -0.14123491182503703 0.019801288405591144
3640000000.0 0.10127407517153407 0.1030139271201902
3660000000.0 -0.08863984984046279 -0.12428832604446968
3680000000.0 0.039769541183724305 0.16005513526118176
3700000000.0 0.1616682445887945 -0.08261753082865839
3720000000.0 0.14596130958724082 -0.13817654393367296
3740000000.0 0.22051679177265876 -0.017954391767518434
3760000000.0 0.23757029510492064 0.050694504053621046
3780000000.0 0.08805118108913906 0.24665073310922414
3800000000.0 -0.2719546079809994 -0.048036197120951
3820000000.0 0.25505804176628705 -0.1234768102956306
3840000000.0 -0.2573544196814331 0.12673303971383043
3860000000.0 0.26954610190222683 -0.09051434807330955
3880000000.0 -0.2773425943978622 0.015656181360812572
3900000000.0 0.2665857714576829 0.026711237271112805
3920000000.0 -0.23687971013667922 0.07783837637240996
3940000000.0 0.053908106607773655 -0.22105497031584234
3960000000.0 0.19859113531466988 -0.02265161555309587
3980000000.0 0.1060604897162503 -0.13781513939115095
4000000000.0 0.03287988327592965 0.14336758042033299
