!Created with skrf (http://scikit-rf.org).
# Hz S RI R 50.0 
!freq ReS11 ImS11
400000000.0 0.42237240840837187 0.2876003022055708
420000000.0 -0.383781842338196 0.1057818469826942
440000000.0 0.2775323737145622 -0.1749032583743315
460000000.0 0.2690988088607134 -0.05566541465536758
480000000.0 0.11039112478687628 0.1422859462184964
500000000.0 0.043318483604056116 -0.12642334344099285
520000000.0 -0.0033238686540363683 -0.15993952955398963
540000000.0 0.20471029252026904 0.07336757670386901
560000000.0 0.06127338790009398 0.2764617423377889
580000000.0 -0.2444681192363545 0.2174466792316072
600000000.0 0.09836364428610582 -0.30031443713440426
620000000.0 -0.14620296657540913 -0.2513962206138338
640000000.0 0.09005082046724301 -0.2574721922169385
660000000.0 -0.267646149990846 -0.10247732476564317
680000000.0 -0.23001849036777913 -0.1964748412882301
700000000.0 0.02747830888750871 -0.25674437554649027
720000000.0 -0.22057910268113975 -0.0724709278074359
740000000.0 -0.2098738698598404 0.03758095810078311
760000000.0 0.11505160948194572 0.16226775077850727
780000000.0 -0.093053059426551 0.14561033374259902
800000000.0 -0.16506411103372934 -0.01843797193853173
820000000.0 -0.04616231822548495 0.15220043136416467
840000000.0 0.12130036639809284 -0.032895721144911634
860000000.0 0.09452288699480842 -0.03567944050802867
880000000.0 -0.018596992319940005 -0.1064369295795971
900000000.0 -0.11221600831226924 -0.021322575518626624
920000000.0 -0.013884832059771476 0.09650984370742757
940000000.0 0.09545736831360557 -0.05042322183772836
960000000.0 0.015277221128870078 -0.09914814375108551
980000000.0 -0.0195546542125445 0.11212050582312241
1000000000.0 0.009248257767969347 0.1327965223382185
1020000000.0 -0.07908557909111384 -0.10254890986727853
1040000000.0 -0.15408244684895306 0.0319019366948512
1060000000.0 0.16262426625381307 0.01569914136284165
1080000000.0 0.04415962809583486 0.18783202902027998
1100000000.0 -0.13919629016852875 0.18384817302306058
1120000000.0 0.06441150635995188 0.24402166150716692
1140000000.0 0.058272640327452975 0.2650332525119182
1160000000.0 -0.1505530964645926 0.23892530455090052
1180000000.0 -0.24299515226058976 0.14468403410364106
1200000000.0 -0.14433983902583464 -0.24127428382962454
1220000000.0 -0.1619975188447153 -0.22924453626749597
1240000000.0 -0.2602773296816553 -0.0576113367265146
1260000000.0 -0.21419406847571384 0.14009842314465626
1280000000.0 -0.2309983465185639 -0.02134463217683167
1300000000.0 0.06664847989494894 0.21111619371544413
1320000000.0 0.09633854232066992 0.19431313793562374
1340000000.0 0.05044052318818913 -0.21117464017502371
1360000000.0 -0.20835960385733535 -0.04636476251872434
1380000000.0 -0.1909838965856044 -0.08792934792083285
1400000000.0 -0.1931199458612144 -0.047967036754092994
1420000000.0 0.029376731416729678 0.18725852920530536
1440000000.0 0.1725356964221749 -0.0600425092454434
1460000000.0 0.1411400316063107 0.11362673318300186
1480000000.0 -0.18193420689451356 -0.021492233439694097
1500000000.0 0.10967497920218304 0.1287881741365378
1520000000.0 -0.06767994356182383 0.1483900777682785
1540000000.0 0.1541279029423249 -0.03015637580606411
1560000000.0 -0.018719091648451827 0.14732612633140585
1580000000.0 0.14822890998152888 0.018457292729115695
1600000000.0 0.081306481433103 0.12228651392296415
1620000000.0 -0.12935258219431994 0.056972433156090865
1640000000.0 -0.13553099373230332 -0.0337817947365117
1660000000.0 -0.08726658618610912 -0.11070974295027916
1680000000.0 0.0727262281204435 0.12044155112100355
1700000000.0 0.06905779460292859 0.12972285840246672
1720000000.0 0.1559798913912394 0.03766955661015463
1740000000.0 0.04232519575195419 0.1626298045806586
1760000000.0 0.12618937989525617 -0.1402665553960762
1780000000.0 0.040725267072629155 0.20157882150680617
1800000000.0 -0.07308730802112219 -0.20897265854779595
1820000000.0 0.060157351456963375 0.2208239000136648
1840000000.0 0.10171079181627592 -0.20925909384106878
1860000000.0 -0.15227183030052294 -0.16638823288213106
1880000000.0 -0.026484805152423373 -0.2137421766157645
1900000000.0 -0.019492672691673 -0.20838732960495582
1920000000.0 -0.18515038680693147 0.07177565307862593
1940000000.0 0.03300218351730687 0.1805030158748001
1960000000.0 0.11048768012273416 -0.12658265933135293
1980000000.0 -0.07984414983167147 0.1291607137767373
2000000000.0 -0.13397437299264517 -0.03304173298054482
2020000000.0 -0.04390684275624625 -0.11328179346351383
2040000000.0 0.08078436768962861 0.07034079906117999
2060000000.0 -0.047327188896989995 0.08720254614692102
2080000000.0 0.024916143122914965 0.0884017662791714
2100000000.0 0.026868131748193125 0.08568615219692385
2120000000.0 0.07217686275437467 -0.052736570295370794
2140000000.0 0.07735728752885362 0.034828813379903976
2160000000.0 -0.08473276304483095 -0.009736463009845308
2180000000.0 0.05817905359383375 -0.057010306518079853
2200000000.0 0.021666109743459023 -0.07564382294373487
2220000000.0 -0.0651109153118646 -0.03852621779040402
2240000000.0 0.0335836549787702 0.06277636926261627
2260000000.0 -0.06360020189883946 -0.030363023238493422
2280000000.0 -0.07186720473068563 0.018555749073439688
2300000000.0 0.08300082935293043 -0.011364121066236202
2320000000.0 -0.001806078754107669 -0.09359650512119867
2340000000.0 0.0997415631364885 0.02657627457098097
2360000000.0 0.10605541983558547 0.008414353897814256
2380000000.0 0.07449649552747255 -0.07945278094804499
2400000000.0 -0.08204180534186654 0.07361342220992785
2420000000.0 -0.10598684588360262 -0.03989262652129468
2440000000.0 -0.09588447654717766 0.0610853319939498
2460000000.0 0.011298169936880485 0.12057699981909488
2480000000.0 -0.10456554819596206 -0.07580658605067124
2500000000.0 -0.13619358364758571 -0.00810838794162313
2520000000.0 -0.14366211259384193 0.03576722020034853
2540000000.0 -0.16234195203426044 0.01732823157739181
2560000000.0 -0.1209371388138507 -0.12693937526067764
2580000000.0 0.07021783432882195 0.17162127860322302
2600000000.0 -0.10135494182265056 -0.16535365953702705
2620000000.0 -0.08386987382188 0.17564699105909903
2640000000.0 0.12554606429969303 0.14847367314581367
2660000000.0 0.10297338418887236 -0.15965136236026564
2680000000.0 -0.1739018462199005 -0.04968968772851599
2700000000.0 0.05402435664054196 0.1619450328151024
2720000000.0 0.00672317336438532 -0.1590537312603175
2740000000.0 -0.14183383803244404 0.037385450762868824
2760000000.0 0.12034002747666579 -0.07045941759955811
2780000000.0 0.046580481920956 0.12634142376986834
2800000000.0 -0.038755698302393254 0.1255850941261658
2820000000.0 0.12974783658872932 0.003956380108562362
2840000000.0 -0.09242328792319304 -0.09123413573647429
2860000000.0 -0.12837728110015503 -0.03067129184909679
2880000000.0 0.049092162600470814 -0.12826955308493582
2900000000.0 0.061968094910459494 0.13322192868907537
2920000000.0 -0.03951525302836318 -0.14967922568782427
2940000000.0 -0.09354809089985439 0.13450919485584154
2960000000.0 0.17188000877117068 -0.0029707317009051533
2980000000.0 -0.051845557714415666 -0.1702704660484512
3000000000.0 -0.11772871004289696 0.1424715513785238
3020000000.0 0.18822240757617903 -0.03797080274443511
3040000000.0 -0.1861455970249586 0.061641310488100676
3060000000.0 -0.0458355902141058 -0.19358753690580943
3080000000.0 0.14075045376999437 -0.14345571240471747
3100000000.0 0.10820440647730852 -0.16622033749325632
3120000000.0 -0.1703963209306456 -0.09408409102212702
3140000000.0 0.10800407727873386 0.15660672661636316
3160000000.0 -0.09813198814369024 -0.15836971159159668
3180000000.0 0.17282511556417582 -0.0674721002466386
3200000000.0 -0.18526085551850333 -0.014074848011221287
3220000000.0 0.08975577633483986 -0.16537333239975868
3240000000.0 -0.11587528368216088 0.15441184382267503
3260000000.0 0.19780865525471214 -0.004566496299428307
3280000000.0 0.15848224022267346 -0.12530228400535495
3300000000.0 0.1980313956995138 -0.06131627301542043
3320000000.0 0.15057889880284792 0.1482202909061702
3340000000.0 -0.2114994677282099 0.03496658940669415
3360000000.0 0.13976049949121888 -0.1632779727735032
3380000000.0 -0.13633213673620853 0.16637023773927226
3400000000.0 0.13071220447822324 -0.1665830494663393
3420000000.0 -0.1456848967715202 0.14493361963260867
3440000000.0 0.19390162283154797 -0.03758241865375874
3460000000.0 0.012645933051716504 -0.19045008194990004
3480000000.0 -0.17652433722404912 0.04777754469811818
3500000000.0 0.15432195632811135 0.08515808532262102
3520000000.0 -0.09832412593227104 -0.13736747665414942
3540000000.0 0.13492392377071438 0.08822867736386249
3560000000.0 -0.12462849796941516 0.08911821313337734
3580000000.0 -0.12495225311525318 -0.07865725347513806
3600000000.0 -0.14504637638916618 0.012008745951887195
3620000000.0 -0.1387688001301273 0.037253230413859376
3640000000.0 0.08626487531440238 0.11786153896481565
3660000000.0 -0.06556406250562626 -0.13895330601966874
3680000000.0 -0.0035861556602458243 0.16563504453783884
3700000000.0 0.18109606611992238 -0.014090612681258455
3720000000.0 0.17943414420611142 -0.08963706734828221
3740000000.0 0.21221302946192197 0.05940651233574143
3760000000.0 0.22788527284730897 0.08145178793972732
3780000000.0 0.08606335368862757 0.24635320325256088
3800000000.0 -0.26947020496436336 -0.052276330607368
3820000000.0 0.2754294941328599 -0.06441717988014195
3840000000.0 -0.27485703222616265 0.07838217026502747
3860000000.0 0.24469217528348056 -0.1444666483667889
3880000000.0 -0.2642146659886674 0.08664238379175765
3900000000.0 0.26675253523870135 -0.013883869363662595
3920000000.0 -0.2343577942812204 0.08327401066071198
3940000000.0 0.09889789094857004 -0.2038578619027449
3960000000.0 0.19731474620241074 -0.033068936040538746
3980000000.0 0.13345821290209703 -0.11133995869843664
4000000000.0 -0.0527608953899815 0.13592087817970566
