!Created with skrf (http://scikit-rf.org).
# Hz S RI R 50.0 
!freq ReS11 ImS11
400000000.0 0.1640507964768926 0.8024195875918888
420000000.0 -0.19261407702968614 -0.7061591136134695
440000000.0 0.6860901374767234 0.18284865428696057
460000000.0 -0.5699092004901289 0.29651874415091484
480000000.0 0.3504799045367208 -0.4168708522625176
500000000.0 0.1596970596446275 -0.5147554338731956
520000000.0 -0.4358457060813417 -0.22442714583760134
540000000.0 -0.1449703307999963 -0.40675286265790567
560000000.0 0.11565653987949719 0.38596500513834364
580000000.0 -0.18470766469001385 -0.35521975976495856
600000000.0 -0.4101196824191634 0.049932403840705644
620000000.0 -0.10508724318327077 0.38787643149617634
640000000.0 0.30562770749161916 0.25760807852111195
660000000.0 -0.2868512926020259 0.255161399404101
680000000.0 0.33883734665776055 0.1395692569864712
700000000.0 -0.10615507273107053 -0.34660179127030394
720000000.0 -0.07046923936916696 0.3456571012664073
740000000.0 0.3019794159375794 -0.14559924346052097
760000000.0 -0.24342901629961178 0.13174923651571852
780000000.0 0.002854723729364971 0.29449257401439927
800000000.0 -0.22577873971459567 -0.10814388232147892
820000000.0 0.16142918596818298 -0.1839737684837653
840000000.0 -0.16785666937283775 0.1399970291810884
860000000.0 -0.14951105125348133 -0.1402149743099779
880000000.0 0.18817237317491914 0.04603902075784461
900000000.0 0.058731713047684604 0.14803474740563785
920000000.0 0.06337283182182704 0.11064376307826307
940000000.0 -0.10717077708943996 -0.04695145636030208
960000000.0 -0.04315504908793499 -0.04716896642866683
980000000.0 0.056754444506495645 -0.022836897349975037
1000000000.0 0.024683178246032677 0.050663074423339255
1020000000.0 -0.02235494161080632 -0.02641223321326032
1040000000.0 -0.058302937248269654 -0.012073201711242742
1060000000.0 -0.029410914511388775 -0.09797249980919796
1080000000.0 0.005748724007395121 0.12661897346849724
1100000000.0 -0.18009310458017408 -0.0657516476760854
1120000000.0 0.12819897131859176 -0.17547245269361197
1140000000.0 0.05691895667154893 0.236496633817566
1160000000.0 0.27605087318390487 0.010249012522201789
1180000000.0 0.10237737688608602 0.2625936519510427
1200000000.0 0.15135275646453536 -0.2583811724572743
1220000000.0 0.23830194798830695 0.21445355615036155
1240000000.0 -0.1168281306814202 0.32442813477525656
1260000000.0 0.3117170102887703 -0.12558810319242455
1280000000.0 0.23038060408046024 0.25200965750618926
1300000000.0 0.3285453123815282 0.12659556640088973
1320000000.0 0.055479192225434584 0.356266714399633
1340000000.0 -0.0380969058384722 -0.3661046988607215
1360000000.0 0.06784773780886019 -0.3649011601858639
1380000000.0 -0.3617702545829606 0.07036636438241507
1400000000.0 -0.05863866594342133 0.3744079030873711
1420000000.0 0.365806180438797 -0.05177184953628613
1440000000.0 -0.16841960852783472 -0.3374490566693707
1460000000.0 -0.32540993008937497 0.1702738087660531
1480000000.0 0.34227039763754846 0.10978516842461931
1500000000.0 0.2957495318479735 -0.1380363321735408
1520000000.0 -0.12076710837084052 -0.29021178570476075
1540000000.0 -0.19536695125718054 0.20512580252126236
1560000000.0 0.19471865496630889 0.1768108066571782
1580000000.0 -0.19971339487427595 0.09679794837545871
1600000000.0 0.09075940672208692 0.17888182561937796
1620000000.0 -0.13783543852406174 0.09278227505376918
1640000000.0 -0.1372270855868249 0.027187932267256423
1660000000.0 -0.015347188608839078 -0.11224150286581334
1680000000.0 -0.09685376243490906 -0.02357754606047099
1700000000.0 0.06669735494942387 -0.045084737932311325
1720000000.0 0.06755502026527276 -0.02744753167821706
1740000000.0 -0.05627215780209062 -0.03922804618014567
1760000000.0 -0.024783924637942833 -0.07236103712349867
1780000000.0 0.09019063365925621 -0.06332064807648834
1800000000.0 -0.1104664701477172 -0.08466775771685804
1820000000.0 -0.011843828191623927 -0.1628125415874703
1840000000.0 -0.044152263400577645 -0.2010157130154436
1860000000.0 0.17609898304355082 0.1661487010008387
1880000000.0 0.2661877155965455 0.006367270429883197
1900000000.0 -0.2944318288859569 0.03112461859381164
1920000000.0 0.2929849296691528 0.037138404916231986
1940000000.0 0.18479646001370995 -0.25346639138688615
1960000000.0 -0.29212039618945107 0.11308107541133773
1980000000.0 0.2649868285679903 -0.1868176751224385
2000000000.0 0.2588276624948932 0.18729823066888937
2020000000.0 0.00933644730056022 0.3161596262727528
2040000000.0 -0.02372675689146273 -0.30421875034956536
2060000000.0 0.2554951769936666 -0.18584880899354686
2080000000.0 -0.29331593191797584 -0.12177801604857728
2100000000.0 0.16569985551867325 0.2564501317551935
2120000000.0 -0.030099146742092155 -0.29892358289753745
2140000000.0 0.0032422967180336187 0.29783595140566815
2160000000.0 0.12321781433943647 -0.24534698143991182
2180000000.0 0.015022681030904844 -0.27974868132647857
2200000000.0 -0.26021082821705643 -0.05932096987533198
2220000000.0 -0.029828163119537603 -0.2576815796104877
2240000000.0 -0.07696025759428424 -0.23399941411819491
2260000000.0 0.1921011672222211 -0.1467979700775166
2280000000.0 0.1956818369375847 0.08614673755038663
2300000000.0 -0.18804991983754518 -0.0634068905030667
2320000000.0 0.17840640016982093 0.0610278668141982
2340000000.0 -0.04808352200261295 -0.16707141659381125
2360000000.0 -0.16496109637062234 -0.028968406575658356
2380000000.0 -0.1708092889873666 0.03876812413346475
2400000000.0 -0.09477538897553787 -0.1606763222829004
2420000000.0 -0.15150198793744918 0.1363139880221557
2440000000.0 -0.022811950080522173 -0.22578035361040755
2460000000.0 0.11627266022713471 -0.2222352929515385
2480000000.0 -0.07800279227031495 0.2682601151315532
2500000000.0 0.07780601287025625 0.2993448355467497
2520000000.0 -0.2488528336792866 0.2261857443207362
2540000000.0 -0.2820922267014863 0.23561490269306604
2560000000.0 -0.2179890155508824 -0.3241290522105251
2580000000.0 0.3250813168109223 -0.24466624662180042
2600000000.0 0.1245721114122572 0.40686868111072194
2620000000.0 -0.439031042383119 -0.031204684130943527
2640000000.0 0.09989664009926114 -0.43548991323247677
2660000000.0 0.4467403458162744 0.07220650849191156
2680000000.0 0.1383260146748232 0.4328685630714773
2700000000.0 -0.054387352425211886 0.4531588455251169
2720000000.0 0.049696460609872484 0.4569746547746802
2740000000.0 0.22909705435182778 0.40274816418599746
2760000000.0 0.24381652624187575 0.4004687276792824
2780000000.0 -0.4682324484356265 0.07280934837450315
2800000000.0 -0.43445324267349833 -0.20386960976894872
2820000000.0 0.06112157783189747 -0.48130583089325585
2840000000.0 0.4031152767193079 0.2791182209220784
2860000000.0 -0.4520615614155597 -0.1998618527900131
2880000000.0 0.2595891971958533 0.4238166357823343
2900000000.0 0.22053011062891306 -0.4423943159822059
2920000000.0 -0.47745949931002657 -0.10707621900281475
2940000000.0 -0.11462495234086696 0.46819484220227714
2960000000.0 0.4715540362462071 0.020027300711067876
2980000000.0 -0.05731587559521047 -0.4548144908399461
3000000000.0 -0.37961743470358766 0.22500782246481213
3020000000.0 0.425855419983571 0.022428961674398718
3040000000.0 -0.10488568866286876 -0.3982865050241713
3060000000.0 0.2721206094263127 0.2957261447790603
3080000000.0 -0.2051338040854235 -0.32980066260548896
3100000000.0 -0.37260415392246055 0.06986032563754825
3120000000.0 0.37805869217729166 -0.0028302279948351095
3140000000.0 -0.35256279429109644 -0.13301257772880673
3160000000.0 -0.00825008995018927 0.37633135679611934
3180000000.0 0.3563346572502274 -0.1270606821869335
3200000000.0 0.17779126812894264 -0.32890720678145713
3220000000.0 0.09157935038230243 -0.3574843058598854
3240000000.0 -0.056650015797730685 -0.36366804617222476
3260000000.0 0.16547554525451563 -0.31291347704388744
3280000000.0 0.32333269373492624 0.09893735414156715
3300000000.0 0.05607968303557571 0.31559738022840056
3320000000.0 -0.26386899644592926 0.14729073083793884
3340000000.0 0.24566281632389825 -0.1435419783384819
3360000000.0 0.0910182105800564 0.24412827876996712
3380000000.0 -0.2341183628205687 0.04454797154363003
3400000000.0 0.15298796717412175 -0.1608454833708196
3420000000.0 -0.07853579949196861 0.1945060523056743
3440000000.0 0.07614459302618232 -0.18010794260411256
3460000000.0 -0.019552770302349014 -0.18558759049078838
3480000000.0 -0.08965619899854511 -0.15410485418503084
3500000000.0 0.09882330545789014 0.14136562313820294
3520000000.0 -0.08547184350832905 -0.14636459433310772
3540000000.0 -0.16751820402867884 -0.007944202305107406
3560000000.0 -0.1136179455111065 0.12870511925054187
3580000000.0 -0.09890622068626362 -0.14557381027730282
3600000000.0 -0.1756516304637783 -0.036627821665143355
3620000000.0 0.11576355436384245 -0.144026478493583
3640000000.0 0.18623083952854663 0.06735550928061282
3660000000.0 -0.202897205279706 0.03029005307737082
3680000000.0 0.07410384137240827 -0.18754893681791548
3700000000.0 -0.20054513871936513 -0.02376950320886614
3720000000.0 -0.11076030067501672 0.1595600456315171
3740000000.0 -0.15918320195610228 -0.09869288409594805
3760000000.0 -0.1687612081025227 0.046505088705265894
3780000000.0 -0.11298856695926293 -0.12408956821804244
3800000000.0 0.06401753955753399 -0.13642304490354643
3820000000.0 0.005381921649275237 0.13322682119149495
3840000000.0 -0.07087295793654363 -0.08630579558228212
3860000000.0 0.05876858672639987 -0.0741531878872585
3880000000.0 -0.018451583777884632 0.07597230109294546
3900000000.0 0.056850714441673 0.04572388933398541
3920000000.0 0.021684912732437948 0.06268772786559314
3940000000.0 0.0019407887835177662 0.053953419922224424
3960000000.0 -0.016122322376058325 -0.046198727513634415
3980000000.0 0.036411901127217206 0.008634247316146459
4000000000.0 0.03221209247198396 -0.00047554269998156264
