!Created with skrf (http://scikit-rf.org).
# Hz S RI R 50.0 
!freq ReS11 ImS11
420000000.0 0.6207458397697779 0.042034034888083376
400000000.0 -0.6594429375106924 -0.047554363127047486
440000000.0 0.29236261365348554 -0.4837503888554456
460000000.0 -0.39339231946010317 -0.3221755816855973
480000000.0 -0.3314948621303908 0.27394219476777315
500000000.0 -0.18407121298851362 0.3501762355335494
520000000.0 -0.3256032277633731 0.024605612254524862
540000000.0 -0.2246655311084392 0.14617117447489075
560000000.0 0.15771545241423124 0.173584707079201
580000000.0 -0.22544177117194159 -0.05801374540887998
600000000.0 0.21675922548073706 0.01089945097542392
620000000.0 -0.1951656260569698 -0.048241598429600206
640000000.0 0.14870062640637693 0.12444700088151929
660000000.0 0.1754777090286665 0.02342144766786352
680000000.0 0.10919940223013844 -0.11489116211039449
700000000.0 -0.03534496280470243 -0.11189751827986814
720000000.0 -0.10542557369251632 -0.028243295144327697
740000000.0 -0.06029758314911489 -0.10224618894320486
760000000.0 0.040480040284207076 -0.10255833305815608
780000000.0 0.09059577983875275 0.07535984560710172
800000000.0 -0.0954573582779205 0.010971215629477296
820000000.0 -0.018277265489433037 -0.0858677967100184
840000000.0 -0.05162231313499843 0.04916816600416389
860000000.0 -0.013514259024115361 0.07621478923975095
880000000.0 -0.04102191888227055 -0.06803571418572689
900000000.0 0.07002706171095938 -0.0009920786886323941
920000000.0 -0.06841089126482408 0.032781092972140366
940000000.0 0.029089568512660823 0.08476190501795114
960000000.0 0.07589700948792855 0.060993291361169925
980000000.0 -0.08507589767562483 -0.03468775465990717
1000000000.0 0.03409714193161075 0.05696902390714079
1020000000.0 0.02403466151702949 -0.03852841046219053
1040000000.0 0.02415224190114 0.039351888320972556
1060000000.0 -0.053977929959230335 0.025915325847617524
1080000000.0 0.04875255488766845 -0.07163026965411683
1100000000.0 0.10065114369881287 -0.04951189875162062
1120000000.0 0.13491659305268802 -0.029164794724291544
1140000000.0 0.14485161030411928 -0.07629800675922209
1160000000.0 0.06105536380867105 0.1631370741391613
1180000000.0 0.043444360193862594 -0.20021256412658112
1200000000.0 0.2056101390075465 -0.004129585080404476
1220000000.0 -0.0365399086484631 0.22135786487126688
1240000000.0 -0.22333649090429503 0.04040443985701165
1260000000.0 -0.12633186426876486 0.18593670863074446
1280000000.0 -0.14176762212818686 -0.19364797534151046
1300000000.0 0.001508286974362431 0.24047779347809037
1320000000.0 -0.2453760305819279 -0.04386678324683126
1340000000.0 0.17870992346420775 -0.1880063551124173
1360000000.0 0.16530080935108474 0.21265384012611555
1380000000.0 -0.22204065412794796 -0.14423141889740965
1400000000.0 -0.2575759692684868 -0.05188840537472707
1420000000.0 -0.27175934702524346 -0.023002865534622753
1440000000.0 -0.2084113377778366 -0.17242111642651983
1460000000.0 -0.01604688855116411 -0.266006711850119
1480000000.0 0.047398131285322005 0.26037471762078473
1500000000.0 -0.07028237183266159 0.25875367315039843
1520000000.0 0.083062943189224 0.2473457051942795
1540000000.0 0.22196966900303922 0.09586029054810558
1560000000.0 0.10559235173399167 -0.20276910716553004
1580000000.0 -0.01929232297035508 0.20175309150579945
1600000000.0 -0.020406481302684774 -0.17147311312494032
1620000000.0 0.10443504194378504 0.1102347802144189
1640000000.0 -0.08363322790470534 -0.09370087084964157
1660000000.0 0.0783230702684625 0.07762517845937027
1680000000.0 -0.022545232656453817 -0.08540140909370303
1700000000.0 -0.07621213847064649 -0.013828438410660329
1720000000.0 0.06820043514474614 -0.0018745354892171077
1740000000.0 -0.0003710091344939571 -0.060268382284951835
1760000000.0 -0.05756512615213551 -0.018907027456637308
1780000000.0 0.07066476578227213 -0.023422024817300408
1800000000.0 -0.08693500346334704 0.044629723464905985
1820000000.0 -0.10795479074394373 0.07307656568719731
1840000000.0 0.017490056788125843 -0.160163467209904
1860000000.0 -0.08625028939384159 -0.16358700482307229
1880000000.0 -0.1278962199440788 -0.16195072728950763
1900000000.0 -0.197219291627298 0.09532652664901824
1920000000.0 -0.12544296669134314 0.1889835087602699
1940000000.0 0.1498657679675911 0.17440163039162906
1960000000.0 0.023170552876934248 -0.2238123288059168
1980000000.0 -0.2098584473274992 0.059968205693034786
2000000000.0 0.2076058908642703 -0.02745413013864357
2020000000.0 -0.05345329157822682 0.1907242477761113
2040000000.0 -0.18844843380530993 -0.017547924260940092
2060000000.0 -0.16436897293431338 -0.08104518923184655
2080000000.0 -0.17599963385539152 -0.029587680714133573
2100000000.0 -0.13393934381633305 -0.1098319859672006
2120000000.0 0.13286725147566655 0.11100519153765064
2140000000.0 0.1391514597030121 0.09938925357793854
2160000000.0 0.047844777862536575 -0.1550543009856772
2180000000.0 -0.1502147550530999 0.05648623963316796
2200000000.0 0.0035838475632074636 0.15304945652077312
2220000000.0 -0.13672430936515798 -0.04904411556745302
2240000000.0 0.12827643676038336 -0.0593194959762355
2260000000.0 -0.08384055936112894 0.09994193423764033
2280000000.0 -0.11745109656617767 -0.029151310413517213
2300000000.0 -0.03029475065216634 -0.10087393320702956
2320000000.0 -0.027336708674475386 0.08681742312399793
2340000000.0 0.002119110727886875 -0.07771998312063107
2360000000.0 -0.05504551121920366 -0.01926295576735404
2380000000.0 0.0482084193058937 -0.0023386263983579047
2400000000.0 0.004256753889319243 0.04202078331580307
2420000000.0 -0.021223495282239914 -0.030180118025785723
2440000000.0 0.02781770729429285 -0.025137679576315297
2460000000.0 -0.0432660316695919 -0.0011158865805158662
2480000000.0 -0.046817361473098375 -0.0012750524064711324
2500000000.0 0.010024697616519133 -0.05500291785830479
2520000000.0 -0.009697275194964057 -0.0716295526454999
2540000000.0 0.07379701286516913 -0.04906602473614649
2560000000.0 -0.036998366852927074 -0.09745502947671231
2580000000.0 -0.05008676114412144 -0.10925486519223866
2600000000.0 -0.12042677835586137 -0.059682288695142756
2620000000.0 -0.1431081952257435 -0.022160960179141834
2640000000.0 -0.07389087371184326 -0.13538453081551605
2660000000.0 -0.1392390460264234 -0.07616531045814719
2680000000.0 -0.15961802004088646 -0.02223283655599555
2700000000.0 0.05980275605345673 0.14859546577556962
2720000000.0 -0.14260644603139727 -0.06500377511000276
2740000000.0 0.15159101761466842 -0.024473634895489895
2760000000.0 0.13907150379412347 0.05231818635403857
2780000000.0 0.10257129206477895 -0.10639909457029775
2800000000.0 0.058245976980231026 -0.13927845663927466
2820000000.0 0.14477276706340098 0.06203503311247498
2840000000.0 0.020613536771075663 0.16340632584158757
2860000000.0 -0.05825458621908406 -0.16487811378036563
2880000000.0 -0.01854929138764913 0.18240486083609853
2900000000.0 0.014704905687914065 0.19236872027107133
2920000000.0 -0.15796392097232126 0.11931846597083172
2940000000.0 -0.12129404029169835 -0.16452299986811028
2960000000.0 0.2020798608740808 -0.029796385360795107
2980000000.0 -0.17818036229738973 0.09252500820420748
3000000000.0 0.1556761299849497 -0.12800200819819618
3020000000.0 -0.16243795597718397 0.10278691057348201
3040000000.0 0.15763847648957238 -0.09919727549999202
3060000000.0 -0.04617280366633645 0.1726712818900688
3080000000.0 -0.1103284100345196 -0.12965008978136916
3100000000.0 0.05518326656503642 -0.1506395561647884
3120000000.0 0.12022545144932544 -0.09265492568287977
3140000000.0 0.06566578048710332 -0.12474833094229411
3160000000.0 0.10679687031479627 -0.0830860002507763
3180000000.0 0.09050375663840772 -0.09624807058877008
3200000000.0 0.10821236279792472 -0.07738587147659892
3220000000.0 0.13706184617591433 0.01865464084774
3240000000.0 0.013679314730901358 0.14629002197277607
3260000000.0 -0.12286732363908902 0.0991262693156953
3280000000.0 -0.0840179797567718 -0.14998420968639672
3300000000.0 0.040454445770633216 -0.18024859704481544
3320000000.0 0.1942057504126603 -0.0457007381876179
3340000000.0 0.0247118611035679 0.21179367441777042
3360000000.0 -0.21458031747789777 -0.07333322061369005
3380000000.0 0.08257220540759518 -0.21911710839372395
3400000000.0 0.14342042781118813 0.19188180020042864
3420000000.0 -0.18768924139276805 0.1539371848437192
3440000000.0 -0.0890773404880751 -0.22555892958860715
3460000000.0 0.2273813170958681 0.07881663260185681
3480000000.0 -0.17072470509877807 0.16342182318401866
3500000000.0 -0.22385206680106517 -0.05127362458832104
3520000000.0 0.046159414103018215 -0.21708947542060306
3540000000.0 0.09203736777481682 -0.19135066269749906
3560000000.0 0.01385184470831035 -0.19869849561889366
3580000000.0 -0.13714584851530232 -0.1296818902924604
3600000000.0 -0.1340482381806313 0.11895890645777889
3620000000.0 -0.14850386571587076 0.0855667786056418
3640000000.0 0.16105596640144146 0.03851493306392488
3660000000.0 0.054744997796034846 -0.15605170255302125
3680000000.0 -0.07029860915217266 -0.1531320283245835
3700000000.0 -0.16880606944695725 -0.05668310092998483
3720000000.0 -0.05704885788980921 -0.17935083348123154
3740000000.0 0.17819321289015744 0.0962222377818562
3760000000.0 0.06016552114829182 0.20818785989478827
3780000000.0 -0.118812381714818 -0.19905077633321674
3800000000.0 0.015516075968368662 0.24404778181314365
3820000000.0 -0.008961774644650904 -0.2555072146986249
3840000000.0 -0.24363527536515484 0.0997512049910457
3860000000.0 0.268293821744883 -0.0014349325604495861
3880000000.0 -0.21779929805348705 -0.1606949883237517
3900000000.0 0.1295765437901877 0.23281022152542202
3920000000.0 -0.20447345698209998 -0.15341166035068315
3940000000.0 0.2386905712885545 0.009907588086300878
3960000000.0 0.14020409828762256 0.16776424466117787
3980000000.0 0.19359549188279623 0.027849450759332924
4000000000.0 -0.1651140612716306 0.04437050387205994
