!Created with skrf (http://scikit-rf.org).
# Hz S RI R 50.0 
!freq ReS11 ImS11
400000000.0 0.8946320515224766 -0.24120241667151865
420000000.0 -0.9225620615452081 -0.036285544379126344
440000000.0 0.3076709687107256 0.8709859012795759
460000000.0 0.8884819255129458 -0.22223558866789067
480000000.0 0.752622388975422 -0.5105576238064217
500000000.0 -0.24240648208455512 -0.8777336754554125
520000000.0 -0.6332595252526636 -0.6405248473093268
540000000.0 -0.8861722083211945 -0.12586749661661106
560000000.0 -0.8750447422086579 0.1332609341468432
580000000.0 -0.6896679915640982 0.5382687080502898
600000000.0 -0.24372971949017624 -0.8242977162507199
620000000.0 -0.3033551199923049 -0.7873894958912048
640000000.0 0.06975463549189767 -0.8313716388049082
660000000.0 0.7740481521515511 0.30393358828415656
680000000.0 0.03333497486918324 0.8173610330170059
700000000.0 -0.794660290956582 0.20304812365868116
720000000.0 -0.36150082588675375 -0.7343985123161256
740000000.0 0.7059891826839595 -0.4037146433783911
760000000.0 0.54572288415847 0.6091231639667438
780000000.0 -0.43236315761672023 0.6971873993783719
800000000.0 -0.8131312518311262 -0.10900545078885716
820000000.0 -0.6104936766645649 -0.53941639297924
840000000.0 -0.13713495488791286 -0.8012528939729682
860000000.0 -0.1433138996482926 -0.7916287341254341
880000000.0 0.6421704889857238 -0.4767655029182741
900000000.0 -0.29959311706893565 0.7420142088187045
920000000.0 -0.7946803346738309 0.11617999438074825
940000000.0 -0.5541481136873724 -0.5771820201432067
960000000.0 -0.028112781440153292 -0.7993380857897286
980000000.0 0.7330672570144728 -0.30283478434217526
1000000000.0 0.6614201139934263 0.41867562307341866
1020000000.0 0.34490935235457454 0.6929361041715455
1040000000.0 -0.1057810234250762 0.7506150653468303
1060000000.0 -0.014992871454174994 0.7333084836021441
1080000000.0 0.4891082652008331 0.5009648458968277
1100000000.0 0.6623146746842877 0.17077809435422664
1120000000.0 0.5183484137350192 -0.37478990907084797
1140000000.0 -0.4383032509945145 -0.4409882449173343
1160000000.0 -0.3106359925868585 0.5157761448763649
1180000000.0 -0.2512244189575475 0.5352389353176827
1200000000.0 0.5571214599659333 0.132723896915714
1220000000.0 0.24444368553984244 -0.5022691578744591
1240000000.0 -0.15820822898560766 -0.5285134050334035
1260000000.0 -0.29754048076798767 -0.4588047469361748
1280000000.0 -0.21589177945937155 -0.498103781495171
1300000000.0 -0.2422855048239556 -0.48376377483630545
1320000000.0 -0.44070269134973666 -0.31703462227954726
1340000000.0 -0.5235459811178559 0.15766515563266514
1360000000.0 0.4784948760577028 0.27095079711805065
1380000000.0 -0.22480833463033392 -0.5124817405177375
1400000000.0 0.3407872252236742 0.46445423128008334
1420000000.0 -0.3917543912331024 -0.4385423284483945
1440000000.0 -0.5908503188487785 -0.1361960006003924
1460000000.0 -0.27499855506492077 0.5696397676183045
1480000000.0 0.4916756418472553 0.43268420005200614
1500000000.0 0.6653592280185995 0.11398948821698016
1520000000.0 0.672921101833976 0.18497632027002428
1540000000.0 0.5690327730037801 0.42629573043373986
1560000000.0 0.33195551536885154 0.6399167286866024
1580000000.0 0.2577907410326996 0.6815316968185064
1600000000.0 0.6980466726286546 0.20091367717566538
1620000000.0 -0.34408650315190764 -0.6294175068126138
1640000000.0 0.6881051417684229 -0.08833096161800899
1660000000.0 0.10794951687507287 -0.6409952232096318
1680000000.0 0.001387391574707105 -0.5618337092669694
1700000000.0 0.15036064864156046 -0.3665646491701392
1720000000.0 0.126157498446741 0.03928972879423808
1740000000.0 -0.10339783463792547 -0.19153570016980973
1760000000.0 0.4249546332965181 0.025493721935081128
1780000000.0 0.2522610711744188 -0.4844236985659474
1800000000.0 0.425735843461987 -0.4484204810503065
1820000000.0 0.1271049473604025 0.6433872019398453
1840000000.0 0.6551828340915707 -0.19375779707517343
1860000000.0 0.5118642222151153 -0.46720924897344707
1880000000.0 0.6933213988549456 0.02521373975380235
1900000000.0 0.3149228231965753 0.615116800607486
1920000000.0 -0.2239174419634463 0.6456530989556946
1940000000.0 -0.6631875290124029 0.05701081024421629
1960000000.0 -0.503573095595551 -0.4134042076847689
1980000000.0 -0.4479809095752883 -0.4469544915160296
2000000000.0 -0.35836425429517393 -0.4967072987194482
2020000000.0 -0.25054204746555536 -0.5438196148182592
2040000000.0 -0.49634982748357 -0.3030357313619087
2060000000.0 -0.4262450446798268 -0.3769398523363926
2080000000.0 0.47196281744474816 -0.29732417778241765
2100000000.0 0.4634220110036244 -0.2834377465112482
2120000000.0 0.29363227046420487 0.43328069337281805
2140000000.0 -0.38298340804103914 0.33832525442142114
2160000000.0 -0.03036675634060141 -0.49235332816729965
2180000000.0 0.09133419206117731 0.46476033779304693
2200000000.0 -0.17617772498332793 -0.42353739318660216
2220000000.0 0.4286371432789296 0.08173723064356866
2240000000.0 -0.3972795692172765 -0.13744730073605074
2260000000.0 0.1401006967834228 -0.3776899867239548
2280000000.0 0.33439093867241493 -0.18498644004889434
2300000000.0 0.3508461609860916 0.07958640048087004
2320000000.0 0.32409927146847967 0.10180361147003822
2340000000.0 0.27172558052172197 -0.17943336337495286
2360000000.0 0.29157678652332625 -0.10910344646812431
2380000000.0 -0.099237426750499 0.28041676244379793
2400000000.0 -0.18972468437352563 0.21775200719695373
2420000000.0 0.2710943639061276 0.06973517175873795
2440000000.0 -0.26399755527316615 -0.08798254213489827
2460000000.0 -0.2554881309755199 0.11266781232404416
2480000000.0 -0.12133055798037744 0.2615809559171649
2500000000.0 0.2987581759233769 -0.04722266706759496
2520000000.0 -0.1525962491808694 -0.2614605196507695
2540000000.0 -0.2833010495082069 -0.1445990342530607
2560000000.0 0.2090508217306653 -0.25793393934787695
2580000000.0 0.2809494294802488 -0.19050289597414236
2600000000.0 0.2844748199677045 -0.20540047319091406
2620000000.0 -0.09035832804176873 0.35311820800922394
2640000000.0 -0.09166866428833091 -0.35670625132790285
2660000000.0 0.37665344700027154 -0.03962281339604603
2680000000.0 -0.18799689258489735 -0.3465395327296753
2700000000.0 0.33828040766988154 0.24251475644068082
2720000000.0 -0.4067097892055444 -0.16687985860522275
2740000000.0 0.21907643624790524 0.40773141954137315
2760000000.0 -0.03631617934758298 -0.4841681472067887
2780000000.0 -0.3024376365506405 0.39609616146757837
2800000000.0 0.5046136827507288 0.07588341912685473
2820000000.0 -0.42161260707228604 -0.29649104503068713
2840000000.0 0.4216045684359265 0.2919142816006279
2860000000.0 -0.41622284532365134 -0.31049429855878696
2880000000.0 0.42079387446595434 -0.31266724733486007
2900000000.0 0.28425143109964046 0.4446582135216658
2920000000.0 -0.5280056646582326 -0.1086286916077072
2940000000.0 -0.21562595980766822 0.5087376321183673
2960000000.0 0.5187410711091239 -0.23231293883232249
2980000000.0 0.17723449377017322 -0.555797004425524
3000000000.0 -0.020291906243157937 -0.5960424556485043
3020000000.0 0.42838176870575956 -0.4318383454251899
3040000000.0 0.4181416797707119 0.4517964940443397
3060000000.0 -0.5845421503846822 0.2112014253729047
3080000000.0 0.05462249895426966 -0.6215673929240643
3100000000.0 0.5255595877017856 0.3320508015353943
3120000000.0 -0.40214052482251955 0.4726590928600294
3140000000.0 -0.6113890751160479 0.07930195971110245
3160000000.0 -0.45435792561903937 -0.4066814461766424
3180000000.0 -0.4705908063934374 -0.3810124105697456
3200000000.0 -0.5348045355480489 -0.2667469338670471
3220000000.0 0.32045310664618964 -0.49933335400575724
3240000000.0 0.42747437755718753 -0.40389827878614754
3260000000.0 0.5188113064157077 -0.26023821811964165
3280000000.0 0.5328867498921918 0.1914191550458851
3300000000.0 0.2064565613665022 0.5109682764044187
3320000000.0 -0.4231212036427272 0.30505873973704734
3340000000.0 -0.13873833361449733 -0.45540137309754847
3360000000.0 -0.2511146530607649 0.3187417624218328
3380000000.0 0.17809408163801888 0.27693925500694183
3400000000.0 -0.2184465189594888 0.19985471045180056
3420000000.0 0.047556088100965156 0.3261816182102084
3440000000.0 -0.2940018950470533 -0.24210810901545068
3460000000.0 -0.13720047588612402 0.39295348295697247
3480000000.0 -0.35592211271978086 -0.2507801767244154
3500000000.0 0.2599634377171476 -0.3542228192729622
3520000000.0 0.4121300606679423 -0.13689319310830117
3540000000.0 0.3543941895556239 -0.2354967833977825
3560000000.0 0.4068338096143876 -0.03723068822441595
3580000000.0 0.00592507618562989 -0.39108872566236036
3600000000.0 -0.2925843298575492 -0.23292553630497223
3620000000.0 -0.34681920511532593 0.09969194560569043
3640000000.0 -0.3255809429801375 0.12055071056544146
3660000000.0 -0.33225426460235014 0.003059604307493891
3680000000.0 0.021456493220211894 -0.3151541818717963
3700000000.0 -0.15385436989912085 0.2499893717510776
3720000000.0 0.25665441644069686 -0.08233312568238754
3740000000.0 0.1292275187687873 -0.19720176049963706
3760000000.0 0.1255208559155601 -0.16160100463808813
3780000000.0 0.16450893767359598 -0.013195160904905431
3800000000.0 -0.09095340162909121 0.08224382797763935
3820000000.0 -0.07707736987525601 -0.02136074252509854
3840000000.0 0.02864481554415553 -0.026282389002015367
3860000000.0 -0.016986586163102137 0.010869564545260507
3880000000.0 -0.021170363010215017 -0.03846594260224309
3900000000.0 -0.06759831014934442 -0.04347845843954334
3920000000.0 0.08104056561684125 -0.07263187370131086
3940000000.0 -0.01929607227167734 -0.12824787150287292
3960000000.0 -0.140019530638763 0.019647948068217718
3980000000.0 0.02091533499492219 0.1447180879374487
4000000000.0 0.09678001454400906 0.10856786985373261
