!Created with skrf (http://scikit-rf.org).
# Hz S RI R 50.0 
!freq ReS11 ImS11
400000000.0 0.6029130801121353 0.39427574941468196
406500000.0 -0.14613083631308094 0.6851624077144126
413000000.0 -0.6302120531402617 -0.2415192380710512
419500000.0 -0.39998438377627915 0.5206041653752982
426000000.0 0.27458540801132614 -0.5752382334288544
432500000.0 -0.5446730927606218 0.32333692290143384
439000000.0 0.24453458564951533 -0.5829665901428835
445500000.0 -0.07216965703944721 0.6271401019431847
452000000.0 -0.6158810898871853 -0.09604792476442789
458500000.0 0.3381315585781321 -0.5206055358355628
465000000.0 0.5760860463506962 0.2256851259100295
471500000.0 0.5188021429810109 0.33031571942169957
478000000.0 0.0768051204164426 0.5927964591213937
484500000.0 -0.39253510145770115 0.44044223985007064
491000000.0 -0.29320325622984883 0.49047015519456766
497500000.0 -0.28350862256143533 0.47392045864744864
504000000.0 0.12492861978727332 0.5076890223479072
510500000.0 0.33759439255177925 0.3540388169536208
517000000.0 0.15682770955309303 0.4274888878336681
523500000.0 -0.053950082647461664 0.42911817071383834
530000000.0 -0.30892060472669886 0.2689221949985725
536500000.0 0.17086989347562143 0.3452876960668962
543000000.0 0.2478258955719292 -0.2810601491110474
549500000.0 -0.14157987919751722 -0.32713737126950493
556000000.0 0.09252330739225127 0.31867911581783376
562500000.0 0.2632561727615248 0.162108491028639
569000000.0 0.12952111581277595 -0.2628183267578016
575500000.0 0.2637444589074236 -0.06552676484304733
582000000.0 0.11352771006118272 0.23731736641578383
588500000.0 -0.2612527338272413 -0.04421483975960532
595000000.0 -0.27657599201269417 0.03492618138668366
601500000.0 0.15035041418335554 -0.23795908903551444
608000000.0 0.28991102246305916 0.03064801228778237
614500000.0 0.28985190000700173 -0.08611705234738484
621000000.0 0.15409720850690337 0.25990384363059615
627500000.0 -0.20044932992924575 0.23846730378590428
634000000.0 0.010880061029920719 0.31961610899063164
640500000.0 0.08663598764812092 0.2978323787540055
647000000.0 -0.2953325587821613 0.07013484211330692
653500000.0 -0.3003914325401762 -0.0364194409141492
660000000.0 0.01270255192782886 -0.28467192031345073
666500000.0 -0.15950677916828124 0.2330797865690365
673000000.0 -0.25988275399403754 0.07405500979824851
679500000.0 -0.0902295799708521 -0.25234894612476894
686000000.0 0.2636553288034084 -0.05170456923429817
692500000.0 -0.12861037930248695 -0.23181743520865955
699000000.0 0.10715402182930119 0.24545919057916193
705500000.0 0.06309806841627312 -0.267311298844262
712000000.0 0.20327255254722099 0.19537310791215792
718500000.0 0.016864260013690072 -0.2871679112053661
725000000.0 -0.018305955272584013 0.2943923603830615
731500000.0 -0.15560462875074657 -0.26329053769977406
738000000.0 0.27827189805202673 0.14101028124824877
744500000.0 -0.2582988513527393 0.17438530538695357
751000000.0 0.2952238105704758 0.0990512935467818
757500000.0 -0.12330818705273529 -0.29528255693817984
764000000.0 -0.19372878599606588 0.2619323347102782
770500000.0 0.2127662264528806 -0.2632249191602655
777000000.0 -0.3289561556076531 0.10044980785922249
783500000.0 0.3432928981269322 -0.044194977173285875
790000000.0 -0.3329792193425039 0.12105030832174964
796500000.0 0.34614290669368775 -0.07082413692232234
803000000.0 -0.2811051683018932 -0.2122228661063037
809500000.0 -0.006114257795591686 0.35331498847775256
816000000.0 0.17609485758681295 -0.30978802324018195
822500000.0 -0.3094716230871007 -0.18004490669169196
829000000.0 -0.357383800045398 0.07779538630991949
835500000.0 0.06819710192957475 0.36686183628980557
842000000.0 0.26136458106323085 -0.27571516119631884
848500000.0 -0.21534476624363638 -0.31819717302518913
855000000.0 0.1748305449136611 0.3488470044403905
861500000.0 0.3983810440635183 0.01677435034433625
868000000.0 -0.4083271263908723 -0.05651370645377594
874500000.0 0.3179506945341769 0.26628692955008365
881000000.0 -0.3692919700831735 -0.20639876001731247
887500000.0 0.4185552944407954 -0.07068960024828307
894000000.0 -0.40917196673302947 -0.12783135539257515
900500000.0 0.16035513734165804 -0.3925662787948601
907000000.0 0.21974683737361572 0.35805078418426445
913500000.0 -0.40955750973932636 -0.015044835356789313
920000000.0 0.12463957142951869 -0.38461337622102565
926500000.0 0.3530327096682572 -0.18212467569372662
933000000.0 0.34651392303566103 0.17215526138665133
939500000.0 0.37136452671931763 0.024796255253581676
946000000.0 0.3408472735432737 0.07546413496492278
952500000.0 0.2825062692651605 0.1570365985812548
959000000.0 0.15863302697610263 0.2570926859376231
965500000.0 -0.2746636701420718 0.04731181752732014
972000000.0 0.26474085797672103 0.024161020460230543
978500000.0 -0.2528964947943854 -0.029436244926422467
985000000.0 -0.04392911928212304 -0.24105098682480797
991500000.0 0.22421776832108753 0.07390451255516485
998000000.0 -0.18218045937114227 0.13485295048447835
1004500000.0 -0.022074419615071922 -0.22347872907275074
1011000000.0 0.21870643948663163 -0.03387419182169908
1017500000.0 0.1865114042666423 -0.10433578729880892
1024000000.0 0.07270000136537634 -0.18239640849011146
1030500000.0 0.053698553537259254 -0.1724202916686732
1037000000.0 0.15714769343121254 0.0070223623298176245
1043500000.0 -0.13653902945261345 -0.010616637348983916
1050000000.0 0.07072921665695461 0.10418030788706097
1056500000.0 0.10588747810255963 -0.049123735556840305
1063000000.0 0.11202361572101537 0.033640314162381356
1069500000.0 -0.0712068514750213 0.08718214452934124
1076000000.0 -0.10246804320278027 -0.03923461810353108
1082500000.0 0.018648426979714368 0.10702380295706915
1089000000.0 0.06317161579786915 0.08507206246173243
1095500000.0 -0.10547417336176239 0.0008322420137168876
1102000000.0 0.1072504737038534 -0.030641490231872112
1108500000.0 0.012418559179982316 -0.11774655530629767
1115000000.0 0.01432527969157669 -0.12508203524674577
1121500000.0 0.13733556258389007 0.004220470037707818
1128000000.0 0.09556379496916403 0.11628715281455068
1134500000.0 -0.13767951055504385 -0.07557966575899916
1141000000.0 0.14153861395291548 0.10366458724171154
1147500000.0 -0.04992030100558135 0.1793124882868015
1154000000.0 0.10427622454251756 -0.16666331067045403
1160500000.0 0.022839938476378212 0.2042662312143525
1167000000.0 0.0193906178761743 -0.21293519962722046
1173500000.0 0.010615450603394373 0.22071333421403544
1180000000.0 -0.056877469566390705 -0.21833912883517806
1186500000.0 -0.04196707093171552 0.22535819983578748
1193000000.0 0.21063802514227378 -0.11085073538250524
1199500000.0 -0.18990728291755152 0.15793126081154304
1206000000.0 0.18983132447698012 -0.16615246254797522
1212500000.0 -0.20390672185862513 0.16386813410796625
1219000000.0 -0.03577469878013479 -0.2666853980902605
1225500000.0 -0.13865986633288563 0.2349540427489209
1232000000.0 0.26970535128771683 -0.08610600730083393
1238500000.0 0.07303905202845178 -0.2787609004701245
1245000000.0 -0.2804840735285153 0.08871412075077144
1251500000.0 0.15110297477811582 0.25751851617875815
1258000000.0 0.2721165281443984 0.14213467222451706
1264500000.0 0.2972248302095135 -0.09127648010160459
1271000000.0 0.10063969566080243 -0.3042269342451759
1277500000.0 -0.2773447303620687 -0.17752309365609517
1284000000.0 -0.27664228436537125 0.18712329203078074
1290500000.0 0.20938657201093552 0.2695809530093319
1297000000.0 0.2243389318247687 -0.2572629671988627
1303500000.0 -0.06880160377018281 -0.33536248054220635
1310000000.0 -0.3293629475001961 0.07523095496938371
1316500000.0 -0.2529099382307798 0.22202553694115035
1323000000.0 0.1902796013950347 0.27905693801870585
1329500000.0 0.28172866364378113 -0.1845593513174084
1336000000.0 -0.25186953553064095 -0.22726124103838133
1342500000.0 -0.10296796288873872 0.3215126686716746
1349000000.0 0.2308974112892986 -0.246721339921207
1355500000.0 -0.3094870874004671 -0.13364312559424696
1362000000.0 0.26343102077534286 0.20860877938958267
1368500000.0 -0.04311578011776561 -0.33498144531004387
1375000000.0 -0.18449211134546184 0.2902090904475863
1381500000.0 0.29207822654296567 -0.18286066159379757
1388000000.0 -0.33855136191825297 -0.08699341738193904
1394500000.0 0.21425563603060188 0.28382352445256087
1401000000.0 0.1961522969492039 0.30011583840604394
1407500000.0 0.32508764847502253 -0.16184364397745546
1414000000.0 -0.03527570365344771 -0.36626734908906744
1420500000.0 -0.3385021705933886 -0.15441617253089346
1427000000.0 -0.3743359801356154 0.022662529146436565
1433500000.0 -0.37463223929833916 0.05835439485692609
1440000000.0 -0.33381019089002417 0.1814014163565895
1446500000.0 -0.37275778026482825 0.08644777290160435
1453000000.0 -0.3393020231561909 0.17769858449955925
1459500000.0 -0.34934067099605026 0.15309116544182122
1466000000.0 -0.2712938293357938 0.26723198860114655
1472500000.0 -0.12549083063271252 0.3558680507134467
1479000000.0 0.16716817450919527 0.32923505234229533
1485500000.0 0.2919554651228956 0.21114841323488062
1492000000.0 0.3245305878841222 -0.1220722039381104
1498500000.0 0.08508402282908609 -0.3243299513474084
1505000000.0 -0.14990458389432837 -0.2866791098565355
1511500000.0 -0.31047851940132465 0.028217229862493177
1518000000.0 -0.03076302453776009 0.2977833495287723
1524500000.0 0.2480216974675811 -0.15398928885473456
1531000000.0 -0.25901616984941545 -0.10818407666736539
1537500000.0 0.1303942622059253 0.24201460315032608
1544000000.0 -0.16760831108101032 -0.21157540219865487
1550500000.0 0.2636987499486503 0.05409637063930643
1557000000.0 -0.2522879409629598 0.07819996370970753
1563500000.0 0.1968444378962523 -0.1733715567523463
1570000000.0 0.06795559390059829 -0.25004192940988257
1576500000.0 -0.2545702375611803 -0.044160459780339875
1583000000.0 -0.17324934335864844 0.192801708370658
1589500000.0 0.017765594844023885 0.25963084472473763
1596000000.0 0.16961777679906415 0.199390657555955
1602500000.0 0.2464806623703363 0.0914865772523074
1609000000.0 0.25893973728631914 0.05363548321272283
1615500000.0 0.26046951042313676 -0.018845245248946006
1622000000.0 0.21907278980500894 0.1370046676377837
1628500000.0 0.2192541032307867 0.12979107830893713
1635000000.0 0.1925996353504071 0.15600790923698002
1641500000.0 0.1301784610738247 0.19888882961681748
1648000000.0 -0.15858901021106545 0.16246987335631696
1654500000.0 -0.11213113298124816 -0.18518892590954025
1661000000.0 0.14265245781766808 -0.15466837097019545
1667500000.0 0.16611112537644532 -0.11774418145566423
1674000000.0 0.001491953197972047 -0.1932703472255524
1680500000.0 -0.15576919359705188 -0.0899813293181991
1687000000.0 -0.16399178049135274 0.026643719777436747
1693500000.0 0.13977273735809473 0.06031188743888903
1700000000.0 -0.051053957076944934 -0.13187928299209573
1706500000.0 -0.05925112535405971 0.11664124352099137
1713000000.0 0.05078878396339022 -0.10871123638111403
1719500000.0 -0.11449866220486285 0.025464159406862613
1726000000.0 0.04237096603925604 -0.10447333996268134
1732500000.0 0.1091142239668357 0.018936075812868134
1739000000.0 -0.09331887216740586 -0.05301214175230211
1745500000.0 0.017251828701746443 0.10403034093436482
1752000000.0 0.078588550427029 -0.07018956924171274
1758500000.0 -0.039896204764947395 -0.10005468954420574
1765000000.0 -0.10227230473628214 0.039338617166770055
1771500000.0 -0.051733125844921894 0.0992340458371465
1778000000.0 -0.05032792083870562 0.1021648516683095
1784500000.0 0.05637958669288286 0.10216353311849215
1791000000.0 -0.07304147272050918 0.08937785970295789
1797500000.0 -0.08489571280880408 -0.0758269403543167
1804000000.0 -0.009664400561970208 -0.10873690210559346
1810500000.0 0.09473975533205252 0.04550947841363918
1817000000.0 -0.07886242026449475 0.05836500897556126
1823500000.0 -0.00460568015835878 -0.08862949598720173
1830000000.0 -0.06009461126019838 0.05246236101522611
1836500000.0 0.05541269690161494 -0.0429276405619288
1843000000.0 -0.05898999444762988 -0.00954698430144769
1849500000.0 0.040077181960742836 0.031065096846041498
1856000000.0 -0.040880173553813494 -0.002168194415978829
1862500000.0 0.007759559907393529 0.028453228264302164
1869000000.0 -0.009637744192867736 -0.021089266560903385
1875500000.0 0.011205240867229425 0.011166731931170746
1882000000.0 0.007365167436313582 0.006779002148240103
1888500000.0 -0.005014376344217298 7.17078387072836e-05
1895000000.0 -0.0036991124208143574 -0.00638725670455446
1901500000.0 -0.010923025608518358 -0.010198809285187621
1908000000.0 0.02062560134451244 -0.0016195369134704171
1914500000.0 -0.003857222343530112 -0.02498609628606203
1921000000.0 0.013955721686883948 0.022682064574946474
1927500000.0 0.02426433184383077 -0.01486022268252508
1934000000.0 0.0036005128133675913 0.02702847105908432
1940500000.0 -0.027856923652102853 -0.003693762374994711
1947000000.0 0.012190186254661495 -0.028859966265230495
1953500000.0 0.015552680484061611 0.03174797458841558
1960000000.0 0.03604131108301679 0.011411034956418794
1966500000.0 -0.04316188198980691 -0.012644143814235419
1973000000.0 0.05137328717670998 0.011366514895723653
1979500000.0 -0.06002220537538497 0.01344328784095011
1986000000.0 -0.052603003680194764 0.05211499313156509
1992500000.0 -0.057815394370778754 0.06413132912217254
1999000000.0 -0.0626835793360654 0.07533936964389647
2005500000.0 -0.036914228089745364 0.10400652019925959
2012000000.0 -0.03497884823869181 0.11363907839678472
2018500000.0 -0.10040608443832272 0.07751063605499904
2025000000.0 -0.015847036453865683 -0.1325206905448012
2031500000.0 0.11384825812864502 -0.07762197342526134
2038000000.0 -0.045917282458789815 0.13428627159275489
2044500000.0 -0.11425202414915668 -0.09088087068654734
2051000000.0 0.11791049202602255 -0.09391827410804622
2057500000.0 0.13900655682520055 0.06479671185466811
2064000000.0 0.09257832076363669 0.1242241432866475
2070500000.0 0.15530682655645173 0.013656698041962474
2077000000.0 -0.04295430723834424 -0.14619250186257873
2083500000.0 -0.1121971532301354 0.09306969480630611
2090000000.0 0.09360795346950017 -0.10636428302469565
2096500000.0 -0.10443080642135594 0.08625097707423006
2103000000.0 -0.038552730738771086 -0.12474975816090782
2109500000.0 0.11598880107678418 -0.05106470138262888
2116000000.0 0.12535568432041524 0.02209540878994848
2122500000.0 0.11730303730505497 -0.05866638602732237
2129000000.0 0.1332121478056351 -0.0365941550229311
2135500000.0 0.13858306624468708 -0.05050627181788831
2142000000.0 -0.1575123027945483 0.0008016038445143518
2148500000.0 0.13643309879637908 -0.10242891932176817
2155000000.0 -0.08482623337879562 0.16501793553448424
2161500000.0 0.12792985308051671 -0.15215111104438292
2168000000.0 -0.21071686834379988 0.012171106672454458
2174500000.0 -0.15124801804776977 0.1622348336698198
2181000000.0 0.0307280904377547 0.22989222322460715
2187500000.0 0.01791242443078299 0.23897405600097557
2194000000.0 -0.12381057474932325 0.21398610985180835
2200500000.0 -0.17252225604695945 0.1867659358478355
2207000000.0 -0.25307845748064556 0.053760940064315164
2213500000.0 -0.24731338888963703 -0.08034349657123475
2220000000.0 -0.17996666416307314 -0.18650653915359314
2226500000.0 0.00044818349145550905 -0.2545303019365757
2233000000.0 0.1622136532733708 -0.19063066023119035
2239500000.0 0.2443938031830785 0.00606948171774061
2246000000.0 0.23345841350067842 0.03365252056882138
2252500000.0 0.21941531008703008 0.05926266698931764
2259000000.0 0.2175826202096821 0.0057014451956577585
2265500000.0 0.1287847295946528 -0.16211969357191694
2272000000.0 -0.14573010373815523 -0.13241279382296609
2278500000.0 -0.006378836198398297 0.1865754112887087
2285000000.0 0.08966852037231038 -0.15209483187115627
2291500000.0 -0.11869433523144002 0.11224173842320646
2298000000.0 0.13755075836730218 -0.07486940242040574
2304500000.0 -0.1269152880355448 0.08187789152365711
2311000000.0 0.14034702318344455 -0.03933467464036899
2317500000.0 0.038143036992912605 -0.14199285329329528
2324000000.0 0.08058156351304833 0.12479185090446486
2330500000.0 -0.11828679634092092 -0.09226995530009521
2337000000.0 0.09268269629473373 0.12097816770530762
2343500000.0 -0.034516828806097945 -0.15144569264005525
2350000000.0 -0.14758377731407554 0.057205523344615
2356500000.0 -0.09885711844136286 0.12726747829592747
2363000000.0 0.11675933788879395 0.11558584871719019
2369500000.0 0.15622242035966843 0.05475099116833384
2376000000.0 0.1251240336455138 -0.10986465418252943
2382500000.0 0.13983517369865203 -0.08627208798308232
2389000000.0 0.16098879929366516 0.029109070407349415
2395500000.0 0.06031802798905978 0.14868660225389957
2402000000.0 -0.15483005823202142 0.039104893075691684
2408500000.0 -0.14881456393874087 0.0633970648437437
2415000000.0 -0.15945801745123708 -0.012427499569571376
2421500000.0 -0.15387010828872547 0.04230546770486413
2428000000.0 -0.0698438639086976 0.14107322105590103
2434500000.0 0.13219462756689185 0.0754962248391024
2441000000.0 0.14886286270562013 0.010878162232061197
2447500000.0 0.07864992373289316 -0.12471553582624628
2454000000.0 -0.09159634673721852 -0.1108920374189228
2460500000.0 -0.12532972936403847 -0.06461331614613555
2467000000.0 -0.13276946929138733 0.04769365579971193
2473500000.0 -0.1370320483412997 0.029013915611208887
2480000000.0 -0.1365969786810943 0.0324384804388298
2486500000.0 -0.14151618039890418 0.013819568654186817
2493000000.0 0.02691175585015044 -0.14036925451956575
2499500000.0 -0.007387286484490705 -0.14506037809205202
2506000000.0 0.01835304342521643 -0.1467988045778372
2512500000.0 0.1335648754840425 0.06083830845593904
2519000000.0 -0.14808200102022046 -0.0038324788099800564
2525500000.0 0.13868378518167543 0.053132049224652124
2532000000.0 -0.14935049024380453 0.022032548486868017
2538500000.0 0.13543891881384648 0.06536216512086634
2545000000.0 -0.15029508034102437 0.006075299081173342
2551500000.0 0.10284063105275525 0.10685385293028477
2558000000.0 0.03558895862090127 -0.14182041436629833
2564500000.0 -0.12859943022335996 -0.06411270904402602
2571000000.0 -0.044764583302504296 0.13505595029967418
2577500000.0 0.09457582526302251 0.10068148316760339
2584000000.0 0.12823744847393384 0.04490878855229952
2590500000.0 0.10347779439673474 -0.08379438559945619
2597000000.0 0.046871808014038244 -0.12135250698979433
2603500000.0 -0.08673520445023905 -0.09160134172125274
2610000000.0 -0.09223773107707142 0.08194205817963553
2616500000.0 0.08517361801080921 0.08101960303090502
2623000000.0 0.05712938923221676 -0.09785057235909148
2629500000.0 -0.1062255487094153 0.009629442618566504
2636000000.0 0.05648625017107305 0.08000229964571044
2642500000.0 0.03421766478212538 -0.08602702699609434
2649000000.0 0.04935373990917063 0.06897699808503714
2655500000.0 -0.06794145851668398 -0.03791522934564188
2662000000.0 -0.06898292680652891 0.010761211124509923
2668500000.0 0.05632042679033303 0.028266123737699825
2675000000.0 0.03569815622685957 0.04390185305812458
2681500000.0 -0.026356562182132424 -0.044907854388464015
2688000000.0 0.021444257742155016 -0.04580607300019506
2694500000.0 -0.030626633500595905 -0.04263040760185113
2701000000.0 -0.03400411128993687 -0.04730844195678175
2707500000.0 -0.050734315454965095 -0.04553562385873882
2714000000.0 0.07429418858772692 0.027900393326571415
2720500000.0 0.039156251834085325 -0.08456861073112439
2727000000.0 0.015568741459520367 -0.10528059976375993
2733500000.0 0.11235427539463087 -0.046819285704768086
2740000000.0 0.1312293717526744 0.03278094163354989
2746500000.0 -0.048872044140403824 0.1402730106187941
2753000000.0 -0.13440548532789526 -0.0905681863028993
2759500000.0 0.10820215479151031 -0.13361734883119264
2766000000.0 -0.018138575038218214 0.18196209761448892
2772500000.0 -0.13270546443406284 -0.1371268250362795
2779000000.0 0.11605826488145705 0.1628129478838166
2785500000.0 -0.17314317263685147 -0.11317938262194249
2792000000.0 0.2078732677320219 0.050011467174535605
2798500000.0 -0.2050987183915203 0.08063376052988573
2805000000.0 0.12684216021792877 -0.18609282034326974
2811500000.0 0.08583845113760406 0.2150305781885127
