!Created with skrf (http://scikit-rf.org).
# Hz S RI R 50.0 
!freq ReS11 ImS11
400000000.0 0.8668959462385358 0.11954563393095342
420000000.0 0.832364965522675 -0.016716103143454775
440000000.0 0.781004558667179 0.00032948871907044
460000000.0 -0.19087941920361545 0.6874248348027326
480000000.0 -0.4076810163934966 -0.49178692647669114
500000000.0 -0.4925786072713794 -0.39562914341013333
520000000.0 -0.3251856803026054 -0.5482358250905438
540000000.0 -0.5602341627380998 -0.22602080064734026
560000000.0 0.298337561329305 -0.5039488245773064
580000000.0 -0.053221445267852725 -0.5237057303597613
600000000.0 -0.12130051732911756 0.6077619122368318
620000000.0 -0.6191495977401577 0.01595500817754594
640000000.0 -0.4065484317576723 -0.4194651285986775
660000000.0 0.3161268792176138 0.4258544966789161
680000000.0 0.1066469978477936 -0.47844603332219543
700000000.0 0.44266550342340855 -0.25870899048814067
720000000.0 -0.1605782687792688 -0.47644140901031906
740000000.0 0.4234695829567844 -0.20653043650985362
760000000.0 0.13589534033379946 0.4391182592224251
780000000.0 -0.42799257504357796 -0.10263284089935003
800000000.0 0.12584773585566597 -0.3831234341303245
820000000.0 -0.2693380515260182 0.25055266567048146
840000000.0 -0.18556773785536695 0.2810424276957774
860000000.0 0.3130889356382959 0.05889690722837955
880000000.0 0.28014341742465426 -0.01736872000842568
900000000.0 0.16238922915631082 0.2346612867519192
920000000.0 -0.22987248661618656 -0.13344132307991086
940000000.0 -0.19507872808931057 -0.10299922079194669
960000000.0 0.160419178160424 0.06038430514507775
980000000.0 0.003951714739763558 -0.14611176859059696
1000000000.0 0.010163911694290016 0.1470456200301803
1020000000.0 -0.038161035735146134 0.1065356263867694
1040000000.0 -0.02752770351663698 0.1253470898089074
1060000000.0 0.006758425646730619 -0.15866331609151899
1080000000.0 -0.07930584795494446 0.18881616287239728
1100000000.0 -0.12705321224680366 -0.21373294064281687
1120000000.0 -0.16219200087110525 -0.23237416536813804
1140000000.0 -0.24816886839387986 0.19186408990457288
1160000000.0 0.2600829050480035 0.2063301132239907
1180000000.0 0.07270110327012141 0.33739083905355727
1200000000.0 -0.11960779527988108 0.3362767676619173
1220000000.0 0.14438280443440712 -0.3351501934452163
1240000000.0 0.35301838107080136 -0.1384792586450916
1260000000.0 -0.22288918368031396 -0.32385304259460906
1280000000.0 -0.10170336874283539 0.3645223973099982
1300000000.0 0.05470143056244495 -0.3565617150405704
1320000000.0 0.25291321254584315 -0.279422321954753
1340000000.0 -0.043779374367259295 0.3635318270651149
1360000000.0 0.11860063280444577 0.3542991368540963
1380000000.0 -0.3020025381489547 0.2421309430083341
1400000000.0 0.09971450609016547 -0.3663285080858368
1420000000.0 0.35385265755343553 0.143722392628121
1440000000.0 0.29671336020733086 -0.24372890189347354
1460000000.0 0.1279755021727829 -0.36438969931241344
1480000000.0 0.15423515140344285 -0.3670657453415451
1500000000.0 -0.39325132564171017 -0.03900842263312025
1520000000.0 0.28119732198310204 -0.27282430323998397
1540000000.0 0.03275152354350707 0.3675366168689052
1560000000.0 -0.3224189385948825 -0.0676757360702688
1580000000.0 0.2831350786632258 0.07319559006555236
1600000000.0 0.26195546362670313 0.04645626557280448
1620000000.0 0.1838139181031983 0.11492563367642988
1640000000.0 0.1606226147346095 0.09107072826685994
1660000000.0 0.12381323006456435 -0.10908396976452618
1680000000.0 -0.014103687105753493 0.12093206534076231
1700000000.0 0.08937088407634015 -0.06823447806443893
1720000000.0 -0.0915640835386104 -0.013449424157364071
1740000000.0 0.07256194767723351 -0.03964451157464092
1760000000.0 -0.01722055467159659 0.08500503585707861
1780000000.0 0.04113365601554305 -0.10074559343059693
1800000000.0 0.12790863670374633 -0.002216568660160758
1820000000.0 -0.08484824567822291 0.13047804541503857
1840000000.0 0.18440230425646184 -0.03904925988750412
1860000000.0 -0.1279690191951131 0.17652880424586512
1880000000.0 -0.0627591535789578 0.24184084142889678
1900000000.0 0.0131942513761915 0.27108366032472997
1920000000.0 0.16684939178954195 -0.2457949582655537
1940000000.0 -0.2791712223104123 -0.12216263288731906
1960000000.0 0.3131522622702151 0.02160225429807468
1980000000.0 -0.24003142267126176 0.20768049845394096
2000000000.0 0.13391394661861672 -0.2911457787488748
2020000000.0 0.32462385535151256 0.010117147892985423
2040000000.0 0.3189909348566542 0.07247013987123775
2060000000.0 0.30164497200746654 0.11526922770981839
2080000000.0 -0.17677015975666752 0.2703809610381287
2100000000.0 0.06675039813448774 -0.3159228317706989
2120000000.0 0.2580370995942246 0.18698020099570745
2140000000.0 -0.15205288691791985 -0.2805741942580961
2160000000.0 0.1993624462767018 0.2473085257477332
2180000000.0 0.27603991165132463 -0.13293763394991612
2200000000.0 0.23720813710829114 -0.18798686974158943
2220000000.0 -0.033651592850213824 -0.2949649163048497
2240000000.0 0.28644516209555904 0.004699114359759431
2260000000.0 -0.0644433215493388 0.26506833112927974
2280000000.0 -0.19108172812501692 0.1881964694825544
2300000000.0 0.0596913351916179 -0.24339286588152276
2320000000.0 -0.21181507418505133 0.12161290712497404
2340000000.0 0.10188328784457021 -0.21828368695047295
2360000000.0 -0.09873290823485253 0.22043317678512403
2380000000.0 0.03160514110500345 -0.25056892341601944
2400000000.0 -0.0816531174123454 -0.2664976596645173
2420000000.0 0.11342419033863846 0.28400112798590305
2440000000.0 0.11170225645183447 -0.3038813284578788
2460000000.0 -0.18022767487890495 0.30590114533930013
2480000000.0 0.36718696756578245 -0.13537552361597546
2500000000.0 0.11096268171570359 0.41365651665082676
2520000000.0 -0.4521105124441359 -0.10037992546146789
2540000000.0 0.3435808058693974 -0.3579407329946075
2560000000.0 -0.027566627651517232 0.5251025623036668
2580000000.0 -0.03399850910845298 -0.5512868141268681
2600000000.0 0.03886591535021494 0.5753334298927988
2620000000.0 -0.13424290357489255 -0.5818847699441176
2640000000.0 0.2355312497010463 0.5642703295182774
2660000000.0 -0.5574557370751977 -0.28537804427704666
2680000000.0 0.4649791863106858 -0.433245658187567
2700000000.0 0.5866590762657263 0.2659538728513494
2720000000.0 0.3973900452544912 0.513465990578952
2740000000.0 0.3669017177956613 0.5380930178292151
2760000000.0 0.26374010580921914 0.5958260788946991
2780000000.0 -0.634689958993824 0.11626310334772592
2800000000.0 -0.6314490942883948 -0.08119199178753098
2820000000.0 -0.2544180699359751 -0.570779228901157
2840000000.0 0.5983756908502322 -0.12764263552391614
2860000000.0 -0.4834676087969419 0.34970643356808084
2880000000.0 0.5684628588873362 -0.09270390492140264
2900000000.0 -0.23928993832752482 -0.5017293996087556
2920000000.0 -0.5315669550650666 0.008734651045794383
2940000000.0 -0.385586141436023 0.32139177715463196
2960000000.0 -0.391354303595342 0.2698539977760534
2980000000.0 -0.3672307603645515 0.261912223258216
3000000000.0 -0.32019987279400264 0.2816547768695592
3020000000.0 -0.19054394224870344 0.35834872586070143
3040000000.0 0.029393590766512784 0.3845809233236875
3060000000.0 0.3693833991010612 0.037730508216488844
3080000000.0 -0.20083784261100424 -0.297666982836268
3100000000.0 0.17965782883883374 0.2980112629423811
3120000000.0 0.3420231687323728 -0.027203202887088457
3140000000.0 -0.3360606890791134 -0.055705028034671734
3160000000.0 0.33577171327283445 -0.05719323417692604
3180000000.0 -0.32787094917224946 0.09293585567438185
3200000000.0 0.14321600596020315 0.3076902284290946
3220000000.0 0.20319163989784064 -0.2667958220357242
3240000000.0 0.02738530648991577 -0.33071370202142725
3260000000.0 -0.18203409742460183 -0.2711213931587632
3280000000.0 -0.31083313734220586 -0.042087581423969525
3300000000.0 -0.2996671916241841 -0.026283264919531563
3320000000.0 -0.2173366159699907 0.1723771526969729
3340000000.0 -0.24098856510760297 -0.06782488799404922
3360000000.0 -0.21287492231656224 -0.07552491976502733
3380000000.0 0.10906227360021123 -0.16484551636987865
3400000000.0 0.17318690575342932 0.017178274097218574
3420000000.0 0.11155609392813727 -0.09472629400055747
3440000000.0 0.11092326994809688 -0.050237863467507735
3460000000.0 0.02712137653987089 0.09272874538054585
3480000000.0 0.06397160575904076 -0.04709975860926784
3500000000.0 -0.0051144987232349046 -0.07297150981143924
3520000000.0 0.023255382218800236 -0.06812882616051084
3540000000.0 -0.07650889774257409 0.00908222208585232
3560000000.0 -0.03128095997541784 0.07663325696910653
3580000000.0 -0.055992789518172575 0.07501302251661411
3600000000.0 0.09068209993178468 -0.049086731752998096
3620000000.0 0.11562472608057497 0.02742490940540125
3640000000.0 0.08329396153857163 -0.10690731290272226
3660000000.0 -0.14013961883632334 -0.042536467234151845
3680000000.0 0.15102455647472568 -0.019930106198693554
3700000000.0 0.10961569287265838 -0.09070533846891807
3720000000.0 0.05998047534186619 -0.11382606633872716
3740000000.0 0.016750817850736382 -0.10294849747407049
3760000000.0 -0.05035773318123101 0.06332895664640466
3780000000.0 -0.05985385779636866 0.006606286178999796
3800000000.0 0.007260322011518213 0.026839731416378496
3820000000.0 -0.013200479354994939 -6.160424726909839e-05
3840000000.0 0.019615940941616318 -0.043946147067788946
3860000000.0 -0.07336579718018077 0.030943420953792933
3880000000.0 -0.04030744737401625 -0.09833114512909778
3900000000.0 0.07536839318884679 0.10393622078998882
3920000000.0 -0.13532381382850542 -0.0575230107511592
3940000000.0 0.04170182396839424 0.14844741463028155
3960000000.0 0.14559667755477096 -0.06313181542230727
3980000000.0 0.12409869855205075 0.08634222206173503
4000000000.0 -0.12105537927272454 -0.03871579787332997
