!Created with skrf (http://scikit-rf.org).
# Hz S RI R 50.0 
!freq ReS11 ImS11
400000000.0 0.8650661722036435 0.1314052868040959
420000000.0 0.8320220951872792 -0.002567353109210314
440000000.0 0.7807348974520514 0.012291476222627974
460000000.0 -0.19483841975280947 0.6869397971389398
480000000.0 -0.393950056848836 -0.5031821294719879
500000000.0 -0.4478145425571744 -0.4459032367011375
520000000.0 -0.2954305954006993 -0.5646160029294184
540000000.0 -0.5757114903799747 -0.18389135751195299
560000000.0 0.2926200447144815 -0.5088708661095718
580000000.0 -0.02513958508009671 -0.5259787769807298
600000000.0 -0.2073558543808969 0.5843064989149701
620000000.0 -0.6135907305351419 0.08453911438710404
640000000.0 -0.41871202619266007 -0.4072449101164639
660000000.0 0.3867976600972295 0.3621994961141825
680000000.0 0.10261248754850366 -0.4792976878606836
700000000.0 0.4618432964404305 -0.22519728142358458
720000000.0 -0.12205155646864932 -0.4884166577537334
740000000.0 0.45098475159142176 -0.1334968011307833
760000000.0 0.1384185615001627 0.4378508058465263
780000000.0 -0.41079824910901636 -0.15948257467206875
800000000.0 0.09841411878484103 -0.3913992185638386
820000000.0 -0.27468807885603674 0.2433812112287442
840000000.0 -0.1618472498179426 0.2951252522461539
860000000.0 0.31278329202633776 0.05771458002494251
880000000.0 0.2807085190859525 0.01535623212673882
900000000.0 0.20178613701862194 0.2011316025614596
920000000.0 -0.2302923006610319 -0.13429139271639287
940000000.0 -0.15725726163826337 -0.15570260562278954
960000000.0 0.16214058304286472 0.0539724113644166
980000000.0 0.03911863478525774 -0.14123083862218855
1000000000.0 -0.0041833978911709 0.14679142941340678
1020000000.0 0.010134609214156282 0.11239086130667854
1040000000.0 -0.08552302410407407 0.09556360180895605
1060000000.0 -0.021260199028247866 -0.15715853728708962
1080000000.0 -0.07441666621048616 0.19020358184652908
1100000000.0 -0.1079511537057878 -0.2249651532982972
1120000000.0 -0.1441522944116953 -0.2437976618261189
1140000000.0 -0.24895805654557726 0.18894845607833538
1160000000.0 0.2584034457539221 0.2086226044680169
1180000000.0 0.12110090477375747 0.3231979112284736
1200000000.0 -0.14362520761934516 0.3266137511334375
1220000000.0 0.11838529942422174 -0.34489913814613105
1240000000.0 0.3396307486219295 -0.1681495969297586
1260000000.0 -0.2469714612643825 -0.3072123251556359
1280000000.0 -0.09723956346041138 0.36589193524755187
1300000000.0 0.11094242237797533 -0.34370853836368975
1320000000.0 0.25035118855822436 -0.28166576560661233
1340000000.0 -0.07615042142697416 0.3581205790717395
1360000000.0 0.11884044671462134 0.35377614340308516
1380000000.0 -0.3225363614319681 0.21270441005987756
1400000000.0 0.09533251158482059 -0.36699763505021704
1420000000.0 0.3175591701627388 0.21177327457116857
1440000000.0 0.28403019533864887 -0.25733759811795015
1460000000.0 0.13832963851953725 -0.36041712757278666
1480000000.0 0.15659312293599392 -0.36439255432658024
1500000000.0 -0.39491186955879554 0.002149216323555155
1520000000.0 0.2629235085576577 -0.2894480795350386
1540000000.0 0.04847227471672477 0.36552950618338625
1560000000.0 -0.3248666776954631 -0.0572795470774169
1580000000.0 0.2684623729443523 0.11832270360189626
1600000000.0 0.2588320571750514 0.06465938499492897
1620000000.0 0.1893174452334554 0.10740248437094951
1640000000.0 0.12401503717892662 0.13765137988304688
1660000000.0 0.15430183516061383 -0.05722472119520344
1680000000.0 -0.0045661305247517514 0.12087046929449832
1700000000.0 0.07670389005684923 -0.0824629522343116
1720000000.0 -0.08344522866470362 -0.03746486780043433
1740000000.0 0.07522781284220172 -0.032212508843840235
1760000000.0 -0.042105077336164136 0.07568021508674037
1780000000.0 0.023893928188527834 -0.10534639461985175
1800000000.0 0.12330655510993156 -0.03303492576591855
1820000000.0 -0.060803697550226334 0.1435733472039679
1840000000.0 0.1778059805835883 -0.061335472364612544
1860000000.0 -0.08167680610703468 0.20173020060775165
1880000000.0 -0.043038639075775015 0.24635454905291013
1900000000.0 0.04361520728534225 0.2683934433164646
1920000000.0 0.17761023267312348 -0.23817040918512597
1940000000.0 -0.2949426691458069 -0.07827146891051541
1960000000.0 0.3079681688160945 0.06170974314115652
1980000000.0 -0.25255214852912056 0.19166158100844086
2000000000.0 0.15101940658618665 -0.28219837740236425
2020000000.0 0.32345477543971135 0.02778579107492258
2040000000.0 0.30991461165283557 0.1039613871030357
2060000000.0 0.2944659626489472 0.13121005694443064
2080000000.0 -0.1584357357584387 0.28175277520005154
2100000000.0 0.04101755213980523 -0.32080423605227293
2120000000.0 0.2719711699760054 0.16716567984006428
2140000000.0 -0.17952844684139413 -0.2646849646931017
2160000000.0 0.13891276203978453 0.28632542551470974
2180000000.0 0.27997546259030315 -0.12602733099454722
2200000000.0 0.2754982477617198 -0.12579264149738356
2220000000.0 -0.016311911738298514 -0.2961923316609148
2240000000.0 0.2833074923775976 0.03909552957888683
2260000000.0 -0.07731639698859138 0.26187032679850625
2280000000.0 -0.1822237530613274 0.19557835672903764
2300000000.0 0.07367564694880085 -0.23853522449256057
2320000000.0 -0.17096928618666787 0.17397812378143732
2340000000.0 0.07075127973102267 -0.23031509138494718
2360000000.0 -0.07519472638821148 0.22982607515653658
2380000000.0 0.030291931264711462 -0.2512080538573032
2400000000.0 -0.07006519348641378 -0.2709553072939865
2420000000.0 0.16245832587292167 0.2604498165256638
2440000000.0 0.126925763437196 -0.29832708015448123
2460000000.0 -0.22053742569664528 0.2790955348357161
2480000000.0 0.3670465371872934 -0.13765520182731725
2500000000.0 -0.01375896848047104 0.42767999338928553
2520000000.0 -0.4132771402262048 -0.20752368258022086
2540000000.0 0.3486022749332274 -0.35325796222703426
2560000000.0 -0.09802840171664293 0.5157430549013859
2580000000.0 -0.060160674471366075 -0.5484674242955808
2600000000.0 0.04907054904973558 0.5739299602268289
2620000000.0 -0.16627264360599953 -0.5731378314961654
2640000000.0 0.2867834978902869 0.5402894233287153
2660000000.0 -0.5702881068870618 -0.2594479781246258
2680000000.0 0.43959091599121797 -0.4593174437131362
2700000000.0 0.5954972823723803 0.24757368521331946
2720000000.0 0.38778860208945737 0.5213243413320418
2740000000.0 0.4006673072239175 0.5127909166167761
2760000000.0 0.18045974350026533 0.6252093261099306
2780000000.0 -0.6260315121926711 0.15402094962574076
2800000000.0 -0.6236638925584737 -0.12523115074726013
2820000000.0 -0.21443084543855037 -0.5858490060260492
2840000000.0 0.6036263798196612 -0.09649717737506847
2860000000.0 -0.46095032781435225 0.3777838952181352
2880000000.0 0.5550648200652474 -0.1535016902861911
2900000000.0 -0.251551713565134 -0.4961318146327011
2920000000.0 -0.5276590204404061 0.06584214011283543
2940000000.0 -0.3916085208749656 0.31539978823237935
2960000000.0 -0.38783300624190276 0.2781226304822769
2980000000.0 -0.38261992586299476 0.23910690711778093
3000000000.0 -0.35820583359504543 0.23449768861667192
3020000000.0 -0.26766024317757264 0.3060147008296466
3040000000.0 0.05877448084544318 0.38142697334137243
3060000000.0 0.3702306467316868 0.030480818604072084
3080000000.0 -0.13422816757362924 -0.33276383883386546
3100000000.0 0.12734691057972836 0.3237312221438422
3120000000.0 0.3405747193668572 -0.037130105929851456
3140000000.0 -0.3411282727264615 -0.001276989730992391
3160000000.0 0.3262655664057847 -0.09537628506775087
3180000000.0 -0.3326885908549373 0.07474886175609534
3200000000.0 0.19757727490552526 0.27674269161688553
3220000000.0 0.1855888841189588 -0.2792341998034069
3240000000.0 0.025432408905495568 -0.33044473191647117
3260000000.0 -0.17786685155521018 -0.2739006325677167
3280000000.0 -0.30018688437903723 -0.09121418789562032
3300000000.0 -0.29980960071072876 -0.03137097224483478
3320000000.0 -0.19024387727785955 0.20006783877739004
3340000000.0 -0.22983772386547924 -0.09804141800633497
3360000000.0 -0.21428188652984148 -0.07043492703973678
3380000000.0 0.010764152213375214 -0.1970210965269476
3400000000.0 0.17246338392109442 -0.023596996418451054
3420000000.0 0.07477306931178697 -0.1261902777737328
3440000000.0 0.11615613003738208 -0.03841320310877805
3460000000.0 0.069745672166733 0.06804160630614675
3480000000.0 0.059007108895776934 -0.053558520359153865
3500000000.0 -0.021792487186202757 -0.07035230051415199
3520000000.0 0.05560306011533828 -0.04626621592129678
3540000000.0 -0.07492343839607009 -0.019522656991806168
3560000000.0 -0.0595145175308912 0.05770210697148153
3580000000.0 -0.04482433454095075 0.0819371444864267
3600000000.0 0.08294040629671895 -0.057290435963112535
3620000000.0 0.11890985782426917 0.001333640264053418
3640000000.0 0.015383426889755499 -0.13508902003831127
3660000000.0 -0.1463373173436863 0.00304444224810262
3680000000.0 0.10105504270411321 -0.11416777356914111
3700000000.0 0.09701483876129305 -0.10636974845708423
3720000000.0 0.027752242752480227 -0.12708052897350314
3740000000.0 -0.020274758334861358 -0.10361628940296136
3760000000.0 -0.08084578394956785 0.014913560116249292
3780000000.0 0.012244036532731423 -0.06048557134561906
3800000000.0 0.028214742295327205 0.0042533597205624395
3820000000.0 8.254813593530259e-05 0.01336195661131715
3840000000.0 -0.04098001219611482 0.02479755339878075
3860000000.0 -0.054500727435893216 0.059351798775577794
3880000000.0 -0.047703889628481294 -0.09553127064341613
3900000000.0 0.09911318191330844 0.084116569099849
3920000000.0 -0.1314490452355176 -0.06680849487325873
3940000000.0 0.024170615768486205 0.15359528102956946
3960000000.0 0.15660789461531555 -0.025736263282411482
3980000000.0 0.05932169035951084 0.13828863646318357
4000000000.0 -0.05367897146785389 -0.1139091239360978
