!Created with skrf (http://scikit-rf.org).
# Hz S RI R 50.0 
!freq ReS11 ImS11
400000000.0 0.8655495506202355 0.1288280615851007
420000000.0 0.8296171103738541 -0.06427991404139907
440000000.0 0.7808632646898025 0.02878862387666821
460000000.0 -0.19448090615274682 0.6871284710439739
480000000.0 -0.4010773956571453 -0.4968848906639933
500000000.0 -0.4833095111321576 -0.40669134692411957
520000000.0 -0.32082896264815186 -0.5501360562591693
540000000.0 -0.5422616044212293 -0.2669222047662135
560000000.0 0.286959728056425 -0.5109349416201426
580000000.0 -0.0689210759253553 -0.5219616117828889
600000000.0 -0.13601472231120046 0.6047585567566233
620000000.0 -0.6191792174451299 0.015005860337656184
640000000.0 -0.384284912343605 -0.4396546302664188
660000000.0 0.3265596844113778 0.41790780591313886
680000000.0 0.10025850522743293 -0.47954556924182523
700000000.0 0.4428277447946119 -0.258182913445792
720000000.0 -0.17225071448807905 -0.47190274147792266
740000000.0 0.4241932270422264 -0.20492372490774713
760000000.0 0.12975220779309482 0.4411332183776492
780000000.0 -0.40845475123150216 -0.16384862406333883
800000000.0 0.12702591426823684 -0.38227946631024257
820000000.0 -0.26900204124742166 0.25069480967667473
840000000.0 -0.1830586593350651 0.28258503489521797
860000000.0 0.30729183918542713 0.08388278703317677
880000000.0 0.2803169370307647 -0.006759076478898418
900000000.0 0.17677019089716256 0.22319045582030003
920000000.0 -0.23514798620810068 -0.12311923617335
940000000.0 -0.19187413754461521 -0.10829896200678149
960000000.0 0.16213069450243536 0.052924936071011786
980000000.0 0.03974722686454124 -0.1410391631755993
1000000000.0 0.005826948368481127 0.14709323788398163
1020000000.0 -0.017341378238226533 0.11182614262506202
1040000000.0 -0.05702892312955745 0.11419031861713368
1060000000.0 0.015001809890737617 -0.15856428033260025
1080000000.0 -0.02660578661362174 0.2027526435720947
1100000000.0 -0.11173859109472814 -0.22246458172339054
1120000000.0 -0.17799584372239644 -0.2204101424147059
1140000000.0 -0.2636539938551797 0.17014375576396007
1160000000.0 0.2674813300858659 0.19683399506176813
1180000000.0 0.04498539213054528 0.34247788752719405
1200000000.0 -0.1433127918904507 0.3267240483065974
1220000000.0 0.15326132052381694 -0.3314800871816688
1240000000.0 0.3532538377141031 -0.13721299286191008
1260000000.0 -0.22768098628221578 -0.32068991501697036
1280000000.0 -0.13469286111839923 0.3535590211868012
1300000000.0 0.033739649204360365 -0.35908371592622346
1320000000.0 0.2817177506074084 -0.2505763906222126
1340000000.0 -0.03930054072681554 0.3639208142012934
1360000000.0 0.10960272077809195 0.3571861556239011
1380000000.0 -0.29945801629199387 0.24497656122333175
1400000000.0 0.1318492027201498 -0.35603406126274006
1420000000.0 0.3462563338498735 0.16098073868457713
1440000000.0 0.30953818523388904 -0.22699044002677737
1460000000.0 0.14171540534282226 -0.35895026543346237
1480000000.0 0.18805675832004132 -0.3503643001706249
1500000000.0 -0.39292228571625504 -0.03607231752067189
1520000000.0 0.27724974831705723 -0.2771623898570054
1540000000.0 0.053101112596546166 0.36477289768864823
1560000000.0 -0.3261388444843057 -0.046130239246755064
1580000000.0 0.2798862456160778 0.08620867739351326
1600000000.0 0.2605103571002571 0.05672154491793756
1620000000.0 0.17676451933381926 0.1258426096728471
1640000000.0 0.14167078978071002 0.11868361773739677
1660000000.0 0.1281451403474573 -0.10433128660651364
1680000000.0 -0.028980450589696474 0.11847545311881663
1700000000.0 0.08912438128684604 -0.0681346186912561
1720000000.0 -0.0911697727511009 -0.015461165820484369
1740000000.0 0.06606465094531169 -0.049869857917443694
1760000000.0 -0.04371240035214183 0.07502884385724383
1780000000.0 0.04710420433139441 -0.0980192631670577
1800000000.0 0.12750904149199757 -0.012293993317957455
1820000000.0 -0.09421870686892449 0.12381157944764648
1840000000.0 0.18766823762401758 -0.016487519798527944
1860000000.0 -0.11180011571834647 0.18683625532530646
1880000000.0 -0.08680060726712995 0.23413354760918179
1900000000.0 0.023935671863674415 0.27067571105550203
1920000000.0 0.16173608497321068 -0.24948311981098534
1940000000.0 -0.28256510564463444 -0.11420108296589253
1960000000.0 0.3125024932895011 0.02972715208278586
1980000000.0 -0.2412500267189835 0.20605009083261602
2000000000.0 0.13179049064436893 -0.29219355322129453
2020000000.0 0.3248218601795264 -0.009427413486271366
2040000000.0 0.30786813985096717 0.11087369964392209
2060000000.0 0.30589983352483263 0.10299436800426082
2080000000.0 -0.18046075742619894 0.26800685162439025
2100000000.0 0.04535050684504228 -0.31960508141713545
2120000000.0 0.25082597919049554 0.19631183659555357
2140000000.0 -0.19324913908631713 -0.253855377630205
2160000000.0 0.1956352505486607 0.25044592102404517
2180000000.0 0.27767545763572626 -0.13048633161215584
2200000000.0 0.2444299165837869 -0.17864137081925355
2220000000.0 -0.054878398356747 -0.29163444968902985
2240000000.0 0.285220835533768 0.03204068328795919
2260000000.0 -0.06355781074305439 0.2650815468388065
2280000000.0 -0.199972274186722 0.17861853417174348
2300000000.0 0.0759148078776586 -0.23854954931029676
2320000000.0 -0.2102549843699803 0.12412735934464834
2340000000.0 0.09868385419661269 -0.21908918837852637
2360000000.0 -0.12081008774516916 0.2089774889079223
2380000000.0 0.019788403347060658 -0.251566959449935
2400000000.0 -0.047539235970302296 -0.2745942791460983
2420000000.0 0.10906692690838901 0.2855768852781318
2440000000.0 0.10163615387817229 -0.3074006853106582
2460000000.0 -0.18377887775227844 0.30408558815010545
2480000000.0 0.36696377822258847 -0.13659836978591955
2500000000.0 0.11393646950368656 0.4131694048009351
2520000000.0 -0.44836597328485267 -0.11574803635876217
2540000000.0 0.335627779093006 -0.36545564380614826
2560000000.0 -0.04265514622366558 0.5238443789279071
2580000000.0 -0.026044551174759418 -0.5516286016218288
2600000000.0 0.05143462057014565 0.5740461996445977
2620000000.0 -0.16026130234771588 -0.5745403491143064
2640000000.0 0.2797972863449028 0.543452706120678
2660000000.0 -0.5582077865419818 -0.2837527915174888
2680000000.0 0.44512917085731196 -0.45369850381571725
2700000000.0 0.5736572464917644 0.2936023565315824
2720000000.0 0.40033266013389796 0.5114614504490741
2740000000.0 0.35742349548103314 0.5443943688274904
2760000000.0 0.28159527789090516 0.5875854421803524
2780000000.0 -0.6223058252933027 0.17183260039721132
2800000000.0 -0.6312227718034124 -0.08244258035655766
2820000000.0 -0.2457304525013882 -0.5744059126074507
2840000000.0 0.592844482472565 -0.15071816960806406
2860000000.0 -0.4711457676620676 0.36530299228913066
2880000000.0 0.5641230390222204 -0.11542041038480381
2900000000.0 -0.2627804445041496 -0.48982485538685755
2920000000.0 -0.5298151518138163 0.03725876747730346
2940000000.0 -0.37022230506584913 0.33901668924804623
2960000000.0 -0.3558613493401222 0.31498337647172847
2980000000.0 -0.3540763835227458 0.2785990173119108
3000000000.0 -0.3347800031577956 0.2640916141306947
3020000000.0 -0.2064131772470332 0.3494481617063551
3040000000.0 0.1288586973682699 0.3626876404705417
3060000000.0 0.3702510205128063 0.027624389255663982
3080000000.0 -0.1874423571126496 -0.3055864597758723
3100000000.0 0.13961908201151554 0.318790237785762
3120000000.0 0.3261328191231732 -0.10816773469411808
3140000000.0 -0.3401219474107507 -0.010286364594453378
3160000000.0 0.3337521739337524 -0.06808208172183496
3180000000.0 -0.32664237722477285 0.09812366913377994
3200000000.0 0.174353041130715 0.2918231173113958
3220000000.0 0.1928890249399748 -0.2740495289994329
3240000000.0 0.020766956370460755 -0.33053693014045216
3260000000.0 -0.16538639974281485 -0.2824400322223905
3280000000.0 -0.31046347598593915 -0.045463249844959426
3300000000.0 -0.29905742152798237 -0.029666585286113534
3320000000.0 -0.231586717932935 0.15163297167559758
3340000000.0 -0.22672015303478169 -0.1059743277952006
3360000000.0 -0.19639686468977477 -0.11267349581390965
3380000000.0 0.09413654446012089 -0.17333905728605045
3400000000.0 0.17378837995435442 0.001042732049248494
3420000000.0 0.11633490938118621 -0.08905314417333617
3440000000.0 0.09510366420655289 -0.07629697114663321
3460000000.0 0.05214493911390961 0.08132482585094088
3480000000.0 0.06428299636372674 -0.0459569289794159
3500000000.0 -0.0054592109482535 -0.07372063699767442
3520000000.0 0.01578456797485693 -0.07060025942641501
3540000000.0 -0.0768729828859004 -0.007051222716695116
3560000000.0 -0.05778055938377473 0.058968874329062226
3580000000.0 -0.07167521114736748 0.061281869419512046
3600000000.0 0.09512964004490973 -0.03987266598077779
3620000000.0 0.11465624084658967 0.031473683461997026
3640000000.0 0.07683394100309547 -0.11113312782126035
3660000000.0 -0.1297719099030876 -0.0682429583608189
3680000000.0 0.15131952386238876 -0.018525283703205737
3700000000.0 0.11563595493633423 -0.08263710556543342
3720000000.0 0.09111013455335384 -0.09029479865065243
3740000000.0 -0.005998626110418408 -0.1041011817770705
3760000000.0 -0.05564011701954597 0.05894701031739811
3780000000.0 -0.059444966885608116 0.011618775192468855
3800000000.0 0.0058990450159259475 0.027269343379463802
3820000000.0 -0.009128179096062618 -0.009168598661255453
3840000000.0 0.016608578194411066 -0.04509135278467216
3860000000.0 -0.07069758211460164 0.03688052578858737
3880000000.0 -0.0016413615276173429 -0.10629423929493736
3900000000.0 0.07687100217754608 0.10298389031994651
3920000000.0 -0.13333608331561936 -0.06118604537667033
3940000000.0 0.10238944892845163 0.1148497563319398
3960000000.0 0.130365158174499 -0.09063447829077455
3980000000.0 0.12896525492563327 0.07982366198414
4000000000.0 -0.1280889355489999 -0.0026711401482924103
