!Created with skrf (http://scikit-rf.org).
# Hz S RI R 50.0 
!freq ReS11 ImS11
400000000.0 0.8664827764321703 0.12259590891411215
420000000.0 0.8311708484905896 -0.03913434718167976
440000000.0 0.7808169281412639 -0.01094758867601808
460000000.0 -0.22607223764877485 0.67683534281069
480000000.0 -0.3961775734053482 -0.5012086636844165
500000000.0 -0.4810627525484557 -0.40957225279856446
520000000.0 -0.30204931369495985 -0.560869282683196
540000000.0 -0.5606696328193608 -0.22605032563903596
560000000.0 0.2955115996956885 -0.505639548659097
580000000.0 -0.0647935938444064 -0.5223655260647745
600000000.0 -0.12150753259542717 0.607764070721833
620000000.0 -0.6190575637298888 0.016691470022083436
640000000.0 -0.4052855970336345 -0.4201567452472851
660000000.0 0.3420160585086735 0.40492585641895085
680000000.0 0.08125455753390329 -0.4830846028047946
700000000.0 0.4462902185066549 -0.25224284581709455
720000000.0 -0.18708310443980594 -0.46643331025168666
740000000.0 0.4234155487826522 -0.2068082188045483
760000000.0 0.10599870898407088 0.44729428775903685
780000000.0 -0.3856898648541107 -0.2123001205686274
800000000.0 0.1230138994911469 -0.38369669209500135
820000000.0 -0.25739053277645074 0.26243795392770175
840000000.0 -0.1784724451434762 0.28564461296099025
860000000.0 0.30171781902875905 0.10267607530532594
880000000.0 0.2789444733010671 -0.02624203097379136
900000000.0 0.19004699371769704 0.21242607701465882
920000000.0 -0.23226153531263868 -0.12839116760760727
940000000.0 -0.17889529516721242 -0.12957174926814843
960000000.0 0.1634506853403294 0.04981783414958281
980000000.0 -0.022034868258430183 -0.14493677200168306
1000000000.0 -0.01782646983390435 0.14593075184941176
1020000000.0 -0.03361843099710414 0.1082428922368648
1040000000.0 -0.011950216136626361 0.1275212299348578
1060000000.0 0.012424309594406263 -0.15865304802924643
1080000000.0 -0.06297892132400972 0.19456268106324423
1100000000.0 -0.10696714708258412 -0.22460294000157055
1120000000.0 -0.2045087093940917 -0.1955952952849238
1140000000.0 -0.26720960529001914 0.16427710907836457
1160000000.0 0.2852559475637462 0.16989895630893276
1180000000.0 0.058972843229743235 0.34027452535605757
1200000000.0 -0.12286999916915775 0.334752016555938
1220000000.0 0.14820739453284468 -0.3339525680435968
1240000000.0 0.35513462108274096 -0.13230586454531082
1260000000.0 -0.21750089742111803 -0.3280541844593057
1280000000.0 -0.12369819104838933 0.3574359223633801
1300000000.0 0.07859482428119739 -0.3524009174512659
1320000000.0 0.24809771966161406 -0.2831242740163227
1340000000.0 -0.08116234866306256 0.35764614965757285
1360000000.0 0.11520356679183476 0.3550331155718282
1380000000.0 -0.2810081073802493 0.2667572943550507
1400000000.0 0.13809370728888462 -0.35372360662729946
1420000000.0 0.36396399532712814 0.11574900317432983
1440000000.0 0.29955160061839453 -0.2393000964356144
1460000000.0 0.14504553142459325 -0.35798520486251556
1480000000.0 0.14370252748652304 -0.3700084934959481
1500000000.0 -0.3940495948934156 -0.03161219053125524
1520000000.0 0.2909105970923764 -0.26177122952630255
1540000000.0 0.05137367810938247 0.36545916630855785
1560000000.0 -0.3248570457143754 -0.05584793547139678
1580000000.0 0.2750200449306241 0.10052829145860136
1600000000.0 0.260836749601097 0.05344506031867114
1620000000.0 0.17481724461443776 0.12915079324339193
1640000000.0 0.14958959120732668 0.10805083336609697
1660000000.0 0.12960611133011332 -0.10227091352508567
1680000000.0 -0.025941848334634705 0.11857756677922153
1700000000.0 0.0920821463215665 -0.0649624504554541
1720000000.0 -0.08652135075965213 -0.031790360926171914
1740000000.0 0.08120196544417793 -0.01520836592067129
1760000000.0 -0.04268227153909655 0.07527619620998885
1780000000.0 0.042838588608406135 -0.10006104656197595
1800000000.0 0.12817089327478037 0.0003668405833825588
1820000000.0 -0.08129636063380997 0.13269769031002757
1840000000.0 0.18462553041921825 -0.03870510213873394
1860000000.0 -0.12768275671817728 0.17670725144603358
1880000000.0 -0.059276478753658914 0.24295233446273348
1900000000.0 0.013144637347738212 0.27146720657710155
1920000000.0 0.1827066553626062 -0.23432399298538734
1940000000.0 -0.2764717488257395 -0.12816296682221875
1960000000.0 0.31191402318799516 0.03477872116662257
1980000000.0 -0.25014368099507256 0.19516334102936672
2000000000.0 0.1390921983749566 -0.28858851185490886
2020000000.0 0.3242661037029802 0.017869239287487626
2040000000.0 0.3191747246362344 0.07165515428720788
2060000000.0 0.3024755726356136 0.1131400360360387
2080000000.0 -0.16726740562188666 0.2762378796176051
2100000000.0 0.059995713787760564 -0.3173004370454598
2120000000.0 0.2603348162755599 0.1842298259772005
2140000000.0 -0.1950332893611851 -0.2528530607480674
2160000000.0 0.19193741069021703 0.2534086294058057
2180000000.0 0.2859063380241209 -0.11049142739893618
2200000000.0 0.23517678031165626 -0.19036942711805288
2220000000.0 -0.030321639816335823 -0.2952907501412992
2240000000.0 0.2865021856968114 0.007207872496320307
2260000000.0 -0.07319942913892712 0.2626545578477317
2280000000.0 -0.19979554186518816 0.17865350765843388
2300000000.0 0.06578582859992176 -0.2414451376499721
2320000000.0 -0.21258242194590163 0.11984566778917402
2340000000.0 0.11018237180816294 -0.21417531197675094
2360000000.0 -0.10512149866517402 0.21753113379587674
2380000000.0 0.020720235551739092 -0.25153534380403103
2400000000.0 -0.08439547218198432 -0.26565537244384096
2420000000.0 0.13441636498656476 0.27478599900007583
2440000000.0 0.11545211923671586 -0.30259830209351196
2460000000.0 -0.17367985464067628 0.31001867834574637
2480000000.0 0.36794212256331105 -0.13360903274416577
2500000000.0 0.08984912521053069 0.41875629587868224
2520000000.0 -0.4527408547901934 -0.09797073579381327
2540000000.0 0.3347000283026134 -0.3660981619345415
2560000000.0 -0.053450345724255735 0.5230103668187884
2580000000.0 -0.05093036222288069 -0.5500302765422607
2600000000.0 0.019509637007740922 0.5761755311814328
2620000000.0 -0.1961983128579681 -0.5631673751584733
2640000000.0 0.2714390753863552 0.5477001966204982
2660000000.0 -0.5798196726939417 -0.2356630804333743
2680000000.0 0.389461997503627 -0.5017861637501172
2700000000.0 0.6109459660211605 0.20593007853907647
2720000000.0 0.4330711386875019 0.4837536614478934
2740000000.0 0.419017935482237 0.4991972834857798
2760000000.0 0.28269365571420624 0.5870177886053224
2780000000.0 -0.6210624454774719 0.1754004550416726
2800000000.0 -0.6318965772260241 -0.07727347598181249
2820000000.0 -0.2519345671544379 -0.571884625791743
2840000000.0 0.5923826299272497 -0.1528629236868476
2860000000.0 -0.47908478279039807 0.3552225639869774
2880000000.0 0.5661978895217294 -0.10679822278780775
2900000000.0 -0.27060506159371644 -0.48524403429145335
2920000000.0 -0.5314921810223295 0.0022217613464699314
2940000000.0 -0.3579663711570117 0.3515995398056388
2960000000.0 -0.38630315554760286 0.2770535992273815
2980000000.0 -0.37693081691016084 0.24749623487975222
3000000000.0 -0.34175627256891167 0.2545931272009612
3020000000.0 -0.20754862882607106 0.34834885914681174
3040000000.0 0.04682254008242276 0.3822453328995292
3060000000.0 0.370982468464097 -0.01116220405661408
3080000000.0 -0.22582858388001714 -0.2788988733409851
3100000000.0 0.1451712322420269 0.3158576251642729
3120000000.0 0.33635110473028956 -0.06768005028132167
3140000000.0 -0.3399705567718088 -0.024356797547328047
3160000000.0 0.3311070098722355 -0.08047109087139379
3180000000.0 -0.3229824045460288 0.1087301862035482
3200000000.0 0.13993119993396394 0.3094132959351061
3220000000.0 0.21898637659147688 -0.2550053862213192
3240000000.0 0.009504253387516733 -0.331185124394497
3260000000.0 -0.16987358377046732 -0.27882847544838446
3280000000.0 -0.30062782417785294 -0.09271722362954135
3300000000.0 -0.3001147422430243 -0.005891080767702439
3320000000.0 -0.199872008330249 0.19144802537488728
3340000000.0 -0.2316865032366504 -0.09528326549822039
3360000000.0 -0.2126562426422429 -0.07571930964085023
3380000000.0 0.10369902875348681 -0.16840706032274858
3400000000.0 0.1739390347652237 0.0008080688837095949
3420000000.0 0.1114814409485073 -0.0949359538629201
3440000000.0 0.11760807001134667 -0.03181204658110186
3460000000.0 0.022806383081365445 0.09391379028994003
3480000000.0 0.053913387565595154 -0.058495209902598454
3500000000.0 0.013151595428494261 -0.07225002869184541
3520000000.0 0.0411837610424515 -0.05955778053941474
3540000000.0 -0.07417679017782658 -0.021327452294946113
3560000000.0 -0.03817203191288501 0.0732360282251423
3580000000.0 -0.06925369373843258 0.06258819467666207
3600000000.0 0.08802404231690267 -0.05292732773471536
3620000000.0 0.11616644373345668 0.025924182330697057
3640000000.0 0.03988320043131478 -0.12872152268286458
3660000000.0 -0.1431126878903957 -0.030831464507214277
3680000000.0 0.1479219817848018 -0.03650865423439204
3700000000.0 0.10560590531194304 -0.09579531121624597
3720000000.0 0.0500067185514252 -0.11866411151138306
3740000000.0 0.0029720889874749992 -0.10447965507647443
3760000000.0 -0.06405581113816251 0.04958393211920179
3780000000.0 -0.06031563654371124 -0.005743512140332092
3800000000.0 0.0015127208643870732 0.02753102137987563
3820000000.0 -0.012581965091723797 0.0032416297836469973
3840000000.0 0.0027577192258150664 -0.04820210361302921
3860000000.0 -0.07800820312543216 0.0176178811205537
3880000000.0 -0.033512814399747105 -0.10105568263923571
3900000000.0 0.04473251118390397 0.1205151977515883
3920000000.0 -0.11444685418749488 -0.09158124173905038
3940000000.0 0.01850908460858948 0.15250647662559533
3960000000.0 0.15600110266972436 -0.02266855601482233
3980000000.0 0.09380099513688694 0.11717365554873031
4000000000.0 -0.12261035569567731 -0.029117636804773344
