!Created with skrf (http://scikit-rf.org).
# Hz S RI R 50.0 
!freq ReS11 ImS11
400000000.0 0.8607984321941463 0.15825142789289534
420000000.0 0.8308109734768968 -0.04911115533552777
440000000.0 0.7804239528277563 -0.02123249542541718
460000000.0 -0.1957182812572006 0.6859786348990204
480000000.0 -0.3983679546959816 -0.4995267760258944
500000000.0 -0.5059808374861781 -0.3790972979144434
520000000.0 -0.32938126249763533 -0.5462227107488901
540000000.0 -0.5607078491074257 -0.2277283599918049
560000000.0 0.3323917570200401 -0.4839207979892903
580000000.0 0.03523909100752065 -0.525339559557969
600000000.0 -0.16763148330806915 0.5972151406832722
620000000.0 -0.6178103173705816 0.03865907187318037
640000000.0 -0.41545914513043225 -0.41131406814833077
660000000.0 0.330238393066233 0.4151504206280792
680000000.0 0.09163681607990569 -0.48145021845958047
700000000.0 0.4457322654297509 -0.2549505735020802
720000000.0 -0.13585309530964657 -0.48485957555505904
740000000.0 0.441366328415605 -0.16299076243974844
760000000.0 0.116637351739452 0.44470707807588455
780000000.0 -0.384312720615915 -0.21580094213160778
800000000.0 0.10928916226396317 -0.38827743166865025
820000000.0 -0.2611967885545503 0.2583347490710241
840000000.0 -0.15095666598816698 0.30043466357939275
860000000.0 0.30941196423408607 0.07459585079690638
880000000.0 0.28076878587542176 -0.000370462979477698
900000000.0 0.16368388488778976 0.2323350501158412
920000000.0 -0.24085598103526656 -0.11241215416389884
940000000.0 -0.1657039686135504 -0.14666421437836946
960000000.0 0.14844416354722684 0.08431369201248186
980000000.0 0.025505382134637513 -0.1435133959458182
1000000000.0 -0.008759263150118634 0.1466812167821697
1020000000.0 0.014296711500833389 0.11225044289067702
1040000000.0 -0.061742320928370106 0.11207778601058903
1060000000.0 -0.005744283464873525 -0.15837441075435696
1080000000.0 -0.022996215723058402 0.2033046278551222
1100000000.0 -0.08716843711254248 -0.23341510394011153
1120000000.0 -0.17170301427242354 -0.22631440513187687
1140000000.0 -0.28447400162794645 0.1319566156274647
1160000000.0 0.27642278317406893 0.1828751602966088
1180000000.0 0.0669765827722725 0.33834525044425573
1200000000.0 -0.1065094276991533 0.33997253766897845
1220000000.0 0.1386118403017071 -0.3375243309768303
1240000000.0 0.34360041064138097 -0.15954048831321324
1260000000.0 -0.23605986567038134 -0.3145405563629901
1280000000.0 -0.0947847504721987 0.3668739896989655
1300000000.0 0.06691415819570028 -0.35471436137539886
1320000000.0 0.24700235516677996 -0.2838775258423695
1340000000.0 -0.05244055214815296 0.3628474826617829
1360000000.0 0.10764079989391716 0.3575970936844389
1380000000.0 -0.32654817919581625 0.20677590373399582
1400000000.0 0.11155544731445746 -0.36229153557891314
1420000000.0 0.33714329816543315 0.17824773428330778
1440000000.0 0.28368523904387294 -0.25841284344383486
1460000000.0 0.1670376989721531 -0.3478655507799307
1480000000.0 0.2461630157586824 -0.3134033212941446
1500000000.0 -0.3951969356002584 -0.019173298429232564
1520000000.0 0.30345146566645054 -0.24738481084877612
1540000000.0 0.04135861625622181 0.366593199759893
1560000000.0 -0.32576185212820147 -0.050023397837363245
1580000000.0 0.2700027051082093 0.11447813409217848
1600000000.0 0.262926614325741 0.041008881946944124
1620000000.0 0.17411317045489266 0.1307261680080344
1640000000.0 0.09525364205809758 0.15879369191481754
1660000000.0 0.1358220948374123 -0.09286010575014325
1680000000.0 -0.02747510916112768 0.11805752756538673
1700000000.0 0.08240707735167992 -0.07772795965743796
1720000000.0 -0.08156716003595918 -0.04170638436670184
1740000000.0 0.06437196002285593 -0.05094209983892476
1760000000.0 -0.03776632893045523 0.07809672693121184
1780000000.0 0.04191058699957981 -0.10023670787791562
1800000000.0 0.12562952055693763 -0.024358672209352672
1820000000.0 -0.07096058891284118 0.13850489714245792
1840000000.0 0.17938456652907617 -0.05674917057247282
1860000000.0 -0.07794503055531675 0.20323751086959452
1880000000.0 -0.03287941476616021 0.24810378076807543
1900000000.0 0.03545896438038077 0.26958475632258583
1920000000.0 0.17650448488417772 -0.23943073493834652
1940000000.0 -0.281774359440976 -0.11677193236600111
1960000000.0 0.3106231206300543 0.04746752939928136
1980000000.0 -0.25633461762880544 0.18625765305778266
2000000000.0 0.1195568555937809 -0.2966484880506046
2020000000.0 0.3241112816738457 0.012606162255855733
2040000000.0 0.3123172297899676 0.09681557736600835
2060000000.0 0.30769416073640526 0.09629358330043716
2080000000.0 -0.1559432989067605 0.2832491365571987
2100000000.0 0.01444747397689554 -0.3234008700308319
2120000000.0 0.28017213964323745 0.1528155506365375
2140000000.0 -0.1715033714288775 -0.270816962028519
2160000000.0 0.1479171153196328 0.2814741814792164
2180000000.0 0.28745215220366327 -0.10824154907250969
2200000000.0 0.26850579210702197 -0.14111841410214773
2220000000.0 0.008130353030682791 -0.2969074357355991
2240000000.0 0.28438444769262206 0.034039634817831295
2260000000.0 -0.07864523030424855 0.26094441298231436
2280000000.0 -0.21806116528622574 0.1555132679131503
2300000000.0 0.05382273682154314 -0.24365822948578503
2320000000.0 -0.1819071131053841 0.16233726411434996
2340000000.0 0.07696424406176376 -0.22813206584457688
2360000000.0 -0.07923233763780851 0.22812930410492313
2380000000.0 -0.0179688760358731 -0.2524165134075236
2400000000.0 -0.1144749463788092 -0.2551114392708743
2420000000.0 0.14991566751233482 0.26758657112231204
2440000000.0 0.08345313481105983 -0.31375611795623
2460000000.0 -0.20183656386834045 0.2932832006362111
2480000000.0 0.374308900253084 -0.11568967246185481
2500000000.0 0.0004496375628403704 0.4284418959729456
2520000000.0 -0.4217820799469439 -0.19047391306325637
2540000000.0 0.37354342554247744 -0.3265790964339008
2560000000.0 -0.09872131689979122 0.5159851517314687
2580000000.0 -0.05253350408017114 -0.5492231245059758
2600000000.0 0.04686555746120701 0.5743221785708718
2620000000.0 -0.1574283721827223 -0.5752494935444596
2640000000.0 0.29157634573730523 0.5374734726387455
2660000000.0 -0.5673293379658548 -0.2657930643754189
2680000000.0 0.3777299537294896 -0.5109500156960918
2700000000.0 0.6032885696650068 0.2280515762452181
2720000000.0 0.4182459272107611 0.4977997349642018
2740000000.0 0.2922590323978027 0.5817228307469454
2760000000.0 0.22228523719293825 0.6122786196518019
2780000000.0 -0.6333440159223858 0.12369632829820314
2800000000.0 -0.6244354781823096 -0.12343890430408544
2820000000.0 -0.21188856570203504 -0.5870399023906696
2840000000.0 0.6002322701865391 -0.11732641646248959
2860000000.0 -0.4816888056911213 0.35100388704296537
2880000000.0 0.562143217861683 -0.124136747301335
2900000000.0 -0.2498213565773332 -0.49705873283926655
2920000000.0 -0.5309732905240304 0.03078758348456379
2940000000.0 -0.3807807601559796 0.3280311502619921
2960000000.0 -0.39974420095470237 0.259103874614698
2980000000.0 -0.37196916997566926 0.25654754752624925
3000000000.0 -0.32753708313675955 0.27373793122067175
3020000000.0 -0.18576153790032757 0.36103421764499455
3040000000.0 -0.017369954994542032 0.38543845417094647
3060000000.0 0.36841069969080825 0.04645183988013689
3080000000.0 -0.16103470893139796 -0.32092128642351536
3100000000.0 0.05528544996115139 0.342915394964524
3120000000.0 0.33234227252244447 -0.08431859176223822
3140000000.0 -0.33991805861182045 0.022602105170662492
3160000000.0 0.3244962379127315 -0.10396009864636302
3180000000.0 -0.3235868961650102 0.10509708365498124
3200000000.0 0.17743527359755581 0.2894299955395932
3220000000.0 0.19230903052912363 -0.2752967520980632
3240000000.0 -0.043104146771940646 -0.3280205666096757
3260000000.0 -0.1862030921609839 -0.26821882611966236
3280000000.0 -0.304742092895498 -0.08078245498598823
3300000000.0 -0.30076824532650065 0.005866879657726139
3320000000.0 -0.1771050608862123 0.2118621554823701
3340000000.0 -0.23052539025651791 -0.0999365598575506
3360000000.0 -0.18286488781666063 -0.1336328203480181
3380000000.0 0.08295604131564042 -0.17971606297252468
3400000000.0 0.1743891245829482 0.012940376313242906
3420000000.0 0.11735147900509713 -0.08924516766780924
3440000000.0 0.11347220618757002 -0.04618559051907539
3460000000.0 0.0207734856962961 0.09527273451764674
3480000000.0 0.06919929330580192 -0.039491984105938016
3500000000.0 0.01238122334284498 -0.07211841124725449
3520000000.0 0.06371067633626992 -0.03439651673105475
3540000000.0 -0.06343287088741223 -0.04351423033628537
3560000000.0 -0.04107828145693915 0.07087359670305826
3580000000.0 -0.067555081398635 0.06373215441004905
3600000000.0 0.0570871749322054 -0.08374007668118759
3620000000.0 0.11086347345588558 -0.04158754701333347
3640000000.0 0.01802225105385184 -0.13414070194995267
3660000000.0 -0.13136536039141902 0.06442696708513664
3680000000.0 0.09784488779429881 -0.11823707577981789
3700000000.0 0.052370011354674555 -0.13408891109903123
3720000000.0 0.006779335747139813 -0.1301142733676909
3740000000.0 0.0077485316176881215 -0.10602627489116577
3760000000.0 -0.0830072899769973 0.0031487179328230325
3780000000.0 0.02459639670616516 -0.05693179494614942
3800000000.0 0.027958565268424523 -0.002880649285566914
3820000000.0 0.008412124516964329 -0.008715096475892511
3840000000.0 -0.03736829872451265 0.029131268473590658
3860000000.0 -0.021940295810413932 0.07772548417612554
3880000000.0 -0.08341835789535314 -0.06737898602162296
3900000000.0 0.07170839283915405 0.10897454474132437
3920000000.0 -0.13940793942318044 -0.050567542303643825
3940000000.0 -0.0038736900063468666 0.15507955647645605
3960000000.0 0.15681262711768632 0.02712411905788552
3980000000.0 0.05507281488388395 0.14124427224654365
4000000000.0 -0.055015283238887484 -0.11329751928201129
