!Created with skrf (http://scikit-rf.org).
# Hz S RI R 50.0 
!freq ReS11 ImS11
400000000.0 0.8956492607912189 -0.22960116465233288
420000000.0 -0.9182129331634411 -0.08256449977854821
440000000.0 0.2960422719443326 0.8733186490664622
460000000.0 0.8730044420192205 -0.27168141475772406
480000000.0 0.7061194669971117 -0.5717741915393121
500000000.0 -0.2553114361186946 -0.8739316090290153
520000000.0 -0.6483388401579806 -0.6253456900165519
540000000.0 -0.8851872752223376 -0.13205274033135914
560000000.0 -0.8746776884171816 0.13533315493382492
580000000.0 -0.6821882294299116 0.547454639668058
600000000.0 -0.26409885847304737 -0.818263866056371
620000000.0 -0.38703115376356123 -0.7504155898478675
640000000.0 0.04027083167691286 -0.8340458144686642
660000000.0 0.7957239144567381 0.24380155293454456
680000000.0 0.060211999139016134 0.8158604675408927
700000000.0 -0.7978232420725107 0.19032879216658763
720000000.0 -0.395642135691466 -0.7171930435896345
740000000.0 0.7442530868929486 -0.329502180716544
760000000.0 0.4693055065840401 0.6701763183744789
780000000.0 -0.49540336632242205 0.6539936356363274
800000000.0 -0.8040089562219229 -0.16244083773039297
820000000.0 -0.613735000821113 -0.5350139914651643
840000000.0 -0.16798613143312036 -0.795034575528674
860000000.0 -0.19676809049066 -0.7798407415505416
880000000.0 0.6098669468578217 -0.5164992960162452
900000000.0 -0.28255846788496086 0.7488845061098282
920000000.0 -0.789626802862737 0.15066295356051035
940000000.0 -0.6092420762856432 -0.5210622744581063
960000000.0 -0.009803971137613299 -0.8015531583004385
980000000.0 0.7567250329751217 -0.24720527336030418
1000000000.0 0.5774178755501412 0.5331362261876513
1020000000.0 0.1647503718095628 0.7583280594902932
1040000000.0 -0.25587309807274866 0.7153369304846252
1060000000.0 -0.08404063452439935 0.7293301441640847
1080000000.0 0.4723880035989671 0.5165951531519661
1100000000.0 0.6605833156792512 0.17342376143423097
1120000000.0 0.5125900119279224 -0.38157951421515296
1140000000.0 -0.4310583955954295 -0.44724046635098696
1160000000.0 -0.20974673056613588 0.5649242344225357
1180000000.0 -0.27666512466837284 0.5251691492607006
1200000000.0 0.5515336174313872 0.16400071384011247
1220000000.0 0.3206048415706622 -0.46112774662904643
1240000000.0 -0.18787529696303693 -0.5217428411030355
1260000000.0 -0.21822094261970004 -0.5038962369621384
1280000000.0 -0.06299411471773379 -0.5406565828057766
1300000000.0 -0.1238133439808981 -0.5271621801833511
1320000000.0 -0.3586285166384041 -0.4076583748678235
1340000000.0 -0.5453486267220548 0.034334621096542686
1360000000.0 0.467033356141145 0.29045955559787157
1380000000.0 -0.26359922412349973 -0.4935131732219774
1400000000.0 0.39863654716653246 0.41560330807932794
1420000000.0 -0.4686166352945505 -0.3570729892359893
1440000000.0 -0.6073033542519768 -0.03830723421261872
1460000000.0 -0.2237738408725514 0.5935822996913677
1480000000.0 0.40910585404490346 0.5141202692295521
1500000000.0 0.6442390779897327 0.2089673537147057
1520000000.0 0.6638119425458807 0.2223641531157661
1540000000.0 0.5187738679537068 0.48760767799212146
1560000000.0 0.24117246527317712 0.6801834562319591
1580000000.0 0.2622330294644533 0.6803631774088948
1600000000.0 0.6625320728151073 0.29817671445439686
1620000000.0 -0.3278254255556433 -0.6379029807033433
1640000000.0 0.6750449386828463 -0.15903183533519233
1660000000.0 0.01571631214610914 -0.6507977770965175
1680000000.0 -0.05767299751628379 -0.559463779833272
1700000000.0 0.12407766446573051 -0.37695757284163717
1720000000.0 0.10880710613259487 0.07363513187752042
1740000000.0 -0.11507938585742296 -0.18469416093284569
1760000000.0 0.42559541691879993 -0.011222307945251435
1780000000.0 0.24130397702869114 -0.4904285390937975
1800000000.0 0.45084378705270906 -0.4239436915495459
1820000000.0 0.03377647151357726 0.6551248400502819
1840000000.0 0.675166212550563 -0.10273201801692325
1860000000.0 0.5980498564200174 -0.349435235710253
1880000000.0 0.6890213867371823 0.08184774096183725
1900000000.0 0.30540532134345494 0.6202100889742166
1920000000.0 -0.1674582377687071 0.66285342360536
1940000000.0 -0.6530883904664585 0.12000493389277803
1960000000.0 -0.4964360587497969 -0.41977558333439646
1980000000.0 -0.40055208456289876 -0.48898249460283105
2000000000.0 -0.3109125073721403 -0.528009603507695
2020000000.0 -0.25724376080202227 -0.5413212404807841
2040000000.0 -0.46354855958199453 -0.3521784936904515
2060000000.0 -0.409255838162772 -0.3958439343575842
2080000000.0 0.4785509207768434 -0.28684105552036065
2100000000.0 0.46202647723217594 -0.28379067433015137
2120000000.0 0.31135902423290795 0.4219010786973288
2140000000.0 -0.3745079891253589 0.3453038066548236
2160000000.0 -0.043082536907749186 -0.49006873565781556
2180000000.0 0.12892053783548948 0.45435950372723405
2200000000.0 -0.15775012836503557 -0.42896260978834233
2220000000.0 0.39893844000837203 0.17793101946921458
2240000000.0 -0.39676516759192504 -0.1452045385365686
2260000000.0 0.15532319758434548 -0.37489783793418974
2280000000.0 0.23498584609184459 -0.30313896928797235
2300000000.0 0.3575473836386183 -0.03588307678467454
2320000000.0 0.33428839363991975 0.045272521381673474
2340000000.0 0.3084025273861044 -0.0945998719245197
2360000000.0 0.30287116255349755 0.06505171490613924
2380000000.0 -0.20878313738763654 0.21221632512097047
2400000000.0 -0.2598353835266501 0.13433658000387136
2420000000.0 0.28099451533195485 -0.026359503519884912
2440000000.0 -0.23943472681864555 0.14402575152542588
2460000000.0 -0.10577931912768583 0.25708339851783313
2480000000.0 -0.11284127284207883 0.26226861598796253
2500000000.0 0.29487635650767835 0.054871552150467344
2520000000.0 0.07240376350620349 -0.29555369198399273
2540000000.0 -0.24139801277739917 -0.2113891589641594
2560000000.0 0.1682963485949294 -0.2886598966121732
2580000000.0 0.18097229825698918 -0.28874617905587635
2600000000.0 0.22991604225119264 -0.2648876968482607
2620000000.0 -0.045336753931390604 0.3594000763822348
2640000000.0 -0.04857709213856416 -0.3629731087193527
2660000000.0 0.37277229737417333 0.05775489451922706
2680000000.0 -0.10593233723615596 -0.38043544141197444
2700000000.0 0.30329830916597794 0.28667610250096676
2720000000.0 -0.4136797157336979 -0.15081903111217188
2740000000.0 0.2939950706392438 0.35806502900178816
2760000000.0 -0.024404629390577044 -0.4851910584606697
2780000000.0 -0.2758031130577959 0.41379131799497537
2800000000.0 0.5042397377460524 0.07797917492025422
2820000000.0 -0.415551035322118 -0.304933176047826
2840000000.0 0.3705820991184736 0.3551596132207226
2860000000.0 -0.33516481719430474 -0.39630263104793034
2880000000.0 0.4483679073691501 -0.2717539941342457
2900000000.0 0.21266165950529983 0.48388983108073663
2920000000.0 -0.5185087949924438 -0.14556992541576322
2940000000.0 -0.24377329130270628 0.4955121638151759
2960000000.0 0.5162580882373258 -0.23665479250261182
2980000000.0 -0.03582427380452047 -0.5826170294724031
3000000000.0 -0.03922681601732838 -0.5954089053824072
3020000000.0 0.4665263601497443 -0.3905396804001865
3040000000.0 0.3423177017442729 0.5127030929985928
3060000000.0 -0.5830513288676518 0.21187313104942157
3080000000.0 0.014681621514486543 -0.6232398669667015
3100000000.0 0.5307567779240382 0.32343124137866514
3120000000.0 -0.41521361173388477 0.46260421152846753
3140000000.0 -0.6007383474896929 0.13703212902124792
3160000000.0 -0.4305503676493532 -0.4320953053724048
3180000000.0 -0.518042700581954 -0.31438981673810695
3200000000.0 -0.4997855270764764 -0.3277523290633504
3220000000.0 0.36333437758754816 -0.4691543258229083
3240000000.0 0.45084690357857704 -0.37792976092239366
3260000000.0 0.5337965969591704 -0.22670384449394942
3280000000.0 0.5260543265329722 0.20864573080656615
3300000000.0 0.28990821027589725 0.4666064941854752
3320000000.0 -0.40183895940628184 0.3319562113817224
3340000000.0 -0.17591088284999537 -0.44257436354719065
3360000000.0 -0.20536700365683905 0.3501708886302862
3380000000.0 0.1899394560607799 0.2699650637552867
3400000000.0 -0.23038323046679274 0.18718801546568645
3420000000.0 0.014028085947229409 0.3314060823272412
3440000000.0 -0.3227243111357597 -0.20621021107195692
3460000000.0 -0.12619853353277596 0.39750923685266876
3480000000.0 -0.3265694516504526 -0.2892614218379137
3500000000.0 0.33677653149515874 -0.28278393513517075
3520000000.0 0.43259993014222714 0.028142138346847315
3540000000.0 0.345048466436635 -0.24813062930142205
3560000000.0 0.4078430121080281 -0.00028402613201048473
3580000000.0 -0.0073692893597047315 -0.39029883990132686
3600000000.0 -0.3156452629568816 -0.20013256195366003
3620000000.0 -0.32428958926252044 0.15340826774611252
3640000000.0 -0.3213677803696351 0.13003480354021618
3660000000.0 -0.3312898377551168 0.03199897268669351
3680000000.0 0.008081604566155358 -0.31711691676056936
3700000000.0 -0.16046191874266835 0.24754481140491355
3720000000.0 0.247837812995452 -0.10465146748361236
3740000000.0 0.16821496927166724 -0.16475924133918882
3760000000.0 0.12067751977960992 -0.16488878025227524
3780000000.0 0.14658717050685546 0.07606355341178775
3800000000.0 -0.11912510629404657 0.02685437955886959
3820000000.0 -0.06451826025087265 -0.04610638014235362
3840000000.0 0.028658189269114058 -0.02792389352743818
3860000000.0 0.01458423406401495 0.014478568518446621
3880000000.0 0.03178767375849634 -0.031873910758807904
3900000000.0 -0.03992466138324516 -0.06981611284297717
3920000000.0 0.10741902255433157 -0.02201592260301942
3940000000.0 -0.013991575276537918 -0.1295764757609715
3960000000.0 -0.13452551578045974 0.04401955086308187
3980000000.0 0.061360667746883306 0.1344143053207373
4000000000.0 0.09490428681513619 0.11187354086626676
