!Created with skrf (http://scikit-rf.org).
# Hz S RI R 50.0 
!freq ReS11 ImS11
400000000.0 0.9007852352142746 -0.21147494786770074
420000000.0 -0.9202324778378519 -0.052800935451786685
440000000.0 0.31339898262628446 0.8672900616857026
460000000.0 0.8757482229134707 -0.26213134473146743
480000000.0 0.7202444832720534 -0.5543613112884125
500000000.0 -0.26717619605230686 -0.8700368163173536
520000000.0 -0.628903403315842 -0.6445870124565373
540000000.0 -0.8822102838741985 -0.15080726446373455
560000000.0 -0.8750797578485835 0.13381863038647138
580000000.0 -0.6838997203655558 0.5457321604972205
600000000.0 -0.27490206500678754 -0.8145900449796105
620000000.0 -0.3272449018729874 -0.7785509732882028
640000000.0 0.024034491306456282 -0.8349004889516254
660000000.0 0.7921344156800222 0.2587839172469633
680000000.0 0.045323805801885 0.8180268121715825
700000000.0 -0.7973136541503512 0.19456764290442233
720000000.0 -0.3193505403690997 -0.7544104884189801
740000000.0 0.7492798547432871 -0.31797189752895016
760000000.0 0.4762808018336547 0.6652964411462124
780000000.0 -0.5015573454914437 0.6494253965428439
800000000.0 -0.8003997442561881 -0.17965586515264084
820000000.0 -0.6095576073191252 -0.5402089380480849
840000000.0 -0.19891460946435846 -0.7874590086731749
860000000.0 -0.2010275091518533 -0.7789980629346281
880000000.0 0.6021597162762413 -0.5264713409347017
900000000.0 -0.26195690176358694 0.7569394716650198
920000000.0 -0.7900530245110149 0.1513685537784458
940000000.0 -0.5982010725812655 -0.5348434505007335
960000000.0 -0.007412446694383398 -0.8021887426961295
980000000.0 0.7610112754773447 -0.23499829360967073
1000000000.0 0.5915333531579324 0.517560543033191
1020000000.0 0.15665458220441864 0.7601864475339057
1040000000.0 -0.2524001916772871 0.7165549530964346
1060000000.0 -0.0398546238266359 0.7331221053280931
1080000000.0 0.4541181072691951 0.5323918608540664
1100000000.0 0.6587915385998045 0.17882667789189957
1120000000.0 0.515621378543639 -0.3781524133291762
1140000000.0 -0.4217204591339445 -0.4553392055314702
1160000000.0 -0.2139524903412645 0.5639129102244759
1180000000.0 -0.27409180614345374 0.5260759594038459
1200000000.0 0.5530701000228736 0.158558184139864
1220000000.0 0.28298483635078864 -0.4849562530606762
1240000000.0 -0.11784037572259058 -0.5421086411742383
1260000000.0 -0.18133181107666344 -0.5187460003547127
1280000000.0 -0.08377977396671143 -0.5380173408567455
1300000000.0 -0.1368602943651044 -0.5241977520152022
1320000000.0 -0.3783727285089807 -0.39022124409693343
1340000000.0 -0.5452179699413886 0.030245079423121157
1360000000.0 0.4781442317290422 0.27166870823921424
1380000000.0 -0.27632907237109033 -0.48597167567685
1400000000.0 0.38001021960174913 0.4325804455336222
1420000000.0 -0.4706026252876779 -0.35513145858887046
1440000000.0 -0.6079347584328636 -0.033411403381258906
1460000000.0 -0.2152105716533485 0.5968505833059965
1480000000.0 0.43482653704070423 0.4927706614203445
1500000000.0 0.6488663183678656 0.19312565044031235
1520000000.0 0.6670142111662538 0.21279526448901395
1540000000.0 0.5096121395866188 0.49700810266415235
1560000000.0 0.2540307780794656 0.6752081250864264
1580000000.0 0.28670136027842047 0.6704488542194623
1600000000.0 0.6600624218431274 0.30296819810876086
1620000000.0 -0.3257422183398154 -0.6389805979494485
1640000000.0 0.6748437605317396 -0.15894760862389815
1660000000.0 -0.004631085695688719 -0.6509001052536622
1680000000.0 -0.1113352802763559 -0.5512561261411721
1700000000.0 0.15035536334627705 -0.366186142362144
1720000000.0 0.11393578062257305 0.06429040567877878
1740000000.0 -0.13927312795978683 -0.1666967811610489
1760000000.0 0.4260336127747555 -0.010511050115002838
1780000000.0 0.26500978335374176 -0.478454045806059
1800000000.0 0.4224733234903734 -0.4522618397595222
1820000000.0 0.04559063618003776 0.6542287354041366
1840000000.0 0.6753004864658085 -0.09979720736949026
1860000000.0 0.5989104566432656 -0.3474538439280819
1880000000.0 0.6876862524341154 0.0934252412900858
1900000000.0 0.308008773694252 0.618939444736237
1920000000.0 -0.1608376472769496 0.6644686284220315
1940000000.0 -0.6495077859040403 0.1404458934548227
1960000000.0 -0.502389294534347 -0.41325361481767336
1980000000.0 -0.4331577750184309 -0.4598223218875439
2000000000.0 -0.32077861912913574 -0.5221935066915526
2020000000.0 -0.18204637397270235 -0.5706619792606858
2040000000.0 -0.4779831551478278 -0.33234295141913606
2060000000.0 -0.35678490689357095 -0.44496044346155494
2080000000.0 0.49318066682012784 -0.2629106943425392
2100000000.0 0.4726424422694058 -0.2659101785999166
2120000000.0 0.35282604182928373 0.38796977725048637
2140000000.0 -0.32164104830943696 0.3950380365344906
2160000000.0 -0.059667292115178655 -0.48810813231201705
2180000000.0 0.10858735598302076 0.4598611877874896
2200000000.0 -0.16490950976792862 -0.425965981375949
2220000000.0 0.3981249432807687 0.18094084931908755
2240000000.0 -0.39780425915862266 -0.14218719784272943
2260000000.0 0.18190841650829193 -0.36284155362527937
2280000000.0 0.2319901163248499 -0.30567483200809437
2300000000.0 0.35784514211913365 -0.03419998310746159
2320000000.0 0.325560602096013 0.08760291535334426
2340000000.0 0.2858497922631197 -0.15171794314414536
2360000000.0 0.30320666680490965 0.06222670636845067
2380000000.0 -0.1763268113854255 0.23984780025298055
2400000000.0 -0.27323539045800505 0.09911081541654367
2420000000.0 0.27049314300397387 0.07476589083890427
2440000000.0 -0.2776393337912926 0.038343887550879044
2460000000.0 -0.14928906577335482 0.23517191018404965
2480000000.0 -0.01741825786537956 0.2863335452068594
2500000000.0 0.2981476129164761 -0.026132418363294132
2520000000.0 0.026672766383719678 -0.3007626521445618
2540000000.0 -0.18263103422225002 -0.2627115568721281
2560000000.0 0.2340307960282842 -0.23890554003508463
2580000000.0 0.1940881824654244 -0.28292751572883196
2600000000.0 0.2161108804259827 -0.2769187036697622
2620000000.0 -0.03126229743701414 0.361435235273872
2640000000.0 -0.03228159409236595 -0.3653346384353706
2660000000.0 0.36923513463525115 0.07497284232108788
2680000000.0 -0.11042111995355722 -0.378252070685003
2700000000.0 0.29440713113266415 0.29520016333448157
2720000000.0 -0.4089376873441526 -0.16287945147096586
2740000000.0 0.2351275177340077 0.39881970379411413
2760000000.0 -0.010350144436287602 -0.4854798593781154
2780000000.0 -0.28588689157411945 0.4080843518708557
2800000000.0 0.5048178635627577 0.0778217082880894
2820000000.0 -0.4136559470316411 -0.30836341877224216
2840000000.0 0.4054562597511431 0.31497904166392704
2860000000.0 -0.4138918711038572 -0.31321983792201735
2880000000.0 0.47444477780033645 -0.22320968332495963
2900000000.0 0.2720521957907824 0.4530788697575029
2920000000.0 -0.5223337481424856 -0.13152963387413205
2940000000.0 -0.26609100523305135 0.48405913606180867
2960000000.0 0.5369419527682052 -0.18545208713872127
2980000000.0 0.15597310240896733 -0.5616287480749231
3000000000.0 -0.016066362180968182 -0.5963940689875468
3020000000.0 0.43170895169061735 -0.42860053856080016
3040000000.0 0.3949586390374808 0.4724113368414299
3060000000.0 -0.5804409289620422 0.21945329012792944
3080000000.0 0.01222520409207947 -0.6232889917415197
3100000000.0 0.5321685904393356 0.32147008923426884
3120000000.0 -0.42031827805293975 0.45719078192220974
3140000000.0 -0.6093615580664201 0.09452862258038411
3160000000.0 -0.44238335252901667 -0.419248041834476
3180000000.0 -0.43767612884000406 -0.4191920957089091
3200000000.0 -0.49375168057573543 -0.33706623935403457
3220000000.0 0.36796646594307486 -0.46542814139558836
3240000000.0 0.45930885495073404 -0.36711677547864485
3260000000.0 0.5365435860606754 -0.2201923060150912
3280000000.0 0.5220464067411822 0.21847489847000182
3300000000.0 0.21719357263280042 0.5062545730555279
3320000000.0 -0.3974946422245578 0.3380157275604657
3340000000.0 -0.1810279505311688 -0.4408212651984869
3360000000.0 -0.2143400947229127 0.3453576503579701
3380000000.0 0.19856744720929814 0.26433781772017273
3400000000.0 -0.23461859008121666 0.18165686190300492
3420000000.0 -0.00894273435621745 0.3314501835775647
3440000000.0 -0.3083772833070836 -0.22760732272965295
3460000000.0 -0.046103088715586354 0.4149899815374262
3480000000.0 -0.30569861207023186 -0.31140471553055454
3500000000.0 0.3542076461421282 -0.2607638362541546
3520000000.0 0.4309347834953142 0.046536264529135854
3540000000.0 0.3556609507428862 -0.23207356003794877
3560000000.0 0.40583056631103015 0.03983100869816483
3580000000.0 -0.000925414808136344 -0.3907887636552917
3600000000.0 -0.31071947863676275 -0.20792486982051506
3620000000.0 -0.330432886564095 0.14183685801401366
3640000000.0 -0.27062606459425714 0.21516458251288478
3660000000.0 -0.3331937958116367 -0.004433168223481543
3680000000.0 0.000492431266348664 -0.3170975821038263
3700000000.0 -0.1627318940923413 0.2451616577191534
3720000000.0 0.24859667101162447 -0.1042250928688324
3740000000.0 0.14452960936842857 -0.1854751775010709
3760000000.0 0.12310815693528883 -0.16347645195340071
3780000000.0 0.14723017205108502 0.07604041253249093
3800000000.0 -0.11934883524114027 0.025901965321860572
3820000000.0 -0.0438323551029234 -0.06636389039945503
3840000000.0 0.004523605176417122 -0.03999327401441911
3860000000.0 -9.115117034683054e-05 0.020229344277566275
3880000000.0 -0.008850188980557772 -0.0447721214415116
3900000000.0 -0.057413221633432876 -0.05668504916467948
3920000000.0 0.10828063924545325 -0.015181513451871319
3940000000.0 0.06316500062837227 -0.11387506492653807
3960000000.0 -0.14160205886598906 -0.006635764191342519
3980000000.0 0.014506018493181838 0.14622296502769783
4000000000.0 0.053107945351590566 0.13504094822571172
