!Created with skrf (http://scikit-rf.org).
# Hz S RI R 50.0 
!freq ReS11 ImS11
400000000.0 0.2500797597874676 -0.5501102100705677
420000000.0 -0.548090915816435 0.11156070011708515
440000000.0 -0.47493257847802134 -0.025889988273055695
460000000.0 -0.25569697048696427 -0.4049447902836222
480000000.0 -0.3954319696349161 -0.16195429869001068
500000000.0 0.2859102624597307 -0.2865951684380765
520000000.0 0.35814816179947023 0.04550742202467127
540000000.0 -0.23760191163439273 -0.21557012224985467
560000000.0 0.24792509765446152 0.2511133693686744
580000000.0 0.3266391513733636 0.17762613112635467
600000000.0 0.2985727775143131 -0.18256275243415074
620000000.0 -0.30620865709867884 -0.09794337750715065
640000000.0 0.2951795883364763 -0.19931869127586896
660000000.0 -0.039758659701077975 -0.2914958942649577
680000000.0 0.17669326106411265 0.27398611607487194
700000000.0 0.27528711798385386 -0.1289775122816055
720000000.0 0.0018012037152038288 -0.3512087820128612
740000000.0 -0.005905950301909905 0.3323093152169708
760000000.0 0.29060440724423936 -0.08733555757204693
780000000.0 0.0453573779475634 -0.24856265511370165
800000000.0 0.24236070192258283 -0.0569038843499792
820000000.0 0.20514212032036855 0.09625992622024158
840000000.0 0.15080195117791428 -0.11423561443105726
860000000.0 -0.11666130511236433 -0.14195476114297464
880000000.0 -0.0993125238153355 -0.09097616794088259
900000000.0 -0.14024848185720157 -0.028121947660207154
920000000.0 0.09181900870338913 0.095296762744405
940000000.0 0.014243923961485085 -0.11284149470663979
960000000.0 0.0647673094059399 0.07207254817389637
980000000.0 -0.03716113438660861 -0.023478847687606306
1000000000.0 0.017163166278989155 0.0403646389884779
1020000000.0 -0.016170522059985537 0.018773108523956902
1040000000.0 -0.03987225530372751 0.044444334359057695
1060000000.0 -0.07005753707927671 -0.09653136544597117
1080000000.0 0.07519411670174551 0.1381256005143258
1100000000.0 -0.10041164918495207 0.1421529234353363
1120000000.0 -0.002562492165052555 -0.19019364537545616
1140000000.0 0.10505245045042728 0.18038605272649152
1160000000.0 -0.23349548118786181 -0.026141175049025123
1180000000.0 0.16418090995477183 0.18292300351652244
1200000000.0 -0.17808940710830715 -0.12763444878958857
1220000000.0 0.1998349848579728 0.04996780919903039
1240000000.0 0.01801402434939868 -0.21342027848541442
1260000000.0 0.19667132772153362 -0.10196512642530518
1280000000.0 0.20201595743720938 -0.0836219156045123
1300000000.0 -0.21473554270693176 0.056835910013561364
1320000000.0 -0.22552108260579484 0.03240131583986481
1340000000.0 0.1219443254759845 -0.1996982442757183
1360000000.0 -0.13828301427484083 -0.20085663129978357
1380000000.0 -0.005048370930747587 -0.252000638603513
1400000000.0 -0.028793538193967922 -0.24885381272582577
1420000000.0 -0.16268366669103365 -0.1871595000875753
1440000000.0 0.04252932013176369 -0.22853104622112685
1460000000.0 0.0755092523904263 -0.21019390798423518
1480000000.0 -0.007042505951635423 -0.2387292757991298
1500000000.0 0.19963328415802142 0.15144442145937156
1520000000.0 0.1741144619404417 -0.13335940674606336
1540000000.0 -0.189791488005096 -0.02276902314001598
1560000000.0 -0.052719489040333134 -0.17169269174127177
1580000000.0 -0.03023911452558526 0.17348735209903826
1600000000.0 -0.015505409784360751 0.15696740643677254
1620000000.0 -0.08176109091569807 0.09154667994462333
1640000000.0 -0.004069780536502358 0.11924735887011739
1660000000.0 0.08403318193382549 -0.11334735120127276
1680000000.0 -0.13353833982667887 0.053036931920828374
1700000000.0 -0.05726819018619992 -0.14227762101785785
1720000000.0 -0.06375174904171377 0.13174014535624157
1740000000.0 0.14053453954143505 0.03377091425340241
1760000000.0 0.10005879843891578 -0.1057066004622525
1780000000.0 -0.03946515466916938 0.134826864152325
1800000000.0 -0.05031101439436615 0.13685643603944403
1820000000.0 0.15006460428652743 -0.020330848235915824
1840000000.0 -0.15588045094157701 -0.053527244059857725
1860000000.0 -0.1734106942290923 0.030344534337953716
1880000000.0 -0.09751936130789336 -0.14472167592042254
1900000000.0 -0.12004446423914973 -0.10480668004166294
1920000000.0 -0.1227380834078144 0.08823769344063859
1940000000.0 0.08346141874521326 -0.11903150004317438
1960000000.0 -0.10519726647647493 0.08846414484671457
1980000000.0 0.014453813698072289 -0.14231500197405908
2000000000.0 -0.017460904614914972 0.13285260126890364
2020000000.0 0.052041567858240684 0.10788679763219564
2040000000.0 -0.08979558698107709 0.06158925024697656
2060000000.0 0.012066468201746103 0.11090202172231864
2080000000.0 -0.05156308947447694 0.09250599970423747
2100000000.0 -0.104250269443794 0.025929582784891804
2120000000.0 0.11237686169698533 -0.005813436542027072
2140000000.0 0.11141729603541026 -0.013279445532104481
2160000000.0 0.08020281249271169 0.08667794893763602
2180000000.0 0.05828712962383611 -0.09656159993631565
2200000000.0 0.07344456692249174 0.09261697659541103
2220000000.0 -0.11654911042564127 -0.00968144927844697
2240000000.0 0.07738880589275497 0.08884965616559437
2260000000.0 -0.016289244670009265 0.12736863671863216
2280000000.0 -0.10175517892872184 0.07209498826227044
2300000000.0 -0.01714678125440478 -0.11297103720941129
2320000000.0 0.06383704553148493 0.08223011980876148
2340000000.0 0.07547553255934869 0.06400129698134237
2360000000.0 0.08992164906673591 -0.003250288092830402
2380000000.0 -0.06671791351683182 -0.05931158151168912
2400000000.0 -0.09692502880473795 0.02534997402673172
2420000000.0 -0.06479128031490192 -0.0787060377877104
2440000000.0 0.09692640534740307 0.05032816717554344
2460000000.0 -0.10807850134348246 -0.01660001267845502
2480000000.0 -0.07167023782784851 0.08819262734061316
2500000000.0 0.10773725072001844 -0.058362360052645085
2520000000.0 0.02522925559712847 -0.12695341371927146
2540000000.0 -0.05513543096587604 -0.12574288031563247
2560000000.0 0.12816929229957114 -0.05226475682943448
2580000000.0 -0.08505754944643984 -0.12200172609839245
2600000000.0 -0.11836724527987628 -0.11481166476931066
2620000000.0 -0.1693074167437225 -0.03874846969286584
2640000000.0 0.09005194663557557 -0.16138301130360305
2660000000.0 0.10327749823060205 -0.16315285614854022
2680000000.0 0.1694685116121164 -0.07585779399443603
2700000000.0 0.15709344900829908 0.07746073106399126
2720000000.0 0.14166684526563628 -0.062488297090593795
2740000000.0 -0.007684729486647554 -0.13796511085310967
2760000000.0 0.1077183769289763 -0.05636119153451495
2780000000.0 -0.0437530222851189 -0.0985725462741645
2800000000.0 -0.07223032387676744 0.07713654504711713
2820000000.0 -0.05706735909225603 -0.09534938869666908
2840000000.0 -0.04261233388722936 0.11743671816113842
2860000000.0 0.10218676389337322 0.09878396165518018
2880000000.0 -0.10727338523574749 0.10898252926815977
2900000000.0 0.010032754806306046 0.1646855161177138
2920000000.0 0.13263550787952572 -0.11794174773060989
2940000000.0 -0.15482197430532885 -0.10179945932951702
2960000000.0 0.18966196314011552 0.03553095267469071
2980000000.0 0.07441425863569191 0.17219046935744192
3000000000.0 -0.1352220954472063 -0.1190349475013177
3020000000.0 0.03375657985861041 0.17369452491487072
3040000000.0 -0.1736921576522938 0.048885960240557275
3060000000.0 -0.0867223648906124 0.1633883143647224
3080000000.0 0.11179463360852086 0.15804930069154763
3100000000.0 -0.09118415043629623 -0.18144275255035794
3120000000.0 0.06996306819493595 0.18974056636912748
3140000000.0 0.1525156291381177 0.12590102151474264
3160000000.0 0.018107848982709188 0.19542063189548428
3180000000.0 -0.007071470664521364 -0.19576964790913684
3200000000.0 -0.11296963519923195 -0.14462292425558304
3220000000.0 0.003864851082813404 0.1778873428675955
3240000000.0 -0.17580133844892004 0.018403629744999102
3260000000.0 0.08790874269862274 -0.15647135256447878
3280000000.0 0.025786497206981188 0.1836049950352753
3300000000.0 0.16594828349922272 -0.1028937939347714
3320000000.0 0.09863976477587945 -0.18133343066926272
3340000000.0 -0.0192529409399422 0.21292950894351262
3360000000.0 0.17142235680370466 0.1355285144744195
3380000000.0 0.12864063422561192 -0.18167726141419052
3400000000.0 0.11468858353381518 -0.1827915918655234
3420000000.0 0.1724086126619687 -0.11967034589934646
3440000000.0 0.1961289850312866 -0.053602211663609914
3460000000.0 0.02654207924172755 -0.1898970126164653
3480000000.0 -0.16997435727685847 0.04661335762973289
3500000000.0 0.14786967529089967 -0.06468879598126961
3520000000.0 -0.08024643859265698 0.12896611093150562
3540000000.0 0.008450701861607188 0.14579307344058268
3560000000.0 0.09251009641088447 -0.11523152913484526
3580000000.0 -0.09951984914677706 0.1170364501452044
3600000000.0 0.15649565568648516 0.039630979500343555
3620000000.0 0.09043920992512881 0.14353417532295593
3640000000.0 0.024984288379521605 0.17654411907988465
3660000000.0 0.0416292099158435 0.183740152161565
3680000000.0 0.11464435938614542 0.15627782527316916
3700000000.0 0.1933126231785979 0.04167401978107383
3720000000.0 0.17166981169934573 -0.10281141221777546
3740000000.0 0.18058377234689865 -0.1007488416361775
3760000000.0 -0.18195570295222546 -0.12801000584095346
3780000000.0 -0.2070818529979255 0.1203975687180912
3800000000.0 -0.2523431441235537 -0.050834469812378734
3820000000.0 0.00043522825191203785 -0.2782588105379965
3840000000.0 -0.09026982151387554 0.27838444993967415
3860000000.0 0.29234395370026134 0.07386631904115833
3880000000.0 0.20854232940665915 -0.2251077461483592
3900000000.0 -0.059011103906253984 -0.2946552384687385
3920000000.0 -0.1716987102143125 -0.22735272635428322
3940000000.0 -0.07720629771298065 0.24535769021790546
3960000000.0 0.22027848154601026 0.008951696434792787
3980000000.0 -0.08872979902880831 0.16261398421115897
4000000000.0 -0.14694129219330235 0.01432547332341256
