!Created with skrf (http://scikit-rf.org).
# Hz S RI R 50.0 
!freq ReS11 ImS11
400000000.0 -0.8156014310718626 0.007328154696418021
420000000.0 0.33616252161242555 -0.6820390053915697
440000000.0 0.7030320351656543 -0.07265367473943342
460000000.0 -0.22255195719838408 -0.6006797694830522
480000000.0 0.4891863228808464 0.3036182530744107
500000000.0 0.4337287694012637 -0.3596616085779059
520000000.0 0.26725926640772935 0.38696348936823055
540000000.0 0.3906648835857588 -0.1417607534424586
560000000.0 -0.14108621274172534 0.3820839089608661
580000000.0 -0.2402105279677698 -0.3091876625253668
600000000.0 0.24959712423032135 -0.3158726531573772
620000000.0 -0.31415289179499056 0.26566313752162624
640000000.0 0.2005449113912501 0.3501668884033736
660000000.0 -0.04724700409234115 0.38455511210173177
680000000.0 0.3610556786831592 0.10246102374953883
700000000.0 -0.34765815938228184 0.10995903480757752
720000000.0 0.1243309122890838 0.3201283740497774
740000000.0 0.28955328799418867 0.16734304185120472
760000000.0 -0.2702179260986752 0.061004387271844
780000000.0 -0.05095395090085483 0.29039622336972293
800000000.0 -0.1094688950630303 -0.22843805986486543
820000000.0 0.17095084065390595 0.17083187445923706
840000000.0 -0.21732523664630674 0.010644555553862406
860000000.0 0.05583421546811183 -0.1986217056768739
880000000.0 0.195344951689802 -0.0202197925342158
900000000.0 0.11226562330601038 0.1075371471613717
920000000.0 0.027256737323908903 0.12494050758057304
940000000.0 -0.10065170769680198 0.06612218748013529
960000000.0 0.0646071548987665 -0.014300233505498321
980000000.0 -0.05307253057183127 0.031279761557668866
1000000000.0 -0.005581293913433683 -0.054672774819851444
1020000000.0 -0.03240338630166182 -0.01095683141645783
1040000000.0 -0.056363399934275665 0.0042021541759761595
1060000000.0 -0.06143154217451967 0.07961242361612991
1080000000.0 -0.03421374410035923 0.12294465393189653
1100000000.0 -0.12318609440294669 -0.14850587351320269
1120000000.0 -0.13118457891851693 -0.17566097093509014
1140000000.0 0.20895227795866708 0.12528230322951214
1160000000.0 0.2099934124177433 0.1801537180325103
1180000000.0 -0.10172109371640652 0.2677487120132383
1200000000.0 0.18455130656609384 -0.23769943431345955
1220000000.0 0.21209045767589585 0.244029236576068
1240000000.0 -0.11490916993410065 0.32792017925701616
1260000000.0 0.10267118890395249 -0.3211328621958593
1280000000.0 0.3013157058964579 0.15430091304730506
1300000000.0 0.3465063516551862 -0.02458483939185963
1320000000.0 0.18867312794785004 0.30815473234143415
1340000000.0 -0.13168447899863522 -0.3417103697086185
1360000000.0 -0.005992887615639323 -0.37183977927210005
1380000000.0 -0.36122577401458456 -0.07253393307904152
1400000000.0 -0.1526172202660353 0.3484339840439989
1420000000.0 0.37119392751421715 -0.007484996601054354
1440000000.0 0.12160399022727225 -0.35956601520147496
1460000000.0 -0.3713081069325993 0.0026832085552853367
1480000000.0 0.2291679650516664 0.280845767588537
1500000000.0 0.3277438420397469 0.018426837540433203
1520000000.0 -0.004191109798085613 -0.31321847521348634
1540000000.0 -0.27263917926646836 0.07180052448845337
1560000000.0 -0.11428225179757492 0.23613656761829846
1580000000.0 -0.12938561586090067 -0.1749259864930413
1600000000.0 -0.1465916066763643 0.1372786176147059
1620000000.0 -0.1646744052126774 -0.01881219803606408
1640000000.0 -0.135636855484326 0.010545631197114146
1660000000.0 0.0910424505442036 -0.06391002470050397
1680000000.0 0.02583183502107221 -0.09636558875478861
1700000000.0 0.06895035989596753 -0.04458860532632813
1720000000.0 0.009125428976813487 -0.06901123022640758
1740000000.0 -0.055286489716846646 0.03512082266117639
1760000000.0 -0.008590967847876847 -0.08057162588083341
1780000000.0 0.10425576412537392 -0.03339189410238172
1800000000.0 0.03621506706401448 -0.1337333260772918
1820000000.0 0.14866301723744754 -0.0715703180716804
1840000000.0 0.04902490103617239 -0.20165255203947416
1860000000.0 0.027741402509773947 0.23883933955396217
1880000000.0 0.26488364857300756 -0.03826944037724299
1900000000.0 -0.29179358222556606 -0.01252869869328198
1920000000.0 0.24822283116557564 0.15965493435175906
1940000000.0 0.26453148146708877 -0.1661856731585934
1960000000.0 -0.2763821474310504 0.15412319902766503
1980000000.0 0.2630277368889226 -0.18674415325475052
2000000000.0 0.16831344682562682 0.27148148221085605
2020000000.0 -0.04811656652064533 0.31341427252981297
2040000000.0 0.01267694447424781 -0.3077450765437199
2060000000.0 0.22096741286614122 -0.22436193958401726
2080000000.0 -0.2256893490890326 -0.21524504099564196
2100000000.0 0.023052338983431158 0.30405888921435575
2120000000.0 0.06736752749702697 -0.2918069009910888
2140000000.0 0.13888349540866893 0.2600815511609653
2160000000.0 0.14450529330483272 -0.22851690850539522
2180000000.0 0.13544298377279457 -0.24173384257805824
2200000000.0 -0.21464188297924855 -0.16058264783894197
2220000000.0 -0.02044483789833442 -0.25702572757302766
2240000000.0 0.07792137739852044 -0.2314031686341875
2260000000.0 0.23734001655802572 -0.05736158444113487
2280000000.0 0.14073842715663354 0.165295728789401
2300000000.0 -0.19815124497472905 -0.04161876571294998
2320000000.0 0.185594975363362 0.04501864766259577
2340000000.0 -0.02078605161453479 -0.17372025666276225
2360000000.0 -0.07523580816087884 0.15227825161526046
2380000000.0 0.03443821167887147 0.17352255156562738
2400000000.0 -0.17643421370245269 -0.06550359494371391
2420000000.0 0.08143267377751004 0.18832380586223274
2440000000.0 -0.20097695332544063 -0.11121907189827818
2460000000.0 -0.09138609358764735 -0.23773399925453495
2480000000.0 0.12211466141369122 0.2546293849951198
2500000000.0 0.29313313465385094 0.10986788201338249
2520000000.0 0.061279168589059185 0.33544305053748646
2540000000.0 0.16114217680034962 0.33858980084772117
2560000000.0 -0.33220775666083 0.22172335780101318
2580000000.0 -0.23650938823950543 -0.3444138776777886
2600000000.0 0.3988447450614447 -0.18057681590103322
2620000000.0 0.08201748079237955 0.44568601298431176
2640000000.0 -0.45985846511456696 0.048805655543494045
2660000000.0 -0.1303125816990556 -0.4511208025771067
2680000000.0 0.25459639497348097 -0.39794700158817414
2700000000.0 0.4087545881774671 -0.244855312107889
2720000000.0 0.3630557227451272 -0.3140126831805976
2740000000.0 0.34432075435817333 -0.3404415882151559
2760000000.0 0.2960852574941522 -0.3891335494504474
2780000000.0 0.2872762884474868 0.40085787992967153
2800000000.0 -0.034224503502330236 0.49671703508874443
2820000000.0 -0.49527115773687835 0.08201883662637145
2840000000.0 0.22809346503072228 -0.4511130570252232
2860000000.0 -0.2686176154152314 0.4307381695803001
2880000000.0 0.47955610236026347 -0.16973884901739925
2900000000.0 -0.3086546264739667 -0.3994651973017543
2920000000.0 -0.3787967658899993 0.3251329154497001
2940000000.0 0.22933397286290708 0.4328962427316887
2960000000.0 0.40942583335523897 -0.24778434341822383
2980000000.0 -0.1252104489363993 -0.4461043014503173
3000000000.0 -0.4175789960754143 0.16873127334477384
3020000000.0 0.3980351064895873 0.17261606819068487
3040000000.0 -0.08462061835436833 -0.40899809400310205
3060000000.0 0.026114694124111524 0.40486479779591433
3080000000.0 0.09372004139983 -0.38249653818841745
3100000000.0 -0.2952777191536026 -0.24435638275528257
3120000000.0 0.161523256719165 0.3444609904305559
3140000000.0 -0.02134574420801531 -0.37701703763186883
3160000000.0 -0.36488026598795337 0.09467417235735606
3180000000.0 0.20038241793320688 0.31883304765572895
3200000000.0 0.35031185980678237 0.1300204370306785
3220000000.0 0.3701513966661248 0.013088655803725742
3240000000.0 0.25575321327546824 -0.26341334623681095
3260000000.0 0.3446629471337795 0.08020217076754044
3280000000.0 -0.04416259157564468 0.33618205917981286
3300000000.0 -0.27012023514359673 0.17265589606998144
3320000000.0 -0.15443560326164402 -0.2612941399705708
3340000000.0 0.0811629232762157 0.2743358009778527
3360000000.0 -0.24903540561518017 -0.08705291098793531
3380000000.0 0.12771646881107226 -0.20465940301111663
3400000000.0 -0.08480866093804515 0.20776494443425222
3420000000.0 -0.0179366345967451 -0.2113500531710179
3440000000.0 0.06270863473826448 0.18988846626901196
3460000000.0 0.051431424999209246 0.17928193766997022
3480000000.0 0.15151830603448244 0.09621078903091868
3500000000.0 -0.17284233764953202 -0.01634618715585262
3520000000.0 0.15891555731966234 0.06216149442029156
3540000000.0 0.16177796499294075 -0.04652252213536673
3560000000.0 0.021087340014751082 -0.17166363953580943
3580000000.0 0.17595105337119352 0.020012766970812106
3600000000.0 0.18020690230352696 0.0003667934196796347
3620000000.0 -0.11345601431327325 0.15055788537077883
3640000000.0 -0.1952335571256663 0.03570097964392316
3660000000.0 0.1825910969584446 -0.09024076992137023
3680000000.0 -0.053608923531001364 0.1918878282570713
3700000000.0 0.19651377225810812 0.03631106898454021
3720000000.0 -0.0848233768122172 -0.17234214990861546
3740000000.0 0.16736116105164756 -0.07616275377672528
3760000000.0 0.1002189353173345 -0.1421177851464963
3780000000.0 0.1642238471415125 0.029974107761749542
3800000000.0 0.14184054159616127 0.053644188428713956
3820000000.0 -0.11088299982723437 0.07540926351581072
3840000000.0 0.0803809439678286 0.08339483491204445
3860000000.0 0.04530094231240987 0.08866048051469616
3880000000.0 -0.07922358419354848 0.024589944621753686
3900000000.0 -0.011565880182269206 0.07694690878997323
3920000000.0 -0.006377714875734167 0.07218029383094329
3940000000.0 -0.021374169815506532 0.05772329133145174
3960000000.0 0.021192645113027122 -0.048730413679394485
3980000000.0 -0.0312089723974258 0.03103571661304536
4000000000.0 -0.026318258463993927 -0.02528236193335659
