!Created with skrf (http://scikit-rf.org).
# Hz S RI R 50.0 
!freq ReS11 ImS11
400000000.0 -0.6568567954463548 0.28381863495170645
406500000.0 -0.5056652858198077 -0.4922705459406477
413000000.0 0.382036568852886 -0.5658165009558006
419500000.0 -0.6705403598657741 -0.042529239577433625
426000000.0 0.16853173781567285 -0.6350969818690057
432500000.0 0.0655500999039716 0.6453718696447002
439000000.0 -0.5609329300949766 -0.3061627577884178
445500000.0 0.5282875913007955 -0.32905630031315064
452000000.0 -0.3626782536848013 0.4786632179442334
458500000.0 0.1711596028139074 -0.5635706197413345
465000000.0 -0.0426807914931033 0.5880685352130811
471500000.0 -0.5476860219021129 0.2085633155900528
478000000.0 0.14802652078145848 -0.5575006455982953
484500000.0 0.5798566210047484 -0.03490196896811791
491000000.0 0.4917303863604353 -0.30347410592285784
497500000.0 -0.015555711016987009 -0.5649031303623656
504000000.0 -0.5370423623531082 -0.0016174618359808468
510500000.0 -0.23092749729124926 0.4502158259459302
517000000.0 0.38247331682671876 0.26535922363639236
523500000.0 0.29569723691108596 0.3194629145596327
530000000.0 0.387685552378102 0.11484099725481303
536500000.0 0.31453650360867536 -0.18360281830758646
543000000.0 0.3467670658100073 -0.018243549897183013
549500000.0 0.22326443659092432 0.23909817493631075
556000000.0 0.3000263310311845 -0.07485255248858724
562500000.0 0.08221593400000733 0.28096471972286946
569000000.0 0.22717067651670453 0.18308862654296765
575500000.0 0.20450725906417944 0.19963015890901134
582000000.0 0.24104766766171942 -0.15371993164255088
588500000.0 -0.05681642147141549 -0.28549155279745786
595000000.0 -0.13695631547406067 0.2679674840451404
601500000.0 -0.05071313120780289 0.29424134372672056
608000000.0 -0.03285964504652949 0.2937446405922497
614500000.0 -0.22046081831444786 0.19801699107542908
621000000.0 -0.25826129792246016 -0.1260018619572988
627500000.0 0.07787164072644283 0.28062998761179697
634000000.0 -0.2814899933100944 0.11182045870486026
640500000.0 -0.26618435506692156 -0.1330661831776191
647000000.0 0.20205052726549302 -0.22547395601727244
653500000.0 0.3027618455853483 -0.036324000348559295
660000000.0 0.004460903059128865 0.2965939854122973
666500000.0 -0.20718084475618787 -0.2081403784142687
673000000.0 0.2711958471865573 -0.10715796528840565
679500000.0 0.05659707083910106 -0.28632765688953704
686000000.0 0.21279824759241053 0.18629587787816032
692500000.0 -0.26501560731006557 -0.09944482240275229
699000000.0 0.25681680017659403 -0.11779617526913672
705500000.0 -0.27892670424697785 -0.029114754059703526
712000000.0 0.08729668375389744 -0.2715885798358229
718500000.0 -0.2684733231252759 -0.08777197135164312
725000000.0 0.18254352935465426 0.2286966926241487
731500000.0 0.16944502753793006 -0.2424776075714823
738000000.0 -0.21506921128603004 0.21905573354581076
744500000.0 0.03468216010002352 -0.30940454279872465
751000000.0 -0.022407218732562028 0.31972943548302823
757500000.0 0.19194972956842912 -0.2676329053900526
764000000.0 -0.33554357282760156 0.06331077103338213
770500000.0 0.15466864861613744 -0.31761295820548224
777000000.0 -0.22842428125259853 0.2776870305391533
783500000.0 0.0020626345412351208 -0.3603384526627974
790000000.0 -0.10811282155280544 0.34807884412515355
796500000.0 0.3220681533060903 -0.17386598880149087
803000000.0 -0.3410731032617274 -0.12796699953586438
809500000.0 -0.02423239899237457 0.37060835458601765
816000000.0 0.02926979868527921 -0.37761039837437754
822500000.0 -0.38369681548269313 0.038463020715694754
829000000.0 -0.22710176625228945 0.32369464387581104
835500000.0 0.4014944904308167 0.010212843303358784
842000000.0 -0.3733741759619255 -0.1808616533663123
848500000.0 -0.0642914769768889 0.40739596779802123
855000000.0 0.1409667228350959 -0.39451640331279797
861500000.0 -0.410392625511763 0.07971315514782563
868000000.0 0.2631639841028325 0.3405026060119141
874500000.0 -0.27347280493552856 -0.3318723981963206
881000000.0 0.18579574777082566 0.39239779907228123
887500000.0 -0.29174654619806845 -0.3276033718504666
894000000.0 0.3359625226933392 0.27963807382247874
900500000.0 -0.25665556378578724 0.3498825391800726
907000000.0 -0.36044673109114816 -0.23263524390659063
913500000.0 0.366386073124108 -0.20589826233803418
920000000.0 0.3556802152894888 0.2060548991511913
926500000.0 0.37093974193715995 0.1540354199033189
933000000.0 0.23790597140960634 0.3000719470628358
939500000.0 0.2509912968635687 0.26556739012555763
946000000.0 0.211179114665662 0.26885979905541746
952500000.0 0.16386035772152036 0.2715244817762493
959000000.0 -0.10620189249055842 0.2775672971544477
965500000.0 -0.2488894469394763 0.12839238249350118
972000000.0 0.2668467789545791 0.006220926261258581
978500000.0 -0.02699957763700911 0.2554321947348672
985000000.0 -0.2167692513077414 0.11233319343448618
991500000.0 -0.2278491965179152 -0.04470878781202044
998000000.0 0.17993377149678486 -0.11975980653120608
1004500000.0 0.008474819321255093 0.20478074655866063
1011000000.0 0.005229756165386236 -0.1962355962083944
1017500000.0 0.07673627046538227 0.16823682663040107
1024000000.0 -0.16191913693319382 -0.05784816359675479
1030500000.0 0.08315580406379325 -0.13569716115709818
1037000000.0 -0.11251023855528697 0.09470281589774826
1043500000.0 -0.1340678461257901 0.012297212922552357
1050000000.0 0.10725467251240059 -0.073220293861031
1056500000.0 0.07812266403745731 -0.09671179923301074
1063000000.0 -0.11413356263887388 -0.03630142746892962
1069500000.0 -0.04528584591902913 0.1059770549324759
1076000000.0 0.10892358947639952 -0.021285545949387433
1082500000.0 0.08531122855750185 -0.06294929916316971
1089000000.0 0.09983197865666796 -0.02683577499917021
1095500000.0 0.07898189500995773 -0.06180058380195697
1102000000.0 0.002876874579676032 0.10668971643788355
1108500000.0 -0.06509549217866341 -0.09152792660331767
1115000000.0 0.10684850690954058 0.06351062039767158
1121500000.0 -0.13115954426659823 0.04260121081650633
1128000000.0 0.07447893343331763 -0.13511095212962618
1134500000.0 0.14699744391413283 -0.08181421189172787
1141000000.0 -0.003635509912244763 0.18283460714214922
1147500000.0 0.05329863239260463 0.18647834489350695
1154000000.0 -0.19714677914926418 0.031194254865087645
1160500000.0 0.07136214909573686 -0.18987408534120837
1167000000.0 0.15898958814319644 0.13332345635192214
1173500000.0 -0.15286637471706618 -0.1452931195918651
1180000000.0 -0.037266497983647874 0.21666110266882332
1186500000.0 0.14481349133191215 -0.17172983709336184
1193000000.0 -0.1934209007608666 -0.13288667185960673
1199500000.0 0.23809282220878814 0.04567087123585068
1206000000.0 -0.021647337188299032 -0.24846502468443546
1212500000.0 -0.10542860644990487 0.23677559568675008
1219000000.0 0.24446622800740472 -0.12328259107256566
1225500000.0 -0.2543926578939287 0.12098093237115459
1232000000.0 -0.007228702058988601 0.2949871093352273
1238500000.0 0.2892350045370461 -0.10150674474346419
1245000000.0 -0.19804556342036228 -0.24208374187468248
1251500000.0 -0.23359936935710018 0.2206079571850828
1258000000.0 0.16850280413705832 0.2793321874317256
1264500000.0 0.28286448277901516 0.1614133426354813
1271000000.0 0.3180799312322421 -0.09069901032283674
1277500000.0 0.24483147822337356 -0.22987440582718766
1284000000.0 0.2154731392646106 -0.26418504343310467
1290500000.0 -0.05138846479297763 -0.3413247078150421
1297000000.0 -0.34808791662351357 -0.0049244507457121365
1303500000.0 -0.2828050753028811 0.2024366693650192
1310000000.0 0.21526774996345066 0.2758324360123651
1316500000.0 0.21370136920486182 -0.27614038416891523
1323000000.0 -0.3211403845356198 -0.13594994684595965
1329500000.0 0.2231816797182485 0.2647502014786375
1336000000.0 0.13667239760488628 -0.3128448900098371
1342500000.0 -0.3242841422746854 0.08832000871214268
1349000000.0 0.27579196975508685 0.18747560634781082
1355500000.0 0.19615672708785803 -0.2680441780826344
1362000000.0 -0.30818860376805896 0.11948313155437514
1368500000.0 0.11947433869470751 -0.30991970038773303
1375000000.0 -0.30663564619870165 0.14489506172028171
1381500000.0 0.29556214431672057 -0.17374287487652
1388000000.0 -0.3459822704443786 -0.04538842926123693
1394500000.0 0.20543381907741248 0.28526295092864495
1401000000.0 -0.1712041158928275 0.30860675039514046
1407500000.0 0.14077639117383134 0.3298211280794825
1414000000.0 0.33775736061228434 0.13322964243190583
1420500000.0 0.3385090399269578 -0.14346117293394908
1427000000.0 0.17421511984165192 -0.32606689790081433
1433500000.0 0.24423389944818583 -0.28366630922503566
1440000000.0 0.15197913736080856 -0.3423083325072457
1446500000.0 0.2505716910652427 -0.2826021652606114
1453000000.0 0.19631990031053356 -0.3231743816002551
1459500000.0 0.15521822947861516 -0.34373296653526336
1466000000.0 -0.1405551906143891 -0.3469760678628952
1472500000.0 -0.27490918406408704 -0.24857041113447492
1479000000.0 -0.3499467400509861 0.08997476544389685
1485500000.0 -0.27243940337953126 0.22228003623588194
1492000000.0 0.029773534783096352 0.3402763224148024
1498500000.0 0.3274431555334531 0.039594379017479704
1505000000.0 0.29201961008859806 -0.12812258152909242
1511500000.0 -0.17610325110186323 -0.25544213966917095
1518000000.0 -0.284276048171873 0.08810467916088219
1524500000.0 0.23951454589639293 0.1656461032944474
1531000000.0 0.0008757848889189573 -0.2807859962466012
1537500000.0 -0.20502213241859144 0.18622428681374933
1544000000.0 0.22549398312827076 -0.15234833020949967
1550500000.0 -0.17818796858135408 0.20489598822986824
1557000000.0 0.16259532718011863 -0.2112936625205611
1563500000.0 -0.25980837884715297 0.05400713724120492
1570000000.0 -0.2345982956721757 0.1233251740104432
1576500000.0 0.13047481711959405 0.2298953819637352
1583000000.0 0.24004423056438054 -0.11519271887475638
1589500000.0 0.015203571697060473 -0.263960030329256
1596000000.0 -0.1707025166892019 -0.1997540275120282
1602500000.0 -0.25701122182972747 -0.03371216969297647
1609000000.0 -0.17151226539468978 -0.1923055462251897
1615500000.0 -0.17205809639522074 -0.18352613315593827
1622000000.0 0.18241349478905486 -0.1680578888166248
1628500000.0 0.2119820606311831 -0.12035145982951181
1635000000.0 0.23762148946748454 0.02811261653790912
1641500000.0 0.22248103479916242 -0.07011692099904243
1648000000.0 0.22171843677029865 0.039867931246697776
1654500000.0 0.18007295661035322 0.11850981483233725
1661000000.0 0.20346730928406953 0.025530574316616515
1667500000.0 0.19016874261938513 -0.004792259098137975
1674000000.0 0.03509129271849782 -0.17150269516497985
1680500000.0 0.10584629718982586 -0.11495258848677088
1687000000.0 0.12836075584163678 -0.0616683855710546
1693500000.0 0.1215315271872576 -0.04597048598527092
1700000000.0 0.048035124040431414 -0.11305598898771071
1706500000.0 -0.08066706902755139 -0.08627364111341371
1713000000.0 0.0675457587962848 -0.09407390111401034
1719500000.0 0.09372614768746737 0.06337625294574732
1726000000.0 0.11164346997559413 -0.010877328338334455
1732500000.0 0.10872286257137101 -0.0083305359414029
1739000000.0 -0.0042815585621915585 0.10739941848817536
1745500000.0 0.004545668479803446 -0.10336454142243999
1752000000.0 0.024137201986520734 0.09899998550709882
1758500000.0 0.032415254760853135 0.09639856245183652
1765000000.0 -0.06801504721811077 0.07575254138749495
1771500000.0 -0.10293886296267295 -0.011254502697228452
1778000000.0 -0.08555715772246537 -0.06136341966950368
1784500000.0 -0.042872324539954564 -0.10022895645479891
1791000000.0 0.0858769574694783 -0.06992766954628334
1797500000.0 0.08436421890254374 -0.07403997077673717
1804000000.0 -0.044618052489686484 -0.09960308373260367
1810500000.0 -0.026876245491143542 -0.10059284863233156
1817000000.0 0.031430008508438315 -0.09035871102324647
1823500000.0 0.051655739693334826 -0.06644431877318158
1830000000.0 -0.0506078436910794 0.052952402987436115
1836500000.0 0.05659388780577391 -0.031091352969783683
1843000000.0 -0.003326727524575746 -0.05231290993879106
1849500000.0 -0.02571068518480897 0.03747459625644064
1856000000.0 0.013597161596605017 -0.03373811951734937
1862500000.0 -0.02685602594384842 0.01653219669314111
1869000000.0 0.013646138597571104 0.025443227157463603
1875500000.0 -0.022526070593693298 -0.0064607504986907635
1882000000.0 -0.013304876867093 -0.003288718683853307
1888500000.0 0.010721913704450445 -0.003207398332109532
1895000000.0 0.007085356727094901 -0.005839615890027211
1901500000.0 0.012798948597195051 0.00811321701464091
1908000000.0 0.015305651968281172 -0.00922163036689447
1914500000.0 0.018348719267140594 -0.010351701839735083
1921000000.0 0.013645667622835736 -0.013999683375851512
1927500000.0 -0.010606037814386732 0.016855670013395413
1934000000.0 -0.003459746657016023 -0.020828610014819466
1940500000.0 -0.008727208716511997 -0.02322120498346527
1947000000.0 -0.029058284009609858 -0.008490417648249322
1953500000.0 -0.005613014416407087 -0.03244683260220009
1960000000.0 -0.01580494839905136 0.03240496842015701
1966500000.0 -0.008939333825785212 -0.04450260402203712
1973000000.0 0.02424438098505702 -0.050424518534561334
1979500000.0 -0.014418230356621403 0.06196804102662927
1986000000.0 0.03907575792242546 0.06685037156039392
1992500000.0 0.05102714545035442 0.07217843332249796
1999000000.0 0.09959233309630383 -0.005633344941854255
2005500000.0 0.09582108709968966 -0.05403346702379818
2012000000.0 0.1152482223314426 -0.023181420868744026
2018500000.0 -0.05413201932003681 0.10983576276891083
2025000000.0 -0.06963699053994248 -0.10931831602148871
2031500000.0 0.13037388272280875 -0.03122002457700897
2038000000.0 0.1286020878374073 0.047979318030261564
2044500000.0 -0.05359725875394387 0.12850928845048784
2051000000.0 -0.13563451460496628 0.033414519167804704
2057500000.0 -0.013660003395070248 -0.13766095556065153
2064000000.0 0.12166529509247109 -0.06325299637581092
2070500000.0 0.13727874701187975 -0.0013880410894404433
2077000000.0 0.030925309929192034 -0.12957035173615286
2083500000.0 -0.0997642694879614 -0.0823549477103797
2090000000.0 0.08088750275798633 0.09753253229320061
2096500000.0 -0.11622252034470991 -0.04892750140004863
2103000000.0 -0.10429430785357466 -0.06439663902952253
2109500000.0 -0.11836134005729732 0.02665912648641192
2116000000.0 0.1179105902123169 0.025623702061185683
2122500000.0 -0.035158962070996704 -0.1184876161644931
2129000000.0 -0.1221487654375185 -0.0444906693109394
2135500000.0 -0.13054019603598702 -0.04326358195403075
2142000000.0 0.1457750173149438 0.025299489316431698
2148500000.0 -0.12847696426479652 -0.0941979448231625
2155000000.0 0.17407564354349564 0.01900529128318137
2161500000.0 -0.06741327306551591 -0.1775808075279047
2168000000.0 -0.1801443568763769 0.0945767151152703
2174500000.0 -0.04318484577490987 0.2112217126533937
2181000000.0 0.12240382244011176 0.18943310071479313
2187500000.0 0.22801484858235183 0.05827151945571628
2194000000.0 0.23569999760019894 0.0468820299861599
2200500000.0 0.2265597479856182 0.09820797908340256
2207000000.0 0.23599570128288172 0.07911960552447496
2213500000.0 0.12216878256073367 0.21892877355296736
2220000000.0 -0.00280297836305631 0.24875881335247765
2226500000.0 -0.16102662965975467 0.18308127051144163
2233000000.0 -0.2313832521961874 -0.06204138437226023
2239500000.0 0.009755405520456204 -0.23550613183210564
2246000000.0 0.026064882285085012 -0.2280310533352629
2252500000.0 0.10443602361207105 -0.1985835204618158
2259000000.0 -0.03577097083744071 -0.21579326155515002
2265500000.0 -0.18115288804201612 -0.10710736673597002
2272000000.0 -0.13771573356177974 0.14573415434279946
2278500000.0 0.17262600582106075 -0.07861645280502383
2285000000.0 -0.1367602895098271 -0.11492239015930289
2291500000.0 0.13501509512850968 0.09956946138064258
2298000000.0 0.02378521473704708 -0.15568087565291414
2304500000.0 -0.12722641909370894 0.08378890638867023
2311000000.0 0.14126093966063294 -0.031259631421799126
2317500000.0 0.1443644557779688 0.004059708554876109
2324000000.0 -0.14621266979313802 -0.014050580198251951
2330500000.0 0.12057300583600604 -0.08446007240196313
2337000000.0 -0.11932253071588875 0.0890291192389431
2343500000.0 0.11896517863622914 -0.09192846595480518
2350000000.0 -0.14712907181722126 0.03399636931342686
2356500000.0 0.018146903208081648 0.14992853728159006
2363000000.0 0.15060696621562056 0.028922037977316354
2369500000.0 0.06314338531541609 -0.13645888482172183
2376000000.0 0.14919504537246753 -0.019583925090658046
2382500000.0 0.14252877734074376 -0.04757390434484452
2389000000.0 0.09556442290586097 0.11754887477296315
2395500000.0 0.0013219637280137352 0.15166126203034885
2402000000.0 -0.06994062166536165 0.13451717536443056
2408500000.0 -0.05320104100861004 0.1429843081259468
2415000000.0 0.015557172305382908 0.15068022304108816
2421500000.0 0.057830044015008256 0.13985044154413953
2428000000.0 0.1443586618605437 0.03661488273327818
2434500000.0 0.14642316116658088 7.545868470510924e-05
2441000000.0 0.14255279175435476 -0.027490397954114388
2447500000.0 0.08137480954042757 -0.11866739603216035
2454000000.0 -0.10674661100475828 -0.09609768511516661
2460500000.0 -0.1314711893829312 0.05419215364125815
2467000000.0 -0.07836482430942021 0.11696125080708604
2473500000.0 0.03315934160829476 0.13419294196543669
2480000000.0 -0.06257160888525087 0.1241850215129271
2486500000.0 -0.1207909859241798 0.07147260082825996
2493000000.0 0.019960155363784832 -0.14060021664087885
2499500000.0 0.1169578821103095 -0.08477932078668275
2506000000.0 0.08138805320143432 0.125983043989331
2512500000.0 -0.13911263204160348 -0.058043622533654464
2519000000.0 0.10634714547535759 -0.11160729341943033
2525500000.0 -0.08358242204539258 0.13214177359364238
2532000000.0 -0.0655884116199455 -0.1427015824456469
2538500000.0 0.031257390215193546 0.15121489253441178
2545000000.0 -0.07552333271727928 -0.13724223709213915
2551500000.0 -0.12895366814134362 0.08366734535966909
2558000000.0 0.05446942007641166 0.14523845590184292
2564500000.0 0.07201283810531516 -0.13813480546869425
2571000000.0 -0.14987631097107135 0.0453519327199372
2577500000.0 0.14655221361896026 0.0533677835008845
2584000000.0 -0.020179611542701138 -0.1520576583461531
2590500000.0 -0.08639283224315907 0.12210758878667356
2597000000.0 0.12818300565929575 0.06728308619567455
2603500000.0 0.05589875527114751 -0.12891706231964056
2610000000.0 -0.13255633120080174 0.020434750874066647
2616500000.0 0.04905385480287933 0.12113647149588992
2623000000.0 0.04401432657261313 -0.11637406049350733
2629500000.0 -0.11894235406954153 0.017504097276729386
2636000000.0 0.10460991722067137 -0.042265318308457395
2642500000.0 -0.10467546577917576 0.011429779239762941
2649000000.0 -0.002264679424225603 -0.0998941319833949
2655500000.0 0.06168210696853258 0.06837358982918988
2662000000.0 0.06376612977750917 -0.06004825155232268
2668500000.0 -0.08219373734004126 -0.0006588747534888646
2675000000.0 0.01943608286854269 -0.07324834763335257
2681500000.0 0.025845576387024 -0.06526538431346104
2688000000.0 0.019560800115864117 -0.0657924802612369
2694500000.0 -0.04668999895918172 -0.05199231786231697
2701000000.0 0.07047055203450375 -0.015521705924603548
2707500000.0 0.05877063466889642 -0.05577384497487847
2714000000.0 -0.027444682498518017 0.0849071519414942
2720500000.0 0.10053297221872971 -0.026757661386412914
2727000000.0 0.10038814893608247 -0.04174184024379566
2733500000.0 0.080669385587894 -0.09276847646315953
2740000000.0 0.004712245243762692 -0.13468985403074218
2746500000.0 -0.08433133548902456 -0.12375297418017933
2753000000.0 -0.11919748878853761 -0.11765259360920177
2759500000.0 0.07049126460738639 -0.16153968081291178
2766000000.0 0.05815789162889026 0.17779191608830905
2772500000.0 -0.1468378327749309 -0.12939561435988478
2779000000.0 0.09168082026412461 0.18419441655756957
2785500000.0 -0.20820653930536961 -0.06383434139775503
2792000000.0 0.22522738438917786 -0.01144393203036429
2798500000.0 -0.15956088398450322 0.1728136962840247
2805000000.0 -0.024066858745369832 -0.2386879311642573
2811500000.0 0.2251386682556714 0.10611214366895005
