!Created with skrf (http://scikit-rf.org).
# Hz S RI R 50.0 
!freq ReS11 ImS11
400000000.0 -0.39091613948739856 -0.724494872357761
420000000.0 0.503758711836193 0.5863760119279692
440000000.0 -0.025083141582910855 -0.7317993107807202
460000000.0 -0.6435139094208032 -0.03646296268649161
480000000.0 -0.29182586834418356 -0.5021983351665483
500000000.0 0.2051918894120161 0.4414559481362792
520000000.0 0.3675344000312854 0.32196482182237846
540000000.0 -0.20073145558098837 0.49715940427269417
560000000.0 -0.5537487744117316 -0.008608158355208183
580000000.0 0.49507958888262477 -0.16522055452121975
600000000.0 0.3925743994593122 -0.32236733231270254
620000000.0 0.15839171865408233 0.4232207036709948
640000000.0 0.3895947864276966 0.16268936884620452
660000000.0 0.38513546028222 0.1766555134746401
680000000.0 -0.3982001215334374 -0.19321229755046748
700000000.0 0.01155083791429162 0.45487490464281216
720000000.0 -0.1597942614548736 -0.40919912397366703
740000000.0 0.3321143575164259 -0.20642054148276598
760000000.0 0.3456557995592389 0.10489149044598119
780000000.0 -0.3546999529313444 -0.10090832334672097
800000000.0 -0.052433215567832765 -0.345338281528198
820000000.0 -0.25647279009539903 0.16324435158373085
840000000.0 0.15972535854214384 0.22567325037251526
860000000.0 -0.11107717739415876 0.23615665917871068
880000000.0 -0.18228240353699834 0.17975722095155502
900000000.0 0.20364402370869586 0.07961473666234345
920000000.0 0.17567659170764025 -0.07187745126738149
940000000.0 0.03369087988561684 0.1700393278915074
960000000.0 -0.08122390346039582 0.12092055311952413
980000000.0 0.010167839094936711 -0.10021127033584121
1000000000.0 0.007052271256493949 0.054179563000514026
1020000000.0 -0.002362278594894658 -0.03796056167584852
1040000000.0 -0.02694724639912755 -0.039155059052339555
1060000000.0 -0.04808005901507047 -0.00875951509621406
1080000000.0 0.0013295272242574826 -0.06711895712036152
1100000000.0 0.07658659162736409 0.03361437686349737
1120000000.0 -0.07042994274168038 0.09745394907711809
1140000000.0 0.15149048151359548 -0.039978072353729216
1160000000.0 0.016819348240990736 -0.1809624224902572
1180000000.0 -0.1421975349962703 -0.14710809082850013
1200000000.0 0.05153240032867527 0.20736616920831158
1220000000.0 -0.14140824540337169 -0.15853720981128147
1240000000.0 0.12951251432127978 0.1774352124648977
1260000000.0 -0.24538358654106743 -0.05845691322020425
1280000000.0 -0.23669094890165657 -0.12941103533123036
1300000000.0 -0.27330741777109857 -0.08943816231766391
1320000000.0 0.004743930376663643 -0.31021557174066594
1340000000.0 -0.23405211494545525 -0.22167566138761707
1360000000.0 0.32826487837730134 0.10409244554550172
1380000000.0 -0.3416068096630142 0.013562295264804755
1400000000.0 0.11017536279988815 0.33591004994428686
1420000000.0 0.18317403990426273 -0.3117838135822562
1440000000.0 -0.05191517206953297 -0.3554693151379988
1460000000.0 -0.30636121465809457 -0.205387033386125
1480000000.0 -0.24104481423856483 0.2796922902699956
1500000000.0 0.010895971901084014 -0.3665083138868162
1520000000.0 0.09432570756864248 0.34055998201917026
1540000000.0 -0.2911576237338627 0.16121019651183854
1560000000.0 -0.23456675111861067 -0.17526255989676554
1580000000.0 0.13248972642161974 -0.20883452493099305
1600000000.0 -0.025651092568469758 -0.214568279294603
1620000000.0 0.13994186487223378 -0.1342838861576197
1640000000.0 0.16152316821574292 -0.01730370674343513
1660000000.0 0.025589004636335153 0.14200283909336114
1680000000.0 0.07883103097463588 -0.08619796789883039
1700000000.0 0.07837160696722865 -0.05853311658858518
1720000000.0 0.00010491232363337367 0.06465608324849845
1740000000.0 0.008055426453850786 0.05624202809953786
1760000000.0 -0.05472254249345658 -0.012022294774286575
1780000000.0 -0.058398386757852395 -0.04595986530429604
1800000000.0 -0.07207045009897727 0.08128871357644493
1820000000.0 -0.02491515345339508 0.14386331006524292
1840000000.0 -0.16110542995533067 0.0883169229778372
1860000000.0 0.002525498960164388 0.20719818397548032
1880000000.0 -0.2009507428427386 0.11289307630466143
1900000000.0 -0.004877319417577217 0.26117879814861883
1920000000.0 0.13981273632757737 -0.24721055089277402
1940000000.0 -0.23945495836375233 0.17868582119422952
1960000000.0 -0.2919530414185087 -0.1057033543410647
1980000000.0 0.22752766727374438 -0.2106796110192021
2000000000.0 0.17681849071916642 0.25615464861052345
2020000000.0 -0.017379482088993533 0.317188524659524
2040000000.0 -0.05875123694295968 0.3040279174019321
2060000000.0 -0.30525793808295076 0.02594667924978848
2080000000.0 -0.13562809641314455 -0.2791898339360681
2100000000.0 0.2731792153304138 0.13860904677725297
2120000000.0 -0.2990368904009139 -0.05831629641445633
2140000000.0 0.16939615375239858 -0.2467737645821904
2160000000.0 -0.1950253972400871 0.21726022625094737
2180000000.0 0.13424914916823147 0.25068973110041215
2200000000.0 0.24327191876382384 0.13769132703007722
2220000000.0 0.2625497460940114 0.05938599218490945
2240000000.0 0.012143711808031938 0.26485890110129845
2260000000.0 -0.08892852059425632 0.23727660136155737
2280000000.0 -0.23605071764741997 -0.05233692101972631
2300000000.0 0.18723810390322695 0.1291542801316235
2320000000.0 -0.20803866435787588 -0.08280304749239466
2340000000.0 0.1704971450825441 0.13393549981964054
2360000000.0 -0.17025134083041446 -0.13760208744864483
2380000000.0 0.19498521952561776 0.11524911850012488
2400000000.0 -0.2405307782903395 0.01924334746965309
2420000000.0 -0.1463652217431346 0.22285178878612494
2440000000.0 0.2890650495589369 -0.07030598338467656
2460000000.0 -0.3171418647104401 0.10040423456660544
2480000000.0 0.360366923799641 -0.04846412618337757
2500000000.0 -0.1609952875693936 0.36858821877397546
2520000000.0 -0.38187197346521384 -0.2146216583684274
2540000000.0 0.19124653159644078 -0.438743156130235
2560000000.0 0.2392594015893112 0.4519968079150492
2580000000.0 -0.5007131804315704 -0.21341121754884174
2600000000.0 0.5194441843190414 -0.24679364626893713
2620000000.0 -0.247955982547366 0.5461067484310977
2640000000.0 -0.07431261389247706 -0.6138877057961009
2660000000.0 0.5809409375394593 0.25793192479797605
2680000000.0 -0.36746131093192813 0.532698466276151
2700000000.0 -0.643605820630238 -0.12943124378177928
2720000000.0 -0.401301051458982 -0.5269019759175152
2740000000.0 -0.23879606251495372 -0.621699947466371
2760000000.0 -0.19741141609162452 -0.6349940859331829
2780000000.0 0.6602815704216399 -0.02191116119643736
2800000000.0 0.630049688522761 0.17150800422959037
2820000000.0 0.31226376211316004 0.5588905198425994
2840000000.0 -0.5553760319083377 0.29014207789374336
2860000000.0 0.27560897241817106 -0.5493114078402911
2880000000.0 -0.39755784399482896 0.44755491564895256
2900000000.0 0.5750553078049017 0.07947652044732614
2920000000.0 -0.13974696905971337 -0.5457538781002337
2940000000.0 -0.5155554957105735 -0.15981271066869798
2960000000.0 -0.45772397819392363 0.24392335821994915
2980000000.0 0.02982253454811509 0.49419428720941627
3000000000.0 0.45031891544438296 0.15131597902233
3020000000.0 0.011353250650010567 -0.4496092824343148
3040000000.0 -0.2573546415632805 0.3384680125024723
3060000000.0 0.3722128262211676 -0.14272700309032665
3080000000.0 -0.37610298674356757 -0.0028630498054913202
3100000000.0 0.35244732311236704 -0.015046944327557443
3120000000.0 0.26287684904325576 -0.21737312823163107
3140000000.0 -0.25769057224931086 0.21527886580819397
3160000000.0 0.14155526157668966 -0.2974825493335209
3180000000.0 -0.11965458673547144 0.3036141588500613
3200000000.0 0.16802074219915658 -0.2718146240315738
3220000000.0 -0.279958653303402 -0.12925792484008836
3240000000.0 -0.29706745781679894 -0.023138114275906552
3260000000.0 -0.27081363403588854 0.07948535582787011
3280000000.0 0.014561478378824076 -0.26443363520169894
3300000000.0 0.25029196615884725 0.020467281752958217
3320000000.0 -0.12319541791068273 0.19636297971514985
3340000000.0 -0.1648881354532705 -0.1349834254305597
3360000000.0 0.18787530360913596 -0.0058562872096963835
3380000000.0 -0.14233030181540182 -0.07221510698616042
3400000000.0 0.041157357979086165 0.12792523116013235
3420000000.0 -0.04715065273339771 0.11148654275756335
3440000000.0 0.02502833677814611 -0.10761048787312419
3460000000.0 0.023013333498827254 -0.09625144278054794
3480000000.0 -0.026230685864368237 0.08273229047633844
3500000000.0 0.07477189995461184 -0.020252968185447747
3520000000.0 -0.06699603345108901 0.006929779311370377
3540000000.0 -0.007328791633272679 -0.06405570316495016
3560000000.0 0.06551040798845656 0.010710775653618653
3580000000.0 0.07390683747510632 0.0016669096696450857
3600000000.0 0.08411970964112722 -0.0046556598532558075
3620000000.0 -0.07922022212450641 -0.058540325721594774
3640000000.0 -0.06450550221739544 -0.08244728303871579
3660000000.0 0.03908223534377091 -0.10071259424922331
3680000000.0 -0.0912111196619982 -0.05594122206519317
3700000000.0 -0.08597773753549981 -0.04680732207501731
3720000000.0 0.01982510016013509 -0.08753915462252407
3740000000.0 0.004974921201544111 -0.07855011187228715
3760000000.0 0.07207789210315682 0.011069497549053805
3780000000.0 0.03921196832274471 -0.050055261027408156
3800000000.0 0.04083477156975434 0.01586097018610994
3820000000.0 -0.012245258769000202 0.03935228092616987
3840000000.0 -0.009736562153312402 -0.04893232821013527
3860000000.0 -0.06587347177298003 -0.0328334391061155
3880000000.0 0.0028332309473281672 0.0885338824230023
3900000000.0 -0.10285982179016881 0.019190395233155008
3920000000.0 0.08702808764447084 -0.0653522654587129
3940000000.0 -0.07047132214375362 0.08186265629041739
3960000000.0 0.05441341763707393 0.09054050757329207
3980000000.0 -0.05197444361734358 -0.08543552366639579
4000000000.0 0.027854505777549908 0.08176093355162592
