!Created with skrf (http://scikit-rf.org).
# Hz S RI R 50.0 
!freq ReS11 ImS11
400000000.0 -0.4629629554973378 -0.6810631700802292
420000000.0 0.5102208871535221 0.5810934344491058
440000000.0 -0.0126187131531511 -0.7307402798157074
460000000.0 -0.6288881005654028 -0.14264839011331526
480000000.0 -0.4882676000745022 -0.3253251596545123
500000000.0 -0.04786774992594536 0.48217001220135813
520000000.0 0.43389237800827013 0.23236409731133445
540000000.0 -0.23504630192304105 0.4773405614136158
560000000.0 -0.5596155491618314 -0.018377312638218634
580000000.0 0.23468277864696518 -0.4730328342761416
600000000.0 0.40798893211201115 -0.29337255734436546
620000000.0 0.27980967158242664 0.3549972245397868
640000000.0 0.11177481325710552 0.40581279383714375
660000000.0 0.03548849216540964 0.42571760881671433
680000000.0 -0.37481553401398193 0.24949329260593106
700000000.0 0.26259323570060916 0.3738926976561296
720000000.0 -0.3949791946504729 -0.18280232501858182
740000000.0 0.3813924421215459 0.03374381886481415
760000000.0 0.07445132406045603 0.3574775584399943
780000000.0 -0.3589496853903784 -0.09996406276245438
800000000.0 -0.1552635283653244 -0.31226938916945557
820000000.0 -0.18789066654047312 0.24266942556543705
840000000.0 0.16850726968461874 0.21746598761999797
860000000.0 -0.10897458148207242 0.2371883118580233
880000000.0 -0.018367248383341306 0.2520798934734349
900000000.0 -0.0104363574659726 0.21464543317372245
920000000.0 0.1390519655364327 0.1301037640096095
940000000.0 -0.08131503631140992 0.1599464766729735
960000000.0 0.09261279916994203 0.12027321247713443
980000000.0 0.017876335268145686 0.09526042499635905
1000000000.0 0.04932530828017795 0.010918862492599627
1020000000.0 -0.025551534869221272 -0.0299509906248465
1040000000.0 0.020471469904383185 0.04519144749864073
1060000000.0 0.04466206184138092 0.023768527162688704
1080000000.0 0.023198714393867014 -0.0579131902040229
1100000000.0 -0.06390511326694621 0.049624776898856034
1120000000.0 -0.03080301678019711 0.11813324006310001
1140000000.0 0.15950288741470242 0.006238189292839101
1160000000.0 -0.18223544330100663 0.024770771491517293
1180000000.0 -0.1726459996878142 -0.09868404690503824
1200000000.0 -0.08757486807086244 0.19173267290240695
1220000000.0 0.12395977101163697 -0.17081818571469404
1240000000.0 0.029285365055007614 0.21830908716589528
1260000000.0 -0.2375725395388799 0.09275449917382123
1280000000.0 -0.22077473623898747 0.15490361165539462
1300000000.0 -0.27701184026960496 0.05275629538337369
1320000000.0 0.20673719296724455 -0.2254110269435781
1340000000.0 -0.025693374849866252 -0.3227454065754412
1360000000.0 0.3464226849768117 0.04301011484621516
1380000000.0 -0.31651684432168303 0.136476304760391
1400000000.0 0.17709831780944188 0.30304820962930695
1420000000.0 0.18800158599836836 -0.30542632028312466
1440000000.0 0.037332293280816574 -0.356706409264383
1460000000.0 -0.20223639228625953 -0.3083338186983522
1480000000.0 -0.21994331776837886 0.29662214857385966
1500000000.0 -0.013017357414119137 -0.3699970474077653
1520000000.0 0.17214503223927424 0.30641417987910485
1540000000.0 -0.25132054825715655 0.21266377444607537
1560000000.0 -0.051005303023614605 -0.28613486086470624
1580000000.0 0.24024366086326035 -0.07064079222156337
1600000000.0 -0.07298636249581007 -0.2091201929245799
1620000000.0 -0.0736683512900456 -0.1797739851441335
1640000000.0 0.15755153677216086 0.013947339309787128
1660000000.0 -0.033084839981187254 0.13966535635010807
1680000000.0 0.11873642217704532 -0.009666201708477134
1700000000.0 0.028368972355482806 -0.09844452215991163
1720000000.0 0.05816296666958373 0.028885252633124917
1740000000.0 0.05145008568437632 -0.021930938239152625
1760000000.0 -0.05182098579209835 0.017146516214793975
1780000000.0 0.03824708164775781 -0.06399056545665428
1800000000.0 0.05716153477874918 0.09638310766229959
1820000000.0 0.11312693852074467 0.09061600302468201
1840000000.0 -0.1513771925220945 0.09900516917927706
1860000000.0 -0.1454041493480596 0.14926379669106368
1880000000.0 -0.22910724576775707 0.03852751102226011
1900000000.0 0.01851359084702889 0.26258122457245836
1920000000.0 0.07445209086008847 -0.2737948935844416
1940000000.0 -0.259173121531816 0.1474875135351564
1960000000.0 -0.1950786003169578 -0.2403559892077109
1980000000.0 0.2686394268121284 -0.15598612886482288
2000000000.0 0.1667905740968672 0.2629919807988017
2020000000.0 0.01188450716788984 0.31620316351950056
2040000000.0 0.0004571577790283296 0.3093781164070493
2060000000.0 -0.29536687767132713 0.08136250702526748
2080000000.0 -0.18955735859538883 -0.24458220237038866
2100000000.0 0.24778358766836256 0.18091603034717504
2120000000.0 -0.30643703461985405 -0.01592073212457767
2140000000.0 0.11847426256017392 -0.27736057787740265
2160000000.0 -0.1680538774766586 0.23894726499138325
2180000000.0 0.08553892840621234 0.2710978579162265
2200000000.0 0.17759665196234947 0.21689632795572256
2220000000.0 0.2237090234098128 0.15241706306489883
2240000000.0 0.10777428604991626 0.2431545564930645
2260000000.0 -0.11149434738475802 0.2256923442915574
2280000000.0 -0.18594588603426143 -0.152428237987355
2300000000.0 0.19338845383007047 0.12048790782325051
2320000000.0 -0.2126142875784259 -0.06657253710683046
2340000000.0 0.12468783733583882 0.1765703070366227
2360000000.0 -0.20932167334736007 -0.06239841289177676
2380000000.0 0.22338005679297 0.0304879910878414
2400000000.0 -0.24051400652597843 0.0071693161206689915
2420000000.0 -0.13244187992705214 0.2355614959878751
2440000000.0 0.26724950907327916 -0.13157943198233865
2460000000.0 -0.29877244051042734 0.1491091828643305
2480000000.0 0.362017112837838 -0.02454611169559978
2500000000.0 -0.2037107939505234 0.3478653871142192
2520000000.0 -0.376319167523299 -0.22451072355445986
2540000000.0 0.27194909322495453 -0.39397151654728224
2560000000.0 0.2132044346439168 0.4655503382245511
2580000000.0 -0.5113332677101409 -0.18850496859205232
2600000000.0 0.5121564861544177 -0.25880946203610156
2620000000.0 -0.2932525224948171 0.5220349969362569
2640000000.0 -0.08850410563848501 -0.6116432645286121
2660000000.0 0.5888906926506018 0.2400637425571854
2680000000.0 -0.28985795214047505 0.5784340708750517
2700000000.0 -0.649563533598337 -0.09556976008779347
2720000000.0 -0.4533200627242835 -0.483292012080459
2740000000.0 -0.21467015800359068 -0.6308627490409912
2760000000.0 -0.1357787415076148 -0.6514797894319144
2780000000.0 0.6604889209647636 -0.0058900597430814865
2800000000.0 0.6300585450043974 0.1683380812815919
2820000000.0 0.307261440888847 0.5615322843098283
2840000000.0 -0.5545352301104007 0.291202801180206
2860000000.0 0.3453021770177903 -0.5078600114496016
2880000000.0 -0.37799911768478167 0.46401992565356187
2900000000.0 0.5757929852478105 0.07434352249590824
2920000000.0 -0.09358252600407223 -0.5551942940055313
2940000000.0 -0.5232854338013542 -0.12806605535565146
2960000000.0 -0.466450277742482 0.2282735946351457
2980000000.0 -0.002900048859384212 0.49547649294413004
3000000000.0 0.46132600365411 0.11654120579129504
3020000000.0 -0.07948324969982004 -0.4432859369161187
3040000000.0 -0.14582653995231343 0.3980187861297868
3060000000.0 0.371594539534753 -0.1434498964095378
3080000000.0 -0.37208304848618373 -0.05511024029943774
3100000000.0 0.34579246537316344 -0.07480461743371052
3120000000.0 0.23403027156173428 -0.248389374915933
3140000000.0 -0.22289460731656763 0.25011835733813575
3160000000.0 0.11864908288655436 -0.3066196689516778
3180000000.0 -0.15064043919595776 0.2890629710727047
3200000000.0 0.185575917329452 -0.2616695693223605
3220000000.0 -0.2887103623679783 -0.1129279840474253
3240000000.0 -0.29387663114113155 0.04093885522467779
3260000000.0 -0.27231015578824586 0.07124094565014377
3280000000.0 0.09974017205523719 -0.24657930656441573
3300000000.0 0.24869008823421654 0.03799917419191965
3320000000.0 -0.1348962840800641 0.18721364490723033
3340000000.0 -0.1410171004684185 -0.15965696225723125
3360000000.0 0.18770279082388702 -0.014981641102306787
3380000000.0 -0.15914006119108415 -0.017771148837403335
3400000000.0 0.04011424641861137 0.12829240722462942
3420000000.0 -0.0024826446473047957 0.12077645060770115
3440000000.0 0.016714353166285178 -0.10898698098900662
3460000000.0 -0.015839560438838426 -0.0989080675516691
3480000000.0 0.034442147445324 0.08178271555259573
3500000000.0 0.02923039318934241 -0.07389400170495404
3520000000.0 -0.06672881442688938 -0.003093582018333859
3540000000.0 0.05524723114252187 0.03428627260835847
3560000000.0 0.01658669546697787 0.06464327437823064
3580000000.0 0.06426706876844433 0.0373303453979726
3600000000.0 0.03067291561491835 -0.07786205661372282
3620000000.0 -0.014456220810281082 -0.09619929139688434
3640000000.0 -0.026658882785334043 -0.10016826985695797
3660000000.0 -0.032511129597188444 -0.10319585220766195
3680000000.0 -0.07635441430018995 0.07366319161910348
3700000000.0 -0.08806466121574257 0.04159789893691088
3720000000.0 -0.03397832964800121 -0.08326286434479677
3740000000.0 -0.06898438108462822 -0.03893824148299808
3760000000.0 0.04492338326213211 -0.057120478351678466
3780000000.0 0.013417344368368075 -0.06326573260033022
3800000000.0 -0.02283875160767902 -0.0393980751985421
3820000000.0 0.040829104378414964 -0.0024212276789420052
3840000000.0 -0.05133706071040361 0.00426385730640558
3860000000.0 -0.0012294822984311076 0.073844076533829
3880000000.0 0.07411817159531653 -0.04973553832101112
3900000000.0 -0.0467158435134035 0.09742723000365236
3920000000.0 -0.017315051386221705 -0.11017461166458394
3940000000.0 0.02491267466180312 0.1076030347266088
3960000000.0 0.10881202789540548 0.007984283763731684
3980000000.0 -0.06475718423300017 -0.08076472115368609
4000000000.0 0.04065540822965092 0.07881277644654307
