!Created with skrf (http://scikit-rf.org).
# Hz S RI R 50.0 
!freq ReS11 ImS11
400000000.0 -0.38836499613643727 -0.7261357594396892
420000000.0 0.5335738729519224 0.5565900097527736
440000000.0 0.09055466069387416 -0.7259147461227419
460000000.0 -0.5757291066153294 -0.29035303236377247
480000000.0 -0.5614180272473394 -0.16954153545811299
500000000.0 -0.03933235902290414 0.4839335636217278
520000000.0 0.47180740980811364 0.12039043529155606
540000000.0 -0.452117421944549 0.2853004665498158
560000000.0 -0.5531863824068709 -0.015872816420312803
580000000.0 0.47207022405961063 -0.2368352398783271
600000000.0 0.49800279900566014 0.043998657390522646
620000000.0 -0.05236298750048663 0.4543607305955818
640000000.0 0.4221590935146881 -0.06529462281997432
660000000.0 0.39270456071038834 0.1447330523585325
680000000.0 -0.4193462946049304 -0.14926410613315816
700000000.0 0.12867612393469854 0.4382659454669513
720000000.0 -0.24375327729363053 -0.36358507951255103
740000000.0 0.3810548322344979 -0.06659062941096192
760000000.0 0.33364766381163874 0.14816681134153184
780000000.0 -0.3378480839065248 0.14027474493729122
800000000.0 0.12910799281485602 -0.32633109569853247
820000000.0 -0.2923141296702156 -0.0961743938310704
840000000.0 0.2611463115770864 0.08659762409555598
860000000.0 -0.016903911869052015 0.25768956102715795
880000000.0 -0.14573481852670123 0.2094171179334663
900000000.0 0.09473855733331324 0.19390582535170386
920000000.0 0.17197811163919183 -0.08008193976715851
940000000.0 -0.13399998725796855 0.11473913656683081
960000000.0 0.15157167544823014 0.009717919359202708
980000000.0 -0.0006408704743776162 0.0960393905614311
1000000000.0 -0.04738415299750444 0.02811067106005234
1020000000.0 -0.0351414476355178 0.016953705227924193
1040000000.0 0.0394902209657927 -0.025465785299737982
1060000000.0 0.03709289936954166 0.0322675548305848
1080000000.0 -0.030802804608140152 -0.0602989271919237
1100000000.0 -0.008634759066837765 -0.07913080118249506
1120000000.0 0.07011107538787109 -0.097809386575578
1140000000.0 0.15834754547393604 0.05154187550975021
1160000000.0 -0.1432303018001753 0.1167193028256945
1180000000.0 -0.0810724177826921 -0.18132264429344405
1200000000.0 -0.05662476921027857 0.20749506486720312
1220000000.0 0.057598983566091944 -0.20291358281377042
1240000000.0 -0.03821651169365905 0.21862664223129574
1260000000.0 -0.23356057787990916 0.1118358891089299
1280000000.0 0.0049714187507635425 0.27029868098142806
1300000000.0 -0.2128870484706643 -0.18564024932547457
1320000000.0 0.23906630694970774 -0.20073980373675698
1340000000.0 -0.25852924898887186 -0.19540968277798762
1360000000.0 0.3241619803689183 0.12728519820681264
1380000000.0 -0.30561216139368247 0.16193254502908033
1400000000.0 0.2038407495485457 0.287829484937282
1420000000.0 0.2172343911368283 -0.2875320460753225
1440000000.0 -0.1026086646136505 -0.34531196198598324
1460000000.0 -0.24567121774198022 -0.27336848166875305
1480000000.0 -0.19449396428953158 0.31474589125828556
1500000000.0 -0.16968749348929785 -0.32753687068451653
1520000000.0 0.17511294058028806 0.3067586501396083
1540000000.0 -0.2112897792103833 0.2512716260960218
1560000000.0 -0.131519676169938 -0.2583432084163653
1580000000.0 0.16197106710548032 -0.1892726209400348
1600000000.0 -0.012039621082909319 -0.2166272228446264
1620000000.0 -0.0021375444772355266 -0.1957715351746485
1640000000.0 0.1395871538651062 -0.08005348815105037
1660000000.0 0.04984815523830171 0.13142414698622076
1680000000.0 0.11396219840651452 0.023408546736080352
1700000000.0 0.09038395484028182 -0.04557761696946377
1720000000.0 -0.04429672630310639 0.047640072226576215
1740000000.0 0.04599966411974634 -0.03398064167576778
1760000000.0 -0.0476371972880299 0.01854059258512785
1780000000.0 0.07789146090892894 0.010408202378405914
1800000000.0 0.09306612294478414 0.06229233607239626
1820000000.0 0.004627068100425856 0.14270159001566424
1840000000.0 -0.1806577337980187 0.0283279220009768
1860000000.0 -0.0338114740514878 0.20474815152231587
1880000000.0 -0.23081516934296747 0.006350762174173857
1900000000.0 -0.014611581909235588 0.2622930977479294
1920000000.0 -0.03389461424710541 -0.28264988600957375
1940000000.0 -0.22043346224930452 0.20050056490443383
1960000000.0 -0.2491264686069639 -0.1849445207600556
1980000000.0 0.20156200074540845 -0.23694158856712413
2000000000.0 0.1773270331923396 0.2544909276933098
2020000000.0 -0.03525394787665721 0.31510136495180285
2040000000.0 -0.09728239226076814 0.2964272528275814
2060000000.0 -0.2982484421907442 0.0668540053060547
2080000000.0 -0.08110599101633555 -0.29779949911985454
2100000000.0 0.26149339400297156 0.16144495903692757
2120000000.0 -0.29426642654950885 -0.08119556510797471
2140000000.0 0.16993613950131284 -0.24584457270952903
2160000000.0 -0.17854743622859415 0.2331454893067992
2180000000.0 0.15419290691429854 0.23806442029601244
2200000000.0 0.1826611211146951 0.2111234652821685
2220000000.0 0.2689874192892314 0.026730909685083196
2240000000.0 0.07906789270336105 0.2530530527841417
2260000000.0 -0.0654021411119495 0.24357659273200008
2280000000.0 -0.1952497298611841 -0.14256601779206676
2300000000.0 0.21080283198168914 0.08928485559752619
2320000000.0 -0.2199537561279904 -0.03512012411267557
2340000000.0 0.13224899034309698 0.17035502781772355
2360000000.0 -0.20347473715611789 -0.08335647948047163
2380000000.0 0.2100411442688018 0.08095095200725524
2400000000.0 -0.22312217111052557 -0.09200332738645221
2420000000.0 -0.0812136670139828 0.2557907997491711
2440000000.0 0.2588448174197907 -0.14414908687751782
2460000000.0 -0.3216239512869447 0.08173297111812784
2480000000.0 0.3613956249581628 0.04446830873879395
2500000000.0 -0.03414656139622818 0.4025537230532214
2520000000.0 -0.3786071617618901 -0.21969384508387604
2540000000.0 0.2483791665848303 -0.4091996175801714
2560000000.0 0.24140634035644665 0.45143965858757384
2580000000.0 -0.4937224425739009 -0.22946130482792385
2600000000.0 0.5292852990392192 -0.22202123088314948
2620000000.0 -0.2779575892991499 0.5305769021316907
2640000000.0 -0.11047147196839466 -0.6078879541737591
2660000000.0 0.5747380037778453 0.2703114582554947
2680000000.0 -0.34022385604751637 0.5500418123386046
2700000000.0 -0.6433042522566708 -0.13065898337749768
2720000000.0 -0.42006907849553377 -0.5121371910741673
2740000000.0 -0.34362838451795585 -0.5704767909642049
2760000000.0 -0.1714761341809186 -0.6431319288171484
2780000000.0 0.6610344811098079 -0.0190354661232736
2800000000.0 0.6267581549066895 0.18351011067873108
2820000000.0 0.23633423409444668 0.5950062333255627
2840000000.0 -0.5799792304395258 0.23922544843868282
2860000000.0 0.3676845397880894 -0.49234919023012175
2880000000.0 -0.41263295414029993 0.4334339405442933
2900000000.0 0.5616511258315326 0.14855528933206458
2920000000.0 -0.12609122433565131 -0.549949134780097
2940000000.0 -0.5287045457459263 -0.10476530011415462
2960000000.0 -0.45834465131672336 0.2426862981601196
2980000000.0 0.02940461385982013 0.49588583065919833
3000000000.0 0.4742491962299022 0.03140676124711458
3020000000.0 0.022069595196089788 -0.45070573314727164
3040000000.0 -0.32301297034557497 0.27888198026798217
3060000000.0 0.3906606155023078 -0.0756831738768646
3080000000.0 -0.3606086676256522 -0.10636876622008778
3100000000.0 0.3483506695596445 -0.0703811690266361
3120000000.0 0.2185607976982705 -0.2616271800589234
3140000000.0 -0.301854281348188 0.14492236529253955
3160000000.0 0.16628198433209956 -0.2842084587406616
3180000000.0 -0.14730021035364588 0.2904505352573414
3200000000.0 0.22016145653069638 -0.231222241399328
3220000000.0 -0.2809528164467213 -0.13272056156209044
3240000000.0 -0.2853785495425486 0.08077701123948011
3260000000.0 -0.2729628355645589 0.0681110177631639
3280000000.0 0.02941927242481003 -0.26547720031276756
3300000000.0 0.2519259012849153 0.01773193842124671
3320000000.0 -0.15682092795762262 0.17050314862008953
3340000000.0 -0.1436726201565549 -0.15870386055709573
3360000000.0 0.18793484531232862 -0.024063068809793767
3380000000.0 -0.1455250047761203 -0.0648575350630084
3400000000.0 0.0083442216755286 0.1346516101496027
3420000000.0 -0.10358018666501799 0.06251749831617959
3440000000.0 0.038375643867276966 -0.10336449737517325
3460000000.0 0.021624998584146824 -0.09655149622642455
3480000000.0 -0.02459634777933663 0.0832905202517394
3500000000.0 0.0761755731706978 -0.013638876666675737
3520000000.0 -0.04887772196539112 0.04542230207233527
3540000000.0 0.013904366161042873 -0.06233861687030612
3560000000.0 0.06653281608043551 -0.008408674808358314
3580000000.0 0.069973205546775 0.022569792807273236
3600000000.0 0.05932213060392382 -0.05986241673467473
3620000000.0 -0.07172064251536314 -0.06894001634125085
3640000000.0 -0.06553854536379247 -0.08173631679811734
3660000000.0 0.06533257287771971 -0.08575085146580462
3680000000.0 -0.09084403176453393 -0.058323620624294754
3700000000.0 -0.09551452897082033 0.02058609748062303
3720000000.0 0.022633850982204932 -0.08646579662516929
3740000000.0 0.07223093793025734 -0.032430679335762116
3760000000.0 0.06658366405440137 -0.03247532198064019
3780000000.0 0.014705587093203283 -0.06135833061164564
3800000000.0 0.02945426052745088 0.03248508403139167
3820000000.0 -0.014502598801721708 0.03839667424232324
3840000000.0 0.02181689812274687 -0.04472437186141922
3860000000.0 -0.0506121676444891 -0.05364923179671954
3880000000.0 0.03933123751044536 0.07972911689502105
3900000000.0 -0.09867650364654376 0.035563961301203886
3920000000.0 0.08546708743938138 -0.06741112608272398
3940000000.0 -0.06475254067326577 0.0882005152039091
3960000000.0 0.08435526195685937 0.06422680400830715
3980000000.0 -0.06317512065817665 -0.07778000091831885
4000000000.0 0.0337711807267172 0.08037956458496173
