!Created with skrf (http://scikit-rf.org).
# Hz S RI R 50.0 
!freq ReS11 ImS11
400000000.0 -0.41854331446790993 -0.7096989045199584
420000000.0 0.4900912546475144 0.5957692584417367
440000000.0 0.0005592962796618754 -0.730153404284314
460000000.0 -0.6198696879397523 -0.17575196575037141
480000000.0 -0.2889873527339925 -0.5095068489654987
500000000.0 0.3360792975633778 0.3519650381609515
520000000.0 0.38000227641963585 0.29799601855426366
540000000.0 -0.4576990494193625 0.28263251223024777
560000000.0 -0.549839076314229 -0.08703562433287222
580000000.0 0.4298923217006272 -0.30134465088944185
600000000.0 0.436752006210091 -0.2563559045175439
620000000.0 0.28853341799948123 0.3444884580661057
640000000.0 0.312530827113573 0.2836955118129632
660000000.0 0.3322087273101463 0.26994828663107306
680000000.0 -0.44028736391463474 -0.05157296125115707
700000000.0 0.17110110663003295 0.420485201825265
720000000.0 -0.03633377980122364 -0.4361057349375135
740000000.0 0.3173057893108005 -0.23102616883239063
760000000.0 0.27607596637055076 0.23329006673137895
780000000.0 -0.3612506179021483 -0.07365917103939805
800000000.0 -0.16516654607214418 -0.30917935857127404
820000000.0 -0.23972757843323486 0.18645767587314496
840000000.0 0.18310507030732395 0.20697503048551621
860000000.0 -0.04796131292805562 0.2547244396073327
880000000.0 -0.22994647164277335 0.1012705111750704
900000000.0 -0.10294809036957409 0.19581360015711013
920000000.0 0.08003964281593175 -0.179250899521452
940000000.0 0.1699730973552367 -0.03506219258233025
960000000.0 0.07567567359634268 0.1204789894469866
980000000.0 0.06224875649781383 0.07148140136752815
1000000000.0 0.01159778181217801 -0.05633281526927189
1020000000.0 -0.023550310793839638 -0.03528373411836176
1040000000.0 0.024830836255680847 0.03560327159459168
1060000000.0 0.04710841895894728 -0.00038983683133857953
1080000000.0 -0.03426804381159342 -0.06368293849515111
1100000000.0 0.06177973535378921 -0.05470356435136296
1120000000.0 -0.08595192746210628 0.08138607274413637
1140000000.0 0.15027140727796912 0.047182314325234
1160000000.0 -0.10643595332557823 -0.14835242217524366
1180000000.0 -0.1258959815697007 -0.15755079976223138
1200000000.0 -0.07614471849861865 0.19678055380242315
1220000000.0 0.020245742710429643 -0.21342381878168482
1240000000.0 0.17109123202296075 0.13857244713949635
1260000000.0 -0.20205335389127688 0.14975502724876097
1280000000.0 -0.2631089523035368 -0.02900595266108963
1300000000.0 -0.2450140568610124 -0.14838369266955465
1320000000.0 0.18580768929746352 -0.24883408104257168
1340000000.0 -0.2772402429053646 -0.17081054263586626
1360000000.0 0.3412670495157392 -0.049999907297314954
1380000000.0 -0.32346788386234265 -0.11385205737717843
1400000000.0 -0.05266874752219136 0.34874316654025594
1420000000.0 0.13899554104913756 -0.3335115959763427
1440000000.0 -0.07063400888942059 -0.35040483653498355
1460000000.0 -0.19157340226013836 -0.313346264914368
1480000000.0 -0.34915170326039796 0.12450580174661571
1500000000.0 0.03601750797175769 -0.36775686112743333
1520000000.0 0.24755953495147756 0.25343725616311247
1540000000.0 -0.15644197005226787 0.28747675828468344
1560000000.0 -0.017787293444949056 -0.2889083034548427
1580000000.0 0.248704549436938 0.02572973234197881
1600000000.0 0.05690299960606404 -0.21580948346677487
1620000000.0 -0.1770585578100736 -0.0849954491033795
1640000000.0 0.09479891439153247 -0.12663544343070796
1660000000.0 -0.08026349689773092 0.11193008494349468
1680000000.0 -0.099826717866981 0.06173831096919271
1700000000.0 0.10569169358480049 -0.0044368425104822735
1720000000.0 -0.03797830020157514 -0.05507460687815826
1740000000.0 0.02869074613382539 -0.04265145103543204
1760000000.0 0.028960125682939843 0.0440692569371295
1780000000.0 0.05983532779707807 -0.05135671394867299
1800000000.0 0.09086973114919972 -0.06568102616554267
1820000000.0 0.10837229678606829 0.09081172925209516
1840000000.0 -0.17273376218169342 -0.04158470531193957
1860000000.0 -0.2088821009275333 0.008916795132383483
1880000000.0 -0.2018890473187335 0.1172949439155316
1900000000.0 0.15824538826842602 0.20927636005020156
1920000000.0 -0.00252238505366098 -0.28159179257939104
1940000000.0 -0.24557694587757026 0.16762265132925777
1960000000.0 -0.1818956859199416 -0.2497141053396074
1980000000.0 0.2794462943093922 -0.1397802738926727
2000000000.0 0.15232763401472568 0.2724138590747245
2020000000.0 0.05568836055742477 0.31361355712768574
2040000000.0 -0.036243756749660024 0.3068273136613816
2060000000.0 -0.3033931861395412 -0.03198098825585168
2080000000.0 -0.054772181206446995 -0.3050264946451848
2100000000.0 0.21757329039318107 0.2157902895130705
2120000000.0 -0.30361167259280386 -0.030021746392486847
2140000000.0 0.2032840967674353 -0.21951433586586383
2160000000.0 -0.17872976907011623 0.23039309001899788
2180000000.0 0.12479058423518125 0.254972618364857
2200000000.0 0.2279493019029698 0.16272296018195992
2220000000.0 0.26877590442791327 -0.010039660340472621
2240000000.0 -0.023848764764869912 0.2630262178084489
2260000000.0 -0.1342007334539649 0.21499858373615366
2280000000.0 -0.22232091335726015 -0.09783533720331
2300000000.0 0.2283165552004368 0.0023334659066695266
2320000000.0 -0.20956902355339696 -0.07346302578077211
2340000000.0 0.13244571979754008 0.17002243634051314
2360000000.0 -0.12828647910858415 -0.1777824219405763
2380000000.0 0.20545292531418646 0.09821794531640923
2400000000.0 -0.24103967367449017 0.0033736330476693043
2420000000.0 -0.1109463296231258 0.2431853073770608
2440000000.0 0.2662209227526032 -0.1320152122481536
2460000000.0 -0.32036262885335015 0.08560031324413518
2480000000.0 0.35836135245075373 0.06478026365796526
2500000000.0 -0.19009544259751682 0.35509377112632373
2520000000.0 -0.3658268747484614 -0.2417687365458203
2540000000.0 0.1843989972847241 -0.44068858671373057
2560000000.0 0.2021417022520704 0.4696655288933322
2580000000.0 -0.5114250597946893 -0.1881843693711694
2600000000.0 0.5344592600758047 -0.21109164254521035
2620000000.0 -0.24377495901846305 0.5476288616305655
2640000000.0 -0.10398059388690022 -0.6097802397398009
2660000000.0 0.5874014114784931 0.24312508409383002
2680000000.0 -0.30348475608373665 0.5711654094576271
2700000000.0 -0.64546339896207 -0.1184646978655612
2720000000.0 -0.4090951068385142 -0.5210401972812294
2740000000.0 -0.21168879329277213 -0.6312961602944627
2760000000.0 -0.17455922330257878 -0.6414460643263238
2780000000.0 0.6607779367344476 -0.0004425647767352277
2800000000.0 0.6307703404839743 0.16830424053755488
2820000000.0 0.30252129262722716 0.5640629859409496
2840000000.0 -0.5569181741358914 0.2876512716795585
2860000000.0 0.3283121662827197 -0.518845597777802
2880000000.0 -0.3566647557008996 0.4806869259349063
2900000000.0 0.5725044648272131 0.09387870983654209
2920000000.0 -0.07988726525652237 -0.5578967881145349
2940000000.0 -0.508704464887721 -0.1801984906948599
2960000000.0 -0.4473088630938235 0.26326702341229924
2980000000.0 0.028306098552548634 0.49492237439106873
3000000000.0 0.4625928538000395 0.10929691489057633
3020000000.0 0.006976279601639594 -0.4493648090576754
3040000000.0 -0.2195081695215008 0.36268875992702065
3060000000.0 0.38334752325647004 -0.10885395829882968
3080000000.0 -0.3763986149806815 -0.007623176348199185
3100000000.0 0.3485061558015462 -0.0614761448515756
3120000000.0 0.22003511199467607 -0.2599673071323976
3140000000.0 -0.27431899407014965 0.19160397992153336
3160000000.0 0.15862934580061827 -0.28797863351454706
3180000000.0 -0.1881460925441847 0.2662882976511625
3200000000.0 0.1764352638717557 -0.26725544014507585
3220000000.0 -0.2870309636466635 -0.11635919472410113
3240000000.0 -0.29582763118693195 0.02677677053746687
3260000000.0 -0.2709878199585779 0.07710607342501591
3280000000.0 0.04677497545231163 -0.2616809082260895
3300000000.0 0.23815494044784202 0.08230504980588775
3320000000.0 -0.15513896006125677 0.171761521523827
3340000000.0 -0.12637373299811136 -0.17146937669588846
3360000000.0 0.18145102087267165 0.050866998552132066
3380000000.0 -0.13961375152210562 -0.07821228574166417
3400000000.0 0.002271906352081273 0.13401565213121536
3420000000.0 -0.04693505759832859 0.11011196476804888
3440000000.0 0.04099392495587458 -0.10185297319395761
3460000000.0 0.061962003822309555 -0.07817854623124998
3480000000.0 0.03213140493082597 0.08149318002781891
3500000000.0 0.04369513207207742 -0.06485286853085545
3520000000.0 -0.04572961015730455 0.0473829662699852
3540000000.0 0.04760991578338333 -0.0443509515719043
3560000000.0 0.0548068075515209 0.039196881859850555
3580000000.0 0.0734061200773245 0.015655036973517732
3600000000.0 0.036614927527992586 -0.07508728145929204
3620000000.0 -0.0062389998892693225 -0.09792196541934609
3640000000.0 0.010517763415427156 -0.10543118798414129
3660000000.0 0.00018365709100490163 -0.10855748845554068
3680000000.0 -0.0860181133562558 -0.06283079604982086
3700000000.0 -0.049897604957186495 -0.0830714779354084
3720000000.0 0.02321616823857498 -0.08608218623557871
3740000000.0 0.022903286422907423 -0.07493341366455994
3760000000.0 0.07332702648772885 -0.0002702719881270031
3780000000.0 0.023156699085820173 -0.05896048758906103
3800000000.0 0.03585053116493052 -0.025327371582094523
3820000000.0 -0.03313938442285789 0.023076247253397058
3840000000.0 0.002659424870982105 -0.05021172294821455
3860000000.0 -0.07314091148460229 -0.003038455702676609
3880000000.0 4.1375669136876336e-05 0.08775499149700035
3900000000.0 -0.09280985721703267 0.04907940684818861
3920000000.0 0.0206400139796818 -0.10678885136193345
3940000000.0 -0.04680998778565 0.0969366080259877
3960000000.0 0.07337810740284603 0.0770984312647317
3980000000.0 -0.09976268553246392 0.013220517605622577
4000000000.0 0.08511294647567072 0.016551532421481344
