!Created with skrf (http://scikit-rf.org).
# Hz S RI R 50.0 
!freq ReS11 ImS11
400000000.0 -0.31878081654412765 -0.7552010756344287
420000000.0 0.5045434660636133 0.5834542589194457
440000000.0 0.24712002249879308 -0.6821427443431497
460000000.0 -0.35607259531256463 -0.5529447645809291
480000000.0 -0.556136829662142 -0.19730104868904277
500000000.0 0.3930137264996568 0.29764886165052573
520000000.0 0.1795880170036582 -0.4557371177198438
540000000.0 -0.025631373293873192 0.520878060985098
560000000.0 -0.5472193630129149 0.06427816138518333
580000000.0 0.3024623711782052 -0.42004739248813155
600000000.0 0.40131531933266373 0.30332227971725256
620000000.0 0.296390176224668 0.342087578674501
640000000.0 0.005566983556072567 0.4131313742409008
660000000.0 -0.12198119670799638 0.40726977301564377
680000000.0 -0.13154507373218732 -0.4262580950389785
700000000.0 -0.21591387605765403 0.412556725008008
720000000.0 -0.41102206960636556 -0.18407780267844673
740000000.0 0.08492882107222668 -0.38552701311311527
760000000.0 -0.08239146265596266 -0.3536743486525617
780000000.0 -0.21398742268617935 0.28683039340606903
800000000.0 0.08202390831417815 -0.3320678069529017
820000000.0 -0.24324738711583493 0.17412159878181507
840000000.0 -0.1865241558099796 0.19333778677170002
860000000.0 -0.1329629337797236 -0.22886632211410587
880000000.0 -0.2532473278182921 0.013964481876358023
900000000.0 -0.1583789919506853 -0.1627236983303786
920000000.0 0.1402093644280348 -0.14985842173662586
940000000.0 -0.1116421541846055 0.1350595243760592
960000000.0 0.1061447874367453 -0.09503767064428101
980000000.0 0.02354609377628505 -0.09205471308815577
1000000000.0 -0.04855379206716442 0.02007158689496291
1020000000.0 0.021401663547732954 0.03264592165827005
1040000000.0 -0.03369265719332734 -0.033306902854995796
1060000000.0 -0.023899984148111404 0.04460217715785059
1080000000.0 -0.010616114667640442 0.07181191937381247
1100000000.0 0.08062780072802889 0.011097731711749324
1120000000.0 0.02962801830455422 0.10934469694276057
1140000000.0 -0.03232988908056451 0.15127043223935768
1160000000.0 0.09293348128274434 -0.15625506998840535
1180000000.0 0.04169252583420172 -0.19793330755601035
1200000000.0 -0.17460167895518092 0.1293400259507757
1220000000.0 -0.09010272088442442 -0.193938759535588
1240000000.0 0.22420358848484526 0.005270310998434886
1260000000.0 -0.17051940534173388 0.19308361889837877
1280000000.0 -0.03376686080377275 0.2645883812244552
1300000000.0 -0.24872947817605667 0.12436545056666364
1320000000.0 0.1921178568752236 -0.23664752027793984
1340000000.0 0.08941474753973278 -0.3086257037078495
1360000000.0 0.18766019117050242 0.2917985694624788
1380000000.0 -0.33935576942186463 -0.06234314623291951
1400000000.0 -0.06724923453707857 0.3509976613891302
1420000000.0 0.027118125025443047 -0.36304391088095495
1440000000.0 -0.27728091853795994 -0.23222701179011024
1460000000.0 -0.3651283499979609 0.028065906041472733
1480000000.0 -0.19060240052883345 0.3070731270516588
1500000000.0 0.22422687989318596 -0.2872280251914487
1520000000.0 -0.039809583944765685 0.349403304398087
1540000000.0 -0.3317519378374609 -0.019587147882152767
1560000000.0 -0.1496000729006455 -0.25502151014647684
1580000000.0 0.12483113572426408 -0.21737085553442986
1600000000.0 -0.17221456512617248 -0.13468659802997254
1620000000.0 -0.13051625973700307 -0.14653999763808037
1640000000.0 0.032615023602081454 -0.15388438201034546
1660000000.0 -0.04482726052185628 0.13253414647039968
1680000000.0 0.1113902030893494 0.028068139783822745
1700000000.0 -0.06690551986485081 0.07523493430891853
1720000000.0 -0.030163587922050178 0.06052463892404932
1740000000.0 0.05569658550270782 0.014539909525923362
1760000000.0 0.0041015307904386615 0.054457945457238977
1780000000.0 -0.05156369375186587 -0.05229405185765487
1800000000.0 -0.08908515126872583 0.06012465581660983
1820000000.0 -0.13513447415478375 -0.044658153166664875
1840000000.0 -0.16806953774434363 -0.07315524053894207
1860000000.0 -0.11941306828507173 0.17450487501673734
1880000000.0 -0.09428202281568474 0.21253273270079198
1900000000.0 0.17051110838159314 0.19690870637287128
1920000000.0 0.0025957030546700905 -0.28137482768106753
1940000000.0 -0.2757362920623943 0.10793778705545244
1960000000.0 -0.18704448121145503 -0.24709275307854817
1980000000.0 0.2495501740100236 -0.18690702016000343
2000000000.0 0.10913783148738525 0.2909729028123232
2020000000.0 -0.09768338584425366 0.3047815081486986
2040000000.0 -0.0031470553141354795 0.3120241221973485
2060000000.0 -0.2956783625445177 0.0818909896380293
2080000000.0 -0.170311038301008 -0.25822180952803064
2100000000.0 0.2496674021179351 0.17484892392407458
2120000000.0 -0.290638369303625 -0.09055448828327443
2140000000.0 0.11335631839201914 -0.2766273174012505
2160000000.0 -0.22573023789918217 0.1814661085436215
2180000000.0 -0.01518328679704645 0.28298819251122836
2200000000.0 0.15518106987558578 0.23564170496666484
2220000000.0 0.26961963143069706 -0.035031818839309344
2240000000.0 0.19793374275854111 0.17631297207801833
2260000000.0 -0.034461944534405826 0.24907400588330164
2280000000.0 -0.19518472097063305 -0.1415966608114695
2300000000.0 0.18328390717303156 0.13644228453611745
2320000000.0 -0.20647609508975265 -0.08600997907129773
2340000000.0 0.1475369037559667 0.15702511856029247
2360000000.0 -0.14199053760175817 -0.16764279693288853
2380000000.0 0.1877806842232023 0.12620746929683252
2400000000.0 -0.24182514951371317 -0.0016995926285760575
2420000000.0 -0.1299088661556422 0.2345931011796283
2440000000.0 0.25914910092668203 -0.14395998358998438
2460000000.0 -0.31436008532622683 0.10576993774077133
2480000000.0 0.36066533912123466 0.04492903909491189
2500000000.0 -0.09494331657925471 0.3920786975421637
2520000000.0 -0.4046675893130294 -0.1706130786158952
2540000000.0 0.2091821314425198 -0.4304042654156955
2560000000.0 0.25375340688816117 0.44405247990629404
2580000000.0 -0.4982341284391672 -0.21950747090966313
2600000000.0 0.542825935426395 -0.18864530927583312
2620000000.0 -0.3246787993058998 0.5037354656391551
2640000000.0 -0.09572134919471338 -0.6111550266483426
2660000000.0 0.5786034006600345 0.26368360163987953
2680000000.0 -0.2818537196757206 0.5821234550445475
2700000000.0 -0.6465177563188458 -0.11275684130578927
2720000000.0 -0.42951511111844115 -0.5041991885657472
2740000000.0 -0.360312559646711 -0.5600890397251248
2760000000.0 -0.2030098044143396 -0.6335119467844458
2780000000.0 0.6600367905072421 -0.027919906826583258
2800000000.0 0.6260558734942947 0.1843854869834312
2820000000.0 0.27901350423792726 0.5757619358333234
2840000000.0 -0.5690116462223459 0.2620276351998981
2860000000.0 0.3774596815655347 -0.4845058015443639
2880000000.0 -0.4242680207244951 0.4232302209578513
2900000000.0 0.5790638782000956 0.04951686196022641
2920000000.0 -0.15489428695379814 -0.5419592966525482
2940000000.0 -0.5346245514164182 -0.07244737647482573
2960000000.0 -0.43217454323268756 0.28417795853938627
2980000000.0 -0.014218984049491066 0.49386753286001
3000000000.0 0.43606259588192964 0.18837674894012071
3020000000.0 0.08188140454607427 -0.4435697267026061
3040000000.0 -0.2688303982832071 0.3306630806844891
3060000000.0 0.38898141241482725 -0.09180386401878084
3080000000.0 -0.3744631739266426 0.044268812287205785
3100000000.0 0.3315451587358018 -0.12317649949797992
3120000000.0 0.19619354597268046 -0.27704398772377065
3140000000.0 -0.2695204667430512 0.19808327889936064
3160000000.0 0.167358241285158 -0.2815662489335889
3180000000.0 -0.24214157812656725 0.21765188272328626
3200000000.0 0.1742280391037018 -0.2694094893764628
3220000000.0 -0.29633921332348223 -0.09209155283140814
3240000000.0 -0.28929704720289184 0.0694864640080696
3260000000.0 -0.27726166468981095 0.043846941749120585
3280000000.0 0.0825778739937394 -0.2530693752363786
3300000000.0 0.24207691123094058 0.0733813566116683
3320000000.0 -0.12768958492100052 0.19369207815705872
3340000000.0 -0.1741465044699492 -0.12331440427991434
3360000000.0 0.18698417783194346 -0.003215786612206384
3380000000.0 -0.11541626041953089 -0.1088682164306281
3400000000.0 -0.0763173619987372 0.1103905445020762
3420000000.0 -0.07872008336083801 0.09189836816398858
3440000000.0 0.005602666921008232 -0.11085821810490934
3460000000.0 0.01609238070003309 -0.09863351842578334
3480000000.0 0.062134712853979056 0.05929161353300537
3500000000.0 0.06956027964677265 -0.034597743463145876
3520000000.0 -0.048578456320990136 0.04561032162720609
3540000000.0 0.053115655448095885 -0.0376614605127994
3560000000.0 0.06258985607928877 0.02334040097815226
3580000000.0 0.07166438533689233 -0.024131234142970838
3600000000.0 0.0356943215736944 -0.07632930675853633
3620000000.0 0.020081002004602718 -0.0950637150253153
3640000000.0 0.060280311400051495 -0.08743900296629811
3660000000.0 0.0600949376131783 -0.09160729118883476
3680000000.0 -0.10756492304425155 0.001444475131589465
3700000000.0 -0.0914937676818443 0.02851492990256752
3720000000.0 0.07332074020022229 -0.05024526993015522
3740000000.0 0.046174122968440943 -0.0637744818927714
3760000000.0 0.06964187148618621 0.019328312047015284
3780000000.0 0.0545262260521348 -0.032036080647860884
3800000000.0 0.03289724768633781 -0.029867946495777252
3820000000.0 -0.006491019024823161 0.039330003111133834
3840000000.0 0.022795234194499622 -0.04457009827907446
3860000000.0 -0.06235943545983667 0.03753186754185445
3880000000.0 0.02385818802208049 0.08431108440458765
3900000000.0 -0.10372256498967838 -0.011296076608969228
3920000000.0 0.019857500404360455 -0.10678363570670768
3940000000.0 -0.0880391009599173 0.06462889379805847
3960000000.0 0.10492485537298743 0.014288650340119858
3980000000.0 -0.10063245363227016 -0.00736219014351319
4000000000.0 0.06288623025079125 0.0580349668186196
