!Created with skrf (http://scikit-rf.org).
# Hz S RI R 50.0 
!freq ReS11 ImS11
400000000.0 -0.3990053381114105 -0.720196114042697
420000000.0 0.4706877889914755 0.6108788623840244
440000000.0 0.0840047604142713 -0.7269810302484827
460000000.0 -0.6031613308791374 -0.22445298673580064
480000000.0 -0.5371040922306174 -0.2314343489228337
500000000.0 -0.09165752060246343 0.47707671289565634
520000000.0 0.4858856680295735 0.008168199240981382
540000000.0 -0.4480886932806185 0.2899666037886061
560000000.0 -0.550282945565874 -0.06174395148948488
580000000.0 0.42508404569185604 -0.31326027907057347
600000000.0 0.49129283601197304 0.08709065367299788
620000000.0 -0.0731054633490374 0.45069365165710457
640000000.0 0.42658731203073963 -0.004573425522160651
660000000.0 0.40195073766845935 0.11731054452107507
680000000.0 -0.37112278483849237 -0.2433349975729095
700000000.0 0.07362868131023179 0.45178721024070606
720000000.0 -0.3187429192623948 -0.3012687816812616
740000000.0 0.3864384997900876 -0.0032714258387312187
760000000.0 0.34479359786731334 0.12173148910070741
780000000.0 -0.35481600698815036 0.0891045507293069
800000000.0 0.03822399031612828 -0.3489566875034988
820000000.0 -0.2773716125899607 -0.13109549231176318
840000000.0 0.25670417155057046 0.10306741858779819
860000000.0 0.01640359903031823 0.2576431947410106
880000000.0 -0.17191043337248949 0.18832915762155025
900000000.0 0.10211920714791713 0.19021694313485132
920000000.0 0.18490127239264606 -0.04244425265902944
940000000.0 -0.12074023134885277 0.13003872131929103
960000000.0 0.1412789922554394 -0.054670527983540405
980000000.0 -0.02990247921848045 0.09033809958210406
1000000000.0 -0.0467562744274629 0.03114173413915042
1020000000.0 -0.03769294879468054 -0.007864021014834043
1040000000.0 0.04291014665331394 -0.020314326477931043
1060000000.0 0.035519096643238456 0.03435703904876813
1080000000.0 -0.03897964844159247 -0.055062790538054296
1100000000.0 0.02322748562012164 -0.07610542084140728
1120000000.0 0.08817158330071424 -0.08228790344952717
1140000000.0 0.1438582762182344 0.08179258356379322
1160000000.0 -0.13274454383371462 0.1287892291353816
1180000000.0 -0.09809484149341297 -0.17232560338381
1200000000.0 -0.05951055675900836 0.20660848258182082
1220000000.0 0.05828248049048328 -0.20310572270574703
1240000000.0 -0.051420692800314784 0.21565753120979708
1260000000.0 -0.234806630930654 0.10847834928258472
1280000000.0 -0.0005083069225324605 0.2703990605821537
1300000000.0 -0.21592514847113353 -0.1819255916139943
1320000000.0 0.2490601502542285 -0.18762320641011412
1340000000.0 -0.26127489889302735 -0.19131561580095166
1360000000.0 0.3118435736098522 0.15470147467425202
1380000000.0 -0.31345782972872765 0.145031281577752
1400000000.0 0.18739882741921443 0.2987844671919361
1420000000.0 0.2218158291393185 -0.282941942534196
1440000000.0 -0.10156545527330516 -0.34594287398938683
1460000000.0 -0.256034578871212 -0.26378985138824596
1480000000.0 -0.17388666993157434 0.3259239467989433
1500000000.0 -0.1920764499083472 -0.3149797388444235
1520000000.0 0.1700433616448275 0.30954709921408136
1540000000.0 -0.21995424106828584 0.24427424519553792
1560000000.0 -0.1306809900685655 -0.25896407732828347
1580000000.0 0.18968887501713133 -0.16149164125774076
1600000000.0 -0.007637144461204656 -0.2171469481726278
1620000000.0 0.015222701843301526 -0.19507185571654043
1640000000.0 0.13867452671771813 -0.0809312523373909
1660000000.0 0.06231300183554732 0.12625879585366698
1680000000.0 0.10674759213657188 0.045775336284293935
1700000000.0 0.09736120589262276 -0.027165632112784704
1720000000.0 -0.04743649866091271 0.04472647441645476
1740000000.0 0.020161457806989927 -0.052910297286974474
1760000000.0 -0.05183356668016802 0.0009445398543759546
1780000000.0 0.07665970617608224 -0.015217889122754272
1800000000.0 0.0963425435934967 0.05715574184286702
1820000000.0 0.0030508252425291097 0.14238295579183172
1840000000.0 -0.17415970084570334 0.05658324525927971
1860000000.0 -0.023507065762457178 0.2062581698043203
1880000000.0 -0.2305963125492345 -0.005787931356704823
1900000000.0 -0.02030581646379833 0.2621356176007816
1920000000.0 -0.05036503433763495 -0.28041977853389416
1940000000.0 -0.22422514549898734 0.19528203158424012
1960000000.0 -0.23718978836591595 -0.19933448659722341
1980000000.0 0.1959151275314442 -0.24157896383774088
2000000000.0 0.18236513393973156 0.2514509405374046
2020000000.0 -0.03428063037911331 0.315139185149424
2040000000.0 -0.07530147121379491 0.30254332882124946
2060000000.0 -0.28955394927214984 0.09800495073168405
2080000000.0 -0.08425723092655896 -0.29707018935161655
2100000000.0 0.2555766999788874 0.17051935220316722
2120000000.0 -0.29880792383775556 -0.06213039156456445
2140000000.0 0.18704519604113562 -0.233090678450578
2160000000.0 -0.17336477684338172 0.23722795188090964
2180000000.0 0.16862768379510015 0.22804548277827966
2200000000.0 0.19079857685397011 0.20427651470516092
2220000000.0 0.2661594001118292 0.04338141300068586
2240000000.0 0.04462203274380883 0.2614766536851535
2260000000.0 -0.06969874424277536 0.2428021377382787
2280000000.0 -0.21688552623968482 -0.10773301758064682
2300000000.0 0.2015685886673794 0.10687734500951872
2320000000.0 -0.21326004564315043 -0.0669498549023662
2340000000.0 0.16695792063195972 0.1368921608513541
2360000000.0 -0.20805744782336125 -0.06787849623702823
2380000000.0 0.17935808389040625 0.13681197566400013
2400000000.0 -0.22989249826367567 -0.07593449065350555
2420000000.0 -0.05016386871582752 0.26320367630063424
2440000000.0 0.24289630301346038 -0.1695990377007747
2460000000.0 -0.3185298065436582 0.09282535469987706
2480000000.0 0.3547969827875738 0.08401800008992061
2500000000.0 -0.13352232038377115 0.3804381139060476
2520000000.0 -0.3555009226098619 -0.25444014749623994
2540000000.0 0.23641009811917088 -0.41601464560414947
2560000000.0 0.2142623304427082 0.464974864709209
2580000000.0 -0.506142934694846 -0.20048872177804414
2600000000.0 0.5416298055148435 -0.19074675474167652
2620000000.0 -0.28852170237156244 0.5253074071644543
2640000000.0 -0.07508545239117649 -0.6135336290549012
2660000000.0 0.5654987874840164 0.289403675815858
2680000000.0 -0.32516756417612525 0.5591400692423237
2700000000.0 -0.6401765691107577 -0.14644803131589762
2720000000.0 -0.3536086218121082 -0.5606525459134268
2740000000.0 -0.22939387646402926 -0.6252187751194704
2760000000.0 -0.16536616190484657 -0.6446614625852498
2780000000.0 0.6611102303369342 0.005425013139493683
2800000000.0 0.6219996617083652 0.1989370825024488
2820000000.0 0.24157678775490618 0.5928655454739575
2840000000.0 -0.5849435575008277 0.22666030455927105
2860000000.0 0.3381340355007581 -0.513029470066819
2880000000.0 -0.38872849590011566 0.4548626466470885
2900000000.0 0.5590671848843155 0.15885452721240806
2920000000.0 -0.13287475117024292 -0.5484604615159203
2940000000.0 -0.5198346260088929 -0.14271299575646063
2960000000.0 -0.4900757877343719 0.17102432563234649
2980000000.0 0.04774995942691936 0.49439984583445445
3000000000.0 0.47383803660471485 0.0315972225915233
3020000000.0 0.0457151398096025 -0.44817584268781896
3040000000.0 -0.20839336790029434 0.3717273569311082
3060000000.0 0.36449140706917693 -0.1599581423441079
3080000000.0 -0.3671240353590205 -0.08005201148148001
3100000000.0 0.353345261481675 0.03497477329729483
3120000000.0 0.19790965392587814 -0.277742738826905
3140000000.0 -0.3044622423541261 0.1403983037370202
3160000000.0 0.14847257967946215 -0.29404395056587807
3180000000.0 -0.1236943625279568 0.3013469951517829
3200000000.0 0.23058938663356077 -0.22123258654685868
3220000000.0 -0.2818071018059857 -0.13107006861075549
3240000000.0 -0.2905268682904755 0.06092254008219505
3260000000.0 -0.2752039951735739 0.05947923998394091
3280000000.0 0.02972386011029504 -0.2647562102916876
3300000000.0 0.24815147296839213 0.0473549430251537
3320000000.0 -0.1428509912668451 0.1823222914868807
3340000000.0 -0.14067768573589803 -0.1615566531594998
3360000000.0 0.1877889124057166 -0.021749373147509743
3380000000.0 -0.14283789107405825 -0.07103971533708286
3400000000.0 -0.009251785976746585 0.13508969776513807
3420000000.0 -0.07540246021533256 0.09405856688562118
3440000000.0 0.03485620779461444 -0.10395015916875681
3460000000.0 0.052816825259855156 -0.08412163223685785
3480000000.0 -0.012896277287098802 0.08604085121050005
3500000000.0 0.0749524467252578 -0.018792121240642577
3520000000.0 -0.04588660834418075 0.04794080572039941
3540000000.0 0.048676068210301605 -0.04200648733041303
3560000000.0 0.06316189986537672 -0.020930752434189907
3580000000.0 0.053819491582194685 0.04990249932736586
3600000000.0 0.055195454771471704 -0.06531316328539104
3620000000.0 -0.07057478851327928 -0.06998002611548985
3640000000.0 -0.048685722178987374 -0.09239867658938745
3660000000.0 0.09931189698293404 -0.043407388778518186
3680000000.0 -0.08869192886724922 -0.06181136934930165
3700000000.0 -0.09535951047882692 -0.020742174395258797
3720000000.0 0.03434856370660081 -0.0818526408320153
3740000000.0 0.07840946568392167 -0.011524217242995535
3760000000.0 0.06981961972996173 -0.025575709187041207
3780000000.0 -0.025909580044267577 -0.05755701624089797
3800000000.0 0.02794840323692794 0.03341570452964295
3820000000.0 0.0033598086039049032 0.04134408681017972
3840000000.0 -0.024390712568262165 -0.043157922696468225
3860000000.0 -0.05713626168364116 -0.04652595885016719
3880000000.0 0.05695751854018099 0.06885090171292169
3900000000.0 -0.08865053708816133 0.05646665217381211
3920000000.0 0.0653831618434236 -0.08687893385824799
3940000000.0 -0.052571955569616996 0.09608329101523914
3960000000.0 0.10425492440435317 0.021932240283185613
3980000000.0 -0.0826197070397283 -0.05770470276452536
4000000000.0 0.05615587476111046 0.06792248004521388
