!Created with skrf (http://scikit-rf.org).
# Hz S RI R 50.0 
!freq ReS11 ImS11
400000000.0 -0.45052836381286776 -0.6872770684617912
420000000.0 0.4206193239590436 0.6506080341397346
440000000.0 -0.03300909948491598 -0.7309323578787456
460000000.0 -0.6283000737341132 -0.13576160138085094
480000000.0 -0.3072024592643106 -0.4984088416305513
500000000.0 0.21568817988711983 0.4362835262385809
520000000.0 0.3764792586826835 0.3074580699730949
540000000.0 -0.2995667415227949 0.43634349368515324
560000000.0 -0.5536201539005952 -0.0653566661679842
580000000.0 0.45879410889061367 -0.26383744250080343
600000000.0 0.3663421204517602 -0.34680542193827074
620000000.0 0.27585010631850393 0.35544774443575483
640000000.0 0.2653566853726099 0.32395211187200135
660000000.0 0.08085202391171487 0.41128982545856757
680000000.0 -0.41469673271433133 -0.17870327816034265
700000000.0 0.3147053332109175 0.33232828386472074
720000000.0 -0.3590608728457682 -0.24636514219641534
740000000.0 0.33034522102855657 -0.2026252822769859
760000000.0 0.19579457396481095 0.2999046746478131
780000000.0 -0.3031777942676237 -0.21421468948563663
800000000.0 -0.011334008078224506 -0.3496055713140769
820000000.0 -0.2722844909961842 0.14570494290676722
840000000.0 0.25864784262849455 -0.09554777012807032
860000000.0 -0.07089856115942368 0.2459502271729536
880000000.0 -0.1255484195494261 0.22022366221962628
900000000.0 -0.20539177047709056 0.0684664288732993
920000000.0 0.17285179199413142 0.0942676691524691
940000000.0 0.14506791952691353 -0.10180115957597355
960000000.0 0.14214784947166792 -0.024265151005806094
980000000.0 0.08904339660901213 0.02758584605007934
1000000000.0 0.01910744676570169 -0.05389946439259139
1020000000.0 -0.02570631091063132 -0.028586263327432526
1040000000.0 -0.028763664532298058 -0.0331780024511593
1060000000.0 -0.021475987722766078 0.04916817169679565
1080000000.0 -0.03632930702510907 0.05795921089330401
1100000000.0 0.07270015756732601 -0.01411607035283645
1120000000.0 -0.0635290068111974 -0.10269817464613545
1140000000.0 -0.0122948341056939 0.16384757710693745
1160000000.0 -0.18539923745555256 -0.02894602256829505
1180000000.0 -0.11427920591211133 0.16483448651909052
1200000000.0 -0.02358351513220347 0.2051649216767473
1220000000.0 0.20351857132608825 -0.047038905095714435
1240000000.0 -0.11019943630287465 0.19878373064410296
1260000000.0 -0.11508278543057822 0.2319956820425147
1280000000.0 0.045001216936825725 0.26437713956595704
1300000000.0 -0.2439382425940488 -0.1337871956691919
1320000000.0 0.30097903582780283 -0.058575300294853305
1340000000.0 -0.007895090231604703 -0.327609460036043
1360000000.0 0.331895286616654 -0.11725945296589549
1380000000.0 -0.0876549736136385 0.33194850732187137
1400000000.0 0.09278485793375041 0.33543878825515566
1420000000.0 0.3470622174568204 -0.09880367834406183
1440000000.0 -0.08686744787844729 -0.35220576471130355
1460000000.0 -0.35856132911524496 -0.09397009488722499
1480000000.0 -0.09482397487365254 0.3539319699505612
1500000000.0 0.09378327911854352 -0.35615186686623396
1520000000.0 0.16140581925469805 0.31429494909523903
1540000000.0 -0.15656857455152537 0.29253837253537424
1560000000.0 -0.22170813748607449 -0.1851554241072941
1580000000.0 0.239847465769852 -0.05935470715243301
1600000000.0 0.03548149986161528 -0.21711228770071128
1620000000.0 -0.036032530373757934 -0.1930703811475163
1640000000.0 0.10169322307379498 -0.12449248859630802
1660000000.0 0.015481406627461643 0.13884809687531882
1680000000.0 0.05441959850597915 0.10215740294453676
1700000000.0 0.09356440827745746 0.04303955104701547
1720000000.0 0.05355969185633727 -0.03951262935671769
1740000000.0 0.05340087328431429 0.0001806311195949595
1760000000.0 -0.012353054679853993 -0.052242903573203554
1780000000.0 0.06124117158266313 -0.0470386629035233
1800000000.0 0.022443748405293083 0.10912746729742291
1820000000.0 0.06943036282568281 0.12506590492280925
1840000000.0 -0.13768767990654013 0.11850721989442507
1860000000.0 -0.17033395028296888 0.11734508758240843
1880000000.0 -0.21619547571343953 0.08379427804636515
1900000000.0 0.07747382074660296 0.2509435208728463
1920000000.0 0.06834730789094993 -0.27604511250330876
1940000000.0 -0.24919698399904747 0.16479393803110975
1960000000.0 -0.276545516834479 -0.1398347149957022
1980000000.0 0.20801666343032607 -0.23156154928710532
2000000000.0 0.1554642230210645 0.267980990575873
2020000000.0 -0.07764455963508278 0.3085625676866816
2040000000.0 -0.09598348463208799 0.2960127865254121
2060000000.0 -0.30588435334226455 0.010539993364972064
2080000000.0 -0.10088756797322541 -0.2921543762571151
2100000000.0 0.24353454034601285 0.1847793919705308
2120000000.0 -0.275691077640584 -0.12878285462182448
2140000000.0 0.15237398306988353 -0.2583341826640811
2160000000.0 -0.20207487786708386 0.21110208952856233
2180000000.0 0.10366135135668762 0.2649302747677641
2200000000.0 0.24607615823155685 0.1331437590528891
2220000000.0 0.26893961481841233 -0.016938999029467463
2240000000.0 0.04816573651599821 0.2584972896736496
2260000000.0 -0.1952135664067145 0.1621114386028201
2280000000.0 -0.2223222061570736 -0.09963541833033375
2300000000.0 0.2282308605372415 0.020727759329373638
2320000000.0 -0.20417011906635893 -0.0836841755979697
2340000000.0 0.13257220859142177 0.17199283097948007
2360000000.0 -0.1830393978552559 -0.12054955199004022
2380000000.0 0.16793559277803127 0.15123299476577778
2400000000.0 -0.2328555420743833 -0.06436361230669037
2420000000.0 -0.0647094764316209 0.2605254577278404
2440000000.0 0.2631895276927327 -0.1353580129794466
2460000000.0 -0.3243231926013682 0.06653093458781377
2480000000.0 0.35158505441640675 0.0936189946729033
2500000000.0 -0.13342457616826345 0.38163087970603965
2520000000.0 -0.39871985457424314 -0.1814159546580345
2540000000.0 0.2198537233110517 -0.42381549079935293
2560000000.0 0.19557148707318087 0.4724464644567556
2580000000.0 -0.4996375180091688 -0.21806573084406275
2600000000.0 0.5289004776836319 -0.22526288060691066
2620000000.0 -0.2830436699640041 0.5281975830800143
2640000000.0 -0.08512790264835433 -0.6118189858390102
2660000000.0 0.5666874184790734 0.28749219933687775
2680000000.0 -0.35108584237306767 0.5433418238755948
2700000000.0 -0.6441570529619696 -0.12599615026797736
2720000000.0 -0.4039774377178891 -0.5252619102501955
2740000000.0 -0.26738496619571933 -0.6101842065160696
2760000000.0 -0.17217722600637092 -0.6423702048151437
2780000000.0 0.6596485221518199 0.0341895140980237
2800000000.0 0.6245152898267684 0.1908464443917702
2820000000.0 0.28285660315486894 0.5744126257525627
2840000000.0 -0.5666054120724761 0.2679938601359769
2860000000.0 0.30459506517025187 -0.5340076428317713
2880000000.0 -0.3761448247149475 0.4659708829613535
2900000000.0 0.5751591440234564 0.08210609827134359
2920000000.0 -0.09623699676136462 -0.555095230806192
2940000000.0 -0.516744286951661 -0.1547952926584491
2960000000.0 -0.4674020852998617 0.2266618710430937
2980000000.0 0.05696650387934133 0.4922688148772132
3000000000.0 0.46704022634823505 0.08932583647177401
3020000000.0 0.012911560921135067 -0.4502864264719515
3040000000.0 -0.32403826866131225 0.275305019431379
3060000000.0 0.3921069367549567 -0.06980939257802511
3080000000.0 -0.3766186578505052 -0.013813807263712626
3100000000.0 0.3503614240841606 -0.04982737192763635
3120000000.0 0.24190977059925098 -0.2407554631554117
3140000000.0 -0.2507641901026701 0.22225291481908332
3160000000.0 0.13686455596345037 -0.2987791054517634
3180000000.0 -0.16824721402559664 0.2792262734502402
3200000000.0 0.1743872583013093 -0.2687179882804417
3220000000.0 -0.29112233945883415 -0.10633614423713811
3240000000.0 -0.2911943762564482 0.05929752346671786
3260000000.0 -0.2760858449846349 0.05557292268103295
3280000000.0 0.058844900817579045 -0.25936305924158426
3300000000.0 0.24525840951433456 0.061121074827891385
3320000000.0 -0.0995673460690844 0.20981515299089454
3340000000.0 -0.1322235408216138 -0.167598047582746
3360000000.0 0.18718462560788893 0.01804051700539603
3380000000.0 -0.13365789208666198 -0.08772343989058635
3400000000.0 0.0258243241659402 0.13233689536394933
3420000000.0 -0.03812068819978546 0.11379506122835124
3440000000.0 0.05448515945407038 -0.0949523495314819
3460000000.0 0.061721426345083534 -0.07831287466893998
3480000000.0 0.01424907581391063 0.0861627611746841
3500000000.0 0.02330624485489317 -0.07348428062116752
3520000000.0 -0.06308932308924707 0.021154519712850692
3540000000.0 0.05175470342876371 -0.03834348283983259
3560000000.0 0.06326628213357986 0.02199732715873943
3580000000.0 0.07036250392543947 -0.027343238004269396
3600000000.0 0.07364971142827426 -0.040835967084835584
3620000000.0 -0.04946611651953234 -0.08459102641167086
3640000000.0 0.019708456402826032 -0.10387130443845875
3660000000.0 0.07657445654361116 -0.07667699806826007
3680000000.0 -0.10697049165334321 -0.011363315163975632
3700000000.0 -0.09621075190758956 -0.01117134650437719
3720000000.0 0.08693284825240999 -0.021280410525554887
3740000000.0 0.025657018548087506 -0.07402544627973387
3760000000.0 0.061033170169883584 -0.041049157798439616
3780000000.0 0.022286478772415557 -0.058859255049869635
3800000000.0 0.03404941810928035 0.02650921770422391
3820000000.0 -0.01799979534675297 0.03660537765196179
3840000000.0 -0.030371633111180792 -0.039077140347924
3860000000.0 -0.0730760375122599 -0.012733210207623982
3880000000.0 0.03867065180876381 0.07884150207241532
3900000000.0 -0.0975509848664624 0.037779591313745496
3920000000.0 0.0540414065453993 -0.09479185280230766
3940000000.0 -0.032933163176594504 0.10393802212581801
3960000000.0 0.09587285466908137 0.04403302790062573
3980000000.0 -0.0581315160175519 -0.08187295105782433
4000000000.0 0.020692355300136852 0.08405084249720328
