!Created with skrf (http://scikit-rf.org).
# Hz S RI R 50.0 
!freq ReS11 ImS11
400000000.0 -0.33512226290478003 -0.7472246429896147
420000000.0 0.4713480200052772 0.6132207640425956
440000000.0 0.1170202025425437 -0.7191919616150924
460000000.0 -0.5647643542391565 -0.3284530529149737
480000000.0 -0.4716714507116919 -0.34649777952574495
500000000.0 0.23693669066553252 0.4329526712343192
520000000.0 0.34790594872310254 -0.3403927260513261
540000000.0 -0.4100190912829545 0.3285834624600475
560000000.0 -0.5419041009993375 0.1329467642127536
580000000.0 0.4247441526347581 -0.2945786486636591
600000000.0 0.44728590178211675 0.236331767072764
620000000.0 0.39888420185092177 0.21593151827322582
640000000.0 0.15236489544238804 0.38837632979129433
660000000.0 0.1039718435359253 0.40806857350315856
680000000.0 -0.21630916903584502 -0.3903695672467681
700000000.0 0.19993017726667267 0.41619470648202866
720000000.0 -0.38316512605266145 -0.2135697225376025
740000000.0 0.3924536704636445 -0.010774674334580158
760000000.0 0.24264778872430393 -0.27096542265349394
780000000.0 -0.3635602921956554 -0.006692842641285995
800000000.0 0.03036137410530359 -0.3437493773604863
820000000.0 -0.30649868321515195 0.010607206240863478
840000000.0 -0.038032480885293485 0.27581015354908833
860000000.0 0.18465310526806997 0.19061022701451666
880000000.0 0.15796720914205054 0.18844572163983897
900000000.0 -0.18980950358674922 0.0987722667408142
920000000.0 -0.09813796949322891 0.16262896760622605
940000000.0 -0.07691894964648759 0.16570959972864466
960000000.0 0.1481556581523813 0.0294951124402609
980000000.0 -0.049212095540417576 -0.08731014193428413
1000000000.0 -0.047312274041564774 0.027980311826460498
1020000000.0 -0.03664161956050159 0.00363790601133313
1040000000.0 -0.04185968526531453 0.02197574424322222
1060000000.0 0.004666955979006441 -0.05436043712295553
1080000000.0 0.06546750210467668 0.0013915548606834533
1100000000.0 0.05618007092742632 0.05305488104888606
1120000000.0 -0.08412943560006153 -0.08976268860108341
1140000000.0 0.16266948246069968 0.003968815778269918
1160000000.0 -0.030187884582996767 0.1785558603282291
1180000000.0 -0.19063491768547336 -0.047121295960535416
1200000000.0 -0.18478684811771257 0.09872216014083054
1220000000.0 0.1319990188215209 -0.16509672088691202
1240000000.0 0.08606522159597486 0.2068613948623816
1260000000.0 -0.24846697115635333 0.05939602235149748
1280000000.0 -0.23976826891019715 0.12370351449880874
1300000000.0 -0.24799939855295466 0.1358846950071622
1320000000.0 0.07210366041181691 -0.30013563767215123
1340000000.0 -0.21904748999143484 -0.23799242678675475
1360000000.0 0.3268213633151666 0.10556716847021272
1380000000.0 -0.3387822807907445 -0.05366133468430454
1400000000.0 -0.02172758480077832 0.35264610209574176
1420000000.0 0.18849177133838438 -0.3096278355363694
1440000000.0 -0.2114707663254021 -0.2874325377098784
1460000000.0 -0.232787339310981 -0.28416206862836096
1480000000.0 -0.33001839910854214 0.1615576372202709
1500000000.0 0.11799885460181675 -0.34937476598092665
1520000000.0 0.2381736828934088 0.26286185328412076
1540000000.0 -0.21276986893093633 0.25535809010596433
1560000000.0 -0.19033656019728412 -0.21758787971481133
1580000000.0 0.2354256301968093 -0.07435206509042422
1600000000.0 -0.014899742832649512 -0.21774870903088775
1620000000.0 0.12002509970339648 -0.15609455433900804
1640000000.0 0.13196244129254728 -0.09514265284095716
1660000000.0 0.05765538993379056 0.12922011506395253
1680000000.0 0.11473234064580175 0.010240595810326682
1700000000.0 0.025453370635825666 0.09759662274983824
1720000000.0 -0.042010374633489216 0.05340172454389774
1740000000.0 -0.04696896630304951 -0.02813460850836785
1760000000.0 -0.003712343656704541 -0.049374481821978934
1780000000.0 0.06236950661287351 0.04579602865429587
1800000000.0 0.06143813930246252 0.09482906861835141
1820000000.0 0.13097061046892602 -0.06087454312228634
1840000000.0 -0.1250270398976153 0.12569157722106217
1860000000.0 -0.19894903571108627 0.05048347537472417
1880000000.0 -0.2308409783939009 -0.026511094903247018
1900000000.0 0.03869784133453791 0.26163327234326106
1920000000.0 -0.04195238132823659 -0.2805503983861365
1940000000.0 -0.20740366202255683 0.21359329366107713
1960000000.0 -0.29089497006232906 -0.10521361534731298
1980000000.0 0.2753341968942086 -0.14113595345138982
2000000000.0 0.12324515760387865 0.2867253829881225
2020000000.0 -0.14034079499841384 0.2847827874449923
2040000000.0 -0.09263061755924448 0.2979810064031225
2060000000.0 -0.2989252352716601 0.06563250502509466
2080000000.0 -0.09850326555014251 -0.2922642885738415
2100000000.0 0.22069737990899518 0.2109608845205459
2120000000.0 -0.267604169519469 -0.14790698072708708
2140000000.0 0.11033860030594496 -0.2799599884382413
2160000000.0 -0.09929269912255362 0.2751737281180032
2180000000.0 0.17308416904615148 0.22266092643136962
2200000000.0 0.198305220938055 0.19649266087110523
2220000000.0 0.2672410624177707 0.043226822121133913
2240000000.0 0.05662487391016576 0.25809314278533285
2260000000.0 -0.1290921484507687 0.21877454104930374
2280000000.0 -0.23213466119485235 -0.0649948475235815
2300000000.0 0.14209666651619954 0.1795199277615875
2320000000.0 -0.21074120332093235 -0.07658555944615517
2340000000.0 0.19997447202902405 0.08346951801649574
2360000000.0 -0.19094575415058188 -0.10403913557027271
2380000000.0 0.151509411242693 0.1668510697957933
2400000000.0 -0.22217919588302204 -0.09444583253065031
2420000000.0 -0.13232412173701208 0.23408586136056272
2440000000.0 0.27987554628156464 -0.10079090496245521
2460000000.0 -0.32000151014922257 0.08850662338994288
2480000000.0 0.3638450716230094 0.011822000740785913
2500000000.0 -0.15175082995158173 0.37311647261091746
2520000000.0 -0.39681627768818845 -0.1887163371590991
2540000000.0 0.15342640007653424 -0.45331781337707316
2560000000.0 0.23574570227357858 0.453923342694818
2580000000.0 -0.5136067632464031 -0.17890225095207607
2600000000.0 0.5302995525362854 -0.21827006893850193
2620000000.0 -0.31947149837494926 0.5071477315065341
2640000000.0 -0.05264134505859324 -0.6162783752423608
2660000000.0 0.5674112261185129 0.28768222121993947
2680000000.0 -0.3658728928739668 0.5340305983138242
2700000000.0 -0.6448898404422968 -0.12530763547808457
2720000000.0 -0.41723907315618725 -0.5147366234313548
2740000000.0 -0.2335642973330985 -0.6237026336412316
2760000000.0 -0.23734324020699582 -0.6216547532271743
2780000000.0 0.6607568563500826 -0.004762417808625634
2800000000.0 0.6313792419039732 0.16535193208706922
2820000000.0 0.32353346085487683 0.5518815423307087
2840000000.0 -0.547226573577174 0.3039342380838334
2860000000.0 0.35118551673541626 -0.5029058666376586
2880000000.0 -0.4134807417878673 0.4317551477686436
2900000000.0 0.5647028922442926 0.1353822179607184
2920000000.0 -0.061075031331649765 -0.5617002447374824
2940000000.0 -0.5101458893123749 -0.181044523705697
2960000000.0 -0.44031255190080926 0.27585965079705566
2980000000.0 0.09632042271463036 0.48565085387204915
3000000000.0 0.46276146878978885 0.10326150362969042
3020000000.0 -0.035486931248341985 -0.4470513185139389
3040000000.0 -0.31408129767464893 0.28393479811698163
3060000000.0 0.39794356324705804 0.003153430517859408
3080000000.0 -0.3701421319069993 -0.06982626490151138
3100000000.0 0.3531579546912351 0.02618525341148763
3120000000.0 0.18677225779932255 -0.2872599247254253
3140000000.0 -0.18036886938935384 0.28310388735650155
3160000000.0 0.0967943666394707 -0.3131223255006147
3180000000.0 -0.16996874137792325 0.27656311766139613
3200000000.0 0.19488454820631362 -0.2546300263661436
3220000000.0 -0.29842000163505167 -0.08238191859755951
3240000000.0 -0.296781913227888 0.00393265129070646
3260000000.0 -0.280875140360314 0.005061723717892563
3280000000.0 0.0900259756979877 -0.2508611665529528
3300000000.0 0.23653773818762444 0.08811223596164844
3320000000.0 -0.1499922065361124 0.1756232885482799
3340000000.0 -0.09819586659371621 -0.18949560971825608
3360000000.0 0.1885969252215748 -0.008019892617388936
3380000000.0 -0.14754198530650123 -0.06136189806007634
3400000000.0 0.03251937513917077 0.13050523679493287
3420000000.0 -0.014839458321614494 0.11858524505376719
3440000000.0 0.047958697230070436 -0.09793442389372058
3460000000.0 0.09326378513531267 -0.03299561508883622
3480000000.0 -0.016776656158832247 0.08593798444406123
3500000000.0 0.060753794435318344 -0.05158002765606974
3520000000.0 -0.025927833737843253 0.06265982143978244
3540000000.0 0.014946965418169245 -0.06239894804899263
3560000000.0 0.04648435859616489 0.04860055514711206
3580000000.0 0.07590033422249969 -0.0032331244042295105
3600000000.0 0.026257500481495128 -0.08066701819019985
3620000000.0 -0.030965997607886937 -0.091927675330686
3640000000.0 0.050734157985785094 -0.09106621960274043
3660000000.0 0.10271056494768255 -0.037294910216913925
3680000000.0 -0.09454485312205085 -0.05188198930581519
3700000000.0 -0.09329972733369285 -0.02829267914108656
3720000000.0 0.05757849741758562 -0.06900391513198227
3740000000.0 -0.01709238670674758 -0.07606128180695808
3760000000.0 0.0694312332623707 0.02043529269433512
3780000000.0 0.02937120949211621 -0.05574202430547291
3800000000.0 0.04358441458161122 0.0043131913678384655
3820000000.0 -0.010173420912033965 0.04040731169303161
3840000000.0 -0.03204220341332363 -0.03791905154896164
3860000000.0 -0.07097959692814082 -0.016544515844826593
3880000000.0 0.03587206552040452 0.08025890855889203
3900000000.0 -0.10196093802774467 0.02425191634379203
3920000000.0 0.07025607894532232 -0.0828702149178556
3940000000.0 -0.04789241964630469 0.09728563400821652
3960000000.0 0.09010445821884748 0.05539476100791228
3980000000.0 -0.09926897033180787 0.010492666197063004
4000000000.0 -0.001560584077674122 0.08505612945233604
