!Created with skrf (http://scikit-rf.org).
# Hz S RI R 50.0 
!freq ReS11 ImS11
400000000.0 -0.4882215871292465 -0.6795194488849478
420000000.0 0.5423783228115692 0.5684363113795521
440000000.0 -0.4445483433673839 0.6079105363256131
460000000.0 -0.6931097886577826 0.13308229952734438
480000000.0 -0.5063612001833088 0.37635793261197975
500000000.0 -0.057289485326836025 -0.5011038335861862
520000000.0 0.39509440152052894 0.08040949585060023
540000000.0 -0.2626713220440037 0.37435474212634673
560000000.0 -0.36632336479953087 -0.31087848421673303
580000000.0 0.42320298188409033 0.13507872002589352
600000000.0 -0.31000490743839587 0.22956494263601895
620000000.0 -0.053191975196501096 0.369848692962775
640000000.0 -0.34755733220737367 -0.1421556052262818
660000000.0 -0.3343677996317165 0.048594584108506374
680000000.0 0.2980614235437291 0.14500208238944426
700000000.0 0.3232544141122664 0.11755567463182708
720000000.0 0.19608115858628417 -0.28462132912015525
740000000.0 -0.07818971466994379 -0.3195875300581905
760000000.0 0.2694948220295526 0.15237743046418853
780000000.0 -0.2628279349153774 -0.09325830110307821
800000000.0 0.2221190341170132 0.12024255287787525
820000000.0 0.11978046760365772 0.17204657624468853
840000000.0 -0.19066754902245708 0.07159169393443872
860000000.0 -0.11104894787211243 -0.14070565143207497
880000000.0 0.06730895148037126 -0.16000596282327834
900000000.0 -0.052833300136567014 0.15901567172151979
920000000.0 -0.09221957400462624 -0.104042942408467
940000000.0 -0.027898589393261206 0.12725023814933925
960000000.0 -0.0896650136460184 0.0540847873727472
980000000.0 0.026693504619064657 0.049339606966110595
1000000000.0 0.03229815872337754 -0.022547504642194988
1020000000.0 0.026273483588639967 0.022162886395166694
1040000000.0 -0.019948067311160857 -0.0781127606071044
1060000000.0 0.05508469192768671 -0.10688355760013048
1080000000.0 -0.14603544808759777 0.026635065399844657
1100000000.0 -0.18652106836398577 0.029030819936850877
1120000000.0 0.02737580763667635 -0.21972651674102983
1140000000.0 0.12365256786992744 -0.2346515555449455
1160000000.0 0.271700432247227 -0.0952851522811809
1180000000.0 0.018282666675888806 0.3188702764044091
1200000000.0 0.16469350933021634 0.2943049521250445
1220000000.0 0.17498861411973596 0.2915266317402224
1240000000.0 -0.14412265768399987 0.30238757889466733
1260000000.0 -0.33317094904760397 -0.06397233924424635
1280000000.0 -0.1294580492364842 -0.320255273757055
1300000000.0 0.20140544027616233 -0.2904386257557229
1320000000.0 0.30339195585616563 -0.19123309158061175
1340000000.0 -0.13068448830302287 0.3452444241245301
1360000000.0 -0.3314251429221125 -0.17674800146381645
1380000000.0 0.32755759779849747 -0.18640297484632698
1400000000.0 -0.24226532697161407 0.28980736822991987
1420000000.0 0.34966342067599016 0.1103205791885746
1440000000.0 0.3068917218361887 -0.19380688702505056
1460000000.0 0.10866409927738797 -0.3367999849132609
1480000000.0 -0.06066088987611371 -0.341146157745201
1500000000.0 -0.18812986385652383 0.2794534889548095
1520000000.0 0.0579850419036542 -0.30926546169489316
1540000000.0 -0.17496906579507157 0.2158398820825383
1560000000.0 0.24144802835748122 0.006125464689125277
1580000000.0 -0.1979016093188905 -0.057169826058366874
1600000000.0 -0.14597818035553195 0.08948666236650005
1620000000.0 0.0938956634003717 -0.1200295228718817
1640000000.0 0.12870418347867493 0.01012452250419929
1660000000.0 0.10041200659231397 0.026170354861737733
1680000000.0 -0.07921385466094202 -0.01945522118160412
1700000000.0 -0.042229281969090544 0.05171369371024328
1720000000.0 -0.0047489055135113605 0.05086827731762828
1740000000.0 0.029395108380761956 -0.03903191738639229
1760000000.0 -0.022597679249827217 -0.055183012260162145
1780000000.0 -0.07986065696348334 0.05011331355058766
1800000000.0 -0.12363553370884804 -0.00936838583050437
1820000000.0 0.03500945340691745 -0.15463413045874036
1840000000.0 0.16595024722189172 0.08665702445045695
1860000000.0 0.2009015031035161 0.09594580501364659
1880000000.0 0.2419323471366314 -0.0224802345664897
1900000000.0 -0.07829045923857145 -0.2576885345051001
1920000000.0 -0.26954278864337416 0.09816350040937914
1940000000.0 0.1525207411602231 0.26017046296612656
1960000000.0 -0.30660072107737546 -0.07646277524937241
1980000000.0 -0.10195277371106629 -0.30260248244618126
2000000000.0 0.11086950070921921 -0.2941925193079979
2020000000.0 0.23077650777666334 0.2116154891861167
2040000000.0 0.31066708318865166 0.04628228726138187
2060000000.0 0.12123149659707691 0.28300604041208594
2080000000.0 -0.2602738066533406 0.1671455688684894
2100000000.0 0.2003053182797278 -0.24316952873705344
2120000000.0 0.09279900872944773 0.29467598304031445
2140000000.0 -0.1425621915618422 -0.2735898958128192
2160000000.0 0.009968234494322306 0.3057811692423903
2180000000.0 0.2759282450507094 -0.11147514034244033
2200000000.0 0.2889514530990779 -0.0058502844242016416
2220000000.0 0.25188686238652375 0.1335156522323573
2240000000.0 0.01121314454617388 0.276089333393326
2260000000.0 -0.2652408865787909 -0.023750354244071518
2280000000.0 -0.017343295288941758 -0.2565924128060115
2300000000.0 0.15035085145989097 0.19492503488588622
2320000000.0 -0.23272437788880435 -0.03803566083431485
2340000000.0 0.13935749114276452 0.180711090907586
2360000000.0 -0.211953693043323 -0.09964558755547043
2380000000.0 0.18816657434008932 0.15263603489356115
2400000000.0 0.24859941064960692 0.074784487145919
2420000000.0 0.27920047988173063 -0.04903340372137868
2440000000.0 -0.3152711115435762 0.03345837046480119
2460000000.0 0.2216344893722053 -0.2677770202683625
2480000000.0 -0.38183343626925653 -0.030760960818728866
2500000000.0 0.19241367259278003 -0.375678817010172
2520000000.0 0.3564825857627152 0.2877019021681312
2540000000.0 -0.4595029492495842 0.18746571958784172
2560000000.0 0.2034933708908399 -0.4885427550012872
2580000000.0 0.10563743504040363 0.5520540153055891
2600000000.0 -0.4163215959749322 -0.41544572607240554
2620000000.0 0.6058386194997205 0.07957730942725
2640000000.0 -0.5121323564880486 0.36259488781044485
2660000000.0 -0.11915055873862418 -0.6292604232252935
2680000000.0 0.6225611473459288 -0.1795932531599284
2700000000.0 0.5660885713151886 0.32987629116377404
2720000000.0 0.4374767294620076 0.49011801512487957
2740000000.0 0.3913605727284156 0.5295857721791837
2760000000.0 0.4555666911656638 0.47270190097133646
2780000000.0 -0.4987957769758727 0.41435205778862233
2800000000.0 -0.6115628463387985 0.18319136747290063
2820000000.0 -0.39530133579741716 -0.4871088248047401
2840000000.0 0.5913025143956027 -0.16954746351701233
2860000000.0 -0.5215328901501406 0.30069867732611794
2880000000.0 0.586409279765881 0.024423710725587765
2900000000.0 -0.17063753001481807 -0.5432913479536444
2920000000.0 -0.5304593273888022 0.13510366522270523
2940000000.0 -0.15344543700518826 0.5004759149693436
2960000000.0 0.06409133263995948 0.49811203324110925
2980000000.0 0.41710199341166415 -0.23750645479108956
3000000000.0 -0.0937536389412479 -0.44096474299539706
3020000000.0 -0.3717322286859525 0.21885936468047984
3040000000.0 0.3510273229518324 -0.20145745853522318
3060000000.0 -0.34170830871247193 0.15586842417131186
3080000000.0 0.3049986260941217 0.18645853381832225
3100000000.0 -0.33862447948273905 -0.04620717494694768
3120000000.0 -0.1842147764169106 0.27464979162719455
3140000000.0 0.31360239020192365 -0.09027458540050788
3160000000.0 -0.3247986970235113 0.03450225391989326
3180000000.0 0.30540691051356716 0.09418726486936033
3200000000.0 -0.09169665066616736 -0.30154911595529243
3220000000.0 -0.2888442296048758 0.09958320386260057
3240000000.0 -0.2614999221771305 0.12433545684222243
3260000000.0 -0.25921794061676806 -0.078597789659855
3280000000.0 0.12041142845477494 -0.22239932657401526
3300000000.0 0.0966708061743124 0.2155414397224513
3320000000.0 -0.20297968382640666 -0.07697078043692125
3340000000.0 0.07595247856240993 -0.1823016224705746
3360000000.0 0.09228996428178568 0.1449886120252072
3380000000.0 0.029908426739735816 -0.14143047662078254
3400000000.0 -0.021213227323785378 -0.12332708814168487
3420000000.0 -0.08677256330566238 -0.0736868820600544
3440000000.0 -0.06879360667442841 0.07956090127571769
3460000000.0 -0.02887159053621294 0.09827051305021121
3480000000.0 -0.012920628269801452 0.08904565188925971
3500000000.0 0.040174877160694684 0.07190454284701278
3520000000.0 0.06818537898261072 0.026294382677080105
3540000000.0 -0.06876821076556194 0.005951086792197313
3560000000.0 0.038399543865751215 0.06278299483997034
3580000000.0 0.07622354193175943 -0.022074677497843094
3600000000.0 0.06369327214569645 -0.06091547847205879
3620000000.0 -0.04940275878232617 -0.08946269421421861
3640000000.0 0.09726138857395769 0.044750765629889694
3660000000.0 -0.0941321183941723 0.049038271815296
3680000000.0 0.07636476835357736 -0.07456709161033578
3700000000.0 0.039433560203200387 -0.0874404830676295
3720000000.0 0.04089332945598516 -0.07863479881621668
3740000000.0 0.07653825068776818 -0.017282278287913597
3760000000.0 -0.013244984396644382 -0.07412109318949457
3780000000.0 0.04778410573850437 -0.04532744923128992
3800000000.0 -0.022038428983852054 -0.04174722688140556
3820000000.0 0.03695737902025833 0.007115342316297654
3840000000.0 -0.05579254416608271 -0.004569516083789545
3860000000.0 0.06598974823896044 0.027241468428849204
3880000000.0 -0.05042281865737884 0.07965082269733044
3900000000.0 0.09827456595309308 0.034666232491031956
3920000000.0 0.0341812927111455 -0.09819662639578708
3940000000.0 -0.06800159071031756 0.08100513541410072
3960000000.0 0.06550714546620945 0.07896700912716306
3980000000.0 -0.08979299762070511 -0.031677513552468825
4000000000.0 -0.08066580674369861 0.02044210492808431
