!Created with skrf (http://scikit-rf.org).
# Hz S RI R 50.0 
!freq ReS11 ImS11
400000000.0 -0.3974761070001562 -0.7442368960835474
420000000.0 0.7319169203647001 0.2747664656453357
440000000.0 -0.4734437460978659 0.5806365144618469
460000000.0 -0.655634579345824 -0.27090208959322004
480000000.0 -0.45491552276428465 0.42942808251152403
500000000.0 0.2715272802085764 -0.4313067401033981
520000000.0 0.33225653197468547 -0.21940184576489608
540000000.0 0.20441789443888594 0.41095803880749204
560000000.0 -0.3599607032952061 -0.32262777906606166
580000000.0 0.3842761220756002 0.20197687049901109
600000000.0 -0.19566470525103388 0.3416632804759464
620000000.0 0.14068375123762553 0.3392542440761681
640000000.0 -0.2982259589345724 0.22445154162496306
660000000.0 -0.08568697127972617 -0.33047024108802886
680000000.0 0.3115355232882174 -0.12634488949068473
700000000.0 0.327943653752136 0.07977668580830402
720000000.0 0.3431067623284608 -0.04302632650477794
740000000.0 0.14321667800818064 -0.3006057131680892
760000000.0 0.07185396145461934 -0.29675977056176417
780000000.0 -0.22380173778679052 -0.16371310868175987
800000000.0 0.18192761688188006 0.1735566595507641
820000000.0 -0.07530723034721594 0.1986920215694814
840000000.0 -0.19195478949045697 0.040444656979638796
860000000.0 -0.18701029033335698 -0.005623553428588388
880000000.0 -0.16121104139097348 0.07538126311995504
900000000.0 0.10606463989862858 0.1143088078722311
920000000.0 0.1389109038536814 0.010897068920973012
940000000.0 -0.11972313943774018 0.0657663911991816
960000000.0 -0.03440891926969491 -0.10095776287504007
980000000.0 0.05271235608608602 0.02569450333938591
1000000000.0 0.0056069686230807055 -0.03535085269569357
1020000000.0 -0.019361868649437095 0.029700142868823234
1040000000.0 0.07940133739276053 0.008363938260340808
1060000000.0 -0.123149713807842 0.01326583353810348
1080000000.0 -0.03822821005080642 0.14022116689149225
1100000000.0 -0.17141242129945736 0.07206212578091611
1120000000.0 0.01802280999217017 -0.21980992877098757
1140000000.0 0.22388186512320865 -0.14735966889084168
1160000000.0 0.21314710458375186 -0.19683223206041353
1180000000.0 0.24417760531863628 0.2055061775618336
1200000000.0 0.16180533733004013 0.2897981221247336
1220000000.0 -0.26000778551698694 0.22274027923193124
1240000000.0 -0.009088713753406792 0.3399292458754304
1260000000.0 -0.33718598613906947 0.016702846015452102
1280000000.0 -0.08540828956102668 -0.33275972022135153
1300000000.0 0.1635335654856623 -0.31302493968408446
1320000000.0 0.3457985491854497 -0.08214935181444323
1340000000.0 -0.0894722083342547 0.3602409669687907
1360000000.0 -0.3345127915176637 -0.18051028337847147
1380000000.0 0.04886469512814309 -0.3727822073367843
1400000000.0 -0.37471747300606895 0.04071572039525173
1420000000.0 0.3392445145499192 0.15167674708927015
1440000000.0 0.336488318696712 -0.1295451611989143
1460000000.0 0.21167233942521976 -0.2882028990005087
1480000000.0 -0.06841513311296764 -0.3406408164370707
1500000000.0 -0.09037935951213956 0.32257106660985635
1520000000.0 0.09326867491739169 -0.296626873207551
1540000000.0 -0.2547595259956842 0.11179585209584667
1560000000.0 0.22952570160199645 0.08110797910751813
1580000000.0 -0.2038047624663278 -0.026038710355083067
1600000000.0 0.07755743862273347 0.15556656278611056
1620000000.0 0.0422527765523084 -0.14113139476540776
1640000000.0 0.07233653767010474 0.10734426673103636
1660000000.0 0.10475401656467638 0.016809788023855063
1680000000.0 -0.047345301252735006 0.0672523776454122
1700000000.0 0.02337820083531187 0.06169929220208848
1720000000.0 -0.020854779025869453 0.048330104776600914
1740000000.0 -0.030404501404413996 0.03824608748448227
1760000000.0 -0.036505830978219835 -0.0519187655479396
1780000000.0 -0.021201718160293197 0.08839760813222698
1800000000.0 -0.03512603494561019 -0.12016680975285281
1820000000.0 0.05111015016984533 -0.1498879271195301
1840000000.0 0.1274738061003295 0.13795602427307999
1860000000.0 0.21190279750413848 0.0634437748749165
1880000000.0 0.23651642634668987 -0.06595431879728005
1900000000.0 -0.1496674608529795 -0.22205735334145713
1920000000.0 -0.28516124458804126 0.032035326154518415
1940000000.0 0.2076960835166662 0.21854830377890413
1960000000.0 -0.3096543651426417 -0.06441639832721194
1980000000.0 -0.17076508556602782 -0.2686040836441843
2000000000.0 0.0950967678765099 -0.2995993449025939
2020000000.0 0.2596083717044518 0.17711008066434047
2040000000.0 0.2969271690669317 0.09898763054606287
2060000000.0 0.12837724812263196 0.28067034586408923
2080000000.0 -0.27274545883341555 0.14654776068385839
2100000000.0 0.17512359187914356 -0.26067813366437564
2120000000.0 0.08170271484832327 0.30007648505219175
2140000000.0 -0.141291838434063 -0.2745725652944498
2160000000.0 0.016660622726186368 0.30403090860824894
2180000000.0 0.29624087004525895 -0.024834200033868842
2200000000.0 0.2878585092506468 -0.03682966178653195
2220000000.0 0.26464270640570453 0.10221355908686772
2240000000.0 -0.08917522281416873 0.2609593841858488
2260000000.0 -0.2668953693566726 0.028605138385992244
2280000000.0 0.02595013912456886 -0.2537643838020658
2300000000.0 0.15783326277971224 0.18911735308847105
2320000000.0 -0.23630713120924948 -0.00669913940591656
2340000000.0 0.1589052339063135 0.16367774783075212
2360000000.0 -0.1449175108770505 -0.18182001256370559
2380000000.0 0.2139140939307252 0.11820088914765214
2400000000.0 0.25789315865291934 -0.030845875046246078
2420000000.0 0.26671609336618773 -0.09585345052548337
2440000000.0 -0.3121164897239538 0.0545712961410392
2460000000.0 0.22087681396744271 -0.2716437378733856
2480000000.0 -0.383339662967778 -0.013029619625366577
2500000000.0 0.192883817477204 -0.3751387309649827
2520000000.0 0.38889622373493293 0.24395879573571463
2540000000.0 -0.4626133859775928 0.1811504130322579
2560000000.0 0.22558670923436772 -0.47927672533821475
2580000000.0 0.15307057651831196 0.5411374871551508
2600000000.0 -0.42871222452596935 -0.4031529687489514
2620000000.0 0.6014826965344696 0.10488456300348992
2640000000.0 -0.5030037061769256 0.3748480598399917
2660000000.0 -0.16236614153031836 -0.6190540244395463
2680000000.0 0.6113228028032143 -0.2166173051318693
2700000000.0 0.5680791966532135 0.3267618032936851
2720000000.0 0.43139668277643123 0.49584948041068794
2740000000.0 0.386452616534335 0.533115440027654
2760000000.0 0.45633193292514285 0.4723850576794513
2780000000.0 -0.5645813525704925 0.3193411034927434
2800000000.0 -0.635717601966645 0.06670203299840338
2820000000.0 -0.3545810935086802 -0.5183834148693272
2840000000.0 0.5730900630516712 -0.22112614290161625
2860000000.0 -0.5483351342573904 0.24587972512668155
2880000000.0 0.5872860330993223 -0.0028352834980543288
2900000000.0 -0.18314035465962594 -0.5386472473813053
2920000000.0 -0.5345580704716041 0.11418169099792433
2940000000.0 -0.06799853826677135 0.5207842132361232
2960000000.0 0.19457438118289422 0.46114706494028285
2980000000.0 0.44327338265269994 -0.18512323119959687
3000000000.0 -0.14967385178019554 -0.42898052291090677
3020000000.0 -0.31252134509082585 0.295348167371271
3040000000.0 0.3793882620817736 -0.13911334750141174
3060000000.0 -0.3631104147212365 0.10510665611524266
3080000000.0 0.32942314901294484 0.14417753446686865
3100000000.0 -0.33546453630722145 -0.05381864322956693
3120000000.0 -0.22508200137641918 0.24469949465076074
3140000000.0 0.3187770407614275 -0.06587416707987569
3160000000.0 -0.3206845034817426 -0.04903143702145752
3180000000.0 0.30242338367574956 0.10714891883937644
3200000000.0 -0.07583287873799079 -0.30526806936254863
3220000000.0 -0.2669417733292595 0.14414123115730929
3240000000.0 -0.23354448356046456 0.16949659192946698
3260000000.0 -0.2684997735344199 0.042738217549615105
3280000000.0 0.04186971370270006 -0.24773675580960766
3300000000.0 0.0845133875228692 0.22245037133101853
3320000000.0 -0.21285125477101577 -0.04656052002998008
3340000000.0 0.007928163032920654 -0.1977125389675191
3360000000.0 0.11575136740582131 0.12606806672289914
3380000000.0 0.035030982148341855 -0.1424565827722165
3400000000.0 -0.0357438796391871 -0.1200382376378949
3420000000.0 -0.09074750745706545 -0.07011539501074515
3440000000.0 -0.09910430787851941 0.03854323996421969
3460000000.0 -0.08698476912218957 0.054771060266728844
3480000000.0 -0.08117443916854736 0.036048455970973795
3500000000.0 0.003392711345279677 0.08328257424939768
3520000000.0 0.06917248896300372 0.02087771753854825
3540000000.0 -0.06731676659359301 0.016064782347704382
3560000000.0 0.03359849623286054 0.06441202012661351
3580000000.0 0.0665134963804214 -0.0413710557122055
3600000000.0 0.08672280249359829 -0.019165167607462907
3620000000.0 -0.0941230556310432 -0.03517010603976788
3640000000.0 0.10082899722244515 0.036426355882463096
3660000000.0 -0.09015367683027546 0.05864949563498057
3680000000.0 0.036012281582272744 -0.10026722580294822
3700000000.0 0.03983831484767679 -0.08840987866984917
3720000000.0 -0.07487249943717386 -0.04762373797249145
3740000000.0 0.004830996224929761 -0.07939541626239925
3760000000.0 0.029307643169898014 -0.06907224292094813
3780000000.0 -0.045252398858001724 -0.04862663861964505
3800000000.0 -0.012660119264176393 -0.046340209273040174
3820000000.0 -0.0347509486058804 -0.01367408127132428
3840000000.0 0.019310341068071918 -0.05352054092058068
3860000000.0 -0.021043492171826002 -0.06993360920749131
3880000000.0 0.015854308880750824 0.09372322903781688
3900000000.0 0.1011022277385656 0.01951835873078785
3920000000.0 -0.012909374985658787 -0.1069807214978163
3940000000.0 0.021608911222204184 0.10337865488746797
3960000000.0 0.03973536125056483 0.09528420065996714
3980000000.0 -0.06728638865739585 0.07124513213835741
4000000000.0 -0.021572086689132512 0.08150635085649938
