!Created with skrf (http://scikit-rf.org).
# Hz S RI R 50.0 
!freq ReS11 ImS11
400000000.0 -0.48013588468365653 -0.6926480274242068
420000000.0 0.6601619096482829 0.4196761003003481
440000000.0 -0.5161089421778698 0.5477011829691076
460000000.0 -0.6971766975431166 -0.12742085611359336
480000000.0 -0.5476626284443341 0.30023947157790126
500000000.0 0.3892550570083357 -0.33246691385202765
520000000.0 0.3652353261959105 -0.1612533563896594
540000000.0 0.054891455665557254 0.45566017678405313
560000000.0 -0.416780948733416 -0.24670689385502514
580000000.0 0.4162726135374142 0.12476584485591447
600000000.0 -0.330345458333238 0.2093843947618056
620000000.0 0.02709388392855007 0.3696440062752276
640000000.0 -0.2983793972263982 0.2249876977791744
660000000.0 -0.3247632262704406 -0.11339426087229344
680000000.0 0.2859155674503189 -0.17184700285031443
700000000.0 0.13305652464275491 0.31285527654496587
720000000.0 0.31790039627709665 -0.14520112140718988
740000000.0 0.057173531001031605 -0.32626261851030763
760000000.0 -0.0033721929900775863 -0.30546564370638757
780000000.0 -0.11596071172601397 -0.25024268912958303
800000000.0 0.002541097631816862 0.2507411954943754
820000000.0 0.0817433388411012 0.2006544001034427
840000000.0 -0.12427574501723238 0.14604949289335165
860000000.0 -0.15165025783112007 -0.1041742496276995
880000000.0 -0.15648994802336894 -0.0942257022415766
900000000.0 0.14681559136835215 -0.055923295894487204
920000000.0 0.05753700627608894 -0.12288930523926019
940000000.0 -0.06359318640884384 -0.11891862976624451
960000000.0 -0.012307554469541005 -0.10776106455991585
980000000.0 0.054842570854353206 0.02331030928223513
1000000000.0 -0.0026565340732939333 0.03749721524833751
1020000000.0 0.03482515455976793 -0.0007529911530103286
1040000000.0 0.020178896885279345 -0.07469860362345371
1060000000.0 -0.088244342402606 -0.08423854893916238
1080000000.0 -0.0820946652268678 0.1239105830200239
1100000000.0 -0.12930122110543749 0.132200233800146
1120000000.0 0.1235845481860539 -0.1829945120102886
1140000000.0 0.2373736281790872 -0.128612941518843
1160000000.0 0.14389174048284453 -0.2490395819135966
1180000000.0 0.1472287793649256 0.2818450584382782
1200000000.0 0.17525097579452725 0.2842634225462254
1220000000.0 -0.21289773114007698 0.2670347144174106
1240000000.0 0.002461027099619552 0.3397544983041129
1260000000.0 -0.3375455193682089 0.005713467767845242
1280000000.0 -0.1670474594748439 -0.2985194182641807
1300000000.0 0.20581996264309974 -0.2890855091655169
1320000000.0 0.35550378777959046 -0.034670912561790716
1340000000.0 0.02954262658087121 0.37171162773502625
1360000000.0 -0.33500140607375256 -0.17637384781246845
1380000000.0 0.26964367179401744 -0.26150468073637545
1400000000.0 -0.37820434797369235 0.02263124085605214
1420000000.0 0.36748469237260206 0.04628213712155468
1440000000.0 0.34867278540700036 -0.08792104121297915
1460000000.0 0.2780509083316182 -0.22473362620113893
1480000000.0 -0.05558760075767572 -0.342638403616663
1500000000.0 -0.06304026079773196 0.32968952711294763
1520000000.0 0.07101633902144323 -0.3009604220854364
1540000000.0 -0.25865871899617304 0.10209811436852273
1560000000.0 0.24144988950430923 0.033023781499005596
1580000000.0 -0.20557302972125696 0.0014338400934304735
1600000000.0 0.09871309203295882 0.14265522523191665
1620000000.0 0.03946082303190532 -0.14311681118938901
1640000000.0 0.09114459885735604 0.0911236177035372
1660000000.0 0.07704101061590526 0.07344504567793478
1680000000.0 -0.060743041613150674 0.057227352393981155
1700000000.0 0.011551623092796084 0.06507594335387465
1720000000.0 -0.04741995044006983 0.02149840857180573
1740000000.0 -0.04870011835074911 0.007327893299733402
1760000000.0 -0.017739178944255796 -0.061365268077137256
1780000000.0 -0.02740071129355631 0.08566495406440994
1800000000.0 0.020947865178773454 -0.12223300915857874
1820000000.0 0.07908549227135012 -0.13893464447516035
1840000000.0 0.12419148041840558 0.13941611846196647
1860000000.0 0.20886786337479282 0.06960134900600431
1880000000.0 0.24325781112969808 -0.031119881929337224
1900000000.0 -0.15732732396684598 -0.21593702919889524
1920000000.0 -0.28057828246996735 0.05633261841540626
1940000000.0 0.19293481047838865 0.2319665178117404
1960000000.0 -0.3160875545710917 0.003086423327863213
1980000000.0 -0.17305825634055125 -0.2668335184467835
2000000000.0 0.11760137752797951 -0.2918954111287151
2020000000.0 0.24188795321067816 0.20196670617528262
2040000000.0 0.293775675825495 0.10942069945760854
2060000000.0 0.12913438898915744 0.2802905504815713
2080000000.0 -0.3023974701304771 0.06407482330994395
2100000000.0 0.17346495366953904 -0.26269350085270243
2120000000.0 0.0887296368813733 0.29762597680705144
2140000000.0 -0.10481247123755524 -0.2905303236728061
2160000000.0 0.010713670117808565 0.30409085965854293
2180000000.0 0.2946064312799009 0.031578445613489214
2200000000.0 0.28561401968839406 -0.04898379835075592
2220000000.0 0.2612864429347975 0.11047884375251835
2240000000.0 -0.05083704217639792 0.2705447634481391
2260000000.0 -0.26741580935352266 0.0008117853801377933
2280000000.0 0.016856024812217898 -0.25493236318474494
2300000000.0 0.1881635745064818 0.15985968365213854
2320000000.0 -0.23189519052101376 0.04527240718477863
2340000000.0 0.14335229107611272 0.1781148727758554
2360000000.0 -0.17043920362362092 -0.1604593598886285
2380000000.0 0.22365657179210333 0.09698353350310024
2400000000.0 0.26032215677346493 0.0046092795765861
2420000000.0 0.2809409894322592 -0.044548962222612475
2440000000.0 -0.313576397487041 0.04814857744450141
2460000000.0 0.25833571061480687 -0.23611766458220354
2480000000.0 -0.3641030982022884 -0.12220548989417312
2500000000.0 0.18762598084689772 -0.3777227543112463
2520000000.0 0.38195250455965013 0.25267929874712625
2540000000.0 -0.47965597281005 0.12677819769192125
2560000000.0 0.21160799719419143 -0.48534987902727167
2580000000.0 0.17282729069635405 0.5344648879771239
2600000000.0 -0.4370022540727072 -0.3937603379731773
2620000000.0 0.5973702492225907 0.12594086278061667
2640000000.0 -0.4821602313299457 0.40210106052817196
2660000000.0 -0.14193943798881797 -0.6249667998503022
2680000000.0 0.610529154049415 -0.22015041883970485
2700000000.0 0.5341730910479733 0.3805888253952688
2720000000.0 0.37085140146669954 0.5431316471704238
2740000000.0 0.3046106136039164 0.5839848409974147
2760000000.0 0.38309676542717525 0.5332477333252031
2780000000.0 -0.58542589790651 0.27755129310285226
2800000000.0 -0.6384016365205859 0.009438101049234779
2820000000.0 -0.3178591429985369 -0.5407714991021916
2840000000.0 0.5795989342940397 -0.20191951552658238
2860000000.0 -0.5439216620456504 0.2548504864800305
2880000000.0 0.587382009706327 -0.01611331421737528
2900000000.0 -0.18642654686969679 -0.5380465960765202
2920000000.0 -0.5362648798735673 0.10990404748582387
2940000000.0 -0.10461527810874273 0.5152568022773738
2960000000.0 0.2157729326318416 0.4526042259739018
2980000000.0 0.4452978894495386 -0.18052892233491924
3000000000.0 -0.13224258555027657 -0.4349784213480675
3020000000.0 -0.32789941466334827 0.27887952841698266
3040000000.0 0.3774753906589807 -0.14377434633782565
3060000000.0 -0.3753327924528343 -0.04621094469455302
3080000000.0 0.3365840076293687 0.1243918041079119
3100000000.0 -0.32144149047929543 -0.10685241775448193
3120000000.0 -0.2614806874913788 0.20308606354483535
3140000000.0 0.32268554467339605 -0.04571191579395996
3160000000.0 -0.32245271129992836 -0.035141270021150244
3180000000.0 0.3154210190411533 0.060606130596792485
3200000000.0 -0.10857734569681117 -0.29425634179251847
3220000000.0 -0.2629931195707685 0.15235839772386467
3240000000.0 -0.21493890424979262 0.19411912711672485
3260000000.0 -0.2678444767240702 0.05102115459305049
3280000000.0 0.030980878254891642 -0.2501951277130012
3300000000.0 0.09848186220661992 0.2165896462827993
3320000000.0 -0.20732424171748787 -0.07080637853778424
3340000000.0 -0.0087601811005535 -0.19780812572874487
3360000000.0 0.07140708900859176 0.15652384107392459
3380000000.0 0.055190274582764355 -0.13614997318490726
3400000000.0 -0.00468992041530827 -0.1258066602309541
3420000000.0 -0.08400288375203324 -0.07910468030484559
3440000000.0 -0.08317938649554632 0.06541526885534135
3460000000.0 -0.10206872634053389 -0.007822233399940209
3480000000.0 -0.08512503188831338 -0.029832592162177245
3500000000.0 0.08170620769840554 0.01929475835229473
3520000000.0 0.06345269629310275 -0.02902520459677979
3540000000.0 -0.027866560430888702 -0.06329808718812863
3560000000.0 0.04354444688106686 0.05993988653671006
3580000000.0 0.03131744365197818 -0.0714234791007185
3600000000.0 0.058938458587102595 -0.06523645850816089
3620000000.0 -0.10089046409300781 -0.0005320727181828038
3640000000.0 0.09357753334074774 0.052533980976347594
3660000000.0 -0.09638074054661584 0.04880756846817549
3680000000.0 0.05062938787968311 -0.09447260386384491
3700000000.0 -0.02850867381666163 -0.09300224505211888
3720000000.0 0.001111592579764977 -0.08747243374114108
3740000000.0 0.07931101627361438 -0.010694732063450589
3760000000.0 -0.03655695604006852 -0.06683357491142895
3780000000.0 -0.034575212504509865 -0.05490770922083361
3800000000.0 0.04687598411014887 -0.011263182130236514
3820000000.0 -0.03782040010434384 0.0020515175495562673
3840000000.0 0.034574056929699254 -0.044621128653214825
3860000000.0 0.0342954231826633 -0.06402819564473225
3880000000.0 0.0084246511022318 0.09499633275528288
3900000000.0 0.09686129703071365 0.03833771102210358
3920000000.0 -0.0078110776352610534 -0.1073193569477606
3940000000.0 -0.008456225983803965 0.10551494393509096
3960000000.0 0.028883263548357786 0.09996651346946764
3980000000.0 -0.07712018090525305 0.06065310024189207
4000000000.0 -0.046322787461846364 0.06981334094485642
