!Created with skrf (http://scikit-rf.org).
# Hz S RI R 50.0 
!freq ReS11 ImS11
400000000.0 -0.4679550596846771 -0.6943845966877541
420000000.0 0.5459808239136174 0.5623895872965797
440000000.0 -0.5214633969439839 0.5431314468960391
460000000.0 -0.7063551333592947 0.06640427672555146
480000000.0 -0.24934543409627682 0.5738554979043151
500000000.0 0.2471586457848967 -0.440388922363269
520000000.0 0.3222776808626108 0.2447071357581836
540000000.0 -0.33207203746059083 0.3124236782838675
560000000.0 -0.3612847775849873 -0.32327576924652873
580000000.0 0.37492654637734785 -0.23179459220358722
600000000.0 -0.12522069896062085 0.36031882612725347
620000000.0 -0.06888952051985411 0.36900018683711305
640000000.0 -0.35390224025070455 0.12275363266028205
660000000.0 -0.34183233076380937 0.04949604059785692
680000000.0 0.3172369958063335 -0.09463003884239828
700000000.0 0.22325926020539602 0.2592085798038763
720000000.0 0.0036388632461528607 -0.35046475482864975
740000000.0 -0.017324883014835046 -0.3260470185410397
760000000.0 0.23359049610095997 0.20247407400814849
780000000.0 -0.13313100473300543 -0.24597027804678528
800000000.0 0.24490110904784965 0.05369085777754724
820000000.0 0.021770223787336666 0.21240794440583924
840000000.0 -0.004411595162334704 0.19630679254704447
860000000.0 0.012054599777074338 -0.1780180984414328
880000000.0 -0.05664658722258451 -0.17176699795458664
900000000.0 0.15336600902485864 0.051855375742090266
920000000.0 0.13155162411783727 -0.04644771430108183
940000000.0 0.1334369946074764 0.01487417783892693
960000000.0 -0.07915029165571812 -0.06379617770970315
980000000.0 -0.05394162718011028 0.013842623203243264
1000000000.0 0.020123270098659343 -0.036127993086682436
1020000000.0 -0.004081741324812199 -0.03525674922997508
1040000000.0 -0.019099289791488148 -0.07754823048558351
1060000000.0 -0.020216584662456523 -0.11631161761111268
1080000000.0 -0.10493584255327411 0.10593432909058424
1100000000.0 -0.18605922149903184 -0.02684310538192936
1120000000.0 0.05922991861853514 -0.2148156962214917
1140000000.0 0.03630232998616588 -0.26283187992357526
1160000000.0 0.2726520215387121 -0.09161033133995213
1180000000.0 -0.003444883405438306 0.32117543308974794
1200000000.0 0.2452791049769866 0.2315963951642558
1220000000.0 0.05653418862909472 0.3352741294549657
1240000000.0 -0.1376062575493639 0.3084985943908072
1260000000.0 -0.3291145095257337 -0.07265797353638163
1280000000.0 -0.09442008757007424 -0.3330772827934112
1300000000.0 0.21674892097929147 -0.28029552568946414
1320000000.0 0.1667326252934612 -0.3187516362516566
1340000000.0 -0.1710834054647743 0.3236250435619087
1360000000.0 -0.250976118916501 -0.28202413952220357
1380000000.0 0.2512301671585717 -0.28324684868149946
1400000000.0 -0.3392756520628001 0.1650844881475837
1420000000.0 0.36763267614938006 -0.00888138907119863
1440000000.0 0.29769070353290683 -0.20485144194583277
1460000000.0 0.12513136908444888 -0.3319362972292612
1480000000.0 -0.0774468571837705 -0.3362142046594503
1500000000.0 -0.19508778961332 0.277044204444089
1520000000.0 -0.05047207595081739 -0.311711693680825
1540000000.0 -0.18881013755361467 0.20325049820776472
1560000000.0 0.23604152902094205 0.04866408178101042
1580000000.0 -0.18768200442712926 -0.08908064128530824
1600000000.0 -0.06753359263298721 0.1585150900608743
1620000000.0 0.12409208513219018 -0.08443243664816133
1640000000.0 0.12478261385106289 -0.03810594057534568
1660000000.0 0.002163996531745841 0.10487207231847566
1680000000.0 -0.037036154267971313 0.07398191408824252
1700000000.0 0.02846057000881616 0.05927676593106614
1720000000.0 -0.043900376679118974 -0.024723129487558164
1740000000.0 0.029741967992543764 -0.03957917849099627
1760000000.0 -0.028202758765632188 -0.053121885739867425
1780000000.0 -0.06405762315977485 0.06415830032896584
1800000000.0 -0.08962180457042693 -0.0874670898630765
1820000000.0 -0.09987546630462772 -0.1235037521869916
1840000000.0 0.12638038512326427 0.13732503966816248
1860000000.0 0.21754551487813928 0.04275198481239568
1880000000.0 0.2335632490314929 -0.06440216824674792
1900000000.0 -0.0186629409876881 -0.2691488278800615
1920000000.0 -0.25038089085770315 0.1418854436592813
1940000000.0 0.17643644230488617 0.24470512360814595
1960000000.0 -0.30935427885022565 -0.05927836134892513
1980000000.0 -0.09380670639644416 -0.3038245006402083
2000000000.0 0.21637769037154447 -0.22917069865195833
2020000000.0 0.24284602764129987 0.2005014995223025
2040000000.0 0.31349658790309304 -0.008829308036624198
2060000000.0 0.11155183967232922 0.2863779418596091
2080000000.0 -0.2892877858314798 0.10660774129610155
2100000000.0 0.266284376252777 -0.16778518906461876
2120000000.0 0.1428360260993807 0.2757093473173535
2140000000.0 -0.17801619396392457 -0.25239082189226925
2160000000.0 0.0653899228156201 0.29868966634577154
2180000000.0 0.2735182140362886 -0.11623185957880515
2200000000.0 0.2890350342565439 0.0035774375331841996
2220000000.0 0.2629678899214224 0.11198600211735586
2240000000.0 -0.004266375586293726 0.2760171263768222
2260000000.0 -0.2667255229991016 0.0016239455762209127
2280000000.0 0.007845920899539692 -0.2560074647988067
2300000000.0 0.15851771789468472 0.188873513066412
2320000000.0 -0.23659394989077126 0.007924934602944397
2340000000.0 0.12510644473933338 0.1894822136827563
2360000000.0 -0.19095759294304887 -0.1358769866680116
2380000000.0 0.19359967670828118 0.1453868514363377
2400000000.0 0.24038812880110488 0.09740885180382064
2420000000.0 0.2637417547794483 -0.10625669478009794
2440000000.0 -0.3045758566948083 0.0815293552887333
2460000000.0 0.27110477079013523 -0.21901560264168535
2480000000.0 -0.38307508908131493 -0.01216628267616454
2500000000.0 0.07647568803208366 -0.41573317174663144
2520000000.0 0.3964761784253187 0.23052887613850362
2540000000.0 -0.4556734112253464 0.19761529233493982
2560000000.0 0.21436750179861197 -0.4834763153793037
2580000000.0 0.13753778977655726 0.5448286573856342
2600000000.0 -0.44868435740086404 -0.3803422526125939
2620000000.0 0.6026783309024433 0.09826028268438576
2640000000.0 -0.5261653021315837 0.3426281098080611
2660000000.0 -0.14489553737613775 -0.623752239835088
2680000000.0 0.6140499244412192 -0.20732994716711842
2700000000.0 0.5509551112670632 0.3543085431948707
2720000000.0 0.42386565690069117 0.5019800636092407
2740000000.0 0.3912995477939411 0.5294477206507394
2760000000.0 0.5007040272304523 0.42428441274845324
2780000000.0 -0.49326442817363786 0.4206531818922798
2800000000.0 -0.6187242046458771 0.1567232724623422
2820000000.0 -0.3769673719482543 -0.5017839969031435
2840000000.0 0.587183844534137 -0.18425304633230455
2860000000.0 -0.47624654249902215 0.36793533796813954
2880000000.0 0.5866919351118562 0.0005566681928155665
2900000000.0 -0.17710185254937627 -0.5410867174746122
2920000000.0 -0.5322055343492539 0.12730394567490996
2940000000.0 -0.10024523760027708 0.5139620402451278
2960000000.0 0.06481790496323575 0.49823742650877845
2980000000.0 0.43714192276718145 -0.19924378674758206
3000000000.0 -0.15081670117909438 -0.42429840056400236
3020000000.0 -0.36567158845942127 0.2277145514868558
3040000000.0 0.3832164998460609 -0.12729305606162875
3060000000.0 -0.342908269621391 0.15201970184689212
3080000000.0 0.3128954723041146 0.17535135098827273
3100000000.0 -0.33432727585202965 -0.06554333003979057
3120000000.0 -0.15630425249708302 0.290333391585302
3140000000.0 0.3093473192777428 -0.10211506307986971
3160000000.0 -0.327156108697406 -0.01475501540532092
3180000000.0 0.31908105468188613 0.021474900762314505
3200000000.0 -0.10471586501457414 -0.2966107387490026
3220000000.0 -0.2966425431311644 0.0763395016750952
3240000000.0 -0.2605418447224319 0.1261160125206622
3260000000.0 -0.2549989726899141 -0.09248581948789973
3280000000.0 0.1484591084944647 -0.20609037067508057
3300000000.0 0.11140584187563837 0.2073785203686644
3320000000.0 -0.20303225504898373 -0.077092026793667
3340000000.0 0.10128975599697768 -0.16900151644202457
3360000000.0 0.0668435865135919 0.15939721419484287
3380000000.0 0.011506828698452078 -0.14332723879898226
3400000000.0 0.001398142334046458 -0.12508527240871378
3420000000.0 -0.10990228387383531 -0.03126324886063784
3440000000.0 -0.07683932363652621 0.07089108600431003
3460000000.0 -0.030415829129583332 0.09781830137063866
3480000000.0 -0.07461551892716455 0.050161234991507785
3500000000.0 0.06644695387204165 0.049736367468078184
3520000000.0 0.06898745645629331 0.022435335210623186
3540000000.0 -0.06685973557067575 -0.020575587748280867
3560000000.0 0.05673287879732198 0.0463873809667424
3580000000.0 0.05711274867806318 -0.0525122172267495
3600000000.0 0.08815128062132313 0.0010113270421625996
3620000000.0 -0.03410548301694879 -0.09621495898686427
3640000000.0 0.09311354690037918 0.054256917946284
3660000000.0 -0.0741020690538623 0.07584430908020934
3680000000.0 0.025860345755614772 -0.10287720040618452
3700000000.0 0.08486718890473242 -0.04291040204747882
3720000000.0 0.02369859687530811 -0.08519412793214118
3740000000.0 0.05407219564355453 -0.057997929587816625
3760000000.0 0.010818070840533581 -0.07485835980270791
3780000000.0 0.025237063982830904 -0.060592510001846546
3800000000.0 -0.035962903242952066 -0.03175413380783791
3820000000.0 0.00905585476365095 0.036773338501830344
3840000000.0 -0.055827415289508055 -0.00814600225171957
3860000000.0 0.0706003323789831 0.006808025290086176
3880000000.0 -0.08673424506505878 0.03648697678382892
3900000000.0 0.09741440127426006 0.03969458711819362
3920000000.0 -0.045160104399036095 -0.09394004244637004
3940000000.0 -0.054028607784606754 0.09151008254924059
3960000000.0 0.05925265708366498 0.08423649060293459
3980000000.0 -0.09183299485050032 -0.03133735624900847
4000000000.0 -0.0780731146981305 0.032545335614611454
