!Created with skrf (http://scikit-rf.org).
# Hz S RI R 50.0 
!freq ReS11 ImS11
400000000.0 -0.48489247064872987 -0.6837377298327574
420000000.0 0.5722419065926496 0.5345663602863772
440000000.0 -0.4968461059585325 0.5644954560952289
460000000.0 -0.7067765545247974 0.00795240398244224
480000000.0 -0.28469386843238315 0.5649430385755191
500000000.0 0.22386961074701422 -0.4520487038424413
520000000.0 0.39714336090944863 -0.06386457768455468
540000000.0 -0.16737603985547544 0.42083132364873016
560000000.0 -0.2164961681250516 -0.4313376413587303
580000000.0 0.43300863799570966 0.1075337435294386
600000000.0 -0.17179472238336185 0.34284497910503225
620000000.0 -0.19037663432651006 0.32446156854067165
640000000.0 -0.36700045766641615 -0.05925528364632537
660000000.0 -0.21729971196765555 -0.2606389235814378
680000000.0 0.3321188894405552 0.02939342897701887
700000000.0 0.3054111096524289 0.15657813319074051
720000000.0 0.24030267418967602 -0.253465640362317
740000000.0 -0.18824669077181322 -0.2699826577363089
760000000.0 0.3036123287683842 0.0454517934773275
780000000.0 -0.13464413068275852 -0.24568640116607235
800000000.0 0.19156529781370601 0.16393389713053277
820000000.0 -0.07241232085264968 0.20092743929756932
840000000.0 -0.07870281619909938 0.18613110933995056
860000000.0 -0.05032127779301334 -0.16984991524175794
880000000.0 0.14467707900045731 -0.09855956731969966
900000000.0 0.1472060713396899 0.08527695817331123
920000000.0 -0.07137975029605438 -0.11462784209932125
940000000.0 -0.10289799213088888 0.08514974555237585
960000000.0 0.019947764043653723 0.10254352023697837
980000000.0 -0.05501419160780691 -0.00754856653354171
1000000000.0 0.02243467801108112 0.03456290520045442
1020000000.0 0.021460111296070367 0.029768411920767537
1040000000.0 -0.07557141645450617 -0.027078787228510603
1060000000.0 0.05114564736853333 -0.11020777318651725
1080000000.0 -0.04614945799087849 0.13866606482535362
1100000000.0 -0.13352643110562498 -0.12893442516283266
1120000000.0 0.14432862168288443 -0.17267022364894505
1140000000.0 -0.04929213609212511 -0.26243483183742994
1160000000.0 0.28340695962300005 -0.04972776852032376
1180000000.0 0.12526585530447673 0.29467764275949626
1200000000.0 0.2285272492077439 0.24651080995587935
1220000000.0 -0.033266424164644724 0.33939054896931903
1240000000.0 -0.21555671623155104 0.25919312245555404
1260000000.0 -0.33935297001786235 0.02577381832869023
1280000000.0 -0.18487767334220215 -0.29094565998592814
1300000000.0 0.2091743532358002 -0.2826348423280896
1320000000.0 0.31355190902564417 -0.17141982469945136
1340000000.0 -0.18223182758226789 0.32203732996004103
1360000000.0 -0.35060891756332263 -0.1396352895912004
1380000000.0 0.2429777521227769 -0.28638528564524457
1400000000.0 -0.34330911671751724 0.15523989329625143
1420000000.0 0.36472978729056155 0.0321707407298184
1440000000.0 0.3459991427208855 -0.10923161423844026
1460000000.0 0.011895788579041458 -0.35647895503967086
1480000000.0 -0.13358469448452578 -0.3168886643504336
1500000000.0 -0.2270486893022637 0.24729064981384416
1520000000.0 0.19476233803333914 -0.25028579275511237
1540000000.0 -0.10768241449299094 0.25861488902726193
1560000000.0 0.2370697991569874 -0.044058106568327725
1580000000.0 -0.19165333035560786 -0.07216336219221012
1600000000.0 -0.148087250906228 0.08511075405285902
1620000000.0 0.1224360308228516 -0.091405763692178
1640000000.0 0.12781353242401133 -0.016356842846173603
1660000000.0 0.10539431942235741 -0.002035219981257225
1680000000.0 -0.03769506414310447 0.07270431437370721
1700000000.0 -0.04451092177104255 0.0479826548872619
1720000000.0 -0.013587168065030974 0.05054569215660186
1740000000.0 0.02447730888349382 -0.04322262528463582
1760000000.0 -0.03717501114017818 -0.04575836968727078
1780000000.0 -0.09080144142713878 0.022349825513961953
1800000000.0 -0.12411393406879555 -0.011983728065167357
1820000000.0 -0.009351704883564039 -0.1578676387305764
1840000000.0 0.13233608318255935 0.13270730622877477
1860000000.0 0.20826186507592512 0.08021458993224984
1880000000.0 0.24024846972630337 -0.03666620266796763
1900000000.0 -0.06125737416465801 -0.26093743377031
1920000000.0 -0.27278228094867507 0.09296908079923545
1940000000.0 0.1622341531939962 0.2542608837306027
1960000000.0 -0.30542768704732876 -0.078458536964376
1980000000.0 -0.06819371797714605 -0.310442014604377
2000000000.0 0.20247621601243462 -0.24179619714447056
2020000000.0 0.25532019691035773 0.18377978617592244
2040000000.0 0.309439058213818 0.05372131874581848
2060000000.0 0.15595663258242193 0.2656686163309753
2080000000.0 -0.24105612015671962 0.19291692213748765
2100000000.0 0.2928731338585889 -0.11475856769408066
2120000000.0 0.16493239874966303 0.26381204658056795
2140000000.0 -0.17441020890046469 -0.2546892254958835
2160000000.0 0.039449903356639594 0.30219797486817374
2180000000.0 0.2836027026130701 -0.09262572109310171
2200000000.0 0.28879436415146625 -0.01236737327628097
2220000000.0 0.26537390981700654 0.10313127525116882
2240000000.0 -0.0021425970193342486 0.2758470588935722
2260000000.0 -0.25164432008071275 -0.08806055507948017
2280000000.0 -0.06213463898939081 -0.24984422433371992
2300000000.0 0.10124903721807761 0.22268800438149913
2320000000.0 -0.23698317587885323 -0.01703048531824701
2340000000.0 0.17952287939624506 0.13933697537847134
2360000000.0 -0.1797799979293832 -0.14849146915378697
2380000000.0 0.17724687171099587 0.16754350193987194
2400000000.0 0.2583243062224873 0.024953404645074548
2420000000.0 0.2689254382948833 -0.08671231058568694
2440000000.0 -0.3156982005282926 -0.029459399870146317
2460000000.0 0.19853500675717764 -0.2851878716593037
2480000000.0 -0.3810619021066937 -0.03591644927855258
2500000000.0 0.0984375956216227 -0.4116096082017487
2520000000.0 0.3914828557582893 0.2385600185316259
2540000000.0 -0.46340258170378346 0.1787155898791533
2560000000.0 0.20981053300872607 -0.4862225407423289
2580000000.0 0.12761686641921943 0.5476811596237315
2600000000.0 -0.4485131856755672 -0.3794279088521181
2620000000.0 0.6040044050997165 0.09026685049865897
2640000000.0 -0.5297434720862078 0.3362759902637399
2660000000.0 -0.13488065679447858 -0.6261119434073021
2680000000.0 0.631538575065425 -0.14682135066559832
2700000000.0 0.5437421684926307 0.36485883593320545
2720000000.0 0.42492237543201444 0.501328100873812
2740000000.0 0.4929831323193022 0.43650479333185555
2760000000.0 0.49298436044924077 0.4337502449829012
2780000000.0 -0.5392692217351721 0.3598570913552383
2800000000.0 -0.6155401933148109 0.17014347780668873
2820000000.0 -0.38491645084678616 -0.49646390622461506
2840000000.0 0.5858045512455641 -0.18882547640441377
2860000000.0 -0.5317045103904322 0.2805548621543033
2880000000.0 0.5862292051055565 0.01496894995146876
2900000000.0 -0.13058074886203333 -0.5544150012749551
2920000000.0 -0.537478240196339 0.10683940226193347
2940000000.0 -0.13156707973139115 0.5070401926847249
2960000000.0 0.09603625842138575 0.49257629165833383
2980000000.0 0.4307240067021361 -0.20967999884869917
3000000000.0 -0.09203228333835936 -0.4413358544471434
3020000000.0 -0.33686116549044404 0.26848336973067016
3040000000.0 0.3211198837328472 -0.2467642352814282
3060000000.0 -0.3307346527446188 0.17851719489590717
3080000000.0 0.33291165806088113 0.1305589436846093
3100000000.0 -0.3321114222885426 -0.08171325217635023
3120000000.0 -0.20617891793244567 0.25803219378952574
3140000000.0 0.3059840496261726 -0.11682309656871018
3160000000.0 -0.3182232612861772 0.07491123888620381
3180000000.0 0.3126715984802431 0.06325950651702184
3200000000.0 -0.026900154210725075 -0.3136449994916338
3220000000.0 -0.3045979688365013 0.03646804605531164
3240000000.0 -0.24173963524594275 0.1600617587749825
3260000000.0 -0.2662014267975119 -0.04557013823757781
3280000000.0 0.11771439593187338 -0.22406936878769876
3300000000.0 0.06607253404527264 0.225200775370377
3320000000.0 -0.20171889822415945 -0.07988996601924798
3340000000.0 0.0696164060557876 -0.18576964584698316
3360000000.0 0.15062313092708496 0.08237675696802187
3380000000.0 0.058717854782927494 -0.13112775454646294
3400000000.0 0.02951483296855368 -0.12237678261603512
3420000000.0 -0.11258845879992961 0.020916297556512045
3440000000.0 -0.055471027394973366 0.08942911903389773
3460000000.0 0.001383595529026044 0.10158621643548728
3480000000.0 -0.07750735654219501 0.04557897139055417
3500000000.0 0.0022607754921187334 0.0835871278033036
3520000000.0 0.07214717413596118 0.013442515589336464
3540000000.0 -0.06977953510921482 0.003367733890887126
3560000000.0 0.0675587292471748 0.0261825845076168
3580000000.0 0.07378093631637477 0.025660538468398813
3600000000.0 0.05588307863256593 -0.06908759243888461
3620000000.0 -0.010438500469821834 -0.10038082492725472
3640000000.0 0.08851513058850315 0.06223836372455208
3660000000.0 -0.05269261665579222 0.09324293433054284
3680000000.0 0.026880365520013726 -0.10197541583298067
3700000000.0 0.09305480122397769 -0.023415218303122945
3720000000.0 -0.03070872527953106 -0.08243323163379195
3740000000.0 0.07931492794140893 -0.00899557430824085
3760000000.0 -0.04424869032607659 -0.0607701983658635
3780000000.0 0.0164492943585362 -0.06360500311513463
3800000000.0 0.021447859986299146 -0.0435275486502428
3820000000.0 0.03634993558101394 -0.0092053651866037
3840000000.0 -0.05125941202160324 -0.023109601521736713
3860000000.0 0.07165341486989905 -0.011298142415820727
3880000000.0 -0.08116424948595248 0.045757393455111116
3900000000.0 0.03084182645882938 0.10033573815273525
3920000000.0 -0.01040155194977532 -0.10445673936052975
3940000000.0 0.0081092774741007 0.10478131498316753
3960000000.0 0.03229985210002991 0.09805523061612084
3980000000.0 -0.09617332707003362 -0.010567448817034693
4000000000.0 -0.08076992976373885 0.02295931658193087
