!Created with skrf (http://scikit-rf.org).
# Hz S RI R 50.0 
!freq ReS11 ImS11
400000000.0 -0.5865544035493555 0.5849626647585688
420000000.0 0.41090852867666505 -0.6572677947130955
440000000.0 0.5805305069612785 -0.46311427324119164
460000000.0 -0.01194589382433363 -0.6587164642490501
480000000.0 -0.12749097330205747 -0.5168849838257246
500000000.0 -0.26116463285815694 0.31300807475131753
520000000.0 -0.4187830055302011 0.15040712907487125
540000000.0 0.29889258605762437 -0.3865751379482224
560000000.0 -0.00458034242858876 -0.4658720006989755
580000000.0 0.02241766563474054 0.41318712765786675
600000000.0 -0.24200688692124805 -0.31399757016431445
620000000.0 -0.2440628288588422 -0.26852677522896584
640000000.0 0.3536180512381397 0.050934612090262406
660000000.0 0.33779537185711184 -0.07053176909884395
680000000.0 0.0300424226536077 -0.3345997934985907
700000000.0 -0.3718127722890933 0.038941680782662524
720000000.0 0.25028449748574866 -0.252504434481879
740000000.0 0.3201871567867088 -0.03666824980938135
760000000.0 0.11356449481456782 -0.2897312987610044
780000000.0 -0.11660097349350737 -0.2813387081822727
800000000.0 0.2009068659430382 0.1701445701736423
820000000.0 -0.18919233689132064 0.13048086649774696
840000000.0 0.20101024216860802 -0.06537273222076105
860000000.0 0.0021584499302694455 0.20135393264687065
880000000.0 -0.1810786020030852 -0.07028919092275618
900000000.0 0.09634843288437552 0.12904080293433426
920000000.0 -0.0798380439616415 0.12081504122839641
940000000.0 -0.029198606062818266 0.13318202032608345
960000000.0 -0.05253120496944233 0.09336617169774619
980000000.0 -0.03730718281521083 0.057287461977708294
1000000000.0 0.019956376282705336 0.026456605266365372
1020000000.0 -0.04653313228415537 -0.02142740862028354
1040000000.0 0.03916734891470213 0.07703644566189526
1060000000.0 0.0998860558147037 0.05648586256432653
1080000000.0 -0.05108954380982514 0.14902623813959787
1100000000.0 0.17633517941337457 -0.02889576127005882
1120000000.0 0.06462097192237153 -0.21131504266847115
1140000000.0 -0.23761389281140075 -0.09394289999593405
1160000000.0 0.2693125745707807 0.07859069611629317
1180000000.0 0.2690907293322517 0.14584758480932206
1200000000.0 -0.08255890604802915 0.3125201982607001
1220000000.0 0.07556206053868221 0.32343004398599634
1240000000.0 -0.32680828427165903 0.03950174065614487
1260000000.0 -0.3299233470846575 -0.08558565459050015
1280000000.0 -0.34157657707219535 0.022523169861629052
1300000000.0 0.2609120072693409 -0.23235246839320967
1320000000.0 0.34264140006360644 0.12520170774594713
1340000000.0 -0.1742090182982292 0.328825870897372
1360000000.0 -0.161048500502167 -0.3486820378135986
1380000000.0 0.2781118781401842 -0.26166154127756874
1400000000.0 -0.24204847452813144 -0.2918214871774342
1420000000.0 -0.09698730798606314 0.36163023882515377
1440000000.0 0.1487127856654142 0.33663652222546075
1460000000.0 0.27263724410247353 -0.23867021176465653
1480000000.0 -0.030352520644370027 -0.34572724800198334
1500000000.0 -0.04083916722796827 0.3331055484302538
1520000000.0 0.11738177679965463 -0.28444584236256104
1540000000.0 -0.2420874373475177 -0.13187140383925314
1560000000.0 0.2273874333328025 0.09649936866681634
1580000000.0 -0.17105545336349492 -0.12004494147322993
1600000000.0 0.06952930212156486 0.16745020826572277
1620000000.0 -0.14907263511536878 -0.06141079758222961
1640000000.0 -0.11396146737487721 -0.06744037763987411
1660000000.0 0.10161265969210016 0.03208237473144031
1680000000.0 -0.08706016295236806 -0.02012610463113106
1700000000.0 0.06031905029005856 -0.0452058039161068
1720000000.0 0.04983928139643177 0.00019266036601938992
1740000000.0 -0.04760045977050765 0.022655003743813847
1760000000.0 0.023512002134497015 0.057478829405548694
1780000000.0 0.06490926426730687 -0.06901389788090805
1800000000.0 -0.020235406274536724 0.12219736953281372
1820000000.0 -0.004431011116990956 0.15710760087569065
1840000000.0 -0.025641475976376366 0.19102115071021253
1860000000.0 0.06855235691661679 0.20633179220886988
1880000000.0 0.02545679352967752 0.23957373532821752
1900000000.0 0.2635391830735046 -0.04166744207057865
1920000000.0 -0.27321961857835075 -0.0913208271286954
1940000000.0 -0.04173055912969501 0.2955068624897002
1960000000.0 -0.3137315450078408 -0.008337038237680065
1980000000.0 -0.061175045825985874 -0.3082261751888113
2000000000.0 0.3129866573359801 0.009337484424009602
2020000000.0 0.1994568874387437 0.24537399455608636
2040000000.0 0.09187444653043442 0.3009989499902189
2060000000.0 -0.13643667979871416 0.2768612977847741
2080000000.0 -0.28005198969625283 -0.13255339711003644
2100000000.0 0.30442324179770863 0.04416388237125717
2120000000.0 -0.30497260266614007 -0.04178526434755468
2140000000.0 0.15388099701179334 -0.26066617881825793
2160000000.0 -0.2140427763249523 0.20465351601963747
2180000000.0 0.08955873884923006 0.27570259907202876
2200000000.0 0.23144063836095596 0.16391260385237644
2220000000.0 0.24199255351016277 0.12820464341699353
2240000000.0 0.01385851149847305 0.27090797924523174
2260000000.0 -0.14869748037031744 0.21088659181186378
2280000000.0 -0.12468965688505976 -0.21584153483387397
2300000000.0 0.23599960052144825 -0.036784969748375855
2320000000.0 -0.20767984372717208 0.09922447720934681
2340000000.0 0.18869209034623097 -0.11522597548700954
2360000000.0 -0.13460568220209151 0.1767337507018605
2380000000.0 0.2068402542895594 -0.10202181599467088
2400000000.0 -0.12739956339262704 0.2118490118960272
2420000000.0 0.04935415854877816 0.26774338253869384
2440000000.0 0.22455675045710205 -0.20281171231708092
2460000000.0 -0.16980204892840728 0.29135296459390414
2480000000.0 0.3679104487517208 -0.05389643016850555
2500000000.0 0.15864788105776553 0.3773387236327933
2520000000.0 -0.42509836767139325 -0.12707154524512895
2540000000.0 0.18467192855815137 -0.4464855611036318
2560000000.0 0.26474938173590834 0.44439712289269057
2580000000.0 -0.5211221546140662 -0.16880736666911933
2600000000.0 0.5557510274708216 -0.1566469734310351
2620000000.0 -0.3785444010958425 0.46750029227919415
2640000000.0 -0.04688221081278946 -0.6186184003495588
2660000000.0 0.5432129999590763 0.33269484572835434
2680000000.0 -0.445328549118265 0.47127402260985063
2700000000.0 -0.6145892630322617 -0.2375921449604953
2720000000.0 -0.3402725155203373 -0.5718385122058796
2740000000.0 -0.290997822189844 -0.6036950311268294
2760000000.0 -0.03553426513154381 -0.6695150437359082
2780000000.0 0.6632766019505817 0.06960182419249923
2800000000.0 0.6001784699226025 0.27116878251955556
2820000000.0 0.16717259866966572 0.6245427348659666
2840000000.0 -0.59983331498867 0.20523014799528688
2860000000.0 0.2900042085226625 -0.5488832825184311
2880000000.0 -0.29850624727941055 0.5244267667250365
2900000000.0 0.5805277831737131 -0.08058787357277432
2920000000.0 -0.38686628958825064 -0.4136443952300118
2940000000.0 -0.4834195939922934 0.24062501126119437
2960000000.0 -0.08384077369776513 0.5120593758258122
2980000000.0 0.4256330470372316 0.251575684763268
3000000000.0 0.2369956854609939 -0.41011609948493527
3020000000.0 -0.3862283108379507 -0.2269491709646022
3040000000.0 0.3804552452357732 0.18832978361409522
3060000000.0 -0.0733232012402747 -0.38915723047485906
3080000000.0 -0.1456447294049339 0.34142075026720964
3100000000.0 0.14638721340590446 -0.3206880344084133
3120000000.0 -0.09769055015258862 -0.3222742056367397
3140000000.0 -0.05263756901848868 0.32884203360948494
3160000000.0 -0.04554098459695798 -0.3248680610825331
3180000000.0 -0.008326050918350945 0.3216388818269115
3200000000.0 0.16391518724333906 -0.2732724678239772
3220000000.0 -0.3049938827039817 0.039740954304306596
3240000000.0 -0.22713205807131143 0.1864625913644902
3260000000.0 -0.25723739818674923 0.10349901915882463
3280000000.0 -0.1445544197718457 -0.21988877854585323
3300000000.0 0.20448573968084796 -0.1390646074493816
3320000000.0 -0.04963172091646614 0.22037760100137668
3340000000.0 -0.20008670634961628 -0.06346446760115411
3360000000.0 -0.02159351723621203 -0.1805543096455795
3380000000.0 -0.15345526696203365 0.013456568023764956
3400000000.0 -0.014219243725120867 0.12969699335038878
3420000000.0 -0.10813063026463796 -0.04696639625626232
3440000000.0 0.10791542845145222 -0.02132746546749216
3460000000.0 0.0893800374675413 0.049139425023292375
3480000000.0 -0.08205794083518782 -0.0363044274829074
3500000000.0 -0.06456262847201297 0.048905058258392524
3520000000.0 -0.024812732146500417 0.06624479856975254
3540000000.0 -0.062392761643497774 -0.025364266755546386
3560000000.0 0.036052450343443426 0.058798676104872445
3580000000.0 0.07654683353976106 0.007784763202907107
3600000000.0 0.0017709054073576863 -0.08899417301199002
3620000000.0 0.046415689696052476 0.08843829353293986
3640000000.0 -0.016856648507924194 0.10644783810814033
3660000000.0 0.012085227663220751 0.11061724349108913
3680000000.0 -0.0009676654795683063 -0.11049550887633426
3700000000.0 -0.06285368556793501 -0.07721787749117842
3720000000.0 0.09049081984955158 -0.008228926430437059
3740000000.0 0.019264030859956437 -0.08006698942563754
3760000000.0 -0.034197296153941056 -0.0683555671863854
3780000000.0 0.026978295477236437 0.05962413351154259
3800000000.0 0.01679584160825126 -0.04015246336298669
3820000000.0 0.032174661411418004 -0.028250951591979424
3840000000.0 -0.033915827084543576 0.03453203835600164
3860000000.0 0.030258579917975138 0.06997000373205843
3880000000.0 -0.08747384721837384 -0.025500199305026772
3900000000.0 0.05331968279140138 -0.09026123830073994
3920000000.0 -0.09298714741707821 0.05439050367950326
3940000000.0 0.10339656255475754 0.030470261869265797
3960000000.0 0.03777832666887869 -0.0981770919623579
3980000000.0 0.002020059664214105 0.09959350473365025
4000000000.0 0.08202817383120731 -0.030487820162202233
