!Created with skrf (http://scikit-rf.org).
# Hz S RI R 50.0 
!freq ReS11 ImS11
400000000.0 0.8163353752913247 -0.323231358451165
420000000.0 0.7760199995951971 -0.3005752716452618
440000000.0 0.45758840644685334 -0.622472923400902
460000000.0 0.15603943077722687 0.6752766735083335
480000000.0 0.4473184047036579 -0.3856650024556683
500000000.0 0.4958618476260953 0.390463423203828
520000000.0 0.18948655726586056 -0.613747328238705
540000000.0 0.027258052233079665 -0.6045706932214714
560000000.0 0.5223155520184725 0.3324288827078038
580000000.0 0.3108772974506783 0.42301809231068804
600000000.0 -0.2814372188220277 0.5302498808846237
620000000.0 -0.4345648666798192 -0.42273711332599806
640000000.0 -0.43646664499484883 -0.34881489429816187
660000000.0 0.030043745078434346 0.5182192114570957
680000000.0 0.3449454810009194 -0.33061070799500186
700000000.0 0.3860829807652977 0.3178403924764959
720000000.0 0.49677745021896635 0.041577256161827135
740000000.0 -0.13971728203012235 0.4564606280594662
760000000.0 -0.054737532164341414 0.45730602426665573
780000000.0 -0.44061957761468146 0.09054081317143732
800000000.0 -0.08667966991326978 -0.3909653929821974
820000000.0 0.1517146832975289 0.32892824685185673
840000000.0 -0.31968359417955183 -0.08109865145251371
860000000.0 0.31119398830164824 -0.04424150918022456
880000000.0 0.10598541288047518 -0.2671793524460657
900000000.0 0.26228602919961724 0.06394512358285727
920000000.0 0.16595077143298875 -0.1963252225189643
940000000.0 0.11993917909287864 -0.18935067634945574
960000000.0 0.16481251859986823 -0.044258264925502284
980000000.0 -0.11168208875211182 -0.07891166567504683
1000000000.0 0.13204158240288935 0.0011728111313616188
1020000000.0 -0.09343628643393856 0.06622557459086861
1040000000.0 0.13163565071695843 -0.0017995673426466263
1060000000.0 -0.1489761889740866 -0.03996661445553058
1080000000.0 0.13605710626166823 0.1513999298745662
1100000000.0 -0.13985575182787557 -0.20332886953212193
1120000000.0 -0.0432250049932847 -0.276761282534601
1140000000.0 -0.30552177504319405 0.06763845209891059
1160000000.0 0.296261651903945 0.15744721948452675
1180000000.0 0.23836910890300717 0.23986628001630625
1200000000.0 -0.32234293893649707 -0.133354374421281
1220000000.0 0.3629442173923955 0.06988229925345184
1240000000.0 0.24315677541663278 -0.29477945205031825
1260000000.0 -0.08633808853518903 -0.38323190290201603
1280000000.0 -0.347450354686644 0.14489080371133983
1300000000.0 0.07689314394177094 -0.35956497971096013
1320000000.0 0.216897799665022 -0.3068313228340599
1340000000.0 -0.36643707477994186 0.03847206520323183
1360000000.0 0.14563222157282252 0.3577269307732483
1380000000.0 -0.031579644689191076 0.3921720226078831
1400000000.0 0.02381299356838676 -0.38182085613107836
1420000000.0 0.3481360101514357 -0.16058529405657218
1440000000.0 -0.07601251891577218 -0.38073973558958357
1460000000.0 -0.30964380035319333 -0.23220457504700742
1480000000.0 -0.03435966442285263 -0.3922423759773797
1500000000.0 -0.34958557532880874 0.17725802182657924
1520000000.0 0.11167779272681849 -0.36837523005113687
1540000000.0 0.07061309472772039 0.3544801747557777
1560000000.0 -0.2685804830549901 -0.18910311722518286
1580000000.0 0.26726820077979785 0.1242883088374691
1600000000.0 0.2522978715262091 -0.0718895621444691
1620000000.0 0.1188105104986409 0.17819577171482165
1640000000.0 0.14159523104119456 0.12174194300464411
1660000000.0 0.15745328842686648 0.02985309472249449
1680000000.0 -0.11476424284724879 -0.041838084403010144
1700000000.0 0.11040215522506105 0.0465237983370301
1720000000.0 -0.02980556399108696 -0.0870110367293227
1740000000.0 0.07610374856680836 -0.03057409895976371
1760000000.0 -0.028255480574529375 0.08915448750917708
1780000000.0 -0.10157422051280962 0.03711150628824939
1800000000.0 0.1029236369397425 0.07586622361442634
1820000000.0 -0.011572857715024967 0.15836095220168692
1840000000.0 -0.01989029617535224 -0.1907065650253514
1860000000.0 -0.002525960825519925 0.2185375461549333
1880000000.0 0.24310202863255695 0.06677295473270049
1900000000.0 0.26699156668516494 -0.0498123225150089
1920000000.0 0.031547313894230815 -0.2904984400880459
1940000000.0 -0.3045617588581172 0.031161537894877314
1960000000.0 0.1424437551085223 -0.2743212237990572
1980000000.0 -0.3014836476567851 0.0792983795070794
2000000000.0 0.04799021255834329 -0.3177761398480036
2020000000.0 0.28483218270960436 -0.15328014097514606
2040000000.0 0.31551957158596616 0.07305745412584196
2060000000.0 0.2346466881139838 0.2216784629333982
2080000000.0 0.034139699429759834 0.3246798071524597
2100000000.0 -0.03674994274175762 -0.32113101116128095
2120000000.0 0.22789463412529726 0.22209854681627522
2140000000.0 -0.24589709158501563 -0.20401036818750737
2160000000.0 0.12302108247363894 0.2932515943746238
2180000000.0 0.24540559811114313 -0.18866185276436098
2200000000.0 0.18777862467109596 -0.23966403242318318
2220000000.0 -0.03225899417590816 -0.2946346334544424
2240000000.0 0.2894346171691562 0.005198333315520756
2260000000.0 -0.034979176976658415 0.2748748549973133
2280000000.0 -0.12166763535784571 0.24096781760264646
2300000000.0 -0.08606166224642264 -0.23363063376750048
2320000000.0 -0.18801985276898872 0.15701214430625413
2340000000.0 0.1000713757141231 -0.22404034040406573
2360000000.0 0.01869782060184355 0.2442044689239994
2380000000.0 -0.07421695480592591 -0.24624077448151127
2400000000.0 -0.280896803111989 0.021239042001698013
2420000000.0 0.22821589696618533 0.19558278557441666
2440000000.0 -0.17416325072527275 -0.27673576160196484
2460000000.0 0.14841254005839233 0.3219107706068223
2480000000.0 0.13185792005736738 -0.36831934968899527
2500000000.0 0.3292711777435996 0.271026385046609
2520000000.0 -0.43565475962418027 0.1513235682198894
2540000000.0 0.19939675833475282 -0.45148261997713
2560000000.0 0.09979679768216797 0.5156748434101598
2580000000.0 -0.30313586762489325 -0.46235919017252536
2600000000.0 0.36455006742257684 0.4462096171168112
2620000000.0 -0.3567124593418055 -0.47656256509739087
2640000000.0 0.4602005496307605 0.4020973742982248
2660000000.0 -0.6256883249611285 0.02787204755607598
2680000000.0 0.09173657045972519 -0.6277756632707362
2700000000.0 0.6384932636150563 -0.07588879841388467
2720000000.0 0.6084916036489888 0.21967894768305363
2740000000.0 0.619901044833075 0.18932848408461403
2760000000.0 0.48988226831218507 0.4242700835896305
2780000000.0 -0.5043008809752079 0.39909021943741024
2800000000.0 -0.6136503967519055 0.15933264304158296
2820000000.0 -0.39392064544980504 -0.48164890098539953
2840000000.0 0.5621183457825633 -0.23514563848993783
2860000000.0 -0.38753593283743976 0.4496410485876069
2880000000.0 0.534206560393081 -0.20875414095149572
2900000000.0 -0.30659143512548814 -0.45938625637525016
2920000000.0 -0.5259628166373044 0.05527601483600244
2940000000.0 -0.32267932674021155 0.3808167184298018
2960000000.0 -0.34338299612368334 0.3257473655356694
2980000000.0 -0.31081329987058914 0.3240583161656147
3000000000.0 -0.19955754238275078 0.3749510856856765
3020000000.0 -0.026356157656940334 0.4021934840259584
3040000000.0 0.24333844959806897 0.29624744034351425
3060000000.0 0.31065499107003236 -0.19592768619724865
3080000000.0 -0.31616611580767157 -0.16681834329175738
3100000000.0 0.21751738236554258 0.2693319871796232
3120000000.0 0.27880082956621244 -0.20013296813370451
3140000000.0 -0.3174346454023409 0.12464191789978991
3160000000.0 0.3417757604350918 -0.008416019419888959
3180000000.0 -0.329127831975168 0.1023539742236464
3200000000.0 0.03952101918097079 0.3403992681644887
3220000000.0 0.2116719345846821 -0.26670984730534425
3240000000.0 0.04492896866245315 -0.3319666151574778
3260000000.0 -0.16172671298816832 -0.2848186599314858
3280000000.0 -0.3176845997406154 0.017631328911755173
3300000000.0 -0.1873384757504047 0.23465274062349747
3320000000.0 -0.07764570317539428 0.2619981997259114
3340000000.0 -0.2479450922230969 -0.03360485412712199
3360000000.0 -0.21811116026541066 0.036377096093268974
3380000000.0 -0.059359419265790136 -0.1835254296259157
3400000000.0 0.002829181559215119 -0.16869648614177069
3420000000.0 0.03127979431416753 -0.13801404010686483
3440000000.0 0.03920428014650566 -0.11224269528173109
3460000000.0 0.09371040439249843 -0.014652499124012437
3480000000.0 -0.07689881847419663 -0.013110290426445948
3500000000.0 -0.06817420537922256 -0.0199216657362874
3520000000.0 0.03309091837099384 -0.0625252162870908
3540000000.0 0.005544458364699017 0.07929816156368727
3560000000.0 0.04031054557197757 0.07435522648902104
3580000000.0 0.07692471684983082 0.0550291069066509
3600000000.0 0.0722007426380461 -0.07576821836730438
3620000000.0 0.11987136887755565 -0.009330157102232603
3640000000.0 0.08605601010744708 -0.10348947611499097
3660000000.0 -0.07215528455146723 -0.129508348356409
3680000000.0 0.1265154242206902 0.08378322048243303
3700000000.0 0.03745694052566784 0.13885124120943876
3720000000.0 0.11463916592192142 0.06022324267700854
3740000000.0 0.10150713231850926 0.018620912582186847
3760000000.0 -0.01718018313239135 -0.07925614461688701
3780000000.0 0.04249340415531719 0.040906804788201905
3800000000.0 0.0055750179815395404 -0.026721459228925028
3820000000.0 0.004886614495329644 0.011561376375502374
3840000000.0 -0.04922706261924228 -0.0002796083890732644
3860000000.0 -0.06335956396658407 0.04750955305333172
3880000000.0 0.060349912822848496 -0.08771358080677302
3900000000.0 0.0686506288304312 0.10966515934312467
3920000000.0 -0.11357243866622771 -0.08905744333007981
3940000000.0 -0.09424127061986011 0.12030288004035274
3960000000.0 0.1568706244779366 -0.015520711002228939
3980000000.0 0.026213241001555084 0.14513035333140503
4000000000.0 0.06228967157071542 -0.10657428380685686
