!Created with skrf (http://scikit-rf.org).
# Hz S RI R 50.0 
!freq ReS11 ImS11
400000000.0 -0.7208711012953846 -0.04121292006250809
406500000.0 -0.14808632943640387 -0.6934768587398215
413000000.0 0.6357512972510521 -0.25930466553993026
419500000.0 -0.4672121892881452 0.4796287839008578
426000000.0 0.5888536043467717 0.2858554986563369
432500000.0 -0.5338797808774166 -0.3595850717257818
439000000.0 0.6287930423242503 -0.08208953999488083
445500000.0 -0.5892919338212657 0.20940756653454873
452000000.0 0.4478237022877793 -0.42448849576788583
458500000.0 -0.009740539697836234 0.6212948931521849
465000000.0 -0.5809111840431282 -0.2241565866942221
471500000.0 -0.5471393501161135 -0.2986785647896815
478000000.0 -0.5038174596199937 -0.33933368695182897
484500000.0 -0.0020215118714286273 -0.5965189709436041
491000000.0 -0.04572154421391353 -0.5812785133664019
497500000.0 -0.18728076972277907 -0.5321763069232633
504000000.0 -0.46997525613411484 0.251201001331793
510500000.0 0.0019768970026786585 0.49734610688233943
517000000.0 0.4439846670509107 0.10528192943129501
523500000.0 0.27136859594355955 0.32914828201427687
530000000.0 0.1668231441802099 0.3490290915418944
536500000.0 0.27577231744410835 -0.21166801743416971
543000000.0 0.22560127810803324 0.24198016486519297
549500000.0 -0.0528417338517107 0.3098092336141536
556000000.0 0.21567091413963133 0.20041695711700636
562500000.0 -0.2619025947673492 0.1102893540640952
569000000.0 0.009972082897334185 0.2751135396149752
575500000.0 -0.26859836912157314 -0.03446141183489568
582000000.0 0.2073188430634119 0.17556266578832436
588500000.0 0.20129043852583756 0.19356411958072758
595000000.0 -0.1408889240805385 -0.25856314605419217
601500000.0 -0.2630949154765183 -0.1397146594727522
608000000.0 -0.16961911663096535 -0.2404454100958723
614500000.0 -0.2146221399812763 -0.20514203614633686
621000000.0 0.03448779082124728 -0.28955789501203627
627500000.0 0.20054043855139447 0.21243522973869114
634000000.0 -0.2827013301829821 0.10672907400044652
640500000.0 -0.2389571941155398 -0.17563236900598278
647000000.0 0.2848987778421173 -0.0929133477729068
653500000.0 0.1943998866284314 0.2280295346022046
660000000.0 -0.2875348179076834 -0.07911011003922387
666500000.0 0.10516072307165858 -0.28227701607518885
673000000.0 0.23358635454139354 0.18311766734643578
679500000.0 0.1901563583139335 -0.23250716510159855
686000000.0 0.26229605869808376 -0.1274763151608981
692500000.0 -0.25858536132076304 -0.12781041662332104
699000000.0 0.26869429500341063 0.09864800060730147
705500000.0 -0.16170844182266125 -0.24000992370803856
712000000.0 0.02695828250608863 0.29385679053713226
718500000.0 0.24750436750117863 -0.170542298658517
725000000.0 -0.23856836568981454 0.207597886904677
731500000.0 0.13684985865490934 -0.28950122145706014
738000000.0 -0.011299293861679119 0.332665311262581
744500000.0 -0.32419674315428404 -0.07856053670008832
751000000.0 0.26494921986563374 0.20428104619450152
757500000.0 -0.15110994284744528 -0.3077081617744865
764000000.0 -0.03827435591023912 0.34917039838953157
770500000.0 -0.28728044821138415 -0.21673509901363117
777000000.0 0.14689885753191978 0.33194471414481797
783500000.0 -0.26267034825770014 -0.24686155079102762
790000000.0 0.09714123788419264 0.34682896545774683
796500000.0 -0.00022791809737641476 -0.3631643232054538
803000000.0 -0.354236248071662 -0.04683134137589879
809500000.0 -0.12157950799903584 0.3364817481547299
816000000.0 0.35893960156060317 0.05661888248846634
822500000.0 0.15537528390027833 -0.33938278936996513
829000000.0 -0.3401259555528164 0.18597075264563795
835500000.0 -0.3525440348929229 0.18377487240208343
842000000.0 0.3988250297680486 0.10516936903771301
848500000.0 -0.19003907418466853 -0.3684410938129397
855000000.0 0.11003562404556101 0.4124156507384635
861500000.0 0.04541789760724721 -0.428097436897374
868000000.0 -0.2986776556337842 0.3194299195447892
874500000.0 0.17130430467134408 -0.4038155697808175
881000000.0 -0.2450181136098731 0.3694745971720837
887500000.0 0.10713451095375123 -0.4349101120537346
894000000.0 0.11584432404700087 0.43096995033139324
900500000.0 -0.41414030362320564 -0.14461048215707586
907000000.0 0.19685449337800878 -0.38353164807105056
913500000.0 0.2117629355981378 0.35973675541561595
920000000.0 -0.3775256114082898 0.15869049450732647
926500000.0 -0.3995482853179265 -0.024344563363630348
933000000.0 -0.33493256988993514 -0.1920718958090529
939500000.0 -0.36123623731334026 0.09244162122456741
946000000.0 -0.23971812794866595 0.25246400462770074
952500000.0 -0.17829453905120377 0.26847907894402007
959000000.0 -0.20860214595806875 0.21560122904448356
965500000.0 -0.22906978211208304 0.16101469851658431
972000000.0 0.26057402019769527 -0.048248316622789784
978500000.0 0.11901158907699395 0.22715801081876646
985000000.0 0.0682447486388276 0.23086757650343262
991500000.0 -0.09031680897716353 0.20922488623389257
998000000.0 -0.19976613349989908 0.07810710861244868
1004500000.0 -0.17646265755590726 -0.09865114403917485
1011000000.0 0.1367316360807524 -0.12715687033623463
1017500000.0 0.052444706981064584 0.16290639702375675
1024000000.0 -0.12617295558804897 -0.08618757259728817
1030500000.0 0.13137664466866217 -0.040864855870552
1037000000.0 0.10763841072509985 -0.06643834294187362
1043500000.0 0.11151076867903653 -0.04549138069401218
1050000000.0 -0.03417983375373265 0.10964667434987883
1056500000.0 0.09777730749460023 -0.05334501413605968
1063000000.0 -0.03027159644874602 0.10159053231541378
1069500000.0 0.0932300901531896 0.03459291461995914
1076000000.0 -0.032537265959147556 -0.08937161010817912
1082500000.0 0.06197157342906296 -0.06690919794145486
1089000000.0 -0.08956655241536297 0.011452391731769452
1095500000.0 -0.07004309075984919 -0.05758424991948018
1102000000.0 0.0810227570296839 0.05773746512561037
1108500000.0 -0.030284796636223268 -0.10395933327178533
1115000000.0 -0.08158227789043686 0.08907714644095599
1121500000.0 0.013643729413473651 -0.13932166201864674
1128000000.0 0.1471548902299144 0.05753733810012895
1134500000.0 0.04159354774763757 0.17054523038505504
1141000000.0 -0.18631265110619735 -0.03465781294074207
1147500000.0 -0.19990256228504413 -0.04627478168672468
1154000000.0 -0.09044493940414232 -0.18808540100971477
1160500000.0 0.2099663825372225 -0.027736003519749343
1167000000.0 -0.20196658455430572 0.07296081103149817
1173500000.0 -0.008196317011123654 0.21443107338121198
1180000000.0 0.21130285673907645 -0.06878224261633413
1186500000.0 -0.19266162550372462 -0.12099686127556858
1193000000.0 -0.10398321631130696 0.21300721871187278
1199500000.0 0.2335371723696151 -0.0828539369653968
1206000000.0 -0.1517635968982616 -0.2135965130382993
1212500000.0 0.22831249410451768 0.15537409092511434
1219000000.0 -0.2735043460216734 0.10451913506388326
1225500000.0 0.22522529789938242 -0.19549135720084318
1232000000.0 -0.3057147507749312 -0.007389556601405857
1238500000.0 0.03741763571740783 0.3122602087820993
1245000000.0 0.3022415652692254 -0.09998520063536745
1251500000.0 -0.08723963476515884 -0.31440812739064583
1258000000.0 -0.3253600064352834 0.06202391327959613
1264500000.0 -0.2391512740376966 0.23074727267834047
1271000000.0 -0.004815344980246869 0.33895166036224084
1277500000.0 0.2620720914510436 0.22306858515207997
1284000000.0 0.3472754538437439 -0.04528188698007547
1290500000.0 0.11969044380029088 -0.33202341803816804
1297000000.0 -0.30918673679759057 -0.18163056245762949
1303500000.0 -0.2478554714672211 0.2525808123643823
1310000000.0 0.05355990232941625 0.34897073119041
1316500000.0 0.26490240642185786 -0.2315376678898017
1323000000.0 -0.07298362010725877 -0.3395854728082242
1329500000.0 -0.19458623590454419 0.28434494691314943
1336000000.0 0.1925189284260802 0.2760097793570041
1342500000.0 0.13175239752852366 -0.3048759403312927
1349000000.0 -0.3205356681759913 -0.07413049581763316
1355500000.0 -0.22646913976753782 0.23848379635710418
1362000000.0 0.2895375503151413 0.15684217623526017
1368500000.0 0.043390820429308564 -0.3331824187892284
1375000000.0 -0.21745068926101305 0.2678748639001592
1381500000.0 0.25896279419426044 -0.23385432748751836
1388000000.0 -0.3457174405036505 0.08840088519506459
1394500000.0 0.3337093060479036 0.13493099744077816
1401000000.0 0.34530371200392523 0.11646026280709106
1407500000.0 0.02766278363261555 -0.36824803899389086
1414000000.0 -0.3166323375424635 -0.1933970635524079
1420500000.0 -0.26187689868997305 0.27105752511614256
1427000000.0 -0.2815369613783876 0.2516474044333223
1433500000.0 -0.1876015113948476 0.338554113910194
1440000000.0 0.08880761838375033 0.37820548863744385
1446500000.0 0.25696363438852804 0.2966441787851864
1453000000.0 0.39166011390372907 0.004388834017611088
1459500000.0 0.25411200296664244 -0.2905864783314146
1466000000.0 -0.06583378208316701 -0.3743500709692093
1472500000.0 -0.13187989014424992 -0.34664637262376125
1479000000.0 -0.30000750099369133 -0.19737737895054455
1485500000.0 -0.3293515160690891 -0.11238955132018368
1492000000.0 -0.3301116330991225 -0.06446003164812414
1498500000.0 -0.29729342377673973 0.13444097321600929
1505000000.0 -0.2031208062296796 0.24334901117139673
1511500000.0 0.3117053921300291 -0.014709150587053755
1518000000.0 -0.1169517496180332 -0.27697276859987785
1524500000.0 0.07573311655381301 0.28165798527992386
1531000000.0 0.09673917766054248 -0.2624405379641331
1537500000.0 -0.2137818773600351 0.16951011609119981
1544000000.0 0.23888913406027606 -0.11433314094722875
1550500000.0 -0.1760871761696883 0.1954577577081884
1557000000.0 0.1792128650595403 -0.18266684978383327
1563500000.0 -0.23647117641042642 -0.09416562011426045
1570000000.0 -0.2515584335870083 -0.04568400740126289
1576500000.0 -0.02503264939931669 0.25329601423489523
1583000000.0 0.2375827052745984 0.10545070160004202
1589500000.0 0.24726258809734855 -0.07903247447915561
1596000000.0 0.005836489114320513 -0.26115533003856745
1602500000.0 -0.1151393914204064 -0.2332169516426412
1609000000.0 -0.1995522648413668 -0.16642023051390673
1615500000.0 -0.25225423488383036 -0.01726436722330929
1622000000.0 -0.09623244352048038 -0.22954164300460017
1628500000.0 0.0033111559903740897 -0.241462356763764
1635000000.0 0.1957430706977325 -0.12419578986099289
1641500000.0 0.1723453358386499 0.1445928355009867
1648000000.0 -0.13249629200325355 0.17506476632840093
1654500000.0 -0.18910419181810992 -0.09965072433231151
1661000000.0 -0.19704763830168665 0.06355516983299965
1667500000.0 -0.16406412309247512 0.10884227299449145
1674000000.0 0.13516828102250691 0.12621719842174395
1680500000.0 0.1318987912894922 0.10500014105312797
1687000000.0 0.11084958913747522 -0.11080231240013987
1693500000.0 -0.0647146046163875 -0.12860775009718536
1700000000.0 0.09918854949911766 0.09389882123255662
1706500000.0 -0.0486640555087721 -0.11793723207875256
1713000000.0 0.03293436923313026 -0.11781899330653861
1719500000.0 0.09453539695092848 0.07122854635788815
1726000000.0 0.11439808001498844 0.009042171074474858
1732500000.0 0.10624176059310687 0.02428452837083673
1739000000.0 0.07173789913085174 0.07940279311403046
1745500000.0 -0.08784640559199386 -0.048436888015706364
1752000000.0 0.08525564044372369 0.048636285218250086
1758500000.0 0.059923279599106496 0.07247954423712184
1765000000.0 -0.08984070085177391 0.025220832757515126
1771500000.0 0.08614647075708545 -0.03346801333177714
1778000000.0 -0.07278478591450877 0.0625422250231437
1784500000.0 -0.10176111789470801 -0.013312904483098407
1791000000.0 0.04358321435918774 -0.09863826005988148
1797500000.0 0.06633721480190158 -0.08743303905570707
1804000000.0 -0.05936852175439156 -0.09273938141885728
1810500000.0 -0.1064486714917651 0.015277322540781912
1817000000.0 -0.0888979495939025 0.04046234532495141
1823500000.0 0.07473242817228347 0.0474090474437601
1830000000.0 -0.0693669212936128 0.028706779542029954
1836500000.0 0.06145256917576111 -0.023309829938526178
1843000000.0 -0.018418114592674673 0.047855844561791004
1849500000.0 0.018200335609424096 0.0408727046779792
1856000000.0 -0.00904696832089313 0.03893430486357281
1862500000.0 0.022847494198074005 0.027308451738254438
1869000000.0 -0.030768943619255116 0.009714707131986381
1875500000.0 0.001411029497590979 0.030458075308958783
1882000000.0 0.015514314140493904 0.018405462139804492
1888500000.0 -0.024480918315796043 -0.0054945817106249305
1895000000.0 0.028192643422089773 -0.0005333786341099191
1901500000.0 0.025931265189197677 0.017570135133612722
1908000000.0 -0.008610632214377389 -0.02817845107125621
1914500000.0 6.665692350677562e-05 0.03049409256879148
1921000000.0 0.012533374773773835 0.02483909756803907
1927500000.0 0.003182692119669463 0.024212438465797653
1934000000.0 -0.01693883863493864 -0.014650475294007705
1940500000.0 0.005734811955861112 -0.017158667137937653
1947000000.0 0.009781410930394252 -0.016525274816927553
1953500000.0 -0.012772078543339354 -0.016561879375279514
1960000000.0 -0.01602994654067069 0.015339436402593878
1966500000.0 -0.008200754650184014 -0.032017349692096214
1973000000.0 -0.023000166535674955 0.039081028776657714
1979500000.0 -0.0355531201926774 0.045067577488852574
1986000000.0 0.0686064525565114 -0.028060538483502647
1992500000.0 -0.08501562539666728 -0.004554452913655552
1999000000.0 0.0972975895360337 0.0003011648827512051
2005500000.0 0.0832881616301907 -0.06582760731153374
2012000000.0 0.07806823469213553 -0.08184103792865155
2018500000.0 0.11681666247850721 0.010749522183088823
2025000000.0 -0.021119177979540448 0.12179282523905532
2031500000.0 -0.09120704391887573 -0.08545062077617922
2038000000.0 0.12182636817028228 -0.03839092614809997
2044500000.0 -0.06304977654193926 0.11571044375505606
2051000000.0 -0.103251834841726 -0.08599883467364497
2057500000.0 -0.0642642955103413 -0.11794558597177429
2064000000.0 -0.0002510039998923582 -0.13471215409896437
2070500000.0 -0.09211434837201671 -0.09550841894434887
2077000000.0 -0.12501546392332613 0.0208675667911203
2083500000.0 0.09340457923728947 0.07741787121111088
2090000000.0 0.054666729454777754 -0.10174971642024451
2096500000.0 -0.007296099135649117 0.11217586157657795
2103000000.0 -0.09053391054244576 -0.055607676582666354
2109500000.0 -0.035346417027146707 -0.09913281306967013
2116000000.0 -0.10389472794802403 -0.022652063241144573
2122500000.0 -0.044179579625012184 0.10135344664426735
2129000000.0 0.013352095493111386 0.11841783969157031
2135500000.0 0.07953561016209489 0.09820731104904397
2142000000.0 -0.1004994563038619 0.09509006538926865
2148500000.0 0.13740491030470287 0.06385397815738507
2155000000.0 -0.16755688113725514 0.016668971000101493
2161500000.0 0.1598803314921526 0.08789042365435111
2168000000.0 -0.07158551160126093 -0.18656669766277206
2174500000.0 -0.21094267415999665 -0.03252638924314042
2181000000.0 -0.13574117258119833 0.18038535198673872
2187500000.0 0.19036645866311744 0.14248115642975778
2194000000.0 0.22844504753741432 0.09259648490954665
2200500000.0 0.2547217369174397 0.015257535468639949
2207000000.0 0.17187961408675081 -0.19038518751746933
2213500000.0 0.22247659163355477 -0.12739372396186716
2220000000.0 0.2451117744425851 -0.07014203904471372
2226500000.0 0.1808453791875052 0.17106684462766952
2233000000.0 -0.019294644081730254 0.24438163942439342
2239500000.0 -0.23157367734331666 0.07576480004404187
2246000000.0 -0.21612618993012567 0.09880659048782085
2252500000.0 -0.20190897645224887 0.10955305631048211
2259000000.0 -0.0637780472168676 0.2140353748885574
2265500000.0 0.14693493292406087 0.15808191209665653
2272000000.0 0.20083407867173517 -0.045051622460545615
2278500000.0 -0.18616026970546454 -0.059092354308637234
2285000000.0 0.003547359426446652 0.18576130058426277
2291500000.0 0.047102317636036554 -0.1694719678505125
2298000000.0 -0.16584410502859903 -0.01423778759717482
2304500000.0 0.1592892845131558 0.03132802043200951
2311000000.0 -0.052045556451045256 -0.14734004817743895
2317500000.0 -0.08819867576950417 -0.12732974334871305
2324000000.0 0.10211771691758528 0.11825814040005338
2330500000.0 -0.15494165762447665 -0.011650413807838385
2337000000.0 0.003099622051292972 0.15555359690401044
2343500000.0 0.015582101868483808 -0.15630134125348816
2350000000.0 -0.15554321277196365 -0.02738039989231874
2356500000.0 -0.0860309731662896 0.1329718608337624
2363000000.0 0.025893901379957396 0.15962139799654146
2369500000.0 0.15527725297945658 -0.044387168813170334
2376000000.0 0.16024729610474167 0.008523634940512103
2382500000.0 0.1574870278050291 0.02163598923781462
2389000000.0 0.10325965023341858 0.12150425610412793
2395500000.0 -0.04689080237745078 0.15176838874125728
2402000000.0 -0.15307308451629673 0.045529650740616275
2408500000.0 -0.15717405883729477 0.039513087298124375
2415000000.0 -0.12507555920651622 0.10303885942362402
2421500000.0 -0.11290110228865562 0.114864944482019
2428000000.0 0.053685157572656746 0.14975158304346475
2434500000.0 0.14578109060618155 0.05294603112360885
2441000000.0 0.1416665391432545 0.060389344228181895
2447500000.0 0.12510027041000055 -0.08427375319866558
2454000000.0 -0.006840123123384617 -0.149638777150708
2460500000.0 -0.020967561233766165 -0.14605936506805325
2467000000.0 -0.022232928814255565 -0.14582258998221126
2473500000.0 0.004305428723362329 -0.14506885149229792
2480000000.0 0.0650343730680051 -0.13136102266269326
2486500000.0 0.148277883719699 -0.012027419843396269
2493000000.0 -0.03783775706188435 0.14564552219555071
2499500000.0 -0.12518133313006669 0.08394545088815392
2506000000.0 -0.15549429032338555 -0.012433551280049337
2512500000.0 0.13434379992780685 -0.07889541268026355
2519000000.0 -0.04786032641720205 0.15361394912404275
2525500000.0 -0.08897136802092027 -0.13830145919607106
2532000000.0 0.16829229713409039 0.01625585574193398
2538500000.0 -0.1539004928369119 0.07078995571986929
2545000000.0 0.009893001698906027 -0.17105111696999192
2551500000.0 0.03039181644496724 0.16605613967197727
2558000000.0 0.1285219806666617 -0.11013070200414259
2564500000.0 -0.1370109964804645 0.095898017590198
2571000000.0 0.15870746605868732 0.046822901248962316
2577500000.0 -0.041875230675984455 -0.1583002632033978
2584000000.0 -0.10180688977169512 0.1252733286251062
2590500000.0 0.15440579258815604 0.03423314499441347
2597000000.0 -0.07489301584974355 -0.13495952195448502
2603500000.0 -0.10703532021356249 0.10729205999819187
2610000000.0 0.12056012841524885 -0.08354927454316126
2616500000.0 -0.13115815529868183 0.05392249841183703
2623000000.0 0.13115618540760224 -0.030887025269295994
2629500000.0 -0.12113412372929161 -0.038262799821944006
2636000000.0 0.11764930747507082 0.008758302995508293
2642500000.0 -0.109925613563621 -0.008749185738789977
2649000000.0 0.10349724338520748 -0.016465405393957036
2655500000.0 -0.0478260576026263 0.08617404806840617
2662000000.0 0.07017773943229177 0.06312281960562965
2668500000.0 -0.039904697699188106 -0.08177283390776766
2675000000.0 0.08143056371263621 0.025414907635790757
2681500000.0 0.08027357304555854 -0.013176247245810211
2688000000.0 0.07073813212041104 0.037102788079568606
2694500000.0 0.057114282254130004 -0.057926478181553304
2701000000.0 -0.08187804172730144 -0.009945097622796084
2707500000.0 -0.04418270926208573 -0.08163476422113908
2714000000.0 -0.06314124968351116 0.07850737968567248
2720500000.0 0.10162188614064759 0.053855839600435496
2727000000.0 0.06174832727789085 -0.11209612843174294
2733500000.0 0.06539537541703817 -0.12685303178948132
2740000000.0 -0.026317355225941308 -0.1559071325295463
2746500000.0 -0.04256191008897376 -0.16520098869119104
2753000000.0 0.09576896852726428 -0.1571394400680211
2759500000.0 0.1912831560683891 -0.01632971935427089
2766000000.0 -0.1563799460481913 0.12375523138490298
2772500000.0 -0.022694703509892153 -0.20687753232751543
2779000000.0 -0.1400341116914982 0.1663366301104774
2785500000.0 0.013924145571753217 -0.22675350879158504
2792000000.0 0.029686258058857464 0.23402607274722423
2798500000.0 -0.2444632011232585 -0.032992495224807405
2805000000.0 0.09617100651219102 -0.2327930495540369
