!Created with skrf (http://scikit-rf.org).
# Hz S RI R 50.0 
!freq ReS11 ImS11
400000000.0 0.796480442189465 0.35141718161267976
420000000.0 0.2583797144368122 0.7770439887760766
440000000.0 0.2646675488128203 0.7132855560826729
460000000.0 -0.6516380306873673 -0.233782585126011
480000000.0 -0.4601189155490398 -0.4018101996002307
500000000.0 0.636839229306348 -0.13411913461048228
520000000.0 -0.25644053414925394 0.6194633746696961
540000000.0 0.544190098621992 -0.40369647271615255
560000000.0 -0.0769377043844752 0.659514821040917
580000000.0 -0.35278295224386835 0.3826093880090798
600000000.0 -0.013415999564408415 0.5841751550782684
620000000.0 -0.46167208752343075 -0.3945646203008774
640000000.0 -0.22684733702630044 -0.511681351155152
660000000.0 -0.45954847514062963 0.24253512875286076
680000000.0 -0.4765561028809586 -0.11905273264958262
700000000.0 -0.04058674911722477 0.4619533448963082
720000000.0 -0.3393151852165944 0.3666953692976456
740000000.0 0.34022154077346045 0.34194967446461
760000000.0 0.3938317109200053 0.23300906751469647
780000000.0 0.20454838399713007 0.3857503053146321
800000000.0 -0.3693016715256292 0.13886349117726585
820000000.0 0.3487109570481955 0.037193170706926945
840000000.0 0.31982583323195757 -0.018005809454547727
860000000.0 -0.25592998438380316 -0.12796309471278397
880000000.0 -0.05065861381806796 0.2558737173051258
900000000.0 -0.23837397125043483 0.10613711406632627
920000000.0 0.1568943530177582 0.19126244508990162
940000000.0 -0.054544475157996784 -0.21403309114703836
960000000.0 -0.042705936526490136 0.168856078507564
980000000.0 0.12957339288411127 0.08411229083820627
1000000000.0 -0.11911690764999178 -0.07477976480055917
1020000000.0 0.05676816010868549 -0.09066528901697432
1040000000.0 -0.063841100308809 0.10092313291780146
1060000000.0 0.13968999632975643 0.063106165548899
1080000000.0 0.029419451320784513 -0.1963221273800968
1100000000.0 0.22089742726240175 0.09123844151229125
1120000000.0 0.27760481256831754 0.017503597057368904
1140000000.0 -0.28601651150303153 0.09905423179592439
1160000000.0 0.05897797630107539 0.3147760938646251
1180000000.0 -0.2481317641272928 -0.22372611964010694
1200000000.0 -0.3475168196312544 -0.08298330481582673
1220000000.0 0.08288632739430819 -0.3460279368169442
1240000000.0 0.2904844240321989 0.23035938281360668
1260000000.0 0.3792220318266402 0.059515646949871194
1280000000.0 -0.23623843834564198 -0.30185852009816105
1300000000.0 0.14198672409329033 -0.3521185841132805
1320000000.0 0.3383444327730707 -0.16916421654411226
1340000000.0 -0.3551883166543412 -0.12699895042884868
1360000000.0 0.2971305677608291 0.25652357549970434
1380000000.0 0.07893323494761073 0.3942433178450242
1400000000.0 -0.1338258891487409 -0.36889288062798437
1420000000.0 -0.06728384514734621 -0.3828406159004997
1440000000.0 -0.261453009711122 -0.2936116002704236
1460000000.0 -0.36199844221107025 -0.15181844720588053
1480000000.0 -0.05806851005204637 -0.3920533203418614
1500000000.0 -0.14744314927986435 0.3773733568169708
1520000000.0 -0.36387498455257067 0.1493465389386307
1540000000.0 0.26686144245048143 -0.2490724950744422
1560000000.0 -0.11343014215588887 0.31050521390358565
1580000000.0 -0.24031448364738925 -0.16541895935844103
1600000000.0 -0.10365335048760915 -0.2319113735724135
1620000000.0 0.21365580758516436 0.02062892323529436
1640000000.0 -0.1827229547381382 -0.026577874734796208
1660000000.0 -0.14878665680373435 -0.02591795152238327
1680000000.0 0.02388797274018258 0.11317662781685377
1700000000.0 -0.07364078731670096 -0.0741229079950832
1720000000.0 -0.07830794679126665 -0.008115813101236007
1740000000.0 -0.05629421568010725 -0.053687155309260326
1760000000.0 -0.03339629838617149 -0.08001278281294559
1780000000.0 0.10361044314250234 0.044903482182984504
1800000000.0 0.14004200032929937 -0.011449548776899602
1820000000.0 -0.12374491136744704 0.11815195134691962
1840000000.0 0.18892122741757897 0.042692879659301596
1860000000.0 -0.21116406659742326 0.07688148148149085
1880000000.0 0.1074798449916977 0.23364727658165058
1900000000.0 0.2039448412988953 0.18087145334573076
1920000000.0 0.22019032580352807 -0.19379321614944922
1940000000.0 -0.3029174477492897 0.031126593906161272
1960000000.0 0.2644694016883711 0.15585206053076908
1980000000.0 -0.19665133356770495 -0.24771034566847513
2000000000.0 0.18263748384462433 -0.27020096936149457
2020000000.0 0.28324060286617286 -0.15367528778385792
2040000000.0 0.3187648943391532 -0.023517904201524765
2060000000.0 0.3160468969452121 0.019484249826988893
2080000000.0 0.25117506585615407 0.18774480933488066
2100000000.0 0.11980085509157934 -0.2828711344332742
2120000000.0 0.08659642797569789 0.2916922138606484
2140000000.0 0.0059839598939604366 -0.3013170500989774
2160000000.0 -0.29124890180985774 0.06511804419049015
2180000000.0 -0.010979267947949118 0.29147419820051723
2200000000.0 0.053463039951174796 0.28311132757784524
2220000000.0 -0.10837439275216229 0.2602062922697193
2240000000.0 -0.26532207833846333 -0.07546953038552102
2260000000.0 0.24123261060487639 -0.11871331953130096
2280000000.0 0.2344652184786114 0.1379290939101243
2300000000.0 0.11289152551753678 0.2336452686564893
2320000000.0 -0.18929217888738106 -0.1773652008588149
2340000000.0 -0.09785005473654078 -0.23547936287762983
2360000000.0 0.2518590115858312 -0.003215971366560054
2380000000.0 -0.07522277136594362 0.2485135073409375
2400000000.0 0.21434120402280388 0.17589141155508475
2420000000.0 0.17127120397564588 -0.240031674008047
2440000000.0 -0.2870214327506662 0.13855119648209244
2460000000.0 0.30846136018691256 -0.1406961132062646
2480000000.0 0.09727898185285132 -0.35952018910600136
2500000000.0 0.20825351540985715 0.3518662932461262
2520000000.0 -0.44364948744598426 0.035981622685380334
2540000000.0 0.4589957253500918 -0.1300473316833541
2560000000.0 -0.35471525977227086 0.369170674494312
2580000000.0 0.17199411321680083 -0.5136695387944277
2600000000.0 -0.10272887403299716 0.5567696158864476
2620000000.0 -0.04369220164790954 -0.5881455350462708
2640000000.0 0.19313210707432413 0.574680413942622
2660000000.0 -0.5835847541615764 -0.21514671725653536
2680000000.0 0.3433704208867295 -0.5297992398019012
2700000000.0 0.618825065385548 0.16322051886900119
2720000000.0 0.45267944114217007 0.45891316542140254
2740000000.0 0.4263069994481722 0.4863051581549521
2760000000.0 0.3550519638607487 0.5397022375357345
2780000000.0 -0.6386885715456653 -0.0015386485112310914
2800000000.0 -0.5281118684790187 -0.34111544957418055
2820000000.0 0.09466314208888355 -0.6089172791857314
2840000000.0 0.42063055095456714 0.42930743967475504
2860000000.0 -0.5073517613523466 -0.2959453303203962
2880000000.0 0.24418164289526847 0.513589281661146
2900000000.0 0.48731899639502746 -0.25173777893550936
2920000000.0 -0.08004218611154423 -0.5211009186620796
2940000000.0 -0.39635348343421517 -0.3044090798747319
2960000000.0 -0.23015338858751164 -0.41391210522989674
2980000000.0 -0.08157185543892842 -0.4462236154860503
3000000000.0 -0.319802632140776 -0.29463521988885555
3020000000.0 -0.4148976210639117 0.0548117919838032
3040000000.0 -0.004816123568537354 0.40000004235883263
3060000000.0 0.2660547856243738 -0.27117620893832867
3080000000.0 -0.36504639863553556 -0.030366714026084055
3100000000.0 0.35303006298199247 -0.012205146522274595
3120000000.0 0.07049526387393378 -0.33639097965249765
3140000000.0 -0.06694837377934015 0.3323852484826988
3160000000.0 0.08963912219461749 -0.3241927644146701
3180000000.0 0.02216854403102827 0.33413806102729143
3200000000.0 0.32424963446888966 -0.06345218056212576
3220000000.0 -0.047323294374217374 -0.32007918813365505
3240000000.0 -0.21750323381140557 -0.2298596957669909
3260000000.0 -0.3001123048317413 -0.04426893213911968
3280000000.0 -0.27915096905359993 -0.09096975217049978
3300000000.0 -0.26308236653883466 -0.07817192251027427
3320000000.0 -0.08665712537012529 -0.23425789446772965
3340000000.0 0.22007552797601473 0.05937952682115294
3360000000.0 -0.15776611502014376 0.13065045886595977
3380000000.0 0.024698905659395674 -0.1826907913603279
3400000000.0 0.15720483956294035 0.04753900853500702
3420000000.0 0.13637494170361722 0.045547692511897664
3440000000.0 0.12067807575371062 0.029422657717893628
3460000000.0 0.04025287837696822 0.0971091627854491
3480000000.0 0.07816969982377409 -0.04533071960243134
3500000000.0 -0.002519774369679167 0.0817274062445602
3520000000.0 0.04026255694962546 -0.06829158459967828
3540000000.0 0.07383790539202044 0.0347483172984603
3560000000.0 0.04016878351220196 0.07740781051959607
3580000000.0 0.0824884948159947 -0.042671847891373516
3600000000.0 -0.010380834635844636 -0.0976489698327533
3620000000.0 0.0281430194758229 0.10485332269950579
3640000000.0 -0.10028225744745921 0.07055489538109465
3660000000.0 -0.12421655382962841 0.05157570153463897
3680000000.0 0.0870710270267264 0.10898630494121456
3700000000.0 -0.11865070995803693 0.05310133619724785
3720000000.0 -0.029048195091990102 -0.11410748797789687
3740000000.0 0.05880118425648656 0.07734420653414924
3760000000.0 -0.07821185749801518 -0.018270129843253286
3780000000.0 -0.04471569715558565 0.04446156835710632
3800000000.0 0.017452169043862722 -0.031042923055632107
3820000000.0 0.003606587722675791 -0.0023354001159651863
3840000000.0 -0.011357342373167099 0.02950902553048339
3860000000.0 0.05988075451635089 -3.1471756861030274e-05
3880000000.0 0.08833254427114837 -0.011093054514107956
3900000000.0 -0.10456754010734992 0.03247168577852487
3920000000.0 -0.05270161299514488 0.1131117617017754
3940000000.0 0.07512069195680762 0.11434360389792886
3960000000.0 0.1395908527522534 -0.001755485581283667
3980000000.0 -0.10313131336269485 -0.08527962148788978
4000000000.0 -0.1126416126966251 -0.009525700827618219
