!Created with skrf (http://scikit-rf.org).
# Hz S RI R 50.0 
!freq ReS11 ImS11
400000000.0 0.847210531835538 -0.22954854558193205
420000000.0 0.7706232286541109 -0.310077393566862
440000000.0 0.5096670372732096 -0.579591526144968
460000000.0 0.10517217900834579 0.6879252107309263
480000000.0 0.31800284223730035 -0.4990339123635873
500000000.0 0.5516110047336048 0.2924328669055218
520000000.0 0.5509023691324291 -0.3226628289482723
540000000.0 0.04145676864159322 -0.605824613514412
560000000.0 0.6028694471489511 0.1371590331669549
580000000.0 0.4187734867547739 0.3209850657495242
600000000.0 0.1192272126591438 0.5854094705173647
620000000.0 0.02344177931395477 -0.5999399802249331
640000000.0 -0.21018033677770895 -0.526557279491814
660000000.0 0.25696328615506187 0.45409440562298925
680000000.0 0.15039424724313644 -0.45125137369047946
700000000.0 -0.01792527138256617 0.4954855272648523
720000000.0 0.46410341157809615 0.19966500195562165
740000000.0 0.4715861971195428 0.013471864836526952
760000000.0 -0.11642336227974061 0.44229345874599724
780000000.0 -0.35079747559338975 -0.28102934594759166
800000000.0 -0.21326877688057158 -0.3462447331344576
820000000.0 0.14039519537648454 0.327102170224113
840000000.0 -0.29962837602686493 -0.15681289414377794
860000000.0 0.1093526204541709 -0.29629704430892545
880000000.0 0.25223048535436643 0.10868178653399874
900000000.0 0.10571326115628411 0.2476898478227099
920000000.0 0.2564772535489905 -0.04999903636244315
940000000.0 -0.18587574964960912 -0.12093950336136777
960000000.0 0.12224711043084961 -0.11159938109519828
980000000.0 0.06622318048572312 0.11988156857107589
1000000000.0 0.11448435999371755 -0.07120192717664227
1020000000.0 0.10166316486989202 0.048516430561318026
1040000000.0 -0.11924025344904184 -0.058899477617376
1060000000.0 -0.10285274743844203 -0.11742074865374143
1080000000.0 0.0818271434777307 0.18404427074995713
1100000000.0 -0.09315036297092034 -0.2256704619780277
1120000000.0 -0.22362929203781398 -0.1733904537635209
1140000000.0 -0.26422668732198257 0.1578366609644874
1160000000.0 0.31312883065639585 0.10994410978102656
1180000000.0 -0.04442109132622976 0.33619988536490303
1200000000.0 -0.3232980789066417 0.1365837468567134
1220000000.0 0.3128135113932357 -0.19578508344596632
1240000000.0 0.37389501278100373 -0.07497253013994544
1260000000.0 -0.14956181958920958 -0.36573625171443647
1280000000.0 -0.3097984304926823 0.21579657972091765
1300000000.0 0.15928482290862914 -0.3285939622009794
1320000000.0 0.3242873426624963 -0.1946553745003902
1340000000.0 -0.31607571656734057 0.1868810085181641
1360000000.0 0.1390329407858341 0.35663484574969084
1380000000.0 -0.15675233180439588 0.36154888898896814
1400000000.0 -0.05472165054831479 -0.37543118069947173
1420000000.0 0.310425962161995 -0.2278087759350264
1440000000.0 -0.1656665426902712 -0.35036724629592336
1460000000.0 -0.2879546156963144 -0.2575031876817618
1480000000.0 -0.09806955019395763 -0.3818661174254676
1500000000.0 -0.2553304623033416 0.29635192090945484
1520000000.0 0.10056116443357366 -0.3709290987388193
1540000000.0 -0.05057445379876318 0.36108802758789904
1560000000.0 -0.3188109094615392 -0.0832348831343208
1580000000.0 0.2864678086783562 0.0560678696816325
1600000000.0 0.24873597412893614 0.08808409937057578
1620000000.0 0.1771566583636202 0.1197112851984766
1640000000.0 0.001190095664240957 0.18566982867543955
1660000000.0 0.10050229430328522 -0.1233711778392484
1680000000.0 -0.05216064830298933 -0.10789115545456676
1700000000.0 0.10492031804905169 -0.048229645664478855
1720000000.0 0.09064629689277301 -0.01121340932375129
1740000000.0 -0.07971119317990395 -0.022571096780490556
1760000000.0 -0.017248521193677466 0.08914290256318604
1780000000.0 -0.10693747039637388 0.015497154165867177
1800000000.0 0.12066370989149157 0.044979307658885366
1820000000.0 0.15559520158651427 0.03775535792883262
1840000000.0 0.028527414106265934 -0.18836599690759356
1860000000.0 0.06190014885331209 0.21087432433083814
1880000000.0 0.2519870050766728 0.006912974535778382
1900000000.0 0.2720322198643387 -0.007160981261009411
1920000000.0 -0.006167318415796531 -0.29457804904002277
1940000000.0 -0.30404918434446915 0.026888188073169176
1960000000.0 0.2484934921267086 -0.18419679380985077
1980000000.0 -0.2999849720369184 0.09182665561711408
2000000000.0 0.041230891538273154 -0.31612549798903994
2020000000.0 0.32223997465709053 -0.0230898874460839
2040000000.0 0.32518627511493614 -0.0033509859743220223
2060000000.0 0.318100401775467 0.038716981626984004
2080000000.0 0.07181910338998035 0.3159355370265553
2100000000.0 -0.08927033422765769 -0.3121956622998057
2120000000.0 0.31990001254897377 -0.007392770960769584
2140000000.0 -0.2966252939672845 -0.11416588642755301
2160000000.0 0.12484628341010101 0.2940906689267692
2180000000.0 0.1701068993443897 -0.2611985151626891
2200000000.0 0.12469266085219445 -0.27782244283298413
2220000000.0 0.12802543522425783 -0.2700610562759527
2240000000.0 0.2885153238898657 -0.04331387970944351
2260000000.0 0.0853591519440503 0.26254138030006696
2280000000.0 -0.23672096136553927 0.12199204256622974
2300000000.0 0.04454644724757059 -0.24794002363294218
2320000000.0 -0.02112870600796137 0.2423208233135813
2340000000.0 0.10447237998129197 -0.21971522872827295
2360000000.0 0.07804229321331349 0.23147575097476322
2380000000.0 -0.18847811188012442 -0.17056605845232026
2400000000.0 -0.2800910355560732 -0.01813056301327051
2420000000.0 0.301573796928545 0.03492006470721207
2440000000.0 -0.290052695604925 -0.14938450413164808
2460000000.0 0.17679368828846428 0.30916032759971096
2480000000.0 0.12504094672384586 -0.373026156268243
2500000000.0 0.3836704694156596 0.1876076652088155
2520000000.0 -0.42879571616325707 0.1768980792729339
2540000000.0 0.16194742906782414 -0.4689966001229296
2560000000.0 0.14243330581038122 0.5067084701028816
2580000000.0 -0.2467220912958208 -0.4940197817470532
2600000000.0 0.2675609847857699 0.5094835448903529
2620000000.0 -0.41749613261008833 -0.4249372331244221
2640000000.0 0.5159270955154402 0.32588703673845026
2660000000.0 -0.6209295384031572 0.07307984038475149
2680000000.0 0.006321592251526129 -0.6335426492162992
2700000000.0 0.5711092067342446 -0.29366005843212517
2720000000.0 0.6458471573572487 0.031915701094721735
2740000000.0 0.6302956468252519 0.1567950396876854
2760000000.0 0.6195085394748748 0.19787232809486116
2780000000.0 -0.42089840470454876 0.488746215703866
2800000000.0 -0.6131380113158168 0.16645947198270827
2820000000.0 -0.4464960566947562 -0.4350404146578088
2840000000.0 0.5513812612689329 -0.2605790807566585
2860000000.0 -0.40251251589954945 0.43746289108805153
2880000000.0 0.5483654566028722 -0.16642512748006236
2900000000.0 -0.22887655599760026 -0.5022925277216627
2920000000.0 -0.5237657775198408 0.07236473764811756
2940000000.0 -0.2589115373320319 0.42449209148775147
2960000000.0 -0.3375847942309864 0.33073683872305387
2980000000.0 -0.24616330589075 0.37334106194814654
3000000000.0 -0.17447248933271745 0.3858780607216245
3020000000.0 0.11972324681426443 0.38575322191316175
3040000000.0 0.34696954349702364 0.16019879090930864
3060000000.0 0.18844911987646581 -0.31598504365018437
3080000000.0 -0.35748066888809565 -0.00977398824167825
3100000000.0 0.335768691762771 0.08989110182700931
3120000000.0 0.2046951640201656 -0.2749581196415401
3140000000.0 -0.2989790833429926 0.16761093597902565
3160000000.0 0.31438921859109176 -0.14004693064309812
3180000000.0 -0.33494226263890375 0.07793640279705379
3200000000.0 0.05229950450289514 0.34018420642789376
3220000000.0 0.26628456989466737 -0.21112178528730258
3240000000.0 0.16631812722521114 -0.29109198648193085
3260000000.0 -0.20369494234255986 -0.25646755527324894
3280000000.0 -0.30723750487662277 -0.0703588791567939
3300000000.0 -0.24824937427310087 0.167799812258549
3320000000.0 -0.03275933062443545 0.2694967741509377
3340000000.0 -0.2462992347551188 0.01346268977308568
3360000000.0 -0.21189815809583765 0.05443666121681219
3380000000.0 -0.1080545199919772 -0.15937858058710067
3400000000.0 -0.10741282362144848 -0.12888855747819666
3420000000.0 -0.06747541792032964 -0.12265700243451726
3440000000.0 -0.00789908806324041 -0.1183819488450578
3460000000.0 0.04305799985594786 -0.08569337295727526
3480000000.0 0.02892485917629755 0.07254536864689144
3500000000.0 -0.07095795540395085 -0.02352546531328791
3520000000.0 -0.0608142903355781 -0.04179979464558401
3540000000.0 0.01365013531229416 0.07890532498631789
3560000000.0 -0.08103018841554005 0.030056638897315253
3580000000.0 -0.01573490102772819 0.09516656445060159
3600000000.0 0.09046616097815453 -0.0538659876063265
3620000000.0 0.10787817300925799 0.050389340912337995
3640000000.0 0.09890048799669342 -0.09004100203936
3660000000.0 -0.07323016414785637 -0.12754948656697418
3680000000.0 0.10396740852660669 0.10885937946455752
3700000000.0 0.130252806064041 0.060925289536964244
3720000000.0 0.12692053160194106 -0.019936614135674727
3740000000.0 0.06637825865850147 -0.07942090807242722
3760000000.0 -0.062183008307363626 -0.05091666766206291
3780000000.0 0.04876777697111742 -0.03631526791164322
3800000000.0 0.010493905234429042 0.02492985629619376
3820000000.0 0.00021281385857206924 -0.011957822866678484
3840000000.0 0.008690975803951374 -0.047148483402583034
3860000000.0 -0.07435976347503022 -0.024410323316978916
3880000000.0 -0.03292486436151031 -0.10078625221899717
3900000000.0 0.1215692310206566 0.036346485396353496
3920000000.0 -0.06273281763502178 -0.128007921642083
3940000000.0 -0.0035436606146211813 0.1530568921599288
3960000000.0 0.06554940385084923 -0.14339258866065815
3980000000.0 0.13971958805519874 0.04406356047054555
4000000000.0 -0.1210211043886834 -0.029597610006799526
