!Created with skrf (http://scikit-rf.org).
# Hz S RI R 50.0 
!freq ReS11 ImS11
400000000.0 0.8494392278918527 -0.22201775599101192
420000000.0 0.7651129973916606 -0.32430245500105664
440000000.0 0.5340368938576566 -0.5570806525101758
460000000.0 0.08729426876312295 0.6895607771112792
480000000.0 0.2939050913101729 -0.5127627640093384
500000000.0 0.5698721527151257 0.2499843136349822
520000000.0 0.5369582562237097 -0.34677689909116055
540000000.0 0.019258815896567753 -0.6056421374008134
560000000.0 0.60380413021494 0.13632173909817927
580000000.0 0.42403814054968875 0.3134287981339976
600000000.0 0.1340912930767474 0.5822888195268409
620000000.0 0.024052394968078292 -0.6006263238539747
640000000.0 -0.18147076291069422 -0.5372645200206547
660000000.0 0.2533853130488706 0.455500706007796
680000000.0 0.12472888180437103 -0.456874646095761
700000000.0 -0.04540879036904318 0.49341411835591614
720000000.0 0.47460002446899097 0.17252118501468913
740000000.0 0.46702381990561487 0.07492401908878969
760000000.0 -0.15682434006929083 0.42973844543499423
780000000.0 -0.36072710176299205 -0.2697823942132229
800000000.0 -0.20779824309602563 -0.34936248231576233
820000000.0 0.13039531081029587 0.3321025499033867
840000000.0 -0.30799070215796137 -0.14060455924926538
860000000.0 0.12129484994441687 -0.29182664232527933
880000000.0 0.2685190059994383 0.05985877206420817
900000000.0 0.14475456170337483 0.22732508124008524
920000000.0 0.2592493341352765 -0.03764025925184666
940000000.0 -0.179616788563878 -0.1304156976928986
960000000.0 0.06910833674514621 -0.150638249846004
980000000.0 0.015736691757749756 0.13628031539559954
1000000000.0 0.13556136363818314 -0.007695040511065776
1020000000.0 0.10783832543946527 0.03529140231651431
1040000000.0 -0.0853706285275288 -0.10170699458513245
1060000000.0 -0.0787573354201271 -0.13378004425910156
1080000000.0 0.0862023955668571 0.1819296644344004
1100000000.0 -0.09613330841875964 -0.22259013202735448
1120000000.0 -0.22569369602672096 -0.17046813489678841
1140000000.0 -0.17018512200044894 0.256267205853539
1160000000.0 0.2808773941509754 0.1765347794803516
1180000000.0 -0.030085384624376883 0.3385750414828028
1200000000.0 -0.31733799537665425 0.15094530681809576
1220000000.0 0.3222460334792387 -0.17990206860281785
1240000000.0 0.3795344400253899 -0.042210455794656467
1260000000.0 -0.14533118196324923 -0.3671713016847815
1280000000.0 -0.31326955113375826 0.21162318907073438
1300000000.0 0.16481924463571604 -0.32573206418194806
1320000000.0 0.3220628754039203 -0.19792580805248114
1340000000.0 -0.3079601826414215 0.2007195403959513
1360000000.0 0.17084405445401915 0.34311774071335693
1380000000.0 -0.1454528467066333 0.36570191247265144
1400000000.0 -0.05777445440048148 -0.3755471138831353
1420000000.0 0.3116003174032901 -0.22485885249897622
1440000000.0 -0.157134457380891 -0.3531618582176837
1460000000.0 -0.3100250654307046 -0.23003501776771546
1480000000.0 -0.14673187476236108 -0.36635307120700233
1500000000.0 -0.26367509922446075 0.2893850312893997
1520000000.0 0.1401948929134453 -0.3588311438373758
1540000000.0 -0.04638109939675404 0.36225404666139466
1560000000.0 -0.30128930710661506 -0.13257224723807007
1580000000.0 0.26361781715953964 0.12768071564620195
1600000000.0 0.24386455083035732 0.10090368098632184
1620000000.0 0.1484616340442223 0.15352650903444323
1640000000.0 0.030322875284471352 0.1832812303517402
1660000000.0 0.13923985176740333 -0.07657078926315862
1680000000.0 -0.014356082161424557 -0.11992734681945168
1700000000.0 0.061416494906989194 -0.09817679622457422
1720000000.0 0.09220341350944108 0.0009711335056074264
1740000000.0 -0.06724687384300213 -0.0490128142921442
1760000000.0 -0.03466367485365372 0.0839360616015768
1780000000.0 -0.10672044996487037 0.015991331361869775
1800000000.0 0.11456614876529203 0.05757586067824375
1820000000.0 0.1541805902813488 0.04279623151987039
1840000000.0 0.051693046348756856 -0.18337751173414737
1860000000.0 0.03906864608091621 0.2157962407773863
1880000000.0 0.24684260318583903 0.051133227640297534
1900000000.0 0.2709899867001167 -0.011591573787745009
1920000000.0 0.0018422454861070762 -0.29372608915951537
1940000000.0 -0.3019975166699867 0.045914138128272886
1960000000.0 0.2504624620677438 -0.18162792082002066
1980000000.0 -0.3006315129652698 0.09047526971435833
2000000000.0 0.024718062415391363 -0.3184752784601599
2020000000.0 0.32248733224755927 -0.0028963795244572716
2040000000.0 0.32560205560133487 -0.00014767594185156118
2060000000.0 0.319122267491711 0.03610531259524547
2080000000.0 0.013805493285129323 0.3235607422697396
2100000000.0 -0.060905763445278836 -0.3192873369631378
2120000000.0 0.31904048908165716 0.02869926455122678
2140000000.0 -0.29349252500870554 -0.12149660262409845
2160000000.0 0.1134338611851262 0.29869359890519764
2180000000.0 0.2078878015609142 -0.23255472584332476
2200000000.0 0.12234407584176676 -0.278634036722697
2220000000.0 0.12004759147453278 -0.2730235919971045
2240000000.0 0.27813971721552233 -0.08801698197865394
2260000000.0 0.0758442751481643 0.26546013639923516
2280000000.0 -0.20922217706838797 0.16490710383947726
2300000000.0 0.05703590601646973 -0.24487714444647835
2320000000.0 -0.040852019051265565 0.24001489339810597
2340000000.0 0.061427688724639454 -0.2349858928080091
2360000000.0 0.0926259432604395 0.22634513239033738
2380000000.0 -0.1664840665417855 -0.19339174932245423
2400000000.0 -0.2808402289954231 -0.0011627904337183134
2420000000.0 0.27644626072525647 0.12679318994358013
2440000000.0 -0.25399901980007766 -0.20485358917487312
2460000000.0 0.12141729716649767 0.3326440048166226
2480000000.0 0.147173717384105 -0.364175567365113
2500000000.0 0.3401129726133456 0.25755542538692877
2520000000.0 -0.43584815337227634 0.15347965110340883
2540000000.0 0.24160897782642118 -0.43292841517176034
2560000000.0 0.1003918695894959 0.5167532846293161
2580000000.0 -0.31851811893583437 -0.4506083196164621
2600000000.0 0.30027899693400234 0.49130174279644756
2620000000.0 -0.4034817834483907 -0.43856946816033043
2640000000.0 0.49863135235977984 0.3524115184502649
2660000000.0 -0.621394086876583 0.0664366882561395
2680000000.0 0.0708504759046683 -0.6293142032160151
2700000000.0 0.6025631210817627 -0.2222824045407509
2720000000.0 0.6400206114065504 0.09424746139229677
2740000000.0 0.6131355168857747 0.21242762554814243
2760000000.0 0.5969680936491868 0.25582817641225614
2780000000.0 -0.4899702497033212 0.4168940753008924
2800000000.0 -0.571144936968999 0.2778868281238441
2820000000.0 -0.47250467596177176 -0.40688034714850413
2840000000.0 0.5363950869018649 -0.29159515153160465
2860000000.0 -0.3912195893603818 0.4477827520522652
2880000000.0 0.5423800863122369 -0.18649899207641682
2900000000.0 -0.24128685959431928 -0.49691133575461244
2920000000.0 -0.5236372157129734 0.0725084685391745
2940000000.0 -0.30820241355782524 0.39187305216861895
2960000000.0 -0.31842583863953605 0.34881609270551794
2980000000.0 -0.2505227653605523 0.37028136211536977
3000000000.0 -0.16088378349278182 0.3909212274567507
3020000000.0 0.08910394999973323 0.3933253138258541
3040000000.0 0.3379413149431554 0.1793455632177185
3060000000.0 0.21293557920099804 -0.299855764680564
3080000000.0 -0.34599296130922347 -0.08999733638680711
3100000000.0 0.3153255988280431 0.14792366992124786
3120000000.0 0.1620694631438478 -0.30214442222303856
3140000000.0 -0.33069342239872307 0.08806771397658886
3160000000.0 0.32954762454064557 -0.09946209378913268
3180000000.0 -0.3409305124405378 0.046444221295463474
3200000000.0 0.05241762735486138 0.3400832368677264
3220000000.0 0.25743708379254954 -0.22142267749418104
3240000000.0 0.13707947026355002 -0.30543446530578544
3260000000.0 -0.1461466368114305 -0.2938414240599918
3280000000.0 -0.29885823522406707 -0.10230375213380986
3300000000.0 -0.24885743795466875 0.16584828739001506
3320000000.0 -0.06802819250664163 0.26388947113724004
3340000000.0 -0.24344612153454798 0.04160386090546207
3360000000.0 -0.21882079268314597 0.021225138196110244
3380000000.0 -0.11621086104950912 -0.15305580603281582
3400000000.0 -0.09179166659185325 -0.13969116264769324
3420000000.0 -0.09154900288168209 -0.10556219295747682
3440000000.0 -0.02942531001146656 -0.1143935747015246
3460000000.0 -0.03935494801836933 -0.08814790258481899
3480000000.0 0.027491779174047173 0.07277944429570278
3500000000.0 -0.0518296395965964 0.05164627489859847
3520000000.0 -0.07218858853609043 -0.013783813960049771
3540000000.0 0.07969815673548371 -0.00533931235997993
3560000000.0 -0.03954152792077574 0.07619204717119339
3580000000.0 0.05152559243454111 0.08356379008366918
3600000000.0 0.07160739619260413 -0.07805837399761542
3620000000.0 0.08127545374458846 0.08920889965418131
3640000000.0 0.09628215494084186 -0.0932283456795454
3660000000.0 -0.058654676550159296 -0.13467575835278722
3680000000.0 0.07095205851428853 0.1326859698291393
3700000000.0 0.08395764976139623 0.1162823622153947
3720000000.0 0.12402057191859327 -0.02834078039817065
3740000000.0 0.0802870459681056 -0.06378741034638677
3760000000.0 -0.06247969754999308 -0.05010198183423725
3780000000.0 0.03727532510610586 -0.04656712768611065
3800000000.0 0.027880561981474497 0.004657627403392819
3820000000.0 0.004854646441156869 -0.01094737788540163
3840000000.0 -0.038350894100928665 -0.025706829234392378
3860000000.0 -0.061697517775784395 0.04439050351564276
3880000000.0 -0.0396144394601518 -0.09828409203291638
3900000000.0 0.11827596800197604 -0.04705909507935817
3920000000.0 -0.1274883242886383 -0.06115187127328858
3940000000.0 0.0488916912293929 0.14332392934128924
3960000000.0 0.0096377823071266 -0.15614318701374108
3980000000.0 0.1429187624955347 -0.03320859030298935
4000000000.0 -0.12278475366280736 -0.01433301114300931
