!Created with skrf (http://scikit-rf.org).
# Hz S RI R 50.0 
!freq ReS11 ImS11
400000000.0 0.851273897001265 -0.212589172446109
420000000.0 0.7680395904613367 -0.3181673669762381
440000000.0 0.4845743644708438 -0.6005712661581551
460000000.0 0.11343978615847083 0.6860011809119991
480000000.0 0.3248661363961362 -0.4948700752317015
500000000.0 0.5747703259689965 0.24103289990941945
520000000.0 0.5513909712969778 -0.32170704857461474
540000000.0 0.07049029304869726 -0.6039506671556368
560000000.0 0.5911979878966741 0.18089257130029532
580000000.0 0.333767316983676 0.4078203451216524
600000000.0 0.17224697729714986 0.5714009064489505
620000000.0 -0.020479948259747173 -0.6007600326250906
640000000.0 -0.2546365851275432 -0.5065682999686211
660000000.0 0.19148344891271735 0.48668338018899376
680000000.0 0.14324684070186158 -0.4520096612193818
700000000.0 -0.022933861178376144 0.49540489741893523
720000000.0 0.45167276638853915 0.2267492972265824
740000000.0 0.4701578019783451 0.04210653187038937
760000000.0 -0.2028211481109681 0.4083481391017393
780000000.0 -0.3069472838008862 -0.33066739977192094
800000000.0 -0.28150266226446863 -0.2929400874899116
820000000.0 0.1405960815302355 0.3255996542475648
840000000.0 -0.2462547365227899 -0.23300867311485104
860000000.0 0.00599669631481734 -0.31827882953096637
880000000.0 0.26043151445093643 0.08393762490849832
900000000.0 0.12105138837052155 0.24093231387806152
920000000.0 0.24464460813680622 0.09328963344568611
940000000.0 -0.18612380199606351 -0.12280876555393426
960000000.0 0.009678421403239507 -0.16362380832605922
980000000.0 0.0015530558036628266 0.1343597149169413
1000000000.0 0.12679158079271344 -0.04871301409683599
1020000000.0 0.11267175012687493 -0.006840752130290594
1040000000.0 -0.13022852370675048 -0.017932168878849533
1060000000.0 -0.034111735250416025 -0.15241199253269236
1080000000.0 0.06027479480305088 0.19290711935555938
1100000000.0 -0.09903868976684277 -0.2226445308039342
1120000000.0 -0.2199616373121333 -0.17693952577928534
1140000000.0 -0.22080567891004196 0.21242939766156033
1160000000.0 0.300804283496199 0.13890908952158304
1180000000.0 0.026659494709547458 0.33804837620897904
1200000000.0 -0.3134557693166705 0.16096176249402405
1220000000.0 0.2949105263542153 -0.22145045657782794
1240000000.0 0.3810692693810255 -0.020329950323591375
1260000000.0 -0.13360968823526542 -0.37265616364777765
1280000000.0 -0.3134739182250301 0.21130367051260454
1300000000.0 0.2199411513020952 -0.29036820388035606
1320000000.0 0.3308371388109212 -0.18109414121667397
1340000000.0 -0.30135139501273 0.20941911903961782
1360000000.0 0.2058759795932531 0.32202347115858065
1380000000.0 -0.17327978972842942 0.35261643654900726
1400000000.0 -0.15496664915374006 -0.3452879636479921
1420000000.0 0.3260559346002581 -0.20079415003154719
1440000000.0 -0.23328633152895015 -0.3090902175043504
1460000000.0 -0.32922844323713485 -0.20121857115781777
1480000000.0 -0.269938109546928 -0.2857695316716527
1500000000.0 -0.26788405100338447 0.2862348217486847
1520000000.0 0.12672164503214156 -0.36344799095959296
1540000000.0 -0.058633536341268236 0.36003049441203633
1560000000.0 -0.3006937005829506 -0.13667120195619928
1580000000.0 0.2805085770081084 0.08242578301940955
1600000000.0 0.22976254848233849 0.12925413078412773
1620000000.0 0.15838945040742636 0.1432383634980494
1640000000.0 0.02538546016143604 0.18294347998213364
1660000000.0 0.11327065853944283 -0.11289569842202456
1680000000.0 -0.07653319353526002 -0.09308843206450722
1700000000.0 0.08287749380191223 -0.08214667694451419
1720000000.0 0.06361254410924122 -0.06571648822990443
1740000000.0 -0.07491641170694538 -0.035676703377730025
1760000000.0 0.07964139754521632 0.04414465795573291
1780000000.0 -0.10450248151860338 0.028842940648900136
1800000000.0 0.12586029548766137 0.031081692925666538
1820000000.0 0.15885916180513215 0.009989380474251543
1840000000.0 0.05714445753055608 -0.18259237796517586
1860000000.0 0.06268094543622664 0.2110897541537451
1880000000.0 0.2482628350111175 0.04271632139118997
1900000000.0 0.2713401806093659 0.01381494335268749
1920000000.0 0.0014005645913805695 -0.2943966071129887
1940000000.0 -0.3031603854121413 0.03867996770700512
1960000000.0 0.2502788817097262 -0.1817722006680637
1980000000.0 -0.3091226345470473 0.050213290845800986
2000000000.0 0.025691211807642726 -0.3178010605891127
2020000000.0 0.3170514248922798 -0.06142901514420421
2040000000.0 0.32101983930053646 -0.052880382876668665
2060000000.0 0.31327459457819606 0.06859264921131898
2080000000.0 0.09896950395577708 0.3096995039312124
2100000000.0 -0.048902648596699655 -0.3212153994161007
2120000000.0 0.31592774229798665 0.046817847815778
2140000000.0 -0.28335988722115824 -0.1469138769303517
2160000000.0 0.13858540298067648 0.2877630214319499
2180000000.0 0.2113008006010558 -0.22947117560433603
2200000000.0 0.15235210476030064 -0.2630806975605734
2220000000.0 0.10199426498308012 -0.2801192317967854
2240000000.0 0.28622264195286323 -0.056315377756629405
2260000000.0 0.09407364274289615 0.25851497466151707
2280000000.0 -0.2071345219999547 0.1673952787202715
2300000000.0 0.06447986940782019 -0.2434069159547799
2320000000.0 0.02626283878234286 0.24187574037759252
2340000000.0 0.10241477625891908 -0.22106921223902057
2360000000.0 0.11856770125162878 0.21388799999546584
2380000000.0 -0.1632607978812875 -0.19619585033828282
2400000000.0 -0.28068967746756956 0.024565755590303325
2420000000.0 0.2814841801664285 0.11350594635363916
2440000000.0 -0.26798927110193255 -0.18500829667368648
2460000000.0 0.14698583666817278 0.32458079411848956
2480000000.0 0.10634264671894722 -0.37727867821547845
2500000000.0 0.339653196550989 0.25808718334048764
2520000000.0 -0.4357479006023418 0.15747286652592968
2540000000.0 0.1678489530103163 -0.4654939145473029
2560000000.0 0.1471281145411073 0.5046178630549986
2580000000.0 -0.23000759450623054 -0.5022864961464432
2600000000.0 0.32626518417067185 0.4741324753652622
2620000000.0 -0.40686007483578696 -0.4358573065284567
2640000000.0 0.5003920060362907 0.35010499164843
2660000000.0 -0.61862941568646 0.08987115449780024
2680000000.0 0.049721106553925885 -0.6317009643159528
2700000000.0 0.6034583495920584 -0.21931656185242224
2720000000.0 0.6375029680161782 0.10995304085947791
2740000000.0 0.6392006788538754 0.10879929170741867
2760000000.0 0.6238088376834414 0.180105940578811
2780000000.0 -0.3981680336311552 0.5056560712889953
2800000000.0 -0.5949007222569328 0.22202658891536248
2820000000.0 -0.4756347469802452 -0.4026494912134658
2840000000.0 0.5244042178311008 -0.3123459963381749
2860000000.0 -0.3397629144311401 0.4879178126205833
2880000000.0 0.5372923136075415 -0.2011941784317661
2900000000.0 -0.23608402567220502 -0.49981100127493555
2920000000.0 -0.5161976839313747 0.11422691240996934
2940000000.0 -0.32305803376988507 0.3778318460662127
2960000000.0 -0.35544453142649285 0.3121145776552888
2980000000.0 -0.2391486146955579 0.37899360419165345
3000000000.0 -0.09830931729714311 0.4117431807351839
3020000000.0 0.11694419825197595 0.3855185284458012
3040000000.0 0.32946859753228097 0.1962930831508848
3060000000.0 0.16087130298640215 -0.330773245379211
3080000000.0 -0.35654920738097284 -0.012171772089988634
3100000000.0 0.3107176643685394 0.15589628285749796
3120000000.0 0.17560814682322276 -0.29689248534697527
3140000000.0 -0.27964574705598905 0.19726508518751884
3160000000.0 0.33085185529404226 -0.09467240940398593
3180000000.0 -0.34321025234623753 0.03268111230161234
3200000000.0 0.06220785427723025 0.3384032901002197
3220000000.0 0.2558620231889619 -0.22363740989991554
3240000000.0 0.1310891463909052 -0.3072230489993989
3260000000.0 -0.1211507283044245 -0.304095533513427
3280000000.0 -0.3108288388435778 -0.056127998082619986
3300000000.0 -0.24302914052852623 0.1734437665005898
3320000000.0 -0.03201741741430855 0.2689379094581984
3340000000.0 -0.24010848862531792 0.059153953650723096
3360000000.0 -0.18936395845167767 0.1129057982790118
3380000000.0 -0.13082800014376772 -0.14155278984302574
3400000000.0 -0.11654484502912624 -0.12038585672080275
3420000000.0 -0.08799136965696247 -0.1094546788811602
3440000000.0 -0.06719245013146483 -0.0985931805494076
3460000000.0 0.03407469970047539 -0.09055634981292915
3480000000.0 0.042682259917198165 0.06442054301472958
3500000000.0 -0.058177992953271064 -0.04570970439643973
3520000000.0 -0.07054408364780654 -0.022069567120664466
3540000000.0 0.023495613508252276 0.07570254760698028
3560000000.0 -0.06750999273426665 0.052932981917605974
3580000000.0 0.05984895750081832 0.07574437263575945
3600000000.0 0.09307304265026523 -0.04769872795155812
3620000000.0 0.09542254748665434 0.07170557874879135
3640000000.0 0.05957054477913355 -0.11976642008387516
3660000000.0 -0.06120014815846095 -0.1327526196419606
3680000000.0 0.054097401201126744 0.14160530843807004
3700000000.0 0.09951965051058943 0.10420955525267883
3720000000.0 0.11411794410765289 0.058180922096645056
3740000000.0 0.0971668829531854 -0.033858778524206504
3760000000.0 -0.024130299658246313 -0.07571072576210473
3780000000.0 0.05454810061405965 -0.022436088176257876
3800000000.0 0.02539304427998412 -0.010095754396457076
3820000000.0 0.012435879497167644 0.0014007565191704564
3840000000.0 -0.0014566942597843962 -0.047271961136033123
3860000000.0 -0.0773035524492729 -0.008382081259177044
3880000000.0 0.039672272049436644 -0.09881470145951375
3900000000.0 0.125017116034287 0.026649012801000398
3920000000.0 -0.0923748777184096 -0.10812250696318507
3940000000.0 -0.07535286360691687 0.13140540571771656
3960000000.0 0.0841866539665836 -0.1330864575365758
3980000000.0 0.13985041480571356 0.04065186541621562
4000000000.0 -0.1016038382224923 -0.06913082961381176
