!Created with skrf (http://scikit-rf.org).
# Hz S RI R 50.0 
!freq ReS11 ImS11
400000000.0 0.8437921329977701 -0.24203488149444224
420000000.0 0.7780250111095017 -0.2950769059732592
440000000.0 0.492499406473638 -0.5944469229707947
460000000.0 0.050853600404707516 0.6934520983867111
480000000.0 0.3060134713293616 -0.5060607556890248
500000000.0 0.5806465784544925 0.22389882200723096
520000000.0 0.5637881480620437 -0.2986158123256597
540000000.0 -0.03191936275660401 -0.6059753874754225
560000000.0 0.6001642795337744 0.1507659439501418
580000000.0 0.41899698993753615 0.3211301059075918
600000000.0 0.10664493396529139 0.5878002846610039
620000000.0 0.04459036039341665 -0.5985331163774813
640000000.0 -0.20373971008443958 -0.5298008013585662
660000000.0 0.18865697172194584 0.4859604644790199
680000000.0 0.15069324190760233 -0.44788740803780713
700000000.0 -0.028287290322509137 0.4945421712162866
720000000.0 0.4756107284165618 0.16970117461804513
740000000.0 0.465243943227052 0.08523695550995684
760000000.0 -0.14463823224525277 0.43429138482618856
780000000.0 -0.36175597992893854 -0.26630266719699586
800000000.0 -0.18760341941191758 -0.35949278264553725
820000000.0 0.1375179578969496 0.32966107678231166
840000000.0 -0.3200651383934651 -0.10943442415152221
860000000.0 0.1417942188239459 -0.28185437615666586
880000000.0 0.2673874511570732 0.06894957388556823
900000000.0 0.15187173652520577 0.22305682854224818
920000000.0 0.2607965147174145 -0.016048662004812007
940000000.0 -0.17589574460150614 -0.13684090041134817
960000000.0 0.08642439108770143 -0.1419776260637302
980000000.0 0.04600048251004204 0.12863199727891242
1000000000.0 0.1350735932553016 -0.010868872755118001
1020000000.0 0.057679581980901506 0.09733225884251827
1040000000.0 -0.11099778989788361 -0.0727503431793511
1060000000.0 -0.08225912930959825 -0.13083057967679568
1080000000.0 0.09851704357092644 0.1746249316858795
1100000000.0 -0.08768585102835451 -0.2267691770760297
1120000000.0 -0.2233891645274333 -0.17379080701886862
1140000000.0 -0.17885290279096228 0.2510581010373142
1160000000.0 0.28829845661017683 0.16111252521820651
1180000000.0 -0.013187167896862575 0.3401389955158583
1200000000.0 -0.31810600865165733 0.15184662554445058
1220000000.0 0.3095943276154999 -0.19989407492842362
1240000000.0 0.37960245343988164 0.03374313753317547
1260000000.0 -0.1381566914812391 -0.37031057749984997
1280000000.0 -0.3040305524174735 0.22383952684809152
1300000000.0 0.1629602943672465 -0.3265366571668845
1320000000.0 0.2961167660591982 -0.23434447891978763
1340000000.0 -0.30903233409809927 0.19970026335306917
1360000000.0 0.16946045614157393 0.3436634328544128
1380000000.0 -0.14924493169917893 0.3633143982656065
1400000000.0 -0.01802958862820186 -0.3797633704120806
1420000000.0 0.2405153000423834 -0.29881891993465975
1440000000.0 -0.11304220374498196 -0.3691508504221165
1460000000.0 -0.24729635128398914 -0.29679482505604404
1480000000.0 -0.29798838149921486 -0.25465543168413485
1500000000.0 -0.27814168249644605 0.27319006898823694
1520000000.0 0.1103437380621511 -0.36999032998812004
1540000000.0 0.010232318964250363 0.36536838457031573
1560000000.0 -0.30590363817975924 -0.12125186427395516
1580000000.0 0.2749311495519108 0.09909846821031752
1600000000.0 0.23350407687558472 0.12499379625441046
1620000000.0 0.16355610536606582 0.13749027590903418
1640000000.0 0.026932035644320007 0.18307113621873664
1660000000.0 0.14965742357713868 -0.053405671420270556
1680000000.0 -0.05735312212297519 -0.10627549163598175
1700000000.0 0.06804747841464515 -0.09416724258373622
1720000000.0 0.0917132191702603 -0.0048878469401554695
1740000000.0 -0.06413831441923738 -0.05251113769453914
1760000000.0 -0.010322241932485798 0.09081386127294329
1780000000.0 -0.10615348470146745 0.01951740276687683
1800000000.0 0.12180341037649649 0.04011535123460966
1820000000.0 0.14478215316298565 0.06728044774132472
1840000000.0 0.0328853205110788 -0.18769989573704615
1860000000.0 0.0542205872461647 0.21234226541594395
1880000000.0 0.24864435655815548 0.040379032512043375
1900000000.0 0.2695523040179916 -0.03186554835891703
1920000000.0 -0.02785881966396842 -0.2927678029962796
1940000000.0 -0.30237310475303925 0.04416284546925127
1960000000.0 0.25397374544311746 -0.17644897588233874
1980000000.0 -0.30705098941941134 0.06732726106920019
2000000000.0 0.05823095669735376 -0.3138081112287882
2020000000.0 0.32124742011901897 -0.028538182590746572
2040000000.0 0.3256655884722175 0.008669027289552673
2060000000.0 0.3153749380173565 0.05949852852187024
2080000000.0 0.012393618814535089 0.3235740764404868
2100000000.0 -0.05309687750086741 -0.3201290256686132
2120000000.0 0.31903875441641716 0.02492442314404473
2140000000.0 -0.2843402654709333 -0.14238071447129017
2160000000.0 0.16092137659105923 0.2757737684670356
2180000000.0 0.20404148875544909 -0.23531467608536982
2200000000.0 0.18284390009283544 -0.24436212354257514
2220000000.0 0.05050986602545064 -0.29392635468209904
2240000000.0 0.2852505006278064 -0.057956519911600814
2260000000.0 0.07427983315554022 0.26594911099064816
2280000000.0 -0.20219407279494148 0.1747564611450035
2300000000.0 0.035572722247452844 -0.24821257833590016
2320000000.0 -0.05296458634250618 0.23685189438214566
2340000000.0 0.10220666707907063 -0.22169629420719986
2360000000.0 0.09873545450902996 0.22291674558024138
2380000000.0 -0.17864976371576188 -0.18220353357686747
2400000000.0 -0.2784959129981389 -0.033599049073609936
2420000000.0 0.2859230356349767 0.10487263255509559
2440000000.0 -0.2992736302775454 -0.12758416750332574
2460000000.0 0.1507143027582224 0.3210083099312151
2480000000.0 0.13298494926732837 -0.36883977984095323
2500000000.0 0.38712616731403127 0.18183840098157247
2520000000.0 -0.42947486537158897 0.17316501268002643
2540000000.0 0.19616568545684895 -0.4552710510377679
2560000000.0 0.09634438023024748 0.517403101206153
2580000000.0 -0.2962612851259357 -0.46568347816769406
2600000000.0 0.30497273986631307 0.4884514837784475
2620000000.0 -0.3916216566240272 -0.4489144817223947
2640000000.0 0.4939260838536214 0.35874663504301324
2660000000.0 -0.6245605880839731 0.029084714417434872
2680000000.0 -0.0001605066464914852 -0.6327184308107406
2700000000.0 0.6099131507311796 -0.20017205032678667
2720000000.0 0.6456711737678813 0.03854434358128564
2740000000.0 0.6400679148407736 0.10695954564181273
2760000000.0 0.5882726546945876 0.2750724776443261
2780000000.0 -0.4633004818321448 0.4466118970852151
2800000000.0 -0.6120626619841636 0.16906062256562462
2820000000.0 -0.446566217644829 -0.4351242606642896
2840000000.0 0.5458475372774197 -0.27274491331132417
2860000000.0 -0.36988477417138155 0.4661560438543588
2880000000.0 0.5522326449603705 -0.15530081667958054
2900000000.0 -0.251557850677903 -0.4919935242273429
2920000000.0 -0.5247608455635682 0.06217079711241426
2940000000.0 -0.327368520578718 0.3752889879618911
2960000000.0 -0.31513341636692377 0.3521302776071305
2980000000.0 -0.2269149807890887 0.3849218632095362
3000000000.0 -0.1663426266999974 0.3896049365779608
3020000000.0 0.08672994295869475 0.39475984226348754
3040000000.0 0.3468791083900581 0.15933745964695872
3060000000.0 0.2523598815303722 -0.26782292143481046
3080000000.0 -0.35729699519099106 0.011687872470568343
3100000000.0 0.31551580454403616 0.14634515415985255
3120000000.0 0.14051480370840624 -0.3141840106787328
3140000000.0 -0.3111788761637311 0.14002341101958393
3160000000.0 0.31843618135150376 -0.1343084277401532
3180000000.0 -0.33038495323306627 0.09528323599798666
3200000000.0 0.0427871917727598 0.34123574029350506
3220000000.0 0.27793971961104974 -0.19605564834150913
3240000000.0 0.10706329262933258 -0.31724351818115754
3260000000.0 -0.15055652145432627 -0.29140918228155316
3280000000.0 -0.2842181785729201 -0.13824215733530018
3300000000.0 -0.25200599359728915 0.16105670720029755
3320000000.0 -0.08042171854079462 0.25961162202100696
3340000000.0 -0.2392280780205052 0.06014215415509567
3360000000.0 -0.21412675310100815 0.048187749404982404
3380000000.0 -0.10702654191130995 -0.1590655228669529
3400000000.0 -0.08409474851348181 -0.14476212322916668
3420000000.0 -0.1214654430297255 -0.068911435990822
3440000000.0 -0.0503235022387836 -0.1062097893616331
3460000000.0 -0.03165806077983914 -0.09065450094504907
3480000000.0 0.03607624683352803 0.0693331583098003
3500000000.0 -0.023981294139138846 0.06927542974442837
3520000000.0 -0.07239951943968236 0.013372261626492075
3540000000.0 0.07170805728920418 0.03588928702237881
3560000000.0 -0.0462021148457399 0.07328031592450138
3580000000.0 0.04785832001228168 0.08631363764730328
3600000000.0 0.07453189678171318 -0.07489701399768946
3620000000.0 0.044490910965663724 0.11118944986890474
3640000000.0 0.11530746175237115 -0.06952647433958577
3660000000.0 -0.010434343740209762 -0.14632117489178909
3680000000.0 0.09336945270330055 0.11691620993679205
3700000000.0 0.08319531950539998 0.11605204588708637
3720000000.0 0.12674783634885625 0.008252241309304815
3740000000.0 0.058047599517544964 -0.08415743110402245
3760000000.0 -0.0795010407858505 0.005744585720593415
3780000000.0 -0.0069195377720977225 -0.059465961379935435
3800000000.0 0.016758797417824024 -0.022376968510975877
3820000000.0 -0.011567638252384696 0.0008276979212488583
3840000000.0 0.037165259673776305 -0.026318988852535054
3860000000.0 -0.06925808865956293 0.03165397577104316
3880000000.0 -0.09735824949906996 -0.03993962810419537
3900000000.0 0.12388727784250003 -0.019614519542052945
3920000000.0 -0.10084780210153255 -0.10000288013514316
3940000000.0 0.0825952286558831 0.12716468007305295
3960000000.0 -0.047088583574555226 -0.14964235726845412
3980000000.0 0.14064418000530765 -0.038012049767563935
4000000000.0 -0.12273042473782943 -0.019712565389581327
