!Created with skrf (http://scikit-rf.org).
# Hz S RI R 50.0 
!freq ReS11 ImS11
400000000.0 0.8292014486254226 -0.28717822305675184
420000000.0 0.7722830726476618 -0.3080535102233718
440000000.0 0.5107133024698292 -0.5792858011521972
460000000.0 0.09002518692638532 0.6893577912762879
480000000.0 0.30451553544647836 -0.5070701960116284
500000000.0 0.5906680435904816 0.19532577815802613
520000000.0 0.5664297306433618 -0.2938708431722284
540000000.0 -0.046160992768781876 -0.6051475249583773
560000000.0 0.6023892487528628 0.14127504823908363
580000000.0 0.4114021685269588 0.33043055542452493
600000000.0 0.1196231434002426 0.5852978471878447
620000000.0 0.03489026058517311 -0.5993478059748203
640000000.0 -0.22011678493891743 -0.5230989184393827
660000000.0 0.17537835079262257 0.4911707344111015
680000000.0 0.14451469390442506 -0.45001151252883015
700000000.0 -0.036211984755806816 0.4941877639771165
720000000.0 0.4839966102207055 0.14438312900373446
740000000.0 0.46172172768779257 0.10297317547213382
760000000.0 -0.14440609861703335 0.4347851403182952
780000000.0 -0.355230719842637 -0.2752671005692647
800000000.0 -0.20219868187981255 -0.3514903217833983
820000000.0 0.17003753559707158 0.3140338787840354
840000000.0 -0.3189530303088692 -0.113115953738997
860000000.0 0.13967348588185868 -0.2829409989405376
880000000.0 0.2603271561144291 0.09126678980701779
900000000.0 0.15983236917752777 0.21731108214432157
920000000.0 0.260924226217065 -0.010191501659017527
940000000.0 -0.17535756516106427 -0.13737903523924527
960000000.0 0.08127709948226952 -0.14514375238517863
980000000.0 0.025367909340883555 0.1344103782488538
1000000000.0 0.13537308333844217 0.005333900830915857
1020000000.0 0.05814545178910711 0.09698237775763474
1040000000.0 -0.11358178242578988 -0.06872503011124466
1060000000.0 -0.08218364957618837 -0.13092919325713995
1080000000.0 0.10984168257033221 0.167825572390419
1100000000.0 -0.08115724423386503 -0.2293438892625207
1120000000.0 -0.2195102873981434 -0.17836725654538244
1140000000.0 -0.1881587835561424 0.24412082988951042
1160000000.0 0.29353423718259447 0.15110485772888574
1180000000.0 -0.027355828195234962 0.3392003334218163
1200000000.0 -0.3178004429597263 0.15255057851384773
1220000000.0 0.31089496237837294 -0.19745652261122115
1240000000.0 0.37921825364235917 0.038376162738707115
1260000000.0 -0.16641626682210386 -0.35878233778926766
1280000000.0 -0.3087940936048369 0.21742821976975327
1300000000.0 0.15367249810451666 -0.33104371259646537
1320000000.0 0.30459809328583026 -0.22368467568053943
1340000000.0 -0.3127859226387259 0.19381218673128411
1360000000.0 0.15634786016799304 0.34990798505432263
1380000000.0 -0.15499175586135952 0.3608215015077151
1400000000.0 -0.04506495233665792 -0.3775478917312491
1420000000.0 0.24551766546754208 -0.294939116184399
1440000000.0 -0.08917617202938505 -0.3754612746493981
1460000000.0 -0.2636254380778883 -0.28270752554161044
1480000000.0 -0.31791222262864116 -0.22971110522282856
1500000000.0 -0.27718072236144603 0.2742604976731179
1520000000.0 0.12637919057027544 -0.36481293320077385
1540000000.0 0.03177620571649844 0.36453858870565303
1560000000.0 -0.3006429012018648 -0.13384222446200572
1580000000.0 0.27485572275685954 0.09981102439008249
1600000000.0 0.23371823514087595 0.12472757755616025
1620000000.0 0.13826041357653615 0.16369395969995484
1640000000.0 0.022884774128123765 0.18371419716323292
1660000000.0 0.15341595281082923 -0.04105294976389638
1680000000.0 -0.08030134142469443 -0.09058027782010998
1700000000.0 0.08158551355967658 -0.08274862208963182
1720000000.0 0.09127219649710482 0.010891952944763791
1740000000.0 -0.05646804867554793 -0.060594872176331215
1760000000.0 0.006163437757485608 0.09107226524765834
1780000000.0 -0.10282860063858842 0.03223056866936986
1800000000.0 0.12125806289666215 0.042178678539837255
1820000000.0 0.15284357528469583 0.046442935598276426
1840000000.0 0.025530993793046033 -0.18900826368277898
1860000000.0 0.05458540019618622 0.21226955988877
1880000000.0 0.24826374311094843 0.04313883098956752
1900000000.0 0.26960905826723164 -0.03089795062897505
1920000000.0 -0.021877870410705616 -0.2932108453486956
1940000000.0 -0.3021363820472703 0.04646455787259676
1960000000.0 0.25803823691281885 -0.17045928772410457
1980000000.0 -0.30752828547986627 0.0652780760070501
2000000000.0 0.05738419332642829 -0.31382721140132297
2020000000.0 0.32197991208176163 -0.01777329108602796
2040000000.0 0.3255531176939122 -0.00966788381110293
2060000000.0 0.3158820919543908 0.056453886643854145
2080000000.0 0.0237537633593583 0.32315116390851495
2100000000.0 -0.04389789196546801 -0.32158070712161546
2120000000.0 0.3183361412647848 0.03379918022731605
2140000000.0 -0.2809281117230731 -0.14914356362188705
2160000000.0 0.14298231719671312 0.2856465242322622
2180000000.0 0.20059097779797108 -0.23831445390629663
2200000000.0 0.19594639828968397 -0.23400321599288557
2220000000.0 0.050802941317233175 -0.2938193937761914
2240000000.0 0.28620933427874407 -0.05178972834459367
2260000000.0 0.07255635744772727 0.26629751640623434
2280000000.0 -0.2000531406028785 0.1770901509502915
2300000000.0 0.04190151785808596 -0.24697172979401663
2320000000.0 -0.04352000272608605 0.23867043889132247
2340000000.0 0.09112086481173974 -0.22644030036359844
2360000000.0 0.12438592976657957 0.20949761173910084
2380000000.0 -0.19502428007046693 -0.164810123988295
2400000000.0 -0.278405973440196 -0.03469969458267666
2420000000.0 0.28899219517062796 0.09694072711665341
2440000000.0 -0.28981483697832816 -0.14800321600776703
2460000000.0 0.10541727106063309 0.33852607473258534
2480000000.0 0.12126859823163447 -0.37289319342065336
2500000000.0 0.38221668261411496 0.19177784813381463
2520000000.0 -0.4288193815058472 0.17487332757468643
2540000000.0 0.13519542705401882 -0.4775786667524859
2560000000.0 0.06963460563165443 0.5216689143487268
2580000000.0 -0.26728214899744296 -0.48267232458048615
2600000000.0 0.28982538000182084 0.4974657570014985
2620000000.0 -0.388218569466263 -0.4518548824805335
2640000000.0 0.5387724622760588 0.286139723416847
2660000000.0 -0.6173837390861795 0.0979397657061692
2680000000.0 0.09131239837768304 -0.6265096498034026
2700000000.0 0.6168114332268364 -0.17968533275587614
2720000000.0 0.63430119869792 0.1293661134704615
2740000000.0 0.6179214741608791 0.19739315129756405
2760000000.0 0.5724531463336703 0.3062596797579766
2780000000.0 -0.4550993157020304 0.4547025724187521
2800000000.0 -0.6097569998614316 0.17662270137523192
2820000000.0 -0.46872115571705525 -0.41104245846221715
2840000000.0 0.5239306375584449 -0.3126247998238931
2860000000.0 -0.380145534219501 0.4574286067866721
2880000000.0 0.5567104769556857 -0.13850644145858398
2900000000.0 -0.2475696316278905 -0.4942857094353463
2920000000.0 -0.5234706945618005 0.07096247758563032
2940000000.0 -0.31743569750124506 0.3838360025861015
2960000000.0 -0.3227240198461989 0.34544568537285336
2980000000.0 -0.24448939420547142 0.37424999362025635
3000000000.0 -0.14378829149583347 0.3984170088079016
3020000000.0 0.09085626527577623 0.3934402852511193
3040000000.0 0.3367868161151545 0.18021435840238298
3060000000.0 0.19701891537195426 -0.31113541974626074
3080000000.0 -0.35715704471017906 -0.0057864084669316685
3100000000.0 0.30810096145108484 0.16197152361027956
3120000000.0 0.17027782102260824 -0.2987315921503539
3140000000.0 -0.30493329055750573 0.15263107173017487
3160000000.0 0.3332143614820016 -0.09051603363120683
3180000000.0 -0.33415601739684136 0.08020139076694054
3200000000.0 0.03868100938842949 0.3416431212148053
3220000000.0 0.28387373103115543 -0.18733400942645168
3240000000.0 0.13055876441565922 -0.3080226475346097
3260000000.0 -0.15266634658549957 -0.2903630394713608
3280000000.0 -0.29995994915664675 -0.0965536494620868
3300000000.0 -0.2536753797325077 0.1584410485716589
3320000000.0 -0.05921464195086536 0.26505237775636564
3340000000.0 -0.23868131621928454 0.06408682047508324
3360000000.0 -0.20860383810965666 0.06884086969631907
3380000000.0 -0.08983519873980325 -0.16959534902124968
3400000000.0 -0.07341648053250427 -0.1506966304400991
3420000000.0 -0.12485138236170332 -0.06340780182292384
3440000000.0 -0.041666687147689827 -0.10996905769961778
3460000000.0 -0.012922511951118347 -0.09538750123357069
3480000000.0 0.03356938365507842 0.07096370037060465
3500000000.0 -0.011847376733971909 0.07218113227581716
3520000000.0 -0.0731340683197868 -0.008840777743572913
3540000000.0 0.06949456957033598 0.03934795142354561
3560000000.0 -0.03669892913048186 0.07838771104526497
3580000000.0 0.06231622378728313 0.07587677514181826
3600000000.0 0.06895395290379444 -0.0801773163867146
3620000000.0 0.051210903340676114 0.10877218423284986
3640000000.0 0.1102689563806339 -0.07737559264125407
3660000000.0 -0.01305168494991929 -0.1465227129706139
3680000000.0 0.07817805811782853 0.12792994362506316
3700000000.0 0.1108204961149622 0.09059797966420537
3720000000.0 0.12661958359848843 0.013519077556350834
3740000000.0 0.05477663003040223 -0.08677772035754178
3760000000.0 -0.0795152438025626 -0.004064304411211796
3780000000.0 0.012735997562753456 -0.05853162438355274
3800000000.0 0.025004157862915974 -0.012432111955987386
3820000000.0 -0.00023911592743684908 0.011086035656340122
3840000000.0 0.019416064397641018 -0.041505775348100876
3860000000.0 -0.07184568229207496 0.026761837739510925
3880000000.0 -0.08728382679086637 -0.059313447747960275
3900000000.0 0.1212664934164662 -0.03398240679605604
3920000000.0 -0.095977326312565 -0.1046790794723716
3940000000.0 0.051662308897778154 0.14235425887467576
3960000000.0 -0.00915527255452477 -0.15620844253923885
3980000000.0 0.14500899913874266 -0.0057743247432778064
4000000000.0 -0.12050832235806898 -0.027919329646123165
