!Created with skrf (http://scikit-rf.org).
# Hz S RI R 50.0 
!freq ReS11 ImS11
400000000.0 0.45012776580961733 0.2384954135641689
420000000.0 -0.39119652387763815 0.07254132829336545
440000000.0 0.2265030601182045 -0.24021040422864193
460000000.0 0.26658199342117544 -0.07486554708333494
480000000.0 0.11743402458570011 0.13634596379799419
500000000.0 0.08098995361949647 -0.10675102699781955
520000000.0 -0.022536128737223132 -0.1586864209260292
540000000.0 0.21689684297442233 0.021664318456443385
560000000.0 0.07461933067933696 0.27299756042787365
580000000.0 -0.26451223967604953 0.19264725774178862
600000000.0 -0.026302383316487734 -0.31412706281774866
620000000.0 -0.14543379490382594 -0.25091000539585157
640000000.0 0.11595258358735108 -0.24963924613302413
660000000.0 -0.27203946670910334 0.09115879270093326
680000000.0 -0.2500667397670885 -0.16567922031120924
700000000.0 0.1282579076545489 -0.2240322379003871
720000000.0 -0.22378604522929257 -0.06919217046517895
740000000.0 -0.2073606128365046 0.052968942224253135
760000000.0 0.14077367782287414 0.13933088609049046
780000000.0 -0.11509642078467154 0.12664991360469616
800000000.0 -0.16564838146058863 -0.010743887890002982
820000000.0 0.0013112668335025955 0.15955351041628849
840000000.0 0.11757337121117964 -0.04389483962862026
860000000.0 0.08220017191525286 -0.05756940640576433
880000000.0 -0.02370513115828916 -0.10486361162825748
900000000.0 -0.11398762608030502 0.0052156743451532575
920000000.0 -0.06917258655161093 0.06842365280216564
940000000.0 0.10668985383083877 -0.012716050411004088
960000000.0 -0.011802304397134051 -0.09938657518289906
980000000.0 -0.012052685160582551 0.11288768667589395
1000000000.0 0.02041459643976358 0.13122197863943352
1020000000.0 -0.06933076239386145 -0.11005495110122065
1040000000.0 -0.14944683055999572 0.050383201840724735
1060000000.0 0.1619675068899299 -0.018711348469505184
1080000000.0 0.019202097314448854 0.1918194768196376
1100000000.0 -0.18866658035608283 0.13308770235077866
1120000000.0 0.0762524198899652 0.24126005316945567
1140000000.0 0.05940738115154522 0.264405281529952
1160000000.0 -0.13396423360167226 0.24813576918486227
1180000000.0 -0.2446056711809871 0.14050788277756932
1200000000.0 -0.14916388297633035 -0.2380385298492293
1220000000.0 -0.16729793433687717 -0.2254868394932267
1240000000.0 -0.2550368185532952 -0.07732829429560432
1260000000.0 -0.20703101882762404 0.15139013233882623
1280000000.0 -0.2320115694718095 -0.0023319847249728956
1300000000.0 0.03825245503465638 0.2182260896720627
1320000000.0 0.07149296875189212 0.2050972993928337
1340000000.0 0.06645714326147559 -0.20673288718782268
1360000000.0 -0.19948822005165115 -0.07724627179102105
1380000000.0 -0.171498685159458 -0.12103374154069295
1400000000.0 -0.19164612881651422 -0.054701327809657696
1420000000.0 0.0009029710423421191 0.1897993534167386
1440000000.0 0.17908986467978447 -0.035422757398323415
1460000000.0 0.1429448627056412 0.1098038421747356
1480000000.0 -0.1774721372511234 -0.040702363829651665
1500000000.0 0.06457111287718112 0.15616606819867632
1520000000.0 -0.08584684657927391 0.13860383547036143
1540000000.0 0.15147577070375778 -0.039238725009073744
1560000000.0 -0.01941609902367518 0.14633575747988953
1580000000.0 0.146505044444303 0.02432661263647614
1600000000.0 0.10114414431148545 0.10621374133782842
1620000000.0 -0.12869635972723664 0.05817885761673298
1640000000.0 -0.13429972051781583 -0.036999806169525334
1660000000.0 -0.10663900604836785 -0.09319857856974723
1680000000.0 0.07374082835939316 0.11962200605162801
1700000000.0 0.06647950449557201 0.13108057250176036
1720000000.0 0.14990832105889199 0.05859794052341016
1740000000.0 0.024072675565769232 0.167277226376488
1760000000.0 0.15610595143233813 -0.10780541218664721
1780000000.0 -0.006501224948925596 0.20578728736142396
1800000000.0 -0.032241811170108214 -0.21885060178929563
1820000000.0 0.03038467821286846 0.22667040537278105
1840000000.0 0.13323856672340417 -0.19028016939575568
1860000000.0 -0.1358759509843135 -0.17967058929993843
1880000000.0 -0.04499451750859397 -0.2102260957992255
1900000000.0 -0.04886856416401781 -0.20289456337294542
1920000000.0 -0.16795303310267018 0.10479145959133443
1940000000.0 0.060094220045747875 0.17307985914301943
1960000000.0 0.08836546804482946 -0.14352412036834294
1980000000.0 -0.06639837010098144 0.13674070208888212
2000000000.0 -0.13265057300965458 -0.0380035756212317
2020000000.0 -0.03264324393019832 -0.11683136798916043
2040000000.0 0.08936889286119001 0.05874402182282074
2060000000.0 -0.0453813432947354 0.08832590951741026
2080000000.0 -0.027748240034109445 0.08799141468797135
2100000000.0 0.002036528636273448 0.09003688504944887
2120000000.0 0.07641403899091022 -0.046054202682260834
2140000000.0 0.07886185889679949 0.031650761427355886
2160000000.0 -0.08405394344740638 -0.01405477591559176
2180000000.0 0.06722053664968874 -0.04649657462915595
2200000000.0 0.028176849779309544 -0.07302388283553911
2220000000.0 -0.06500221026108484 -0.038664819281702664
2240000000.0 0.013228006063648153 0.06955112765644275
2260000000.0 -0.054331755857898484 -0.04459000311231387
2280000000.0 -0.06491449707032866 0.03466012207591015
2300000000.0 0.08119470605471436 -0.018097358848034612
2320000000.0 -0.003527252022207867 -0.09353115242618651
2340000000.0 0.1003325629636894 0.023949401892221583
2360000000.0 0.09960022861455488 -0.03653865039068577
2380000000.0 0.04998727946747178 -0.09618040097773888
2400000000.0 -0.06783594368677984 0.08600138957373175
2420000000.0 -0.11363208201682143 -0.006585738316142219
2440000000.0 -0.09191282315775505 0.06863637750398181
2460000000.0 0.04239808624551106 0.11401161747103782
2480000000.0 -0.10267467415233694 -0.07874680352106432
2500000000.0 -0.12893132256256473 -0.043642968438525394
2520000000.0 -0.14637035360310433 -0.01659562256139024
2540000000.0 -0.16210217180914033 -0.01751724946597937
2560000000.0 -0.10300430065221024 -0.1408293750165088
2580000000.0 0.08345910519826914 0.1649287691006396
2600000000.0 -0.1101571390618682 -0.15840274639639637
2620000000.0 -0.058884239806797405 0.1855395491104808
2640000000.0 0.15114508788168277 0.12277827243271736
2660000000.0 0.09719115965290953 -0.16382976553989423
2680000000.0 -0.1707400178437182 -0.062386106896648454
2700000000.0 0.05851823879093652 0.16046615230800026
2720000000.0 0.016019010252134945 -0.1587189065005019
2740000000.0 -0.12689669471134737 0.07433320732093246
2760000000.0 0.12254957476591181 -0.0681644677220618
2780000000.0 0.0014029391094834375 0.1349607381592511
2800000000.0 -0.053071547146888554 0.12034000767680221
2820000000.0 0.1289327164148121 0.011258794380134447
2840000000.0 -0.10344734280449394 -0.07790167553250799
2860000000.0 -0.12658212736082042 -0.03635146084409576
2880000000.0 0.040359468007221184 -0.1307688261258685
2900000000.0 0.06626521643753211 0.1310297675278618
2920000000.0 -0.04547216269425711 -0.14755788180347096
2940000000.0 -0.05188443305098458 0.1555101722666632
2960000000.0 0.16911670823102665 -0.033739232961662514
2980000000.0 -0.06567849891315461 -0.16634774481639322
3000000000.0 -0.1368675012255024 0.12570203300386684
3020000000.0 0.17450924611500865 -0.080039406372875
3040000000.0 -0.17865316669011996 0.08242985018712921
3060000000.0 -0.03091777424644767 -0.19746775700143365
3080000000.0 0.18071513003989703 -0.08929573282089168
3100000000.0 0.13605188368517634 -0.1448807897221765
3120000000.0 -0.1557471997127167 -0.11735135009166747
3140000000.0 0.0709556840744671 0.1764689032282717
3160000000.0 -0.08346277837192849 -0.1665858672240995
3180000000.0 0.18333250392476935 0.026643139927305326
3200000000.0 -0.18229622625188147 -0.03719140126632187
3220000000.0 0.12653907186330704 -0.13923366927141753
3240000000.0 -0.13972431232284663 0.1330653312278518
3260000000.0 0.1971215573769433 0.017462041659310954
3280000000.0 0.17084906979812828 -0.10815283502532516
3300000000.0 0.2046305909778146 -0.03432163112211044
3320000000.0 0.13547403742159322 0.16134914163508587
3340000000.0 -0.21194567218747762 0.027808683568781026
3360000000.0 0.16123138402536508 -0.14288372097723728
3380000000.0 -0.16223226411965605 0.1406592779065007
3400000000.0 0.16139069867401895 -0.13656898648434432
3420000000.0 -0.1564378955971313 0.132244741029942
3440000000.0 0.19655057752884045 -0.010050296954296881
3460000000.0 0.026991882032793478 -0.18795201237084663
3480000000.0 -0.16041946227368017 0.08515038834168316
3500000000.0 0.16970969259477922 0.04514979835616151
3520000000.0 -0.09554997645554085 -0.1385800901068968
3540000000.0 0.14407070102285682 0.07138743095441111
3560000000.0 -0.11988955622278669 0.0959540119834166
3580000000.0 -0.13574182026885484 -0.06003412605349173
3600000000.0 -0.14539465675224156 0.005668454760893519
3620000000.0 -0.13217191793628114 0.05667059225814471
3640000000.0 0.10506358724775278 0.10126450355322644
3660000000.0 -0.06615941840915836 -0.13851876770310326
3680000000.0 -0.00798030767588298 0.1648175409655328
3700000000.0 0.17709261431902135 -0.039489819158301055
3720000000.0 0.1666609413092062 -0.11229156270339215
3740000000.0 0.22081769317146976 0.018331377225448888
3760000000.0 0.2376207633109869 0.04756666244528358
3780000000.0 0.07476101140859234 0.25000027104415595
3800000000.0 -0.26880136037192454 -0.06197958514949364
3820000000.0 0.2782583377073947 -0.05867873325575665
3840000000.0 -0.2852134815786574 0.03522342418624766
3860000000.0 0.26400799406260533 -0.1069339302029631
3880000000.0 -0.2780970407730153 -0.006879975878200991
3900000000.0 0.25984830007980453 0.06394337502223901
3920000000.0 -0.2434966481830934 0.04833852730668892
3940000000.0 0.10598123135607126 -0.20008063625668945
3960000000.0 0.1949911544804602 -0.04255350227407215
3980000000.0 0.12639223492074042 -0.11865983255004164
4000000000.0 -0.0560062069002581 0.1356219151165903
