!Created with skrf (http://scikit-rf.org).
# Hz S RI R 50.0 
!freq ReS11 ImS11
400000000.0 0.48704005608398554 0.15071092019945875
420000000.0 -0.34721827633889996 0.1896806466951815
440000000.0 0.26478025137183037 -0.1951588599288069
460000000.0 0.2705501501731415 0.049728566763732794
480000000.0 0.06771548274149608 0.16731730303364556
500000000.0 0.05979398390277834 -0.12042421949438332
520000000.0 -0.12507177511852546 -0.10131492681081844
540000000.0 0.21340886842523987 0.0334631806523957
560000000.0 0.03474790059299442 0.2802645825680133
580000000.0 -0.2628122510785544 0.19553683901396768
600000000.0 -0.014898948145447375 -0.31318447498732516
620000000.0 -0.013013941489028538 -0.2892769543688457
640000000.0 0.22344709598018628 -0.16525894187850085
660000000.0 -0.28566428056381643 0.048929761524741024
680000000.0 -0.29250289256479056 0.07340588655399934
700000000.0 0.05142782289430438 -0.24972311257769358
720000000.0 -0.11520129865432599 -0.19992404691823507
740000000.0 -0.205511067775382 -0.05708929077812334
760000000.0 0.06998910051318118 0.18808766190968002
780000000.0 -0.08817972159007383 0.14953202938676818
800000000.0 -0.12182048043401938 0.11328079539433508
820000000.0 0.0882297645871835 0.13048677489539476
840000000.0 0.12248545444247792 -0.026202168824529436
860000000.0 0.0962156728369158 0.02803258079426518
880000000.0 0.07951809331997087 -0.07269151411227547
900000000.0 -0.08492765237473275 -0.07701361215374773
920000000.0 -0.03343651560245657 0.09219910075286152
940000000.0 0.08703398714641503 -0.06455840329065697
960000000.0 -0.05325096372255281 -0.08449127151307763
980000000.0 -0.022483187442914783 0.11087481260894884
1000000000.0 -0.031246539682711905 0.12973846782296905
1020000000.0 -0.09013029614492821 -0.09319308633808118
1040000000.0 -0.14858005962126586 0.05036250353776403
1060000000.0 0.16178586292811917 0.014396464164265068
1080000000.0 0.012221680721041234 0.19304066970759773
1100000000.0 -0.18741017056449277 0.1355207512053812
1120000000.0 0.10864542657788918 0.22837172218465251
1140000000.0 0.10350340479276 0.249880480795346
1160000000.0 -0.11127315585659887 0.25858138058801927
1180000000.0 -0.2563091915281539 0.11806999537038299
1200000000.0 -0.14659530830191458 -0.2394354602371339
1220000000.0 -0.14111605116755987 -0.24307051824405942
1240000000.0 -0.2668938982784451 -0.022946673945483772
1260000000.0 -0.19800417397330472 0.16141069468814717
1280000000.0 -0.2252056042500237 -0.05720704439396289
1300000000.0 0.01730222812782137 0.22133726826934416
1320000000.0 0.07999267254080143 0.20180621629949935
1340000000.0 0.07482397588141847 -0.20368275243808598
1360000000.0 -0.19927120690351122 -0.07651740475135539
1380000000.0 -0.16984430387296928 -0.12327879182471457
1400000000.0 -0.19630557175882535 -0.03581695764248284
1420000000.0 0.010938335106726831 0.18903974730922493
1440000000.0 0.17528074641811078 -0.04996904133946082
1460000000.0 0.14170931809778198 0.11158936466253015
1480000000.0 -0.18176490421769403 0.001917775915446614
1500000000.0 0.1028478278498063 0.13432743312465165
1520000000.0 -0.04590694311778332 0.15597075048157827
1540000000.0 0.15572823231273522 0.012740945833783872
1560000000.0 -0.02753607319495056 0.14589054653740735
1580000000.0 0.14931270212278405 0.0027173277073712855
1600000000.0 0.112228263432963 0.09399839660246045
1620000000.0 -0.11980822700610137 0.07428982979903455
1640000000.0 -0.1226768473717049 -0.06526403016411539
1660000000.0 -0.05862419557946106 -0.12939944559772643
1680000000.0 0.0927916632714629 0.10707071489201944
1700000000.0 0.09803167017981622 0.10932116601645842
1720000000.0 0.15544989261117437 0.03854630402383182
1740000000.0 -0.03244158246950315 0.1654718096962845
1760000000.0 0.1637742452655057 -0.09658942625694084
1780000000.0 0.009835114691831345 0.20604459124533064
1800000000.0 -0.054883023555528654 -0.2136699045102959
1820000000.0 0.03749041412977175 0.2255052860896957
1840000000.0 0.12082479263853957 -0.19860131157309716
1860000000.0 -0.1606817099729303 -0.157374714454466
1880000000.0 -0.03877925340241312 -0.21151823652369392
1900000000.0 -0.05757837266752808 -0.20055700357196013
1920000000.0 -0.1752786259543658 0.09280722183955722
1940000000.0 0.08754874923026651 0.16104321097328647
1960000000.0 0.09346536174116445 -0.13983668275845726
1980000000.0 -0.07556824044518043 0.13203401701724723
2000000000.0 -0.13561938424525977 -0.026932632520662952
2020000000.0 -0.03170635407731995 -0.11735380155548855
2040000000.0 0.0758328011115362 0.0758257450136394
2060000000.0 -0.04603481783909697 0.08738093882219061
2080000000.0 -0.02088046198890439 0.08999638152360463
2100000000.0 0.0031774705454252626 0.08968295010262889
2120000000.0 0.08248996051248145 -0.03279655599030761
2140000000.0 0.08062743185833282 0.026064441741166615
2160000000.0 -0.08492511091624658 -0.0031661213977595103
2180000000.0 0.06144967966922322 -0.053801373531358304
2200000000.0 0.023738799939515134 -0.07439843944949438
2220000000.0 -0.06881314985963283 -0.03059701534769511
2240000000.0 0.022705031475916307 0.06686891558085734
2260000000.0 -0.06311804988707484 -0.030719275888360455
2280000000.0 -0.06309208375601678 0.037799474423639366
2300000000.0 0.06828781530272808 -0.047436991554086025
2320000000.0 -0.01677979805307021 -0.09209090576264498
2340000000.0 0.10186015541624788 0.016990415236499662
2360000000.0 0.10274168391535243 -0.02782533161558826
2380000000.0 0.04653523781477467 -0.09845358640999674
2400000000.0 -0.07533873543371762 0.08022989425305219
2420000000.0 -0.10708895857275778 -0.03898253082082084
2440000000.0 -0.09811356379405044 0.05907728794270464
2460000000.0 0.0004795561988781606 0.12162765230331944
2480000000.0 -0.07999435452788149 -0.10157413394976232
2500000000.0 -0.1350676259613591 -0.01685885908831408
2520000000.0 -0.14688974507567815 0.009901430238919954
2540000000.0 -0.16267758071547708 -0.0013751744678913668
2560000000.0 -0.11932060638631062 -0.1271479486653358
2580000000.0 0.0945014035234658 0.1587777344767808
2600000000.0 -0.12072526489490562 -0.1506864763344037
2620000000.0 -0.05507890888702311 0.1870057007001045
2640000000.0 0.1528680873594621 0.12102199504270511
2660000000.0 0.09852383893688335 -0.16322346376546906
2680000000.0 -0.1672564870053188 -0.0713600375931186
2700000000.0 0.01766338628945898 0.16984381417349131
2720000000.0 0.036890786660921195 -0.15503251436598894
2740000000.0 -0.14571652087607842 0.020275778671712947
2760000000.0 0.13278858076962946 -0.0444306549423658
2780000000.0 -0.00012755549377685435 0.13468525734641235
2800000000.0 -0.050102481682560866 0.12099232781079618
2820000000.0 0.12859983244263948 0.011874352597683786
2840000000.0 -0.10982445709641428 -0.06839934465259581
2860000000.0 -0.13004110718657122 -0.02265840043458099
2880000000.0 0.017976240468351695 -0.13575085394321665
2900000000.0 0.08351575148569547 0.12077433530213628
2920000000.0 -0.05283319441935115 -0.14546598810244557
2940000000.0 -0.049196274474983065 0.15665558516368394
2960000000.0 0.17071538032668937 -0.02580177322152775
2980000000.0 -0.04060375222666456 -0.17434829881531697
3000000000.0 -0.12906048856421862 0.13381627531098153
3020000000.0 0.18083621576101475 -0.06532425336917057
3040000000.0 -0.18348065905329042 0.07058742988921735
3060000000.0 -0.009384454013880338 -0.19984800750736667
3080000000.0 0.18603115297305145 -0.07783800654068981
3100000000.0 0.14081166938615539 -0.13955490330560605
3120000000.0 -0.11471382609528914 -0.1575193925564528
3140000000.0 0.07568827480418405 0.17429618502768668
3160000000.0 -0.08024123962516795 -0.16807556713936925
3180000000.0 0.18330209616218812 -0.03059857283569372
3200000000.0 -0.18438592636628431 -0.025102101079799596
3220000000.0 0.12826645321051036 -0.13799918702604308
3240000000.0 -0.14522869873956856 0.1269467332174245
3260000000.0 0.1963779234818436 0.02455468591797249
3280000000.0 0.17333260934855474 -0.1040772019136706
3300000000.0 0.2056564097776247 -0.024676015767675995
3320000000.0 0.12902802044583317 0.16599158665142405
3340000000.0 -0.21362066020806383 0.0015815701972033587
3360000000.0 0.16876336607373707 -0.13381282143189688
3380000000.0 -0.15487144636924188 0.1480273336215011
3400000000.0 0.16063201459311408 -0.13702943477684273
3420000000.0 -0.16407982343677588 0.1218982560184145
3440000000.0 0.19665094881195772 -0.005927974147435369
3460000000.0 0.02967820164223585 -0.18747781936572763
3480000000.0 -0.16392033275741505 0.07752480680208933
3500000000.0 0.16977883727601248 0.044558816818555905
3520000000.0 -0.09798213616015743 -0.1367471179790339
3540000000.0 0.1482169048660877 0.06290790870857323
3560000000.0 -0.10701928466688902 0.11059636606467725
3580000000.0 -0.14319301220268596 -0.04011132778773284
3600000000.0 -0.14479055582011757 0.012893698665918333
3620000000.0 -0.13321935303499546 0.05400682643953749
3640000000.0 0.10335143115438702 0.10337215218298716
3660000000.0 -0.06512197634577033 -0.13924161397427007
3680000000.0 -0.013675473841129512 0.16486618350065785
3700000000.0 0.1790702152764117 -0.028921859441979746
3720000000.0 0.17874794072695963 -0.09212957496175932
3740000000.0 0.21193291118985752 0.0648463932803258
3760000000.0 0.22433018571714172 0.0915262319026209
3780000000.0 0.05186378005789066 0.2557858153985487
3800000000.0 -0.26573021148015386 -0.07234760049040624
3820000000.0 0.2751231593613676 -0.06883113925718806
3840000000.0 -0.2852788439542759 0.030243002375282945
3860000000.0 0.2759450761277248 -0.06857332331906474
3880000000.0 -0.2768546086953967 -0.01952002107842259
3900000000.0 0.26255741717744946 0.04858512753738721
3920000000.0 -0.23872121231980636 0.06696989664823727
3940000000.0 0.09424513389752393 -0.20583571356635333
3960000000.0 0.18940668533693092 -0.06425628759403605
3980000000.0 0.11813224784126196 -0.1274785807860404
4000000000.0 -0.07661361737080759 0.12563933730175236
