!Created with skrf (http://scikit-rf.org).
# Hz S RI R 50.0 
!freq ReS11 ImS11
400000000.0 -0.7120237055221907 0.1052197354784349
406500000.0 -0.3120198757252476 -0.627880273229905
413000000.0 0.6774327223888812 0.020315452281549302
419500000.0 -0.6664135504805552 0.016437023264567877
426000000.0 0.2630666200823335 0.6022707549543369
432500000.0 -0.4742656508520732 -0.44115129748318505
439000000.0 0.6302664695284872 0.080331572120305
445500000.0 -0.6190955281510078 0.09556085628858067
452000000.0 0.5267988105312778 -0.3252685697628384
458500000.0 -0.13587991194857338 0.6070989544803599
465000000.0 -0.5249952290708283 -0.33371828168574774
471500000.0 -0.27698634316504617 -0.5545994758082882
478000000.0 -0.11523660343634701 -0.600651127809328
484500000.0 0.20589471888987126 -0.5681763941927016
491000000.0 0.044207475858131826 -0.5888611781351788
497500000.0 -0.31717275704921805 -0.4738866846603363
504000000.0 -0.38855744119997715 0.37417375066176406
510500000.0 0.05041786200874489 0.49820488841985294
517000000.0 0.4256602638519066 0.16991125770751225
523500000.0 0.12081671699588671 0.411499304564381
530000000.0 -0.15448850704150185 0.3616633104339536
536500000.0 0.2423031481405727 0.2667733214704595
543000000.0 0.2945751006562931 0.1848495430079156
549500000.0 0.3171638914912509 0.09716432816493811
556000000.0 -0.014864597613203736 -0.30610629864863265
562500000.0 0.15598643705704088 -0.2443367568792596
569000000.0 -0.14566592252293176 -0.22990834313001507
575500000.0 0.26167673774735345 -0.0058569356324545425
582000000.0 0.039023632632224685 -0.2548723489164565
588500000.0 0.23626257928179328 0.12260976821696541
595000000.0 -0.050426410741657414 -0.28135015241771283
601500000.0 0.07252972254137853 -0.28294291294307206
608000000.0 0.206213461057753 -0.20983760278561794
614500000.0 0.023157667377229248 -0.2994439548155902
621000000.0 -0.07072430376041541 -0.29046273639706005
627500000.0 0.29632050657579107 0.009766660011209013
634000000.0 -0.041604171226532025 0.29941620888018017
640500000.0 -0.2900122476714975 0.031134174009563233
647000000.0 0.2962484870200463 0.041706729055469426
653500000.0 0.17706523471488844 0.24187380846581644
660000000.0 -0.29209451405293285 -0.06614948740536297
666500000.0 0.14223694583532767 -0.2644781477750749
673000000.0 0.1018545990210694 0.27792039512618527
679500000.0 0.2912094263636908 -0.08814889682284673
686000000.0 0.27755769526419305 -0.10477401374282448
692500000.0 -0.2913284347412036 -0.04050530973294817
699000000.0 0.21518655686781105 -0.19276900584179138
705500000.0 -0.288953093936459 0.03780226539065359
712000000.0 0.29233885772973817 -0.01591094477958593
718500000.0 0.12023225151464069 -0.27352538137423615
725000000.0 -0.008074731214034807 0.31156162991405073
731500000.0 0.07099982738435653 -0.3105630985772001
738000000.0 0.18138442916183148 0.27731998055633156
744500000.0 -0.3283029706815604 -0.010786080764799155
751000000.0 0.27467500878575 0.18432504617284431
757500000.0 -0.1688933057086998 -0.29390319798689135
764000000.0 -0.2260694004832867 0.2654019743998565
770500000.0 -0.16621752096507666 -0.3146942095460409
777000000.0 -0.11797208586366427 0.3431215107079267
783500000.0 -0.11257568150049631 -0.3430584030444583
790000000.0 -0.11255281547398707 0.3494544096395466
796500000.0 0.005735618029581734 -0.3699656558254259
803000000.0 -0.33903028751760333 0.1306134202782745
809500000.0 0.27469113315173493 0.2365712066700165
816000000.0 0.23404543671755326 -0.27414355558245496
822500000.0 -0.0282773582876932 -0.3690502656004386
829000000.0 -0.33033854174627225 0.1902429767718309
835500000.0 -0.39253316969680196 0.027373661638126198
842000000.0 0.40909324446507794 0.045122341064208316
848500000.0 -0.27527706821491715 -0.30903240163857665
855000000.0 0.1949646969958286 0.37736057242770205
861500000.0 0.127859370949848 -0.40737537760439946
868000000.0 -0.2631381878569026 0.3453167872358255
874500000.0 0.346719276656966 -0.26301421994767893
881000000.0 -0.2838863202574769 0.34126019076199443
887500000.0 0.09013856795305271 -0.4385145450650352
894000000.0 0.11359399918381916 0.4307206341209374
900500000.0 -0.4191082747329657 0.1299078377010322
907000000.0 -0.2033790583453312 -0.37780100278539797
913500000.0 0.4049426049800984 0.07208005800832853
920000000.0 -0.15437070729265812 0.369385188422468
926500000.0 -0.3843596515831858 -0.0249244372570862
933000000.0 -0.09567461165209962 -0.360125140173419
939500000.0 -0.04285862551982763 -0.3589451221473592
946000000.0 -0.11489491417970626 -0.3218343978712459
952500000.0 -0.06617535931748036 -0.31329134786637625
959000000.0 -0.07525747288910548 -0.29136181123239735
965500000.0 -0.08657666553823933 -0.26954811193005396
972000000.0 0.14844820116978455 0.22264016914757467
978500000.0 -0.1306000772327887 0.22060177626247704
985000000.0 -0.191805241246556 0.14468891043494533
991500000.0 -0.21255265673915577 -0.08198818828773978
998000000.0 0.07308054026149778 -0.20187005150117418
1004500000.0 0.19619280890187324 0.053293482389863964
1011000000.0 -0.16832979600789996 0.09297936672071505
1017500000.0 -0.06830450638267466 -0.16789393805637057
1024000000.0 0.14545182228734896 -0.07944286284316114
1030500000.0 0.11805950827052508 0.09541275181007171
1037000000.0 -0.04746029173655625 -0.13092780862002032
1043500000.0 -0.05917839380497485 -0.1154041318688205
1050000000.0 0.12210205580616013 -0.019514741009604673
1056500000.0 -0.09824811489321983 -0.06352256877166546
1063000000.0 0.10052274108125185 0.046534659337843974
1069500000.0 0.10391058100417079 -0.0010923095398690625
1076000000.0 0.01421848061116233 -0.10120245249212369
1082500000.0 0.03718853096794636 -0.09184916386328192
1089000000.0 -0.0799762181505136 -0.06059829364978427
1095500000.0 0.0765969074427892 0.0645649124527217
1102000000.0 -0.1046855681952365 -0.017278570273675575
1108500000.0 0.08077282221302222 -0.07639759676759296
1115000000.0 -0.09129637425999425 -0.07768808000218616
1121500000.0 -0.0036420904092364283 0.13547190929077815
1128000000.0 -0.019527194291522602 -0.1497056352941732
1134500000.0 0.03297658340603701 0.16211900346245575
1141000000.0 -0.09150389593540557 -0.1597419589366692
1147500000.0 0.11435210469140589 -0.16661603604806177
1154000000.0 0.19324804590859757 0.08729752093296558
1160500000.0 0.028135289997263026 0.2184831321401352
1167000000.0 -0.2200449630682968 -0.05249833328972147
1173500000.0 0.22621266308760563 0.0003200350301886511
1180000000.0 -0.22417572599485242 -0.04536875518803459
1186500000.0 0.09941156390232272 0.20542900422474716
1193000000.0 0.20228539114559996 -0.12065410569873587
1199500000.0 -0.23664426277870457 -0.05213874214572131
1206000000.0 -0.22957151402890769 0.10314487147293135
1212500000.0 0.2649755615228222 -0.026607152942875138
1219000000.0 -0.2752048734885441 0.06072298520823224
1225500000.0 0.28869788637389554 -0.012931809906568503
1232000000.0 -0.20134751028166692 -0.22264724536502314
1238500000.0 -0.23322590438580787 0.20347339301080059
1245000000.0 0.2094814683733543 0.23673414310702562
1251500000.0 0.20981435177091476 -0.2481682391612037
1258000000.0 -0.20799794995748597 -0.25635533775761454
1264500000.0 -0.326226727561559 -0.07436566170002422
1271000000.0 -0.1518850759982372 0.307425321131161
1277500000.0 0.15518371677067255 0.3103393282484416
1284000000.0 0.3522223452039591 -0.006572452323991631
1290500000.0 0.2163504881398766 -0.2800870402870967
1297000000.0 -0.15242884041879803 -0.3251249826822692
1303500000.0 -0.3547423493948715 0.04953380093176517
1310000000.0 -0.110117626134597 0.34028397400500765
1316500000.0 0.35923325905129044 0.010831621343629924
1323000000.0 -0.020491637975713982 -0.3572367419576004
1329500000.0 -0.04955430139022337 0.35115491771776547
1336000000.0 0.32616591400609546 -0.11705741210032969
1342500000.0 -0.3348133018656895 -0.06870717884089021
1349000000.0 0.1719541915533871 0.28577880618101187
1355500000.0 0.31506067888756384 -0.09547313182750639
1362000000.0 -0.23097958557108905 -0.22811158740440252
1368500000.0 -0.3245512453104431 0.003362740610160954
1375000000.0 0.06996789415095661 0.3248191557212966
1381500000.0 0.23939355190467138 -0.23604229214560335
1388000000.0 -0.33480936511970005 -0.08480542910024517
1394500000.0 0.14490527745377615 0.32170774702013727
1401000000.0 0.13497236621437123 0.3336397163863593
1407500000.0 0.2902717662868437 -0.2225501645752752
1414000000.0 -0.17837253964739175 -0.32780317684816657
1420500000.0 -0.29128032795189324 0.2418736654387271
1427000000.0 -0.13953182161616712 0.3524333176499357
1433500000.0 0.043399542801964903 0.3808207960573147
1440000000.0 0.11789409969710445 0.36152710679403904
1446500000.0 0.07628837279293224 0.3775160345271734
1453000000.0 0.2223579482371645 0.31390535208100817
1459500000.0 0.22126792265604375 0.3131761710993695
1466000000.0 0.37900787150069315 -0.04581431826839961
1472500000.0 0.3242781539550051 -0.19055730311728727
1479000000.0 0.04523928860836433 -0.3650083294416489
1485500000.0 -0.24248387968558124 -0.2651651032576844
1492000000.0 -0.3186682464241497 0.13911211780351845
1498500000.0 0.08861284141086384 0.3219781086598713
1505000000.0 0.3181147285791093 0.051706547345874015
1511500000.0 0.09449601681954672 -0.295120749384281
1518000000.0 -0.2209437721259002 -0.20051152795315952
1524500000.0 0.22638984393731829 0.180491596673519
1531000000.0 0.17466082230385355 -0.21507197037978232
1537500000.0 -0.23534167370049314 0.13996089242256168
1544000000.0 0.2565307815297192 -0.06450338531384198
1550500000.0 -0.1518837147818611 0.21764328130471083
1557000000.0 0.06827192304738966 -0.24878267756403005
1563500000.0 -0.2444357958806538 0.07322032953908308
1570000000.0 -0.25404710956825616 0.006840281131703511
1576500000.0 0.020867997976292726 0.2556735968816862
1583000000.0 0.23402764619691568 0.11612313877757353
1589500000.0 0.18051934666218947 -0.1920012309696798
1596000000.0 -0.1857956086706573 -0.18505626832828792
1602500000.0 -0.2589160909537892 0.032473611642964646
1609000000.0 -0.25241595570047565 0.044874541351302207
1615500000.0 -0.18772440094045909 0.16212996605467664
1622000000.0 0.013061757596153032 -0.24162593748782052
1628500000.0 0.1260010743640513 -0.20068742420746463
1635000000.0 0.22033312504330083 0.06814316502515
1641500000.0 0.030496295271712364 0.2219962125832317
1648000000.0 -0.21910838253536274 0.0035738484917744234
1654500000.0 -0.022269275272287066 -0.21187842903698292
1661000000.0 -0.10976115815640394 -0.17840038708607503
1667500000.0 -0.20014761310876933 0.025234302271018368
1674000000.0 0.1161696059552377 0.15001968769656887
1680500000.0 0.15983962539009022 -0.06346479828152532
1687000000.0 -0.07863075957360803 -0.13778386442542953
1693500000.0 -0.06618411046950372 0.12549462215514753
1700000000.0 0.09733204270189297 -0.09162765412186193
1706500000.0 -0.0733764100637075 0.09587449569366886
1713000000.0 -0.01448814302707128 -0.11299694641682598
1719500000.0 -0.07487394964326 0.080812427537128
1726000000.0 -0.07908584416646718 -0.07471578527834238
1732500000.0 0.013181877307027799 -0.10609975576706508
1739000000.0 0.08661463375657673 0.06583034078387856
1745500000.0 -0.09261490247345534 0.05244501438075522
1752000000.0 0.016270171404353165 -0.10700152877366706
1758500000.0 -0.07695704062601033 0.07443409962524108
1765000000.0 0.07600667884106206 0.07481820749850891
1771500000.0 0.09482154637277714 0.04166050938333105
1778000000.0 0.048457524829133944 0.08948395323684932
1784500000.0 -0.021550437116292676 0.0991364300082694
1791000000.0 -0.03104370506720559 -0.0951386664002305
1797500000.0 -0.09515364237077817 0.027816427044474713
1804000000.0 -0.04775304215637637 -0.08692669759917594
1810500000.0 0.09802829562020753 0.015837282020537736
1817000000.0 0.06854424853858469 0.06775170451463701
1823500000.0 0.06763919670463556 -0.060452586808555704
1830000000.0 0.03150939524896794 -0.07464614591838793
1836500000.0 0.02370644108703808 -0.06795992636058926
1843000000.0 0.037926556499352074 0.04129739426271351
1849500000.0 -0.04353868083291402 0.00281521750079008
1856000000.0 0.03112076048894941 0.006267793422418263
1862500000.0 -0.01935058009977135 0.010408755332420297
1869000000.0 -0.003010136148519773 -0.019523109724107937
1875500000.0 -0.008555695200971006 -0.016751358235941018
1882000000.0 -0.012021686100128309 0.00787809792631144
1888500000.0 -0.005685574831513911 -0.013362679540339071
1895000000.0 0.013692758218875684 0.011355308002816483
1901500000.0 0.02047711237417177 -0.006427058788576136
1908000000.0 0.010336443033470786 0.019781065837924307
1914500000.0 -0.024472987644572657 0.004074543336059905
1921000000.0 -0.025238049063616617 -0.0021317570963946993
1927500000.0 0.0003099185657158242 0.0235838615423739
1934000000.0 0.017050424744772034 -0.015178643878220268
1940500000.0 0.017826815224248563 -0.005538546808385677
1947000000.0 0.019612050495737648 -0.004892541040973583
1953500000.0 -0.0150586887779968 -0.018114356695526537
1960000000.0 -0.005601355554509475 -0.02211355950176163
1966500000.0 -0.0006599453054681354 0.03295591715522076
1973000000.0 -0.03437218668286976 -0.021745735934541086
1979500000.0 -0.011251509074924747 -0.05050057881181706
1986000000.0 -0.03024768947225547 -0.05859428291208853
1992500000.0 -0.07412396046967894 0.021194456252963432
1999000000.0 -0.060454378408519596 -0.06456475190814225
2005500000.0 -0.09925213998393553 -0.0053311169056017614
2012000000.0 -0.08049243657007704 -0.07534587974492571
2018500000.0 0.009753083587487261 -0.11780460783960639
2025000000.0 0.11093361512297174 -0.0653089743338972
2031500000.0 0.124798075169102 0.04199661141784333
2038000000.0 0.05926922036443721 0.12258498762353873
2044500000.0 -0.13157108910528004 0.04301274158386594
2051000000.0 -0.12702446008598864 -0.06397077529422682
2057500000.0 -0.1370771272353193 -0.028148698517466365
2064000000.0 -0.1402095056476019 -0.010856854078187442
2070500000.0 -0.13102778695938821 0.03617114353950276
2077000000.0 0.091412600486983 0.09208552770212365
2083500000.0 0.09403080959582158 -0.07800641867062212
2090000000.0 -0.1155917422864665 0.01662788372696526
2096500000.0 0.052846151102704145 0.09603570522141544
2103000000.0 -0.09864503345345342 0.040489494545636294
2109500000.0 -0.02363308697910319 -0.1020122898805855
2116000000.0 -0.10819514497362447 -0.0004124134763934922
2122500000.0 -0.005791991839907634 0.1113188638619508
2129000000.0 0.12266977120986772 -0.0010211899963111725
2135500000.0 0.07326230663612548 -0.10720637723473814
2142000000.0 -0.02027570763742536 0.1407082288664401
2148500000.0 -0.14546405986933664 -0.04825999369403648
2155000000.0 0.13220338235606705 0.10275643345966476
2161500000.0 -0.08835792202541597 -0.1560801030424051
2168000000.0 -0.15471538202853286 0.11852906404007406
2174500000.0 -0.11043111785169499 0.17416249989634058
2181000000.0 -0.03858071525951991 0.2148416902772015
2187500000.0 0.05442724115611735 0.2247196061287353
2194000000.0 0.0475956642724157 0.23830829035021006
2200500000.0 0.04256537255799308 0.24965315746730926
2207000000.0 0.25289584885622884 0.051583169929582985
2213500000.0 0.24058791580923675 0.09861296058800861
2220000000.0 0.2593632831739316 0.005440280951028988
2226500000.0 0.21480817014218723 0.13308649560930663
2233000000.0 0.19477416980573595 0.1531596961424219
2239500000.0 -0.13993186370957852 0.19721474363446181
2246000000.0 -0.1897814590320255 0.13799202672480518
2252500000.0 -0.22442448384934777 0.015046767154703648
2259000000.0 -0.21614301120594023 -0.04143857133485572
2265500000.0 -0.1973659034898788 0.0821925354479485
2272000000.0 -0.06399466754112582 0.19703597200940173
2278500000.0 0.1182003473723174 -0.16297997247649448
2285000000.0 -0.11636597645025515 0.1539414536854844
2291500000.0 0.03175368809706042 -0.18037512336019287
2298000000.0 -0.018190404888556676 0.17134013480055113
2304500000.0 -0.09573844389586365 -0.1378158016738991
2311000000.0 -0.15313129283487462 -0.02327498330196289
2317500000.0 -0.028322006403155832 0.152059453060997
2324000000.0 -0.022396799702683698 -0.1494598634124326
2330500000.0 -0.1462480187292169 0.04035415375460732
2337000000.0 0.12209369216847583 0.09041018965781844
2343500000.0 0.0813126701125125 -0.1314305481662078
2350000000.0 -0.15522601434945457 -0.008254878143569372
2356500000.0 -0.14594799625261493 0.0626707603447603
2363000000.0 -0.01932364117410984 0.16007457205106992
2369500000.0 0.15741978417874045 0.03928542733715046
2376000000.0 0.1581195272822485 -0.03636387005354542
2382500000.0 0.14644934567516413 -0.06388318205634567
2389000000.0 0.15025986441941047 0.05387719025287239
2395500000.0 0.02457940766904063 0.15684194145834313
2402000000.0 -0.1519634331660095 0.045216659288906
2408500000.0 -0.15231807894050123 0.049015043002771444
2415000000.0 -0.1204425634900672 0.10502143395054764
2421500000.0 -0.14571878165114213 0.06146346660319061
2428000000.0 -0.06146062853384549 0.1432991272567599
2434500000.0 0.01694950734505592 0.15154442523172998
2441000000.0 -0.012932580418278505 0.15153240786515454
2447500000.0 0.1299044725048484 0.074184616658915
2454000000.0 0.14091987973267037 -0.04699536848047653
2460500000.0 0.14359190513497866 -0.035539948470529895
2467000000.0 0.1468690748053111 -0.015129386688214527
2473500000.0 0.13980681460963762 -0.049112539919915786
2480000000.0 0.14199768442731223 0.04651168672521013
2486500000.0 0.1533481985310193 -0.02441223747445228
2493000000.0 0.022945611440228008 0.15364595110408563
2499500000.0 0.060696144906802474 0.14500772600098333
2506000000.0 0.08485222797210565 0.13486211234541728
2512500000.0 -0.07241293906573054 -0.14140714472694227
2519000000.0 0.16039130232892118 -0.019044214513816247
2525500000.0 -0.12507043697410677 0.10664436409631639
2532000000.0 0.06187007348873211 -0.1562806064658112
2538500000.0 -0.04900352702593275 0.1609635703112193
2545000000.0 -0.1075169963480357 -0.13251512550890265
2551500000.0 0.10210592607666655 0.1346336056018376
2558000000.0 0.0693868746311894 -0.15419379975675168
2564500000.0 -0.043226189907378525 0.1607577212835763
2571000000.0 0.14619874899312463 -0.07657485204277485
2577500000.0 -0.15122857675810636 -0.04775609631483993
2584000000.0 -0.15601419733438468 -0.01233411209518054
2590500000.0 -0.013571971207602665 0.15231911805896942
2597000000.0 0.15253591540911374 0.0018457364571109968
2603500000.0 0.02264173353021895 -0.14770703532934185
2610000000.0 -0.0207209294538538 0.14739858987929003
2616500000.0 0.01254619709102063 -0.14283040675613057
2623000000.0 0.04831710967423081 0.1306745239165733
2629500000.0 -0.09065382197895962 -0.09355943632247384
2636000000.0 0.12161559874876852 -0.01152341039710489
2642500000.0 -0.10938931154279488 0.02592429341109184
2649000000.0 -0.08090206675506162 -0.06766574932666587
2655500000.0 0.09264610796111282 0.023199335925986418
2662000000.0 0.06309619048257915 -0.0650178120443839
2668500000.0 0.02852994978831712 -0.08136370460660057
2675000000.0 -0.019187516709931275 0.08195586070088838
2681500000.0 -0.06501124196898027 0.05073500812629305
2688000000.0 -0.008580078822097768 0.08267381838198544
2694500000.0 0.07731591482403168 0.03819850933351805
2701000000.0 -0.04273540482064046 0.07791955297706317
2707500000.0 -0.09460984915471235 -0.023512344852640237
2714000000.0 0.1016517061589825 -0.028801490510108576
2720500000.0 -0.00787486509247231 -0.11688899498467045
2727000000.0 -0.12830802894510746 -0.0022596783439783087
2733500000.0 -0.033036371254672174 -0.13718509621066577
2740000000.0 -0.10857211996058018 -0.11214697882904637
2746500000.0 0.09613541606875319 -0.13705812097609943
2753000000.0 0.18263788948023088 0.004640196586755648
2759500000.0 0.1312507928267455 0.14110407429888921
2766000000.0 -0.1750452335566552 0.10150559862045855
2772500000.0 -0.07699708779799809 -0.19664719967778754
2779000000.0 0.10228328887553055 0.1930101283659834
2785500000.0 -0.1974160879925617 -0.10815335915789592
2792000000.0 0.2065298581474268 0.10732699907980492
2798500000.0 -0.2188661834317614 0.0992446646355232
2805000000.0 0.20273944673168462 -0.1387230810072392
2811500000.0 0.040065009213161674 0.2522309654803059
