!Created with skrf (http://scikit-rf.org).
# Hz S RI R 50.0 
!freq ReS11 ImS11
400000000.0 -0.7114395169444631 0.10868788615549764
406500000.0 -0.30139489826773064 -0.6331998617974794
413000000.0 0.6770050141770955 0.03477900562233928
419500000.0 -0.6664877679046366 -0.0187508475100924
426000000.0 0.2567034262389134 0.6051718516244088
432500000.0 -0.46915867227795766 -0.4466164240166753
439000000.0 0.6266288955755944 0.1051029218108694
445500000.0 -0.621729667667661 0.07597061472862678
452000000.0 0.5403093921565313 -0.30215467944135527
458500000.0 -0.14734947814481028 0.6042640414142065
465000000.0 -0.5179351963170153 -0.34402473414458434
471500000.0 -0.28205806133893085 -0.5519002933196872
478000000.0 -0.10946943252594227 -0.6016975645260753
484500000.0 0.21271768286060072 -0.565591478247342
491000000.0 0.048788564214817746 -0.5885606706707149
497500000.0 -0.3213349376922234 -0.47088309343491086
504000000.0 -0.3994275640625201 0.3625496928589673
510500000.0 0.03794179269833089 0.4992338363701702
517000000.0 0.4270295157004023 0.16649093891295097
523500000.0 0.1254309968622573 0.4102166191146209
530000000.0 -0.1573233370998461 0.36041587168556694
536500000.0 0.2429896415910453 0.26620943470895825
543000000.0 0.29120034359177394 0.1905569219328147
549500000.0 0.3108880636172107 0.11573481214431135
556000000.0 -0.0011639331137090695 -0.3065158623637189
562500000.0 0.16954710416090035 -0.23507999490851947
569000000.0 -0.14011482119558533 -0.23326477785218522
575500000.0 0.26156984116985926 0.007601613520814299
582000000.0 0.055775301809093965 -0.25154360917587043
588500000.0 0.237483490353639 0.12000995886888924
595000000.0 -0.061760545855496944 -0.2789684766008996
601500000.0 0.07069312583300903 -0.2834609809038286
608000000.0 0.1928583189151521 -0.22228944992016017
614500000.0 0.02135507996219513 -0.2994184645336473
621000000.0 -0.07720137287784869 -0.288837066732855
627500000.0 0.29641432649057464 0.0073338719098572985
634000000.0 -0.057089665002633426 0.29681970584624995
640500000.0 -0.2909854869852108 0.023069118050255633
647000000.0 0.2954156296814124 0.047255671006748164
653500000.0 0.18603610597653059 0.2352518382866965
660000000.0 -0.2877228271670949 -0.0842822709870397
666500000.0 0.1487886932290317 -0.26085910404577795
673000000.0 0.09748358369709663 0.27963770512739156
679500000.0 0.29622764366932974 -0.06937587219958302
686000000.0 0.265235087269308 -0.1325315180619173
692500000.0 -0.2927271669110376 -0.030228947425853442
699000000.0 0.2185603662010736 -0.18864491866462768
705500000.0 -0.2884319426807921 0.040762572461957525
712000000.0 0.2926736776376265 -0.0052828753361259355
718500000.0 0.11926710585514232 -0.2735805044905729
725000000.0 0.0037919809246766503 0.3115485724837657
731500000.0 0.063306327852096 -0.31204941446076173
738000000.0 0.19542397719745988 0.26734294330165614
744500000.0 -0.3284438091851614 0.009529537310506155
751000000.0 0.27860603589443883 0.17735634339698095
757500000.0 -0.1831995315111729 -0.28515256654596344
764000000.0 -0.2311574059506924 0.26099541447018654
770500000.0 -0.1792874236956668 -0.3074564089190958
777000000.0 -0.12355170610660385 0.34215290507943663
783500000.0 -0.08648883494530332 -0.3503515783778094
790000000.0 -0.11977769750506538 0.3471587861630856
796500000.0 0.0074608609370470725 -0.36988140094798594
803000000.0 -0.3521395995461703 0.0894363430333393
809500000.0 0.25526007305435183 0.25756335144658604
816000000.0 0.2421115570391193 -0.2670423272320446
822500000.0 -0.01634924619595829 -0.3697157288406652
829000000.0 -0.33756802154792953 0.17689501881645936
835500000.0 -0.39317615132866646 0.005596576132684114
842000000.0 0.4091169081666267 0.04102514658228768
848500000.0 -0.2555528072875762 -0.32507847045494
855000000.0 0.2104463423389634 0.36845965309280787
861500000.0 0.09941463319656484 -0.41508777835688027
868000000.0 -0.2506675420491718 0.3541664682076934
874500000.0 0.3549767829639306 -0.25177222778533975
881000000.0 -0.27938929277617736 0.3451578816337964
887500000.0 0.10314707334697477 -0.4356782585518221
894000000.0 0.11416229904349542 0.43067876085389084
900500000.0 -0.42420272370530715 0.1129140728930542
907000000.0 -0.21482174118315026 -0.37142394570614945
913500000.0 0.4040118724177471 0.07754201870581734
920000000.0 -0.15127324103458265 0.37069956538849225
926500000.0 -0.38492407474780854 -0.01790994658952912
933000000.0 -0.10513339937560799 -0.3576498735054933
939500000.0 -0.05176987771524991 -0.35793985362394526
946000000.0 -0.09824746584175853 -0.3275473889715123
952500000.0 -0.02074799936186397 -0.3199686119203602
959000000.0 -0.08325815276607704 -0.289061355167193
965500000.0 -0.09839015222469133 -0.26535134039276503
972000000.0 0.1411921753650982 0.22722537992418904
978500000.0 -0.13707029190225622 0.21646078055521853
985000000.0 -0.18464623955491707 0.1535559822041415
991500000.0 -0.20175481818510776 -0.10596211249795037
998000000.0 0.07043150184528324 -0.20286265437336462
1004500000.0 0.19642623989217328 0.05245034737148698
1011000000.0 -0.1735211761557444 0.08283978063070802
1017500000.0 -0.06351747150240573 -0.16982700475377152
1024000000.0 0.13542574101701516 -0.09556958964723777
1030500000.0 0.11292893380869327 0.10134362325507294
1037000000.0 -0.05997490454939015 -0.12578700419362068
1043500000.0 -0.07030410522103027 -0.10914347888330476
1050000000.0 0.12244167796865014 -0.01791297057491536
1056500000.0 -0.10125145878994382 -0.05871325796166474
1063000000.0 0.09951689867213694 0.04893967349342476
1069500000.0 0.10343072213419216 -0.007331497963289997
1076000000.0 0.0176511393220735 -0.10052081219485512
1082500000.0 0.043124712051118015 -0.08909316903103749
1089000000.0 -0.08416352394175465 -0.054260587031261055
1095500000.0 0.07012261760098434 0.07146350337059006
1102000000.0 -0.10601344081598212 -0.000838419538606919
1108500000.0 0.07224391355449447 -0.08439574529854313
1115000000.0 -0.08419783119773959 -0.08512853544914588
1121500000.0 0.0012697079300744488 0.13551740363050183
1128000000.0 -0.034802759829164955 -0.14678525386147687
1134500000.0 0.010884708676975606 0.16519755512203604
1141000000.0 -0.11049879025667403 -0.14748407229808103
1147500000.0 0.10119449247458293 -0.17496584847399485
1154000000.0 0.20263034727466028 0.06311947786877037
1160500000.0 0.0009246972521569942 0.22001149082328678
1167000000.0 -0.2207991453068404 -0.04896547560974334
1173500000.0 0.22609563599829716 -0.007504774700617169
1180000000.0 -0.22413001293402005 -0.04573688524435562
1186500000.0 0.09453415413320283 0.20768408481077616
1193000000.0 0.20988112554631383 -0.10679735614033803
1199500000.0 -0.2346564614912401 -0.06049153487492634
1206000000.0 -0.22733473946968819 0.10783618470914877
1212500000.0 0.2645675414747804 -0.02971577098265739
1219000000.0 -0.2751228982200778 0.06087534552223524
1225500000.0 0.288881159872336 -0.004899815231472625
1232000000.0 -0.20100581387271474 -0.22277817939547181
1238500000.0 -0.24096276232640826 0.19393759354958648
1245000000.0 0.21494057901137217 0.23136227388238573
1251500000.0 0.2046369800387429 -0.25219566656378867
1258000000.0 -0.20891585323160944 -0.2552836958266925
1264500000.0 -0.3261526060181823 -0.07353415084031757
1271000000.0 -0.1670073367070456 0.2994373038771156
1277500000.0 0.1531146928618233 0.3113350733024402
1284000000.0 0.35134454365119694 -0.02478123742043396
1290500000.0 0.20956593915976393 -0.2850968972537842
1297000000.0 -0.15720540629416116 -0.32269894656718906
1303500000.0 -0.3569943073194971 0.030351058625187156
1310000000.0 -0.13551323070190566 0.33098915230060205
1316500000.0 0.35930440076088127 0.011516405024363253
1323000000.0 -0.01201431799314133 -0.35769649642080975
1329500000.0 -0.05207334297495775 0.35099998543049127
1336000000.0 0.33512788290266693 -0.08839002623886277
1342500000.0 -0.32823910624119795 -0.09522332655334723
1349000000.0 0.16204772404945042 0.2916106327725263
1355500000.0 0.3200949176482861 -0.07739044066500762
1362000000.0 -0.21822612547113862 -0.24037026464951133
1368500000.0 -0.32411137233590165 -0.018458696352893426
1375000000.0 0.06087581758744303 0.326549831394543
1381500000.0 0.2570125074297725 -0.21658004238849762
1388000000.0 -0.3344755240637835 -0.08540165963123793
1394500000.0 0.11462696156979135 0.33363017576257936
1401000000.0 0.15430669799957739 0.32494949982554594
1407500000.0 0.3110005548377407 -0.19238387322029696
1414000000.0 -0.14938988253320695 -0.3420281875947126
1420500000.0 -0.30348739185888735 0.22625589740986196
1427000000.0 -0.15681863496688558 0.3449446661953335
1433500000.0 0.02239248854915705 0.38261048093279093
1440000000.0 0.14240907163511726 0.3524639421311627
1446500000.0 0.07280479475563399 0.37795829771566564
1453000000.0 0.19656329401252384 0.3305550725654345
1459500000.0 0.23228894628387112 0.30501339430840024
1466000000.0 0.37847684458644554 -0.0491085815115087
1472500000.0 0.3164473976983712 -0.2033647301803464
1479000000.0 0.02107484135274707 -0.3672038425051736
1485500000.0 -0.2532635687080242 -0.2549457335006201
1492000000.0 -0.3273037018654891 0.11769255446546154
1498500000.0 -0.05199813677022645 0.32910506532373723
1505000000.0 0.2568343684984331 0.1909742654050267
1511500000.0 0.11575686584645603 -0.2876426399846546
1518000000.0 -0.20610279983665034 -0.21607750342431056
1524500000.0 0.2367811704825874 0.16627891763070965
1531000000.0 0.15409745802069735 -0.23030599120349474
1537500000.0 -0.23350083844496577 0.14326916881924934
1544000000.0 0.25774234821158737 -0.06018669347537532
1550500000.0 -0.15281891076978837 0.21686891099175895
1557000000.0 0.06876315363085707 -0.24855823535719634
1563500000.0 -0.24552133920086208 0.06932223324061629
1570000000.0 -0.2538785378406071 -0.012194537815641537
1576500000.0 0.01378181712232995 0.256156610957419
1583000000.0 0.231971452139498 0.11961492950552291
1589500000.0 0.18676891563502118 -0.18573841305923575
1596000000.0 -0.1630847869576672 -0.20511006465091838
1602500000.0 -0.25965424216117733 0.024519833445614616
1609000000.0 -0.25125670045248705 0.04979176298938284
1615500000.0 -0.19870833279448244 0.14807854014273777
1622000000.0 0.006505716254767333 -0.241671199844514
1628500000.0 0.1203781013947885 -0.20393792085114265
1635000000.0 0.21924981326261955 0.0710519359485501
1641500000.0 0.029259161124017788 0.2219588803050964
1648000000.0 -0.21885327855390804 0.00997411815633691
1654500000.0 -0.015135910618221459 -0.2123903100096176
1661000000.0 -0.11170620294559315 -0.17715726268192378
1667500000.0 -0.19866101932766753 0.03508339222090883
1674000000.0 0.11237460723116836 0.153138065755883
1680500000.0 0.16185837447041873 -0.05773909852763262
1687000000.0 -0.07801794159675546 -0.13827975271137605
1693500000.0 -0.06796347458783238 0.12461328891574114
1700000000.0 0.08958001768895642 -0.09874191821826843
1706500000.0 -0.08129813949915177 0.0894679052999634
1713000000.0 -0.005344512464060272 -0.11381255666855795
1719500000.0 -0.07901375242323587 0.07669721900514599
1726000000.0 -0.07581485251043595 -0.07794647416845435
1732500000.0 0.015995620992614656 -0.10552722813686638
1739000000.0 0.08737417897369362 0.0646143641399623
1745500000.0 -0.09146952178122976 0.054112166612440844
1752000000.0 0.039381354608408144 -0.10070775877560346
1758500000.0 -0.05926422993470924 0.08884659180470214
1765000000.0 0.08364584263689996 0.06586059233492692
1771500000.0 0.09948649432667021 0.028967084137880884
1778000000.0 0.05826217135953922 0.08319673014126329
1784500000.0 -0.007797586890672064 0.10115821301384544
1791000000.0 -0.03628064292880362 -0.0932395881458609
1797500000.0 -0.08734250922150207 0.04720336116107074
1804000000.0 -0.06016884625037635 -0.07894852869839336
1810500000.0 0.09950775983983808 0.0007540888740674336
1817000000.0 0.07291160547693583 0.06319109115461981
1823500000.0 0.06453530761395292 -0.06401999147149989
1830000000.0 0.027254255988088814 -0.07653286575727143
1836500000.0 0.031353844183206095 -0.06498013377942405
1843000000.0 0.03858759864576162 0.040943280546152795
1849500000.0 -0.04342106387111707 -0.00614227947247379
1856000000.0 0.031301007604570205 0.006186610492858885
1862500000.0 -0.0220982826305973 -0.0014844995579941299
1869000000.0 0.004454888654941887 -0.019529209774207898
1875500000.0 -0.0037087723569602456 -0.018642253872463974
1882000000.0 -0.013793214594871109 -0.004318608366116668
1888500000.0 0.012944663964860216 0.007042216841358742
1895000000.0 -0.006097166948566238 0.01649714947713767
1901500000.0 0.01867708255926563 -0.010108214856947595
1908000000.0 0.021880182956478002 0.004579727679425622
1914500000.0 -0.01322663835415085 0.021037765818671537
1921000000.0 -0.02372476637465213 0.009305146457355406
1927500000.0 0.01096548356765507 0.02104605746436639
1934000000.0 0.015320411358762647 -0.01720527110489266
1940500000.0 0.01818776688377564 0.005027652455779795
1947000000.0 0.017993197460478255 0.009393180782207631
1953500000.0 -0.0007011301026818437 -0.023321055071730715
1960000000.0 0.011489177079518033 -0.01940037561470448
1966500000.0 -0.010164380991772325 0.031116958073103416
1973000000.0 -0.036387492489534816 -0.01735919963936564
1979500000.0 0.010762942093434731 -0.05030515479072015
1986000000.0 -0.02328050316038996 -0.061268561896651384
1992500000.0 -0.07477199789570661 0.016843340505376572
1999000000.0 -0.061206373418824636 -0.06339397142329563
2005500000.0 -0.09034917848313637 0.04155930619890468
2012000000.0 -0.08483847373360831 -0.06990289410049488
2018500000.0 0.014237122154699891 -0.11704325982225415
2025000000.0 0.10067678643604965 -0.07982491438181202
2031500000.0 0.1272109398496047 0.03328611183710871
2038000000.0 0.08118367630387395 0.10929045243937058
2044500000.0 -0.12449115701556995 0.06073966517278075
2051000000.0 -0.13167150287261495 -0.0536850655104721
2057500000.0 -0.13929057434213302 -0.01432014554552398
2064000000.0 -0.1409951364976662 -0.0008380031760136343
2070500000.0 -0.12960148591355522 0.04151154355995953
2077000000.0 0.09378672139423581 0.08991650222888962
2083500000.0 0.09447918642501968 -0.0776957447554337
2090000000.0 -0.1165168904094505 0.011144562227215486
2096500000.0 0.04696781144891112 0.09892288586582716
2103000000.0 -0.1041342175895537 0.024048136028957712
2109500000.0 -0.018325920499948547 -0.1031040637764292
2116000000.0 -0.10749891170095813 -0.014131642047358416
2122500000.0 -0.036973987458075674 0.10526069242605092
2129000000.0 0.11976990846574677 0.02578746833498159
2135500000.0 0.05949555742882363 -0.11497981461151562
2142000000.0 -0.021600097394709552 0.14014334904855483
2148500000.0 -0.14398561212860625 -0.05151378623169608
2155000000.0 0.14377482252210874 0.08530296915395472
2161500000.0 -0.11007361094132495 -0.14144353176646346
2168000000.0 -0.14396115719470526 0.13122790234577975
2174500000.0 -0.07101021406756414 0.19362467376963186
2181000000.0 -0.03928222980787674 0.21486240248997227
2187500000.0 0.06645907275882278 0.22161050113343092
2194000000.0 0.059059687434565945 0.23598285668600572
2200500000.0 0.05145578256530023 0.24824017609382348
2207000000.0 0.2505184621784989 0.06270959649972609
2213500000.0 0.23476890759580435 0.11180859842698626
2220000000.0 0.25858834789656354 0.023528103683370726
2226500000.0 0.20379114076447882 0.14992769459727834
2233000000.0 0.18322144635266993 0.16719321262955458
2239500000.0 -0.15814955024928826 0.18322134398999698
2246000000.0 -0.20183254681151483 0.11961665779614693
2252500000.0 -0.22475384225465123 5.593367191752905e-05
2259000000.0 -0.21218708727272018 -0.057963724845261334
2265500000.0 -0.2012719467621658 0.07139694299213081
2272000000.0 -0.06061684103661678 0.19764338742930954
2278500000.0 0.11931915818653394 -0.1617969663188742
2285000000.0 -0.12530609441090618 0.14644664454834042
2291500000.0 0.011501563064527293 -0.18231041430325762
2298000000.0 0.009068595726879557 0.171610913797206
2304500000.0 -0.11361253720136875 -0.12318697497985477
2311000000.0 -0.15459065043375922 -0.005931632586380606
2317500000.0 -0.04203368713822065 0.1486662455839013
2324000000.0 -0.06435336129351962 -0.13668934622096
2330500000.0 -0.13292380051154207 0.07325370795062965
2337000000.0 0.12436717697940147 0.08744123055180693
2343500000.0 0.05760394932510368 -0.14371915425543433
2350000000.0 -0.15503394991749658 -0.012261690156461988
2356500000.0 -0.1441279144620308 0.0674444332892658
2363000000.0 -0.026077192495970358 0.159369831745147
2369500000.0 0.15773647489039075 0.039710613661263675
2376000000.0 0.1616277122470584 -0.017259600082168307
2382500000.0 0.15414489209268367 -0.043046008524554924
2389000000.0 0.1435810664952292 0.06993701613272303
2395500000.0 -0.0027380874152675276 0.15885198414854823
2402000000.0 -0.15541911409881015 0.031118583501612524
2408500000.0 -0.15694923930865903 0.031426730648854206
2415000000.0 -0.13527552231811305 0.08475502193924445
2421500000.0 -0.1498555437514806 0.0499810757189051
2428000000.0 -0.0842724688122894 0.13100623262733907
2434500000.0 0.010943168195116 0.15154171803020514
2441000000.0 0.02074249280929922 0.14994323631951256
2447500000.0 0.13761541565734364 0.05756982795040851
2454000000.0 0.14044675823504438 -0.047476098556817024
2460500000.0 0.13697336026086196 -0.054942381627674085
2467000000.0 0.14242118355018565 -0.038041373586485065
2473500000.0 0.12907807565222446 -0.07216411905092063
2480000000.0 0.14692127908150257 0.026733368272568683
2486500000.0 0.1528830595610849 -0.026510660497906
2493000000.0 0.03127464153433057 0.15208316474249253
2499500000.0 0.06801495007838627 0.14178283087594903
2506000000.0 0.09360305397252053 0.12917695739509671
2512500000.0 -0.12055139707919689 -0.10443926680541192
2519000000.0 0.15774244917959307 -0.035850950502804485
2525500000.0 -0.1201988251897197 0.11280130100497439
2532000000.0 0.0638696611257224 -0.1557018157756214
2538500000.0 -0.04647838853939253 0.1621057621126181
2545000000.0 -0.10093663298595304 -0.13778618507961646
2551500000.0 0.09694588703204723 0.13859732164241534
2558000000.0 0.08820294347638037 -0.14436197766311346
2564500000.0 -0.05737101966086771 0.1564803997111202
2571000000.0 0.15532229933420244 -0.055919325963636524
2577500000.0 -0.14586850929163525 -0.06245700344442196
2584000000.0 -0.1544258043296435 -0.02678097043082536
2590500000.0 -0.02829065344092403 0.15031371923746395
2597000000.0 0.15148156421854939 0.018721716960571802
2603500000.0 0.036525709307879226 -0.1448669371040283
2610000000.0 -0.032270075431779066 0.14514035529283761
2616500000.0 0.022365652469969716 -0.1415536517552236
2623000000.0 0.04809870221321666 0.13025626711598848
2629500000.0 -0.08640126607629597 -0.09708304885180337
2636000000.0 0.12192609340552649 -0.003013401593591946
2642500000.0 -0.11026375260854668 0.021333950253627148
2649000000.0 -0.07540023475233963 -0.07381551639557873
2655500000.0 0.08771795280531657 0.03798864912810658
2662000000.0 0.06692146520892399 -0.06102563423146374
2668500000.0 0.03485924201638234 -0.07881805377033073
2675000000.0 -0.01865812286345673 0.08195343004137262
2681500000.0 -0.03956974671414822 0.07221240775978828
2688000000.0 0.017506564838324235 0.08127699449304948
2694500000.0 0.0819215165956733 0.026724129412457696
2701000000.0 -0.032937290591213475 0.08268343225038606
2707500000.0 -0.09602941714249605 -0.016999645190936618
2714000000.0 0.10335600122660768 -0.02203245458481678
2720500000.0 0.019471823308591134 -0.11505284758429639
2727000000.0 -0.1280487169496105 -0.006971981591930159
2733500000.0 -0.035191987040800225 -0.13676657161300543
2740000000.0 -0.1019276631062057 -0.11820142155540357
2746500000.0 0.09011452075375911 -0.1413057180776385
2753000000.0 0.18144255103421292 0.01993774843050718
2759500000.0 0.12677774294896785 0.14532121393749878
2766000000.0 -0.17781226947764503 0.09657024672500837
2772500000.0 -0.08054540867401302 -0.19515717829376888
2779000000.0 0.09368518745219603 0.19737530849675813
2785500000.0 -0.19271409980629473 -0.11618225912772542
2792000000.0 0.19707551236915122 0.12363934907551498
2798500000.0 -0.22048179663786818 0.09508379923394779
2805000000.0 0.2045517632148373 -0.1356811680769636
