!Created with skrf (http://scikit-rf.org).
# Hz S RI R 50.0 
!freq ReS11 ImS11
400000000.0 0.45933728811854446 0.5614981882976092
406500000.0 -0.2362578031741879 0.666704593468649
413000000.0 -0.6776147105711889 -0.06590842578115959
419500000.0 -0.12399543179374208 0.6503510104261703
426000000.0 -0.06133453048664723 -0.6372980411543444
432500000.0 -0.16171663142027784 0.6145537338033146
439000000.0 -0.28081790247925403 -0.5605490358366755
445500000.0 0.39837951055925525 0.47961243207760046
452000000.0 -0.6121849544367947 0.06743028240003154
458500000.0 0.14187114444098112 -0.5963916194493615
465000000.0 0.4882546972043449 0.37211737383846233
471500000.0 0.5072070143341225 0.3420283832861641
478000000.0 -0.23036761478365608 0.5472119716826759
484500000.0 -0.5354039577751251 0.23957232738975365
491000000.0 -0.570925821527365 0.015354994580832466
497500000.0 -0.5030955608636415 0.2299820240214019
504000000.0 -0.2528977774615098 0.46604227996536507
510500000.0 0.2160138697938174 0.45081773806927
517000000.0 0.46436552557124333 0.03791568861977926
523500000.0 0.43959514570054103 -0.0019086143123634
530000000.0 0.40693502200654047 -0.04615258423430653
536500000.0 -0.09109455990061756 -0.36045525886482127
543000000.0 -0.11594009481661245 -0.33484406953838586
549500000.0 -0.04208973996880712 -0.32421972979936686
556000000.0 -0.2239132956190542 -0.21242100723287083
562500000.0 0.15591910486832944 -0.2503458015127415
569000000.0 -0.10509425956612635 -0.2745339362359723
575500000.0 0.07823983065285847 -0.27316872623356137
582000000.0 -0.259797166912762 -0.11741012809752328
588500000.0 -0.26815351760352096 0.10319615915648449
595000000.0 0.14626862700976964 0.2593529654834102
601500000.0 -0.19953245455136767 0.21447216513588918
608000000.0 -0.2868238508087042 0.0778843566466747
614500000.0 -0.2820841288912422 -0.09559290536532625
621000000.0 0.1420190276634005 -0.25772899396002613
627500000.0 -0.0774842508820804 0.28606866800921765
634000000.0 -0.06318633186344375 0.29820264633671656
640500000.0 -0.27268158779158175 0.11311486044959267
647000000.0 0.06304075793195163 -0.28589354582502163
653500000.0 0.2608709541132254 -0.14299215392385548
660000000.0 0.1191530568323452 0.2605793509974901
666500000.0 -0.22876975980971417 -0.1680233006379973
673000000.0 0.2641989338893414 -0.08953713646315124
679500000.0 0.020410448077718524 -0.2830438107996668
686000000.0 0.21417240513338331 -0.17663431905796687
692500000.0 -0.11873509568826929 0.24750553171320647
699000000.0 -0.0680708424076161 -0.25932781717537295
705500000.0 -0.2603916671256696 0.06370358908112472
712000000.0 0.2522953907335771 -0.10723732443685227
718500000.0 -0.19046257765399122 -0.20115172578533538
725000000.0 0.048409372760377885 0.2840028594707641
731500000.0 0.10180524776633304 -0.27801527184714303
738000000.0 -0.14778986184907456 0.2700456879829586
744500000.0 -0.0986725039255713 -0.29363493212014696
751000000.0 -0.11420809091862935 0.2969210798537759
757500000.0 0.09749516551807513 -0.31424948999056285
764000000.0 -0.2146951907026725 0.25914922637846005
770500000.0 -0.02782080995853354 -0.343035930438247
777000000.0 -0.14711208210830823 0.31705263634057346
783500000.0 0.0982089505038735 -0.33250866455225847
790000000.0 -0.2015484348059841 0.2893680504339701
796500000.0 0.33675427170349587 -0.10520087938162319
803000000.0 -0.2750872627615349 -0.21144010646547196
809500000.0 -0.08903636580291584 0.33847413736862497
816000000.0 0.20520241632496494 -0.2878905240201627
822500000.0 -0.21882269116813263 -0.28089065825793497
829000000.0 -0.33713093703952585 -0.14380892226935083
835500000.0 0.0016783219738472958 0.3717655288676463
842000000.0 0.25294682444693567 -0.2850903161974018
848500000.0 -0.14196963462037232 -0.35710315235820744
855000000.0 0.015009558147922509 0.3919270357024076
861500000.0 0.34087618217407667 -0.20830799530395158
868000000.0 -0.41205663318625524 0.04404573254118597
874500000.0 0.4120359859105718 -0.06328768365550172
881000000.0 -0.42137982760536713 0.024641610227527602
887500000.0 0.32507954040455816 -0.27241812363639234
894000000.0 -0.3357734661310082 0.25614092539612127
900500000.0 0.06214368476850252 -0.4153937230251092
907000000.0 0.37722507144172784 0.17428348631913756
913500000.0 -0.3844921902585599 -0.13650135554394208
920000000.0 0.16915371213110025 -0.3671388738190172
926500000.0 0.38259222558893796 -0.11016593477191743
933000000.0 0.29590698696657586 0.2484317388639374
939500000.0 0.3713675600276699 0.043622284994816775
946000000.0 0.32171452792786037 0.1349278930302381
952500000.0 0.23073014377668857 0.22730784011887678
959000000.0 -0.019655887444962845 0.30282871097403696
965500000.0 -0.26475053293464607 0.10544359196636346
972000000.0 0.2694615777715836 0.00037939098570236046
978500000.0 0.03705357475322581 0.2561535044611364
985000000.0 -0.21589961532193075 0.11398726356456737
991500000.0 -0.057924826328914214 -0.22577875541434578
998000000.0 0.20546171914199335 0.08292903400310081
1004500000.0 -0.12009880454278149 0.17535233955470436
1011000000.0 0.05293403546537368 -0.20120000520770126
1017500000.0 0.19526353123512458 -0.030507671859609883
1024000000.0 0.06905575989951251 0.17100711777423475
1030500000.0 -0.11132372750908019 0.1287200151795222
1037000000.0 0.15634179836000642 -0.01641376971931977
1043500000.0 -0.07859904367562605 0.12155564343761287
1050000000.0 0.09627954558307256 -0.10641537880865164
1056500000.0 -0.06269013683371023 -0.12311701852943141
1063000000.0 -0.05593508863253201 0.1178910014142544
1069500000.0 0.052200413078129566 0.11020681707512271
1076000000.0 0.08606686493436848 0.06887191367075644
1082500000.0 -0.03528397980881537 0.09581706941229386
1089000000.0 -0.07646501971798221 0.06028076069571055
1095500000.0 0.09390956623871502 -0.016740851580870807
1102000000.0 0.07388194462604888 -0.06909002863149824
1108500000.0 0.10157826060144695 0.029608248756138402
1115000000.0 -0.0336703712661968 0.11233542118935036
1121500000.0 -0.1272434865843172 0.03835695920422996
1128000000.0 -0.03614179975975375 -0.14465147509002388
1134500000.0 0.13307772976682303 -0.09346679932097716
1141000000.0 0.04651912671427345 0.17347983998428115
1147500000.0 -0.1271363060427741 0.1477942552211721
1154000000.0 -0.18804026963993697 -0.07917262912055291
1160500000.0 0.21100893402172968 0.007242340567876964
1167000000.0 -0.09195410485651727 0.19552504654831268
1173500000.0 0.18484230430504725 -0.11439152624036587
1180000000.0 -0.19372411108652357 0.10435601951171222
1186500000.0 0.16272778255838735 0.15084255803057287
1193000000.0 0.2250691570222397 -0.05106588006812212
1199500000.0 -0.22181662958768852 0.0870620459903104
1206000000.0 0.19089736994589004 0.15676115991262018
1212500000.0 -0.23412475914738495 -0.10832938250841764
1219000000.0 0.24816337370842623 0.10170834993799278
1225500000.0 -0.27413656708388096 0.028237632144521622
1232000000.0 0.1855048035635198 0.21645254425401927
1238500000.0 0.09048809603878205 -0.279442382505283
1245000000.0 -0.20155502735556846 0.21828925309344763
1251500000.0 0.23049485064140807 0.1969073289742464
1258000000.0 0.23936060155397865 -0.19132124008713314
1264500000.0 0.09219919495300673 -0.2937990594615588
1271000000.0 -0.11574713005511161 -0.2920531894200124
1277500000.0 -0.2622430613728951 -0.18762808892106914
1284000000.0 -0.2650373094070292 0.19644769738855059
1290500000.0 0.03409768886677609 0.3350879712715089
1297000000.0 0.3399077685388847 -0.04479750645796541
1303500000.0 0.08201753843251801 -0.33149208427659044
1310000000.0 -0.302120894184537 -0.16159630213523932
1316500000.0 -0.10127906177597329 0.32750991448589317
1323000000.0 0.30176022658778034 0.16403309862882082
1329500000.0 -0.10700087376529184 -0.3248955641610773
1336000000.0 -0.33055299300077995 0.06953510111841907
1342500000.0 0.11147142708315654 0.3131216656803648
1349000000.0 0.22872375162963235 -0.24092627790303994
1355500000.0 -0.175617493114041 -0.28271943704169994
1362000000.0 -0.06820523053808679 0.3278548584771057
1368500000.0 0.27788947451499724 -0.19601054680078242
1375000000.0 -0.33327444422794794 0.0918492557962462
1381500000.0 0.327379934847491 -0.11606197907708064
1388000000.0 -0.3429675375788592 -0.088899973861329
1394500000.0 0.25759071847375664 0.2451109151095078
1401000000.0 0.2489932876811339 0.2575783361570549
1407500000.0 0.26621806038598067 -0.24343535121588775
1414000000.0 -0.03768716788402563 -0.3618591494596225
1420500000.0 -0.3448530596700227 -0.12816710985340077
1427000000.0 -0.3711060719707444 0.010167244535208415
1433500000.0 -0.3710167296809377 0.06721274289645186
1440000000.0 -0.35203412097521747 0.13827774503600812
1446500000.0 -0.3471960683763149 0.15861039844092586
1453000000.0 -0.3220058862455449 0.20522967677796083
1459500000.0 -0.32494166024903065 0.19949088606516843
1466000000.0 -0.15654215786815556 0.3462342059086075
1472500000.0 -0.08358174390681548 0.36731919200443924
1479000000.0 0.2364133607330409 0.28269783380294117
1485500000.0 0.3304743237284271 0.13323007379058005
1492000000.0 0.29423557088131075 -0.1841497201288501
1498500000.0 0.03427422537566665 -0.33025879550858633
1505000000.0 0.05274680298557307 -0.3144637524730408
1511500000.0 -0.3106770088009945 0.015445965540990677
1518000000.0 -0.14662177845742755 0.260052623950682
1524500000.0 0.2915032441718819 -0.009030298536994406
1531000000.0 -0.22375591783726934 -0.1728520023367703
1537500000.0 0.1545247032515649 0.2302098564279439
1544000000.0 -0.15244761125362838 -0.2245826243068893
1550500000.0 0.2617126818515919 0.06182265338587882
1557000000.0 -0.26105874004198204 0.014873534780842693
1563500000.0 0.2483167876479074 0.07902481142218183
1570000000.0 0.20062241505178752 -0.16301905970988004
1576500000.0 -0.11920754424855796 -0.2282345827435377
1583000000.0 -0.17723139881895222 0.19281562913151476
1589500000.0 0.04534573865046259 0.2577686523531869
1596000000.0 0.24241432935191878 0.10162621158513196
1602500000.0 0.22092772108943676 -0.14038533650267124
1609000000.0 0.2294203023928893 -0.12656992038760248
1615500000.0 0.17044650290670277 -0.19320799073683745
1622000000.0 0.242330761795318 0.07367202370669496
1628500000.0 0.23778703321547384 0.07610942497568432
1635000000.0 0.07853915089359552 0.22988960747091403
1641500000.0 -0.09494820736061692 0.2165090371339658
1648000000.0 -0.22850364922403202 0.02665103614306999
1654500000.0 -0.09046058594309286 -0.20252297849607845
1661000000.0 -0.1405179366271078 -0.16104503329733888
1667500000.0 -0.09713478870496124 -0.17822483835654548
1674000000.0 -0.18270680711363282 -0.04844552026080292
1680500000.0 -0.1602375594325599 -0.06777021149156134
1687000000.0 -0.14858612637087038 -0.05951263158524426
1693500000.0 -0.1441169456980753 0.03480088711410622
1700000000.0 0.05730969825546139 0.12657789956163293
1706500000.0 0.12826165713507998 0.021409679147260576
1713000000.0 -0.12231524495851624 -0.014881720326628349
1719500000.0 0.11981038072292445 -0.006464749232644389
1726000000.0 0.08443421346511226 0.08070446468603394
1732500000.0 0.010208394756057868 0.11427934269469853
1739000000.0 -0.1102003530217613 -0.015058879198106867
1745500000.0 0.10376866307562656 0.03185573884118515
1752000000.0 -0.026565348972690955 0.1039627665974368
1758500000.0 0.10191891969888181 0.02300467608536993
1765000000.0 0.06567408837765598 -0.08025464356203126
1771500000.0 0.09446262901085646 0.04187974456859232
1778000000.0 0.03888672117131156 0.09781227455312476
1784500000.0 -0.09948899617192095 0.04467972494296789
1791000000.0 0.05545715327282823 -0.09709718287457964
1797500000.0 0.11156206696873702 -0.028382923913162897
1804000000.0 0.09076292447849182 -0.07003633156886564
1810500000.0 0.0749377397418774 -0.08232821562350603
1817000000.0 0.10243011063238508 -0.006589628540720665
1823500000.0 0.09185581846902859 -0.005458410888906909
1830000000.0 -0.07346905205119772 -0.028308637940903016
1836500000.0 -0.007501116880764325 0.06658309722362572
1843000000.0 -0.040377411524258125 0.037853384409735215
1849500000.0 -0.02929404480360303 -0.0370609024210505
1856000000.0 0.0018064777905302937 0.03990700804198762
1862500000.0 -0.0045816992372220205 -0.03439473858830781
1869000000.0 0.009592553460147816 0.03063737922723259
1875500000.0 0.02046580189935487 0.01806440105895721
1882000000.0 0.009317389496006113 0.01384254455338367
1888500000.0 -0.007209809234538153 -0.0022500217957909345
1895000000.0 -0.0042136034679187495 0.0009734323926593976
1901500000.0 -0.01671312016877526 -0.002498823810450986
1908000000.0 -0.009031930727741149 -0.022441347419531334
1914500000.0 0.0175911032999011 -0.027009269983379342
1921000000.0 -0.03410672215254012 0.004061581139648553
1927500000.0 0.019809735228042465 0.03009903638948023
1934000000.0 0.011910934714837059 0.033873025737120505
1940500000.0 0.024333814870034467 0.02373828045626577
1947000000.0 0.02526207212826136 0.02435250820028264
1953500000.0 -0.0348587461036243 0.0035187736318225958
1960000000.0 -0.026244488145048015 -0.021310004955531155
1966500000.0 -0.03328526680516485 -0.024590245025441406
1973000000.0 -0.03938731340859281 -0.03051877521731627
1979500000.0 0.031163865642771692 -0.04990886746768369
1986000000.0 -0.030959806595839936 -0.0669362877743649
1992500000.0 -0.08428361969942105 -0.0036467709692200286
1999000000.0 -0.04563602908069759 0.08523963644080512
2005500000.0 -0.013265836643171781 0.10822956629941256
2012000000.0 -0.04041014410317375 0.1117103353904306
2018500000.0 -0.12581133527366184 0.012147177148751668
2025000000.0 -0.025997082436137738 -0.1321630000121297
2031500000.0 0.13902342810720017 -0.016555742114820426
2038000000.0 0.07295348709183878 0.12430589434777052
2044500000.0 -0.139074280200857 0.05252004239651863
2051000000.0 -0.03189626564340457 -0.14864419008850424
2057500000.0 0.14338400469081777 -0.05626390645139763
2064000000.0 0.1465521751410544 0.04868922213622558
2070500000.0 0.14682532349202687 0.05118526696670337
2077000000.0 0.0768956122360583 -0.13036678035488447
2083500000.0 -0.10420383790965043 -0.10385768082367841
2090000000.0 0.026273771856470764 0.14009252910020673
2096500000.0 0.023455925745256095 -0.1374553326178654
2103000000.0 0.13392206106351548 0.007761544820584273
2109500000.0 0.001726671444168685 0.129997374889321
2116000000.0 0.10777639070398208 0.07045778715509969
2122500000.0 0.12889886526544098 0.025748211620111965
2129000000.0 0.13102325563616135 -0.04029665641572141
2135500000.0 0.14263479539149204 -0.016873030088069743
2142000000.0 -0.12252099055975597 0.09123062883447579
2148500000.0 0.122916748742335 -0.10916491076301765
2155000000.0 -0.006935943718884265 0.17967741088098815
2161500000.0 0.14481640260633735 -0.1278846189651824
2168000000.0 -0.20726801867558517 0.006251928494782324
2174500000.0 -0.16195020601158616 0.14839348954407466
2181000000.0 -0.0589860135652473 0.2227989250462256
2187500000.0 0.029697698691061657 0.23919856595936922
2194000000.0 -0.06082019919520982 0.24134834903416455
2200500000.0 -0.15109188845964525 0.20810365672211148
2207000000.0 -0.1426518750693185 0.2171595889192304
2213500000.0 -0.261233420447591 -0.010865403987396294
2220000000.0 -0.22385867883556654 -0.13323642165504915
2226500000.0 0.06593526437909428 -0.24706662945708674
2233000000.0 0.23552325687183576 -0.08675403082374084
2239500000.0 0.1658842065079026 0.18336650272143054
2246000000.0 0.08519418072752409 0.2229168911558526
2252500000.0 0.10931536018799405 0.20124342327468653
2259000000.0 0.13562914263531095 0.1750786730976744
2265500000.0 0.2100082265922739 0.011835637007383453
2272000000.0 -0.006423172750673939 -0.19876121921017254
2278500000.0 -0.06853777953003462 0.17402107069226733
2285000000.0 0.15460413805405723 -0.08060078552496083
2291500000.0 -0.13809559191517023 0.08466872566799942
2298000000.0 0.1508225811338681 -0.003326228898481379
2304500000.0 -0.143853762042434 -0.023052332534900473
2311000000.0 0.13708065939917488 0.02822301529490501
2317500000.0 0.11959009005049408 -0.07336811252198681
2324000000.0 -0.065098443885895 0.12839174240899556
2330500000.0 -0.09646833290623062 -0.11036505257290787
2337000000.0 0.059640420320717306 0.13805316001305987
2343500000.0 -0.07703942771637957 -0.13355247449490104
2350000000.0 -0.07465773117117613 0.13810121398719144
2356500000.0 0.04003810320564226 0.15319519808595378
2363000000.0 0.15059126256275182 0.06412201980661539
2369500000.0 0.14027866467320896 -0.08163064855883674
2376000000.0 0.12270962233043131 0.1069816852350682
2382500000.0 0.11702113953125114 0.11475513750262542
2389000000.0 -0.08898168502406838 0.13808311747180058
2395500000.0 -0.16339009767479842 0.01373373683617448
2402000000.0 -0.15504004724226658 -0.0516360938338014
2408500000.0 -0.15227751516142973 -0.06157152692845949
2415000000.0 -0.16130751596941795 -0.003879162588239103
2421500000.0 -0.15752210368887914 -0.009787400536779003
2428000000.0 -0.1480417011587737 0.03982189327973939
2434500000.0 -0.13098042156953787 0.07132229380078725
2441000000.0 -0.04981049930621879 0.13881462168178652
2447500000.0 0.12420197671226799 0.0758674722789427
2454000000.0 -0.008700208226083783 -0.1438737250755368
2460500000.0 -0.14036106541660093 0.008851314828520397
2467000000.0 -0.09004855964236598 0.10591919271167356
2473500000.0 0.08762849866097348 0.10446667895467257
2480000000.0 0.051381991894984866 0.12579110448740313
2486500000.0 -0.13320705842230648 -0.023989310030786276
2493000000.0 -0.1368464095596102 -0.01151376488078207
2499500000.0 -0.13567482965789465 -0.03505116006903111
2506000000.0 -0.10133305353002027 -0.10113309438616434
2512500000.0 0.14313610653463943 0.006132740770956629
2519000000.0 -0.11897481618030362 0.08298689540451923
2525500000.0 0.13720928760607012 -0.05537561527647159
2532000000.0 -0.06718826049463521 0.13446304645689222
2538500000.0 0.11788196380015718 -0.09318137809805575
2545000000.0 -0.07072718714377137 0.1326324836630757
2551500000.0 0.14732335408562708 0.007118094322370594
2558000000.0 0.057652874499904555 -0.1336490320608437
2564500000.0 -0.10697414761112123 -0.09802106680556927
2571000000.0 -0.11604320563226343 0.08593239747381068
2577500000.0 -0.002624152426815133 0.14325452715736736
2584000000.0 0.11583857051796626 0.07822929220478478
2590500000.0 0.13062167901451682 -0.04077782315417066
2597000000.0 0.060522883347772054 -0.11921887934996482
2603500000.0 -0.11319922644255428 -0.06554251565381304
2610000000.0 -0.0666082430265906 0.10575231368700197
2616500000.0 0.11128917484339498 0.044645275124940376
2623000000.0 0.06355768758125403 -0.09232892872895379
2629500000.0 -0.04396362713424192 -0.09754873274366598
2636000000.0 -0.07633912924037427 0.06308097434178506
2642500000.0 0.05720894301938457 0.07342475257177439
2649000000.0 -0.08623777766693556 0.009476777185344048
2655500000.0 -0.012486184718310788 -0.07704291598394825
2662000000.0 -0.01767970023813763 0.06724820376484024
2668500000.0 -0.03675184560210868 -0.04900592219554563
2675000000.0 0.016438269942714683 -0.04903894932538963
2681500000.0 0.0034398741426798266 0.045184121514959444
2688000000.0 -0.03744705627842071 -0.022714954467192554
2694500000.0 -0.03934196508827837 -0.023033725261492964
2701000000.0 0.006795343616550493 -0.05128022159530238
2707500000.0 -0.0025794971318140775 -0.06401417573789167
2714000000.0 -0.018186051034583078 0.07438603900616267
2720500000.0 0.09279669802305412 -0.0037511689728780733
2727000000.0 0.0706983063379003 -0.08085034124500186
2733500000.0 0.11203844615279772 -0.050366539318365676
2740000000.0 0.12838576465524537 0.04816296361652479
2746500000.0 0.05520426160323724 0.13937007652596436
2753000000.0 -0.16058106775755862 0.023728398668642545
2759500000.0 0.025923117971061987 -0.16855346663069926
2766000000.0 -0.08433371507270991 0.15966708004400776
2772500000.0 0.028336484204812502 -0.18661589843680684
2779000000.0 -0.17004344132136862 0.10268530508885125
2785500000.0 0.09943065965997633 -0.1817624422918649
2792000000.0 -0.09883634099185008 0.19090536405864922
2798500000.0 -0.1259644662494217 -0.18424036948641792
2805000000.0 0.2274010322981233 -0.0017846079973402559
2811500000.0 -0.08895142014891604 0.21592674931246902
