!Created with skrf (http://scikit-rf.org).
# Hz S RI R 50.0 
!freq ReS11 ImS11
400000000.0 -0.5698298558006872 -0.5671049202647698
420000000.0 0.4196759133612438 -0.6406240762145696
440000000.0 -0.5669158340233221 -0.4514940704893951
460000000.0 -0.27793639177856916 -0.5746417157067152
480000000.0 -0.496231553081466 0.17725436096647973
500000000.0 0.40560623698426607 0.05932201392562511
520000000.0 0.07726133652657366 0.4092724971712083
540000000.0 0.3174904579223202 0.35113058915615025
560000000.0 0.057427145190144926 -0.45023657160458314
580000000.0 -0.41785324608180824 -0.055459687969352155
600000000.0 -0.18394617453637124 -0.3561748309355623
620000000.0 0.3542456785694887 -0.13049104528407937
640000000.0 -0.24964170523384827 0.27087661725398926
660000000.0 -0.13749709076633693 0.34024409320985266
680000000.0 -0.13072321348630345 0.3176230726615967
700000000.0 -0.23613976809070664 0.24480947904718375
720000000.0 0.2997905549229512 -0.15807534984596708
740000000.0 -0.04282411823780385 -0.2933674863892534
760000000.0 -0.25677461372552657 -0.0652893000698259
780000000.0 -0.21362695211615929 0.1660627293319635
800000000.0 0.1556695239921336 0.205631581039389
820000000.0 0.048908086160712294 0.22764098392893667
840000000.0 -0.17263046355412817 0.1326722361399135
860000000.0 0.06492622918316818 0.19144701592964672
880000000.0 0.045131669010093176 -0.1837511156284962
900000000.0 -0.045584894072013236 0.15309265583115586
920000000.0 0.13676880738735803 0.04157459472322121
940000000.0 0.02761485785752681 0.1268067797363987
960000000.0 0.07850528665422095 0.0696750357755186
980000000.0 -0.040731006889273114 0.050228394801382505
1000000000.0 -0.029069977376062504 -0.046374422961912264
1020000000.0 0.007500711741980794 0.04806604577138773
1040000000.0 -0.04558792169814367 -0.05232559605845745
1060000000.0 -0.10255093011679654 -0.030430863929174268
1080000000.0 -0.1222189815904566 -0.06852377779444646
1100000000.0 -0.18011094708357783 0.022525389679032747
1120000000.0 -0.20715716421342792 0.051798281231403405
1140000000.0 -0.1843203718745373 -0.14911420294771813
1160000000.0 -0.25802687746933667 0.06725673264741816
1180000000.0 0.27453760969030816 0.012456109129890012
1200000000.0 -0.07672537793639654 0.2951437259501126
1220000000.0 0.1622132258582457 0.26678600634448024
1240000000.0 -0.303857923645348 -0.10952222484436198
1260000000.0 -0.2431454047076304 0.23128962979682038
1280000000.0 -0.07693246042437887 0.3367755022216199
1300000000.0 -0.22828626749881514 0.26409896503777586
1320000000.0 0.11872118774663061 -0.3334212548585349
1340000000.0 0.17122238292171355 0.3247381967576208
1360000000.0 -0.3108314994343846 -0.20523095991817444
1380000000.0 0.20215148981353176 0.3194034906457492
1400000000.0 0.022700210736649674 -0.3817027503977495
1420000000.0 -0.10557786680198235 0.3726572688283093
1440000000.0 0.36027103725212395 -0.10157933825020528
1460000000.0 0.15510833765822307 -0.324664167540807
1480000000.0 -0.2927950476800873 -0.19044694413003146
1500000000.0 0.05209386491090225 0.326375447771576
1520000000.0 0.2975131130225443 0.06115652457295649
1540000000.0 -0.16962732507181785 -0.2211654240602149
1560000000.0 -0.1464226699670366 0.20699174042298743
1580000000.0 -0.04575007481867577 -0.21698381460222904
1600000000.0 0.018757278732049514 0.18949769368731983
1620000000.0 -0.15907140610615872 0.04298239808862308
1640000000.0 0.11946042073364287 0.06419977050925575
1660000000.0 -0.007068335123059874 -0.11079399919675853
1680000000.0 0.03380391983838801 -0.0832540025713387
1700000000.0 -0.015471464003587534 -0.07562294069919959
1720000000.0 0.018025202520811554 -0.061998017820755626
1740000000.0 0.041280519683423327 -0.04363779485939014
1760000000.0 0.06419006544188145 -0.0271822804193976
1780000000.0 -0.10182536986932829 -0.016114522705554798
1800000000.0 0.10138318966612468 0.07624299173421102
1820000000.0 -0.15686823498929683 0.04691930330164636
1840000000.0 -0.18814327836797687 -0.0443410907187298
1860000000.0 -0.16065480930436654 -0.1592841272075509
1880000000.0 -0.18418862239629874 0.16728962573868517
1900000000.0 0.26987005679688136 0.06799180822177688
1920000000.0 -0.25870520656291224 -0.13087477109093826
1940000000.0 0.11755522116110947 0.27451154432432356
1960000000.0 -0.2554442768059912 -0.1704449298452326
1980000000.0 0.30502638612585603 -0.0494387743676737
2000000000.0 0.014371652614005631 0.3106593599584721
2020000000.0 -0.2766278517616372 0.14996515098103225
2040000000.0 -0.2872078667034844 0.11880091010336766
2060000000.0 -0.29879469031180306 -0.06321472462810637
2080000000.0 -0.16607451333811682 -0.25635474896030924
2100000000.0 -0.023097014690570964 0.29837870059324395
2120000000.0 -0.13840988848545058 -0.26031203283045334
2140000000.0 0.18786740629970625 0.22204947969729671
2160000000.0 -0.1808309907458806 -0.21984084807772797
2180000000.0 -0.2481708424304631 0.11786460742313247
2200000000.0 -0.013724645859951914 0.26981715755632824
2220000000.0 0.1382047107276035 0.221140997057921
2240000000.0 -0.1670917707323183 0.1905708671146899
2260000000.0 -0.1646476167120499 0.17475440942804205
2280000000.0 -0.05560112185748763 -0.22440519394223343
2300000000.0 0.21934753607257124 -0.008077751308854813
2320000000.0 -0.18320508413986852 -0.10646901995535694
2340000000.0 0.08944107517790913 0.18765977135613904
2360000000.0 -0.041275327488096626 -0.20774413811125067
2380000000.0 0.19211613545950917 0.10413008583754549
2400000000.0 -0.16462165220983416 0.1625283909209403
2420000000.0 -0.03083322118972986 0.25240194387564435
2440000000.0 0.2830316593463423 0.0059277194623651224
2460000000.0 -0.31923442240966343 -0.007592625185277029
2480000000.0 0.34239140611819596 0.07850356285248931
2500000000.0 -0.06320286504972954 0.385229738271695
2520000000.0 -0.4163546393942338 -0.0980346269298754
2540000000.0 0.10565960551455429 -0.45299049447516954
2560000000.0 0.4350074286663302 0.24592780958185076
2580000000.0 -0.5298972942699178 0.04424541222695835
2600000000.0 0.3683583663941789 -0.42387767690904354
2620000000.0 -0.1044550258129913 0.577741512255696
2640000000.0 -0.20122309479745165 -0.5756750584107194
2660000000.0 0.6018116186117304 0.18347296134246582
2680000000.0 -0.3307171801063757 0.551877176636936
2700000000.0 -0.6421893048306867 -0.13528655165764533
2720000000.0 -0.38153651792583565 -0.5436247534709834
2740000000.0 -0.16868399501895684 -0.6476348117875531
2760000000.0 -0.14892743862060628 -0.6552808520064939
2780000000.0 0.643671685297748 0.17508600751392567
2800000000.0 0.5404638963487577 0.37793428804476126
2820000000.0 0.13731503099177259 0.6321920213603771
2840000000.0 -0.6152918481557974 0.15471211131232188
2860000000.0 0.29733046975850924 -0.544254587826751
2880000000.0 -0.3550753228857002 0.487881136849264
2900000000.0 0.5748449572418168 0.11282819750674031
2920000000.0 -0.16613989373234467 -0.5430468055965573
2940000000.0 -0.5408864131904394 0.05734687293643292
2960000000.0 -0.27856881373982006 0.44137812403752413
2980000000.0 0.35244633520347074 0.3497964139765123
3000000000.0 0.460501308702506 -0.08649039286541743
3020000000.0 0.09257893195788784 -0.4348097341000857
3040000000.0 -0.29997984399306377 0.28973482615502255
3060000000.0 0.39169674495164525 0.003835153606821214
3080000000.0 -0.35374635488842016 -0.09885683533294659
3100000000.0 0.33261872109703594 0.08602795952783791
3120000000.0 0.2008169122887861 -0.261832044379129
3140000000.0 -0.2148120101521686 0.23968677784784337
3160000000.0 0.13085188427120625 -0.28691076109490293
3180000000.0 -0.246228954033312 0.18663043445181893
3200000000.0 0.3006008543743687 -0.04618250642885464
3220000000.0 0.018283557459362165 -0.2956885772644309
3240000000.0 -0.16793385802760805 -0.23516871845986426
3260000000.0 -0.2297066562463293 -0.14538764095674303
3280000000.0 0.04279416416640128 -0.2554285061593847
3300000000.0 0.23423646466383918 -0.04534437745131851
3320000000.0 -0.19921458836947825 0.08840364491210477
3340000000.0 0.03194252221014021 -0.19073081685703117
3360000000.0 -0.1667660497375457 0.009667058045406345
3380000000.0 -0.13896368210396087 0.04853446181229191
3400000000.0 0.10943043366439513 0.06579561575711623
3420000000.0 0.07606215237192121 -0.08359191287136059
3440000000.0 0.03929765483309457 0.08935276659022068
3460000000.0 0.04144343231099604 -0.07269996896227343
3480000000.0 -0.07068504133232381 0.016516707973113692
3500000000.0 0.04939977082174864 -0.03936514731597163
3520000000.0 0.017739323589471695 0.05108824353933621
3540000000.0 -0.04968848700372689 -0.029375024869290278
3560000000.0 -0.02206197462409766 0.05624224320487258
3580000000.0 -0.060484391345644546 -0.03740598148557815
3600000000.0 0.07139121145521936 -0.023675988300482707
3620000000.0 0.08511561229751821 -0.01874995835656655
3640000000.0 -0.09375129513317407 -0.017876757139790315
3660000000.0 0.035280044771019994 -0.09878365864094248
3680000000.0 0.10256564764830124 -0.01007104325193863
3700000000.0 -0.043859176789532626 0.08622532284192491
3720000000.0 -0.0863759885294244 0.02727042378865488
3740000000.0 -0.02306471312336718 -0.07351633540287376
3760000000.0 -0.05626473575838963 0.030687092276618574
3780000000.0 -0.045492014788360444 0.012612480223180808
3800000000.0 0.023839438013235903 -0.025801991823937484
3820000000.0 0.019603108705294185 -0.03168938544417006
3840000000.0 0.017778736082086986 0.046826740773391884
3860000000.0 0.07013662568575929 -0.004809761746287349
3880000000.0 -0.06664275572914684 -0.05666358727722676
3900000000.0 0.09545107985317698 0.037152942092619094
3920000000.0 -0.025458178220597177 0.1074995706688097
3940000000.0 -0.05133432147433562 -0.09824478735401725
3960000000.0 0.07472030435332204 -0.07955250424334594
3980000000.0 -0.012843438927164708 0.0958878378606197
4000000000.0 -0.052614485945182234 0.05982661189439277
