!Created with skrf (http://scikit-rf.org).
# Hz S RI R 50.0 
!freq ReS11 ImS11
400000000.0 -0.6768794096059176 0.41204684006178294
420000000.0 0.7319118825461227 -0.14437461228777643
440000000.0 0.051761733869025765 -0.7248296233462237
460000000.0 -0.35275120004707006 -0.5408247852083041
480000000.0 -0.5153927421287107 0.05132770498246236
500000000.0 -0.20305226928981493 0.3613824031946796
520000000.0 0.4284857753811169 0.11141781053717825
540000000.0 0.0965388226001897 -0.47273415027469096
560000000.0 -0.24884664716142801 -0.36494085814611577
580000000.0 -0.3588572678114807 -0.23080806861316225
600000000.0 -0.38990680962026386 -0.03298146868323042
620000000.0 -0.2083758309524448 -0.31319527977478967
640000000.0 0.3521772596917503 -0.039045274846896454
660000000.0 -0.33570503031783716 0.04631476507620188
680000000.0 0.3260306618340018 -0.08309426320320619
700000000.0 -0.028979356168053017 -0.3403985691997999
720000000.0 -0.28389736516515396 0.20230912557535163
740000000.0 0.28576864683782005 0.15348759308795232
760000000.0 0.09624146114128145 0.27590433524569474
780000000.0 -0.2539806687508729 -0.09595559779003401
800000000.0 0.24334591997744123 0.06188175083235018
820000000.0 0.15250404708422263 -0.15137791058166167
840000000.0 -0.03310910764093933 -0.2082726198741658
860000000.0 -0.1397620441412301 -0.13742138338969795
880000000.0 -0.04791769227554353 0.1816737242823993
900000000.0 -0.10237388472853674 -0.12402163178134742
920000000.0 -0.14487441370037688 -0.04407341157912935
940000000.0 0.12425545274352422 -0.06928678012549656
960000000.0 0.11316839680714673 0.01840944122307958
980000000.0 -0.06897217819911289 -0.02705994938500613
1000000000.0 -0.024121669878298307 -0.04824561075975799
1020000000.0 -0.04407907376459575 -0.009442313787225366
1040000000.0 -0.050709207698272196 0.04875145448027272
1060000000.0 0.10016792511054606 -0.00486356481407406
1080000000.0 -0.11034643762383314 0.08460595162490978
1100000000.0 -0.1620261058248447 0.06914242747434138
1120000000.0 -0.10628472025666137 -0.1777061405871454
1140000000.0 0.23440748018172466 -0.05414249635729927
1160000000.0 0.18244185447912806 -0.20057064851317782
1180000000.0 0.2664913340031759 0.1058124956423371
1200000000.0 0.1312201886276404 0.27777085540679153
1220000000.0 0.3115566364916363 -0.011196777129490527
1240000000.0 -0.1385666842260134 0.290391498326458
1260000000.0 -0.06575857289078414 0.3184088931782759
1280000000.0 -0.2582305507853058 0.21401774967073073
1300000000.0 -0.3332047419884593 -0.08808144524468813
1320000000.0 0.35348336398560726 0.056664740777209135
1340000000.0 -0.0446718216937927 0.3757314139296011
1360000000.0 -0.2936484584143303 0.2442749896176903
1380000000.0 0.38056269007298377 -0.02031242535472994
1400000000.0 -0.36333414673631653 -0.1176739641773805
1420000000.0 0.012832218879175952 0.37800668075646954
1440000000.0 0.06255245235841195 0.36462666607774724
1460000000.0 0.35213885444135123 0.0866717070060539
1480000000.0 0.07732467969596354 -0.34352267562466005
1500000000.0 -0.07979894647788842 0.3281230573538821
1520000000.0 0.27487917300869036 -0.14203079706181074
1540000000.0 -0.17955766462585201 0.2118088739986779
1560000000.0 0.00927121183552345 0.24360203674347383
1580000000.0 -0.0914605610957867 -0.19672756679946024
1600000000.0 -0.0638162757225757 0.17542327992099463
1620000000.0 0.1390550028751019 -0.08875356624776705
1640000000.0 0.028116570792346852 0.1394536790367985
1660000000.0 -0.11362119432057471 -0.02744003784658757
1680000000.0 -0.03482203399655381 0.08713231330619363
1700000000.0 0.0267347670869682 0.06958187660930874
1720000000.0 0.02588964023521756 -0.05719870385573805
1740000000.0 0.013930280797258221 0.058685216086348156
1760000000.0 0.008803296210354842 0.07179401443371582
1780000000.0 -0.04146092691523336 -0.09547244338374368
1800000000.0 0.013934472148802562 0.13121686015882097
1820000000.0 -0.1462785046553215 0.08132914000252188
1840000000.0 -0.18694141462632774 0.06364765017075635
1860000000.0 -0.19951854015921777 0.10384747343331288
1880000000.0 -0.0719607715208757 0.23273327200447258
1900000000.0 0.11146825806576866 0.24614340288059963
1920000000.0 0.10285891376839232 -0.26941758888729245
1940000000.0 -0.18939428847291215 0.23603904547171708
1960000000.0 -0.2211512054281465 -0.21953075447208964
1980000000.0 0.2212098152662414 -0.2208086723485909
2000000000.0 0.18027758673313768 0.2527140619561359
2020000000.0 -0.0839765574617831 0.3019620192781941
2040000000.0 -0.2594076783207552 0.1684151623909496
2060000000.0 -0.2871280452022879 -0.10645995241986733
2080000000.0 -0.09895756634603212 -0.2886501871037076
2100000000.0 -0.08471550497789089 0.2884511630071718
2120000000.0 -0.15648421953654781 -0.25217521764304046
2140000000.0 0.03444940500485175 0.28833510054000255
2160000000.0 -0.17438588524412305 -0.22709846822444182
2180000000.0 -0.18321350602329775 0.20589270847207414
2200000000.0 0.04420243833305388 0.2644116017246878
2220000000.0 0.09223297902978407 0.2412833039557891
2240000000.0 -0.17529220641329993 0.18276883165478025
2260000000.0 -0.23894165303605427 0.03120722937951306
2280000000.0 -0.034250236443381016 -0.23009272807424977
2300000000.0 0.2189824104493659 -0.03460280812690989
2320000000.0 -0.20169001104719578 -0.06755365258438835
2340000000.0 0.15622872804276017 0.13899750526901752
2360000000.0 -0.2044165897811667 -0.04756591709649171
2380000000.0 0.20852328710631282 0.057906645582542736
2400000000.0 -0.22836573424328968 -0.04057164010162209
2420000000.0 -0.2328452026466982 0.11253458585126248
2440000000.0 0.2763482655004794 0.07829166870026304
2460000000.0 -0.3147688170462915 0.06331119097666743
2480000000.0 0.3415512205510176 0.0832851221141986
2500000000.0 -0.04331437561367305 0.3873951200919639
2520000000.0 -0.4212902846952285 -0.06290355228762062
2540000000.0 0.10509188815695016 -0.4495866240319145
2560000000.0 0.38553833214697636 0.3136634730024551
2580000000.0 -0.5248754289797964 -0.08220487373211424
2600000000.0 0.3966431867420157 -0.3999970118539833
2620000000.0 -0.027011571681907546 0.5890536759981181
2640000000.0 -0.27440530307027056 -0.5458878081703638
2660000000.0 0.6117616966453472 0.1498432187899733
2680000000.0 -0.396469676234134 0.5074210493988494
2700000000.0 -0.6179728695384176 -0.22066854365684305
2720000000.0 -0.25081274099916473 -0.6159827160704984
2740000000.0 -0.21892324129616758 -0.6320166678012127
2760000000.0 -0.08586277976349611 -0.6651484257089445
2780000000.0 0.6332557687146334 0.20499495139939383
2800000000.0 0.5289720224245097 0.3898852283897786
2820000000.0 0.12126574412824451 0.634418109240491
2840000000.0 -0.5868669310913909 0.23664531973210037
2860000000.0 0.2296012196039827 -0.5764800626022528
2880000000.0 -0.3225758922073034 0.5113897059454021
2900000000.0 0.5869710453118612 -0.03303830144982615
2920000000.0 -0.20329074912719072 -0.5301701428116188
2940000000.0 -0.5425251361701632 -0.04484102843202503
2960000000.0 -0.3582876826230451 0.377949825001555
2980000000.0 0.14568119097768722 0.4757235196583152
3000000000.0 0.4568639220899483 0.11776896095756288
3020000000.0 0.17423215242954337 -0.4117483838895092
3040000000.0 -0.3592789244805467 0.21726165982336842
3060000000.0 0.3836269568391117 0.07169841274575577
3080000000.0 -0.3598698036211214 -0.05125978748571519
3100000000.0 0.24922482219919798 0.23075698117151386
3120000000.0 0.2718359492428645 -0.18058599179957632
3140000000.0 -0.27018597851791487 0.17096448996341362
3160000000.0 0.1956403693983456 -0.24989504603514237
3180000000.0 -0.2181585292969961 0.2235643960852408
3200000000.0 0.25988535590277684 -0.16428709252997106
3220000000.0 -0.2514380299070276 -0.16018692568444554
3240000000.0 -0.2819884331592021 -0.057055384436308074
3260000000.0 -0.21901891741918694 -0.1568459225349754
3280000000.0 0.1874033056188887 -0.17636948921653034
3300000000.0 0.1388341992470131 0.19495587024152305
3320000000.0 -0.18999350161760067 -0.11389066349173019
3340000000.0 0.1450053748504181 -0.137211269219438
3360000000.0 -0.01854916464246765 0.1718150608031129
3380000000.0 0.13005678871489681 0.06502447760650495
3400000000.0 0.12106487966104379 0.012051005598721621
3420000000.0 0.05210519090514592 0.09506595052678227
3440000000.0 0.07511171329631655 -0.06343344555372284
3460000000.0 0.0730490918642121 0.05101134631121608
3480000000.0 -0.010290849041993405 0.07865633174449477
3500000000.0 -0.0648692755364936 -0.013696768540799324
3520000000.0 -0.04020320001826529 0.03723960718272098
3540000000.0 0.0444969883458438 0.03092260389033978
3560000000.0 0.03151831854384558 0.044854673998510335
3580000000.0 0.05031164233261978 0.042702480833190185
3600000000.0 0.04326040945379152 -0.06098292217096304
3620000000.0 -0.0924541933927287 -0.013195206127219363
3640000000.0 -0.011674116944297994 0.10036188410911846
3660000000.0 -0.01922854728183031 0.10435905561811068
3680000000.0 0.01830075739474469 -0.10136065238366285
3700000000.0 0.07212422231826793 0.059006908574836966
3720000000.0 -0.05592842417156303 0.06466459159781389
3740000000.0 -0.031712345351626765 0.06811868118648176
3760000000.0 0.06858293537116017 0.01069602214925748
3780000000.0 0.019336016651703945 0.04948103021259926
3800000000.0 0.03388908535719616 0.005397637165958485
3820000000.0 0.031234976531467125 0.009458257185181724
3840000000.0 0.03178013244200659 -0.03994639135461266
3860000000.0 -0.011874333097050984 0.07331097906036496
3880000000.0 -0.09306032906801237 -0.0014981478735370008
3900000000.0 -0.00522736794402221 -0.10518258119265789
3920000000.0 0.07808917998825943 -0.07308552506341336
3940000000.0 -0.07569200714852897 -0.07311348710309655
3960000000.0 -0.08969305628559736 0.05644135233275371
3980000000.0 0.04616946050480031 -0.08715451010441709
4000000000.0 -0.012299194196350942 0.08386580728935762
