!Created with skrf (http://scikit-rf.org).
# Hz S RI R 50.0 
!freq ReS11 ImS11
400000000.0 -0.5758706535548943 -0.5641442186132253
420000000.0 0.22383020581116728 -0.7337609761583753
440000000.0 -0.6351891756368501 -0.34554410018016735
460000000.0 -0.28572088997578193 -0.5644823846603587
480000000.0 -0.4669518697565777 -0.24067093299709974
500000000.0 0.35144095578313517 0.21631135313889452
520000000.0 0.4010992539104441 0.12250316217550418
540000000.0 0.34796578554480523 0.3083821092283646
560000000.0 0.31449888116199404 -0.32843645987118575
580000000.0 -0.4098523325368191 0.08120608372862383
600000000.0 -0.017132398862407406 -0.3955582510130443
620000000.0 0.3690331415035688 -0.10127635867506186
640000000.0 0.07723075578686876 0.36092019247133444
660000000.0 -0.2558214427473955 0.2569871400510223
680000000.0 0.03670846964504566 0.34352492031280274
700000000.0 -0.21977228106634328 0.25689570575166476
720000000.0 0.2032282727113765 -0.2689754544231967
740000000.0 -0.05722888304520837 -0.2893127596955043
760000000.0 0.06388881678285667 -0.2606852308337453
780000000.0 -0.24061316214252343 0.1312043993148952
800000000.0 0.2502557197680016 -0.06433862250530276
820000000.0 0.1481822079045614 0.16916243506228676
840000000.0 -0.05271318637538066 -0.21679481301873135
860000000.0 0.19413179280919188 0.060263146263137446
880000000.0 -0.0168749905401843 -0.18736146101125506
900000000.0 -0.09508408582431321 0.12414737215169969
920000000.0 -0.12899270176292582 0.06615743227507014
940000000.0 0.09908630149014305 0.08850605919923428
960000000.0 0.057784437924293976 -0.08882083039209605
980000000.0 0.006074217593491307 -0.056746125906887684
1000000000.0 -0.03655896174081479 -0.04083730130843737
1020000000.0 0.004412968523742176 -0.0457256236171602
1040000000.0 -0.0015528208611879503 0.06864583721168942
1060000000.0 -0.09389100325352766 -0.058291787607203334
1080000000.0 -0.13427549214004794 0.049296931884174965
1100000000.0 -0.13777378398768203 0.11564949160960693
1120000000.0 -0.19902687297408805 -0.06832274582850613
1140000000.0 -0.23585710367952595 0.03417596503821612
1160000000.0 -0.26488645891542056 -0.0024663977872356395
1180000000.0 0.273213119246825 -0.019038043878999492
1200000000.0 -0.11132295664104055 0.2840368213868099
1220000000.0 0.1496804689487138 0.2746796723236273
1240000000.0 -0.3098298690500041 -0.10002936881624772
1260000000.0 -0.14035081212483058 0.303533757281792
1280000000.0 -0.14793905997638415 0.30915392914292794
1300000000.0 -0.34534119750655345 0.04795393992699101
1320000000.0 0.1509154082498198 -0.3231968866201068
1340000000.0 0.34081720610603694 0.13597205406504578
1360000000.0 -0.24314782971857538 -0.27857790619789524
1380000000.0 0.13074233340095695 0.35556104621782686
1400000000.0 -0.09205624353210194 -0.37209261244864245
1420000000.0 -0.014020361575684892 0.3858717088626719
1440000000.0 0.3584780370710684 -0.11212853994511399
1460000000.0 0.12064629596530639 -0.3393393271721994
1480000000.0 -0.2779163777470107 -0.21502089029363763
1500000000.0 0.2184927095261862 0.24807179750282615
1520000000.0 0.28031337156247765 0.11056955267202156
1540000000.0 -0.022104191579017825 -0.27701411196837955
1560000000.0 -0.18651811651086522 0.1788549877885499
1580000000.0 -0.1723117614189274 -0.14084939766972213
1600000000.0 0.010613236654485278 0.1847894929200765
1620000000.0 -0.1515270474525781 -0.06136925671281262
1640000000.0 0.09069175748977164 0.10073646608097465
1660000000.0 0.09498211836694448 -0.058562317988026136
1680000000.0 -0.033773588024607816 -0.08422251835075582
1700000000.0 -0.013629180487645987 0.07250007331185543
1720000000.0 0.03435973372876586 0.05130992512497935
1740000000.0 0.05411321788347312 0.029115471964091134
1760000000.0 -0.07135581473658686 0.0023872219369251374
1780000000.0 -0.0501172754431742 0.08742852192677608
1800000000.0 0.0947517025503265 0.08213392726184127
1820000000.0 -0.16310470001871155 -0.005263399664009715
1840000000.0 -0.18136382415472727 -0.07329720541253301
1860000000.0 -0.2250763161582736 0.021160411614148986
1880000000.0 -0.15103085214736414 0.1960301008799115
1900000000.0 0.2393443442057985 0.14206820508267312
1920000000.0 -0.2595963257777896 -0.1362235478212197
1940000000.0 0.22147464017708085 0.20292136105916925
1960000000.0 -0.2594725799408192 -0.16191943491454316
1980000000.0 0.30843629753520646 0.01543528030153343
2000000000.0 0.003934408214059898 0.3097873577329857
2020000000.0 -0.3072517867671605 0.06790846646535345
2040000000.0 -0.2758375626290824 0.14135257159566345
2060000000.0 -0.30125633909754856 -0.0405404349849633
2080000000.0 -0.10730637278473536 -0.28379518330111364
2100000000.0 -0.0346714860177265 0.29751694986105487
2120000000.0 -0.2669833978954515 -0.12337472135512884
2140000000.0 0.23547634127602343 0.16905557746592073
2160000000.0 -0.2100664331029623 -0.19082439810987326
2180000000.0 -0.22186444465747185 0.16302908965008894
2200000000.0 -0.03426297362302851 0.2690352463682087
2220000000.0 0.18808419097225895 0.1830554688432418
2240000000.0 -0.0725575821515936 0.24349440366076086
2260000000.0 -0.1681979051075169 0.17115694003371895
2280000000.0 0.027588098023070506 -0.22841477203684896
2300000000.0 0.18485590628662696 0.12050983991546947
2320000000.0 -0.14305060212823692 -0.15867484692905276
2340000000.0 0.1585593413846628 0.13719987426654892
2360000000.0 -0.09841936396786333 -0.18442138687868942
2380000000.0 0.1248403951483844 0.1771653349152486
2400000000.0 -0.2307690872501031 -0.02036830085599696
2420000000.0 -0.04767897878903488 0.25250298402853344
2440000000.0 0.20187561085619665 -0.1970845202407377
2460000000.0 -0.3119209882260749 0.05102544567413247
2480000000.0 0.3303633435352227 0.11748449072079216
2500000000.0 -0.04716301071246469 0.3895332844869953
2520000000.0 -0.4252268987817339 -0.053666387706472155
2540000000.0 0.029599072116198707 -0.4646071912812067
2560000000.0 0.4710079004610053 0.16716718763990226
2580000000.0 -0.5306052696281479 0.032032362945201294
2600000000.0 0.38370069421818925 -0.4103946759730463
2620000000.0 -0.09689836854844196 0.5795203635503751
2640000000.0 -0.21530111174994443 -0.5702082083444899
2660000000.0 0.5857821008201579 0.22849833755897264
2680000000.0 -0.380693342079485 0.517081378590394
2700000000.0 -0.6343536221008403 -0.16300020666429346
2720000000.0 -0.3697733193999978 -0.5507430249817197
2740000000.0 -0.36350010973103897 -0.5604117728794549
2760000000.0 -0.2624683525519142 -0.617626810687214
2780000000.0 0.667520345098373 0.002398324104250644
2800000000.0 0.5853989048555279 0.30321003033752036
2820000000.0 0.18313136493912027 0.6203564044677483
2840000000.0 -0.5881893465687625 0.2392768523061801
2860000000.0 0.2379672580546242 -0.5741528611259701
2880000000.0 -0.336226328672503 0.5017704200671318
2900000000.0 0.5768177574700207 0.10277927523767118
2920000000.0 -0.10160639774505334 -0.5583019078021837
2940000000.0 -0.5399099902499074 -0.059717176103953384
2960000000.0 -0.32045111462911646 0.4118168892827344
2980000000.0 0.28544105991141555 0.4071372585455238
3000000000.0 0.46080241159632573 -0.09226256709969062
3020000000.0 0.057930337440050016 -0.43910648695178145
3040000000.0 -0.3498748876235883 0.22386146644439092
3060000000.0 0.360855806569349 0.14614295344730577
3080000000.0 -0.319116531277613 -0.1805515268077961
3100000000.0 0.32128733638847573 0.12500876147532333
3120000000.0 0.07222852366447519 -0.32354805271625414
3140000000.0 -0.10044555672649372 0.30496726490877984
3160000000.0 0.07802843223425426 -0.30517052420871615
3180000000.0 -0.23705089198079654 0.19804688740296422
3200000000.0 0.30045648233012306 0.049142973589516935
3220000000.0 0.0935566953385776 -0.28245518445513207
3240000000.0 -0.14119070108818454 -0.25380649891633694
3260000000.0 -0.2214502422515997 -0.1583350981445438
3280000000.0 0.008659407261951146 -0.25725901377614635
3300000000.0 0.23495259230281754 -0.03126159247494537
3320000000.0 -0.2147162833536974 0.02309958286024732
3340000000.0 0.09616417129990405 -0.16724420849290242
3360000000.0 -0.16008947872429738 0.05118173310631926
3380000000.0 -0.04077007560767935 0.13992432074202293
3400000000.0 0.1238507891194286 0.02355988643380276
3420000000.0 0.060655668515523654 -0.09447193573245022
3440000000.0 0.08853240298400235 0.040813591718322356
3460000000.0 -0.03715280431756687 -0.07483257083225818
3480000000.0 -0.0585209203233115 0.04675232755122582
3500000000.0 -0.034106129039455604 -0.05564839432002898
3520000000.0 0.054710574321210216 0.0009890242509940975
3540000000.0 0.04612930133735407 -0.03616956850382728
3560000000.0 -0.04594383770445721 -0.04046385663437288
3580000000.0 0.02310323418137507 -0.06794389408681249
3600000000.0 0.07488301559961819 0.005285497297995044
3620000000.0 0.06368727696382634 0.05715536944262247
3640000000.0 -0.08963627798958858 -0.02593267272288163
3660000000.0 0.06933583200142313 -0.07589285526840779
3680000000.0 0.1024658283308996 -0.009451970469225973
3700000000.0 0.04658033037624607 0.08312756627414478
3720000000.0 0.039955929616775264 0.07966742290532237
3740000000.0 -0.07054652856177693 -0.025210538426072467
3760000000.0 -0.05600216602526192 0.030954786505225772
3780000000.0 0.02350756634568867 0.04151736554672352
3800000000.0 0.03365138390214934 -0.005630211101297965
3820000000.0 -0.032426541089407235 -0.01155294562834255
3840000000.0 0.02015297897367164 0.04606340335520652
3860000000.0 -0.017173471867037177 -0.06728521537657617
3880000000.0 -0.050932868290107895 0.06883407634767115
3900000000.0 0.08596114048880345 -0.0536755579703321
3920000000.0 0.07331622644540507 0.08177299478447711
3940000000.0 -0.08094156338612285 -0.07721338948878025
3960000000.0 0.0251947276989744 -0.10680928108672037
3980000000.0 0.030898090540658604 0.09087066524928386
4000000000.0 0.009814523103619707 0.07874453499651707
