!Created with skrf (http://scikit-rf.org).
# Hz S RI R 50.0 
!freq ReS11 ImS11
400000000.0 -0.6672779819312084 -0.4488315872917845
420000000.0 0.34835427135922725 -0.6772553192391199
440000000.0 -0.5648657813326693 -0.4432000465979774
460000000.0 -0.04848337884436872 -0.6312076083076896
480000000.0 -0.37064734544769623 -0.3815384640920263
500000000.0 0.38811450297451716 0.13984412661808995
520000000.0 0.40497226773791534 0.1420367590859873
540000000.0 0.40308113491415093 0.2359806109729841
560000000.0 0.4184550090233997 -0.20060700460539707
580000000.0 -0.3315992602654795 0.27331396396731156
600000000.0 -0.1366382755805832 -0.37017890264539494
620000000.0 -0.33544261990068397 -0.19242405314484606
640000000.0 0.1901354990020325 0.31018534024886496
660000000.0 0.06360982277780215 0.34713743485449716
680000000.0 -0.3240353661321155 0.042317616299014434
700000000.0 0.0798125135708838 -0.32647602175800816
720000000.0 0.1503762897083471 0.3066791029905332
740000000.0 0.3032321247740628 -0.05196307116279402
760000000.0 -0.26881481113568795 0.06822489759908959
780000000.0 -0.25931461534460065 0.07695401789210257
800000000.0 0.09265581053972242 0.24985509150321455
820000000.0 -0.0014149518995903911 -0.22931641663116856
840000000.0 -0.2065664021135279 0.06984225797088535
860000000.0 0.20179925279483185 -0.0067073923201122
880000000.0 -0.1747906708388511 -0.04391117137713911
900000000.0 -0.14613808321998575 -0.03468269929605355
920000000.0 0.140383918533188 -0.03320875887172343
940000000.0 -0.13065023066054285 0.0206121254694971
960000000.0 -0.05095075770716417 -0.09321602415128742
980000000.0 -0.002909115831422945 0.06830821424979942
1000000000.0 -0.05665564567254464 -0.020839135360722863
1020000000.0 0.04756226958028924 -0.0021699299062466013
1040000000.0 -0.0220744216459362 0.06827751833027346
1060000000.0 -0.08538933298005819 0.0743813175037451
1080000000.0 -0.11545719727535501 0.08568225230223947
1100000000.0 -0.16052199987599017 0.08623897401195584
1120000000.0 -0.175292562830373 0.11589006894896359
1140000000.0 -0.21067043652839332 0.10833396666866339
1160000000.0 -0.25967629038886875 -0.015015667573438163
1180000000.0 0.22186210769423087 0.15288539235747026
1200000000.0 -0.2745401722886385 0.13475459308749035
1220000000.0 -0.009115687041848886 0.3166674868060947
1240000000.0 -0.30812421771338844 -0.11260865576131397
1260000000.0 -0.11107736528020076 0.31686947049082326
1280000000.0 -0.014887749443891145 0.34402124205014023
1300000000.0 -0.2690268481475909 0.21843323586174682
1320000000.0 0.08464988168779526 -0.343937007802344
1340000000.0 0.3200184993312611 0.1733478966349073
1360000000.0 -0.0844138077074521 -0.3587742390988304
1380000000.0 0.12374150633193094 0.36071074121582614
1400000000.0 -0.08199415730481466 -0.37457016786458
1420000000.0 -0.17311841692652696 0.3460230189251448
1440000000.0 0.37567313016741877 -0.04016903774050888
1460000000.0 0.032798282593030234 -0.36088513621720425
1480000000.0 -0.350396725893633 -0.012195343474096268
1500000000.0 0.266304375598223 0.1933324392661282
1520000000.0 0.29144370506594175 -0.06661325935682995
1540000000.0 0.0008010249585666266 -0.2740049990148604
1560000000.0 -0.2475162770411597 0.06586404195112985
1580000000.0 0.1270590835441697 -0.184125139947643
1600000000.0 -0.02718546404936252 0.18986248749217774
1620000000.0 -0.1445146391356523 0.08357304340645236
1640000000.0 0.1200804965132331 -0.06628579026518004
1660000000.0 -0.08068736465661892 -0.07571091870691113
1680000000.0 -0.0799313107982841 0.03722217002745257
1700000000.0 -0.06163472361768166 -0.034528567437115965
1720000000.0 -0.059833321482156705 -0.01763635042891117
1740000000.0 -0.05762703680749984 -0.024993200989539596
1760000000.0 -0.05078512875833654 0.05606786678093787
1780000000.0 0.07494373508201667 0.07145561740633835
1800000000.0 0.10313552247477853 -0.06957354048049179
1820000000.0 -0.15910427507927083 -0.01477458279555691
1840000000.0 -0.06428438393189619 -0.18257183747518657
1860000000.0 -0.18977957169457316 -0.12447402673091346
1880000000.0 -0.18988515518472868 0.16238648508811857
1900000000.0 0.2605598623884075 0.09610582671614214
1920000000.0 -0.2552259001202572 -0.14250948803051994
1940000000.0 0.15616930895601666 0.2578026269388272
1960000000.0 -0.30389325822631313 -0.050186355577693235
1980000000.0 0.23134839641333202 -0.2063837609565408
2000000000.0 0.09532184089396893 0.2931081368554196
2020000000.0 -0.2987151378715217 0.08881799619689482
2040000000.0 -0.30224828766519846 0.060043563769756565
2060000000.0 -0.26399309391027515 -0.1504064535657225
2080000000.0 -0.042351546218920975 -0.3021183331257472
2100000000.0 -0.008715491852894296 0.3008921549581633
2120000000.0 -0.28236365129409896 -0.08331740390060874
2140000000.0 0.23297370686193436 0.17175502382078012
2160000000.0 -0.2066633717485811 -0.19489741256567414
2180000000.0 -0.2100051413198325 0.17821087013736164
2200000000.0 -0.0029488005477300034 0.27079861316563664
2220000000.0 0.1513165301466332 0.21344476389159212
2240000000.0 -0.07145992445361841 0.24450061960543698
2260000000.0 -0.1653012076615237 0.173935680983803
2280000000.0 -0.0651843347624421 -0.2201797359312962
2300000000.0 0.17701492627863485 0.1276214167892077
2320000000.0 -0.07306692553107987 -0.20210440329577098
2340000000.0 0.12100247406538242 0.1729039427964457
2360000000.0 -0.14787001769784738 -0.1495355786833844
2380000000.0 0.16484788143985044 0.1393061349677573
2400000000.0 -0.2302232463426289 0.023890045287878053
2420000000.0 -0.05693380360092382 0.24993364833242826
2440000000.0 0.26302028209204564 -0.10567546463294882
2460000000.0 -0.3056440552487478 0.08528564436599329
2480000000.0 0.33754496519590016 0.0934535559398146
2500000000.0 -0.12338856578245595 0.37056307366404695
2520000000.0 -0.4126356535097807 -0.11039791339780612
2540000000.0 0.1534716859361796 -0.43887697557637667
2560000000.0 0.43890861996514313 0.24036766946097282
2580000000.0 -0.5282475046671427 0.06628521096031775
2600000000.0 0.38286626145361796 -0.4119816828320577
2620000000.0 -0.13008595800703865 0.57299978448082
2640000000.0 -0.2155196123089103 -0.5703920658963949
2660000000.0 0.6099772607415065 0.15330046597557015
2680000000.0 -0.2883381555485434 0.5733721761053919
2700000000.0 -0.6516865814571666 -0.07102435151217544
2720000000.0 -0.37785288447935594 -0.5456267591871963
2740000000.0 -0.18958346127005812 -0.640942568856896
2760000000.0 -0.20486075659426353 -0.6390444667320284
2780000000.0 0.6667733637543842 0.035090667074309134
2800000000.0 0.5633436844514967 0.34173882117043636
2820000000.0 0.15591697883321465 0.6274740749716439
2840000000.0 -0.6301151858154319 0.0763305037170441
2860000000.0 0.29732654755102766 -0.5446499594826945
2880000000.0 -0.34490431481052264 0.4955313746088489
2900000000.0 0.5733330901319196 0.1252547227041094
2920000000.0 -0.14730812974277066 -0.5484446003046825
2940000000.0 -0.544240321928033 -0.007816840878069085
2960000000.0 -0.27399912207591076 0.44548784339923875
2980000000.0 0.34140032513814395 0.3608053912440487
3000000000.0 0.4567138807634797 -0.10469984882431335
3020000000.0 0.06947565768753777 -0.43746767751948623
3040000000.0 -0.40415267444166286 0.0999300552625628
3060000000.0 0.3412948813509967 0.18815497291467217
3080000000.0 -0.26719652142931377 -0.2518382877808413
3100000000.0 0.3266457666128616 0.11094490785213267
3120000000.0 0.11244964148816208 -0.31116320327725716
3140000000.0 -0.10616051820065421 0.30416080164558557
3160000000.0 -0.05329256769466927 -0.31015720586653744
3180000000.0 -0.21468912404184573 0.22006553698011913
3200000000.0 0.3034208008250048 0.0016048462772300578
3220000000.0 0.08401680923098072 -0.28528889102016075
3240000000.0 -0.15714041214019636 -0.24390741400134094
3260000000.0 -0.22137696437759108 -0.1587400984099276
3280000000.0 0.05501305078227043 -0.2529625306486542
3300000000.0 0.2342358467005521 -0.03933297107621516
3320000000.0 -0.21438584641009895 0.031821507436603266
3340000000.0 0.09472533419619102 -0.16924504943682847
3360000000.0 -0.156910629108329 0.06057294275529896
3380000000.0 -0.0930418946245041 0.11275492009665591
3400000000.0 0.12596378027300942 0.014457551326172482
3420000000.0 0.0186120944542146 -0.10899007271755398
3440000000.0 0.01189797948577102 0.09605160508887906
3460000000.0 0.012604602025146138 -0.08312891943903516
3480000000.0 -0.07050021897232359 0.02492629797949045
3500000000.0 -0.03173466569120843 -0.05645526345883578
3520000000.0 0.0458691038081969 0.02963816960851
3540000000.0 0.05588306168406405 -0.01847507006110844
3560000000.0 -0.05941505005921313 -0.015588062063948797
3580000000.0 -0.050877289395001364 -0.05107902075330143
3600000000.0 0.07461697961374457 0.004178556416437345
3620000000.0 0.0850214618957845 0.016597638035668633
3640000000.0 -0.06980567245501651 0.06142563877242619
3660000000.0 0.036423786876832426 -0.09579240846822433
3680000000.0 0.10089388249992319 0.017360874616711545
3700000000.0 0.047155714228981474 0.08309353761911016
3720000000.0 -0.03148127341548365 0.08446989399427414
3740000000.0 -0.021761560514370414 -0.07308323033122487
3760000000.0 -0.06418378356904578 -0.006650123966292995
3780000000.0 0.04214902512415526 0.022707735482035557
3800000000.0 0.029895294289243115 -0.0176081650474802
3820000000.0 0.010758580761398184 -0.032140247348069875
3840000000.0 -0.00562661121778747 0.05091974126452946
3860000000.0 -0.021805262004663848 -0.06900819458408018
3880000000.0 -0.07971010991938124 0.03354791099926464
3900000000.0 0.10193215631742847 -0.0030566365720216516
3920000000.0 0.007279358863232529 0.10989931418144183
3940000000.0 -0.08215562654290312 -0.07565067038536884
3960000000.0 0.09070701045724876 -0.05996389192250124
3980000000.0 -0.045512013378161104 0.0838386035566551
4000000000.0 -0.07661450440728347 0.02072411502220226
