!Created with skrf (http://scikit-rf.org).
# Hz S RI R 50.0 
!freq ReS11 ImS11
400000000.0 -0.745510671475763 0.27078414367892656
420000000.0 0.691387028178074 -0.2741125876480282
440000000.0 0.10977968963273117 -0.7182481534181234
460000000.0 -0.1331118713609685 -0.628665697781148
480000000.0 -0.5250072058629061 0.059424908408770016
500000000.0 0.36364273639254047 0.19895813777929983
520000000.0 0.4256201967565439 0.027311299101545877
540000000.0 0.3920728640841681 -0.2651468588544408
560000000.0 0.43910335664834965 -0.13567203302920244
580000000.0 -0.43395879076267657 0.010716870333139176
600000000.0 -0.24759363134782322 0.3133987475418071
620000000.0 -0.34511315641054763 0.13123004493417179
640000000.0 0.2468804667639413 0.23939198261681155
660000000.0 -0.3004125131246976 -0.15660822708925412
680000000.0 0.33234980616490156 0.0012643494515238614
700000000.0 0.07154779978102159 -0.33285939041209583
720000000.0 -0.30305220373857583 -0.1681861915673939
740000000.0 0.2542196476699252 0.21256491988349255
760000000.0 0.2778066987295009 -0.11325534777517691
780000000.0 -0.22034267118036094 0.15447343351820048
800000000.0 0.2257779428092043 -0.08434869216650326
820000000.0 0.03044347142242932 0.21279500530401674
840000000.0 -0.12377769605508736 -0.17572894553974755
860000000.0 0.18462415118451508 -0.06081287844995299
880000000.0 0.03766515065484368 0.18972369821357418
900000000.0 -0.06528969699967391 0.14189705439908978
920000000.0 0.14601657253155229 0.01938576205838205
940000000.0 0.13038969653165217 0.06038121821011446
960000000.0 -0.029258167366019612 -0.11479979617819087
980000000.0 -0.005991057225802596 0.07854552061995103
1000000000.0 -0.04996886969050028 -0.009984507984225437
1020000000.0 -0.03713059564906934 0.01456355121565841
1040000000.0 -0.03134616379748311 0.060492082289693924
1060000000.0 0.10112332704280239 0.027990698845547526
1080000000.0 -0.05614817349697657 0.12496471369225598
1100000000.0 -0.020438959025972887 0.16392818986785831
1120000000.0 0.14719475150914185 -0.14197805998363253
1140000000.0 0.1903681665878447 -0.15254951333691136
1160000000.0 -0.07034177974009953 -0.26009464800743237
1180000000.0 0.2847759215835515 -0.01780314149850537
1200000000.0 0.2727064661244871 0.1460398762097928
1220000000.0 0.29450060405553397 -0.10565811475993213
1240000000.0 -0.03660365262107872 0.3197148617313372
1260000000.0 -0.12797877536320051 0.2987448821458108
1280000000.0 -0.31968438914058545 0.10367832897887694
1300000000.0 -0.11406509851956692 -0.3281394333588037
1320000000.0 0.3523496332043649 -0.05440256024690232
1340000000.0 -0.08746174306586081 0.3653007135697003
1360000000.0 -0.3784205673830396 0.037374226210526135
1380000000.0 0.37835566485953 0.03377500779550358
1400000000.0 -0.3768024822608354 0.04916144261653754
1420000000.0 0.14225021830364973 0.34619068662149605
1440000000.0 0.06568618146270999 0.3617243813559877
1460000000.0 0.3568957689567133 0.056416955772209204
1480000000.0 -0.09268440423603405 -0.34564723493325683
1500000000.0 0.2005907952811952 0.27149917008122293
1520000000.0 0.18792947708376936 -0.24278620094135436
1540000000.0 -0.26531642899177577 -0.07942961525806101
1560000000.0 -0.07794843207840162 0.23773137626056334
1580000000.0 -0.07945677966521683 -0.20344868656266843
1600000000.0 0.021547335142846423 0.18519113877868543
1620000000.0 0.16311854248843224 -0.020300031010416515
1640000000.0 -0.06375999816212963 0.12476842849606627
1660000000.0 -0.03788109074524401 -0.10894643082187375
1680000000.0 -0.07491633736493133 0.0558618022776546
1700000000.0 0.0612185915031772 -0.04058564774495142
1720000000.0 0.051594605565140755 -0.024326525663663758
1740000000.0 0.05609431470618536 0.018815949077879073
1760000000.0 0.0717061866659343 -0.010857446893423337
1780000000.0 -0.09141024790451314 -0.047446128852562726
1800000000.0 -0.007899023561486562 0.1289383833170007
1820000000.0 -0.11143435670552611 0.12561366443877625
1840000000.0 -0.11664111873325908 0.15855607095114477
1860000000.0 -0.11604836449426072 0.19013016049344397
1880000000.0 -0.12659130699905008 0.2118174299726913
1900000000.0 0.25127304884992224 0.10494942062303411
1920000000.0 -0.16612750649220526 -0.23656606526661988
1940000000.0 -0.20419425157008098 0.22094197130917173
1960000000.0 -0.13139516017457312 -0.2855494720858757
1980000000.0 0.25585188983455837 -0.18236958417990803
2000000000.0 0.17213306974391335 0.2596836833091924
2020000000.0 -0.07892920034936649 0.30252266859866805
2040000000.0 -0.2714958423645799 0.140824782832157
2060000000.0 -0.2724211459546411 -0.13477225900420903
2080000000.0 -0.15247250753213645 -0.26307587751262584
2100000000.0 -0.019408225876933485 0.2972776868270129
2120000000.0 -0.15248154251856752 -0.2546450156378884
2140000000.0 0.16632738828252297 0.2384729026053796
2160000000.0 -0.27591997874528534 -0.08042149373921045
2180000000.0 -0.07601597020882005 0.2635488288878696
2200000000.0 0.01680370771927258 0.2678012592162579
2220000000.0 0.08875550782513562 0.24501934950018248
2240000000.0 -0.11524308729570124 0.22637749171377855
2260000000.0 -0.2386559546979548 -0.033926741322079075
2280000000.0 -0.05937327306896282 -0.22432368057853244
2300000000.0 0.22051297052332566 0.012828170567759346
2320000000.0 -0.14629242546730772 -0.15590874105728486
2340000000.0 0.1858434817127856 0.09673657937778997
2360000000.0 -0.20731192371636456 -0.021307324740377304
2380000000.0 0.12775369720224192 0.17073212253578987
2400000000.0 -0.20256967510383994 -0.11168931190338369
2420000000.0 -0.17462202879650252 0.18991704299134998
2440000000.0 0.2770007107688616 -0.07187740940806059
2460000000.0 -0.27211954377815706 0.16817015753755318
2480000000.0 0.3500402755325191 0.03214443209699849
2500000000.0 0.07740027654866154 0.3821860485521016
2520000000.0 -0.42441402322529725 0.03942315243064773
2540000000.0 0.0772127845291957 -0.45630638148133545
2560000000.0 0.4114811107557849 0.2811249033796745
2580000000.0 -0.5295188969966285 -0.05057819162647407
2600000000.0 0.40767749954436083 -0.3888325371557912
2620000000.0 -0.06461475592565401 0.5861601491754235
2640000000.0 -0.2467085525111742 -0.5585464665761928
2660000000.0 0.612850082583674 0.14221101770868502
2680000000.0 -0.291123476379455 0.5732396891143876
2700000000.0 -0.6322666612023768 -0.1726601764243911
2720000000.0 -0.3707244016776616 -0.549551816986897
2740000000.0 -0.2946866129498168 -0.5992884886443385
2760000000.0 -0.22920741701116382 -0.6299456301413022
2780000000.0 0.6581572957686739 0.09991756972344763
2800000000.0 0.5900408859600774 0.2909019015719618
2820000000.0 0.20825237331260302 0.6130343221772709
2840000000.0 -0.60691276045773 0.18573361869870272
2860000000.0 0.28748349810757057 -0.550723216752968
2880000000.0 -0.3669541650258385 0.48124782710740804
2900000000.0 0.5849752201217867 -0.049645709121735625
2920000000.0 -0.1759457717228011 -0.5375228201069573
2940000000.0 -0.5399334280332218 -0.059282126117135917
2960000000.0 -0.3283417848673165 0.4039458160826676
2980000000.0 0.22643193146515317 0.4403137173775284
3000000000.0 0.46983301020342577 0.0393954108907951
3020000000.0 0.03325130208839172 -0.4445347860737312
3040000000.0 -0.32725271138079176 0.2614576023751363
3060000000.0 0.3874034258870702 -0.04561490154676775
3080000000.0 -0.3635178747885244 0.02469661540918922
3100000000.0 0.31718060897877737 0.12556642806539756
3120000000.0 0.19899625740201268 -0.2608544599627564
3140000000.0 -0.25375497725860324 0.19476166690726088
3160000000.0 0.21140980384151836 -0.23546664350445065
3180000000.0 -0.2650509019617992 0.1662797238565361
3200000000.0 0.2966100528952875 -0.08820453012134807
3220000000.0 -0.2538563840405295 -0.15687791595328165
3240000000.0 -0.27650144022571355 -0.07317242490786902
3260000000.0 -0.20311246526167856 -0.1765828574960728
3280000000.0 0.08203782138691597 -0.24133002264303094
3300000000.0 0.11346404081094098 0.20931166253136468
3320000000.0 -0.20358294239666883 -0.0850960447814404
3340000000.0 0.11619266272376248 -0.16342423130450717
3360000000.0 0.13593345668935325 0.10736083507499769
3380000000.0 0.12772930954240128 -0.0665026977400756
3400000000.0 0.11372406248534242 0.039374001320169626
3420000000.0 0.000611071592259031 0.10918891702907288
3440000000.0 0.0684711667413031 -0.0732490676656392
3460000000.0 0.08236973953974665 -0.037677569244291
3480000000.0 0.07899074343187365 -0.0011795714367501548
3500000000.0 -0.056819942068272476 0.03176551326436382
3520000000.0 -0.0539066752551497 -0.012054605832355346
3540000000.0 0.005208241588225953 0.05348844159628551
3560000000.0 -0.023109594993948265 0.05146922769515228
3580000000.0 0.057340822447254594 -0.03180389245520528
3600000000.0 0.05001451313723933 -0.056808254263177066
3620000000.0 -0.09126257249508095 0.002366520865217477
3640000000.0 -0.0060599819402137696 0.09933879831797249
3660000000.0 -0.05048467329903934 0.091076787517174
3680000000.0 0.02599675476857279 -0.0987240832293288
3700000000.0 0.0910890978648996 0.02144068026724833
3720000000.0 -0.06207132313493062 0.05809252171601686
3740000000.0 -0.02298781417221827 0.06992700363368064
3760000000.0 0.06655701485617976 -0.008059032058469561
3780000000.0 0.051695236367164304 -0.007867228589200283
3800000000.0 0.027841622199879384 -0.018570312545671024
3820000000.0 0.01965763520649558 0.023198334794974285
3840000000.0 -0.011975910747824416 -0.04952208241968693
3860000000.0 0.05374648523383875 0.04758403971427603
3880000000.0 -0.04704981250219906 0.0778756262131819
3900000000.0 -0.0805672773192402 -0.06511741152658358
3920000000.0 -0.000680656679595874 -0.10717098459364661
3940000000.0 -0.04593528206171198 0.09537513125850396
3960000000.0 0.10562917848424633 -0.003929621574444053
3980000000.0 -0.0967967294943766 -0.024538193494334934
4000000000.0 0.07390978898211137 0.049566273428764386
