!Created with skrf (http://scikit-rf.org).
# Hz S RI R 50.0 
!freq ReS11 ImS11
400000000.0 -0.7611238549793218 0.2278377596073242
420000000.0 0.6207172193205273 -0.41294991462723796
440000000.0 -0.057113869512603145 -0.7225910958046821
460000000.0 -0.3854161515139887 -0.520201948540778
480000000.0 -0.5081720646555641 0.09243505946451402
500000000.0 0.24299961532142134 0.32091905653070846
520000000.0 -0.2597617585769578 0.34399258764996987
540000000.0 0.48307612957056617 0.05451088387515356
560000000.0 0.2628300274286463 -0.3682632006291423
580000000.0 -0.2421933545577338 -0.362007300069877
600000000.0 -0.3518457399986747 0.20737088931589695
620000000.0 -0.020641148551767637 0.3675580384316216
640000000.0 0.2029317285384572 0.2909678983057662
660000000.0 0.006835405031465122 0.34390561196264885
680000000.0 -0.2987025093523257 -0.14972174449034384
700000000.0 -0.31993081255222205 -0.06832109592801776
720000000.0 -0.16632126012885723 -0.2853613982383165
740000000.0 -0.30083835785644225 0.10624044066284517
760000000.0 -0.2852857702587711 -0.07084971273431066
780000000.0 0.025516857267854902 -0.288089464516962
800000000.0 -0.04724772888608704 -0.25524698072130936
820000000.0 -0.22150839542349282 -0.05026495123559047
840000000.0 0.1716809318763374 -0.12179110563268085
860000000.0 -0.0199089742816343 0.1826167477294768
880000000.0 -0.17548784039873583 -0.04815936072661641
900000000.0 0.1491103275442772 0.03872808939743371
920000000.0 0.028071525145016037 -0.13853669619516062
940000000.0 0.13493071149138222 0.04476464531683683
960000000.0 -0.11227216252794926 -0.054734366626100955
980000000.0 0.04303186931631751 -0.07946319623143897
1000000000.0 0.06372963103426676 0.0027122914297784697
1020000000.0 -0.03653788281397752 -0.04428793429851051
1040000000.0 -0.05139398100855499 0.06087440645653374
1060000000.0 -0.07164933776144469 0.07466219830822404
1080000000.0 0.12804164347041488 -0.045404549085969574
1100000000.0 0.1344296741503747 0.09859733279340396
1120000000.0 0.19029776239484003 -0.05475629647447927
1140000000.0 0.23582370620489276 -0.0250848039747495
1160000000.0 0.25390733199568233 0.0938274831917404
1180000000.0 0.28714527111780747 0.017683398663908858
1200000000.0 0.19791552082698083 0.24055769873955843
1220000000.0 0.3128616036263235 -0.049621808122471
1240000000.0 0.205038364454805 0.24756546898709117
1260000000.0 -0.14825932836260186 0.2878098969387995
1280000000.0 -0.27925345076401215 0.18969086124761814
1300000000.0 -0.3039863504655412 -0.16133008832487092
1320000000.0 0.3531170151977498 -0.05797133192956065
1340000000.0 -0.26935219816981715 0.2565808023691551
1360000000.0 -0.383216345913574 -0.00583998156992336
1380000000.0 0.36034095660428983 -0.1290006333970063
1400000000.0 -0.3780573576770313 0.034560561727748254
1420000000.0 0.12232261474983142 0.3537682298822145
1440000000.0 0.2389541396317652 0.27684031710026924
1460000000.0 0.3595713584275674 -0.01713982635145465
1480000000.0 0.04013152463713048 -0.351264162042141
1500000000.0 0.07631800643301646 0.3306484177946627
1520000000.0 0.17393860977357256 -0.25695245885221957
1540000000.0 -0.27152933879328006 0.060834801847725294
1560000000.0 0.14475293094099226 0.2020465238375169
1580000000.0 0.002729477256100913 -0.21827310689345034
1600000000.0 -0.15198184036253154 0.10196359379043302
1620000000.0 0.1656762085039245 0.013916789988782641
1640000000.0 -0.04716706407356521 0.13268622880968778
1660000000.0 0.016061740514488783 -0.11345194432543543
1680000000.0 -0.04900942846479749 0.07895836923746193
1700000000.0 0.04705121848389258 0.059414633904052605
1720000000.0 -0.014029987042135263 -0.05943466677982521
1740000000.0 -0.05726394793435685 -0.018951532920960575
1760000000.0 -0.03619305445969395 0.06290437633501658
1780000000.0 -0.09204223422831087 -0.04697555082855749
1800000000.0 0.1315900805872245 0.017090782766531625
1820000000.0 -0.0912851406786976 0.13435990038877124
1840000000.0 -0.1894542399507249 0.05476424682812238
1860000000.0 -0.1949978450253809 0.11125817553045439
1880000000.0 -0.1287168187388142 0.2130028521021818
1900000000.0 0.2405705410805076 0.1279736075212257
1920000000.0 -0.12118956487562667 -0.2630254870542029
1940000000.0 -0.07640347844532165 0.28990593355838956
1960000000.0 -0.09762968475117646 -0.29331350075949314
1980000000.0 0.3078782739965081 -0.05546332686386513
2000000000.0 0.03219256397909135 0.3103624669504904
2020000000.0 -0.2287269645677217 0.21607204317434037
2040000000.0 -0.21981303304413607 0.21929961594960443
2060000000.0 -0.3018257197128929 0.021539729498039225
2080000000.0 -0.1635699620929447 -0.25446206213871303
2100000000.0 -0.14828096176636968 0.2593143131544557
2120000000.0 -0.09270139691609938 -0.2816676234050472
2140000000.0 0.23261405514065706 0.17183039643996464
2160000000.0 -0.15558586805976166 -0.23828044630283152
2180000000.0 -0.1863326573061488 0.20353340172261178
2200000000.0 -0.0076625527974890735 0.26919022467001114
2220000000.0 0.09972070228442503 0.2400152683378243
2240000000.0 -0.18826662048175616 0.16670659434912052
2260000000.0 -0.24096483187735976 0.03883663332858983
2280000000.0 -0.18068695751464028 -0.14627698624747446
2300000000.0 0.19764122796626593 0.09612051126842536
2320000000.0 -0.20552288921109704 -0.046168604121653765
2340000000.0 -0.02987101399530418 0.20584596023140292
2360000000.0 -0.17566387260220337 -0.11632976817728348
2380000000.0 0.20528232001694177 0.0637853118631424
2400000000.0 -0.23018472305256515 -0.013855585533572157
2420000000.0 -0.1637806330731212 0.1945396413487522
2440000000.0 0.28399816070767847 -0.009824314071079948
2460000000.0 -0.3056896372320874 0.08713866916790299
2480000000.0 0.3478128793733794 0.05563513983273404
2500000000.0 0.16439540929915883 0.35431011084836134
2520000000.0 -0.4247058996699211 -0.008053128431601043
2540000000.0 0.12243300226384105 -0.44610092068548673
2560000000.0 0.34739541128753443 0.3579546185684282
2580000000.0 -0.5306574756123245 -0.03332939853151613
2600000000.0 0.42633259156486364 -0.3674302060107941
2620000000.0 -0.10381085743911866 0.5800811543683927
2640000000.0 -0.22571451254435465 -0.5663260434044205
2660000000.0 0.606650816543651 0.1624818109218917
2680000000.0 -0.3381259009658946 0.5462051566376668
2700000000.0 -0.6239396794117096 -0.19872137028721878
2720000000.0 -0.3134089019107762 -0.5849075373129782
2740000000.0 -0.3130654825334732 -0.5903234703815682
2760000000.0 -0.13017531888497091 -0.65827053013283
2780000000.0 0.6558897344200055 0.12068630331182759
2800000000.0 0.5810199015722998 0.31151224695336777
2820000000.0 0.1898701679293664 0.618887079872423
2840000000.0 -0.6212220514355735 0.1306927778049016
2860000000.0 0.3098576133329177 -0.5378272030539547
2880000000.0 -0.41299345978433305 0.4415790548594438
2900000000.0 0.5866469478608988 0.03972381154684299
2920000000.0 -0.20603297572810106 -0.5293840437056083
2940000000.0 -0.5420147065456189 0.007932621996872283
2960000000.0 -0.4136186509409774 0.3134315873496645
2980000000.0 0.17532385891705088 0.46465739927868566
3000000000.0 0.4693825903506539 0.046178219742325194
3020000000.0 -0.00832646939198625 -0.44686990676163096
3040000000.0 -0.21069367687994112 0.3614517121269516
3060000000.0 0.38495673944409486 -0.06537524013769226
3080000000.0 -0.3561777570506888 -0.07472023036093184
3100000000.0 0.33944532628748475 0.036256662418893276
3120000000.0 0.23624199438457535 -0.22530283146129787
3140000000.0 -0.3146111215859491 0.0678071997503237
3160000000.0 0.21320210453867447 -0.23849869977446486
3180000000.0 -0.1366526020186623 0.28165875905976256
3200000000.0 0.28076440877326053 -0.12184155468817796
3220000000.0 -0.16525495603080956 -0.24713954903481358
3240000000.0 -0.2551329365151409 -0.12980394068748866
3260000000.0 -0.19570728815967647 -0.18524003334171035
3280000000.0 0.16385010282877893 -0.196634847849529
3300000000.0 0.059139625048670236 0.23038358925746782
3320000000.0 -0.160563573061643 -0.15323286548311219
3340000000.0 0.10960776517642963 -0.16570527074713062
3360000000.0 0.06624114357791289 0.15775059471340247
3380000000.0 0.14116026970358525 -0.03367149047290514
3400000000.0 0.11664593436084077 -0.028779037114459522
3420000000.0 -0.01471459680200951 0.10577069401849024
3440000000.0 0.08060276271479633 0.057368410873268584
3460000000.0 0.07793676959652122 0.04686448884922157
3480000000.0 0.048065441908012825 0.062398662616763564
3500000000.0 -0.04039653217181548 0.05030367426893259
3520000000.0 0.032280981411546825 0.040883374719418906
3540000000.0 -0.03578690040353901 0.03887283400281096
3560000000.0 -0.03462702126986033 0.04395143299785138
3580000000.0 0.06615334431769905 0.017244737526323845
3600000000.0 -0.06436632933418267 -0.03828455849721458
3620000000.0 -0.08445740697134473 0.03340642747548117
3640000000.0 -0.0625327737266636 0.07987722207829094
3660000000.0 0.025902028544737863 0.10376286222378124
3680000000.0 0.08581566333879097 -0.05391371586281601
3700000000.0 0.08020151267428559 0.047836312203746324
3720000000.0 -0.060196293114829866 0.062210986165165266
3740000000.0 0.0729819032290444 0.005737950079625702
3760000000.0 -0.04293494842927662 0.0513116556772614
3780000000.0 0.01857682328921185 0.051210180708685375
3800000000.0 -0.033182543023080616 -0.007668899602672793
3820000000.0 0.027992877451705842 0.006591708856700266
3840000000.0 -0.03651413443578872 0.03600214432022876
3860000000.0 -0.007070321816766018 0.07407040822389804
3880000000.0 -0.08367553912116943 0.03828551768357084
3900000000.0 -0.07817858820002797 -0.06794310580293723
3920000000.0 0.1067821365674602 0.006829930726519841
3940000000.0 -0.09451855730757373 -0.049148884909216935
3960000000.0 -0.0894151439966462 0.05384554748157591
3980000000.0 -0.017583422814938517 -0.09731124519467725
4000000000.0 -0.0641437111265704 0.0581308286577082
