!Created with skrf (http://scikit-rf.org).
# Hz S RI R 50.0 
!freq ReS11 ImS11
400000000.0 -0.4468180909784766 0.7006009720319174
420000000.0 -0.05161115248130568 -0.7692180192282282
440000000.0 0.5882271281691174 -0.43323447880857474
460000000.0 0.36219842604847446 -0.5572040339724311
480000000.0 0.05941438969486635 -0.528159643726797
500000000.0 0.0049430247023205184 -0.4217441598667518
520000000.0 -0.4529629200262485 0.07068925769496123
540000000.0 -0.2926780430861201 -0.40833670312807974
560000000.0 -0.36292987281515515 -0.28431990596184215
580000000.0 0.4068711536006743 -0.032655300388601836
600000000.0 -0.06897531184983745 -0.3645564847844241
620000000.0 0.2325908595512713 -0.28869229926753426
640000000.0 -0.02896636137027275 -0.3555815409287389
660000000.0 -0.05036747794186121 0.34222759237062855
680000000.0 -0.34548739145131224 -0.005836535138650912
700000000.0 0.02748875136850487 0.35940693254475303
720000000.0 0.30006374389762086 0.16693336589092095
740000000.0 -0.2384003095028031 0.22539637463725987
760000000.0 -0.01736016116967511 -0.31644966681631825
780000000.0 0.15483873499972564 -0.2566201045353479
800000000.0 -0.15958617344114306 0.21348913562877908
820000000.0 -0.23531856007977844 -0.059954737391888245
840000000.0 -0.20913221193536932 0.0673563974194799
860000000.0 -0.1863661863777412 0.06268855527373317
880000000.0 0.09138090907368046 -0.16056340137211148
900000000.0 -0.019576060403387878 0.15908114044706817
920000000.0 -0.03462286534536825 0.14870834634778146
940000000.0 0.04321130756341369 0.13404616218215332
960000000.0 0.09790831859419075 0.006848191766345394
980000000.0 -0.009463845210087005 0.065757028694382
1000000000.0 -0.03093611035658046 -0.02732118245751802
1020000000.0 0.037002580877031545 -0.023632264149690028
1040000000.0 -0.0638775370245901 0.026964752584820326
1060000000.0 0.08426264090793527 0.06632248842589458
1080000000.0 -0.1494093233510276 0.013926328497116341
1100000000.0 0.17040691810335623 0.05512973606776373
1120000000.0 0.21444363962657062 0.05370184390493969
1140000000.0 -0.21400090309807077 -0.15833303107602026
1160000000.0 0.24622013693028064 -0.14184961117532668
1180000000.0 0.29199990861041425 0.11463111295210245
1200000000.0 0.2846101114624013 0.14231346360281102
1220000000.0 -0.2703648022350947 0.18811654159220065
1240000000.0 -0.29275509268851985 -0.16703897836263798
1260000000.0 -0.3265878260436724 0.10616993566547817
1280000000.0 -0.34520088987868036 -0.01672899099493708
1300000000.0 -0.04848184747313395 -0.34765324451485347
1320000000.0 0.3528058159717826 -0.09438100140914263
1340000000.0 -0.13439421281006658 0.3409111671615308
1360000000.0 0.06563936375135547 -0.3699499006158928
1380000000.0 0.3043558994390002 0.2289070719725913
1400000000.0 0.20869561411316703 -0.3256311536810922
1420000000.0 0.03697243611548623 0.38150764020382216
1440000000.0 0.36529032081009816 0.043683352435889715
1460000000.0 0.16768029450441374 -0.3188205359598349
1480000000.0 -0.18115617734612213 -0.29407015909039946
1500000000.0 -0.2219475564861505 0.24825631403420387
1520000000.0 0.1646770235318708 -0.26268783050699046
1540000000.0 -0.26740198560846407 -0.0580580672392191
1560000000.0 0.1669246690538076 0.18325390113536266
1580000000.0 -0.17966270961916694 0.10822429175333308
1600000000.0 0.15490608380142934 -0.09248748234818532
1620000000.0 -0.13321715089506553 0.08328774219593033
1640000000.0 -0.028437053557087574 -0.12717127251333957
1660000000.0 -0.00975576836679573 0.10729054864146223
1680000000.0 -0.07612390722764947 0.04782971822417411
1700000000.0 0.04281382103036229 0.05983368492493808
1720000000.0 0.03194513722128809 0.04134983084374441
1740000000.0 -0.031248934263115948 -0.03832956713498619
1760000000.0 0.008269694825487882 0.0575862901388217
1780000000.0 0.09423442018647156 -0.0005971984456290847
1800000000.0 -0.1252156538758188 -0.006462629397560373
1820000000.0 -0.08346162045650408 0.1388416569496421
1840000000.0 0.16704247180748583 0.0936311528767089
1860000000.0 0.09914329515034966 0.1888318177939632
1880000000.0 -0.12973437218548572 0.1994408058331363
1900000000.0 0.20496059023782878 0.1737911220717649
1920000000.0 -0.2824163755630086 -0.06019124338747886
1940000000.0 0.15107857884739853 0.2595511580013397
1960000000.0 -0.29620126757678034 0.0997102214400258
1980000000.0 -0.027003827295633675 -0.31253826669679374
2000000000.0 0.20827951546819543 -0.2343827049499334
2020000000.0 0.2613819598556077 0.170024003431126
2040000000.0 0.12925656886601447 0.28518604470125913
2060000000.0 0.01231524233515826 0.3087409359291823
2080000000.0 -0.2855672251443253 0.11420834682278987
2100000000.0 0.29917071191811473 0.06236453031077005
2120000000.0 -0.3043678334980715 0.03049022487015987
2140000000.0 0.17162603216951822 -0.24908015419094603
2160000000.0 -0.25711710840687285 0.15426919188330107
2180000000.0 0.21701264400280176 0.1980339627694534
2200000000.0 0.19211485188326907 -0.21162046423212535
2220000000.0 0.22110794166859243 -0.16142194348851352
2240000000.0 0.2281957409735409 0.1419548752154254
2260000000.0 -0.02746744695623048 0.2531920000629391
2280000000.0 -0.12466757718142374 -0.21143407203694387
2300000000.0 0.24123515294913161 0.013978340462266049
2320000000.0 -0.08896478279847703 0.21804812354387473
2340000000.0 -0.20703028911701796 -0.08436853581118489
2360000000.0 0.0826889698306464 0.2031179978532411
2380000000.0 0.21876008953745382 -0.061873250705664615
2400000000.0 -0.125287803062065 0.21252165996430714
2420000000.0 0.09460429740802863 0.2608408757166539
2440000000.0 -0.1195954571252424 -0.28382201867126583
2460000000.0 0.20836438260509438 0.26377054214062085
2480000000.0 0.2210493252808163 -0.29367368571735025
2500000000.0 0.13070017623591856 0.3836511562481269
2520000000.0 -0.39193360311039627 -0.2081276822396841
2540000000.0 0.2660545345448684 -0.4069360195924129
2560000000.0 0.36223582227797424 0.37417864133092565
2580000000.0 -0.5504747505909333 -0.004830884343100315
2600000000.0 0.4535217316476201 -0.35722742047807204
2620000000.0 -0.24171808111296364 0.5504977806689543
2640000000.0 -0.11949366769541535 -0.6089652266352527
2660000000.0 0.543542956554884 0.33373699572912535
2680000000.0 -0.45917598159642947 0.4615320976188025
2700000000.0 -0.5968682728681097 -0.284568538328955
2720000000.0 -0.31526426772656174 -0.5884416515570953
2740000000.0 -0.0709907376780973 -0.6672614098966178
2760000000.0 0.016778853817509095 -0.6708651955296507
2780000000.0 0.6401976515353999 0.1876848163130636
2800000000.0 0.551471473210111 0.3584391401779963
2820000000.0 0.05085171130564671 0.6447830187060403
2840000000.0 -0.598590029688641 0.21171654993910885
2860000000.0 0.2563292825375655 -0.5655318563688836
2880000000.0 -0.3350351739053592 0.502500763438522
2900000000.0 0.5762218005977806 -0.10641308108846458
2920000000.0 -0.36750287041568847 -0.4313774618272229
2940000000.0 -0.5155184849904709 0.1638978245050669
2960000000.0 -0.06369062349776151 0.5174893704439665
2980000000.0 0.4949273812920097 0.03959332543460821
3000000000.0 0.17186207946060517 -0.4373841060684224
3020000000.0 -0.4112724259820247 -0.1715289578553926
3040000000.0 0.3235621649246785 0.2722520279511828
3060000000.0 -0.20147739112444157 -0.3404262389170959
3080000000.0 -0.10014707915287158 0.3559607290131937
3100000000.0 -0.02649320652274886 -0.3519749255857171
3120000000.0 -0.20883392174841076 -0.2646360701517082
3140000000.0 0.02916338163108294 0.330685717929458
3160000000.0 -0.1922275227644143 -0.26741131870142937
3180000000.0 0.25943240261513684 0.19730089568452105
3200000000.0 -0.196871732423102 -0.2508667390936918
3220000000.0 -0.07959253957878076 0.29478511865396295
3240000000.0 -0.036285306464753246 0.29018670063232505
3260000000.0 -0.09698060363705692 0.2605545874341791
3280000000.0 -0.2276298238714054 -0.13018819613002608
3300000000.0 0.10870830301058841 -0.2221240284238932
3320000000.0 0.016901308742101495 0.2249162275439362
3340000000.0 -0.2114451881803661 -0.011832982433224512
3360000000.0 -0.13803660506802268 -0.1240559470620913
3380000000.0 0.05987260320567291 0.14722700087337554
3400000000.0 0.04734738890458514 -0.12315988360624028
3420000000.0 0.11559658565878643 0.007024093192645596
3440000000.0 0.08413495028787973 -0.06885490759426195
3460000000.0 0.09434584205605204 0.027769427554551793
3480000000.0 -0.08904375658373484 -0.01655176798627234
3500000000.0 0.057247560109750475 0.05367958195436754
3520000000.0 -0.061124548907381136 0.03895462357218818
3540000000.0 -0.04046706489223688 0.05848534807743
3560000000.0 0.027158857087570168 -0.06742612341722133
3580000000.0 -0.08001770532072479 -0.019086677529160094
3600000000.0 0.09294307648266747 -0.016543632920724177
3620000000.0 0.08159330353982881 -0.05757353585367527
3640000000.0 0.0970313403974636 0.05308264863447739
3660000000.0 0.06408089558893851 0.09531359816717469
3680000000.0 -0.1110442025660331 -0.02783665246842168
3700000000.0 -0.1018076255385955 -0.018620588348992693
3720000000.0 0.05650978337931939 0.07328844765397688
3740000000.0 0.08216777061050884 0.023104564405835096
3760000000.0 0.05839775735277106 -0.05792195483103155
3780000000.0 0.0701571648568275 -0.026680879837580905
3800000000.0 -0.0463954287811678 -0.002696459430996846
3820000000.0 -0.036441306273472425 0.004801876460367094
3840000000.0 0.04286515252221786 0.023888877129965135
3860000000.0 -0.01569167019161089 0.07589496693258535
3880000000.0 -0.09477463017036665 -0.0010109360515579671
3900000000.0 -0.10617771081087954 0.0040293865964200455
3920000000.0 0.07239487043478955 -0.0740545750311175
3940000000.0 0.08507342289419899 -0.05756089317416846
3960000000.0 0.06283743505891387 -0.07718357786487876
3980000000.0 -0.052256075993273525 -0.07906008409230875
4000000000.0 -0.06930738041777681 0.047722748467598795
