!Created with skrf (http://scikit-rf.org).
# Hz S RI R 50.0 
!freq ReS11 ImS11
400000000.0 -0.8379610140801316 0.1076491473130723
420000000.0 0.6798950505846203 -0.3724952458840358
440000000.0 0.042584134336743955 0.7329325920939281
460000000.0 -0.6352549271548298 0.2806546878886996
480000000.0 0.07777756863381509 0.593217246677684
500000000.0 0.5214621944433819 -0.03705081346377249
520000000.0 0.357579804075698 0.13549769488424554
540000000.0 -0.16660092715796881 0.4241550531856831
560000000.0 0.47625699830342216 -0.043323904276116765
580000000.0 0.26131985265316254 0.35191567188359113
600000000.0 -0.3615807030787255 -0.1343156059683142
620000000.0 -0.048768710567694815 0.3816161232893602
640000000.0 -0.2236994077622603 -0.2627001542989692
660000000.0 0.3118258033129525 0.15134131217987834
680000000.0 0.33860304107540223 -0.08167326552024837
700000000.0 0.01719574393407974 -0.33933453221110427
720000000.0 0.18274868561146368 0.28235141719035783
740000000.0 0.2612418542251466 -0.20278056677714976
760000000.0 0.154948377619104 0.2702379313487871
780000000.0 0.2293207712696875 -0.14946186665351613
800000000.0 -0.17796482411704057 0.1882367725173442
820000000.0 0.16197185803071615 0.14825792574014812
840000000.0 -0.02334168587755666 0.20152850666506916
860000000.0 0.17111404310376632 0.06953959982731073
880000000.0 0.034250938138716415 0.19251699303754166
900000000.0 0.10686067547275944 -0.10715266193642578
920000000.0 0.1088784422411633 -0.0918131546093526
940000000.0 -0.10351375169442432 -0.0896897617514486
960000000.0 -0.09533659426679383 0.023673178619063977
980000000.0 0.0021097667677614745 0.06056486882398369
1000000000.0 0.04447783340368376 0.01693649310700082
1020000000.0 0.04318858514815752 0.002623741277099814
1040000000.0 -0.0844685407437404 0.028071059836661468
1060000000.0 0.10590449760261417 0.05238454144443095
1080000000.0 -0.1467573669965602 0.035915312625278376
1100000000.0 -0.1383748465832869 0.12371424075429326
1120000000.0 0.1728662473709462 -0.1556018020578873
1140000000.0 -0.2622200296497771 -0.001601090090555134
1160000000.0 0.2802248639942957 0.07429987651038189
1180000000.0 0.3018843651571562 -0.11206070476274821
1200000000.0 0.17898353466497935 0.2688774252212415
1220000000.0 -0.08649979299891257 0.3309094952622658
1240000000.0 -0.11848360998391025 0.31380297179735506
1260000000.0 -0.2666791797419572 -0.19788839668026748
1280000000.0 0.22826429715572283 -0.25456670372539036
1300000000.0 0.31769322519766185 -0.170379829866227
1320000000.0 0.16796417378082706 -0.32058168061327197
1340000000.0 -0.19633912294222955 0.3053232681042914
1360000000.0 -0.34793019531573927 -0.1515026478632666
1380000000.0 0.04100133815706565 -0.37396537292104365
1400000000.0 -0.28308756690730763 0.2432867250870791
1420000000.0 0.27688820237259365 0.24176238161840316
1440000000.0 0.3636512734393878 -0.03866479844017391
1460000000.0 0.028498518368875837 -0.35797985256335657
1480000000.0 -0.06966766449076732 -0.34029033141734366
1500000000.0 -0.1306690523345975 0.3097808874890746
1520000000.0 -0.023080555601029836 -0.31237315841506025
1540000000.0 -0.2620526261827077 0.0743988569165032
1560000000.0 0.011568030960618945 0.24354725778278408
1580000000.0 -0.056795841878015355 -0.20223045043266838
1600000000.0 0.16162359400333876 -0.039489184620161114
1620000000.0 0.14305949491652206 0.0443284806869287
1640000000.0 0.10856404841889032 0.07050233286376241
1660000000.0 -0.05133212642211884 -0.08963669412744679
1680000000.0 0.07144978353494963 -0.043506149099745366
1700000000.0 -0.047188434589856325 -0.05182669507258032
1720000000.0 0.0506602910401216 -0.0018559916313835125
1740000000.0 0.04252815495599507 0.01732397367353882
1760000000.0 0.013359604801846874 0.06540890879933574
1780000000.0 0.06874353751692057 0.05434266524490634
1800000000.0 0.12005881289840499 0.02313262710088935
1820000000.0 0.14270947699391445 0.07783257325519566
1840000000.0 0.030419348048900178 -0.19064949034162787
1860000000.0 -0.07045758882822199 0.20587053805231714
1880000000.0 0.24669980639734215 0.018157100539523494
1900000000.0 0.05255325570261791 -0.26229774178971016
1920000000.0 -0.24695882852014994 -0.15528498874248245
1940000000.0 0.2919790921151783 0.08835284443567719
1960000000.0 -0.3107064384755831 0.029106933261867095
1980000000.0 -0.056745394629516374 -0.3127472025163085
2000000000.0 0.30451184748566007 -0.0861042199295994
2020000000.0 0.3132360801566275 0.02776424113452018
2040000000.0 0.21828743607025172 0.22273040740542321
2060000000.0 0.05961389478290959 0.30393867615393827
2080000000.0 -0.20823700218352695 0.23127630510482083
2100000000.0 0.26821562554396844 -0.15431505123846
2120000000.0 -0.043666940600106875 0.3072388627145547
2140000000.0 -0.058264842818525675 -0.3019535040657593
2160000000.0 0.08849369662847685 0.290739211360582
2180000000.0 0.296186949361803 0.02102992256403239
2200000000.0 0.2786146210404177 0.07756747118910129
2220000000.0 0.15196426597282464 0.23663268080075134
2240000000.0 -0.2547189227243765 0.10237449110985614
2260000000.0 -0.23405566400319658 -0.13269213069787433
2280000000.0 0.08100469118619116 -0.24581929698491825
2300000000.0 0.0070048120494836785 0.24447415926023713
2320000000.0 0.003959975143328008 -0.24123206744762296
2340000000.0 0.18496831911615375 0.13940103324624473
2360000000.0 -0.0764809279545278 -0.22114525882051048
2380000000.0 0.24583522440713487 0.016612125127331828
2400000000.0 0.20441475244481122 0.17209916562533342
2420000000.0 0.18828241698344444 -0.21746762343165005
2440000000.0 -0.3177080461099753 0.029284050096437468
2460000000.0 0.21857860133118637 -0.27635460256649763
2480000000.0 -0.3863061747798038 0.025542694621228552
2500000000.0 0.01552255768972314 -0.4233048935491952
2520000000.0 0.43653061793068937 0.15479051630185578
2540000000.0 -0.3802360266210288 0.3207236764632787
2560000000.0 0.05787496811331035 -0.5306805780016766
2580000000.0 0.3280754105868027 0.4586990962907385
2600000000.0 -0.5686870390177915 -0.16362672994635288
2620000000.0 0.5416244128771984 -0.28744591328732916
2640000000.0 -0.20380794285925077 0.5959564242450075
2660000000.0 -0.4528909591920535 -0.4566905328380224
2680000000.0 0.3826417209437567 -0.5249593690378799
2700000000.0 0.653075041212485 -0.0574934730501483
2720000000.0 0.6421427435699827 0.13838292033497357
2740000000.0 0.6473485581140683 0.10779267520678584
2760000000.0 0.653085031721866 0.013152265148668536
2780000000.0 -0.22332876473632626 0.6036641478051386
2800000000.0 -0.4960513757707406 0.3920122286471264
2820000000.0 -0.5651506746804361 -0.2578224331797729
2840000000.0 0.41986551643922876 -0.4380628013704179
2860000000.0 -0.37410617214128405 0.46131623886579143
2880000000.0 0.5409063758667881 -0.21102814205232812
2900000000.0 -0.3939691711096801 -0.3999539194393202
2920000000.0 -0.5038322402721 0.19783271336652794
2940000000.0 -0.05357759517170918 0.5185324936562636
2960000000.0 0.42856797473240776 0.24726870829387637
2980000000.0 0.46921925474896276 0.05952920045901375
3000000000.0 -0.12467801175067368 -0.4376960466091102
3020000000.0 -0.28506387375077274 0.31585079401552413
3040000000.0 0.37439961037051916 0.13971339589914167
3060000000.0 -0.30417083413661516 -0.2269469597198211
3080000000.0 0.2972860216373105 0.18910154383569833
3100000000.0 -0.05908371838914318 -0.32997074448721714
3120000000.0 -0.33044250018283405 0.0006530215883525711
3140000000.0 0.31804122608251045 -0.04715834958079067
3160000000.0 -0.24160846389308202 -0.2059243962466514
3180000000.0 0.2945241896144186 0.11711324922506652
3200000000.0 -0.14202086677335382 -0.27498368102306225
3220000000.0 -0.15742784145812047 0.2553858400624688
3240000000.0 -0.18761927960827404 0.21343329440347197
3260000000.0 -0.13708610002235316 0.23112587688180383
3280000000.0 -0.061785850724277024 -0.24108823677176436
3300000000.0 0.18540783375774475 0.1457597884957726
3320000000.0 -0.1967551272882529 0.09478276121988655
3340000000.0 -0.05602064956591946 -0.19060219748818205
3360000000.0 -0.04138511359079549 0.1695941669381151
3380000000.0 0.08306017515691633 -0.12425115537894606
3400000000.0 0.126569313208007 0.006736763299838017
3420000000.0 0.10940309204088408 -0.04409978570877882
3440000000.0 -0.08115525428349675 -0.07221057349315085
3460000000.0 0.039936032529239815 -0.09323136055151245
3480000000.0 0.09038793681966018 -0.0044079326247020365
3500000000.0 -0.07107274421454905 0.035512101711511916
3520000000.0 -0.06073094605085393 0.04014402008393711
3540000000.0 0.0501814388761526 0.04027866862474863
3560000000.0 -0.04305113654733903 0.05185867646662783
3580000000.0 -0.0765046122090684 0.0069808513359879264
3600000000.0 -0.07535138340812964 -0.042889699606159334
3620000000.0 -0.09408765827126077 -0.013630728771293451
3640000000.0 -0.06110845433085318 0.0897032574237016
3660000000.0 0.08280870811929995 0.06232323740651237
3680000000.0 0.07420620377243783 -0.07140016433812815
3700000000.0 0.05838363073838033 -0.07946234018278629
3720000000.0 -0.06535055750737581 -0.059781664672459794
3740000000.0 0.03910626179734661 0.07073867718753264
3760000000.0 0.07278726818040467 0.015812712792065496
3780000000.0 0.02241642713600412 -0.05944493666497577
3800000000.0 -0.013540376822674585 0.048447248534527365
3820000000.0 -0.002302227319148901 -0.041043669835686206
3840000000.0 0.05204611505672285 -0.023093760765150833
3860000000.0 -0.07541328362681032 0.015709516962816576
3880000000.0 0.014714012889316043 0.09561508383532376
3900000000.0 0.09805108642958894 0.04230412532576985
3920000000.0 -0.09525578958835121 -0.05515045084781073
3940000000.0 -0.09090383891159387 0.05551458631728611
3960000000.0 -0.01734519106667179 0.105556584711951
3980000000.0 -0.07145541848474964 -0.06719756475221371
4000000000.0 -0.07127276060233238 0.048978730662805295
