!Created with skrf (http://scikit-rf.org).
# Hz S RI R 50.0 
!freq ReS11 ImS11
400000000.0 -0.6604439245534215 0.0017408301362177767
420000000.0 0.6053159927924128 0.13387636738846956
440000000.0 0.5055402520747448 -0.25204694047022186
460000000.0 -0.3758744881805823 -0.34947978979578975
480000000.0 -0.030753133982565215 0.4326567837853074
500000000.0 0.04665368600310776 0.390960771166537
520000000.0 -0.26856830030586337 0.18306706083656307
540000000.0 -0.25782688539264287 -0.06464741127505448
560000000.0 0.023845951735531674 0.2315477272811386
580000000.0 -0.1469517617120796 -0.18194043558053483
600000000.0 0.20813561897764446 0.07475058811952898
620000000.0 -0.2014867712810266 -0.013266065744119739
640000000.0 0.1787003374538255 0.07867301602998177
660000000.0 0.12902818250669199 -0.12144748979714629
680000000.0 0.04980763992391954 -0.14830534525222905
700000000.0 -0.036507364483600334 -0.11252345575353707
720000000.0 -0.09603294852445778 -0.04670680687293109
740000000.0 0.0811114274272753 -0.08505918781321634
760000000.0 0.10446066414897773 -0.03583134595999512
780000000.0 0.08506997666357398 0.08389504868088075
800000000.0 -0.09408156457559928 0.018933463160634295
820000000.0 -0.07891733059207398 -0.03758463847392107
840000000.0 -0.037559144494398275 0.059510321183404345
860000000.0 -0.03146311815433002 0.07180460317919707
880000000.0 -0.028351930124391907 -0.07267841377607082
900000000.0 0.05888451949710579 0.03722841215518367
920000000.0 -0.04603890788147541 0.06099400121939856
940000000.0 0.05826759740864935 0.06893514111006435
960000000.0 0.07074152439716172 0.06566880385551181
980000000.0 -0.07461617216187776 -0.052742076253817584
1000000000.0 0.05733447591619111 0.034511906223479695
1020000000.0 0.012171322786437393 -0.04313587602037751
1040000000.0 0.03316893718818269 0.032718188891176114
1060000000.0 -0.05854971084307462 0.012820343636564781
1080000000.0 0.025765751300222173 -0.08157958596859002
1100000000.0 0.11167266313477793 -0.007675874962185438
1120000000.0 0.1294631514678131 -0.05040392143376973
1140000000.0 0.12058300051308365 -0.11039930398531624
1160000000.0 0.08441438061768172 0.1521248986425817
1180000000.0 0.06363874566460828 -0.19364397980720843
1200000000.0 0.20277507135688666 0.032960125607999824
1220000000.0 -0.0316867472677838 0.22245206940940407
1240000000.0 -0.21420348396458544 0.07260249534515847
1260000000.0 -0.13546492804497598 0.18003266572621052
1280000000.0 -0.16569054644817813 -0.17412120712320645
1300000000.0 -0.008585908099428443 0.24003568807968437
1320000000.0 -0.24527423709560248 -0.04202777235481192
1340000000.0 0.21679619912482173 -0.14248626381804386
1360000000.0 0.1771718873424885 0.20379761139328173
1380000000.0 -0.232144684251908 -0.12839233109091625
1400000000.0 -0.26027401223539615 0.028838793159034017
1420000000.0 -0.2577431659293299 -0.08477701706861333
1440000000.0 -0.1429795604741315 -0.22994836767038407
1460000000.0 -0.026392112225653436 -0.2668356997702838
1480000000.0 0.12589485074088808 0.2333857308678239
1500000000.0 -0.07327736146168501 0.25648476518965796
1520000000.0 0.06081658760851348 0.253230738155857
1540000000.0 0.21472256346480845 0.1129698262828553
1560000000.0 0.09004732452178428 -0.21067036469240705
1580000000.0 0.020497167658695244 0.2013424005722089
1600000000.0 0.016981436796551404 -0.17209866839781077
1620000000.0 0.07889684538159758 0.13118746837181733
1640000000.0 -0.09679254813768663 -0.08132684635468396
1660000000.0 0.10577053192294077 0.030696461244330106
1680000000.0 -0.02933140105811173 -0.08224211771774671
1700000000.0 -0.05313428570698391 -0.05752184982657544
1720000000.0 0.06379201074321063 0.02501776585749355
1740000000.0 0.012405837852421869 -0.05969306640844519
1760000000.0 -0.06049926109525757 -0.006759319078365826
1780000000.0 0.05672925274559118 -0.04766321027466608
1800000000.0 -0.09524410682657894 0.020090636946505654
1820000000.0 -0.1148585907055947 0.061543537299981736
1840000000.0 0.021111171907595126 -0.15991640163201498
1860000000.0 -0.09315240298359695 -0.16022885723716465
1880000000.0 -0.12139671705415615 -0.16708240046043354
1900000000.0 -0.20224535624906148 0.08437058445637097
1920000000.0 -0.13865295346061374 0.17948121186879745
1940000000.0 0.1385967160704703 0.18346303963782307
1960000000.0 0.03826811830267809 -0.2218701656897978
1980000000.0 -0.20750198359667632 0.06719129809946736
2000000000.0 0.20420756277264396 -0.045571210472972586
2020000000.0 -0.06705407607557083 0.18641776492093584
2040000000.0 -0.18633507999537283 -0.03296046962240302
2060000000.0 -0.17195093748692888 -0.06381330384478943
2080000000.0 -0.1761495462218756 -0.0290602627191051
2100000000.0 -0.13338168272318207 -0.1108587613300949
2120000000.0 0.14184783171287027 0.09952060318677036
2140000000.0 0.12502543404850333 0.11679152607688498
2160000000.0 0.060483058766978445 -0.1507145527683214
2180000000.0 -0.1581013257905386 0.02403373672932277
2200000000.0 -0.02059435926491007 0.1515565067392296
2220000000.0 -0.12597204631617995 -0.07276729164402014
2240000000.0 0.12998927966190393 -0.054173257764846564
2260000000.0 -0.08951491404465511 0.09417660637979662
2280000000.0 -0.10228168738794054 -0.0642344831504928
2300000000.0 -0.003458601395242613 -0.10569287005452713
2320000000.0 0.004086877643762655 0.09138161951185644
2340000000.0 -0.024216111789172573 -0.07322832498748218
2360000000.0 -0.05666825138052381 -0.010129233481190115
2380000000.0 0.03577636884710137 0.03255824568235394
2400000000.0 -0.03180367721823813 0.028567223389368016
2420000000.0 -0.029825545911149425 -0.022800473785304396
2440000000.0 0.01617599587464537 -0.03400158487612467
2460000000.0 -0.04201648312828274 -0.006255126509971841
2480000000.0 -0.04007278692232172 -0.023000824371507845
2500000000.0 0.04478799749794429 -0.03364497377384483
2520000000.0 -0.014468089640541698 -0.07113913437914018
2540000000.0 0.06681482449404236 -0.05873624433537584
2560000000.0 -0.04124616990899456 -0.0953829937723185
2580000000.0 -0.057075069338907984 -0.10493107716474578
2600000000.0 -0.11692472592416418 -0.06542937566914901
2620000000.0 -0.13900144785550111 -0.03899673000897229
2640000000.0 -0.06816656784246866 -0.1386443129267017
2660000000.0 -0.1431381689715306 -0.06924393752106385
2680000000.0 -0.16082160796389502 -0.01520174296042562
2700000000.0 0.08025277419403448 0.1388031960030279
2720000000.0 -0.13845633234048071 -0.07305845437433627
2740000000.0 0.1501998777491705 -0.030744492960431108
2760000000.0 0.12982571904040188 0.07293421319471477
2780000000.0 0.10268224943764408 -0.10563932948697423
2800000000.0 0.07014856107841208 -0.13343623623714954
2820000000.0 0.1464555574573142 0.05758375590234751
2840000000.0 0.037744012806752415 0.16047869204923873
2860000000.0 -0.07831593787599941 -0.15674701143039152
2880000000.0 -0.00468826370717753 0.18324059438656706
2900000000.0 0.042825752113629906 0.1881001271060273
2920000000.0 -0.14777227414193428 0.13185291061636975
2940000000.0 -0.14496286866135108 -0.1436938742412445
2960000000.0 0.20041954044909818 -0.039320466332110095
2980000000.0 -0.18759181250222298 0.07238123770525035
3000000000.0 0.16954003475729737 -0.109666981286842
3020000000.0 -0.15541917677511985 0.11444532265086588
3040000000.0 0.15086658237505263 -0.10963030258671194
3060000000.0 -0.028891997909199954 0.1765225039675342
3080000000.0 -0.11681986347397877 -0.12293402569390315
3100000000.0 0.07269034775048641 -0.14284510895415653
3120000000.0 0.14414667253745958 -0.04829498064426378
3140000000.0 0.04951350650149135 -0.13245629651105156
3160000000.0 0.08157706763393208 -0.10848207597131526
3180000000.0 0.08101815737431556 -0.10437751967812263
3200000000.0 0.110220468164412 -0.07410945254696356
3220000000.0 0.13646976206009298 0.023113552083432957
3240000000.0 -0.0013695693025004676 0.14680578782516104
3260000000.0 -0.12810616238034664 0.09224629393761823
3280000000.0 -0.08015573334053996 -0.1520826731268054
3300000000.0 0.047723394330290506 -0.17857239283135068
3320000000.0 0.19486365243756892 -0.04325593735237618
3340000000.0 0.012966228799398053 0.21283706641537603
3360000000.0 -0.2212546841520215 -0.047717090608794026
3380000000.0 0.09378641676818325 -0.21494296913824634
3400000000.0 0.15894188048790034 0.17866010049126832
3420000000.0 -0.17176112159406867 0.17147271165086503
3440000000.0 -0.09430616987074278 -0.22330230150555888
3460000000.0 0.23993053650098917 0.017791507680317453
3480000000.0 -0.14225767823348476 0.18912203139158607
3500000000.0 -0.21732583410425768 -0.07554823165407655
3520000000.0 0.01496946185628023 -0.22193880622405482
3540000000.0 0.08333734829697619 -0.1956688799322377
3560000000.0 0.034321409087344754 -0.19603977220283922
3580000000.0 -0.12601195126183512 -0.1409544870535124
3600000000.0 -0.1471649296633155 0.1021952596320681
3620000000.0 -0.15974811490518326 0.06147771735308027
3640000000.0 0.15414147930646516 0.060810537209672805
3660000000.0 0.0417371953639546 -0.16016014493935007
3680000000.0 -0.07275886189688782 -0.15182118799236238
3700000000.0 -0.17334363533133854 -0.038575442949685644
3720000000.0 -0.07230922024290083 -0.17320416430048682
3740000000.0 0.17772498390756472 0.09669403183700188
3760000000.0 0.05962157235288081 0.20873907736690953
3780000000.0 -0.11196261066025856 -0.20350575199778853
3800000000.0 0.0233906984801825 0.24376602080591406
3820000000.0 -0.042469807305172504 -0.25224941514769383
3840000000.0 -0.24437143320793403 0.09845843820561262
3860000000.0 0.2670064269693395 0.026345069887686427
3880000000.0 -0.210650394779411 -0.1705185730060181
3900000000.0 0.10218095302108499 0.24633597235743485
3920000000.0 -0.19494619802215535 -0.1654935488568375
3940000000.0 0.2387350998316078 0.008246117325904972
3960000000.0 0.12236823062753255 0.18067270557347095
3980000000.0 0.19243813558922948 0.032991453517724194
4000000000.0 -0.1467685593383484 0.08650905731294709
