!Created with skrf (http://scikit-rf.org).
# Hz S RI R 50.0 
!freq ReS11 ImS11
400000000.0 0.7455753430678043 0.5264696683067187
420000000.0 0.0076696566353615615 0.8792687528382526
440000000.0 0.15281378611535965 0.8384841609120182
460000000.0 -0.7641164620213697 0.30679832853886185
480000000.0 0.47434461727157284 0.6267022918881839
500000000.0 0.3759837668897498 -0.6445689328188848
520000000.0 -0.7007419770888371 -0.007057450337741198
540000000.0 0.5400625599034077 0.3696404364373556
560000000.0 0.6182848163005793 -0.05534054761841295
580000000.0 0.48770984980131454 -0.23702504923695839
600000000.0 0.36460342132205087 -0.3929780411420459
620000000.0 0.550771079733659 -0.036850148177099404
640000000.0 -0.35782046535609896 0.3698419225743576
660000000.0 0.23992612261986343 0.4305029705226288
680000000.0 0.4091817887699145 0.22325972400734967
700000000.0 -0.3122510887744865 -0.3401661406524998
720000000.0 -0.47044014290362335 -0.006217013037621697
740000000.0 -0.2575670816563397 -0.35786600441657074
760000000.0 0.3886654978115279 0.16841960005766082
780000000.0 0.019036512937164244 0.41230992901131314
800000000.0 0.13840457089323535 0.35353806218165845
820000000.0 -0.12361845452749425 -0.2834183646604779
840000000.0 0.0772002188549659 0.26547860689292196
860000000.0 0.15735612201752155 -0.21607746681494416
880000000.0 0.18708307108466915 -0.1368065677949226
900000000.0 -0.19880705333636914 0.08016400974992749
920000000.0 0.19442350320256777 -0.003718952301320843
940000000.0 0.1391858614940559 -0.10361125566951511
960000000.0 -0.048618353214799626 -0.10992710827483268
980000000.0 -0.042361737918079845 0.06134782379933356
1000000000.0 0.05281324616116583 -0.015018192537207037
1020000000.0 0.048135149562554595 0.0034666807370841296
1040000000.0 -0.08350591716285391 0.020146205971222964
1060000000.0 -0.1276680152877711 0.033467755458106485
1080000000.0 0.17248420403951956 0.023800894293522182
1100000000.0 -0.1750719300201489 0.13584911341681855
1120000000.0 0.21869451673681142 -0.11000730710823466
1140000000.0 0.22233934380418158 0.15089172218018623
1160000000.0 -0.28549441056265734 0.046154944922510655
1180000000.0 0.3060377624863536 0.026464779468601336
1200000000.0 -0.2075024957182616 0.2557978474839375
1220000000.0 -0.0802108580045219 -0.33382217670507386
1240000000.0 0.30081719086539754 -0.20053619272932235
1260000000.0 -0.08756921660839921 -0.3487557105495458
1280000000.0 -0.07728888124772951 -0.36793726288481693
1300000000.0 -0.3679040582082537 0.06180359663293003
1320000000.0 -0.15410298097357386 -0.3445830540214583
1340000000.0 -0.034757606819969714 0.3641650316827678
1360000000.0 0.08699012044326328 -0.36960048178954336
1380000000.0 0.37576508698198097 0.1235240787240312
1400000000.0 -0.2965227131972615 0.2440290388110716
1420000000.0 -0.3353513063607971 0.16929427974806904
1440000000.0 -0.06638541650989264 0.3651670122405679
1460000000.0 -0.3444898103400089 0.13199077293603848
1480000000.0 -0.34178692370487906 -0.14610395275226143
1500000000.0 -0.3264280806266342 0.18880741629727738
1520000000.0 -0.19200669131623183 -0.3228821237669776
1540000000.0 0.3463747402856805 0.053131808640081664
1560000000.0 0.1771796115193253 0.26700548653371314
1580000000.0 -0.24871986571769192 0.13108859775807144
1600000000.0 0.016526168548687274 -0.24314468927187627
1620000000.0 0.11926470177759718 -0.1714611208590462
1640000000.0 -0.11582962860168004 0.1239602246169529
1660000000.0 -0.09929098726997043 -0.11432776250181069
1680000000.0 -0.0924580480353965 0.07686391499627863
1700000000.0 -0.08496429534672456 0.05654943463567996
1720000000.0 0.06779502078808321 0.032677591148823855
1740000000.0 -0.07545823714792532 -0.01338318500674136
1760000000.0 -0.03301620484040213 0.08173102208541133
1780000000.0 -0.046286617345128046 0.08981918950520605
1800000000.0 -0.083025705672911 -0.09482030943782475
1820000000.0 0.072936571690756 0.13784656954155358
1840000000.0 0.14347838125673038 0.10326765712068761
1860000000.0 -0.21067985779371035 0.04187428343443059
1880000000.0 -0.20568556676025374 0.1114373363322045
1900000000.0 -0.24820177316795533 0.07907013311949623
1920000000.0 0.23475373757109957 0.1547433276180252
1940000000.0 0.053822039659375966 -0.29459161759985236
1960000000.0 0.060423081394299284 0.2968906998319246
1980000000.0 -0.14583349509934992 -0.2678905568544552
2000000000.0 0.31040671588831725 0.04528692895545417
2020000000.0 0.09135070929137427 0.3034683182975803
2040000000.0 0.20999363879942332 0.24465150293165436
2060000000.0 0.14952405900073265 0.2823640144864266
2080000000.0 -0.2565546180668769 0.19091759458220786
2100000000.0 0.22702155271538965 -0.2198818796501445
2120000000.0 -0.31391602077085873 -0.015192446474200589
2140000000.0 0.31661381955668894 0.036044913972511604
2160000000.0 -0.3147706864217859 0.002092053967716326
2180000000.0 0.07985097333021932 0.30233355388572386
2200000000.0 0.25411747476550417 0.15723016275477206
2220000000.0 -0.1042190806755289 0.2682653938221206
2240000000.0 -0.0738660788379877 -0.28019284182012233
2260000000.0 0.2715826849499726 0.09156489760631978
2280000000.0 0.27004059142519476 0.0971861951269709
2300000000.0 0.2517510401347622 -0.12169655233485997
2320000000.0 0.2701982903919545 -0.03057240143611736
2340000000.0 -0.06152879908842995 0.24907933359733891
2360000000.0 -0.25202684562108657 0.018602792929621723
2380000000.0 0.2455541842519487 -0.05194830100111138
2400000000.0 0.045717416319619376 0.2622117742028503
2420000000.0 -0.05465263073368034 0.28220233080864965
2440000000.0 0.2949755509920193 -0.11713031255436214
2460000000.0 -0.297648946437898 0.1810002461605307
2480000000.0 -0.07457210865283173 0.37193974831497906
2500000000.0 -0.17848811405437878 -0.376997151368898
2520000000.0 0.4414624164264512 0.12185368843941906
2540000000.0 -0.3009833602048374 0.3943246353047805
2560000000.0 0.019160202889847953 -0.5275936222524498
2580000000.0 0.29202153016897103 0.4774241331102872
2600000000.0 -0.505442864446668 -0.2992310079104218
2620000000.0 0.6079935219148905 0.0485799415350288
2640000000.0 -0.5470188785601601 0.3082032059884524
2660000000.0 0.06961606908177916 -0.6396601828613199
2680000000.0 0.6404308501170303 0.12296448439357283
2700000000.0 0.2153253746417728 0.6213656766399377
2720000000.0 -0.18008490855431042 0.6375613150692354
2740000000.0 -0.2503581503779081 0.6140716257118034
2760000000.0 -0.19654143980178507 0.6310890706856404
2780000000.0 -0.5879579170638 -0.28490229303267295
2800000000.0 -0.3545393388240561 -0.5369204437520643
2820000000.0 0.1708821664443228 -0.6069154456536618
2840000000.0 0.5631346037694609 0.24338051385185708
2860000000.0 -0.5629384310064756 -0.19052405207334114
2880000000.0 0.380894077915075 0.4345285977178193
2900000000.0 0.3452172669754711 -0.43577986061183943
2920000000.0 -0.1825884884760996 -0.4989010626565676
2940000000.0 -0.397519407846512 -0.3165012819797849
2960000000.0 -0.3654176903419482 -0.3173446280151641
2980000000.0 -0.36365963954066843 -0.28463094323943144
3000000000.0 -0.4059346881400298 -0.18675886084302334
3020000000.0 -0.2005512441323914 0.3774301966854348
3040000000.0 0.22822074042726442 0.3402750909191509
3060000000.0 0.13276860330375634 -0.37085051364003546
3080000000.0 -0.27891932118411833 0.25963541267998735
3100000000.0 0.1082011052707656 -0.3550104010399413
3120000000.0 -0.3206582837556428 -0.1646994789477835
3140000000.0 0.34836993656782345 0.07828760133640685
3160000000.0 -0.3320986886825722 0.12630581178534467
3180000000.0 0.27752972576818635 -0.21443199655607728
3200000000.0 -0.3152608660639863 -0.14435387440762196
3220000000.0 0.10194736171571554 0.3214149573367621
3240000000.0 0.31300662181181005 0.0890491705467993
3260000000.0 0.29797600673051566 0.08528362614198928
3280000000.0 0.18064335337573126 0.23380974962487744
3300000000.0 0.2320764389501986 0.15121501938546333
3320000000.0 -0.2044311167322711 0.14640582301493024
3340000000.0 -0.198008270842745 -0.10559678692261822
3360000000.0 -0.034310131614520976 0.19736220012607428
3380000000.0 0.17961735621943695 -0.02563435255992405
3400000000.0 -0.08909534569571026 0.13781910300223502
3420000000.0 -0.1245372790753138 0.08472889506170037
3440000000.0 0.0947355507087904 0.08999366956113419
3460000000.0 -0.09133069647470288 -0.06122128769676543
3480000000.0 -0.05770286414251916 -0.08200946313435348
3500000000.0 0.06839852948928576 -0.06747578118050768
3520000000.0 0.04631695591419701 -0.09015502161012379
3540000000.0 0.07773369063031119 -0.05520877978636117
3560000000.0 0.10412636710601798 0.006160556560723129
3580000000.0 -0.0397728232032303 0.09997784720232072
3600000000.0 -0.05818425627229533 0.09737756684395449
3620000000.0 -0.06604423961188668 0.09628421932173742
3640000000.0 -0.06015347805176143 -0.11304777081075913
3660000000.0 -0.045318970846835414 -0.1273546390251248
3680000000.0 0.13449432628502406 -0.014679635272333236
3700000000.0 0.11715603098100709 -0.047051343265850344
3720000000.0 -0.06999539121977785 -0.08707078857870555
3740000000.0 -0.09213413744627312 0.008511574749040933
3760000000.0 -0.07486856987390733 -0.011212981450665759
3780000000.0 -0.04716689673437432 0.03679730821147551
3800000000.0 -0.0258885210272824 0.0032848936423818605
3820000000.0 0.00414964237694764 -0.0008239820416029697
3840000000.0 0.031016557605570157 -0.03146544454173861
3860000000.0 -0.07080193151842912 0.01711334767080111
3880000000.0 0.0773859390707261 -0.06027345743460192
3900000000.0 0.11110568247253226 0.028525499570846213
3920000000.0 -0.11792916290744267 0.03725634504349546
3940000000.0 -0.060599445814593304 0.12033770828231521
3960000000.0 0.02536678655507538 0.13197407049526097
3980000000.0 -0.0009100466872452047 -0.12706538225579017
4000000000.0 0.10174133830121064 0.02426086264433319
