!Created with skrf (http://scikit-rf.org).
# Hz S RI R 50.0 
!freq ReS11 ImS11
400000000.0 0.6789205773048438 0.6111381560099605
420000000.0 -0.012330147302321268 0.8791519009875086
440000000.0 0.21043011351133514 0.8265476840070023
460000000.0 -0.7563009637499776 0.322428659016516
480000000.0 0.39113850753501617 0.6813362342365666
500000000.0 0.3334558382193948 -0.6662106724437753
520000000.0 -0.6965597172486988 -0.06435120811245475
540000000.0 0.4673555514291814 0.4615939140642108
560000000.0 0.5837435097270354 -0.22018763320923435
580000000.0 0.4612554196189505 -0.2832336161267874
600000000.0 0.3883777657675484 -0.3653629938902598
620000000.0 0.5336307935642417 0.1359315205189615
640000000.0 -0.4230859704064705 0.30294255003241666
660000000.0 0.45926505925612254 0.17943528505960102
680000000.0 0.4597737684209281 -0.04615894007324513
700000000.0 -0.1713125018827218 -0.42707860063626857
720000000.0 -0.4100550993580935 -0.23085702212606582
740000000.0 -0.29924147179956007 -0.33496578294205964
760000000.0 0.4046271944686773 -0.12894283985057156
780000000.0 0.0857248718038599 0.39671790186160105
800000000.0 -0.1034699755123814 0.36336054777189536
820000000.0 0.1004649053108993 -0.2967230518741629
840000000.0 0.19986041950455513 0.1969501402921717
860000000.0 -0.17644582984657958 -0.1986205523116523
880000000.0 0.2279482628296694 0.0002919374202490461
900000000.0 -0.20784335796503142 -0.056381190457525716
920000000.0 0.17854640827700533 0.0798204962193802
940000000.0 0.15161001200181345 -0.08173146967072435
960000000.0 -0.054699792625353676 -0.10964858129084756
980000000.0 0.07222470897543425 0.02444414860817799
1000000000.0 0.028866064682220496 -0.04344367613027286
1020000000.0 -0.020448964576041326 -0.04224585427079944
1040000000.0 -0.08100962176877388 -0.03310681606479972
1060000000.0 -0.11561374005643117 -0.061939825690013
1080000000.0 0.136903568061197 0.11022833584280564
1100000000.0 -0.10526495034184362 0.19656191735343653
1120000000.0 0.06849508486161966 -0.23575815005957007
1140000000.0 0.18144983120126165 0.1915335316750123
1160000000.0 -0.23619809966299865 -0.1691832350855915
1180000000.0 0.3090800081246552 -0.017523630861263503
1200000000.0 -0.018986197272228788 0.32882182825234946
1220000000.0 -0.05816622089094418 -0.3377651507420779
1240000000.0 0.2833114980743739 -0.2231138274244332
1260000000.0 -0.0025654046261809646 -0.360340618834391
1280000000.0 -0.10625668699708897 -0.360795179255243
1300000000.0 -0.3737209280474025 0.0021434105109474876
1320000000.0 -0.18747852854350944 -0.3267864946943253
1340000000.0 0.04650260969273811 0.3639873456803667
1360000000.0 0.09876454458309435 -0.36639453385458226
1380000000.0 0.35888225211313673 0.16472014410531355
1400000000.0 -0.34329522101939913 0.1707040919979543
1420000000.0 -0.3212935810837285 0.20034812123006132
1440000000.0 0.08926031646261635 0.3582557064702825
1460000000.0 -0.3654798641805265 -0.00473763534156451
1480000000.0 -0.266420939766585 -0.2620035744285166
1500000000.0 -0.25879046205311323 0.2783802881763859
1520000000.0 -0.311979238410658 -0.20410205338619872
1540000000.0 0.22000939410663953 0.26914723255093376
1560000000.0 0.0659407338790119 0.3185178790845501
1580000000.0 -0.03826798172060354 0.2796414315535887
1600000000.0 0.0030812617211898098 -0.23812831548024244
1620000000.0 0.18288576502855983 0.10254910822151149
1640000000.0 -0.07078447255119301 0.1599979896199188
1660000000.0 -0.11736697490972205 0.09491725413978407
1680000000.0 -0.10621440489515452 -0.04721584324827624
1700000000.0 -0.005117229506103289 -0.10305148033694729
1720000000.0 0.06651913529388237 -0.04093410413160396
1740000000.0 -0.07389480046386937 0.0129286955991823
1760000000.0 -0.08653480929062027 0.0014240502107219978
1780000000.0 -0.022393393109960007 0.0994703490594985
1800000000.0 -0.06516659292563616 -0.10775402037933551
1820000000.0 0.026960363949954578 0.15422941491306041
1840000000.0 0.17720455605215954 0.014248785361149706
1860000000.0 -0.210333430912655 0.037178357601477245
1880000000.0 -0.22347890988667438 0.0673811755316302
1900000000.0 -0.25888247124397956 0.033193043348886855
1920000000.0 0.20654270114316167 0.1938823819655907
1940000000.0 -0.12370582719480183 -0.272209006697706
1960000000.0 0.04460213803539534 0.2962679472484658
1980000000.0 -0.013404051834057268 -0.3045583400115683
2000000000.0 0.3146780759823536 0.026924999791861918
2020000000.0 0.16517249865407177 0.27156031226460753
2040000000.0 0.18309650083176074 0.2631410170428476
2060000000.0 0.014660854940068215 0.3185970731334213
2080000000.0 -0.245674238397117 0.20624406338247564
2100000000.0 0.12228050780040287 -0.29239406291499076
2120000000.0 -0.31074797361132966 -0.020753901477037102
2140000000.0 0.28152075569965207 0.15017728473306263
2160000000.0 -0.30769926488061405 0.07543971149928101
2180000000.0 0.13910733026955724 0.2785621348681974
2200000000.0 0.2387956660999064 0.1789047250589387
2220000000.0 -0.17691043801551953 0.22810378663325306
2240000000.0 -0.06550689512251523 -0.28383471160851576
2260000000.0 0.2867383773969969 -0.004560217267603306
2280000000.0 0.26905011690675507 0.09400280349412657
2300000000.0 0.27750157311694723 0.04319744993068958
2320000000.0 0.25120194736804624 -0.10660837705171809
2340000000.0 -0.040188225281603256 0.2530737709081181
2360000000.0 -0.25296440439257384 0.008060152257401917
2380000000.0 0.24677832275642714 -0.04480780150981062
2400000000.0 0.06982632508457519 0.2565445427726078
2420000000.0 -0.01726863263608346 0.28711443958813954
2440000000.0 0.29824747453268385 -0.1075029450948592
2460000000.0 -0.2906616122046758 0.19233639146470655
2480000000.0 -0.10444281683395952 0.364698399056015
2500000000.0 -0.23091381746012274 -0.34768635570087175
2520000000.0 0.43830095867360624 0.1319067118218896
2540000000.0 -0.34302823897566265 0.35807902931286284
2560000000.0 0.0014249088932810666 -0.5279539437303042
2580000000.0 0.2771066681681418 0.48611926965820884
2600000000.0 -0.4977324828299223 -0.31134283359869286
2620000000.0 0.6018830208897938 0.10013108701134131
2640000000.0 -0.5599655974136503 0.28468889190730207
2660000000.0 0.07509731977431211 -0.6390283925329782
2680000000.0 0.6305635587060038 0.16618915129450948
2700000000.0 0.18899793362385547 0.6296736188222414
2720000000.0 -0.20795095912405742 0.6290806857230723
2740000000.0 -0.1912242948934756 0.6350908224552928
2760000000.0 -0.12575302206624703 0.6497725959888102
2780000000.0 -0.5810702452152702 -0.2991823506431118
2800000000.0 -0.347826394603906 -0.5410702733227017
2820000000.0 0.1939030550295072 -0.5997080658592497
2840000000.0 0.5612661178054851 0.24750555657365048
2860000000.0 -0.5666784739020168 -0.17863525486702053
2880000000.0 0.38310455770260593 0.43231758883352245
2900000000.0 0.3280710437039815 -0.4478061524072099
2920000000.0 -0.17237998489779904 -0.502331972035473
2940000000.0 -0.39688604354026374 -0.31788395514830675
2960000000.0 -0.37942347534058646 -0.30007798743105324
2980000000.0 -0.362473803959631 -0.28688381499253535
3000000000.0 -0.41686774803992077 -0.15914225732102302
3020000000.0 -0.1980253972450787 0.37805245134341386
3040000000.0 0.26134699756143714 0.3137176700570893
3060000000.0 0.08235815118934539 -0.38620001847431945
3080000000.0 -0.24742336664340014 0.28898876040409455
3100000000.0 0.2025240618528223 -0.309974183747344
3120000000.0 -0.34827430083050726 -0.09446465753854005
3140000000.0 0.35374984809669047 0.04904105398773266
3160000000.0 -0.31899617550981635 0.1561025587119404
3180000000.0 0.28992611496609644 -0.1981687057567143
3200000000.0 -0.33625988718456257 -0.08072135453415731
3220000000.0 0.0261700296745629 0.33581586075292397
3240000000.0 0.31987133446964705 0.06285824215521116
3260000000.0 0.3086402656830261 0.03095594367768263
3280000000.0 0.1514730956203826 0.25495289337152094
3300000000.0 0.23485274647606383 0.1465975178657061
3320000000.0 -0.18560034205111287 0.16910694692871223
3340000000.0 -0.15392868127955012 -0.16450428634624975
3360000000.0 -0.008549756226836932 0.1998238555086797
3380000000.0 0.18017534803535826 0.01838696558454039
3400000000.0 -0.09172831798057507 0.13700296364555634
3420000000.0 -0.13446162089664676 0.06591273090690408
3440000000.0 0.08854550049366497 0.09623156015799067
3460000000.0 -0.10274410836177221 -0.039565133705989367
3480000000.0 -0.04339322851887647 -0.08997906551898241
3500000000.0 0.07484342090184438 -0.061462779023533594
3520000000.0 0.042495062212317594 -0.09107800557125749
3540000000.0 0.09434242465574992 0.01522540616456431
3560000000.0 0.09875963253985769 -0.03747040334679072
3580000000.0 0.012654903572505313 0.10734386516928054
3600000000.0 -0.0799618417921579 0.0791406424135136
3620000000.0 -0.09307309887787008 0.07175083951078165
3640000000.0 -0.01345690434126697 -0.12914944261701464
3660000000.0 -0.11112327938957053 -0.077208975849007
3680000000.0 0.13443950512406763 -0.0023244272951448053
3700000000.0 0.11930906559256903 -0.04021767850347106
3720000000.0 0.030335322944947864 -0.10776794955794142
3740000000.0 -0.08811958400768326 0.032132777255979746
3760000000.0 -0.06426133495904687 0.03829603494952513
3780000000.0 -0.04890830917145229 -0.03138574374948225
3800000000.0 0.003530783446762967 -0.027806864455363338
3820000000.0 0.0034099689633491446 -0.0005922008665761137
3840000000.0 0.042329890256638095 0.014597917417234764
3860000000.0 -0.035491263222230326 0.06418942998855884
3880000000.0 0.039247320640565304 -0.08914197755907312
3900000000.0 0.04795765887328524 0.1040596523856703
3920000000.0 -0.11654061352869641 0.0441205456672616
3940000000.0 -0.03238497768604039 0.13060158597576418
3960000000.0 -0.03627913451511835 0.12897524633748958
3980000000.0 -0.001525123174041554 -0.12765252684481576
4000000000.0 0.1034183453796929 0.005980718320783965
