!Created with skrf (http://scikit-rf.org).
# Hz S RI R 50.0 
!freq ReS11 ImS11
400000000.0 -0.34322385304605435 -0.7662723910586592
420000000.0 0.6350537520434862 0.4641072546309258
440000000.0 -0.393598571337683 0.645103731184735
460000000.0 -0.694718406963444 0.12592752981865862
480000000.0 -0.4620496088500899 0.4180837440906965
500000000.0 0.3584974137407441 -0.3624439393390729
520000000.0 -0.011072763172243223 0.4016976769487864
540000000.0 0.4327018531473376 0.1731314697588446
560000000.0 -0.4608904031585536 0.15451595692828532
580000000.0 0.3262437444450164 -0.284730509768894
600000000.0 -0.37312394110911684 -0.10203852119659967
620000000.0 0.019534510193714046 0.3714895731264284
640000000.0 -0.2874208515671081 -0.2537486574145197
660000000.0 -0.33910986523179243 -0.05594140701346169
680000000.0 0.13469451524834303 -0.30275907936532687
700000000.0 0.20402818765134503 0.2599569259852593
720000000.0 0.32250133037007256 0.1464979442228696
740000000.0 -0.08254859475850508 -0.32640182982420335
760000000.0 0.10095433474615134 -0.2847418849854933
780000000.0 -0.050703211441374886 -0.27283307394419587
800000000.0 0.24500230132446554 0.053089029008882946
820000000.0 0.17665745778908423 0.11456510152959898
840000000.0 -0.12364558948450168 -0.15425050814714522
860000000.0 -0.18459884357862566 0.020027700841906044
880000000.0 -0.14110857350857758 -0.11012864118709542
900000000.0 0.12095366875180963 0.10562924955330236
920000000.0 -0.13420860645626428 -0.03846978754237951
940000000.0 0.05909503310467772 0.11584133377492806
960000000.0 0.07695205626846688 -0.06167810674591556
980000000.0 0.01103487543562779 0.05858871810330687
1000000000.0 0.020727992617268202 0.03663364420577643
1020000000.0 0.028678630168764627 0.02174951195283567
1040000000.0 0.061969253934944644 0.04753261041086097
1060000000.0 -0.10824341009709214 -0.05906971004011523
1080000000.0 0.02535984315367634 0.14543360429238383
1100000000.0 -0.18412533748797413 0.02953452190817182
1120000000.0 0.14857346018105616 -0.16340402705370743
1140000000.0 0.19594707892315072 -0.18253610451496619
1160000000.0 0.26659864281744694 -0.104250072592471
1180000000.0 0.23470132037933353 0.2186804856896759
1200000000.0 0.2621782411241113 0.20693436458501782
1220000000.0 -0.1058523575356049 0.3253322952376278
1240000000.0 -0.041167646375757615 0.3350462769344002
1260000000.0 -0.3107188537162824 -0.13581833059324697
1280000000.0 -0.15190410085988346 -0.312453375846158
1300000000.0 0.018867752116254966 -0.3523832277228525
1320000000.0 0.3477760562534069 -0.0724446372788148
1340000000.0 -0.17788614931329377 0.3229932012091647
1360000000.0 -0.24880476662544185 -0.2873909756675256
1380000000.0 0.003607633934110195 -0.37558571749016056
1400000000.0 -0.26852079415753827 0.2625181452141106
1420000000.0 0.36484469434977107 0.026507666200865507
1440000000.0 0.359329429834542 0.028133225763977653
1460000000.0 0.019185107476259046 -0.3592447380517953
1480000000.0 -0.19892123477063442 -0.2847453123639765
1500000000.0 -0.08977507933684123 0.3250140902418754
1520000000.0 -0.08989866926392484 -0.297229559784488
1540000000.0 -0.27513626507349354 -0.008897447132920963
1560000000.0 0.1732139613135397 0.17179043153174367
1580000000.0 -0.20480069992927566 -0.03788344849174514
1600000000.0 0.1510408522438462 0.08807505770932156
1620000000.0 0.043114099323966266 -0.13875694864529775
1640000000.0 -0.03761941371928553 0.1198518713102482
1660000000.0 0.04921349500060966 0.09577586303968207
1680000000.0 -0.006645372151510176 0.08146569207656708
1700000000.0 0.06372597044743988 -0.014861760878918042
1720000000.0 -0.00964607006799568 0.04969830262157968
1740000000.0 0.03164401822416126 0.03527127247823509
1760000000.0 -0.0526491970944368 -0.03567848312020868
1780000000.0 0.030251372504519276 0.08345195520317579
1800000000.0 -0.09721132510923496 -0.07839503021074448
1820000000.0 -0.06957792041570346 -0.14105404803645308
1840000000.0 0.12481074159011354 0.14084782676307545
1860000000.0 0.2184069489330511 -0.039653161162962726
1880000000.0 0.18115936643679525 -0.16577854008620363
1900000000.0 -0.09464909283155241 -0.2504577192674576
1920000000.0 -0.2830618707266325 0.05489673860281027
1940000000.0 0.25201929320253025 0.1660377741957804
1960000000.0 -0.3043592576129354 -0.08169303423360835
1980000000.0 -0.058368697019195774 -0.312185411783813
2000000000.0 0.16144348724434668 -0.2697971153981234
2020000000.0 0.24800162122854336 0.19449317328153443
2040000000.0 0.2945446286459316 0.103669691654996
2060000000.0 0.10453613517535473 0.2892960779963155
2080000000.0 -0.2747601233038908 0.13980204672974764
2100000000.0 0.1371752686075691 -0.28174076497133005
2120000000.0 0.1304320614927308 0.2814294714650863
2140000000.0 -0.21599729050523578 -0.22047063067654452
2160000000.0 0.07092643173995834 0.29504852757251204
2180000000.0 0.2981876201662589 -0.004725820001161493
2200000000.0 0.2911480238016634 -0.02232209920145425
2220000000.0 0.27960081608331655 0.05646327286675421
2240000000.0 -0.07810672752447353 0.26487753982824896
2260000000.0 -0.26752384080421426 -0.010303517042574732
2280000000.0 0.028983454071017083 -0.25298594983799005
2300000000.0 0.1610802438020357 0.18628153482181975
2320000000.0 -0.23432279946911927 -0.030516168873574653
2340000000.0 0.14114746762017458 0.1775664888502541
2360000000.0 -0.16570290149484804 -0.16352191498064408
2380000000.0 0.24319121187822562 0.015288808681929592
2400000000.0 0.25573782109906623 0.03691120141875538
2420000000.0 0.2586929661107884 -0.11504078179246588
2440000000.0 -0.2869357859005437 0.13256836358128637
2460000000.0 0.23672983086936034 -0.25600464994298006
2480000000.0 -0.38487469498312993 -0.0049828530817211695
2500000000.0 0.07953124628235184 -0.4148582982523127
2520000000.0 0.4121744583533848 0.2024003945422255
2540000000.0 -0.48050906604927246 0.1263270025016048
2560000000.0 0.25913535204138105 -0.46246193540993097
2580000000.0 0.10774252094998277 0.5519394400024622
2600000000.0 -0.4461535850228968 -0.3829163771946665
2620000000.0 0.5993633278990717 0.11440203081787105
2640000000.0 -0.4909074342428036 0.38959722343138
2660000000.0 -0.15322090393259288 -0.6212327923571792
2680000000.0 0.6276261373839723 -0.1622049330100502
2700000000.0 0.5541418926954973 0.3484565244476648
2720000000.0 0.45104003556845357 0.4784801336522461
2740000000.0 0.4896990359503515 0.4409991014099481
2760000000.0 0.5471029664572628 0.36616932149088566
2780000000.0 -0.5079498330114693 0.40332022534347545
2800000000.0 -0.6345829965505698 0.07392672055767548
2820000000.0 -0.3434112300108059 -0.5259043582550526
2840000000.0 0.586160015151461 -0.18632648098038737
2860000000.0 -0.5038832714440462 0.32883914390502794
2880000000.0 0.5850292780222704 -0.0386653412574377
2900000000.0 -0.20909727169272424 -0.5280420765483093
2920000000.0 -0.5329233260216675 0.12493682836923645
2940000000.0 -0.03688207041236833 0.5237758124602822
2960000000.0 0.19318998033660964 0.46207145868333127
2980000000.0 0.4353075704994204 -0.1996210956112191
3000000000.0 -0.16681507957076966 -0.42201605753101645
3020000000.0 -0.28225946415324454 0.32627961119033994
3040000000.0 0.36259099966223074 -0.1812127973362179
3060000000.0 -0.34608687146957107 0.1499970123446476
3080000000.0 0.3275074957196147 0.14548530735131035
3100000000.0 -0.3371007940057553 -0.05031502548913329
3120000000.0 -0.19884547285033574 0.26589007551771215
3140000000.0 0.28337124353451626 -0.15970794794338447
3160000000.0 -0.3144011274124848 -0.08292431748380653
3180000000.0 0.3189583800283284 0.04494843084245219
3200000000.0 -0.045701740637449875 -0.3111664166226701
3220000000.0 -0.2752576428565685 0.129424815108402
3240000000.0 -0.23951847476374463 0.1624920252980341
3260000000.0 -0.2700847890735822 -0.012223774139912299
3280000000.0 0.15694287905762117 -0.19680551048381703
3300000000.0 0.08587910976617719 0.21924234316220598
3320000000.0 -0.19470528520114505 -0.09417089618324251
3340000000.0 -0.0537684728008203 -0.19076264031545997
3360000000.0 0.10281197951757971 0.13567153327641265
3380000000.0 0.01902020976306034 -0.14522826108448253
3400000000.0 -0.010057272135320244 -0.1247134852398371
3420000000.0 -0.10684067465537755 0.042021446635143685
3440000000.0 0.07329315351437803 0.07617099107423102
3460000000.0 0.02107464056836075 0.09898962829055336
3480000000.0 -0.09068327023385618 -0.004875302522487912
3500000000.0 0.08494467141705936 0.012514229449412585
3520000000.0 0.04631707221764731 -0.05677833487173761
3540000000.0 -0.06853034991505631 0.008185648964046268
3560000000.0 -0.008079728356866524 0.07366970643987994
3580000000.0 0.07848804012344508 -0.01608903348187671
3600000000.0 0.08780428584585175 -0.017423226961869372
3620000000.0 -0.07838723600359086 -0.0643090527000445
3640000000.0 0.016637591689578225 0.10489188235838383
3660000000.0 -0.10359976983622769 0.023210731886544406
3680000000.0 0.09375677919148602 -0.04467982032821523
3700000000.0 0.04312996884693719 -0.0865826682773664
3720000000.0 -0.04173942372687505 -0.07690072510897485
3740000000.0 0.07573311225129413 -0.02052406263990205
3760000000.0 0.05767162929808438 -0.04520777102306707
3780000000.0 -0.02589478523434173 -0.060692937745838574
3800000000.0 0.005841822613363917 -0.04650539383166594
3820000000.0 -0.03137880804858925 -0.019085167436269455
3840000000.0 0.03671055706166034 -0.042018159480733494
3860000000.0 0.01502289337965946 -0.07094686486590802
3880000000.0 -0.030434770456333533 0.0888198962477381
3900000000.0 0.0816236529743757 0.06297705619988227
3920000000.0 0.007363560994061489 -0.10449906007116687
3940000000.0 -0.0750600422815501 0.07335060229477572
3960000000.0 -0.02180093909167521 0.1002516539138828
3980000000.0 -0.08245327499175922 0.049575550642213605
4000000000.0 -0.07743553357136111 0.027718005968867573
