!Created with skrf (http://scikit-rf.org).
# Hz S RI R 50.0 
!freq ReS11 ImS11
400000000.0 -0.7117167756411352 0.10755776717521542
406500000.0 -0.2986353901598275 -0.6343445563986434
413000000.0 0.6774345037343171 0.01839745346704862
419500000.0 -0.6665897670049167 -0.0003140595479721372
426000000.0 0.2677213268812102 0.6001607487847773
432500000.0 -0.4677184843640578 -0.4482510050791186
439000000.0 0.6328631852523776 0.055374162888101326
445500000.0 -0.6235299715569375 0.06141754038287177
452000000.0 0.536345059144522 -0.309581377032932
458500000.0 -0.12100304294934029 0.6102078194731544
465000000.0 -0.5430025791121134 -0.3032954229675616
471500000.0 -0.32060323611310126 -0.5305089459246337
478000000.0 -0.12840288477013687 -0.597956814690013
484500000.0 0.22568597822382092 -0.5608927448636895
491000000.0 0.005245393180820888 -0.5905319974968462
497500000.0 -0.3263084308710543 -0.4674406766026119
504000000.0 -0.3890836043126446 0.3737808170226205
510500000.0 0.050409871443909175 0.498221391506977
517000000.0 0.4085199708858029 0.20803861040752472
523500000.0 0.10941407144515725 0.41480306821796176
530000000.0 -0.13441892796898328 0.3694305038598141
536500000.0 0.21069617810266034 0.2924714761915587
543000000.0 0.289832157252543 0.19216494698617967
549500000.0 0.312231765133697 0.1123852263548244
556000000.0 -0.007223582818409479 -0.30637131600282963
562500000.0 0.16552024342280539 -0.23780050737182679
569000000.0 -0.16394788560733842 -0.2173800820004386
575500000.0 0.2613147285567307 0.014372793970209881
582000000.0 0.04349141535927002 -0.25398187617577805
588500000.0 0.23634243762935925 0.12234804868070845
595000000.0 -0.05801002299998371 -0.27986010683322554
601500000.0 0.039667192118402424 -0.28954880167835945
608000000.0 0.1904047817814308 -0.22454460974155477
614500000.0 0.02230081585087535 -0.29945418129116935
621000000.0 -0.06425706362237212 -0.2920714619426321
627500000.0 0.29580505817197705 0.020129532904800282
634000000.0 -0.059665749895806905 0.2963169040701025
640500000.0 -0.2905095306974898 0.02786868019343959
647000000.0 0.2945837473656261 0.052337030666635864
653500000.0 0.18517480533337824 0.23606224931100792
660000000.0 -0.2894829579833526 -0.07755669512576549
666500000.0 0.1489514467948636 -0.26069973475392366
673000000.0 0.09204936947841597 0.2814654303746754
679500000.0 0.2953172552970147 -0.0725078406809067
686000000.0 0.2750873006370432 -0.1113409490183253
692500000.0 -0.28930713923803275 -0.05446188137271402
699000000.0 0.21430132152609693 -0.19332509266098669
705500000.0 -0.2877220778501647 0.046167439561757215
712000000.0 0.29259779632515626 -0.00901742276578588
718500000.0 0.11256722532649369 -0.276423702022775
725000000.0 0.001887695116830154 0.3117320004968106
731500000.0 0.06463622568651461 -0.31181366001428923
738000000.0 0.20156774634165867 0.26273286774796345
744500000.0 -0.328511300448177 0.008225699616495562
751000000.0 0.27875537469260836 0.1769083025841339
757500000.0 -0.18537007213875017 -0.28384610211179456
764000000.0 -0.21772018506065408 0.2724022179956846
770500000.0 -0.20575141821032367 -0.2907113637510243
777000000.0 -0.13089129286764287 0.3392437645055406
783500000.0 -0.07936327194975755 -0.35193457142936174
790000000.0 -0.12043680702882117 0.34667041994660275
796500000.0 -0.0024488455910011324 -0.36996364227542683
803000000.0 -0.34733340436938526 0.10627822464880654
809500000.0 0.2773232351634766 0.23362673847539667
816000000.0 0.2368252270120571 -0.2717182113102833
822500000.0 -0.04908274173850162 -0.36664117138403757
829000000.0 -0.34638472531519554 0.15904871410755925
835500000.0 -0.39282420591230993 0.020915557596322618
842000000.0 0.40600214182574523 0.06531923338761234
848500000.0 -0.2615565438710559 -0.3199261598608863
855000000.0 0.2267934573597041 0.35834887903684703
861500000.0 0.08921498123037952 -0.41710248897882746
868000000.0 -0.2510289279296388 0.35375470634806866
874500000.0 0.34371955133777554 -0.2668776725335186
881000000.0 -0.2715919852696708 0.35132431942418924
887500000.0 0.10233286601481516 -0.43610220485818996
894000000.0 0.09864275901743212 0.43458724021230344
900500000.0 -0.4207200101237441 0.12522210724781838
907000000.0 -0.1946461486494824 -0.38235182286465463
913500000.0 0.4035650118182447 0.07937916083023734
920000000.0 -0.1630039404251034 0.365580844895737
926500000.0 -0.38450421507218485 -0.023582540623670677
933000000.0 -0.1033160743728103 -0.35812960901570484
939500000.0 -0.04342693990660596 -0.35907036993080504
946000000.0 -0.10741165656749554 -0.3246362383472218
952500000.0 -0.04657875593420402 -0.3170149214544571
959000000.0 -0.05799713002839475 -0.29515829544781247
965500000.0 -0.07960778273603387 -0.2715806879034151
972000000.0 0.14210629557475304 0.22648811273832484
978500000.0 -0.12813595006220663 0.2217696876234839
985000000.0 -0.186681838191451 0.15122922465187338
991500000.0 -0.2148571116177767 -0.07589351913955486
998000000.0 0.06560932764078667 -0.20474173716173832
1004500000.0 0.19606712599333084 0.05476569827045794
1011000000.0 -0.17031515271237024 0.08988435796650514
1017500000.0 -0.05589182464648275 -0.17278479293849824
1024000000.0 0.14775404236259154 -0.07537471014607877
1030500000.0 0.11288850849908388 0.10150653912135123
1037000000.0 -0.04671795328304142 -0.13136192517376002
1043500000.0 -0.06042479030195357 -0.11486509372105091
1050000000.0 0.12192596136097031 -0.020938690642792145
1056500000.0 -0.10014438239252134 -0.060824356487090794
1063000000.0 0.09941922413830356 0.0491950214891866
1069500000.0 0.10393509336011315 0.003187366642902582
1076000000.0 0.01553615938767497 -0.10095198676285604
1082500000.0 0.03964655699577038 -0.09064262788296461
1089000000.0 -0.08548002114502484 -0.052149831623894416
1095500000.0 0.0782720802668751 0.062496780676380766
1102000000.0 -0.1059713084157166 -0.0070021832999800715
1108500000.0 0.08128978534250102 -0.07595479810100965
1115000000.0 -0.09417494859724064 -0.07419244383770124
1121500000.0 0.003799688837965323 0.1355795483821859
1128000000.0 -0.022247267616851005 -0.14936666493884182
1134500000.0 0.03791247457385225 0.1611733621145472
1141000000.0 -0.08637060728435195 -0.16269034930143877
1147500000.0 0.1129133613350974 -0.16772991818860405
1154000000.0 0.1924895049920119 0.08889800323430092
1160500000.0 0.02342530389616605 0.21895097071522204
1167000000.0 -0.2193149182061471 -0.05528933864483037
1173500000.0 0.22576055328606495 0.011083621771367512
1180000000.0 -0.22358217682992385 -0.04776112430347607
1186500000.0 0.08798684250282761 0.21047070610238192
1193000000.0 0.21248224643141098 -0.10130628159538663
1199500000.0 -0.23493811675261592 -0.05879570563298428
1206000000.0 -0.22336490273385357 0.115657784828642
1212500000.0 0.2648264979298294 -0.02715248948103963
1219000000.0 -0.277070226702643 0.051210818204444085
1225500000.0 0.2887127614556103 -0.01225805994457973
1232000000.0 -0.20623564487060536 -0.21808150413381597
1238500000.0 -0.23416227416812224 0.20221634722191945
1245000000.0 0.19922045949345132 0.24553072723465352
1251500000.0 0.20761953768745794 -0.24995322592573097
1258000000.0 -0.21416088008254966 -0.25121763460887
1264500000.0 -0.3290206658323851 -0.06047820383952245
1271000000.0 -0.13729415156997068 0.3141495895641474
1277500000.0 0.1574316696275537 0.3091533371533746
1284000000.0 0.3523817527314841 -0.0065229823338100205
1290500000.0 0.22107914105195872 -0.27648752275713695
1297000000.0 -0.15592467227157322 -0.3232107303954351
1303500000.0 -0.3580462380508272 0.009087877921243657
1310000000.0 -0.1121774430748711 0.33956030882286486
1316500000.0 0.35915756010814964 0.014331468617036958
1323000000.0 -0.03556517897513046 -0.3560041274935652
1329500000.0 -0.06792100121659435 0.3480453976005006
1336000000.0 0.3360863969465941 -0.08428346285154784
1342500000.0 -0.3297214036394638 -0.08962646872044389
1349000000.0 0.17108278729868567 0.2862364539458108
1355500000.0 0.3176391331111495 -0.08680070230833256
1362000000.0 -0.22370467498136404 -0.23517413128913003
1368500000.0 -0.3245243490959105 -0.004534716281295762
1375000000.0 0.05430976462709328 0.32778309433903297
1381500000.0 0.25873874273181446 -0.2146063264708811
1388000000.0 -0.33699751961415503 -0.0747926169508801
1394500000.0 0.12314640001626329 0.33065336518060756
1401000000.0 0.17577422802085793 0.31383133930015084
1407500000.0 0.31135961302941734 -0.1922707895804419
1414000000.0 -0.16154544807086776 -0.3364915292638167
1420500000.0 -0.2989626234531985 0.23252190078954071
1427000000.0 -0.14745335787698277 0.3492637135047684
1433500000.0 0.029179933842985097 0.38224986532290706
1440000000.0 0.10882624385419766 0.3644006628939654
1446500000.0 0.057226488879887606 0.38084923027922174
1453000000.0 0.20666855100979223 0.3244619294247655
1459500000.0 0.24427493805760409 0.29551283286482166
1466000000.0 0.37288760478998834 -0.08194119273209277
1472500000.0 0.32987899259787123 -0.1806981806165051
1479000000.0 0.04281207770800337 -0.3652116186873567
1485500000.0 -0.2419802849414645 -0.2656556833439068
1492000000.0 -0.32515961744179006 0.12296317325081481
1498500000.0 0.036310418843977114 0.3317515997090212
1505000000.0 0.2857930100111731 0.14728089706804864
1511500000.0 0.10199447257408993 -0.29270616614920364
1518000000.0 -0.22121000845845495 -0.20045574273544345
1524500000.0 0.23389152543494612 0.17054455323221668
1531000000.0 0.15562464683877994 -0.22931827222830167
1537500000.0 -0.2323480764108727 0.14506500027077582
1544000000.0 0.25841074674180076 -0.057982579467324234
1550500000.0 -0.15274028591084848 0.2175411446955746
1557000000.0 0.053911327697572356 -0.25211860065135033
1563500000.0 -0.24335042533556506 0.07670018218624731
1570000000.0 -0.25414584798004775 -0.0015494132781579879
1576500000.0 0.04486430532100634 0.252397819366478
1583000000.0 0.23054659324889668 0.12229410079463532
1589500000.0 0.17668975920754387 -0.19535583663579117
1596000000.0 -0.17668158362777067 -0.19377275277023218
1602500000.0 -0.25894074500822034 0.03185254498010496
1609000000.0 -0.25076288052733803 0.05236471616421745
1615500000.0 -0.19773839335307777 0.149530909085451
1622000000.0 0.006188734655735151 -0.241743524789938
1628500000.0 0.12366166798405819 -0.20202004451739253
1635000000.0 0.2207944231409675 0.06619461419413177
1641500000.0 0.037715213946733064 0.22068218168602602
1648000000.0 -0.21840333351084096 0.017540304901406817
1654500000.0 -0.023652411329799852 -0.21164729357390183
1661000000.0 -0.11605813923468755 -0.17432582907723118
1667500000.0 -0.19886652892632423 0.0340043435902057
1674000000.0 0.11871819282897685 0.14799413047050033
1680500000.0 0.15648792706690492 -0.07084254919230207
1687000000.0 -0.08193079458290231 -0.1361447378964604
1693500000.0 -0.05810159944642411 0.12927195910279932
1700000000.0 0.08617752799151245 -0.10172459888119909
1706500000.0 -0.07784656000103471 0.09244404113485546
1713000000.0 -0.003871530829345731 -0.11372103221059514
1719500000.0 -0.07839065693273269 0.0773840720823449
1726000000.0 -0.08205064984825954 -0.07126071149733906
1732500000.0 0.006086680990617536 -0.10652694385607316
1739000000.0 0.07243485458042624 0.08134094823385796
1745500000.0 -0.0979317674427067 0.04171814388741972
1752000000.0 0.02894968613406463 -0.1042819822508812
1758500000.0 -0.07038362953183093 0.08037099059457634
1765000000.0 0.09624230733839756 0.045740980468243216
1771500000.0 0.09705457020364441 0.035930850693316425
1778000000.0 0.045804604184772266 0.09039342257744598
1784500000.0 -0.005243826157491679 0.10131050464840857
1791000000.0 -0.04070639059322426 -0.09137391691337059
1797500000.0 -0.09165992119785409 0.037374889197739514
1804000000.0 -0.05446171191201562 -0.08277975962234795
1810500000.0 0.09873396906519748 0.011246749494628092
1817000000.0 0.07021354238148025 0.06614014129209725
1823500000.0 0.06594824732099909 -0.062477009646324966
1830000000.0 0.03286333321065212 -0.07411905346938628
1836500000.0 0.031185958303548172 -0.06491427836355285
1843000000.0 0.04163854045030901 0.03801800200569477
1849500000.0 -0.043740821838696445 0.003366220694112981
1856000000.0 0.03154488561157623 -0.006090180682911598
1862500000.0 -0.02068802404533559 0.007661148946988897
1869000000.0 -0.007462762322021262 -0.01853570125301655
1875500000.0 -0.01190650899459416 -0.014785168420508024
1882000000.0 -0.012355508061556395 0.007671585304395825
1888500000.0 0.012215087203461173 -0.00830029810536547
1895000000.0 -0.002744035048868282 0.01746189561663305
1901500000.0 0.01946999135556075 -0.008753274495051264
1908000000.0 0.014207261193151376 0.01721846332584333
1914500000.0 -0.018614939660527078 0.016639745757659273
1921000000.0 -0.025613625991222033 -0.00047768109905429383
1927500000.0 0.0074166438773597765 0.022414062664033188
1934000000.0 0.014334400374831897 -0.017925642096525148
1940500000.0 0.018691987874674295 -0.002184871322657781
1947000000.0 0.019522470150206948 0.005311587176178861
1953500000.0 -0.013401589521493961 -0.019167367803902643
1960000000.0 0.001566167305794272 -0.02264797810280637
1966500000.0 -0.01042245251608203 0.031166893731466742
1973000000.0 -0.031290197362161584 -0.02568671901697284
1979500000.0 0.008604517869941054 -0.050805925719902646
1986000000.0 -0.02338748821711329 -0.061324044125351904
1992500000.0 -0.07484688666636083 0.017221762893435306
1999000000.0 -0.05879601763186138 -0.06579008989064848
2005500000.0 -0.09567758200713651 0.02738600055103609
2012000000.0 -0.0912155111497178 -0.06171781880906004
2018500000.0 0.01272253176461389 -0.1173084438839487
2025000000.0 0.1031039717369879 -0.07695514515791523
2031500000.0 0.12661401184251164 0.03577172884183602
2038000000.0 0.058633211020407 0.12272949392779754
2044500000.0 -0.13170943407982008 0.04232382456775636
2051000000.0 -0.12941502177397501 -0.05891491801302515
2057500000.0 -0.13776703876738372 -0.024654085288688416
2064000000.0 -0.14077285766924952 -0.006642966444008487
2070500000.0 -0.13097258993479524 0.03684520649188525
2077000000.0 0.08951055526205055 0.0941262180211757
2083500000.0 0.09774136931886437 -0.073381108299587
2090000000.0 -0.11669122064170075 0.008363035610349729
2096500000.0 0.04790766163563494 0.0983637291222637
2103000000.0 -0.10000768550911535 0.03599370145474093
2109500000.0 -0.03370752334822191 -0.0987429956762409
2116000000.0 -0.10801351672108803 -0.00423800272202517
2122500000.0 -0.020005717821193224 0.10980107145303139
2129000000.0 0.1226043143417301 0.0021093309581649436
2135500000.0 0.06839078929936035 -0.11026796467285965
2142000000.0 -0.031941488930046565 0.13845102407605273
2148500000.0 -0.14716854703182222 -0.042824259178379016
2155000000.0 0.13259555089760539 0.10214830453104569
2161500000.0 -0.09063087802629778 -0.15463909532413378
2168000000.0 -0.14358510221335316 0.13186130593149614
2174500000.0 -0.09555859302294976 0.18280162602450148
2181000000.0 -0.05374285713875678 0.21169832361281235
2187500000.0 0.05990130467258686 0.22363619543456043
2194000000.0 0.05091696919243259 0.2377820131205218
2200500000.0 0.051067520426621896 0.2482278364973959
2207000000.0 0.24823210604001283 0.07138467194092094
2213500000.0 0.23148640825852126 0.11857062486497638
2220000000.0 0.2588664675495842 0.01804896468735442
2226500000.0 0.20749691955029553 0.1442835011254483
2233000000.0 0.1850786145001432 0.16477408520222475
2239500000.0 -0.1405322389323139 0.1967590733076774
2246000000.0 -0.1933937112281406 0.13228313565812247
2252500000.0 -0.22427451461289302 0.011812593708499967
2259000000.0 -0.21417917322288996 -0.0500154289715961
2265500000.0 -0.2007623009408033 0.07289499252076904
2272000000.0 -0.054147116361353956 0.19949137649379303
2278500000.0 0.1207970786286782 -0.16091284429282854
2285000000.0 -0.11746561129642459 0.1528502324613052
2291500000.0 0.003912823294044352 -0.18257216303020812
2298000000.0 0.023371404027621022 0.1701822271102346
2304500000.0 -0.0994249333693099 -0.1350853153224993
2311000000.0 -0.15478761179258413 -0.006230300368690245
2317500000.0 -0.0178110378871932 0.15364647002271517
2324000000.0 -0.01953196495963902 -0.15001073836479498
2330500000.0 -0.1447292737173781 0.04561541016786016
2337000000.0 0.12423667603244633 0.08771838468210712
2343500000.0 0.057729921601552436 -0.1438361053969056
2350000000.0 -0.1555926974479949 0.0006364691681248731
2356500000.0 -0.14222274441077334 0.07130201593172293
2363000000.0 -0.0192837080024657 0.1603195027287452
2369500000.0 0.1555225923853787 0.04691794369119484
2376000000.0 0.1618956601786064 -0.013668266520128996
2382500000.0 0.15254830059569532 -0.04845273562134824
2389000000.0 0.14150983829696154 0.07387616837152583
2395500000.0 0.006709441807675434 0.158569506404159
2402000000.0 -0.15417023624597367 0.03638176751996119
2408500000.0 -0.1546246856046179 0.04015510585453765
2415000000.0 -0.13062712481522942 0.09183588800614892
2421500000.0 -0.1453059306474018 0.061547505418521026
2428000000.0 -0.06717180859762538 0.14038689418848213
2434500000.0 0.02279297012126137 0.1502963268937125
2441000000.0 0.01591417351841326 0.1507052650443638
2447500000.0 0.1359959206150829 0.061819927328978466
2454000000.0 0.1374954943636499 -0.05565107983410549
2460500000.0 0.13513040544484056 -0.05981765176795083
2467000000.0 0.14267311274126365 -0.0375105082153911
2473500000.0 0.13563633241771647 -0.05929079989842261
2480000000.0 0.14256232284073192 0.04454491594014647
2486500000.0 0.15279080569692932 -0.02760320712275203
2493000000.0 0.03316078496722445 0.15196328747159943
2499500000.0 0.0645269038000773 0.14355183139882752
2506000000.0 0.08788307004356018 0.13317210185702977
2512500000.0 -0.11145101373528328 -0.11406324025136452
2519000000.0 0.16043312410672578 -0.020035913424619595
2525500000.0 -0.12316405918370944 0.10926291511386955
2532000000.0 0.057487635565197585 -0.15808644246919
2538500000.0 -0.05429031458612264 0.15928610123319015
2545000000.0 -0.09339047565903902 -0.14244628430732723
2551500000.0 0.09841617317345377 0.13736151079794898
2558000000.0 0.07798543942114669 -0.14995761646067804
2564500000.0 -0.05497698117785779 0.157030034546282
2571000000.0 0.1525159945754027 -0.06267531223161427
2577500000.0 -0.14778196154062845 -0.05726562729143569
2584000000.0 -0.1546269279593419 -0.023883678323688963
2590500000.0 -0.022397117922966968 0.1511784176867827
2597000000.0 0.1523018483944308 0.008176730015958426
2603500000.0 0.02555530459411067 -0.14700768232625983
2610000000.0 -0.019541114605897796 0.14746847510430763
2616500000.0 0.019233622716137103 -0.14217525230366687
2623000000.0 0.04868639317523096 0.13048787823449587
2629500000.0 -0.0899209923788913 -0.09416410228487956
2636000000.0 0.12157833282539027 -0.011313627701566981
2642500000.0 -0.10532409757453681 0.03910791642352848
2649000000.0 -0.08670210926119633 -0.060010401440788924
2655500000.0 0.09269361368691183 0.024221141046728747
2662000000.0 0.06650985054809452 -0.06175266368411427
2668500000.0 0.02984980313867074 -0.08092752644694536
2675000000.0 -0.009807631513829941 0.08360317300390484
2681500000.0 -0.06479600179907569 0.05102153812273997
2688000000.0 -0.00983205909300907 0.08277346452806104
2694500000.0 0.07761413493382138 0.037614441243884515
2701000000.0 -0.029777079560850232 0.08388304296998736
2707500000.0 -0.09283408208095555 -0.02990042231324656
2714000000.0 0.10549215398267714 0.0010533932009787802
2720500000.0 0.013241065912099625 -0.11633998003072066
2727000000.0 -0.1269715510137258 -0.017366898364579324
2733500000.0 -0.02717459287920289 -0.13847253154516517
2740000000.0 -0.09983695744449407 -0.11971055638922248
2746500000.0 0.08858632132336529 -0.1420837466661291
2753000000.0 0.18219982369353602 0.010912996607318337
2759500000.0 0.13211653420113964 0.14033196451112506
2766000000.0 -0.17473371953564035 0.10174593791832671
2772500000.0 -0.08137640026924037 -0.19478077354287152
2779000000.0 0.09284715395210016 0.19772107137970074
2785500000.0 -0.19241783582918923 -0.1166103604068632
2792000000.0 0.2063562231554753 0.10716144832970126
2798500000.0 -0.21212520725897477 0.11237988931455681
2805000000.0 0.1845353759680383 -0.16152442219979155
2811500000.0 0.05627472465814185 0.24900028608964458
