!Created with skrf (http://scikit-rf.org).
# Hz S RI R 50.0 
!freq ReS11 ImS11
400000000.0 -0.7105600880583249 0.12277077094604796
406500000.0 -0.29662885489844293 -0.637916668685502
413000000.0 0.6808695072535661 0.005426127889856645
419500000.0 -0.6565943048163845 0.13443617737249772
426000000.0 0.4197109668795533 0.5094778198231039
432500000.0 -0.58921216782427 -0.27597234526323944
439000000.0 0.6082276949203524 -0.19180726975890994
445500000.0 -0.48262708108134894 0.4014971867937534
452000000.0 0.1841287868262195 -0.5899412146968482
458500000.0 0.25144714902019266 0.5649180396529538
465000000.0 -0.6109842157662803 -0.0837102992832654
471500000.0 -0.3639939642508134 -0.494571114705398
478000000.0 -0.20957230894674528 -0.569060559649491
484500000.0 0.20134311807256217 -0.5648077555190784
491000000.0 0.04546521276902066 -0.5859776853277895
497500000.0 -0.37682385675837954 -0.4244328877959154
504000000.0 -0.32238416521032803 0.4271750287194243
510500000.0 0.12463409926358962 0.4818139445448259
517000000.0 0.4531623617504558 -0.018437671427996804
523500000.0 0.2777942144895026 0.3167574911497567
530000000.0 -0.0744884123241172 0.3776695439282157
536500000.0 0.22392284127525114 0.269217290362351
543000000.0 0.10070677807819527 0.3224790738304538
549500000.0 0.06316231158053343 0.31454693315027904
556000000.0 0.29184842945609707 0.05950777894129253
562500000.0 -0.06894851136650232 0.2747427371238991
569000000.0 0.21995987118795338 0.1615248059042995
575500000.0 -0.26508010400845744 0.01846956203748187
582000000.0 0.15863947291489133 0.215119790941625
588500000.0 0.08484923329316857 0.26348353235629923
595000000.0 0.0025980420611982752 -0.2972669003309212
601500000.0 -0.22941221182860838 -0.19357621814179388
608000000.0 -0.15658573847872154 -0.2529637493421343
614500000.0 -0.26251629653598635 -0.1447344340541439
621000000.0 -0.2526756994108828 -0.15323200529893785
627500000.0 0.2893783218475567 0.0176016030554432
634000000.0 -0.21345708214205034 0.2096334674941556
640500000.0 -0.2813561956069137 -0.06953160097544914
647000000.0 0.20481020924266174 0.21506010022610367
653500000.0 -0.0408308915416452 0.298666841183034
660000000.0 -0.23905989128694563 -0.18328090573761688
666500000.0 0.266376806396586 -0.14011875852416147
673000000.0 0.058766215427257185 0.29420338268738094
679500000.0 0.25186233484377446 -0.17340886127956875
686000000.0 0.221889176269304 -0.19537754041571173
692500000.0 -0.29088966898844304 0.03754819020226856
699000000.0 0.17745702902888857 -0.22523009769257346
705500000.0 -0.2822209380926948 -0.05811741841711192
712000000.0 0.23893740305595168 0.1697940843366874
718500000.0 0.20750259621656053 -0.21427924990979386
725000000.0 -0.1814339084307434 0.2554273555050518
731500000.0 0.12061050182490878 -0.29554253170789097
738000000.0 0.04775209382090472 0.3269714430330393
744500000.0 -0.2814980889412132 -0.17414560624904765
751000000.0 0.22654340355176666 0.244362841766838
757500000.0 -0.11167889918254886 -0.32427996778578044
764000000.0 -0.10600609665689927 0.33628466069960766
770500000.0 -0.25877495621797963 -0.2473259995877932
777000000.0 0.0022061933888754244 0.3645330649461466
783500000.0 -0.234025173926328 -0.2766589677467895
790000000.0 0.04819995882300298 0.36193748737173614
796500000.0 -0.05774213604862021 -0.36526330958120723
803000000.0 -0.2734503768374729 0.23481721337758016
809500000.0 0.27153646685028593 0.23483345603162498
816000000.0 0.3014005251194299 -0.19462669258330248
822500000.0 0.10854360399731146 -0.35171091071219607
829000000.0 -0.3816385533286229 -0.007449335605955579
835500000.0 -0.3701284804303521 -0.14206209397448813
842000000.0 0.3936792822241134 0.12592563766957085
848500000.0 -0.28614602806783573 -0.29885327054759037
855000000.0 0.2091445328906615 0.37102012840027615
861500000.0 0.029377972016000068 -0.4260593899326627
868000000.0 -0.33552822181231917 0.27291575480151276
874500000.0 0.34824392936800047 -0.26077881752509807
881000000.0 -0.3842736145841858 0.22063688864057598
887500000.0 0.33246493782965486 -0.30016318685970295
894000000.0 -0.180213700595314 0.408833468322
900500000.0 -0.39181577066088935 -0.20512169110639378
907000000.0 0.13588598388338163 -0.41348824322529454
913500000.0 0.28715558139733083 0.3077082240916712
920000000.0 -0.25415101639828425 0.32529270501554974
926500000.0 -0.3674364102370057 0.1583122939676063
933000000.0 -0.3841376574706275 0.02208312006417767
939500000.0 -0.32805508588220306 0.17242296667169035
946000000.0 -0.1985631194487774 0.28375724330824653
952500000.0 -0.2423201954134769 0.21062063561874367
959000000.0 -0.2764776070513876 0.11801877101897101
965500000.0 -0.25735457217628516 0.11493206243528284
972000000.0 0.19231344489112934 -0.18375175109973793
978500000.0 0.22810842985051435 0.11095489297992243
985000000.0 0.2018610891836577 0.12520086524459242
991500000.0 -0.03585173420979733 0.2208317820895937
998000000.0 -0.18798698976757 -0.09355157070828155
1004500000.0 0.11119059550024367 -0.1640455211284914
1011000000.0 0.03397749838363432 0.18364400929296004
1017500000.0 -0.17235552382945923 -0.019671600544486245
1024000000.0 0.07665933752545455 -0.13965479197987288
1030500000.0 0.1082004650412211 0.0952203663958394
1037000000.0 -0.008930452116802939 -0.1346442792468918
1043500000.0 -0.08479079521632715 -0.09236991891019174
1050000000.0 0.0713771345480456 -0.09652142102763511
1056500000.0 -0.09722962036455185 0.05544905422210845
1063000000.0 0.031727870567346494 -0.0989061467438141
1069500000.0 0.042124773192828605 -0.08510277202480757
1076000000.0 -0.07849238310371945 -0.04699350716541208
1082500000.0 0.0645044093350511 -0.05795642317462826
1089000000.0 -0.026908648698298933 -0.08399450278941627
1095500000.0 0.024250975313903193 -0.08629263162658882
1102000000.0 -0.07862240040194102 0.0581982966306104
1108500000.0 0.10638683253561493 0.01463507722099607
1115000000.0 -0.12294856130653778 0.008779894439709415
1121500000.0 0.013881187235754246 -0.14133106564172496
1128000000.0 0.1590662487576426 0.015459548667207897
1134500000.0 0.13853716480716508 0.10702969925258014
1141000000.0 -0.18136531494931485 0.057475482639118815
1147500000.0 -0.20375146516646198 -0.015159217957454615
1154000000.0 -0.05831064871096384 -0.20109833185344295
1160500000.0 0.20134926869818204 0.06661632284873999
1167000000.0 -0.2171403137912571 -0.0017900389265503754
1173500000.0 0.04662507069623185 0.21130077538347192
1180000000.0 0.21379880961411704 -0.06287001845242875
1186500000.0 -0.16289041646446079 -0.16026172937764346
1193000000.0 -0.15800611341637555 0.17989158055911916
1199500000.0 0.18655026883349066 -0.16821395824748092
1206000000.0 -0.24705348399065413 -0.09307897355756704
1212500000.0 0.2713566480303876 -0.05537422595730879
1219000000.0 -0.12202637370882534 0.26422137904809095
1225500000.0 0.04313069780678839 -0.2921605973674721
1232000000.0 -0.2851553044855466 0.1010411959670626
1238500000.0 0.018543126812968647 0.31021084858621073
1245000000.0 0.3152727026126255 0.009285438671696197
1251500000.0 0.01631142318348297 -0.3237272369634316
1258000000.0 -0.31894166562707055 -0.0850921703439538
1264500000.0 -0.3122502636489269 0.11674959061452303
1271000000.0 -0.048913616858199005 0.3379309673756221
1277500000.0 0.2531733749281212 0.23779408789530482
1284000000.0 0.31391527366284494 -0.15929967568792833
1290500000.0 -0.022519325300054415 -0.3533823648805377
1297000000.0 -0.3553517285220224 -0.03200451412275064
1303500000.0 -0.18333830055871986 0.3018521860902614
1310000000.0 0.1074275224228266 0.3342250008623071
1316500000.0 0.2763129053862679 -0.21632856842407205
1323000000.0 -0.12206078899049111 -0.32490650968453333
1329500000.0 -0.10792920991695379 0.3268473396511952
1336000000.0 0.24998908776671283 0.22269885341550336
1342500000.0 0.17629956028677174 -0.27994066816406316
1349000000.0 -0.31101996472264243 -0.1044318590178118
1355500000.0 -0.29252334194795193 0.14757460269929246
1362000000.0 0.2540508758255776 0.2100475508733914
1368500000.0 0.17017538518980077 -0.2908350260427158
1375000000.0 -0.26261930007585593 0.22402479528835573
1381500000.0 0.28800539850498197 -0.19820750077788737
1388000000.0 -0.3500594771027692 0.07117234864491023
1394500000.0 0.3053163287648697 0.19299026495522253
1401000000.0 0.35574958614001306 0.08272343844866833
1407500000.0 0.04912422251479876 -0.36685058274045096
1414000000.0 -0.3635979177246737 -0.08897880441284495
1420500000.0 -0.14527977488160151 0.34859025359426027
1427000000.0 -0.08756704142286152 0.36843750168651807
1433500000.0 0.007614016613936143 0.3837656638629151
1440000000.0 0.12561276199455207 0.363240821599775
1446500000.0 0.219880379630442 0.3201365511649975
1453000000.0 0.33644491927311565 0.19640330257632943
1459500000.0 0.3732982569503413 -0.09783242022592256
1466000000.0 0.08134458825642031 -0.3737673543215836
1472500000.0 -0.10043478377934417 -0.36001764498210487
1479000000.0 -0.3100377415799022 -0.18744515574800608
1485500000.0 -0.34764240705467686 -0.047342407855468845
1492000000.0 -0.29515624191217293 0.16781343574604515
1498500000.0 -0.05332305054025664 0.32110436076057414
1505000000.0 0.02621026588895663 0.3146469531504411
1511500000.0 0.2918419249777908 -0.0953240030774857
1518000000.0 -0.0008402435794942015 -0.29652789716819894
1524500000.0 -0.07774650712958908 0.27805611277928205
1531000000.0 0.25917543486196865 -0.10409027477723064
1537500000.0 -0.2728770505977498 0.030466143470287557
1544000000.0 0.25713805156332115 -0.07347881372072702
1550500000.0 -0.15738490708801123 0.21246403249355364
1557000000.0 0.13424474714234783 -0.21973945788164875
1563500000.0 -0.2440531109953446 -0.07454441372853654
1570000000.0 -0.2433492986894624 -0.08390116595049002
1576500000.0 0.0038940626513432864 0.2570947024103463
1583000000.0 0.26241051191951864 0.009984804476755172
1589500000.0 0.07492261408014121 -0.2507278808509116
1596000000.0 -0.18127111424189474 -0.1870835680075482
1602500000.0 -0.25746178006008663 -0.013659651578237434
1609000000.0 -0.12820342287423642 -0.22011424637459434
1615500000.0 -0.2124181408140936 -0.1288114265818054
1622000000.0 0.22189862124887813 -0.10589596140192266
1628500000.0 0.2425369540433147 -0.010872283000121675
1635000000.0 0.19353634855517654 0.1356428250267953
1641500000.0 0.07255084873584909 0.2198331205844684
1648000000.0 -0.03709326689426416 0.22195242152782318
1654500000.0 -0.15414219575925264 0.15309148499090958
1661000000.0 -0.03082773929782175 0.20571887046560464
1667500000.0 0.09546399247272291 0.17214009331043967
1674000000.0 0.17596274582540575 -0.045123891451716344
1680500000.0 0.16435803953953435 -0.023329141062216605
1687000000.0 0.04183059655410671 -0.14701798678781522
1693500000.0 -0.0841345047321619 -0.11291857939239203
1700000000.0 0.10020079563792367 0.08617546633775064
1706500000.0 -0.049062867517807314 -0.11378610517995917
1713000000.0 0.025474854326365867 -0.11476231320537715
1719500000.0 -0.029144232583344726 0.11159630417334178
1726000000.0 0.025924115623720816 0.10927092662354954
1732500000.0 -0.03054345607003893 0.10501030654387991
1739000000.0 -0.08358614874843484 0.07070840344709037
1745500000.0 0.016870297270599577 -0.10252830029525364
1752000000.0 0.058038287050519964 0.08399894176860467
1758500000.0 0.09164677066706468 0.03522410543372126
1765000000.0 0.03828682076025195 0.087967331122239
1771500000.0 -0.07629569054486848 -0.05548924259005212
1778000000.0 0.09285407367131605 -0.02215085034371754
1784500000.0 0.035613101533845504 0.09300668108776071
1791000000.0 -0.034898353938209684 -0.0964186745479446
1797500000.0 0.10554873795771638 -0.011208865284585612
1804000000.0 0.08895104337375255 -0.05977307792418441
1810500000.0 0.0045410663932841 -0.10642772619723681
1817000000.0 0.030893286117250705 -0.09338819575955566
1823500000.0 -0.09037754426537545 0.00012722834374299228
1830000000.0 0.012655285297912076 -0.07591450393074625
1836500000.0 0.05021726187685689 0.04774365449064146
1843000000.0 0.04232084106997303 0.03448182289881752
1849500000.0 0.022296743876229968 -0.04137327706668113
1856000000.0 -0.03153474472266307 0.024251778511996728
1862500000.0 -0.005965229242427737 0.03307984831723842
1869000000.0 0.02863496843610008 0.008860322784205328
1875500000.0 0.022462133584237553 -0.017012778312069172
1882000000.0 -0.0039807637720769545 0.020860627168886568
1888500000.0 0.017108240142859877 -0.01569462916045065
1895000000.0 -0.015083009249202363 -0.02173082609689585
1901500000.0 0.021779493345631853 -0.020517636127993275
1908000000.0 -0.015635383492049428 0.022948226075195026
1914500000.0 0.0065267518328875175 0.028490023746996215
1921000000.0 -0.020241121885013327 0.01641507272104404
1927500000.0 -0.023261386184621053 0.001841784746719121
1934000000.0 0.00595301586095463 0.020358657487531472
1940500000.0 0.010496933461459492 0.013615393470600277
1947000000.0 -0.01635276310425803 0.0068299297004417
1953500000.0 -0.01954225381888401 0.0023178189999097294
1960000000.0 0.0040839587017967435 0.02089795211683275
1966500000.0 0.03428098305849009 -0.003481702906586484
1973000000.0 -0.04365682465694959 -0.017857650430434843
1979500000.0 0.026077753787185878 0.05411932373016182
1986000000.0 -0.07589991990962203 -5.167180082846804e-05
1992500000.0 0.056882886936188336 0.06418006354707513
1999000000.0 0.024773085279612236 -0.09230575902457014
2005500000.0 -0.037686726809146955 -0.09665432144847245
2012000000.0 0.017824023044066852 -0.10888332336037214
2018500000.0 0.09588728620593004 0.06454619792616433
2025000000.0 -0.10892610196513111 0.05478108415141198
2031500000.0 0.027335663622187686 -0.12172483554376716
2038000000.0 0.10496358383391353 0.07421592720049099
2044500000.0 -0.1280654151606839 0.037460478653874994
2051000000.0 -0.09450534987140109 -0.09882700930050056
2057500000.0 -0.0952741758884207 -0.09706105063699162
2064000000.0 -0.10534437940129443 -0.08629162538561468
2070500000.0 -0.1227172385756995 -0.052362136047189936
2077000000.0 -0.060301506490224456 0.1103324111353211
2083500000.0 0.10852027154691402 0.05084772856975272
2090000000.0 0.026688912418470285 -0.11091896566078378
2096500000.0 -0.0985048313799207 0.04841669693395546
2103000000.0 -0.03707032814209988 -0.09808820311181687
2109500000.0 0.08281609941295102 -0.06436035649246878
2116000000.0 -0.0884281537432878 -0.06024596821621956
2122500000.0 -0.10626055860685187 0.031769026812004136
2129000000.0 0.05586891514431547 0.10575096100370386
2135500000.0 0.061119252143701126 0.11083446833229259
2142000000.0 -0.09784057181676664 0.09825896931067914
2148500000.0 0.127291698041375 0.08282289203732546
2155000000.0 -0.15675339513206674 -0.0628370723558377
2161500000.0 0.13733485568141657 0.12234030576868131
2168000000.0 -0.07480592648575332 -0.18792502819443063
2174500000.0 -0.21330877753767155 0.03271506739287384
2181000000.0 -0.08303031013603819 0.21239195201076774
2187500000.0 0.2384296414811507 0.0251948373874263
2194000000.0 0.2386660577261957 -0.06597224185296585
2200500000.0 0.21060624460994093 -0.14443574679248222
2207000000.0 0.04946328084679965 -0.25078101584411516
2213500000.0 0.19523732882961042 -0.16323528559938516
2220000000.0 0.24816934687262387 -0.05308600329893206
2226500000.0 0.16672295893248737 0.183899942351677
2233000000.0 -0.07779514154135085 0.2324861525729526
2239500000.0 -0.24044941954715235 0.03907623057581264
2246000000.0 -0.23783734418884206 -0.00441240049374269
2252500000.0 -0.22796092646672952 0.030551086434238227
2259000000.0 -0.1690929891015284 0.14795509121403194
2265500000.0 0.07863570663462748 0.20216631911243652
2272000000.0 0.20712123627008983 -0.016209220790618022
2278500000.0 -0.19502554780252646 0.02695956080891269
2285000000.0 0.09682104003103105 0.1587605968923272
2291500000.0 -0.09617948646217947 -0.1464076233357847
2298000000.0 -0.14018168684047505 0.0861519628671116
2304500000.0 0.14157790119383526 -0.0751795519860432
2311000000.0 -0.10460788006506068 -0.11299182201188519
2317500000.0 -0.12412041325651604 -0.08982589424565932
2324000000.0 0.11147976721884383 0.10656729825169914
2330500000.0 -0.15344591914716285 -0.01672985682987583
2337000000.0 0.04882929141906318 0.14736767764366832
2343500000.0 -0.021255851555162485 -0.15556129886585185
2350000000.0 -0.1509673304036011 0.0435324811908471
2356500000.0 -0.08371860322336569 0.13413678512421856
2363000000.0 -0.03197131485933825 0.1578036818209851
2369500000.0 0.1571628280657482 0.03294715018946362
2376000000.0 0.10325130564955895 0.12292062900018265
2382500000.0 0.10179942420665257 0.12432845888829953
2389000000.0 0.0017505715498841573 0.16244380049386473
2395500000.0 -0.07622680338085794 0.14295728831335547
2402000000.0 -0.14063350419849885 0.08269500736842449
2408500000.0 -0.09924462179195943 0.13018007496764783
2415000000.0 0.06221761271895634 0.1495275045979918
2421500000.0 0.014754781418107779 0.15859034796217716
2428000000.0 0.07376746118936574 0.13681825134856995
2434500000.0 0.09668833120482999 0.11696879326052717
2441000000.0 0.11963640896011185 0.09207435329450066
2447500000.0 0.14405693043936188 0.03535161139663216
2454000000.0 0.10576466173412848 -0.10472021414032086
2460500000.0 0.1164786623813065 -0.09279476788651878
2467000000.0 0.033683357592645485 -0.14513506197161724
2473500000.0 -0.059995266535096646 -0.13426618190879971
2480000000.0 -0.02857912601452059 -0.14496832726549716
2486500000.0 0.04396333754655926 -0.14228430104634346
2493000000.0 0.1134719905240278 0.09996304328443706
2499500000.0 -0.006766584039862417 0.15122803566585774
2506000000.0 -0.12345369820538192 0.09372419401465651
2512500000.0 0.0788374927469944 -0.1339484675790327
2519000000.0 0.011971653989160207 0.15936670213879722
2525500000.0 -0.10884021989732576 -0.12215656843884193
2532000000.0 0.16734269529396958 0.019651940150700258
2538500000.0 -0.1624675599934248 0.048669342702898195
2545000000.0 0.04081901688156805 -0.1671171481195598
2551500000.0 -0.004398051063273559 0.17031742391147103
2558000000.0 0.1519461424853631 -0.07852025372020252
2564500000.0 -0.15373948839196758 0.0709848215753967
2571000000.0 0.16689502244432985 0.012957543967866548
2577500000.0 -0.08894802325277187 -0.13825801768125223
2584000000.0 -0.11266989580423373 0.11516026871895704
2590500000.0 0.13382366167689158 0.08451445392487081
2597000000.0 -0.07696256426587227 -0.13338277773779167
2603500000.0 -0.0967713154349134 0.11536329618012409
2610000000.0 0.1422775818589469 -0.024764363426999548
2616500000.0 -0.133150728413408 -0.04478172613597311
2623000000.0 0.0904961675458716 0.09802988321873855
2629500000.0 -0.0037038389246293137 -0.1272961406959119
2636000000.0 0.08289145886177306 0.08625046281041197
2642500000.0 -0.08961576030865898 -0.0664996773507141
2649000000.0 0.08682129773056017 -0.05970459951699481
2655500000.0 0.0754777414579948 0.062495156028605385
2662000000.0 0.08382198942762335 -0.039414905183114364
2668500000.0 -0.08257346722751621 -0.03168867591896451
2675000000.0 0.0836959404219166 0.002762181600620266
2681500000.0 0.07311971172784261 -0.03124611055077274
2688000000.0 0.07371391120025049 0.029644233378621054
2694500000.0 0.07548664912988894 -0.030391920061360527
2701000000.0 -0.08387316497629742 -0.0012264131560498278
2707500000.0 0.0067056586810399065 -0.09387675759424416
2714000000.0 -0.07134626443561194 0.07409407831380393
2720500000.0 0.1053956230838178 0.050701582395001284
2727000000.0 0.05444647191577357 -0.11793794693410982
2733500000.0 0.012226696857663304 -0.14321554189266783
2740000000.0 -0.07529011074514562 -0.13922974723779355
2746500000.0 -0.07642535108137431 -0.15186447476577222
2753000000.0 0.07034538694623921 -0.16763687056363366
2759500000.0 0.1893996520991724 0.0074311137379162685
2766000000.0 -0.1829036453901056 0.07425527680629092
2772500000.0 0.1446979087644082 -0.1474629258162952
2779000000.0 -0.21060580623460443 0.05194819558713674
2785500000.0 0.1229441833149121 -0.19138218947377417
2792000000.0 -0.028936661928078068 0.23551091339797034
2798500000.0 -0.22990348258940427 -0.09163875729005834
2805000000.0 0.13535516827832908 -0.21408924257734213
2811500000.0 0.20050148496106387 0.16636155869187597
