!Created with skrf (http://scikit-rf.org).
# Hz S RI R 50.0 
!freq ReS11 ImS11
400000000.0 -0.7116562891913614 0.1082996474747511
406500000.0 -0.29637413432266235 -0.6354360573545241
413000000.0 0.6770066976123678 0.03313315688242381
419500000.0 -0.6665763150015289 0.00805225581571032
426000000.0 0.24413427028898618 0.610179290990158
432500000.0 -0.4651118936538581 -0.45085657815561014
439000000.0 0.6304764193385617 0.07799215937478905
445500000.0 -0.620967530038439 0.08172464422791952
452000000.0 0.5293013932474726 -0.3210090687496481
458500000.0 -0.1411122520941965 0.6057601489698642
465000000.0 -0.5238723214290097 -0.3350044800040326
471500000.0 -0.2860014262910925 -0.5498806779762466
478000000.0 -0.11239277831806672 -0.6013061181574054
484500000.0 0.1837401076340409 -0.5757495134922774
491000000.0 0.039200806354242515 -0.5893913998876457
497500000.0 -0.3128964494714531 -0.476546782852184
504000000.0 -0.3852826749538538 0.3776543823363856
510500000.0 0.067700481298338 0.49616006709655697
517000000.0 0.4244902970533399 0.17272428645847046
523500000.0 0.11110606880009243 0.414337953231868
530000000.0 -0.12903437813530771 0.3714252541357186
536500000.0 0.2079060955665863 0.29453071182135804
543000000.0 0.2882421520008476 0.19457243795572132
549500000.0 0.31229481883444304 0.1121186231147279
556000000.0 -0.012373662796617372 -0.30611031395504995
562500000.0 0.1644329713496482 -0.23856760572150196
569000000.0 -0.16089586797230962 -0.21971859531531737
575500000.0 0.26110642723216254 0.019120039918880227
582000000.0 0.04104360721740029 -0.25454168627254603
588500000.0 0.23827881058336092 0.11883402646450614
595000000.0 -0.058935606105637944 -0.27969963209595033
601500000.0 0.05139485098841605 -0.28770939677686896
608000000.0 0.1931415027440887 -0.2221954342295678
614500000.0 0.022824581384640063 -0.29948173292836305
621000000.0 -0.05233615156135692 -0.29447141372108426
627500000.0 0.2956281815296092 0.021968138787110358
634000000.0 -0.06980720484611111 0.29408220764683624
640500000.0 -0.2907359240231267 0.025090334008735216
647000000.0 0.2950237734996396 0.04925272209806052
653500000.0 0.18998842048649892 0.23205580623620328
660000000.0 -0.290609976137021 -0.07244073338343356
666500000.0 0.14987375599604139 -0.2600660596249187
673000000.0 0.1126327563136455 0.2737653553467491
679500000.0 0.2917420135967603 -0.08560749361065169
686000000.0 0.27135652381041475 -0.12001101094280635
692500000.0 -0.290709812034676 -0.046863631643509415
699000000.0 0.2151396601911666 -0.19269092123805145
705500000.0 -0.2878139938091487 0.04502408907337873
712000000.0 0.2924202276707426 -0.016140529153817886
718500000.0 0.10866098706291319 -0.2780319424886959
725000000.0 0.0019364894116198942 0.31179802329886724
731500000.0 0.06980114717273193 -0.3107385885750276
738000000.0 0.18141534597189618 0.27721059062638753
744500000.0 -0.3281826739302349 -0.015203788034735627
751000000.0 0.2504963122154649 0.21528305046428847
757500000.0 -0.1551133313352304 -0.30152445451981535
764000000.0 -0.2275516486645824 0.26420648246820594
770500000.0 -0.1709752525329602 -0.31227754495828
777000000.0 -0.13595736254281143 0.3369825172997167
783500000.0 -0.08435964743281436 -0.35092757735035335
790000000.0 -0.10015199454618125 0.35306659679974123
796500000.0 0.01819047937345101 -0.36951588168706406
803000000.0 -0.34780706680243584 0.1039530142840478
809500000.0 0.2694257031609439 0.24252978540862058
816000000.0 0.24250713056265827 -0.2667078235935869
822500000.0 -0.01919890258717793 -0.36941058447354624
829000000.0 -0.3381576322072326 0.17565639569789884
835500000.0 -0.3928897167276403 0.018844564425051582
842000000.0 0.40680547642660536 0.06169856316305986
848500000.0 -0.2750301034594749 -0.3087428019357045
855000000.0 0.20701561230281887 0.3706596298895863
861500000.0 0.10913790992962474 -0.4127271071085891
868000000.0 -0.25843617814689274 0.34893509188806554
874500000.0 0.36487487916848654 -0.2377557017219728
881000000.0 -0.2764409241418101 0.3477797722016296
887500000.0 0.09019112742937517 -0.43873134040167483
894000000.0 0.12727984197351377 0.4270810387194567
900500000.0 -0.4170626804984223 0.13702448659198138
907000000.0 -0.22272457335252893 -0.36672986159100085
913500000.0 0.40977742568834186 0.03520198495893264
920000000.0 -0.14122626275985647 0.374717624786683
926500000.0 -0.38516510186681024 -0.007979917214479963
933000000.0 -0.09776505015100785 -0.35954232230744954
939500000.0 -0.06450182941623996 -0.3558064499035465
946000000.0 -0.1007950175551171 -0.3266657412042395
952500000.0 -0.03353151699191725 -0.3187033013948599
959000000.0 -0.08480426634856345 -0.28850632222264916
965500000.0 -0.10399830328160077 -0.26302119520804823
972000000.0 0.15281986160237038 0.21957984113297008
978500000.0 -0.13330062951225263 0.2188981597525414
985000000.0 -0.18434634341763625 0.15388154523068198
991500000.0 -0.22061789177051885 -0.05707774517157734
998000000.0 0.05590180979896325 -0.20745187942044616
1004500000.0 0.19165039770639627 0.06836664812463941
1011000000.0 -0.1699353116340856 0.09040228111036404
1017500000.0 -0.060095362552788224 -0.17122780130315954
1024000000.0 0.14729391237462955 -0.07621674428544586
1030500000.0 0.12226588697207362 0.08985308509711028
1037000000.0 -0.051777338048133524 -0.12935554068242597
1043500000.0 -0.06477368587968553 -0.1125100254478104
1050000000.0 0.12075552999384487 -0.027017106843240962
1056500000.0 -0.0979377634631656 -0.06413356482280007
1063000000.0 0.09888426516898675 0.04991136535206278
1069500000.0 0.10391172249725723 0.002247300323536334
1076000000.0 0.01257877535029951 -0.10136958946337554
1082500000.0 0.032581492084547733 -0.09346037988539561
1089000000.0 -0.08340873508257815 -0.055644510881143944
1095500000.0 0.08114487072941612 0.05880901231869285
1102000000.0 -0.10582849579116499 -0.007958143692024182
1108500000.0 0.07662374780176447 -0.08056938509252537
1115000000.0 -0.0944130461774538 -0.07388927215597
1121500000.0 -0.005245257269328096 0.13548084706373517
1128000000.0 -0.0474163492534693 -0.14334049071911278
1134500000.0 0.030596117160351505 0.1626653910822148
1141000000.0 -0.0903765824865196 -0.16034357996529908
1147500000.0 0.11392242983143701 -0.16680144015161383
1154000000.0 0.19262152782889588 0.08862562555863464
1160500000.0 0.01722722550719072 0.21950967337885888
1167000000.0 -0.22068977801437753 -0.04962371516008716
1173500000.0 0.22612781432868817 -0.0033597158806963844
1180000000.0 -0.22365963380639087 -0.04747521761140853
1186500000.0 0.088123498749151 0.21041527525624704
1193000000.0 0.20933924609889593 -0.10748281166226022
1199500000.0 -0.2365311200296582 -0.052375217417556796
1206000000.0 -0.22265520591990964 0.11709271111223828
1212500000.0 0.2650637199363156 -0.02615757516375973
1219000000.0 -0.27944797628503054 0.036925055089869756
1225500000.0 0.28909295092610143 -0.0065570659908801175
1232000000.0 -0.2059711528974912 -0.21827315466383262
1238500000.0 -0.23520783155429048 0.20098687067400528
1245000000.0 0.21269575792935783 0.23372134342984513
1251500000.0 0.2047463798278553 -0.2523383530997693
1258000000.0 -0.20957377521771073 -0.25510478017637256
1264500000.0 -0.32832238516206275 -0.06340899292918978
1271000000.0 -0.1299979895602945 0.31709558586228737
1277500000.0 0.15440550920105892 0.310606398932291
1284000000.0 0.35192428354787525 -0.01371716688541215
1290500000.0 0.21256141040770643 -0.28289451760709045
1297000000.0 -0.12627260961582348 -0.3366233280871201
1303500000.0 -0.3575608747815113 0.019102349041635755
1310000000.0 -0.12524864987051887 0.3348979922039753
1316500000.0 0.35900322388007644 0.01663744714335564
1323000000.0 -0.012258523902363448 -0.35757639970942723
1329500000.0 -0.05068075749781373 0.3509963957927421
1336000000.0 0.33376180267107236 -0.09307959209704748
1342500000.0 -0.3285629829239413 -0.09394862019225314
1349000000.0 0.16327045309601051 0.2907039172799339
1355500000.0 0.3180409926366365 -0.08521418884691714
1362000000.0 -0.221189653564654 -0.23766314053131313
1368500000.0 -0.3242257339242378 -0.015457154296941208
1375000000.0 0.06059701242391529 0.3266236399215423
1381500000.0 0.24966896579012848 -0.22504073713914216
1388000000.0 -0.33508892891329406 -0.08295411600925666
1394500000.0 0.1423483870765787 0.3227381008102661
1401000000.0 0.14829508524452648 0.3278123051468078
1407500000.0 0.317190748794196 -0.18249861573225293
1414000000.0 -0.17884296231911642 -0.3275862734931767
1420500000.0 -0.28640708591789804 0.24752815362297087
1427000000.0 -0.16193104183854753 0.34269064302037805
1433500000.0 0.06339701179022307 0.3779749000948228
1440000000.0 0.12713749113497025 0.35831490437611435
1446500000.0 0.06764196424565111 0.37904579067331556
1453000000.0 0.22107371324662098 0.31497213556759357
1459500000.0 0.24565920980913383 0.29437498219052544
1466000000.0 0.3791671235873668 -0.04425656976522593
1472500000.0 0.3252569270289127 -0.18895515532770318
1479000000.0 0.03371374222483111 -0.36623375797674984
1485500000.0 -0.23549083107018384 -0.2714995659105705
1492000000.0 -0.32127554844119754 0.13291833189629645
1498500000.0 0.042230894348487834 0.3311095306568433
1505000000.0 0.2830785593291069 0.1525060099490662
1511500000.0 0.09588796265018508 -0.29470250023317296
1518000000.0 -0.2224319444908347 -0.19888355196809904
1524500000.0 0.22725050179054584 0.17923111724705146
1531000000.0 0.15830626070592166 -0.2274212037771889
1537500000.0 -0.23310341920370545 0.14370822597125696
1544000000.0 0.25804228930430984 -0.05893786536548105
1550500000.0 -0.1550986062767781 0.2153770750640778
1557000000.0 0.07793339918541607 -0.24609825753415174
1563500000.0 -0.24702567455979751 0.06404564017011394
1570000000.0 -0.2541857869982525 -0.0034216188164914044
1576500000.0 0.011333805932967 0.25623713301436485
1583000000.0 0.23484268557617283 0.11418442195976376
1589500000.0 0.20132107517271136 -0.1700247898753573
1596000000.0 -0.18510709576226345 -0.18550197806739285
1602500000.0 -0.259038743487788 0.030224898138186754
1609000000.0 -0.25249536947826473 0.04325152643596128
1615500000.0 -0.19793740219586523 0.14917278163612424
1622000000.0 0.0030075386723401546 -0.24183215147934237
1628500000.0 0.1266827991815654 -0.2001223781449435
1635000000.0 0.22138316585489193 0.06415955171501812
1641500000.0 0.023854457800492605 0.22267757950828065
1648000000.0 -0.2188793138082308 0.006895603363829719
1654500000.0 -0.02141119788776772 -0.21194428837782525
1661000000.0 -0.11885787766247176 -0.172534513150934
1667500000.0 -0.1993340119677616 0.031009599742375386
1674000000.0 0.11519956156891965 0.1508237235995348
1680500000.0 0.15787639999653105 -0.06744502967638781
1687000000.0 -0.08307380712746339 -0.13521015106865297
1693500000.0 -0.05474566034341018 0.13065982592292338
1700000000.0 0.09042406450980772 -0.09798398206086452
1706500000.0 -0.07550517667651142 0.0943668659355793
1713000000.0 -0.008375606412992372 -0.11351406310886679
1719500000.0 -0.0767731722511524 0.07904955740573295
1726000000.0 -0.0774282201474782 -0.07636885560557409
1732500000.0 0.008283945529225538 -0.10642182301899616
1739000000.0 0.08888186260219012 0.06259717178868505
1745500000.0 -0.09583458791666313 0.04628546106698316
1752000000.0 0.026842404265381203 -0.10481036256379901
1758500000.0 -0.07601279321130762 0.07521763369570772
1765000000.0 0.08140856571997204 0.06862552631367101
1771500000.0 0.09720245735232441 0.035552687790860495
1778000000.0 0.04795641623730412 0.08951930556289425
1784500000.0 -0.014759944692719039 0.10042214203811739
1791000000.0 -0.035418122303282125 -0.09356305024875226
1797500000.0 -0.09184498530353642 0.037307758332244326
1804000000.0 -0.050579135236591244 -0.0852598688197879
1810500000.0 0.09900261485120421 0.008170074926085331
1817000000.0 0.07471367695579086 0.06098849209896979
1823500000.0 0.06408377249526538 -0.06448367180873939
1830000000.0 0.026255611487517087 -0.07680063472024329
1836500000.0 0.030539164580271796 -0.06522500279952019
1843000000.0 0.04217435501876755 0.037405311276523426
1849500000.0 -0.043883315396036134 0.0010341414633044824
1856000000.0 0.03106789541694403 -0.008595438031031088
1862500000.0 -0.01986327434049239 0.010177121175293315
1869000000.0 -0.0018367891033680447 -0.01994465175695245
1875500000.0 -0.007170285404293923 -0.017564250877308146
1882000000.0 -0.01337847169255071 0.005623815898834397
1888500000.0 0.012834503942556228 -0.007095272260052414
1895000000.0 6.41505313960392e-05 0.017614707680840894
1901500000.0 0.015229919775958538 -0.014854634406892431
1908000000.0 0.017649854687537422 0.013519487236506162
1914500000.0 -0.015919618319542174 0.019199651746761845
1921000000.0 -0.024459410376185833 0.00708377751124869
1927500000.0 0.007342066085059814 0.022483518359339198
1934000000.0 0.014125341473872084 -0.018168965265089033
1940500000.0 0.01836994256397785 -0.004314860524531553
1947000000.0 0.018458133786233427 0.008665695018559424
1953500000.0 -0.0004818585689904045 -0.023469642481531817
1960000000.0 0.010814559429613456 -0.019865187413755453
1966500000.0 -0.02248877154245681 0.02373074863303551
1973000000.0 -0.031833919845816655 -0.024800985194136805
1979500000.0 -0.009220123197825692 -0.05072357205656715
1986000000.0 -0.02184011839339545 -0.06191923741446535
1992500000.0 -0.0750975182194905 0.01605594061961901
1999000000.0 -0.07109199874466088 -0.05246488540338723
2005500000.0 -0.098974947913878 0.009544379250821881
2012000000.0 -0.0796361080537293 -0.07594823403638497
2018500000.0 -0.0011375189555806854 -0.11807134228572029
2025000000.0 0.10049268995683015 -0.08046011214424406
2031500000.0 0.12788245545834745 0.03134223653364599
2038000000.0 0.07310008274175568 0.11486433326243242
2044500000.0 -0.12835290628855756 0.051969436071102236
2051000000.0 -0.1303991726519636 -0.05676283902813236
2057500000.0 -0.13915662149459404 -0.016350829086895387
2064000000.0 -0.1409668174032995 -0.0031025316034688105
2070500000.0 -0.13070379978724156 0.03837492902576282
2077000000.0 0.08910300264787956 0.0945200505672771
2083500000.0 0.0974003593905291 -0.07392144509459554
2090000000.0 -0.11641861779490802 0.01239415168672167
2096500000.0 0.050518607747599545 0.09704656062167481
2103000000.0 -0.10123338490247044 0.03256566029986428
2109500000.0 -0.02863485333148311 -0.10029591397364507
2116000000.0 -0.10749921555015672 0.008275920917432065
2122500000.0 -0.030762138601001358 0.10724007585371333
2129000000.0 0.12055481585808835 0.02247283616256041
2135500000.0 0.06564737671754042 -0.11181357846546774
2142000000.0 -0.04519759006454963 0.1345081559402868
2148500000.0 -0.1420089749318837 -0.0575362738580957
2155000000.0 0.13817082060824598 0.09455616631450495
2161500000.0 -0.07506498355830644 -0.1626416808958185
2168000000.0 -0.14294885447546984 0.1325072556347408
2174500000.0 -0.10177972661930222 0.17933723016037348
2181000000.0 -0.026111063328265238 0.21695025656661243
2187500000.0 0.03918008570714575 0.22801777800537643
2194000000.0 0.055767204388216814 0.23683650420967778
2200500000.0 0.04351134469510385 0.24982585190184714
2207000000.0 0.2510543259321404 0.06108742988517517
2213500000.0 0.23247084353090208 0.1167101317755241
2220000000.0 0.25816864105820453 0.02703427137277222
2226500000.0 0.20400259452659195 0.14927835663514058
2233000000.0 0.18653177936478135 0.16329145511437163
2239500000.0 -0.15611830539522634 0.18487948470366655
2246000000.0 -0.19570630565447525 0.12896593142048474
2252500000.0 -0.224584773752951 0.004111151428369765
2259000000.0 -0.21325357734880923 -0.05368355903147622
2265500000.0 -0.20278093248790754 0.06707844880749034
2272000000.0 -0.07715474544477618 0.19199716258323685
2278500000.0 0.11866297995532939 -0.1623736723290918
2285000000.0 -0.11036618678414585 0.15776006876799514
2291500000.0 0.014707051645161876 -0.18227250612602458
2298000000.0 0.009729246452206455 0.17170726562592167
2304500000.0 -0.10998066452582642 -0.12654074979694638
2311000000.0 -0.15455788413733598 0.010220456362357721
2317500000.0 -0.023647359819407226 0.152891161580006
2324000000.0 -0.04870219927929059 -0.1432547733318794
2330500000.0 -0.1377168991428636 0.06407387247807991
2337000000.0 0.128350481081169 0.08182172036693751
2343500000.0 0.05754729105064749 -0.1438903338601313
2350000000.0 -0.15532158670182958 0.01135572911249662
2356500000.0 -0.14330230822749768 0.06900176763840371
2363000000.0 -0.020973472525111954 0.16004335770128852
2369500000.0 0.15392243987632667 0.05219022400903235
2376000000.0 0.16189518211770554 -0.013278972585962485
2382500000.0 0.1545139894749043 -0.041609661884806845
2389000000.0 0.1406407790303009 0.0757507037397175
2395500000.0 -0.0007503620427395972 0.1587508317071068
2402000000.0 -0.15383202052924144 0.0378826846194003
2408500000.0 -0.15435806682234762 0.04159444294152224
2415000000.0 -0.13506689849403747 0.0852232890094812
2421500000.0 -0.1467712167242585 0.05824060939272958
2428000000.0 -0.06650434862711563 0.14071888106222774
2434500000.0 0.009911765878277533 0.15185055620320037
2441000000.0 -0.005166133860534342 0.15165543827176417
2447500000.0 0.13603407607558687 0.061669327194363556
2454000000.0 0.14347560456819414 -0.03823423183131357
2460500000.0 0.13891103821074105 -0.05022714051845671
2467000000.0 0.14461711824320578 -0.029174558963152155
2473500000.0 0.13179060500841633 -0.06739690399115557
2480000000.0 0.14901903150283985 0.011921354172343822
2486500000.0 0.15336755191075357 -0.024992191296150674
2493000000.0 0.02474034536641734 0.15346264638652563
2499500000.0 0.06029068470696201 0.14531407552252917
2506000000.0 0.08947077898628071 0.13223208711233647
2512500000.0 -0.07725104936470319 -0.13902009638466223
2519000000.0 0.16085985429053673 -0.017259950029479654
2525500000.0 -0.13176468985903877 0.09873965008541062
2532000000.0 0.0721424192233633 -0.15192386605282696
2538500000.0 -0.05476089438273766 0.15928428265377945
2545000000.0 -0.08561898601657876 -0.14728524252691527
2551500000.0 0.09204797561824173 0.14175829800663697
2558000000.0 0.08887798685936087 -0.14374505962000186
2564500000.0 -0.05762734109196763 0.15611026049644836
2571000000.0 0.15529955198842635 -0.055240057639240524
2577500000.0 -0.14561784700228 -0.06262785554524436
2584000000.0 -0.15456630633715754 -0.02413784554824221
2590500000.0 -0.025247532481381736 0.15058282654321575
2597000000.0 0.15174238513808583 0.014453368865572481
2603500000.0 0.027491019577563683 -0.14673443226001814
2610000000.0 -0.026926711910980106 0.14610456772710165
2616500000.0 0.016873984238661294 -0.14243561837675348
2623000000.0 0.05326750389600268 0.12826382695422794
2629500000.0 -0.09024095340662541 -0.09343928873380966
2636000000.0 0.12183349938937141 -0.00965766642359488
2642500000.0 -0.10796652752480415 0.030796363342824883
2649000000.0 -0.09225356489593971 -0.050222881811754314
2655500000.0 0.0901345149648571 0.03227228240173771
2662000000.0 0.058146283914431524 -0.06941804656589218
2668500000.0 0.038994206035079075 -0.07703605484589482
2675000000.0 -0.013685496767980351 0.0831328592515322
2681500000.0 -0.06615461968387555 0.04951268015122657
2688000000.0 -0.0071318225044776145 0.08294443857035542
2694500000.0 0.0764762043090997 0.04012720126294069
2701000000.0 -0.044359506509362594 0.07726248477486533
2707500000.0 -0.09660402628864796 -0.014687902101907208
2714000000.0 0.10547016949646482 0.004287047774724579
2720500000.0 0.02719413886451224 -0.11360877422130107
2727000000.0 -0.12696855895467832 -0.018298904889262134
2733500000.0 -0.021855745583533936 -0.1392586824144324
2740000000.0 -0.0935100158336225 -0.12455897159649848
2746500000.0 0.09437526785883793 -0.138308861014747
2753000000.0 0.18207826600479993 0.01145638274033842
2759500000.0 0.12499039757190554 0.1467131974923519
2766000000.0 -0.17847697238981583 0.09500307805753312
2772500000.0 -0.07197584944890102 -0.19834036703122732
2779000000.0 0.0901194466728345 0.19885065906851696
2785500000.0 -0.19841710598743656 -0.1060097701432178
2792000000.0 0.20781406128786173 0.10426793782434789
2798500000.0 -0.2097878508028074 0.11669126569079849
2805000000.0 0.19584841900780167 -0.14806793403280297
