!Created with skrf (http://scikit-rf.org).
# Hz S RI R 50.0 
!freq ReS11 ImS11
400000000.0 -0.7097058318190798 0.1184627807901379
406500000.0 -0.34817719150854987 -0.6086383874629384
413000000.0 0.6773155686256359 0.022503811786206113
419500000.0 -0.6663841227041152 0.014495384285932573
426000000.0 0.2843817425714893 0.5924900311945319
432500000.0 -0.4641740622694882 -0.45184878378793697
439000000.0 0.6288230242494011 0.09069027786952572
445500000.0 -0.6199674174023116 0.08948754971130306
452000000.0 0.5310688738132365 -0.318143139429659
458500000.0 -0.1345413701509051 0.6071927160558198
465000000.0 -0.5396152154974729 -0.30884408154256804
471500000.0 -0.3181662153134517 -0.5317938159794691
478000000.0 -0.12363289436739652 -0.5988459904526622
484500000.0 0.24209311085520518 -0.5540033725757816
491000000.0 0.044269603414727125 -0.5889534869234118
497500000.0 -0.3221435845855957 -0.47052394420482996
504000000.0 -0.3930962401720926 0.3694517931550372
510500000.0 0.05166872359689165 0.4980795531834693
517000000.0 0.42679352293634776 0.16718924426947218
523500000.0 0.11893437645428856 0.41213425895277467
530000000.0 -0.16020909789346754 0.35923397738643853
536500000.0 0.23307837124620764 0.2748401098781981
543000000.0 0.291619557362288 0.18977605885054075
549500000.0 0.3149826162727152 0.10400215115394333
556000000.0 -0.014037522574115547 -0.30611902902537086
562500000.0 0.16478676626635738 -0.23848290002287537
569000000.0 -0.14636910700121833 -0.22966925894173876
575500000.0 0.26162107776573706 0.006096201815829322
582000000.0 0.04634253754019994 -0.2536876214352609
588500000.0 0.24213150434188524 0.110207521195549
595000000.0 -0.07618495475157659 -0.27541703368378095
601500000.0 0.04578822394567642 -0.2886925333688888
608000000.0 0.1831311939195123 -0.23032328499583699
614500000.0 -0.000322070512900648 -0.30031226312927267
621000000.0 -0.05986534908948396 -0.2929503281817319
627500000.0 0.29352541022810064 0.04106285805576868
634000000.0 -0.03729029982494324 0.2999344184544895
640500000.0 -0.2888560774631418 0.041339394660378496
647000000.0 0.2954015888089726 0.04651116955591994
653500000.0 0.18377345373957696 0.23695054388602121
660000000.0 -0.2884406944808142 -0.08127188080789376
666500000.0 0.14734892454557885 -0.2615207851187884
673000000.0 0.10271374394956352 0.2776286474303901
679500000.0 0.29389799091717905 -0.07860368778325048
686000000.0 0.2687607589767186 -0.12514286691400903
692500000.0 -0.29385461574567306 -0.015836610079013807
699000000.0 0.21173838330243525 -0.196610771544162
705500000.0 -0.2878016785516347 0.04602212380825663
712000000.0 0.29231416872286153 -0.02040193517489038
718500000.0 0.11676093052496875 -0.27495619927220083
725000000.0 -0.0035266903772764777 0.3117832686328363
731500000.0 0.07110523716718724 -0.3104408369620376
738000000.0 0.18274163103553687 0.2763124552111118
744500000.0 -0.32829816549789603 -0.0006227272807380066
751000000.0 0.25412658958862067 0.21091544716085486
757500000.0 -0.17256739282057554 -0.2918205570015498
764000000.0 -0.2312128874942814 0.2609811152058227
770500000.0 -0.16968738161148306 -0.31286297645005046
777000000.0 -0.14513820473803044 0.3331213084402767
783500000.0 -0.09693838585165043 -0.34762941072259074
790000000.0 -0.10711874305883962 0.35102120545599247
796500000.0 0.022292222426814223 -0.36929824827316377
803000000.0 -0.3346456787130688 0.14096385840259473
809500000.0 0.2861093680305933 0.2225281402521788
816000000.0 0.23198331571177072 -0.2759139947236292
822500000.0 -0.02751720091947398 -0.36909524762919194
829000000.0 -0.3422312165942273 0.16783912586800348
835500000.0 -0.3933523205488844 0.0029119570703405517
842000000.0 0.40815029467062225 0.05134899746581822
848500000.0 -0.26966408769422145 -0.3135362042260764
855000000.0 0.18958953262338668 0.3797950535190184
861500000.0 0.1326139323280507 -0.40574113757614777
868000000.0 -0.26210176571927135 0.3460271725714267
874500000.0 0.3502911328582108 -0.2583194029882231
881000000.0 -0.28459410707472244 0.34090579541579
887500000.0 0.10061278458948887 -0.4363474946350371
894000000.0 0.1210802121830523 0.4287854046287304
900500000.0 -0.4242880619706851 0.11272161818409125
907000000.0 -0.21530061452939928 -0.37105098597862385
913500000.0 0.4066757698954611 0.06078140044603958
920000000.0 -0.15500108436428808 0.36912162562939194
926500000.0 -0.38443180057934123 -0.023508177348418743
933000000.0 -0.10987072690632958 -0.3559840578213056
939500000.0 -0.052731881842207784 -0.35771596554740037
946000000.0 -0.09826424665900693 -0.32755797106902246
952500000.0 -0.027453563103572186 -0.31953131663845
959000000.0 -0.10081130627725236 -0.2833768005647698
965500000.0 -0.09432366756521798 -0.26687904283698016
972000000.0 0.14570722939731898 0.2244695940154002
978500000.0 -0.1337791142186496 0.21863695194508184
985000000.0 -0.18599648079661146 0.1520889146931943
991500000.0 -0.216975008666222 -0.06982834048348621
998000000.0 0.04655622096001265 -0.2097223302693493
1004500000.0 0.1933742772770914 0.06332104400793179
1011000000.0 -0.17187567176966628 0.08669109562943927
1017500000.0 -0.06578130403935414 -0.16899354126776028
1024000000.0 0.1418809584422648 -0.08580073267905738
1030500000.0 0.11580478665173242 0.09810774527405923
1037000000.0 -0.05009151539841005 -0.12990788324256805
1043500000.0 -0.07044310472209037 -0.10896353231240606
1050000000.0 0.12086190434022459 -0.025842656845020035
1056500000.0 -0.1017076811509948 -0.057781823504362825
1063000000.0 0.10299014504211695 0.040946348129888926
1069500000.0 0.10373060845509757 -0.004881722080887373
1076000000.0 0.022352237159314423 -0.09984478913241883
1082500000.0 0.042192368844127005 -0.0896172612831333
1089000000.0 -0.08362021230999653 -0.055131525405324226
1095500000.0 0.07295211199920774 0.06867878480252894
1102000000.0 -0.10539383691360936 -0.012140265456642544
1108500000.0 0.08579483796659666 -0.0707139377132596
1115000000.0 -0.09065755005607011 -0.07839343389714563
1121500000.0 0.010913657482973982 0.1351350154136022
1128000000.0 -0.03084465042067908 -0.14777187311831916
1134500000.0 0.024226082107740955 0.163861724802535
1141000000.0 -0.1114767276177944 -0.14679697559952856
1147500000.0 0.10151397900660496 -0.17490295440940382
1154000000.0 0.19468533791889933 0.08391843177112708
1160500000.0 0.021539768412346776 0.21916961757117376
1167000000.0 -0.2209981887439596 -0.04832761842941086
1173500000.0 0.22597762781383202 0.008546437901113636
1180000000.0 -0.22359941287584012 -0.04826803545108813
1186500000.0 0.09760907610261868 0.20629299294205508
1193000000.0 0.21256102934298873 -0.10135903516729308
1199500000.0 -0.23628763917293535 -0.05357353754803448
1206000000.0 -0.22939590368435067 0.10349437020266204
1212500000.0 0.26493007782452904 -0.027195992491837608
1219000000.0 -0.2792177333201312 0.03813373862283562
1225500000.0 0.28883586777129616 -0.009095117201567044
1232000000.0 -0.1997238851492031 -0.22393438525289122
1238500000.0 -0.23790762830067236 0.19765561314462532
1245000000.0 0.20436034310778067 0.24088524110176596
1251500000.0 0.18583639293800316 -0.26607565770127783
1258000000.0 -0.20901356415994204 -0.2553042400764344
1264500000.0 -0.328369382957064 -0.06269439229446377
1271000000.0 -0.12998948939418578 0.31679947274459735
1277500000.0 0.17018525416076 0.3020189057793404
1284000000.0 0.35202601155370455 -0.010161512089114243
1290500000.0 0.2524286005142699 -0.24822634034917943
1297000000.0 -0.16467402819522778 -0.31890345953469645
1303500000.0 -0.3550954589583201 0.04712022397839476
1310000000.0 -0.12525213835786847 0.3349445357801358
1316500000.0 0.35878008548919255 0.022079710322837644
1323000000.0 -0.01592289815846774 -0.35748967599869463
1329500000.0 -0.036903527116759906 0.3528030743004211
1336000000.0 0.3262115908251971 -0.11701305381896589
1342500000.0 -0.3355242706302208 -0.06525775926796219
1349000000.0 0.16798000712050035 0.2881895192387128
1355500000.0 0.31409612623463684 -0.09894690018437359
1362000000.0 -0.23135612018768315 -0.22781335548059117
1368500000.0 -0.3245468399211067 -0.0030983722574215145
1375000000.0 0.061097425943130106 0.3265222530572192
1381500000.0 0.26096463230734684 -0.21197223847461485
1388000000.0 -0.334819164306954 -0.08409456817766874
1394500000.0 0.13226460814861804 0.3269970406184387
1401000000.0 0.12610587688043504 0.33701627111959453
1407500000.0 0.2961297429858579 -0.21469516450968287
1414000000.0 -0.16030057576628248 -0.3370317960529403
1420500000.0 -0.30247587500586026 0.22782081000410817
1427000000.0 -0.15922923946171313 0.3439724639664053
1433500000.0 0.033632901923061405 0.3817438881197861
1440000000.0 0.10915298550881535 0.3641095403572093
1446500000.0 0.08340972937070353 0.3758943550959444
1453000000.0 0.20476814267840662 0.3255643603728758
1459500000.0 0.23640882029917915 0.30172283906654895
1466000000.0 0.3778785285458379 -0.0533553622231137
1472500000.0 0.3209216973840833 -0.19614187992755996
1479000000.0 0.021898821335402645 -0.36713202962229086
1485500000.0 -0.24328175175032268 -0.26445165847343294
1492000000.0 -0.32582936008069896 0.12150556424507776
1498500000.0 0.04352942874356058 0.3309212935671394
1505000000.0 0.2765927833183172 0.16387184883312605
1511500000.0 0.08972885138336155 -0.2966825715703513
1518000000.0 -0.22439618588265242 -0.19692154928651767
1524500000.0 0.2289745360868261 0.17713508400346362
1531000000.0 0.15597375737059258 -0.22905230491171305
1537500000.0 -0.23334309813445708 0.14362990372477932
1544000000.0 0.2561912886561004 -0.06634389762860088
1550500000.0 -0.14922873717407523 0.219330330590096
1557000000.0 0.044886137009999445 -0.2538893230251293
1563500000.0 -0.24269117220317762 0.07868778942137591
1570000000.0 -0.2540426963255395 -0.008751682917688842
1576500000.0 0.01999730597808207 0.25575284635470424
1583000000.0 0.23962098084501038 0.10358007546225062
1589500000.0 0.17404008534322787 -0.19758363492531095
1596000000.0 -0.189875644868708 -0.18071741865749066
1602500000.0 -0.25919068176017107 0.029530165680081828
1609000000.0 -0.25184657782097136 0.046793952425480255
1615500000.0 -0.18713438329011303 0.16259693302173447
1622000000.0 0.0048601090198834565 -0.2417234796140876
1628500000.0 0.11221111672965775 -0.20853708589714573
1635000000.0 0.22270100260653014 0.059381708617793745
1641500000.0 0.01917871393189318 0.22296635366780168
1648000000.0 -0.21893689097177724 -0.007538934177431757
1654500000.0 -0.021632536843598605 -0.21190461679619277
1661000000.0 -0.10670546301356289 -0.18029815183787798
1667500000.0 -0.19921739417999618 0.03172678904121289
1674000000.0 0.11618260073003546 0.15015602410786189
1680500000.0 0.15975396967176408 -0.0640009841332951
1687000000.0 -0.07670168429541571 -0.13897157798471904
1693500000.0 -0.06943419997723507 0.12377527538793649
1700000000.0 0.09774698280063503 -0.09093862916628764
1706500000.0 -0.08165004764872542 0.08900963971863084
1713000000.0 0.0035804353795769054 -0.11390947651516972
1719500000.0 -0.07262543791890903 0.0826661304122861
1726000000.0 -0.07661446440946118 -0.07703421906045183
1732500000.0 0.011329727125593048 -0.10610336236496976
1739000000.0 0.08506779013876678 0.06770981607716767
1745500000.0 -0.09735676650672513 0.04272403396721504
1752000000.0 0.02720085904645633 -0.10465212838070344
1758500000.0 -0.0945510667636321 0.04996388457084927
1765000000.0 0.08607265692453625 0.06252930590003088
1771500000.0 0.0979246753091163 0.03359053921737166
1778000000.0 0.0520638939282229 0.08715192335301321
1784500000.0 -0.004341933125204959 0.10141908408167148
1791000000.0 -0.04832163000007616 -0.08769411623508647
1797500000.0 -0.09028871089939636 0.041192422262149045
1804000000.0 -0.06234015572491171 -0.07734638673219552
1810500000.0 0.09885245758997897 0.011309804235902703
1817000000.0 0.07215871970240662 0.06409376725748171
1823500000.0 0.06510626250364485 -0.06355280584517849
1830000000.0 0.03553970207529629 -0.07300618733564414
1836500000.0 0.033909539463328114 -0.06368625262833089
1843000000.0 0.035029771662028225 0.044226520631583596
1849500000.0 -0.042710169742772565 -0.009665699784693324
1856000000.0 0.029269042538935815 0.012843493014711875
1862500000.0 -0.021724995870858185 -0.0043045174964818494
1869000000.0 0.007069459545823231 -0.01862724202111206
1875500000.0 -0.0006658818636627454 -0.018850137831231302
1882000000.0 -0.014382117631654603 -0.000952060506503512
1888500000.0 0.0061306611057618 -0.013013856750381728
1895000000.0 0.0035279541407501717 0.01726352267696332
1901500000.0 0.014974815931428643 -0.015164778225631354
1908000000.0 0.02033366507992585 0.009503395134807937
1914500000.0 -0.017549831116649855 0.01797446144900201
1921000000.0 -0.025619466202853172 0.0013623791593999994
1927500000.0 -0.002120077324357738 0.023586343580754822
1934000000.0 0.01795092128451739 -0.014343419741022913
1940500000.0 0.018615119166229255 0.0031480144267288647
1947000000.0 0.018841393358706948 0.00740223917229272
1953500000.0 -0.0038804860028437273 -0.023004037359733946
1960000000.0 0.008126591832999339 -0.0210712173940524
1966500000.0 -0.00842029140235569 0.03165589614572233
1973000000.0 -0.03671898390316541 -0.016605872318881436
1979500000.0 -0.012392483035045724 -0.049980197463206734
1986000000.0 -0.03489169354119912 -0.055557531846580424
1992500000.0 -0.07507868069124897 0.01584547583933289
1999000000.0 -0.07909258641907793 -0.03944147380096446
2005500000.0 -0.09746202254156018 0.01926688122754831
2012000000.0 -0.08819147028334333 -0.06585305041669152
2018500000.0 -0.0017058993007514143 -0.11809583440330985
2025000000.0 0.1024518374676223 -0.0780038306480416
2031500000.0 0.12810028800650816 0.030453181018483436
2038000000.0 0.06055747374954325 0.12190514771683661
2044500000.0 -0.1305519328788461 0.04582921575526752
2051000000.0 -0.1314047479514641 -0.05465797393380808
2057500000.0 -0.13921356240562693 -0.015530354961022345
2064000000.0 -0.1408799420600808 -0.004994468694225264
2070500000.0 -0.13205730760304352 0.032718853651509554
2077000000.0 0.09085591558857828 0.09277829051278766
2083500000.0 0.09590116110997975 -0.07565950638749862
2090000000.0 -0.11639453646142957 0.011636357058260565
2096500000.0 0.05249514725488191 0.09596074664319924
2103000000.0 -0.10059473827879443 0.03440411963079294
2109500000.0 -0.006206840717171079 -0.10465570675123337
2116000000.0 -0.1080893432173331 -0.00028520359169547754
2122500000.0 -0.013302236304413231 0.11059504046155522
2129000000.0 0.11940482190560175 0.02835574146121021
2135500000.0 0.0460337624154168 -0.12109597971923147
2142000000.0 0.020519644445911513 0.140260998304137
2148500000.0 -0.12727768691858632 -0.08501997904417041
2155000000.0 0.13147294165685003 0.1034549179954784
2161500000.0 -0.10739389632794519 -0.14348606122736665
2168000000.0 -0.15034949937372266 0.12389549806902886
2174500000.0 -0.0667972463661879 0.1951990906802107
2181000000.0 -0.036813910350179696 0.21532174907832796
2187500000.0 0.0586429526668212 0.22374597068507007
2194000000.0 0.05810534683127357 0.23626998769391758
2200500000.0 0.03551479022436332 0.2510465810748441
2207000000.0 0.25335233432274346 0.0501211517360143
2213500000.0 0.23920396413893383 0.10182061248399855
2220000000.0 0.2593190252498772 0.009037279650150172
2226500000.0 0.20823795428433356 0.14335233910099404
2233000000.0 0.18721989051946297 0.16260655069939467
2239500000.0 -0.15344877195218792 0.18708939025402177
2246000000.0 -0.19550135977976038 0.12934533824052938
2252500000.0 -0.22475651472849908 0.0043227206429378925
2259000000.0 -0.21543222091219327 -0.04374414364987418
2265500000.0 -0.19916784731964882 0.07673910254791763
2272000000.0 -0.07469164034284884 0.19299692751629643
2278500000.0 0.12037315820643871 -0.1611487387109648
2285000000.0 -0.07889123524450653 0.17543979594153497
2291500000.0 0.03146434715541439 -0.18028272012716043
2298000000.0 -0.003992225367434655 0.17196686892819843
2304500000.0 -0.11259281879818661 -0.12418437249591435
2311000000.0 -0.15290905917504116 -0.024663787654423345
2317500000.0 -0.012869251488984962 0.15408487680912586
2324000000.0 -0.04689705590281921 -0.14363247848775335
2330500000.0 -0.1465921144268716 0.038760749852854305
2337000000.0 0.12098159962240528 0.09203349675487099
2343500000.0 0.06570832404772288 -0.14012488121088015
2350000000.0 -0.1554692006079989 -0.0006256779552332577
2356500000.0 -0.1461349551090223 0.06257381897027194
2363000000.0 -0.014402874306583739 0.16077815213569616
2369500000.0 0.15669998597417062 0.043078282312965954
2376000000.0 0.16083049195111743 -0.022823467023237797
2382500000.0 0.15045137480893292 -0.05438834107848903
2389000000.0 0.1451450391212568 0.06668913837046897
2395500000.0 -0.0017803370728318435 0.15882256034133158
2402000000.0 -0.15638523947394553 0.0264553674973269
2408500000.0 -0.15579392938372982 0.036573409954562194
2415000000.0 -0.13485980741849457 0.08573489665489535
2421500000.0 -0.15035973447150766 0.048714847275562065
2428000000.0 -0.07559662516017039 0.13624813976563602
2434500000.0 0.011314278088502676 0.15170621360125047
2441000000.0 0.018026011834865106 0.15024387124072702
2447500000.0 0.1343249311396837 0.06513335396224713
2454000000.0 0.140711564166011 -0.046859265513744155
2460500000.0 0.14006772407751494 -0.046419541395569267
2467000000.0 0.14355235664430116 -0.033218299216270154
2473500000.0 0.13220938663122053 -0.06626836909602482
2480000000.0 0.14698023435142993 0.026148583208639574
2486500000.0 0.153587290778754 -0.022328375673019166
2493000000.0 0.00990778474513142 0.1549018614191662
2499500000.0 0.05529685095280486 0.14714070415250122
2506000000.0 0.0567633301914855 0.1487526062637544
2512500000.0 -0.086517882292365 -0.1334026081201548
2519000000.0 0.16100316165532721 -0.012549768308120634
2525500000.0 -0.12839511531457928 0.10292474503134834
2532000000.0 0.06581768305635291 -0.15473570669072978
2538500000.0 -0.042306726421793533 0.16305315774840856
2545000000.0 -0.09569291543743323 -0.14097672595388316
2551500000.0 0.09683427456645889 0.1383402347962633
2558000000.0 0.06688529262680339 -0.15533125972438944
2564500000.0 -0.04500719914156317 0.16030549250053944
2571000000.0 0.14779096243149126 -0.07336540135662081
2577500000.0 -0.15085255394382124 -0.04897256788502241
2584000000.0 -0.15533433256342122 -0.01907072785512264
2590500000.0 -0.01731138853588462 0.1519762661103049
2597000000.0 0.15223161589565565 0.009674274403371886
2603500000.0 0.02907741391795678 -0.14665142727302197
2610000000.0 -0.027820963273995764 0.14621967243463713
2616500000.0 0.02231743366860124 -0.14199723307083995
2623000000.0 0.04797954257464544 0.13056569271944285
2629500000.0 -0.08548729080565001 -0.09841581891610156
2636000000.0 0.12247336391862114 0.0022871112339952074
2642500000.0 -0.1096781669587469 0.024524392214809485
2649000000.0 -0.08270691567729349 -0.0651703847462294
2655500000.0 0.09185690975816839 0.026130663552099215
2662000000.0 0.07213151838636507 -0.05480479000861959
2668500000.0 0.0420821161307008 -0.07505400489265306
2675000000.0 -0.015031506243095348 0.08262613641109706
2681500000.0 -0.04220917981723569 0.07059800677377641
2688000000.0 -0.04010486854713484 0.07261112159742383
2694500000.0 0.08160063061412344 0.02730167826470841
2701000000.0 -0.0423414203494535 0.07799358108917231
2707500000.0 -0.09575159026428638 -0.017768133783035815
2714000000.0 0.10420236676408856 -0.01591857906397204
2720500000.0 0.0003303861378012663 -0.11690407356743208
2727000000.0 -0.12826821167335126 -0.0015932452849117562
2733500000.0 -0.032854094762936985 -0.13709365047523983
2740000000.0 -0.09856737185234805 -0.12076239837715216
2746500000.0 0.08895500488971522 -0.14192859185070159
2753000000.0 0.1825792726407563 0.0010135275480806687
2759500000.0 0.1333142207808783 0.13925680734920226
2766000000.0 -0.1763066669142615 0.09949994978454436
2772500000.0 -0.0771053821962354 -0.19665285202499164
2779000000.0 0.08485949204431878 0.20144641881900457
2785500000.0 -0.1880895567400233 -0.12398945894227421
2792000000.0 0.2025728542694535 0.11447521403491048
2798500000.0 -0.2137407988566142 0.10927936359327399
2805000000.0 0.20508301309893417 -0.1351574650515754
