!Created with skrf (http://scikit-rf.org).
# Hz S RI R 50.0 
!freq ReS11 ImS11
400000000.0 -0.7161579965149157 0.07528284890599507
406500000.0 -0.3264518982235659 -0.6209133513533579
413000000.0 0.6692986050426186 0.10539006089559051
419500000.0 -0.662370854228187 0.08156822640037285
426000000.0 0.21999697212823224 0.6180208642161308
432500000.0 -0.4902884256611476 -0.42397296188274136
439000000.0 0.6349464395086274 -0.020950103947434764
445500000.0 -0.6228852101255745 0.06350632419354844
452000000.0 0.5005758378713027 -0.3637081736245916
458500000.0 -0.15298663007026747 0.6016137761619148
465000000.0 -0.5521936846298805 -0.28712394389322016
471500000.0 -0.33420810672091367 -0.5216582362071088
478000000.0 -0.061683262877390954 -0.6093006937692501
484500000.0 0.22472230216800418 -0.5599227533128898
491000000.0 0.0909937377608854 -0.5831842398516353
497500000.0 -0.270248840233251 -0.5030996514452614
504000000.0 -0.41288023519193345 0.3472745441717917
510500000.0 0.015939715546819888 0.5021823523094844
517000000.0 0.4241131973546066 0.17264215783493245
523500000.0 0.11202729136670707 0.41343560979272265
530000000.0 -0.10467997424271672 0.3792222778638696
536500000.0 0.24891362749543558 0.2602677236638432
543000000.0 0.30085612673468454 0.17498888371032237
549500000.0 0.33053663988773246 0.02768531649678319
556000000.0 -0.04976937693200364 -0.30263765943958726
562500000.0 0.16519793892947887 -0.2382671295623125
569000000.0 -0.15350591274888778 -0.22561282567749286
575500000.0 0.26110320040499224 -0.020072487256859624
582000000.0 0.05409190074624859 -0.25281296762457595
588500000.0 0.1996361309359695 0.1781269101591294
595000000.0 -0.04652341299194773 -0.2820281111484776
601500000.0 0.08159510626752224 -0.28061351268441465
608000000.0 0.1955210036536344 -0.2219346131352172
614500000.0 0.011883158595637891 -0.299758752417334
621000000.0 -0.04161413445541187 -0.2961690590260887
627500000.0 0.29623326698115576 0.01794388236503174
634000000.0 -0.042470633234311675 0.29875531032262526
640500000.0 -0.2907744133746795 0.016894056681374562
647000000.0 0.29606129306530093 0.04383759512550515
653500000.0 0.1983293502181667 0.22489620867193474
660000000.0 -0.29041724907091676 -0.071541596247195
666500000.0 0.11477094778839195 -0.27759690962600475
673000000.0 0.13503473245228498 0.26334093345292164
679500000.0 0.2956632631246261 -0.07439530283869715
686000000.0 0.27060929043852194 -0.12318152820981196
692500000.0 -0.2897183579161324 -0.05494446270361318
699000000.0 0.22589064309988718 -0.18195747942952467
705500000.0 -0.29086471352736254 -0.02021297307800705
712000000.0 0.29316960843501433 -0.0023674002059957695
718500000.0 0.14692779091201547 -0.2595217935572957
725000000.0 -0.019359983870202456 0.31159553768566145
731500000.0 0.10886357300532053 -0.29938845505795614
738000000.0 0.16377006467326366 0.2874773018302037
744500000.0 -0.32756859015054135 -0.00480977933820353
751000000.0 0.25629745682511296 0.20867214951737506
757500000.0 -0.20559399213248863 -0.2689074962252272
764000000.0 -0.18687689250342887 0.2943033913065001
770500000.0 -0.20925105014987225 -0.28845272175973774
777000000.0 -0.05354378752827796 0.358504367325322
783500000.0 -0.12711373495886027 -0.3373630706856865
790000000.0 -0.07049682457545653 0.3599569474502806
796500000.0 -0.004277701783140591 -0.3695870926038076
803000000.0 -0.3352105547728533 0.13715163695113966
809500000.0 0.2881831248823504 0.21867638844334428
816000000.0 0.1838401147932654 -0.30994035670887765
822500000.0 -0.05355488217822244 -0.3658186516811002
829000000.0 -0.3388222715618273 0.17399646983398273
835500000.0 -0.37772172535428533 0.10981674446745245
842000000.0 0.40577059593981685 0.07259089218487291
848500000.0 -0.27510766105730516 -0.3095582942015916
855000000.0 0.17830986541380106 0.3843862404249666
861500000.0 0.14621413988099682 -0.40180418427398107
868000000.0 -0.19768171906731802 0.38683106469320383
874500000.0 0.3823354274061708 -0.21126651768564458
881000000.0 -0.32662724773372265 0.30143857564517684
887500000.0 0.14609732857375365 -0.4221054375389052
894000000.0 0.11024369614178223 0.43188079798254914
900500000.0 -0.3993686706370949 0.18145885922525962
907000000.0 -0.20547182440269748 -0.3771061645795553
913500000.0 0.3985273727060965 0.09807458470601293
920000000.0 -0.10246229304768731 0.3857432747976493
926500000.0 -0.37809483430519436 0.06841250404618472
933000000.0 -0.12367494797784817 -0.3511438421841163
939500000.0 -0.1178666358570308 -0.34116012253356165
946000000.0 -0.1448299599900433 -0.3093373096585603
952500000.0 -0.06285058208334181 -0.31408031799577035
959000000.0 -0.12619463035616899 -0.27315569143899826
965500000.0 -0.10433368401826609 -0.2632622311376504
972000000.0 0.15480726164104147 0.2190180612370776
978500000.0 -0.13685948160598238 0.21688084015823464
985000000.0 -0.19734020549387346 0.13710079538594924
991500000.0 -0.20634406721495585 -0.09740910401043977
998000000.0 0.05344116321853485 -0.2081526178797337
1004500000.0 0.18727167303500208 0.07917270502997464
1011000000.0 -0.18422941136685708 0.056850531696480765
1017500000.0 -0.02765010662140304 -0.17962059930364616
1024000000.0 0.1642303988943476 -0.020869753689791392
1030500000.0 0.08954610983862742 0.12245101114564516
1037000000.0 -0.007878406929682055 -0.13840334563963647
1043500000.0 -0.035446915885562466 -0.12367913160928849
1050000000.0 0.11050458137596009 -0.053853551231023464
1056500000.0 -0.11317658703219902 -0.025788722173394972
1063000000.0 0.1103961052103778 0.010258018170978697
1069500000.0 0.07900235860032849 -0.06749713550618226
1076000000.0 -0.0005092236091112091 -0.10242307105058134
1082500000.0 0.018618927538218227 -0.09754155017403532
1089000000.0 -0.10095262315057557 0.002680948023681188
1095500000.0 0.09308913281316226 0.037342532609059516
1102000000.0 -0.10713014131226813 0.008097552823976967
1108500000.0 0.09753202343158478 -0.05541904699478363
1115000000.0 -0.06401805187036635 -0.10150090523805402
1121500000.0 -0.04822046583245464 0.12788233190432333
1128000000.0 0.03921976563247378 -0.14638299533868968
1134500000.0 -0.05530007028280357 0.15700697879396736
1141000000.0 -0.07630549761883615 -0.16755664341983248
1147500000.0 0.13175330089186688 -0.15395064415388077
1154000000.0 0.18342981556319357 0.10561208521726663
1160500000.0 -0.001229092252348285 0.21946058382574532
1167000000.0 -0.21822398143632574 -0.057647215711584356
1173500000.0 0.22481586871926637 0.018307134791271207
1180000000.0 -0.225138897078805 -0.03735298060128843
1186500000.0 0.12118170659220599 0.1928662646073521
1193000000.0 0.1737322949415847 -0.15816500724032098
1199500000.0 -0.2407891770718836 -0.019450026996402595
1206000000.0 -0.19721601837189104 0.1564635567303576
1212500000.0 0.2563023812776475 -0.0718225677515984
1219000000.0 -0.2707307467309341 0.07907733858568466
1225500000.0 0.28686690131248094 -0.03970888820357199
1232000000.0 -0.2298414896860416 -0.193142486172648
1238500000.0 -0.23595049856423037 0.2021828443877934
1245000000.0 0.21409386886838164 0.23350194320848952
1251500000.0 0.21007821394727738 -0.24907165628361094
1258000000.0 -0.22975916583607486 -0.23844837128800359
1264500000.0 -0.3300613319348746 -0.06076350222792474
1271000000.0 -0.1648076286888503 0.3015396349452792
1277500000.0 0.16363263765522676 0.3066263341028541
1284000000.0 0.3501456150978964 0.046801510128020224
1290500000.0 0.24592231877773396 -0.2553163094351744
1297000000.0 -0.13581826226029103 -0.3325941799084015
1303500000.0 -0.3568324235138417 0.02181288090696689
1310000000.0 -0.11813231868058165 0.33725471293885284
1316500000.0 0.35892115571624894 -0.004557637423691726
1323000000.0 -0.0022605992007901305 -0.35701929285119616
1329500000.0 -0.06729775953474566 0.34756005942311635
1336000000.0 0.3258200248835349 -0.11613264088492761
1342500000.0 -0.3323698405748081 -0.07710609237378979
1349000000.0 0.18624358097792285 0.2761686776700072
1355500000.0 0.3134868627551771 -0.10005507650941557
1362000000.0 -0.2351732689758841 -0.22332081434304668
1368500000.0 -0.31515313556130287 0.07714635070386028
1375000000.0 0.1370766270585798 0.30276374000417783
1381500000.0 0.22761650767250097 -0.2484256840929185
1388000000.0 -0.3300219538177669 -0.10355777055200269
1394500000.0 0.15435041492591217 0.31768646023934877
1401000000.0 0.16519725430131368 0.320419683717004
1407500000.0 0.3009876169041418 -0.20862047741677228
1414000000.0 -0.17695497986306657 -0.32890035275832846
1420500000.0 -0.2549797445308574 0.28048122394769204
1427000000.0 -0.1438024322518295 0.350757875933971
1433500000.0 0.0755496430538633 0.3765997078135497
1440000000.0 0.10993836490481593 0.36443631052231945
1446500000.0 0.07311370419907115 0.37836337697666617
1453000000.0 0.18488103646715812 0.3367120634462451
1459500000.0 0.22520642981390934 0.30954730413362663
1466000000.0 0.37628894343129554 -0.060152295549882114
1472500000.0 0.3188570911454519 -0.19765814354602587
1479000000.0 0.025236550945655856 -0.36616795745432595
1485500000.0 -0.2553450390982966 -0.2521615728646997
1492000000.0 -0.30864468178207954 0.15954905435612002
1498500000.0 0.14091495019332823 0.3027307472008341
1505000000.0 0.32132680832594607 0.022747823807816012
1511500000.0 0.0698893270600935 -0.3017225519233827
1518000000.0 -0.24996763948848644 -0.16266246730490022
1524500000.0 0.23367888026862968 0.17104137656689516
1531000000.0 0.13460052701832187 -0.2425342705822512
1537500000.0 -0.2143641732574238 0.17061786258933365
1544000000.0 0.2546453780475994 -0.07430049038465603
1550500000.0 -0.128897765580785 0.23226494002764958
1557000000.0 0.06309525684780344 -0.25012659072285903
1563500000.0 -0.24451033408324674 0.07236515489963931
1570000000.0 -0.25393633730912835 0.01171025867707621
1576500000.0 0.002013780055979762 0.256489095130924
1583000000.0 0.24533133942930427 0.08960419607093566
1589500000.0 0.1735922450789888 -0.19848478428967667
1596000000.0 -0.18965066264707567 -0.1807283117885842
1602500000.0 -0.25298588571475966 0.06233373242585049
1609000000.0 -0.2548857170012641 0.027225655506769888
1615500000.0 -0.20540541214128127 0.1391758848433326
1622000000.0 -0.034383153245216194 -0.23914484484832021
1628500000.0 0.12490312168271482 -0.20115422758655155
1635000000.0 0.22098764645814736 0.06516283321277416
1641500000.0 0.02612083002410683 0.22178992608556009
1648000000.0 -0.2184264427621001 -0.006104457001858491
1654500000.0 -0.03748253258963509 -0.2092301014011968
1661000000.0 -0.11278429926971167 -0.17591840204190662
1667500000.0 -0.19117658189569076 0.06279911758273694
1674000000.0 0.1425422244466622 0.12475199487852415
1680500000.0 0.14589546107390355 -0.0900590497192158
1687000000.0 -0.09126753336109361 -0.13027549037124567
1693500000.0 -0.048103027537338916 0.13342660772718457
1700000000.0 0.05345821838264129 -0.12227306120069584
1706500000.0 -0.05329702176710416 0.10878679962428282
1713000000.0 -0.005483860197689716 -0.1136499218058764
1719500000.0 -0.05096372219972585 0.09783150468877687
1726000000.0 -0.09065896731925117 -0.060149407925826126
1732500000.0 0.02177588833724778 -0.10489809576450147
1739000000.0 0.07097971677177621 0.0832120380724553
1745500000.0 -0.08745780549970114 0.06060290025568166
1752000000.0 0.04621281372899391 -0.09870094283884194
1758500000.0 -0.10569334052201713 0.017461372335704554
1765000000.0 0.07772629077393861 0.0725930080007671
1771500000.0 0.07740975725798045 0.06892378100586996
1778000000.0 0.023880724107293118 0.09850219313859548
1784500000.0 -0.04752742937476876 0.08939155893385493
1791000000.0 -0.014009520266245837 -0.09876549496414405
1797500000.0 -0.09821353139532177 0.009764434383933413
1804000000.0 -0.006321400743522513 -0.09867189146177353
1810500000.0 0.09845350071643683 0.010977162053446484
1817000000.0 0.07015910647802914 0.06525569930897546
1823500000.0 0.06031022893894088 -0.0676974056529352
1830000000.0 0.01846673858044905 -0.07855587010647506
1836500000.0 0.0012988808137975843 -0.0716497984955685
1843000000.0 0.04552346721158621 0.032686106917579144
1849500000.0 -0.0415724879413968 0.011906081535653963
1856000000.0 0.02458812987009595 -0.019536996875022347
1862500000.0 -0.006911239357117451 0.020557553874494653
1869000000.0 -0.018080528536688734 0.007236176606658456
1875500000.0 -0.018350933957645112 -0.0012147137255215294
1882000000.0 0.011841960377163872 0.007918139272058405
1888500000.0 -0.013753132166962714 0.005917070468139487
1895000000.0 0.016282331688545062 0.008843264860779989
1901500000.0 0.01774135388840039 -0.012976440659648765
1908000000.0 -0.006113862011202476 0.021670627379230756
1914500000.0 -0.02266462668957188 0.009921946087767579
1921000000.0 -0.022500882546373394 -0.012154129684791024
1927500000.0 0.008174481964484564 0.021644571384118145
1934000000.0 0.009117790937405399 -0.020398465100671576
1940500000.0 -0.016607477967911632 -0.008379576558354853
1947000000.0 -0.002449954056988519 -0.020432559281705485
1953500000.0 -0.023828239214975087 -0.002232999396085215
1960000000.0 -0.011126852522505405 -0.020553534283005354
1966500000.0 0.0029618496298122266 0.03326351800209231
1973000000.0 -0.03475624350685674 -0.022775165788751797
1979500000.0 -0.01839865381902712 -0.04875240594718053
1986000000.0 -0.01088106737320054 -0.06571009978946009
1992500000.0 -0.07595104095002692 -0.01697597406281567
1999000000.0 -0.06103599592580143 -0.06447547328140554
2005500000.0 -0.09406313528525889 -0.032761477062787835
2012000000.0 -0.07577839489634867 -0.07988885889359654
2018500000.0 0.05803216914422556 -0.10267348687049083
2025000000.0 0.12340768495703551 -0.03566049731840551
2031500000.0 0.11894157122217289 0.05571062704706197
2038000000.0 0.0078912165747938 0.13587837246113948
2044500000.0 -0.13781077978793224 0.008058075482543343
2051000000.0 -0.10896936310197525 -0.09058519406384534
2057500000.0 -0.12934197279018061 -0.053029513760284946
2064000000.0 -0.13592648546960057 -0.03234366269404651
2070500000.0 -0.13455675806401535 0.011890498230588152
2077000000.0 0.10182036936580188 0.07976272721357466
2083500000.0 0.095373386946453 -0.07530887261137757
2090000000.0 -0.11000063752013432 0.03655963868776583
2096500000.0 0.08585369349132149 0.06736509238947473
2103000000.0 -0.06727978443435391 0.08240564156900686
2109500000.0 -0.0575949543290803 -0.08751942066807895
2116000000.0 -0.08454996010911035 0.06810345580084338
2122500000.0 0.04118291368263161 0.10465654214343378
2129000000.0 0.1237044623115709 0.001500949569806886
2135500000.0 0.06521252479286632 -0.11324182131627374
2142000000.0 -0.003354221471488885 0.14289714021227395
2148500000.0 -0.1222427927617029 -0.09436454170554492
2155000000.0 0.10990538774280173 0.12730938645876355
2161500000.0 -0.03980634340702733 -0.17565759123734145
2168000000.0 -0.1568601068630735 0.11604550338071534
2174500000.0 -0.14344792838641876 0.1489043805844398
2181000000.0 -0.0679049977244521 0.20806910058028474
2187500000.0 -0.006685421929846435 0.23161227085449532
2194000000.0 -0.00201069163037263 0.24283362887227086
2200500000.0 0.004134276853446565 0.2530589119878592
2207000000.0 0.24730167460059505 0.07176470024301465
2213500000.0 0.23355457661666915 0.11352586070646405
2220000000.0 0.25822291534056085 -0.013864566568115931
2226500000.0 0.224757198618215 0.11362292102943163
2233000000.0 0.21235688781821396 0.12640203332622374
2239500000.0 -0.10779080605315781 0.2161296639010026
2246000000.0 -0.153941962689939 0.17557117819379753
2252500000.0 -0.20105646240050162 0.0993765626084655
2259000000.0 -0.21957241405884337 0.006368684484146081
2265500000.0 -0.15908089118788657 0.14262331910665016
2272000000.0 0.0020139126498610366 0.2069661389528705
2278500000.0 0.09660260430092948 -0.17684432581768844
2285000000.0 -0.10326369599403679 0.1638844454664371
2291500000.0 -0.010907579114020906 -0.18312223506707295
2298000000.0 0.018756879768762356 0.17203096314671804
2304500000.0 -0.12027137169240877 -0.11803534830771756
2311000000.0 -0.15317524925348194 -0.027501550720305377
2317500000.0 -0.05480059782509949 0.14493993595327867
2324000000.0 -0.020442797945826163 -0.1502879046650482
2330500000.0 -0.14058999179296044 0.057926977691220474
2337000000.0 0.09419539479629728 0.11913568323480062
2343500000.0 0.08694171290985242 -0.1273354085002538
2350000000.0 -0.15556799011641184 -0.007700926360886346
2356500000.0 -0.15541787883159536 0.031337532210251345
2363000000.0 -0.026171989687570042 0.1588541253895468
2369500000.0 0.14813675814021846 0.06459011158295284
2376000000.0 0.15953448702982068 -0.027157174714111963
2382500000.0 0.14539536040183937 -0.0647437511800056
2389000000.0 0.15443252944783167 0.037077814286337336
2395500000.0 0.01895377340004596 0.15691202846092098
2402000000.0 -0.13811425759875867 0.07598221620813868
2408500000.0 -0.14285722502921408 0.07039607696208623
2415000000.0 -0.1150901300648714 0.11061667430970754
2421500000.0 -0.11817254327308874 0.10444914203109597
2428000000.0 -0.03621005584003499 0.15163141111376696
2434500000.0 0.062429733298811955 0.1391534043393609
2441000000.0 0.054722308868269696 0.1413508808718339
2447500000.0 0.12962125687513107 0.07489544931102704
2454000000.0 0.1297103659924448 -0.07298768607922422
2460500000.0 0.11006049467085711 -0.09904134576970446
2467000000.0 0.14666466127527122 -0.02258143688716343
2473500000.0 0.12107460271026166 -0.08654323057962399
2480000000.0 0.14975392592914472 0.008357347635935177
2486500000.0 0.15577028426702683 -0.002991321449846339
2493000000.0 0.02694342852004815 0.1528522578581211
2499500000.0 0.022343169186218557 0.15584711482457528
2506000000.0 0.01998531616926784 0.15851325319134427
2512500000.0 -0.08989125224077155 -0.13182183184018523
2519000000.0 0.1614874214428424 -0.004916413486529033
2525500000.0 -0.15239644504285188 0.06107398294431668
2532000000.0 0.10155499918040982 -0.13353556312928094
2538500000.0 -0.09165637701211225 0.14043675068702124
2545000000.0 -0.06986638651659759 -0.15494958836814174
2551500000.0 0.08388077649781527 0.14684524647874075
2558000000.0 0.09024277360410123 -0.14282294497171832
2564500000.0 -0.04982740777891388 0.15846191384647
2571000000.0 0.1495091419577145 -0.06871903077360755
2577500000.0 -0.1420927772602372 -0.06790564316424753
2584000000.0 -0.1564762857379541 0.0030084513498116047
2590500000.0 -0.0070969303089721755 0.15190461467084163
2597000000.0 0.1513920414447182 0.010808914461785132
2603500000.0 0.000545584716433815 -0.14920743750710025
2610000000.0 0.019561457859062003 0.1474391176229969
2616500000.0 -0.025165265173831185 -0.14135578609113827
2623000000.0 0.07246869780756617 0.11885330430897713
2629500000.0 -0.12401408281278116 -0.0385355400757853
2636000000.0 0.10218783911997198 -0.06631328403525291
2642500000.0 -0.08400978990529501 0.07495363370014402
2649000000.0 -0.1050165795434793 -0.01419125394302097
2655500000.0 0.09152856258501489 -0.02835178412183276
2662000000.0 0.04766660598541693 -0.07744418780621164
2668500000.0 -0.01629743589927141 -0.08513644282399795
2675000000.0 0.023092249905140274 0.08070845892312989
2681500000.0 -0.03532149622608273 0.07498444605532877
2688000000.0 -0.03410057952231111 0.07691271169291693
2694500000.0 0.078846408214161 0.03582253528702478
2701000000.0 -0.0590054350555746 0.06689760413577082
2707500000.0 -0.09114013707979012 -0.03682513211650887
2714000000.0 0.10248785590592036 0.025577244183818897
2720500000.0 0.05879476049779595 -0.10146952766029808
2727000000.0 -0.11690284430484275 -0.05321653019515295
2733500000.0 -0.012477915223722094 -0.14065507982094363
2740000000.0 -0.07469108016564056 -0.13688653021149064
2746500000.0 0.10342097926283596 -0.1314064153002852
2753000000.0 0.1801294581630358 0.027573814616095736
2759500000.0 0.14213542699085496 0.12955992932271096
2766000000.0 0.46725217188746715 1.0274141562313044
2772500000.0 0.9940758890979661 -0.525065602934699
2779000000.0 -0.5812816598005405 0.9199687110129278
2785500000.0 -0.9053446600711385 0.586296291590675
2792000000.0 0.896254787235103 0.4514528014570313
2798500000.0 0.31377324573483945 0.2091847515315318
2805000000.0 -0.25701273992989626 0.2742764849754682
