!Created with skrf (http://scikit-rf.org).
# Hz S RI R 50.0 
!freq ReS11 ImS11
400000000.0 0.35272164703161446 -0.8476869619285351
420000000.0 0.8774408077899509 -0.022460167143048104
440000000.0 0.5743302125874103 0.6302996797041152
460000000.0 0.17875283653006563 0.7942665851475729
480000000.0 -0.13281369351069866 -0.7480502072891679
500000000.0 -0.6655633934554531 0.37279419619880094
520000000.0 0.5836227462674213 0.3999184274859367
540000000.0 0.3650030059127358 -0.5560131549699094
560000000.0 0.5417083634609356 -0.3460414812689842
580000000.0 -0.4735560846891116 -0.39512659944560236
600000000.0 0.1959069691125148 -0.5097636329889564
620000000.0 0.4287667090890961 0.35087226058605175
640000000.0 -0.5355974916170695 0.10165520167205265
660000000.0 0.27462426198931594 -0.455765625292959
680000000.0 -0.4634740639539067 -0.08915346257861044
700000000.0 0.20620255241717816 0.38851691640952085
720000000.0 -0.12915030370475267 -0.42597693642529333
740000000.0 0.4292934213838407 -0.061648117669091965
760000000.0 -0.07210075131529663 0.41443855415949504
780000000.0 -0.10776996011777487 0.3991598439925347
800000000.0 -0.2197628568613123 0.3064484438281954
820000000.0 0.12601958543690503 -0.30786920422569813
840000000.0 0.10573993494054029 -0.2865515290179976
860000000.0 0.1922734817711058 0.17615235355107334
880000000.0 0.20095861737113324 -0.12051663145779043
900000000.0 0.20894689734173855 0.06251232360978282
920000000.0 0.1922371526431867 -0.04457636906756757
940000000.0 0.0366593104686607 0.17935760254104588
960000000.0 0.115363647702846 0.10045625729907807
980000000.0 -0.11462137063723515 -0.0054080731925274655
1000000000.0 0.03910327810648341 -0.048497757338258375
1020000000.0 0.059699505593805116 -0.00311452349272853
1040000000.0 0.021849200705955328 0.08225268991582924
1060000000.0 -0.09066274800933492 0.09397324127065167
1080000000.0 -0.12754445200571254 -0.12865702116381061
1100000000.0 -0.2053279144820338 -0.1056597030186946
1120000000.0 0.2682872761617385 -0.07242446516171781
1140000000.0 -0.3010441181878028 0.016535353133464308
1160000000.0 -0.26088764708407464 0.19180061876766158
1180000000.0 -0.3350041591954964 0.04432843705988093
1200000000.0 -0.10510035246800335 -0.3295848528824812
1220000000.0 0.3390667622242027 0.06933398010513044
1240000000.0 -0.2297656932329481 0.2646840728707172
1260000000.0 -0.3597040584322581 0.09110208997037317
1280000000.0 -0.0816765684772104 0.357917778057953
1300000000.0 -0.12986733997647795 0.35031414642074704
1320000000.0 -0.3254746866233392 -0.173652413070318
1340000000.0 0.2084276021332793 0.3143521247537166
1360000000.0 -0.36113213653569565 0.12731026865298406
1380000000.0 0.31026293447822273 -0.23601450236026802
1400000000.0 -0.19296683562744577 0.33680475889929035
1420000000.0 0.19993966788199352 0.3217129137574697
1440000000.0 -0.10154734502970426 0.3576863744983937
1460000000.0 0.17728137118405388 0.31942950055455754
1480000000.0 0.031465904313706945 0.36905254972274715
1500000000.0 0.3338088413820743 -0.15277910812743442
1520000000.0 -0.3433414485662754 -0.0947379586946148
1540000000.0 0.1866937228618595 -0.28490785868391594
1560000000.0 0.18801714805327588 0.2439113509880181
1580000000.0 -0.03591627879501008 0.27259483026539005
1600000000.0 -0.07776641339003605 0.22846683715152197
1620000000.0 -0.021723081923534643 0.19915390157372562
1640000000.0 0.13151725758505114 -0.09702541308358749
1660000000.0 0.09833594614108007 0.09393043318328055
1680000000.0 -0.09382426212310531 -0.05045353259839273
1700000000.0 0.027311366049578546 0.08760091143913074
1720000000.0 -0.004832299896736731 0.06896021658155145
1740000000.0 -0.04250882322253521 -0.041893361691691486
1760000000.0 -0.040533204290920215 -0.0652967532839896
1780000000.0 -0.09524485752788138 -0.04413628252334453
1800000000.0 0.11705483903820536 -0.0786797722472158
1820000000.0 0.16923194822570378 -0.00013847829056734412
1840000000.0 0.06866323810779651 0.1747210072317534
1860000000.0 0.21336157626447425 0.02906377582715342
1880000000.0 0.22093311422722403 -0.13175156837008678
1900000000.0 -0.2822815500167024 0.018625003082610014
1920000000.0 -0.026329560032403807 -0.30145058557835674
1940000000.0 0.02069212379989107 0.30257412280568496
1960000000.0 0.1325700610013583 -0.27562236772504395
1980000000.0 -0.13448209539302036 0.2847090481842728
2000000000.0 -0.2886138670004366 -0.1358404907180366
2020000000.0 -0.19814338831190575 -0.25333590852045385
2040000000.0 0.07230742442403983 -0.30961073779965226
2060000000.0 0.3152489775884423 0.014339296168878492
2080000000.0 0.10124146023490858 0.3056359241420456
2100000000.0 -0.1626620838434112 -0.276058723439981
2120000000.0 0.2777574801716159 0.15234117734068534
2140000000.0 -0.308066661734384 0.040443134459850705
2160000000.0 0.25217932862958387 0.16311932676653143
2180000000.0 0.276705892984596 0.09073322324036306
2200000000.0 0.27692448613180537 0.05925517003277758
2220000000.0 0.10301532983459924 0.2533845341814238
2240000000.0 -0.2346284050303814 -0.13375842913258196
2260000000.0 0.21544366781306323 -0.14997573294794161
2280000000.0 -0.2563749123415445 0.003345180405957044
2300000000.0 0.0007395646565717425 -0.26448953263694813
2320000000.0 0.2519675063699559 -0.07232503374221042
2340000000.0 0.2465435983918989 -0.08178386625610123
2360000000.0 0.1153931273082311 0.22449188133833908
2380000000.0 -0.2548974771673166 -0.04528182822131245
2400000000.0 -0.24906317771845024 -0.09561309274376201
2420000000.0 -0.24501011016650362 -0.14703639311064942
2440000000.0 -0.1418387537257923 0.2778593102071277
2460000000.0 0.1654238939478883 -0.3015512847454566
2480000000.0 -0.333003971261681 -0.1659498705683284
2500000000.0 0.39617777367694657 -0.09332602401866648
2520000000.0 -0.3242359736599926 0.30923521481064875
2540000000.0 -0.25682356100535186 -0.41168064925412035
2560000000.0 0.4778131191497859 0.19616797953136908
2580000000.0 -0.5428640348810265 0.06578111684767927
2600000000.0 0.5223382028678161 -0.23659584517721002
2620000000.0 -0.5067091732593612 0.31431648881645985
2640000000.0 0.4558329081783016 -0.4154563593602205
2660000000.0 0.08738899067833017 0.6273814927896405
2680000000.0 -0.6028180036628388 -0.22235639472115035
2700000000.0 0.21786616069185483 -0.6176123554731966
2720000000.0 0.5312553128103555 -0.399698211734618
2740000000.0 0.6062401222481607 -0.28304379844954974
2760000000.0 0.6469144923112111 -0.1826041920229237
2780000000.0 0.0302625071602481 0.66999446393775
2800000000.0 -0.059265653139856066 0.6601090894868573
2820000000.0 -0.44558669566003023 0.4770544408632692
2840000000.0 -0.5236880758988435 -0.36600637308368456
2860000000.0 0.6113227703820396 -0.13168808100935028
2880000000.0 -0.5666063636260078 0.21710526951858186
2900000000.0 0.4517031781563345 0.3731021588563697
2920000000.0 0.24746703627098393 -0.5077055164249851
2940000000.0 -0.49870428622452556 -0.20986906941995262
2960000000.0 -0.5122024170928964 0.030948147507142903
2980000000.0 -0.2592006033121473 0.41601939473669913
3000000000.0 0.2193536771407627 0.40502484158422297
3020000000.0 0.39767954229403907 0.17813485609077898
3040000000.0 0.1390090654230217 -0.3929740645091445
3060000000.0 -0.3666427357220998 0.13408610856364467
3080000000.0 0.07013363169996484 0.362809028398495
3100000000.0 0.33469565833689396 -0.12165032737376806
3120000000.0 -0.024324553949196557 -0.35023451717600096
3140000000.0 -0.07743007335883696 0.3365306483123697
3160000000.0 0.21239263316122464 -0.26876735872719093
3180000000.0 -0.2890289330620263 0.1860519716591211
3200000000.0 0.3439852471248005 0.004478743221795853
3220000000.0 -0.2646053783572304 -0.21314798221606043
3240000000.0 -0.17249022716070556 0.28041620828827
3260000000.0 0.056808478510504204 0.30729974510957603
3280000000.0 -0.2974734886580982 0.007997870002897112
3300000000.0 -0.18406521261757824 -0.21756246478384525
3320000000.0 -0.10008811908177502 -0.24691564963391166
3340000000.0 0.22734486079859342 -0.07118906686733024
3360000000.0 -0.21560045813140358 -0.030828550861008257
3380000000.0 -0.13989794886621107 -0.13819980222279807
3400000000.0 -0.10005902826451951 0.13615043790428724
3420000000.0 0.04963643036550718 -0.15022060067184287
3440000000.0 -0.091365185105583 -0.11024703774698004
3460000000.0 -0.12169811238869935 0.00030707475755595737
3480000000.0 -0.047885891901869496 -0.09626999595617221
3500000000.0 -0.08785460887896314 0.04929618900178808
3520000000.0 0.059866523853239595 0.06886343904001983
3540000000.0 0.07218088548618477 0.06300720746925202
3560000000.0 0.10282845226951427 -0.021490124498603005
3580000000.0 0.038094246369804005 0.10530279678063999
3600000000.0 0.09845550642413013 0.06356524954694308
3620000000.0 0.12518170954742922 0.03202097172074503
3640000000.0 0.1305821241492013 -0.022675699142933006
3660000000.0 -0.1359153409972223 0.020601874041522396
3680000000.0 0.057654127505017985 -0.1363468072503057
3700000000.0 -0.07601382252810117 -0.12237533922508292
3720000000.0 0.12306585032489867 0.039969839698662635
3740000000.0 -0.06519150615409186 0.08721382009366498
3760000000.0 -0.006049899047015389 -0.08264932595997716
3780000000.0 -0.05720258063532469 -0.012415095164338393
3800000000.0 -0.03016985361028592 -0.0205986475756686
3820000000.0 0.0024896176702858615 0.01089078739976256
3840000000.0 0.022789720289630354 -0.014581709896661667
3860000000.0 0.0001318479198583445 0.06260336832909141
3880000000.0 0.08175587151015715 0.03751500571202799
3900000000.0 -0.09495107191760059 0.07025494034144228
3920000000.0 0.08152093406942977 -0.09877387614817167
3940000000.0 0.06312507513275577 -0.11817903331561516
3960000000.0 -0.032413148144670174 -0.12636446089013945
3980000000.0 0.11412170137252522 -0.054568081979265
4000000000.0 0.08508929296787648 -0.0794259923793877
