!Created with skrf (http://scikit-rf.org).
# Hz S RI R 50.0 
!freq ReS11 ImS11
400000000.0 -0.6548684129479646 0.5049569171433624
420000000.0 0.4059291754752896 -0.6613786397008687
440000000.0 0.5135791856847172 -0.5407688441928649
460000000.0 0.050337810088876084 -0.6531011367768035
480000000.0 -0.28966533217642376 -0.4503672173242583
500000000.0 -0.31125222632346733 0.2598581810784871
520000000.0 -0.34554841575202294 0.28796531796691166
540000000.0 0.31067428414608544 -0.3739115070172781
560000000.0 0.06830695756329605 -0.462992480986307
580000000.0 0.12255324868778879 0.39824807492693626
600000000.0 -0.09501628195619555 -0.38234671512786517
620000000.0 -0.21709185893750158 -0.2927488186505055
640000000.0 0.2669845684988458 -0.2347751713877072
660000000.0 0.29176106232635446 0.18932176680066048
680000000.0 -0.262876158564732 -0.21706085404338132
700000000.0 -0.35908349413561286 -0.10232249732039847
720000000.0 0.2763394644828096 -0.2227226138152419
740000000.0 0.32377206024086735 0.004312054705059751
760000000.0 -0.03004041317560568 -0.3095635506198667
780000000.0 -0.006732161396795419 -0.3015012594932816
800000000.0 0.26107028193585097 0.047344645074199235
820000000.0 -0.22645695841865712 0.030322216256824158
840000000.0 0.16961947796230203 -0.12824276313696092
860000000.0 0.08378337088830848 0.1804028674617286
880000000.0 -0.10658386233306016 -0.16660278172476659
900000000.0 0.1573351699444281 0.02595649883917242
920000000.0 -0.06967284550524695 -0.12456248612087127
940000000.0 0.05187012941515325 0.13034647048450732
960000000.0 0.10320786597222753 0.02132458214033186
980000000.0 -0.04257533090955568 -0.04827544462907713
1000000000.0 -0.006574500084231496 -0.036329812205430016
1020000000.0 -0.0465973328237835 0.02160805702060975
1040000000.0 0.06905903074338623 0.047630447493866544
1060000000.0 0.11666137991860039 -0.015032059249118266
1080000000.0 -0.15553856018774248 0.010274858998799338
1100000000.0 0.16341383081171573 -0.07569957620059813
1120000000.0 0.11195343687203912 -0.18907984402764424
1140000000.0 -0.21776698347995282 -0.13696523479028527
1160000000.0 0.28007357548030737 -0.00805931680464632
1180000000.0 0.17906583541326443 0.24878972516376208
1200000000.0 0.014051297920054674 0.32195054376908505
1220000000.0 -0.022267150883443432 0.3313715073986445
1240000000.0 -0.30448080939951894 0.13176957373721754
1260000000.0 -0.3366434314806926 -0.03385753254361112
1280000000.0 -0.3196102081689742 -0.12405919917601958
1300000000.0 0.19678891488601555 -0.2888951771273305
1320000000.0 0.35238336046407187 0.09388245607542726
1340000000.0 -0.24864201371972586 0.27627006256002196
1360000000.0 -0.1413413310009732 -0.3584544606262457
1380000000.0 0.21839607909462674 -0.31183239657309814
1400000000.0 -0.2509960312641374 -0.28134549847703627
1420000000.0 -0.18123150798894322 0.3280432884061713
1440000000.0 0.26439199821997367 0.2567242779308789
1460000000.0 0.2663755482319756 -0.2453123339324003
1480000000.0 -0.08757532989914366 -0.3354457731379921
1500000000.0 -0.1757844467099922 0.28599878446928434
1520000000.0 -0.045836515210273585 -0.3075722966485004
1540000000.0 -0.2671174120400249 -0.05359163237229966
1560000000.0 0.0924396842820402 0.2287917535141299
1580000000.0 -0.1995898008183873 -0.06985597915143175
1600000000.0 0.1557893963021657 0.09107762753457808
1620000000.0 -0.14623548602613448 -0.06572639166954637
1640000000.0 -0.07326219489289562 -0.10910885177605424
1660000000.0 0.10013510958708158 0.04342408386355347
1680000000.0 -0.021286172990803206 0.08800939625615256
1700000000.0 0.06855756209476466 -0.022773090174949332
1720000000.0 0.0036275174396038124 0.051270112215613714
1740000000.0 0.02877993334336204 -0.04416898109909162
1760000000.0 0.020916058223055825 -0.056088761618402636
1780000000.0 -0.05078601815156195 -0.0825278053814632
1800000000.0 -0.02202029265071065 0.12089259077232474
1820000000.0 -0.06890601277745899 0.14111678359367888
1840000000.0 -0.03917815660431025 0.18949203676408868
1860000000.0 0.10127043603960552 0.19141999311765062
1880000000.0 -0.010544581017538017 0.24027317996020936
1900000000.0 0.26295509127327704 -0.04633813127921452
1920000000.0 -0.2815862139911202 -0.058836540570935895
1940000000.0 -0.03891855143073765 0.29563200680611296
1960000000.0 -0.3118798828800654 -0.0375862831809359
1980000000.0 -0.07771225030243326 -0.3055617263730219
2000000000.0 0.31089622488362145 -0.0016124775579472207
2020000000.0 0.2196536986991779 0.22799860295664198
2040000000.0 0.14315255526118167 0.28062302066252776
2060000000.0 -0.1525047436431068 0.2677850432555417
2080000000.0 -0.23803772827234693 -0.1996881332446069
2100000000.0 0.30761911271432063 0.02534219705352811
2120000000.0 -0.30271451367369484 0.05402723523551332
2140000000.0 0.1883980518580354 -0.23537375841565483
2160000000.0 -0.2321315923459777 0.18664072279723706
2180000000.0 0.054607905999375164 0.2856589562162875
2200000000.0 0.2660022914731943 0.09548599506326379
2220000000.0 0.24434652152168232 0.12351453510821819
2240000000.0 -0.0031631765960203275 0.27078130989163224
2260000000.0 -0.1216501522166719 0.22851010543427375
2280000000.0 -0.15699715752658963 -0.19375493326611645
2300000000.0 0.2391530291039057 0.009988742585316464
2320000000.0 -0.1688952005226251 0.15632421582029643
2340000000.0 0.19842624811764226 -0.09719340082370977
2360000000.0 -0.1475566521313521 0.1689422083068807
2380000000.0 0.19031630901312754 -0.12920298797789997
2400000000.0 -0.13869004468984245 0.20253593482535007
2420000000.0 0.09101377822358701 0.25829117220553427
2440000000.0 0.15018525702601812 -0.2633541908037847
2460000000.0 -0.11478261213182787 0.31700421759490627
2480000000.0 0.357111863596215 -0.09967079091010592
2500000000.0 0.0895431291642559 0.39957086331485436
2520000000.0 -0.42586244795760686 -0.12697818370808728
2540000000.0 0.11350263851042734 -0.46894351235256715
2560000000.0 0.2892179208747435 0.4290218884980011
2580000000.0 -0.5200687095713902 -0.1731326110079648
2600000000.0 0.5265784909086368 -0.23795125391024918
2620000000.0 -0.33329713244570386 0.5008291443740206
2640000000.0 -0.11542279381545764 -0.6100339361451577
2660000000.0 0.5883213676868091 0.24502251039126446
2680000000.0 -0.39061069503801726 0.5180209880733179
2700000000.0 -0.6303015653041467 -0.19147376803119054
2720000000.0 -0.37743164768600784 -0.5479266134633162
2740000000.0 -0.18784073550701783 -0.6435113124025951
2760000000.0 -0.14664927904860395 -0.654188788222271
2780000000.0 0.6661661985371793 -0.0007343631756904722
2800000000.0 0.6256467107958555 0.2038508483343923
2820000000.0 0.21951565093035608 0.6076688023337633
2840000000.0 -0.5722377519638544 0.2718150593691567
2860000000.0 0.2444546380917534 -0.5699586779410856
2880000000.0 -0.2615539629958928 0.5434130673031964
2900000000.0 0.5703021420748531 -0.1322816523190299
2920000000.0 -0.3828087880077911 -0.4173656929388452
2940000000.0 -0.48905605833118837 0.22861629501051867
2960000000.0 -0.08187525885387367 0.5125264123919073
2980000000.0 0.4432363895806855 0.21875294535937828
3000000000.0 0.26405365352617016 -0.3915136277465857
3020000000.0 -0.3948970015037932 -0.21334076568046934
3040000000.0 0.3449031782006886 0.24627714316771926
3060000000.0 -0.1660404124221326 -0.35959168102562405
3080000000.0 -0.15038613218196137 0.3393981360472951
3100000000.0 0.03364903919148302 -0.3506190322698752
3120000000.0 -0.06730375871246853 -0.33067262460159597
3140000000.0 -0.058347910400796385 0.3273560479839423
3160000000.0 0.01062937847318061 -0.3273646221278201
3180000000.0 0.01798364434396051 0.3215443342744282
3200000000.0 0.11857970288705343 -0.29484817357383364
3220000000.0 -0.30262781416362733 0.044232544000789305
3240000000.0 -0.22020245235692387 0.1954487030666195
3260000000.0 -0.22802044128975915 0.1590385570853801
3280000000.0 -0.1947015784490534 -0.17620812757877766
3300000000.0 0.21793612609454968 -0.11830325477208367
3320000000.0 -0.014871227060033165 0.22691597741895944
3340000000.0 -0.20753191038976676 -0.031059723262966073
3360000000.0 -0.017917101348773463 -0.18235922106015187
3380000000.0 -0.11988942012051458 -0.09676267575591499
3400000000.0 -0.04358023221598827 0.12361365935902792
3420000000.0 -0.11377226462082789 -0.031229546432075532
3440000000.0 0.09569669434519994 0.0514690219418215
3460000000.0 0.020011187530034627 0.09953410087126886
3480000000.0 -0.0725646496443928 -0.05140794255787389
3500000000.0 -0.01728124394991511 0.0779287726924875
3520000000.0 0.012718294268170841 0.06865897741272145
3540000000.0 -0.06024652374264928 -0.027856342508166584
3560000000.0 0.0528728272149251 -0.04571297427208568
3580000000.0 0.04781909904244402 -0.05951195418021711
3600000000.0 0.024474474542117423 -0.08587388559772902
3620000000.0 0.05307284056612794 0.08590159707687069
3640000000.0 0.01906761374752569 0.1060663119981902
3660000000.0 -0.022673253002460352 0.11005074338191546
3680000000.0 0.048068270796942536 -0.09900854080447107
3700000000.0 -0.039178348385593045 -0.09313170992120828
3720000000.0 0.07217747646125977 -0.05612500887330201
3740000000.0 0.08118047937464529 -0.01008144711100642
3760000000.0 0.06990024605410364 -0.03189126476372087
3780000000.0 0.012123711772064512 0.06529692812570416
3800000000.0 0.044076955690573454 -0.0060146960875280845
3820000000.0 0.035547576439274114 0.021134803873159275
3840000000.0 -0.04848852044071149 -0.010984388374884023
3860000000.0 0.05162995552062542 0.05416355323332588
3880000000.0 -0.031315752106868676 -0.0850718113520933
3900000000.0 0.007985401685339259 -0.10488237586531646
3920000000.0 -0.06918446862352808 0.08231145780050164
3940000000.0 0.09572767508122267 0.05062724838714069
3960000000.0 -0.060619390705546755 -0.08632589083010335
3980000000.0 0.007698734827534247 0.09962406504758149
4000000000.0 0.0381471476778178 -0.07949189340587176
