!Created with skrf (http://scikit-rf.org).
# Hz S RI R 50.0 
!freq ReS11 ImS11
400000000.0 0.835474350968328 0.4064449487903346
420000000.0 0.9167439176789671 0.1427910477531017
440000000.0 -0.07265693063296873 0.9263687593829283
460000000.0 -0.36720901930776834 -0.85013365700157
480000000.0 0.0766298055419913 0.9178826041689248
500000000.0 -0.05715693399511546 -0.9205749055184713
520000000.0 -0.5451256366809759 0.7351446196712209
540000000.0 0.7847120430857223 -0.4608838079172362
560000000.0 -0.8138551512192258 0.39021706757406777
580000000.0 0.6257249550145326 -0.624665375994835
600000000.0 0.027201228024047654 0.8587644756674632
620000000.0 0.8078328266561547 -0.12937808043042226
640000000.0 -0.5059513411756035 0.5873211236778225
660000000.0 0.6993496533214978 0.24768104039738667
680000000.0 0.20803217486020334 -0.6674979341587994
700000000.0 -0.6367354659766097 -0.21261420056312566
720000000.0 -0.23659690440987607 0.6189321124501543
740000000.0 0.6231846694941454 -0.16123743191004772
760000000.0 -0.6463812345068929 0.09722164853378913
780000000.0 -0.5492134181450538 -0.35392498364278124
800000000.0 0.19068502548514246 -0.6322154472321468
820000000.0 -0.6515198834414915 -0.13644563941665172
840000000.0 0.034310781005431376 0.6881497422986033
860000000.0 -0.2748541177043689 0.6251800469517732
880000000.0 -0.4653119992895832 -0.502830628392606
900000000.0 -0.2212893886210363 -0.6519657832006737
920000000.0 0.6830210314403912 0.19700172953650985
940000000.0 0.5391542430288073 0.4838967679041141
960000000.0 0.21528636588551267 0.7030675317909252
980000000.0 -0.6922675215817718 -0.267839895761811
1000000000.0 0.6820588675745619 0.28956716697270024
1020000000.0 -0.4106677550003376 -0.6186226614551709
1040000000.0 -0.6272874102031808 0.38739119850087117
1060000000.0 0.26204438550890186 0.6742639832189837
1080000000.0 0.7034887468523104 0.020502545268666204
1100000000.0 0.6924618581777101 -0.106698847647756
1120000000.0 0.6662701698387955 -0.08150285354387682
1140000000.0 0.6597824823372478 -0.06954293567550168
1160000000.0 0.6512849549818995 0.06858191869933508
1180000000.0 -0.5866502183981893 0.2834130371800945
1200000000.0 -0.5361932736114042 -0.35347419033328215
1220000000.0 0.16777468839271817 -0.6091761098244618
1240000000.0 0.5444427558323545 0.3125868789629983
1260000000.0 -0.5603775224139822 0.2738517393341616
1280000000.0 0.32482729244062464 -0.527352617280424
1300000000.0 0.20177583007920868 0.5806846486221812
1320000000.0 -0.5952281322569468 0.12840104747711223
1340000000.0 -0.3721751787264398 -0.4704515617592518
1360000000.0 -0.4813703531537715 -0.33516841167840555
1380000000.0 -0.48329551005910554 0.3184806183904825
1400000000.0 0.5669438617876502 -0.09160990467068043
1420000000.0 -0.45426880552000054 0.34288222669976226
1440000000.0 -0.07438124151744697 -0.5697848871625427
1460000000.0 -0.3652513744979829 0.46920411361784975
1480000000.0 -0.46961929761667753 -0.395684339508723
1500000000.0 0.5425321941805952 -0.3283858011302151
1520000000.0 -0.3693689827422598 0.5452162684294335
1540000000.0 0.6033265326375734 -0.3055893902171975
1560000000.0 -0.6441011099606324 -0.25295338140033696
1580000000.0 0.3205192510182562 0.6292437669433939
1600000000.0 0.06384176159511021 -0.7075013000892176
1620000000.0 0.30544832031259017 0.6404041235923917
1640000000.0 -0.6066999423553967 0.34539939814710646
1660000000.0 -0.2620102213989311 0.6210374509974502
1680000000.0 0.1398992589002777 -0.60760932035359
1700000000.0 0.4287015136123605 -0.30618634019224944
1720000000.0 -0.2472064146894828 0.22638256280585242
1740000000.0 -0.057766431368209394 -0.02162944502968289
1760000000.0 -0.26446176989371384 -0.09465840378120653
1780000000.0 -0.46075720589606095 0.10769357085339609
1800000000.0 0.3618255036067804 0.46503888376598596
1820000000.0 -0.5382096524838211 0.3632398376207724
1840000000.0 0.21266909115398816 0.6576475088782028
1860000000.0 0.012393600148898494 0.7114107254826665
1880000000.0 -0.6950156306764854 -0.1946401393730064
1900000000.0 0.587791525186511 -0.4276893313932231
1920000000.0 -0.048440427754364544 0.7244960401582137
1940000000.0 -0.2878495526602153 -0.6540717217888601
1960000000.0 0.6238906057650492 0.32770252566712943
1980000000.0 -0.5270804106637639 0.4441026155273893
2000000000.0 -0.14804484104118285 -0.657203479672172
2020000000.0 0.6425102731290644 -0.14204085112099057
2040000000.0 0.3446997822541195 0.5410892248210664
2060000000.0 -0.3458605033345554 0.5238153967121475
2080000000.0 0.0789544211730451 -0.6039168711531526
2100000000.0 0.5466453473135923 -0.2140365343282432
2120000000.0 0.033534666077861604 0.562061071058479
2140000000.0 -0.5418215484523408 0.014779318555295448
2160000000.0 0.4101503269835868 -0.3133578269839657
2180000000.0 -0.22628212638801223 0.43298164627318075
2200000000.0 0.0851855580811368 -0.455210243841391
2220000000.0 0.3147712923386094 0.29754646217933434
2240000000.0 -0.4009363283929109 -0.08582451261458397
2260000000.0 0.026222875376122706 -0.37913716846694384
2280000000.0 -0.03344573475379498 -0.34523776661696154
2300000000.0 0.01733527781606046 -0.31610638785595185
2320000000.0 -0.2706262093470678 -0.0996172661208963
2340000000.0 0.26498466162297335 -0.04701545342631166
2360000000.0 -0.21971838222150233 -0.12734036330502232
2380000000.0 -0.0725957907092229 0.22986067786509118
2400000000.0 0.009357552579599207 -0.23762295071364725
2420000000.0 0.23000259137903895 -0.017437927113333685
2440000000.0 0.21635420763858906 0.09282755191875257
2460000000.0 -0.00012840557532525535 -0.23902125405499247
2480000000.0 -0.21127318804692866 -0.13691489656064737
2500000000.0 0.07358884931167765 0.2632709706088936
2520000000.0 0.1124710616825355 -0.2581702897378187
2540000000.0 -0.009093994990571685 -0.30445118877950084
2560000000.0 0.32816118195858307 -0.004193191882024648
2580000000.0 0.3167588647118785 0.13842415543828043
2600000000.0 0.13569998768139166 0.3401554675139295
2620000000.0 0.15096813392972733 -0.36013521090152373
2640000000.0 -0.39433168279020464 0.0921368250726934
2660000000.0 0.3305161110836135 0.26369043178636775
2680000000.0 0.29392665943091767 0.3340329330520679
2700000000.0 0.3798680356262344 -0.27620221688588636
2720000000.0 -0.28136505632561026 -0.40401936602909705
2740000000.0 -0.48768245391490556 -0.16331029438827455
2760000000.0 -0.3788234297478026 0.3767278749783715
2780000000.0 0.16064816716448094 0.5210381330303735
2800000000.0 0.518861229063926 0.19098868805859628
2820000000.0 0.11838980736558083 -0.539896466652108
2840000000.0 -0.48550745557697345 0.24342239423317222
2860000000.0 0.5347418167994447 -0.07632763309328006
2880000000.0 0.1415999358102546 0.5154972131521601
2900000000.0 -0.31055668754254967 0.42678015166079686
2920000000.0 -0.5300235350953407 0.0008033976877407984
2940000000.0 0.5304887618477934 -0.0808504252194031
2960000000.0 0.038648363485194834 0.5481816160834331
2980000000.0 0.037080499670243114 -0.5626511101900836
3000000000.0 -0.5696230047015997 0.09025768915823276
3020000000.0 -0.43006533633689786 0.4022524348608045
3040000000.0 -0.5782138184247377 0.15842076660430768
3060000000.0 -0.4987722996990072 -0.3436085075923342
3080000000.0 0.18860736591389743 -0.5818938440654259
3100000000.0 0.6061338287864966 0.09529744378729196
3120000000.0 -0.06000771516432944 0.6135953011222464
3140000000.0 -0.2697228709380733 0.5534622641024026
3160000000.0 -0.6095935117811249 0.07988010617173642
3180000000.0 -0.6092856366622104 0.09021240549705292
3200000000.0 -0.5790073351499331 -0.20107887883926778
3220000000.0 0.5841618616260256 -0.18900085764561406
3240000000.0 0.550497721617893 0.26895045883825436
3260000000.0 -0.06350506919369348 0.6059213493364151
3280000000.0 -0.5657685032893378 -0.20215044440774096
3300000000.0 0.2328872933414826 -0.5395635977634794
3320000000.0 0.24954679216562065 0.5059737415467648
3340000000.0 -0.40942482767896937 -0.3311244193937572
3360000000.0 -0.09188239064462862 0.45345931805066175
3380000000.0 0.15231049683523723 -0.3545293788598073
3400000000.0 -0.23077644040776554 -0.2502180303876444
3420000000.0 -0.32748103824644387 -0.15213032242813362
3440000000.0 -0.05816679270954584 0.4043117861835707
3460000000.0 0.01825323953561549 0.44648626895807164
3480000000.0 0.16192608969994934 -0.44196695697440386
3500000000.0 -0.13393728157853566 0.45815581139522243
3520000000.0 -0.32652304392816106 -0.3421744933674546
3540000000.0 0.08078808444709729 -0.4558399663111302
3560000000.0 0.17660977278534662 -0.4058369548356428
3580000000.0 0.3917108443246142 0.14472288580101325
3600000000.0 0.37872530618484546 0.09808758478998524
3620000000.0 0.36623606437239964 -0.04745606355435608
3640000000.0 0.3398668462949869 -0.06093971728431145
3660000000.0 0.32125506979861196 0.040645089264633005
3680000000.0 0.05416702978965164 0.2964366304674133
3700000000.0 -0.04401881162103235 -0.27004478999310044
3720000000.0 -0.10319303338519573 0.22211513526207877
3740000000.0 -0.09293322029259551 0.18681662969650797
3760000000.0 -0.17236884516216733 0.04047745109531987
3780000000.0 0.12933322015002482 0.0445340123593198
3800000000.0 -0.08288052064121165 0.045296424962980676
3820000000.0 -0.012291385861452325 0.057784235852262056
3840000000.0 -0.040028887581758904 -0.01926737153615319
3860000000.0 -0.049667294768010926 0.04244678882682764
3880000000.0 -0.09029167444231598 -0.013664106596033997
3900000000.0 0.017528103178839575 0.12493680895406695
3920000000.0 -0.15395337211287932 -0.020877049507951013
3940000000.0 -0.17618359863617594 -0.007267626091500393
3960000000.0 0.02640754581150098 0.18680254764368381
3980000000.0 0.1940115935621262 0.012870083624205048
4000000000.0 0.18217869658245514 0.06732308331069023
