!Created with skrf (http://scikit-rf.org).
# Hz S RI R 50.0 
!freq ReS11 ImS11
400000000.0 0.43663540217987745 -0.6356980646875141
420000000.0 -0.026003362999427578 0.7089779755805173
440000000.0 -0.05984300198914363 -0.6755709135125443
460000000.0 -0.08501638016575476 0.6066984988536623
480000000.0 0.551694061769895 0.10140478213961918
500000000.0 0.5252004891306971 -0.12295781130332754
520000000.0 0.11526221209147428 0.4532099384779745
540000000.0 -0.38858924439643633 0.06890500845129677
560000000.0 -0.28404080548363725 -0.21148983113319472
580000000.0 0.20535546987918057 0.260234595711585
600000000.0 -0.20822163626412463 0.22007775052633563
620000000.0 0.08610921431556996 -0.2985573278059711
640000000.0 -0.18217536976019968 0.23023746858305233
660000000.0 -0.07057236076061138 -0.26662444654885187
680000000.0 0.11085740901296541 -0.2543906921441814
700000000.0 -0.1684818965344808 -0.21258177800122663
720000000.0 -0.038821016569373264 -0.28681558445569577
740000000.0 -0.282371895406457 0.0487783185054939
760000000.0 0.04688820872963647 -0.25949314298963
780000000.0 0.2572039714972328 0.055482559359294456
800000000.0 0.1470007089196178 0.20414061190404997
820000000.0 -0.10319041426493034 -0.20073677454295705
840000000.0 -0.2309293307468406 0.04676745923022581
860000000.0 0.23086328512766643 -0.0667743787323077
880000000.0 0.1359153162258169 0.19457598618809518
900000000.0 0.08314059660695783 0.22763249365751123
920000000.0 0.21448855028220365 -0.0036974062023970343
940000000.0 0.006223476308356371 -0.20884953744101561
960000000.0 -0.17141620996953996 -0.08579605104524422
980000000.0 -0.1792259642902739 -0.021711491595882926
1000000000.0 0.10858795601744427 -0.13031175001539505
1020000000.0 0.06640667962162086 0.12794537493433747
1040000000.0 -0.05001391852742197 0.11932479410514696
1060000000.0 0.1268264757270183 0.042223183077714416
1080000000.0 -0.13083298928136108 0.12408662944673866
1100000000.0 -0.1800927066104808 0.07282631325995209
1120000000.0 -0.09457939763302106 -0.19503568295111756
1140000000.0 0.23816591455565922 0.05901390444625971
1160000000.0 -0.07729731496135689 0.26598410838715303
1180000000.0 0.2613120937894447 0.09940687807632269
1200000000.0 -0.28721424153913694 -0.0709335364874668
1220000000.0 -0.003611194759791307 0.2988075805928488
1240000000.0 -0.0848801736551141 0.2918102713147935
1260000000.0 -0.10288620864673684 0.2820133062716339
1280000000.0 -0.2485752167356203 -0.18272377128465375
1300000000.0 -0.3034802689889823 -0.05868363808973059
1320000000.0 -0.31408174980208714 0.024164569074805367
1340000000.0 0.3269089634741219 0.023463482657379995
1360000000.0 -0.10868125328224254 0.3139882699518535
1380000000.0 -0.31424013565658043 -0.1139878005440142
1400000000.0 0.10924693965746189 0.3135619536358234
1420000000.0 0.32357909071736923 -0.10575187666991663
1440000000.0 -0.24816787639091636 -0.2245760587259086
1460000000.0 -0.28403743380341295 0.14894099063445215
1480000000.0 -0.10803827080750784 -0.2970741922462318
1500000000.0 0.050908427709721434 -0.2974945935637419
1520000000.0 0.2018735598028695 -0.18754585344793898
1540000000.0 0.02310671107473858 0.2560457274171659
1560000000.0 -0.16363492273372676 -0.1489619534921578
1580000000.0 -0.15811082773769053 0.09298195328875189
1600000000.0 -0.16237559705471055 -0.02433943118348964
1620000000.0 0.02020970934068331 0.1352972466951617
1640000000.0 -0.07832716886319759 -0.0730509155072605
1660000000.0 0.053500880293750996 -0.09114029114050776
1680000000.0 -0.0862305928371402 -0.028531279793104002
1700000000.0 0.02329777673432397 -0.058873689109008705
1720000000.0 0.0466210458770516 -0.015729047844897866
1740000000.0 -0.031784112743342065 0.013037533260213618
1760000000.0 0.0030101915509207007 0.007057840931375337
1780000000.0 -0.02296582882912684 -0.0032399254019094257
1800000000.0 0.023136002539212806 0.05150803989908796
1820000000.0 -0.07771423947294652 0.005224654668499126
1840000000.0 -0.08837537461014967 0.08419618303931814
1860000000.0 0.10802492412656654 -0.10422659920318933
1880000000.0 -0.16426196897109246 0.03282817550593227
1900000000.0 -0.18368847479065795 -0.0024013968718189374
1920000000.0 -0.17913336401300822 0.10924543650890964
1940000000.0 -0.13275612031635506 0.17369452465752644
1960000000.0 0.18093564165909976 0.10535348038626265
1980000000.0 0.04736823831376315 -0.20477342667125595
2000000000.0 -0.051207484462574844 -0.19955291734097103
2020000000.0 0.05917236640270541 0.18761173038744286
2040000000.0 0.140015342756579 0.13048997764611062
2060000000.0 0.1671170113969604 -0.08083475414645737
2080000000.0 -0.15370552884957522 -0.10058018810722553
2100000000.0 -0.12924416324932034 -0.12050702082450697
2120000000.0 0.17117519443848575 0.01610457272214628
2140000000.0 -0.13236543140108342 0.10450441543135129
2160000000.0 0.08124258832387025 -0.14528647073240275
2180000000.0 0.020399841875491084 0.15546319749852539
2200000000.0 0.09056785912168662 0.11116526395492007
2220000000.0 -0.13687738452509726 0.009227550514387811
2240000000.0 0.12494644954223758 -0.05927963111882639
2260000000.0 -0.11583347477753592 -0.05804715042548648
2280000000.0 0.09701160717783844 0.0417306087645566
2300000000.0 -0.0680001577981183 0.06297232600554041
2320000000.0 -0.08425034625752044 -0.025511466847958138
2340000000.0 0.05971604766326405 0.027229582496913703
2360000000.0 -0.04584260208298121 -0.03743095892741582
2380000000.0 -0.023465722575834954 -0.046911100752803685
2400000000.0 0.04901287616110661 -0.024064159826215858
2420000000.0 0.04278798308657675 -0.034907222968016995
2440000000.0 -0.042971927450512634 -0.007323312197388779
2460000000.0 -0.017362183232511586 -0.04837511455052337
2480000000.0 -0.007720239979344752 -0.051976591459107865
2500000000.0 0.04893081106505685 -0.016521787428829284
2520000000.0 0.029377728234161855 -0.0630219024330795
2540000000.0 -0.09052588982375773 0.018277601527983647
2560000000.0 -0.10208641387695472 -0.023392366632859745
2580000000.0 0.08770721996107006 0.08956028592304022
2600000000.0 0.07994801101006077 0.10979141557308837
2620000000.0 0.06729027899114105 0.14481975050088355
2640000000.0 0.06726280662878084 0.15745286335310782
2660000000.0 0.06616071634781709 -0.1689005836905227
2680000000.0 0.026635865338519672 -0.1865682248349696
2700000000.0 -0.18846801713188538 0.030750859445025754
2720000000.0 0.09847719505368309 0.16584981443952618
2740000000.0 -0.11530293191934306 -0.15222335358912537
2760000000.0 0.16878111755578856 -0.09059377406314031
2780000000.0 0.027375314461240554 0.2038958091024691
2800000000.0 0.13170743872086652 -0.16736096630239422
2820000000.0 -0.2093042172296383 0.02773446965307137
2840000000.0 0.19592087059218918 -0.09791372500319981
2860000000.0 0.0258329955021281 0.23042935681356985
2880000000.0 0.23199702939054248 0.05708923103503943
2900000000.0 0.19363507060775392 -0.14636087778000087
2920000000.0 -0.23055098611588964 0.09788059477806045
2940000000.0 0.24144818733615547 0.07817641858419888
2960000000.0 0.24140027544979775 0.011822691564012635
2980000000.0 0.2258656776761191 -0.029448697028218996
3000000000.0 -0.03868051564921219 0.2081574773211725
3020000000.0 -0.13747133737311856 -0.14735467687608567
3040000000.0 -0.17141783765521226 -0.049834596161460486
3060000000.0 -0.13656175882767396 0.0750221436950179
3080000000.0 0.11131288608142553 -0.08444115122506793
3100000000.0 0.10892659324151388 -0.06210611908189363
3120000000.0 0.03603630590428708 0.09355069789550723
3140000000.0 0.08284933229179181 0.056282707378444465
3160000000.0 -0.09923435746541223 -0.002850144092352094
3180000000.0 0.03797825386856135 0.09378743461450996
3200000000.0 0.014003906132854262 0.10819428814237328
3220000000.0 -0.1194987630155776 -0.023247813629661218
3240000000.0 -0.13401507256934592 -0.03447019939149934
3260000000.0 0.10155297523475698 0.11873469425572628
3280000000.0 0.16069508935184107 -0.06343791449101313
3300000000.0 0.1810352687019593 -0.05599275826817109
3320000000.0 0.1830927782345398 -0.09746270425937242
3340000000.0 0.15482069896695103 -0.15856255971749506
3360000000.0 0.2199389297826284 -0.063445259164709
3380000000.0 -0.18621733608797644 0.144688075608395
3400000000.0 -0.19799749734306996 0.14866599024144683
3420000000.0 -0.15330022372955113 0.18840560734347275
3440000000.0 0.005240197275306341 -0.23814561912556803
3460000000.0 0.20044344989650167 -0.13049088001445072
3480000000.0 -0.0024292654223969966 -0.22673832350653242
3500000000.0 0.13905249987634938 0.15828111592539695
3520000000.0 -0.0721538942434422 0.18792780736175543
3540000000.0 0.026990990523469018 0.18525576554636278
3560000000.0 0.10889669937332402 0.12244245104029867
3580000000.0 -0.121474494576482 0.09125179074304801
3600000000.0 -0.146103676426214 -0.013266859269595518
3620000000.0 0.03338378597385233 0.12747462503356072
3640000000.0 -0.10434150674047094 -0.07441585941090538
3660000000.0 0.09213151202102215 0.09647972818713199
3680000000.0 -0.12763469052520393 -0.03108624995268304
3700000000.0 0.06119884244260084 -0.13603003409880834
3720000000.0 0.14009815263483316 -0.08664401396512403
3740000000.0 -0.16354554580589253 -0.07339260913188322
3760000000.0 0.19505808833031565 -0.0742046214253614
3780000000.0 0.22802038256185772 -0.020506610386764504
3800000000.0 -0.17896237189359576 -0.16791103341742425
3820000000.0 0.07489996593253813 0.2523310407036113
3840000000.0 -0.07184535169660812 -0.26988323144878534
3860000000.0 0.2569893596741372 0.12149923437221827
3880000000.0 0.17049265506293498 -0.23163036495226094
3900000000.0 0.05925987915005688 0.29032236802077327
3920000000.0 -0.19932163502929157 0.20195026900645557
3940000000.0 -0.07257002275034694 -0.2559914334679789
3960000000.0 -0.12035594717011452 -0.2181630448720383
3980000000.0 0.11117733816711706 0.19651401217656078
4000000000.0 -0.17395265501862914 -0.0949308739043752
