!Created with skrf (http://scikit-rf.org).
# Hz S RI R 50.0 
!freq ReS11 ImS11
400000000.0 -0.5785626481048766 0.5776136810607589
420000000.0 0.17801404042691107 -0.7282872288529928
440000000.0 0.4346662393653731 -0.589820658975142
460000000.0 0.16013765697139987 -0.623637184090042
480000000.0 -0.35107417663615775 -0.4075164730663435
500000000.0 -0.37716188984265203 0.13318703371306426
520000000.0 -0.3635356107259789 0.26673257174314313
540000000.0 0.4692429819395217 -0.1405461366781383
560000000.0 -0.2762097446838351 -0.39572906305885835
580000000.0 0.05658417434148 -0.411653949788845
600000000.0 -0.13105323946073205 -0.3467547781916952
620000000.0 -0.10979442628901256 -0.3468655799428785
640000000.0 -0.2206701921950542 0.2936549365779333
660000000.0 -0.29273100641812694 0.220567162637554
680000000.0 0.24518777453367302 -0.2454276748726944
700000000.0 0.09909087904211691 0.31275907126198665
720000000.0 0.08651247253682214 0.334794584324289
740000000.0 0.22366886190163934 0.23052171345249114
760000000.0 -0.17375218020387687 -0.2514032947063285
780000000.0 0.10192460554817696 -0.27181614201419474
800000000.0 0.23773990845743584 0.09616510714696093
820000000.0 0.010138855633183457 0.2276474168308082
840000000.0 -0.1878812588736733 0.12400557186603442
860000000.0 -0.1732699805114358 -0.06438450193840158
880000000.0 -0.17135098962950823 -0.056054901066060384
900000000.0 -0.15671079149573064 -0.009734811564258978
920000000.0 -0.09101434870225017 0.12589380669404646
940000000.0 0.08407455098156165 0.11101239499249206
960000000.0 0.10290050745519116 0.04835400040793539
980000000.0 -0.034294052705999736 -0.06503152058893627
1000000000.0 -0.045112583212481794 -0.00208127074942729
1020000000.0 0.021360931466647064 -0.04535402454374651
1040000000.0 0.07301556471880953 0.03504857402574159
1060000000.0 -0.03011954684473501 -0.10336961302767914
1080000000.0 0.028646753609952575 0.14815896683347002
1100000000.0 -0.09513565477648374 -0.15281826818790095
1120000000.0 0.044344687529507355 0.2001072167031927
1140000000.0 0.12414637219305802 -0.20627558775623306
1160000000.0 0.27246408841790026 0.07385351869587002
1180000000.0 0.12266985516974725 -0.2754401991544211
1200000000.0 0.2999593226540119 0.09423864815410177
1220000000.0 0.2045080802016262 0.24840314603840097
1240000000.0 -0.3314553526715351 0.01842073075097902
1260000000.0 -0.25218964525347415 0.22515768862067437
1280000000.0 -0.3396162538336593 0.0027845609426010564
1300000000.0 -0.026817842973549295 -0.34761036972830894
1320000000.0 0.16356317576752147 -0.3186169094246317
1340000000.0 -0.3463631535849724 0.11791363400130482
1360000000.0 -0.2816664068814794 -0.26567305252055357
1380000000.0 0.09831983339047516 -0.3691938972069607
1400000000.0 -0.3564273614782069 0.11881026326096084
1420000000.0 0.2406794089432804 0.2929976614256418
1440000000.0 0.2633198152311109 -0.2566570038666738
1460000000.0 -0.09244367557866215 -0.3474219913968334
1480000000.0 0.02636504470493551 -0.3428704130248881
1500000000.0 -0.30542769155475524 0.14412149476815198
1520000000.0 0.31838246682531507 -0.0018301411388527713
1540000000.0 -0.12730939687788043 0.2532829499433527
1560000000.0 0.24264331131650424 -0.005497668232035899
1580000000.0 -0.03309884745573511 -0.21116024815417084
1600000000.0 0.07105697702853404 0.1647750376263366
1620000000.0 0.07819726265810939 -0.13670459251359884
1640000000.0 0.13302181403480778 0.02464009590086737
1660000000.0 -0.05160845724918704 0.09260630224602517
1680000000.0 0.08374809243144388 -0.024116450681837678
1700000000.0 -0.06620112760610661 -0.04539421841619426
1720000000.0 0.001810913818810575 0.056237120706009676
1740000000.0 0.03598924283450261 -0.029929490652928145
1760000000.0 0.05147483385120679 0.04207302694967566
1780000000.0 -0.0936588804375186 0.012926863743616767
1800000000.0 0.0764881581182947 0.10283576592092511
1820000000.0 0.142963115788995 -0.07404769064760534
1840000000.0 0.16876138451099418 0.09614130147645251
1860000000.0 0.20682118827707288 0.0707236237414978
1880000000.0 0.11054079380293157 0.2155416745302633
1900000000.0 0.26034569169218175 0.04973879753952262
1920000000.0 -0.03688325155734306 -0.28777455148801095
1940000000.0 0.014686035189377486 0.30517552858690056
1960000000.0 -0.3107783479388593 0.04484589564732359
1980000000.0 0.006414449795054199 -0.31553944519217747
2000000000.0 0.2585618654340283 -0.1745267373666504
2020000000.0 0.22484977373346296 0.21381572928873513
2040000000.0 0.021953272403002565 0.30766896340949285
2060000000.0 -0.07844604324493494 0.2957436805938995
2080000000.0 -0.2793078963784582 0.11674034282485202
2100000000.0 0.22405848178533863 0.20381980271125308
2120000000.0 -0.2768570992976161 0.12856161900178867
2140000000.0 0.06143254300646481 -0.2913761178483087
2160000000.0 -0.05126197403077097 0.28960316651734974
2180000000.0 0.2605202318157106 0.11294838175075768
2200000000.0 0.27895241129693343 -0.006834068532949977
2220000000.0 0.2563028457552849 -0.08510496645351366
2240000000.0 0.09633705522108434 0.24788504122601293
2260000000.0 0.011326030697095818 0.25339786727950786
2280000000.0 -0.22849237756215765 -0.07673616503027464
2300000000.0 0.2286384785930595 0.03368424722436362
2320000000.0 -0.09666244179856526 0.2060462392457183
2340000000.0 0.003217742542689429 -0.21411272800110304
2360000000.0 -0.1646134271938899 0.13789257502323302
2380000000.0 0.21936290348834092 -0.02144520743636559
2400000000.0 -0.14881514308726174 0.19027063001276645
2420000000.0 0.213830310834032 0.16176580969644633
2440000000.0 -0.17151342187306493 -0.23965850796603685
2460000000.0 0.23133110721149003 0.2294191097509174
2480000000.0 0.061370132321861906 -0.35563514084329256
2500000000.0 0.3921838414940076 0.07313450737195286
2520000000.0 -0.24814430787310865 0.358376913146046
2540000000.0 -0.3319060508931105 -0.33884969667134773
2560000000.0 0.5106621727558132 0.00922251313394965
2580000000.0 -0.4205698496273626 0.34093329818306367
2600000000.0 0.2177489469717788 -0.5279748095092308
2620000000.0 0.15881892755020907 0.5746292404761217
2640000000.0 -0.467371116001681 -0.3998898099534289
2660000000.0 0.606907825764321 -0.17413029468013597
2680000000.0 0.03431819511088244 0.6415726505917236
2700000000.0 -0.6138090728035707 0.22311206971322553
2720000000.0 -0.6424894718959298 -0.15271175172092055
2740000000.0 -0.6424166702828689 -0.16871878142351276
2760000000.0 -0.5489901900768139 -0.3765979964257705
2780000000.0 0.44035345053097963 -0.4941855189553018
2800000000.0 0.611101612447195 -0.2339147755998206
2820000000.0 0.5971082620480971 0.24134862752232839
2840000000.0 -0.2782117529391801 0.5669792514645492
2860000000.0 -0.06166629622557356 -0.615459673567185
2880000000.0 -0.032571152225241165 0.6015529040308085
2900000000.0 0.4993010625269918 -0.3048423698972622
2920000000.0 -0.4513448035494152 -0.33740336918980074
2940000000.0 -0.43406882775616246 0.31570259112669524
2960000000.0 -0.13784226344360032 0.49642516905708567
2980000000.0 0.40708222395309523 0.28081245364801
3000000000.0 0.11893439558947895 -0.45204893771883214
3020000000.0 -0.43849408171112897 -0.06799829121252222
3040000000.0 0.3633607123819944 0.20636743305783148
3060000000.0 -0.12293191606543448 -0.3682460553209438
3080000000.0 0.040899738645988455 0.362625099961244
3100000000.0 -0.05385542358093894 -0.3428637384803014
3120000000.0 -0.3089835017467073 -0.1228047480724315
3140000000.0 0.18407894048806284 0.2678829423185324
3160000000.0 -0.09151236973278373 -0.31156203183127645
3180000000.0 0.00959769117627794 0.3217346653038921
3200000000.0 -0.01084758733961034 -0.31504719461113134
3220000000.0 -0.302732127194821 0.030571450750353214
3240000000.0 -0.22155058120056406 0.18609267986867828
3260000000.0 -0.26083410403984114 -0.07148601160127199
3280000000.0 0.03567389088891589 -0.25725474240858315
3300000000.0 0.24007371435271388 -0.005592196065836849
3320000000.0 0.005709516816481372 0.2222561674268926
3340000000.0 -0.1622308885774562 0.11900677665463927
3360000000.0 0.04455165315870336 -0.16499261432283024
3380000000.0 -0.14282865697939298 -0.028951290737949862
3400000000.0 -0.035951075883818316 0.11660144967239898
3420000000.0 -0.03409633960031171 -0.10558933244575831
3440000000.0 0.09967941852012471 -0.023713049210794705
3460000000.0 0.07983243783212103 -0.04960271622258313
3480000000.0 -0.07616596004304454 0.04005256442219943
3500000000.0 -0.0009010010365090119 0.07318431651260116
3520000000.0 0.06332777109858764 -0.0052503017944153475
3540000000.0 0.04140565279928306 0.05205614395640528
3560000000.0 -0.06369649684897916 -0.02264836034360507
3580000000.0 -0.053055923207048716 -0.05428685621504576
3600000000.0 -0.06600087288209659 0.06012863898774749
3620000000.0 0.059174150914178034 -0.08141556074870412
3640000000.0 0.06265262526016346 -0.08530997230131986
3660000000.0 0.04048130847549721 -0.10394721902594245
3680000000.0 -0.05685535103321901 0.0864296676791206
3700000000.0 -0.027789754885864895 -0.09752441714596914
3720000000.0 -0.08962694242241032 -0.017862900541803735
3740000000.0 0.06066644581066116 0.04982603631139423
3760000000.0 0.04599730745599618 0.05489291133071642
3780000000.0 0.02555086631815499 0.05293354239334174
3800000000.0 0.011707499660510441 0.03985062507587904
3820000000.0 0.004326352940681153 0.031691062550477524
3840000000.0 0.005366739882729851 -0.04776305502859854
3860000000.0 -0.025486835569095145 -0.06624422281593811
3880000000.0 0.08718667010546953 0.012824024996674592
3900000000.0 -0.0013614365208309517 0.10028040875860832
3920000000.0 -0.038805154525060066 -0.09376084411947173
3940000000.0 -0.09539268854650591 -0.037046204419692495
3960000000.0 0.09967617208130557 0.028809221404689715
3980000000.0 -0.08275160826241129 0.0462587743520944
4000000000.0 -0.012362272813514702 0.08086490132559943
