!Created with skrf (http://scikit-rf.org).
# Hz S RI R 50.0 
!freq ReS11 ImS11
400000000.0 -0.7153389445423769 0.0792709199983214
406500000.0 -0.3086861388349093 -0.6297059643686941
413000000.0 0.676996365368476 0.03582821048008387
419500000.0 -0.6666382232861725 -0.0006316267920406843
426000000.0 0.2417723999746711 0.6111199415741333
432500000.0 -0.46598271777469213 -0.4501695238601735
439000000.0 0.6329193006588881 0.05264007603644247
445500000.0 -0.623432075230258 0.058885786488062065
452000000.0 0.5424369880289692 -0.29784049040380345
458500000.0 -0.1697612098331741 0.5987147862477926
465000000.0 -0.49641521175624953 -0.37461798716482053
471500000.0 -0.2547416033580466 -0.5648565599565116
478000000.0 -0.16492669153991432 -0.5888140457367786
484500000.0 0.25814031935013704 -0.5467723585917831
491000000.0 0.06273916636002036 -0.587209555856421
497500000.0 -0.31686860277494805 -0.474037376545003
504000000.0 -0.40278854412732645 0.3589794128128217
510500000.0 0.027943261770024066 0.49994069852602874
517000000.0 0.4250794122600416 0.1706185674213977
523500000.0 0.14939927426980462 0.4019972539901644
530000000.0 -0.11529011927072515 0.37601654018110886
536500000.0 0.25803311538135015 0.2515831051405743
543000000.0 0.28300543093895986 0.20240752158181058
549500000.0 0.3200873273213224 0.08566916753705091
556000000.0 -0.021957511683448113 -0.30611981545820566
562500000.0 0.16524140986311142 -0.23804360958113416
569000000.0 -0.1190362169834845 -0.24495118441947722
575500000.0 0.2602995789628308 0.019276674162435142
582000000.0 0.05238781805122329 -0.2531430665050832
588500000.0 0.18639465055872398 0.19056347694377443
595000000.0 -0.02049375339800417 -0.28371138793809253
601500000.0 0.024167453271410805 -0.29031350919260757
608000000.0 0.18584424254066081 -0.22900744927064579
614500000.0 0.07299486569193517 -0.2916200775071465
621000000.0 -0.030115190704271277 -0.29732697061406393
627500000.0 0.2955924921258248 0.018576043294690894
634000000.0 -0.060115879859929555 0.29640838774701583
640500000.0 -0.29027685568900635 0.02494678937777342
647000000.0 0.29816242522103514 0.019578632592728688
653500000.0 0.19908977292355162 0.22504061977507897
660000000.0 -0.2893105908797508 -0.0796525715631214
666500000.0 0.15589885868367795 -0.256734591409993
673000000.0 0.12592928070764595 0.2682160393622059
679500000.0 0.2888505600923894 -0.09698104820034675
686000000.0 0.267083299657504 -0.12915540967189357
692500000.0 -0.2933291499943103 -0.026120074327827602
699000000.0 0.23924560851631635 -0.1628900112946809
705500000.0 -0.29048328883851815 -0.020627641789376833
712000000.0 0.29164431772723093 0.019474033129928032
718500000.0 0.10027409146940451 -0.28123881152373587
725000000.0 -0.016344978877221184 0.31182539262503645
731500000.0 0.10384535954870142 -0.30102284320443373
738000000.0 0.15273407661715868 0.29346661109330924
744500000.0 -0.3280816864707053 -0.0008499323887366928
751000000.0 0.2526837611747353 0.21250080178476147
757500000.0 -0.1928487617544126 -0.2787119763898858
764000000.0 -0.1844903134044392 0.29548991689099735
770500000.0 -0.24211672440539092 -0.26141171931152046
777000000.0 -0.08503653057006809 0.3535893140791709
783500000.0 -0.09331852398184975 -0.34885812813144773
790000000.0 -0.10213106827086994 0.3523135935169311
796500000.0 -0.016112929486073728 -0.3697523653553394
803000000.0 -0.3501542279003833 0.09744508244597108
809500000.0 0.2663683099038954 0.24571621191346155
816000000.0 0.21766464006995573 -0.28723914615534707
822500000.0 -0.07787363359573424 -0.361976708630947
829000000.0 -0.34779145952236634 0.15768039370892473
835500000.0 -0.3935018293772894 -0.01723184756032869
842000000.0 0.4051986851609683 0.06678259439729538
848500000.0 -0.26310808352269294 -0.3181390350208562
855000000.0 0.19992222413584856 0.3740584295424782
861500000.0 0.1333388619919429 -0.40466288550330104
868000000.0 -0.2477020542287086 0.3556994153282533
874500000.0 0.33269739759326156 -0.2804652626196374
881000000.0 -0.274129119172485 0.349071402592438
887500000.0 0.11430003836016424 -0.43276866520193613
894000000.0 0.10895898141898716 0.43179697732891853
900500000.0 -0.4135296703736922 0.14780798996532118
907000000.0 -0.1751843619709396 -0.39194071162358196
913500000.0 0.4005452788655789 0.09355654449586819
920000000.0 -0.17886916119037896 0.358015068289422
926500000.0 -0.3818036742929394 -0.045387032868178634
933000000.0 -0.10706967872601707 -0.3567542015320704
939500000.0 -0.05886196925590197 -0.35651254875461663
946000000.0 -0.11690807765820786 -0.32146042840096445
952500000.0 -0.04444853407937081 -0.31749360965654183
959000000.0 -0.07363028080052232 -0.2919236924294061
965500000.0 -0.07753861974780028 -0.2723117072930443
972000000.0 0.15341771524805015 0.21942583508023067
978500000.0 -0.13550691246082208 0.2179216636473346
985000000.0 -0.206807070936357 0.12363261379711586
991500000.0 -0.2100203015507548 -0.08937789479610314
998000000.0 0.07423737669055551 -0.2016789751362409
1004500000.0 0.18461773352059282 0.08514138319049415
1011000000.0 -0.17165551010064553 0.08623557081616344
1017500000.0 -0.05443533854774567 -0.17330021151147743
1024000000.0 0.14772917129920915 -0.07521809733395762
1030500000.0 0.1130882832751535 0.10172359250401591
1037000000.0 -0.010902814546245258 -0.13880814818389955
1043500000.0 -0.04145608179709295 -0.12232314747279888
1050000000.0 0.12304297431407686 -0.0002938426137444534
1056500000.0 -0.09633584558739143 -0.06601157493457407
1063000000.0 0.10367842706063655 0.03843137475014801
1069500000.0 0.10358239441907527 -0.008455595253709869
1076000000.0 0.027655878200432978 -0.09832123970978694
1082500000.0 0.03701913317776058 -0.09167272248630372
1089000000.0 -0.07908965380926071 -0.061493836484019335
1095500000.0 0.08916752689739267 0.04467293428760102
1102000000.0 -0.10439186503184697 0.02067024557667175
1108500000.0 0.08947549560630066 -0.06728913754883048
1115000000.0 -0.07941981676268861 -0.09038869313316103
1121500000.0 -0.028355136547099005 0.13292859762256715
1128000000.0 0.028318488759516473 -0.14842472704636372
1134500000.0 -0.0023501965277295486 0.16618897548056355
1141000000.0 -0.06489141914919588 -0.1728934159161746
1147500000.0 0.13824096572139838 -0.14745330061290646
1154000000.0 0.18892503978934447 0.09607041220391976
1160500000.0 -0.019570172199698345 0.21926372180127887
1167000000.0 -0.20700498998819156 -0.09120048305731751
1173500000.0 0.22614543071253318 0.007743124083239318
1180000000.0 -0.21637368127995 -0.07300012767913851
1186500000.0 0.10332687669360151 0.20313433857767846
1193000000.0 0.19185371918942362 -0.13589360985091617
1199500000.0 -0.23940744742014733 -0.03390369698731799
1206000000.0 -0.2091087779178137 0.13944610415572167
1212500000.0 0.26221448719650914 -0.04660136373403448
1219000000.0 -0.27762067808899427 0.050079866056198054
1225500000.0 0.2863132847196027 -0.04149564533958676
1232000000.0 -0.2036607563783584 -0.22080238395785154
1238500000.0 -0.23337195108912956 0.20351276088335762
1245000000.0 0.21456448773130157 0.2325359818637712
1251500000.0 0.2383960779603913 -0.22092424932251337
1258000000.0 -0.21715378701293464 -0.24933201303212169
1264500000.0 -0.3191995119765118 -0.10235416054388544
1271000000.0 -0.15956146227058787 0.3035851771987066
1277500000.0 0.14971024555837023 0.31352111979970826
1284000000.0 0.3526195525381838 0.0006065065251765644
1290500000.0 0.199096541185824 -0.29279942849516893
1297000000.0 -0.1590642063227448 -0.32229483117227115
1303500000.0 -0.3575484992124311 0.015758653697751146
1310000000.0 -0.1285692306219397 0.3339414200862733
1316500000.0 0.35759221496045396 0.03282273082740047
1323000000.0 0.00286855530495269 -0.3574959274082488
1329500000.0 -0.08317776247426226 0.3444208017778371
1336000000.0 0.33287288451845487 -0.09511806357433521
1342500000.0 -0.3330829539230767 -0.07468543764322849
1349000000.0 0.1766172681419705 0.28268675896252493
1355500000.0 0.3159137596163601 -0.09189798521523318
1362000000.0 -0.24235562558755544 -0.21536236538907924
1368500000.0 -0.32260099102721956 0.03280149860719335
1375000000.0 0.09491196600083242 0.31867931635092706
1381500000.0 0.23346944719268817 -0.24255118224258548
1388000000.0 -0.3397156829058061 -0.06340086201089658
1394500000.0 0.14540838182638513 0.3219586066712652
1401000000.0 0.1739274637685927 0.31576322894923126
1407500000.0 0.31411331883391513 -0.18854977707781737
1414000000.0 -0.1617111116742702 -0.3369004912118992
1420500000.0 -0.28870656760945507 0.2459124238231121
1427000000.0 -0.169059503598984 0.339816090599198
1433500000.0 0.015869202233017594 0.38356505743716995
1440000000.0 0.0960026152875626 0.368440222689839
1446500000.0 0.06535384889707439 0.3793242885246899
1453000000.0 0.17099442914070004 0.3438612026825658
1459500000.0 0.24019956000543358 0.29865151779413734
1466000000.0 0.3677079246113205 -0.10152495146670516
1472500000.0 0.3259430823981902 -0.18660251531867422
1479000000.0 0.03796204140221514 -0.3654685138475176
1485500000.0 -0.2550474058679674 -0.2526149282457734
1492000000.0 -0.331998888115722 0.10300726094249506
1498500000.0 -0.053296482850975734 0.32880029523115106
1505000000.0 0.22050453614690538 0.2311276075376959
1511500000.0 0.1158819707931009 -0.2875628570169817
1518000000.0 -0.21479984055351425 -0.20748847097994413
1524500000.0 0.24037729477655198 0.16173735836799247
1531000000.0 0.15053026855331147 -0.23296819332174795
1537500000.0 -0.2312814937696568 0.14691396828613654
1544000000.0 0.2576587418627872 -0.062052028346503765
1550500000.0 -0.14830718523514816 0.22022875652340515
1557000000.0 0.05612607624661434 -0.25221046125029406
1563500000.0 -0.24534675663641012 0.0710928641279828
1570000000.0 -0.25442600768789275 0.005201286752965205
1576500000.0 -0.003286844985662123 0.2566483584609195
1583000000.0 0.2371403375245296 0.10812956210608395
1589500000.0 0.18064799268981868 -0.19183428637870226
1596000000.0 -0.1784655201125882 -0.1915991347778605
1602500000.0 -0.25598578423075447 0.05006896719615608
1609000000.0 -0.24323770105180426 0.08047309902054897
1615500000.0 -0.1761395510834439 0.17429121921865587
1622000000.0 -0.011908685467022465 -0.2415548533784247
1628500000.0 0.11626330108392059 -0.20635164699153413
1635000000.0 0.22129147100984659 0.06531433424429899
1641500000.0 0.021321535378969074 0.22300243312994336
1648000000.0 -0.21913658159632105 -0.0034788034036174064
1654500000.0 -0.0235119088060158 -0.21186255620876362
1661000000.0 -0.13048174170403948 -0.16393926432927441
1667500000.0 -0.19562335996501581 0.04869149465691628
1674000000.0 0.1292524746135108 0.13898346524908184
1680500000.0 0.14839314919717772 -0.08673508319399734
1687000000.0 -0.0844030976419992 -0.13469602195389058
1693500000.0 -0.05694750742079664 0.1303065244388531
1700000000.0 0.06481025969429186 -0.11693485510012908
1706500000.0 -0.07119518287813927 0.09846805203671576
1713000000.0 0.0071290116791982005 -0.11372506244578952
1719500000.0 -0.09303905876238211 0.05965321254288499
1726000000.0 -0.06948380971036934 -0.08335110074086602
1732500000.0 0.0034005723714159468 -0.10647762312541068
1739000000.0 0.07029557316192493 0.08284272823533606
1745500000.0 -0.10463600978273163 0.019562243923862084
1752000000.0 0.06016988701740062 -0.09025447456846425
1758500000.0 -0.09772915757912048 0.0439379060708782
1765000000.0 0.06531249489245154 0.0838079116181716
1771500000.0 0.08564124655694343 0.05803038415368942
1778000000.0 0.05891431182521914 0.08247876400771635
1784500000.0 -0.024533189300084458 0.0984536107744105
1791000000.0 -0.01817934722418724 -0.09802060736936113
1797500000.0 -0.08972550271969679 0.041489488819556886
1804000000.0 -0.05631760819429088 -0.08163395745430106
1810500000.0 0.09695838095050902 0.022362962949930492
1817000000.0 0.07707587587275327 0.05796047884700522
1823500000.0 0.06481878212026661 -0.06327887954667477
1830000000.0 0.01210096848461387 -0.08020502556002608
1836500000.0 0.019805238068665083 -0.0695312344530992
1843000000.0 0.03271057977926107 0.046316681261033166
1849500000.0 -0.04329694443071248 -0.007724033720740648
1856000000.0 0.03193473419985347 0.0011167896664175485
1862500000.0 -0.02089615628383211 0.006605748328068733
1869000000.0 -0.011839437730602049 -0.016031116399106215
1875500000.0 -0.016395034226429406 -0.009801725234125501
1882000000.0 -0.002654199578636144 0.01438414471882891
1888500000.0 0.0016352267983350606 -0.015156198101648262
1895000000.0 0.0038364704661445364 0.01765241548694886
1901500000.0 0.01651569938130984 0.013594143271294466
1908000000.0 0.01019520019551682 0.01996037315961784
1914500000.0 -0.012160478796452316 0.021831444501551004
1921000000.0 -0.025429768039206543 -0.004464391334501269
1927500000.0 -0.01299266383972062 0.01967715824419753
1934000000.0 0.0018019439142087387 -0.022458181464062015
1940500000.0 0.0056611984275567705 -0.01774217694155354
1947000000.0 0.017035725825692228 -0.010634775031511936
1953500000.0 -0.01696284155083287 -0.016410685995122777
1960000000.0 0.0003777429944699246 -0.022959979678305324
1966500000.0 -0.016688305147960027 0.0287355378234297
1973000000.0 -0.040468640348443795 -0.003638016571507782
1979500000.0 0.012942496650697478 -0.0500980328494512
1986000000.0 -0.018608467203215528 -0.06345135656376319
1992500000.0 -0.07697598436326651 0.004268161556049402
1999000000.0 -0.05408599172187428 -0.07051761384418519
2005500000.0 -0.09980462822540272 0.0008852521263727077
2012000000.0 -0.07471044568135922 -0.08068392140162525
2018500000.0 0.04821832246043928 -0.10749225526651511
2025000000.0 0.1231376786242142 -0.03591460061726474
2031500000.0 0.10970865870350138 0.07190764243652219
2038000000.0 0.031592065173121395 0.13216452722404118
2044500000.0 -0.13755040453661666 0.014469528652434109
2051000000.0 -0.11737937010805727 -0.07993012331229495
2057500000.0 -0.136964565779908 -0.02777855796467009
2064000000.0 -0.13849268465914039 -0.021438977387395645
2070500000.0 -0.1332092923363175 0.02509818807564065
2077000000.0 0.08815452714788327 0.09476372943795641
2083500000.0 0.10491725433074574 -0.06187584912713898
2090000000.0 -0.11329084211633007 0.02655834151401791
2096500000.0 0.07262438841836685 0.0816651750771024
2103000000.0 -0.08144546727840617 0.06933825328617449
2109500000.0 -0.05340887600643629 -0.09066025175313674
2116000000.0 -0.10399899167897396 0.03201615787832107
2122500000.0 0.008566486816618616 0.1120466816771989
2129000000.0 0.1173530966455509 0.03780502749586463
2135500000.0 0.08543272765651891 -0.09831303664482283
2142000000.0 -0.08427911838012711 0.11489208364577871
2148500000.0 -0.12899350663576986 -0.08259499762018616
2155000000.0 0.10539654542266287 0.13013135698605105
2161500000.0 -0.07444474427159557 -0.16306994111832235
2168000000.0 -0.1634141229733968 0.10575149664928832
2174500000.0 -0.11408760561654231 0.17191457432257395
2181000000.0 -0.04905392524900831 0.21311577177279467
2187500000.0 0.02293442412217752 0.23012248299644125
2194000000.0 0.04908085456407927 0.23772224324859728
2200500000.0 0.043793679371027426 0.24902075862901188
2207000000.0 0.25454631907240466 0.04264032934819515
2213500000.0 0.23872578456593788 0.10207839811998518
2220000000.0 0.25938886802987665 -0.012295497962831952
2226500000.0 0.22157215823781756 0.12133400680901732
2233000000.0 0.21217848644754064 0.12855873767911455
2239500000.0 -0.12322632724955052 0.20837501915222753
2246000000.0 -0.16604327426978246 0.1657121898446665
2252500000.0 -0.22195922268847346 0.03867615733318311
2259000000.0 -0.2198530193482003 -0.014410051031068108
2265500000.0 -0.2011446459822109 0.07351045539767798
2272000000.0 -0.0809693079136868 0.1910030307033838
2278500000.0 0.12175620595222365 -0.16050994265045776
2285000000.0 -0.13042617518572652 0.1423124204741935
2291500000.0 0.038492877055849195 -0.17908568975494216
2298000000.0 -0.03965138516166427 0.1676602039573966
2304500000.0 -0.07834837886078556 -0.14872246750168058
2311000000.0 -0.15464592860251183 -0.012941599204769842
2317500000.0 -0.03753800168653269 0.1498567378358407
2324000000.0 -0.023897269327813317 -0.14886683832877054
2330500000.0 -0.14557327996605235 0.04120642865349246
2337000000.0 0.11990283705196818 0.09217295644022751
2343500000.0 0.054388112121115655 -0.14464208293381045
2350000000.0 -0.15510860021926204 -0.004195628124393266
2356500000.0 -0.1435735904732922 0.06707601789631165
2363000000.0 0.0011654676983464637 0.160858379571052
2369500000.0 0.15625166139432733 0.04425571595768989
2376000000.0 0.15691764130531208 -0.04272576003295011
2382500000.0 0.13907982543667896 -0.07996927520089078
2389000000.0 0.1453173738005478 0.06676654345357085
2395500000.0 0.022019298664991454 0.15748621417955663
2402000000.0 -0.14988200044781555 0.0520884416353323
2408500000.0 -0.15475322123159146 0.040394410852484124
2415000000.0 -0.13593076418571523 0.0846604725321937
2421500000.0 -0.14799755433994596 0.056057022876297095
2428000000.0 -0.07072226090393362 0.13875758798611368
2434500000.0 0.007931197571831163 0.15221845509467546
2441000000.0 -0.009257127263242189 0.1515512719601737
2447500000.0 0.11019859964464843 0.10092243841272912
2454000000.0 0.1426789553644924 -0.039201936872616576
2460500000.0 0.13437672400759124 -0.060361982530924396
2467000000.0 0.14118804556680511 -0.04265907481221965
2473500000.0 0.130410007957647 -0.07073112806193382
2480000000.0 0.14966440345377635 0.001832872612096698
2486500000.0 0.15418590798478327 -0.01706995199725153
2493000000.0 0.00787038143354895 0.15427196514474684
2499500000.0 0.0809612915379238 0.13430162087514735
2506000000.0 0.0726288651208881 0.1412683828082312
2512500000.0 -0.0914432039293398 -0.12999569079929305
2519000000.0 0.15717750370329558 -0.037131853522906384
2525500000.0 -0.12397009322980258 0.10827036769256952
2532000000.0 0.06642162456214021 -0.1545441536058903
2538500000.0 -0.03657067066614959 0.16389357866027066
2545000000.0 -0.11986522643709528 -0.12075207403814475
2551500000.0 0.11278930145027079 0.1261901207345748
2558000000.0 0.05107413707100574 -0.16150363200550447
2564500000.0 -0.02852011753983217 0.16448949836529056
2571000000.0 0.1428135378075022 -0.08334928585372067
2577500000.0 -0.1493960654237491 -0.05421095170306811
2584000000.0 -0.15652639440854524 -0.012171170300672846
2590500000.0 -0.0021373731366614874 0.15311960836805127
2597000000.0 0.1519749589546811 0.015467287246068617
2603500000.0 0.00634853400371294 -0.1495352255384125
2610000000.0 -0.017504100479638986 0.14809017617063033
2616500000.0 0.01579729835591539 -0.1431680039476519
2623000000.0 0.038118351864913524 0.13418296019187606
2629500000.0 -0.07545702616704236 -0.10644380824029517
2636000000.0 0.12238044666806722 0.001702527892162419
2642500000.0 -0.10867434674612972 0.029173262264485564
2649000000.0 -0.0929052014376275 -0.051079759391331594
2655500000.0 0.0930363246753279 0.023313014506143048
2662000000.0 0.061304649892431395 -0.06775705420986115
2668500000.0 0.018984578199724964 -0.08419814146174022
2675000000.0 -0.005850799204959201 0.08378433823154187
2681500000.0 -0.06802581490995344 0.04713447297884106
2688000000.0 -0.010514786791572939 0.08284703988650956
2694500000.0 0.07870460001187225 0.034779538363049804
2701000000.0 -0.027192444457140086 0.08432585137970366
2707500000.0 -0.09520022129302792 -0.019680479745250157
2714000000.0 0.10442730991953982 -0.012664562890955274
2720500000.0 0.04544460851955875 -0.10737652692205711
2727000000.0 -0.1271742740291304 -0.01042022020837957
2733500000.0 -0.05068490101646263 -0.13165871426362835
2740000000.0 -0.10478615775284772 -0.11474398634264919
2746500000.0 0.07149387181930714 -0.15133126335603417
2753000000.0 0.18243084008133248 0.006600773644872616
2759500000.0 0.13992136053483709 0.13210655424144307
2766000000.0 -0.17315666282311457 0.1042475622413849
2772500000.0 -0.0874893989043879 -0.19177522394654747
2779000000.0 0.1246491438244618 0.17915282766154267
2785500000.0 -0.20758737685224857 -0.08670247288405977
2792000000.0 0.22608630788511772 0.053831323701084795
2798500000.0 -0.1986080441090379 0.1346078524436097
2805000000.0 0.17586183914888584 -0.1715980094502523
