!Created with skrf (http://scikit-rf.org).
# Hz S RI R 50.0 
!freq ReS11 ImS11
400000000.0 -0.7152892757592184 0.07762203533533679
406500000.0 -0.2973221755301219 -0.6350435683162728
413000000.0 0.6772479784853869 0.024304249760612625
419500000.0 -0.6666671370602091 -0.012785085477528137
426000000.0 0.24903110355448282 0.6084282959640108
432500000.0 -0.4452359899921911 -0.47038907876525726
439000000.0 0.6291685841587692 0.08542702343042635
445500000.0 -0.6248158520550605 0.04226667964852401
452000000.0 0.5425762880574845 -0.2977766084805783
458500000.0 -0.1517030883160445 0.603303350799793
465000000.0 -0.5178643720510121 -0.34485382663942915
471500000.0 -0.25732167749294266 -0.5638948223029533
478000000.0 -0.06765890150420316 -0.6081322499145142
484500000.0 0.2320532288265724 -0.558235013993688
491000000.0 0.059757840973728715 -0.5872714607539837
497500000.0 -0.30927515802079797 -0.47881737107004224
504000000.0 -0.4233227123408408 0.3342513335078081
510500000.0 0.0275113660089839 0.4997704437082474
517000000.0 0.42070752068828476 0.18177874556340778
523500000.0 0.11351551779853913 0.4136566377677293
530000000.0 -0.13382862810895685 0.36955751995521957
536500000.0 0.25001447101681035 0.2596849485447451
543000000.0 0.30129119876105265 0.17414351807913156
549500000.0 0.3194085472172691 0.09058564492826165
556000000.0 0.010499036422145258 -0.306561983854841
562500000.0 0.14732898220403098 -0.24983951389995093
569000000.0 -0.15463018218110378 -0.22509091580410706
575500000.0 0.25870421997833726 0.041879241749197486
582000000.0 0.05804545553414971 -0.2512022828402056
588500000.0 0.2142308819837873 0.15806753166979354
595000000.0 -0.019818118731223695 -0.28471465157582027
601500000.0 0.06928045692324371 -0.2839083385725193
608000000.0 0.2044611783639244 -0.21182212100016032
614500000.0 0.048699828322328005 -0.2964506709806849
621000000.0 -0.033010790802357914 -0.29710958132174864
627500000.0 0.29315892943306937 0.04316747524071989
634000000.0 -0.07941211471009481 0.2913720161405485
640500000.0 -0.28952513737502994 0.03259472187602054
647000000.0 0.2978619645381345 0.022111299312752204
653500000.0 0.2047446565593632 0.21910858000574224
660000000.0 -0.2943378618880699 -0.05657742504834365
666500000.0 0.13824290982456616 -0.2668898041002183
673000000.0 0.1068626642118927 0.27622534764594475
679500000.0 0.28513606026341526 -0.10704801638006314
686000000.0 0.2581655206418067 -0.1471822607418795
692500000.0 -0.29477357261149584 -0.019713893598645144
699000000.0 0.22816936475205218 -0.1786294670871102
705500000.0 -0.2915647676159981 0.013275497974229543
712000000.0 0.29285455800632576 -0.007236931767740749
718500000.0 0.1251650376190789 -0.2713118910494125
725000000.0 -0.07830190060394816 0.30217890663907493
731500000.0 0.11747188053892571 -0.2957030132708139
738000000.0 0.14836878045308471 0.295756482548594
744500000.0 -0.32733767614942505 -0.02646324475419926
751000000.0 0.1872703582903912 0.2717383351381146
757500000.0 -0.1435700396653689 -0.30669555561156886
764000000.0 -0.2120460105304763 0.2760737210191728
770500000.0 -0.22063923376838188 -0.27918527372047386
777000000.0 -0.11151345607361637 0.3455997766544578
783500000.0 -0.09335334466528664 -0.34866441598446174
790000000.0 -0.1061846817882421 0.3509290091092831
796500000.0 -0.011291981705555744 -0.36968041802730667
803000000.0 -0.3437023105022295 0.11654029602616556
809500000.0 0.29332452021005184 0.21248238608703812
816000000.0 0.19238042256117704 -0.30494765617713027
822500000.0 -0.08931070753341067 -0.3593743998338975
829000000.0 -0.3334467999878037 0.18677202080303076
835500000.0 -0.39454337315852867 -0.0003154446661796786
842000000.0 0.4039244373627661 0.07839887854874852
848500000.0 -0.24149668807569447 -0.33503329646985025
855000000.0 0.20227861248667264 0.3726694413819232
861500000.0 0.14040909761600612 -0.40307189309241964
868000000.0 -0.2970822785299238 0.316816942633158
874500000.0 0.34809714802514086 -0.261642526858038
881000000.0 -0.3376832012703507 0.28906325547824163
887500000.0 0.1665184747469681 -0.4157430423361619
894000000.0 0.07375457739419419 0.43917894518382766
900500000.0 -0.4318676666299054 0.07980221463829343
907000000.0 -0.18249297935653366 -0.3879712631118747
913500000.0 0.40021426937454213 0.09329441362705676
920000000.0 -0.15694041461195118 0.3679907327295348
926500000.0 -0.3841373427860214 -0.016865760296472073
933000000.0 -0.0894017669663612 -0.3613878470371251
939500000.0 -0.07493336317782498 -0.3534797219376066
946000000.0 -0.1310403108209086 -0.31587400721075
952500000.0 -0.04308475905649002 -0.3181489404705205
959000000.0 -0.09372404670428901 -0.2862404500643062
965500000.0 -0.08295136840148287 -0.27136655831051304
972000000.0 0.12247252386410604 0.23844908883377397
978500000.0 -0.17321979417464253 0.18912740064137462
985000000.0 -0.20682990065543105 0.1229414774746318
991500000.0 -0.19710748270269485 -0.11502694584539673
998000000.0 0.10286724154907691 -0.18865225294099655
1004500000.0 0.18146147798226092 0.09186028059854595
1011000000.0 -0.18900354575068573 0.0350358370135958
1017500000.0 -0.0174199790584765 -0.18065154719282883
1024000000.0 0.1583371285768639 -0.04873149846216813
1030500000.0 0.11174911014561291 0.10236345792419202
1037000000.0 -0.03320556713185927 -0.13487011282363304
1043500000.0 -0.059057566141968394 -0.11456285109726744
1050000000.0 0.11758263299310985 -0.036406454117290564
1056500000.0 -0.11019125889724499 -0.03842442101830485
1063000000.0 0.10550772729826047 0.03221835395576506
1069500000.0 0.09675439891442227 -0.03809973663083014
1076000000.0 -0.01861801211839087 -0.1007493271215308
1082500000.0 0.040793991351079126 -0.09080107851598898
1089000000.0 -0.0758652392984494 -0.06638185610351291
1095500000.0 0.070776013506928 0.07117519288093768
1102000000.0 -0.10487380007776188 -0.01905666108698827
1108500000.0 0.08619142596395989 -0.070778387878367
1115000000.0 -0.06480306692115385 -0.10133214606890574
1121500000.0 -0.05710536104531771 0.12341750157651374
1128000000.0 0.047042560469637035 -0.1431512670161961
1134500000.0 -0.03345226355221631 0.16199892726550838
1141000000.0 -0.055809694754802436 -0.175228172342015
1147500000.0 0.13022800785925523 -0.15382177491418741
1154000000.0 0.18613962908649692 0.09987464811166162
1160500000.0 0.031327984734543235 0.21742995245864366
1167000000.0 -0.2214210915403679 -0.04508393019904811
1173500000.0 0.22593972664596815 -0.003823366530491543
1180000000.0 -0.2257112305024145 -0.034284919386280636
1186500000.0 0.11292718745194878 0.19828290448821603
1193000000.0 0.18669709106874857 -0.14345718480651637
1199500000.0 -0.2400806859131623 -0.03260768843933591
1206000000.0 -0.21429933755670003 0.132676820900225
1212500000.0 0.263386498703267 -0.0421325668836647
1219000000.0 -0.27183922355550616 0.07522138767253606
1225500000.0 0.28919702871564484 -0.010365523850626085
1232000000.0 -0.18907027161471543 -0.23355703800858885
1238500000.0 -0.24609149799902372 0.18834375540799292
1245000000.0 0.20440139772600846 0.24117982595369902
1251500000.0 0.24943875494548212 -0.20839153559128512
1258000000.0 -0.20079156368233683 -0.2624279453174322
1264500000.0 -0.3223069606936669 -0.09137841434944473
1271000000.0 -0.17828490483453507 0.2929552036052209
1277500000.0 0.13718102739332738 0.3187443964174172
1284000000.0 0.35118596086032944 0.023825482601011142
1290500000.0 0.21442915354640005 -0.2806587369995386
1297000000.0 -0.14903337573009093 -0.32630530982118267
1303500000.0 -0.35702535073222225 0.018335649142097295
1310000000.0 -0.12113638386558159 0.3361760759760196
1316500000.0 0.3585912288111706 0.014017136987978317
1323000000.0 -0.029640876721917356 -0.3560620826928911
1329500000.0 -0.043493418471056554 0.35161405938305557
1336000000.0 0.3295993705804605 -0.10616800639281208
1342500000.0 -0.33144992385356564 -0.08144802576383221
1349000000.0 0.17795428321158552 0.2818976832360259
1355500000.0 0.31584598418929954 -0.09333976519021407
1362000000.0 -0.23883685859013176 -0.21997853246145213
1368500000.0 -0.3247493632902655 -0.002968189073157883
1375000000.0 0.06548927399889104 0.326214826587445
1381500000.0 0.24822328777877015 -0.22723069470265292
1388000000.0 -0.3338472485374333 -0.08857922577412312
1394500000.0 0.11318280682060099 0.3344372651853345
1401000000.0 0.15387601914396765 0.3253865064979216
1407500000.0 0.3145492494203943 -0.1867181221654961
1414000000.0 -0.15341888288231326 -0.3402099030969546
1420500000.0 -0.30432073189985626 0.22508474821879024
1427000000.0 -0.15474180375881239 0.3459191489390502
1433500000.0 0.025711721990603228 0.3825046175418595
1440000000.0 0.09285078846823154 0.3689358715449576
1446500000.0 0.07150465557953559 0.3781438290683059
1453000000.0 0.1804934266236567 0.33927828272149124
1459500000.0 0.2309776232365674 0.3057185312345521
1466000000.0 0.3752871851479986 -0.06850470511255544
1472500000.0 0.3329291786398861 -0.1739291161029587
1479000000.0 0.028873816231062565 -0.36647854292881893
1485500000.0 -0.25635480901266466 -0.25167214495242923
1492000000.0 -0.32731245211107285 0.1177139197473648
1498500000.0 0.05873839053511793 0.32889568949317866
1505000000.0 0.24064027674229257 0.21302580799968132
1511500000.0 0.10076133546387403 -0.2935943825255536
1518000000.0 -0.22225820038033142 -0.1998942129368097
1524500000.0 0.22829373594179453 0.17901554160499103
1531000000.0 0.164860530517686 -0.22355559707106298
1537500000.0 -0.24224651098259467 0.1288259266823068
1544000000.0 0.2609685378444504 -0.04498182838930104
1550500000.0 -0.1686944397562239 0.20517162553233823
1557000000.0 0.09744329068826416 -0.2385935886495593
1563500000.0 -0.24910131276614916 0.05457164101127266
1570000000.0 -0.2537693102044538 0.006742142723449626
1576500000.0 -0.008967557008203488 0.2559471406621177
1583000000.0 0.23536392249042368 0.11270096801038497
1589500000.0 0.17366293615671685 -0.19826159616306038
1596000000.0 -0.18679243755843705 -0.18353469147647639
1602500000.0 -0.25541250538091215 0.05226531420462371
1609000000.0 -0.2395024081996372 0.09032117188180688
1615500000.0 -0.18762286307377518 0.1619231158436363
1622000000.0 -0.04382187166767697 -0.23764444228086132
1628500000.0 0.09442970940187417 -0.2172930509735569
1635000000.0 0.22512017029295472 0.05019022805852695
1641500000.0 0.030209609441053633 0.2217052187229085
1648000000.0 -0.21863696732048615 -0.014328840171382204
1654500000.0 -0.013994337671396895 -0.21224648264085452
1661000000.0 -0.11610065227154182 -0.17420188296739383
1667500000.0 -0.19547714258764307 0.04839608822502925
1674000000.0 0.12430723605116009 0.14341957115568085
1680500000.0 0.15703983816839193 -0.06991927193897152
1687000000.0 -0.07947355465700182 -0.13784446807012404
1693500000.0 -0.06410652818654222 0.12706846608828543
1700000000.0 0.07592080039937524 -0.11001757415649473
1706500000.0 -0.0788226839061946 0.09164815621797906
1713000000.0 0.007199944962072403 -0.1138216297803521
1719500000.0 -0.07824816606410985 0.07770913696865667
1726000000.0 -0.07361382020333215 -0.08006485429194458
1732500000.0 0.02531228217931804 -0.10343889142986422
1739000000.0 0.045115662093224373 0.0993462840381826
1745500000.0 -0.10573517504371241 0.013883428607182223
1752000000.0 0.05152642468961548 -0.09541542348092281
1758500000.0 -0.07127880754449108 0.07957494003339374
1765000000.0 0.09059467155417546 0.05639203005439599
1771500000.0 0.07576180638542264 0.07059153792574419
1778000000.0 0.026116507404994636 0.09802487115279149
1784500000.0 -0.04458598071065985 0.09119623744339918
1791000000.0 0.002474167271304313 -0.09988491914557256
1797500000.0 -0.09489469288065082 0.027214055385458742
1804000000.0 -0.05943384575077172 -0.07961922107364228
1810500000.0 0.09750847126928236 0.019835701651956965
1817000000.0 0.07433305904590029 0.061162320323378115
1823500000.0 0.06617075332090173 -0.062277049222892476
1830000000.0 0.013306858051217296 -0.07995100900753016
1836500000.0 0.009132756021849632 -0.0713835887057718
1843000000.0 0.04280813383871929 0.036730423066575923
1849500000.0 -0.041665484011882824 0.013370913690446639
1856000000.0 0.029273375011295604 -0.01254713249771113
1862500000.0 -0.010902033842641396 0.01923893027922916
1869000000.0 -0.0009553590171650096 -0.019769116605740468
1875500000.0 -0.0163044317669975 -0.009340739710052746
1882000000.0 0.0039558475821724216 0.013843750725820171
1888500000.0 -0.013723290542317535 -0.00505836979728903
1895000000.0 -0.016825177225890376 0.006510830970052407
1901500000.0 0.008994806090019842 0.01896517799915872
1908000000.0 0.00716147749533356 0.02068019703288438
1914500000.0 -0.010223943347337758 0.02223450796790052
1921000000.0 -0.02521162633955936 0.003726432982736242
1927500000.0 -0.005389795795622267 0.022789632281046468
1934000000.0 0.00019985256859724653 -0.02271257332484154
1940500000.0 0.015998405018304775 -0.01039456964868352
1947000000.0 0.017707083440069073 -0.010026848769378918
1953500000.0 -0.017980829065261467 -0.015617967036186238
1960000000.0 0.0054608712194208035 -0.022612999158477226
1966500000.0 -0.028082048499280473 0.017737337119180775
1973000000.0 -0.03573923684235438 -0.019625225731713207
1979500000.0 0.01156917262385289 -0.05056075334982003
1986000000.0 -0.012812696052897162 -0.06465494529570166
1992500000.0 -0.07589145236375612 -0.014491228258843806
1999000000.0 -0.06291869956432075 -0.062188583787864085
2005500000.0 -0.0993319890860579 0.009877059550442734
2012000000.0 -0.06991106990479558 -0.08520679699908118
2018500000.0 0.04428118937250011 -0.1092292023971778
2025000000.0 0.12045007564428264 -0.04491063804209659
2031500000.0 0.11663595868868769 0.06060530538908436
2038000000.0 0.047284466205417805 0.12697792518401696
2044500000.0 -0.13691843235557677 0.018913070948611572
2051000000.0 -0.11975779230141076 -0.07655354667501345
2057500000.0 -0.13589461376208103 -0.03352714905229736
2064000000.0 -0.13809755020007541 -0.02384567506477429
2070500000.0 -0.12943155207012924 0.039476274975085185
2077000000.0 0.11090963647088657 0.06609170098079621
2083500000.0 0.0859111195504294 -0.08662166098746589
2090000000.0 -0.10785813118441287 0.04388012782991781
2096500000.0 0.07302225933812727 0.08187835673299097
2103000000.0 -0.09070621526368242 0.055583952271352315
2109500000.0 -0.04063182905271493 -0.09676831144621567
2116000000.0 -0.10355544929841039 0.031144397855305445
2122500000.0 0.009165166996484562 0.11154219755950127
2129000000.0 0.11510453917780748 0.043201442535650066
2135500000.0 0.07919072332243988 -0.10319112925396534
2142000000.0 -0.016046987068226614 0.14084905908924508
2148500000.0 -0.13237123138283807 -0.07683709677430942
2155000000.0 0.10921222516983825 0.12655926387511504
2161500000.0 -0.10314313182974832 -0.1465725842722788
2168000000.0 -0.15354038532304634 0.11985386728910624
2174500000.0 -0.1086138943584661 0.17548789064346262
2181000000.0 -0.061685764709221526 0.2099066876710621
2187500000.0 0.03206427246034232 0.22919940735413638
2194000000.0 0.02000576073879541 0.24200957813418683
2200500000.0 0.010266250647145347 0.2528174427737532
2207000000.0 0.2546508218790836 0.04220545229654671
2213500000.0 0.24314153739822095 0.09206352820096496
2220000000.0 0.2594439194983854 0.006891238243132112
2226500000.0 0.20830187504670453 0.14272719575223491
2233000000.0 0.2005634845905275 0.1455895741068469
2239500000.0 -0.14946201577679424 0.18991723527785145
2246000000.0 -0.18516388785910456 0.143392101164331
2252500000.0 -0.22349981895301024 0.026258029452156564
2259000000.0 -0.2193971383408945 -0.021500407586481068
2265500000.0 -0.19618730392573275 0.08538764567452375
2272000000.0 -0.08243149043734471 0.1902046247628855
2278500000.0 0.14578890421904803 -0.13943194599697933
2285000000.0 -0.13078492608523654 0.14150908175498728
2291500000.0 0.028536970248906418 -0.18089240923598193
2298000000.0 0.019947461117787304 0.1711601739580007
2304500000.0 -0.1042030043274893 -0.13145866005590612
2311000000.0 -0.15418288764244972 -0.015092312989697527
2317500000.0 -0.01854723876456901 0.15358484594405356
2324000000.0 -0.03165211309452597 -0.1477267167424044
2330500000.0 -0.14903658403183342 0.027868197686364803
2337000000.0 0.11678943645904817 0.09630492055107674
2343500000.0 0.04442264157172831 -0.1478614737246999
2350000000.0 -0.15388438429423065 -0.018464769969606838
2356500000.0 -0.14896197058308996 0.05461176281831607
2363000000.0 -0.0243967740596916 0.1591220538827998
2369500000.0 0.15058952699962178 0.06027614648953223
2376000000.0 0.1599670105867807 -0.027942842634739992
2382500000.0 0.1388446400814314 -0.08032881795113592
2389000000.0 0.14686237032070665 0.06268138332679012
2395500000.0 0.017233816647849468 0.15816982947206196
2402000000.0 -0.15474023726939024 0.03506739779051376
2408500000.0 -0.15454684651391762 0.0413350159020774
2415000000.0 -0.13620626383434742 0.08360594979761204
2421500000.0 -0.1528100550098942 0.040695610458218914
2428000000.0 -0.06448429482667796 0.14213562665737292
2434500000.0 0.021278453559243383 0.15110659601449317
2441000000.0 -0.022357856182792717 0.1506286671392265
2447500000.0 0.12037262109294124 0.08803550136913649
2454000000.0 0.1481587829781137 -0.007470888997492453
2460500000.0 0.14638145757173715 -0.021411465012647422
2467000000.0 0.14613484450146125 -0.01936658052563228
2473500000.0 0.1397728514640416 -0.048823124456514586
2480000000.0 0.1478808238774488 0.02449165328919019
2486500000.0 0.152750386695654 -0.028114182697617198
2493000000.0 0.010768839785527033 0.1545107420220071
2499500000.0 0.04874805658276015 0.14922782066678417
2506000000.0 0.03642172994037806 0.15486865835629404
2512500000.0 -0.08516306255267624 -0.13449030258565506
2519000000.0 0.15811720034997342 -0.03370606029086491
2525500000.0 -0.1300926464696967 0.10015112642304817
2532000000.0 0.05111918535916355 -0.16016065637548682
2538500000.0 -0.054323488535382505 0.1588727672498085
2545000000.0 -0.11899672932941781 -0.12161495484004384
2551500000.0 0.10977770295251887 0.12859819443520246
2558000000.0 0.05623790814073174 -0.15943413819770677
2564500000.0 -0.037151049990435794 0.1624342907036558
2571000000.0 0.14351989577742405 -0.08143329057731188
2577500000.0 -0.1504525642671328 -0.051063284177207464
2584000000.0 -0.15725285617245024 -0.0011690217159002223
2590500000.0 -0.0014468144908455405 0.15347879466114817
2597000000.0 0.15247535994596442 0.011334566053961088
2603500000.0 0.011051746650758532 -0.1494847806132122
2610000000.0 -0.013419729821141563 0.1486413329066128
2616500000.0 0.015523480315306714 -0.14304471666734103
2623000000.0 0.05390605610228474 0.1286105565584754
2629500000.0 -0.09524017075490616 -0.08898709521641408
2636000000.0 0.12243981280177695 -0.006757638021138082
2642500000.0 -0.10847196618398532 0.030968300436578115
2649000000.0 -0.08429274461928123 -0.06392048567971481
2655500000.0 0.09208907939075087 0.027420700245968026
2662000000.0 0.07677711449082693 -0.04853140618357489
2668500000.0 0.0372587823592539 -0.07755907835550102
2675000000.0 -0.03683917988609749 0.07526030953035619
2681500000.0 -0.06382183393434843 0.05186964505748957
2688000000.0 -0.029699498559497394 0.07790963805636054
2694500000.0 0.08043551955077949 0.029936140674665237
2701000000.0 -0.032880687058588334 0.08200691749419789
2707500000.0 -0.09226564614707297 -0.030644377968432397
2714000000.0 0.09521330265091746 -0.046253236596335935
2720500000.0 -0.010240976031393468 -0.11703498163730662
2727000000.0 -0.12859376686710466 0.008906777828048384
2733500000.0 -0.029677155157411334 -0.1386971456964484
2740000000.0 -0.10645448716508205 -0.11420344652373537
2746500000.0 0.08370921777379584 -0.1453068537278508
2753000000.0 0.18274726201198982 -0.00430770857627879
2759500000.0 0.145092595056981 0.12691161244266805
2766000000.0 -0.17639393745813467 0.09968127150546247
2772500000.0 -0.07904880889808788 -0.1957599861256015
2779000000.0 0.09062622746628127 0.19908115809664198
2785500000.0 -0.18972825155273113 -0.1209981093008048
2792000000.0 0.20741609231319305 0.10473327653085343
2798500000.0 -0.2185945665679702 0.09917430916838221
2805000000.0 0.20022966248086663 -0.14235265941352043
