!Created with skrf (http://scikit-rf.org).
# Hz S RI R 50.0 
!freq ReS11 ImS11
400000000.0 -0.7057621132870144 0.1446785754962354
406500000.0 -0.30153840691501976 -0.6338609011598492
413000000.0 0.6770479469099803 0.04409141241451001
419500000.0 -0.6646630842414083 -0.05845176996262187
426000000.0 0.18924576130842022 0.6297389913013983
432500000.0 -0.41798937507037043 -0.49500862639620447
439000000.0 0.6169085102269264 0.1505140827711651
445500000.0 -0.6260319411185482 -0.004754999474181815
452000000.0 0.5600719807415564 -0.2633911312880585
458500000.0 -0.1686327275592293 0.5991106156095763
465000000.0 -0.511663470551408 -0.35500922876765106
471500000.0 -0.24430680889142875 -0.5707189684861298
478000000.0 -0.09717778897498369 -0.6049581441354004
484500000.0 0.27504430656888446 -0.5397141341982142
491000000.0 0.12743537281709388 -0.5782458699125042
497500000.0 -0.23415559201759548 -0.5210434054900351
504000000.0 -0.46632311685370054 0.2717100649094219
510500000.0 -0.0572538581130296 0.4972046711627467
517000000.0 0.39718148870732817 0.2273663363077522
523500000.0 0.08315503885299455 0.4199375966805771
530000000.0 -0.16490764815689002 0.3559133173204866
536500000.0 0.25084643101093046 0.25697821492401035
543000000.0 0.31490519987699517 0.14542583321759625
549500000.0 0.33140018351778605 -0.0035144526337151645
556000000.0 -0.10974412583392959 -0.2864702708623068
562500000.0 0.05951493509762276 -0.28456704023190377
569000000.0 -0.22919836917974465 -0.15147494115000668
575500000.0 0.26275975813385716 -0.025545815579035153
582000000.0 0.03953630207614362 -0.2573258570689932
588500000.0 0.22792667233282293 0.14214280289655942
595000000.0 -0.02305635127952418 -0.286922858725308
601500000.0 0.12318442840268116 -0.2675267347593771
608000000.0 0.27171660236000933 -0.11720199856942747
614500000.0 0.14247345593602362 -0.2652393792580828
621000000.0 0.0907112787284183 -0.2854243033120799
627500000.0 0.24873014291598994 0.1602834144591247
634000000.0 -0.12052847943773744 0.2764517593745769
640500000.0 -0.2902459153390244 -0.019094748372440545
647000000.0 0.2874189240815867 0.07835314631097023
653500000.0 0.1888791352836099 0.23154236705119532
660000000.0 -0.2972067368306544 -0.030960767341539627
666500000.0 0.10875188968649055 -0.27939926881904364
673000000.0 0.16559212898031334 0.2446786284140704
679500000.0 0.25524877774275023 -0.16563711142931128
686000000.0 0.24562304953874023 -0.16781179831913678
692500000.0 -0.29500995271334013 -0.010535542725921193
699000000.0 0.22389116212364127 -0.18403106318837043
705500000.0 -0.2921503143512902 0.0032955097305454365
712000000.0 0.29290986316881207 0.013264746926201117
718500000.0 0.12124052474637399 -0.2733405383329635
725000000.0 -0.025959131601606063 0.31139178088803554
731500000.0 0.09972076710899792 -0.3028563085680012
738000000.0 0.11839588449483542 0.3092471200524542
744500000.0 -0.3274675330972113 -0.02288556640618679
751000000.0 0.2291244880368552 0.23782974971630805
757500000.0 -0.17337994571185483 -0.2911946233069254
764000000.0 -0.20197745161927347 0.28372546077476135
770500000.0 -0.21177994912583528 -0.28630522881339826
777000000.0 -0.10928818084742627 0.3465577699780839
783500000.0 -0.10715165408501195 -0.34478573653598377
790000000.0 -0.09138485641036996 0.3554266443072601
796500000.0 0.007924701742910758 -0.3701024095805789
803000000.0 -0.3456105784855428 0.11205583724849658
809500000.0 0.2819938853588487 0.22808243791014432
816000000.0 0.22628698295209948 -0.2813037047575141
822500000.0 -0.012962759673880601 -0.3702997553129365
829000000.0 -0.34453445715036907 0.1637305282710869
835500000.0 -0.3936958274083141 -0.013987721742552292
842000000.0 0.39498174892566906 0.11488273095009131
848500000.0 -0.23063893032561966 -0.34238554554926104
855000000.0 0.1762146366671877 0.38572047407099214
861500000.0 0.16090720516777685 -0.3948391062487285
868000000.0 -0.27103541602187664 0.33862096642864525
874500000.0 0.3738039200080686 -0.22243243803641605
881000000.0 -0.3054933814989284 0.32121880602445724
887500000.0 0.08297289582679383 -0.4391307865378159
894000000.0 0.15696688377277507 0.41592976356217554
900500000.0 -0.3993519694944849 0.18064623529408452
907000000.0 -0.24220820769611015 -0.35357510992478963
913500000.0 0.4098427736715067 0.030119240355024505
920000000.0 -0.12797794971643456 0.3791464771270231
926500000.0 -0.3845220217517195 0.012429088624343547
933000000.0 -0.12044831319041743 -0.3530496903216779
939500000.0 -0.06279432904227666 -0.35643936772441465
946000000.0 -0.1081538975328335 -0.32513422596849184
952500000.0 -0.014168172620574716 -0.3210496778227423
959000000.0 -0.07355427012082676 -0.29229798628150505
965500000.0 -0.05279262117595392 -0.2783958486431115
972000000.0 0.11747752278419603 0.24082063982103158
978500000.0 -0.15984472983187176 0.20044667853842316
985000000.0 -0.22022241794031344 0.09620993896548745
991500000.0 -0.20048808635997625 -0.1075607075322045
998000000.0 0.09680898845407976 -0.1906548497183702
1004500000.0 0.18176256228148274 0.08883975916261376
1011000000.0 -0.17149584533294682 0.08375529845514153
1017500000.0 -0.07590624035614091 -0.1637303110174167
1024000000.0 0.13435868259518774 -0.09523777459286197
1030500000.0 0.14556083636564063 0.04155108106279723
1037000000.0 -0.07022103606631397 -0.11980850075968408
1043500000.0 -0.09456159859210983 -0.08793514776715837
1050000000.0 0.10820891382016333 -0.05917271502571169
1056500000.0 -0.11393538499084226 -0.027891006489062925
1063000000.0 0.11027210685836872 0.013369863553699922
1069500000.0 0.10333885477118142 -0.016422316837104493
1076000000.0 0.03982369913719513 -0.09479984317299898
1082500000.0 0.06869681696772055 -0.07183019414338856
1089000000.0 -0.07137987680069335 0.0705718662349468
1095500000.0 0.05455291786638014 0.08339061010765432
1102000000.0 -0.10330927466318728 -0.02379170303497278
1108500000.0 0.10440435070987261 -0.038636487534262236
1115000000.0 -0.04637292017934437 -0.11021327262261303
1121500000.0 -0.04831970511675636 0.12618910875467113
1128000000.0 0.032176829743890585 -0.14665068896482675
1134500000.0 0.007579867677166832 0.16508604365560822
1141000000.0 -0.07204978007139629 -0.16897774394475523
1147500000.0 0.12158298296105208 -0.16055265071558278
1154000000.0 0.19804540800937184 0.07364536767465554
1160500000.0 0.029794041932670347 0.21782145483765195
1167000000.0 -0.21855929997742454 -0.05780804810780267
1173500000.0 0.22572537858958233 -0.01695533642423474
1180000000.0 -0.2243439379399225 -0.04375428592347722
1186500000.0 0.12448759145455718 0.19127860993988832
1193000000.0 0.17973355931108154 -0.1523346225234764
1199500000.0 -0.23950572623371189 -0.036316410055490855
1206000000.0 -0.22034202923773263 0.12189669438075672
1212500000.0 0.2644006500483698 -0.03535546193414199
1219000000.0 -0.2757763034591251 0.06022605011062297
1225500000.0 0.2888837527340475 0.021212902079806074
1232000000.0 -0.17434454407947136 -0.24458441875683587
1238500000.0 -0.251671266643806 0.17982802885946658
1245000000.0 0.19300269637008308 0.25008647597503086
1251500000.0 0.2389404400691718 -0.2193883024087634
1258000000.0 -0.20126791391350957 -0.26140467178929383
1264500000.0 -0.30499561287649146 -0.13764275814420268
1271000000.0 -0.18519241323751454 0.2877617522121921
1277500000.0 0.13819272371988955 0.317835366674956
1284000000.0 0.35138409857853364 0.01579638346509328
1290500000.0 0.20020444427861125 -0.2908878576642394
1297000000.0 -0.13383800010158592 -0.3328458019872378
1303500000.0 -0.3574036825239062 0.006319301729232536
1310000000.0 -0.12076509191183912 0.3364072307943482
1316500000.0 0.3575683138413183 0.02915651505842279
1323000000.0 -0.03832189590418397 -0.3552164007558967
1329500000.0 -0.03737379502297739 0.3522770595250168
1336000000.0 0.3299153059311367 -0.10575221208332762
1342500000.0 -0.33420947304403026 -0.07083084965241236
1349000000.0 0.19015979644650566 0.274021993499711
1355500000.0 0.31818721023585705 -0.08558531390510533
1362000000.0 -0.23069627810385782 -0.22864717009040245
1368500000.0 -0.3229201249976176 0.03199593117065472
1375000000.0 0.0829140359173068 0.3221248039253237
1381500000.0 0.2472727860843139 -0.22876508441085344
1388000000.0 -0.33171671821508103 -0.09841435726042
1394500000.0 0.12333928819123749 0.3311633400823564
1401000000.0 0.15240981837273565 0.3265919369576368
1407500000.0 0.34124624075133536 -0.1330600652114845
1414000000.0 -0.10879718671608084 -0.35754271108460034
1420500000.0 -0.3124872927952472 0.2146348752581046
1427000000.0 -0.16825321513318445 0.3397357957479151
1433500000.0 -0.0064841802785230215 0.3834126247351539
1440000000.0 0.08673662212152551 0.37023560031939956
1446500000.0 0.04979763672302685 0.3811522962628468
1453000000.0 0.16756273164274083 0.34503457722917996
1459500000.0 0.2315275599478638 0.3047443700264159
1466000000.0 0.3696943846327631 -0.09169671551331288
1472500000.0 0.3438224285568596 -0.14950994694116282
1479000000.0 0.02546862308898653 -0.36612100210066095
1485500000.0 -0.25577808504286575 -0.25140377854271095
1492000000.0 -0.32896116581262475 0.11156653300401995
1498500000.0 -0.021746232892952036 0.33225004962511007
1505000000.0 0.25150643826524627 0.19691870975826928
1511500000.0 0.09827375021060589 -0.29400879618115155
1518000000.0 -0.23905481880873328 -0.17910525446350345
1524500000.0 0.23738013204809 0.1669018267566676
1531000000.0 0.1465541924786963 -0.23596250418666315
1537500000.0 -0.22914554685878216 0.15074573141258374
1544000000.0 0.26077870254717117 -0.04969220204693987
1550500000.0 -0.15397539268928756 0.21678917219218857
1557000000.0 0.061505681719505496 -0.251283973125957
1563500000.0 -0.2479037621391084 0.06253675513786637
1570000000.0 -0.2540090898129583 -0.02057875026751941
1576500000.0 -0.04756309752616376 0.2525374146349583
1583000000.0 0.2089953833366702 0.15630298115070457
1589500000.0 0.21596636014596854 -0.15090984556066733
1596000000.0 -0.1515333511260933 -0.2133567495988601
1602500000.0 -0.26023691707614593 0.01122605616468592
1609000000.0 -0.24969543630898228 0.05579018244480188
1615500000.0 -0.20470690525970706 0.1388193778620664
1622000000.0 0.006270046237269642 -0.24117631722663874
1628500000.0 0.12800163377368148 -0.19874059728072063
1635000000.0 0.21518781589332925 0.08167047464587028
1641500000.0 0.015100741263810384 0.22302996174949516
1648000000.0 -0.21887350791671029 -0.005580096298434974
1654500000.0 -0.02620678695920821 -0.21120817825720145
1661000000.0 -0.14273810981215437 -0.15320284345841925
1667500000.0 -0.192628167728219 0.05929634746813711
1674000000.0 0.13984573291081556 0.1281028983409624
1680500000.0 0.13875959349493772 -0.10113811462931888
1687000000.0 -0.09996178802827366 -0.1237612915454186
1693500000.0 -0.041348240170703696 0.13612577893800828
1700000000.0 0.0603747911067525 -0.11983448306653628
1706500000.0 -0.06391178844559632 0.10374128612901633
1713000000.0 0.007806103678337159 -0.11399057111972954
1719500000.0 -0.10175360314342502 0.04402841060801815
1726000000.0 -0.052236486272744714 -0.09545717047073746
1732500000.0 0.04345383284606367 -0.09762315957150096
1739000000.0 0.0335375670047048 0.10336861754084993
1745500000.0 -0.10622837017584802 -0.0032078534377986707
1752000000.0 0.08024229003824153 -0.07247461397820366
1758500000.0 -0.10528295269057802 0.01791270053542846
1765000000.0 0.0461148326408293 0.09547336966017039
1771500000.0 0.06239785142717095 0.08185849998702734
1778000000.0 0.05581415400865342 0.08399315262677103
1784500000.0 -0.02605720211562389 0.09768257121689852
1791000000.0 -0.024953060285642665 -0.09612363426312864
1797500000.0 -0.08547498167751148 0.04892816612642898
1804000000.0 -0.06492635029513527 -0.07449963616848569
1810500000.0 0.0982766703838224 0.01305125944210413
1817000000.0 0.08901913468774053 0.0362297748568542
1823500000.0 0.04319292796972852 -0.07941478669940916
1830000000.0 -0.015071019882729733 -0.0795773743347229
1836500000.0 -0.002006774892348959 -0.07222283931743315
1843000000.0 0.04718430702767902 0.031481520530452174
1849500000.0 -0.04006322054149611 0.01899158332378286
1856000000.0 0.025395104501868063 -0.02021725738096801
1862500000.0 -0.003962252660288674 0.021971460672218154
1869000000.0 -0.020281148002978585 -0.00047833170163846946
1875500000.0 -0.019325612596291022 0.0010387660269576887
1882000000.0 0.002872045739734163 0.014634026941803444
1888500000.0 0.01327671097892889 -0.008128979736675186
1895000000.0 -0.01645695791994316 0.00757339102151999
1901500000.0 0.002561121692252538 0.021056404004107267
1908000000.0 0.002239657570193462 0.02185338132305938
1914500000.0 -0.011004588928496024 0.02177690385047745
1921000000.0 -0.02322284981621961 0.009856402029650685
1927500000.0 0.0167565869963032 0.01601160193222309
1934000000.0 -0.02253268089753136 -0.0009794980120674365
1940500000.0 -0.01831309986995516 -0.005362751417367516
1947000000.0 0.015054209705991205 -0.014143899283844096
1953500000.0 0.003860857553601777 -0.023890145096276193
1960000000.0 0.02243581497714403 0.006639328406139053
1966500000.0 -0.03325731736151768 0.003980780523589753
1973000000.0 -0.02307909002094835 -0.03355002421277394
1979500000.0 0.01773428696725523 -0.048651049050064586
1986000000.0 -0.002631381667339252 -0.06601357158888865
1992500000.0 -0.07277033619054885 -0.025065006855985006
1999000000.0 -0.05986323292035571 -0.06548858834234125
2005500000.0 -0.09120095084921764 -0.03897133734201027
2012000000.0 -0.05263735173003683 -0.09581196179013197
2018500000.0 0.048294756413712794 -0.1070832248986209
2025000000.0 0.12476561290883305 -0.027507805619904485
2031500000.0 0.11645908249418145 0.05986481752173925
2038000000.0 0.0348638546046831 0.13072227155816482
2044500000.0 -0.13500594490617665 0.028158999699618985
2051000000.0 -0.12757386221726305 -0.061528132913270556
2057500000.0 -0.13960338480190268 0.00170369381252868
2064000000.0 -0.1399575753702439 -0.005505931784830516
2070500000.0 -0.12407275933695387 0.05413493063367949
2077000000.0 0.10541943745120563 0.07540717422967413
2083500000.0 0.09322544188942251 -0.07872367049001969
2090000000.0 -0.10959915902073501 0.03968440585164442
2096500000.0 0.08036161494129294 0.07472510718987083
2103000000.0 -0.07820787326759657 0.07386925490943357
2109500000.0 -0.05571265616850553 -0.08953063537761301
2116000000.0 -0.10825055071138975 0.014641551734437565
2122500000.0 -0.019555550204324673 0.11085519302061513
2129000000.0 0.10131689142090718 0.07031115647992672
2135500000.0 0.11705543260478003 -0.05692614108402341
2142000000.0 -0.10678947882217221 0.09393001219570447
2148500000.0 -0.1118974219059027 -0.10424829068308611
2155000000.0 0.06288571908796033 0.15486305830166366
2161500000.0 -0.04863370201224961 -0.17194577508826706
2168000000.0 -0.1756141975376131 0.08286510936992467
2174500000.0 -0.09951267905001572 0.18033484158721422
2181000000.0 -0.041401380656655135 0.2142243927885848
2187500000.0 0.02288909553551663 0.22961573269858138
2194000000.0 0.03932787061590805 0.23914270073440924
2200500000.0 0.0706226698901037 0.24237225618496194
2207000000.0 0.25703151492443693 0.018683098534801445
2213500000.0 0.2462741562637069 0.08194303415299962
2220000000.0 0.2585090393311126 -0.025351789695758888
2226500000.0 0.22888477223691678 0.10730413155924068
2233000000.0 0.21714422116330204 0.1205288602615486
2239500000.0 -0.11992276800306448 0.21096448606317952
2246000000.0 -0.17495590568054695 0.15719739547023237
2252500000.0 -0.22373507424758377 0.0301046869903141
2259000000.0 -0.22019897400650884 -0.01327885958090411
2265500000.0 -0.20314495964264104 0.06909314741298074
2272000000.0 -0.10152121648291748 0.18128908209431238
2278500000.0 0.1442749004893467 -0.14128478430912036
2285000000.0 -0.1099164543483875 0.15837594466468127
2291500000.0 0.048012409053788084 -0.17665278264657816
2298000000.0 -0.05640470940162219 0.16273406271884047
2304500000.0 -0.047265317951250836 -0.16112537716448477
2311000000.0 -0.14037590392039162 -0.065481713335486
2317500000.0 -0.06967897166541757 0.13749877427043888
2324000000.0 -0.022878685193138418 -0.14863103496074323
2330500000.0 -0.14650922710341233 0.036037384221048706
2337000000.0 0.10912185414374397 0.10404906969040675
2343500000.0 0.06528302178844894 -0.13957583046200492
2350000000.0 -0.15206337154063646 -0.027198433731787094
2356500000.0 -0.14638427382682756 0.05964561856021894
2363000000.0 0.01590726637313249 0.1596876771369602
2369500000.0 0.16020386298548553 0.024998036884660544
2376000000.0 0.15327061314780113 -0.05346942619431901
2382500000.0 0.12890357397044527 -0.09506030067754197
2389000000.0 0.152888958015681 0.04612906115321119
2395500000.0 0.048374915100739796 0.1513649062184202
2402000000.0 -0.14052768374399052 0.07367193923219746
2408500000.0 -0.14878575874958208 0.05921125241125919
2415000000.0 -0.12442457683985389 0.10147403970301463
2421500000.0 -0.1486476462478304 0.05677787371167668
2428000000.0 -0.07161000033862525 0.13904567946803859
2434500000.0 0.008574546465432743 0.15262650198567196
2441000000.0 -0.011961505919832634 0.15188992367398607
2447500000.0 0.10612190287564428 0.10582444456150711
2454000000.0 0.14840472881599 -0.008207684945090042
2460500000.0 0.14646458974324533 -0.02080987657244179
2467000000.0 0.1480031374780152 0.0030771217989343834
2473500000.0 0.14798714939080046 -0.01339237973513713
2480000000.0 0.1446138541086025 0.0393421227396694
2486500000.0 0.15498543208621043 0.007956131778801705
2493000000.0 -0.025091400649093668 0.15239761540144509
2499500000.0 0.0379618894404307 0.15178121169276165
2506000000.0 0.023901775851780875 0.1565527941763111
2512500000.0 -0.07567579401426736 -0.13931898637760248
2519000000.0 0.1608689114241519 -0.004598905377874613
2525500000.0 -0.1372250721643487 0.0894451399512539
2532000000.0 0.08429363277215375 -0.14474027603291872
2538500000.0 -0.04723163752666557 0.16045228460017624
2545000000.0 -0.11148001252196814 -0.12775237209551685
2551500000.0 0.1139115564017406 0.12443158803337609
2558000000.0 0.04515514096250381 -0.16269092768070864
2564500000.0 -0.013369973506205458 0.16599613780700845
2571000000.0 0.12921531452483326 -0.10248414597708884
2577500000.0 -0.1557054359720212 -0.030771321166220843
2584000000.0 -0.1562286109526383 0.01448793224649934
2590500000.0 0.025175457708143743 0.15120283716049032
2597000000.0 0.15216733733015345 -0.014709521711903265
2603500000.0 -0.018424525099305897 -0.14879483038979735
2610000000.0 0.0103956115080338 0.14927102508801673
2616500000.0 -0.0035382874888533634 -0.1444589521082142
2623000000.0 0.053125656701436236 0.1292872076414104
2629500000.0 -0.08892464743477257 -0.09599365307086685
2636000000.0 0.1230877104736144 -0.0018126273637097871
2642500000.0 -0.11135317620968345 0.02036452259576604
2649000000.0 -0.0875721684043083 -0.060738239189897035
2655500000.0 0.08174456754882888 0.05149059984973535
2662000000.0 0.08207256256562646 -0.04112073748746897
2668500000.0 0.05244061720503435 -0.06894646715040291
2675000000.0 -0.05963916172789279 0.05972341275797816
2681500000.0 -0.0755917868613053 0.03350925950350982
2688000000.0 -0.051650785913360364 0.06543307885297439
2694500000.0 0.0616284060803358 0.05950809786447628
2701000000.0 -0.05261899098851134 0.07068494098458848
2707500000.0 -0.08305505681770103 -0.04901134176470477
2714000000.0 0.104208878016523 0.0015012051634159947
2720500000.0 0.031429808352849135 -0.11170162957493131
2727000000.0 -0.12701928276454963 -0.0015339856361362607
2733500000.0 -0.06632406977901682 -0.12387788663135998
2740000000.0 -0.125159784195458 -0.09155631384357854
2746500000.0 0.04824135163760454 -0.16025919913688627
2753000000.0 0.18114185282080125 -0.023356114929672808
2759500000.0 0.14980247536770921 0.12089803839380946
2766000000.0 -0.16221259950532613 0.12099027519604473
2772500000.0 -0.10173671021478198 -0.18499025402771588
2779000000.0 0.12265641195047747 0.18110903814617144
2785500000.0 -0.20945441277428944 -0.08341910789512749
2792000000.0 0.22443935012594535 0.06281693550453202
2798500000.0 -0.20418516862070096 0.12710616244068024
2805000000.0 0.1904492697597407 -0.15622937768720607
