!Created with skrf (http://scikit-rf.org).
# Hz S RI R 50.0 
!freq ReS11 ImS11
400000000.0 -0.7119541526934079 0.1067317363272585
406500000.0 -0.3032600240765455 -0.632279653537714
413000000.0 0.6768622067982132 0.03687952603322496
419500000.0 -0.666693652606578 0.003449533108713194
426000000.0 0.2598469738256448 0.6038847206155608
432500000.0 -0.45881136564908337 -0.4573650763429309
439000000.0 0.6241289725246412 0.11871488027245682
445500000.0 -0.6218389143873552 0.07324060651505954
452000000.0 0.5421407505292188 -0.29857690601084863
458500000.0 -0.1665640792813911 0.599394322760642
465000000.0 -0.5106781177422542 -0.35498755654773856
471500000.0 -0.24811418340423455 -0.5678516999111431
478000000.0 -0.12345978387949534 -0.5987966556877469
484500000.0 0.22519991897113403 -0.5611168058006669
491000000.0 0.0025104297335321983 -0.5905494051061194
497500000.0 -0.2904454513254501 -0.490561099009541
504000000.0 -0.3979528243952858 0.36373761949619515
510500000.0 0.027774386809325268 0.4997362528446985
517000000.0 0.4307077312460864 0.15584519357797127
523500000.0 0.1201980813085227 0.41164890164244916
530000000.0 -0.11381326028261882 0.376358088206991
536500000.0 0.2157961445966641 0.2885499409005064
543000000.0 0.2878684828348308 0.19518640229650028
549500000.0 0.3191573112605533 0.09097322668326936
556000000.0 0.0026477329519659413 -0.3067186984085139
562500000.0 0.17067212474020327 -0.2343453392371918
569000000.0 -0.15045160729564724 -0.22781438984129163
575500000.0 0.2606880700575134 0.022463760529770557
582000000.0 0.06559974772856583 -0.2495418434134047
588500000.0 0.22279635907324644 0.1452496457854741
595000000.0 -0.04832417110505859 -0.2810013887499397
601500000.0 0.040155414074581876 -0.2892266980300895
608000000.0 0.2036729766927768 -0.21248564372273068
614500000.0 0.04672065725790064 -0.29629359442827297
621000000.0 -0.031205346776735504 -0.29718407629173405
627500000.0 0.2946502989967228 0.027881033273298557
634000000.0 -0.04396807699687509 0.29880419871983555
640500000.0 -0.28908112523309815 0.03956946092691095
647000000.0 0.2961125939105396 0.04224051590178635
653500000.0 0.1974312133308481 0.2258492623925857
660000000.0 -0.2964339141782488 -0.0439932502858761
666500000.0 0.14161820630439756 -0.2650698696935802
673000000.0 0.10822897135575478 0.2756013324439975
679500000.0 0.2827907646439232 -0.1122257740961547
686000000.0 0.26326899698992695 -0.13776699668318707
692500000.0 -0.2897862614000797 -0.0551956846116829
699000000.0 0.24183239016891186 -0.1586161099965052
705500000.0 -0.29114845341359574 -0.0052091487386095245
712000000.0 0.29263621254307853 0.0020133411028389315
718500000.0 0.11905529707699823 -0.2737997072950491
725000000.0 -0.023605194875539373 0.3106239126400207
731500000.0 0.08685429273402279 -0.3062193067885796
738000000.0 0.15358041712708143 0.29332790386076707
744500000.0 -0.32781517083135636 -0.0080691618416966
751000000.0 0.24862535119396878 0.21738789988539117
757500000.0 -0.19788897135362502 -0.2755234913700433
764000000.0 -0.1992159109660894 0.2859956205152254
770500000.0 -0.2092464012809818 -0.28810613472953683
777000000.0 -0.11200253266842314 0.34603708357865515
783500000.0 -0.08203986256218715 -0.35177643832848665
790000000.0 -0.09533526452331796 0.35410226401986417
796500000.0 -0.01285497808080461 -0.3697616867539921
803000000.0 -0.34562963465025326 0.11182665605563621
809500000.0 0.2703181061110394 0.24130921346767722
816000000.0 0.20029588977971002 -0.2997410144768611
822500000.0 -0.04532390992839794 -0.36768830836006916
829000000.0 -0.34110993267020046 0.17080408205421976
835500000.0 -0.3935037745636764 0.0035355193244111594
842000000.0 0.40610323427545897 0.06478225048956018
848500000.0 -0.2606058246247488 -0.3203326406521116
855000000.0 0.1807494769955586 0.3837502429515859
861500000.0 0.12313474846954045 -0.40828202372014727
868000000.0 -0.23835879689447315 0.36296460358937876
874500000.0 0.3313042362033956 -0.282489054945567
881000000.0 -0.30417275093058715 0.3235001496168259
887500000.0 0.09836276435411871 -0.43678390904284886
894000000.0 0.11092263001568992 0.4315259280678243
900500000.0 -0.421832186683306 0.1220078180200268
907000000.0 -0.22104398574420828 -0.3675947544906357
913500000.0 0.4046849324945791 0.07327650450297128
920000000.0 -0.1560206956905002 0.3686322640440853
926500000.0 -0.3845186451448245 0.007403851427562813
933000000.0 -0.08456119982670099 -0.3629631064361536
939500000.0 -0.06776837309337302 -0.35507479620535676
946000000.0 -0.10790433164232273 -0.3246113420551394
952500000.0 -0.03701726633978321 -0.3185834491981052
959000000.0 -0.08873679719699303 -0.2878337048481937
965500000.0 -0.11131137318646075 -0.2601152792536474
972000000.0 0.1583101177616363 0.21614652406155163
978500000.0 -0.12228370800602198 0.2257107299672462
985000000.0 -0.19109250803071742 0.14670142401900055
991500000.0 -0.2151242904114213 -0.07658525065067619
998000000.0 0.05109055843922016 -0.2086606643725221
1004500000.0 0.1778485201014655 0.09880084812344542
1011000000.0 -0.17341985481028305 0.08250523447043669
1017500000.0 -0.05331635811088303 -0.17365743932439717
1024000000.0 0.14617735870474619 -0.0778700289304554
1030500000.0 0.12213358559537862 0.09045541896260449
1037000000.0 -0.026087211248610097 -0.13683934913541906
1043500000.0 -0.04780872280266039 -0.12002804138346305
1050000000.0 0.12259316270432201 -0.010259986456066955
1056500000.0 -0.10085948940303274 -0.05870847989905962
1063000000.0 0.10409044595338808 0.03675519849724234
1069500000.0 0.10287559788061729 -0.013375202443365692
1076000000.0 0.014003433346385069 -0.10106381258568453
1082500000.0 0.038741517061237574 -0.0911050773524045
1089000000.0 -0.07606513072530419 -0.0652404853604971
1095500000.0 0.09117036888243985 0.04059833455374492
1102000000.0 -0.10217134593732458 0.02987340958694823
1108500000.0 0.07799614416119723 -0.08027675988405021
1115000000.0 -0.07860240051416124 -0.09112087515628045
1121500000.0 -0.029990888399715254 0.13259230374229225
1128000000.0 0.03109690966875912 -0.14776895649102642
1134500000.0 -0.0063095054046519786 0.16599838542652645
1141000000.0 -0.05896331707051777 -0.17492869079835716
1147500000.0 0.14652475790436248 -0.1391346008517317
1154000000.0 0.18135505016643955 0.10933736593867159
1160500000.0 -0.00596606330290957 0.22004017420177444
1167000000.0 -0.2069365925715463 -0.09138252646267857
1173500000.0 0.22574741647787905 0.016174304986526496
1180000000.0 -0.21731179806843015 -0.07020030048549486
1186500000.0 0.08691836390254166 0.21067738161220662
1193000000.0 0.20200189150102868 -0.12034776924583039
1199500000.0 -0.23708163339665245 -0.047056144954536125
1206000000.0 -0.21693845482284507 0.12673401864825726
1212500000.0 0.26239699755705986 -0.044885463170357624
1219000000.0 -0.2733414395580331 0.06866641823185327
1225500000.0 0.2879702937780175 -0.02796049726419033
1232000000.0 -0.19936041746380087 -0.22463466563972007
1238500000.0 -0.23836612811917013 0.19744825795248358
1245000000.0 0.20655693685667634 0.2394023855971665
1251500000.0 0.2313246947888735 -0.22822961076100395
1258000000.0 -0.2176880163055698 -0.24880334437131432
1264500000.0 -0.320155353283365 -0.09902567751545491
1271000000.0 -0.15842487287592757 0.3040967329939015
1277500000.0 0.14548294703867676 0.31547643434324724
1284000000.0 0.3522183760049422 0.01282407011836374
1290500000.0 0.20769669776901142 -0.28666762206295004
1297000000.0 -0.144888454038203 -0.3288753347866014
1303500000.0 -0.35784992439749647 0.0094678200855218
1310000000.0 -0.15235288986639542 0.32376150577868174
1316500000.0 0.35587025943508643 0.048074312253136735
1323000000.0 -0.022590167825526357 -0.3568768015387203
1329500000.0 -0.07093656568487641 0.34711647579852545
1336000000.0 0.3319070353875961 -0.09928128622050492
1342500000.0 -0.330780440358235 -0.08536367300825476
1349000000.0 0.1710883150535364 0.2861303268169113
1355500000.0 0.3177454364529548 -0.08566103648636202
1362000000.0 -0.22873486388143563 -0.23018526692589783
1368500000.0 -0.3237980064170841 0.018197459514686157
1375000000.0 0.0732884843525297 0.3243040746478322
1381500000.0 0.23709412843364605 -0.23889406106807565
1388000000.0 -0.33817179970534583 -0.07198708923942923
1394500000.0 0.12941325188707664 0.32871500073574683
1401000000.0 0.16060991593040794 0.3226827992864126
1407500000.0 0.31876844709928764 -0.18034033413787773
1414000000.0 -0.13479344762250847 -0.34871593156315034
1420500000.0 -0.3034415562909196 0.2275057743306707
1427000000.0 -0.1560830887489279 0.34582247711243574
1433500000.0 0.02231552075355541 0.38316149679575084
1440000000.0 0.10646508227279522 0.3654918824588459
1446500000.0 0.07726496696937427 0.37713578924598556
1453000000.0 0.18418626492404286 0.33693568767204973
1459500000.0 0.24626805549878947 0.2936237569736658
1466000000.0 0.37595222888673185 -0.06311745062701524
1472500000.0 0.33037882885104264 -0.17840339952782316
1479000000.0 0.028211537420476936 -0.36633457396198926
1485500000.0 -0.24238066348700452 -0.2648723489243687
1492000000.0 -0.33172668527658533 0.10377001742899832
1498500000.0 0.07179485696842926 0.3259885845484597
1505000000.0 0.27414597199800794 0.16794982509210837
1511500000.0 0.09565543617190357 -0.29497622059436207
1518000000.0 -0.22715453484206047 -0.1940566296263973
1524500000.0 0.23833140526141644 0.16505183427445103
1531000000.0 0.1507515356835952 -0.23308980454317868
1537500000.0 -0.23411743489382525 0.1422884268945989
1544000000.0 0.2595369693155202 -0.05388094777006692
1550500000.0 -0.15050570380673872 0.2188361679759504
1557000000.0 0.06588226160218255 -0.2498774899582726
1563500000.0 -0.2466047616737635 0.06620554958937472
1570000000.0 -0.2539471154923566 0.012843845603205086
1576500000.0 -0.002545093212347398 0.2565603564101602
1583000000.0 0.23413403730265459 0.11437768221288724
1589500000.0 0.19137235635064082 -0.18104241217718636
1596000000.0 -0.17622328161683656 -0.19350674633539763
1602500000.0 -0.25693840754048153 0.043807739367671426
1609000000.0 -0.24330139577355114 0.07978774115776735
1615500000.0 -0.17763957702856437 0.17256022858811634
1622000000.0 -0.01728177931273027 -0.2409825394221513
1628500000.0 0.11153110909122659 -0.20876725922398023
1635000000.0 0.22238934021008833 0.061289487542633594
1641500000.0 0.032987963217042574 0.22163457221596736
1648000000.0 -0.2191208849888697 -0.0012976800181776192
1654500000.0 -0.02644963742306425 -0.21143674293771406
1661000000.0 -0.13763062999987524 -0.15796298430352576
1667500000.0 -0.19506382586304408 0.05091124260195865
1674000000.0 0.12863592021319203 0.13948904788943323
1680500000.0 0.14784956923595513 -0.08741272009016911
1687000000.0 -0.08869143851482375 -0.13187690518587655
1693500000.0 -0.0553365047651509 0.13079952236120318
1700000000.0 0.07151499836196054 -0.11338891072396147
1706500000.0 -0.06697924529934972 0.10141785166698435
1713000000.0 0.008964536050124993 -0.11361890754334159
1719500000.0 -0.09021178986475713 0.06355596329023751
1726000000.0 -0.07067021908530674 -0.08226660139831558
1732500000.0 0.020444141454241806 -0.10478581928978745
1739000000.0 0.05909845396042881 0.09115225017121822
1745500000.0 -0.10552249571584806 0.013529628790697867
1752000000.0 0.06541845845473587 -0.08621501630733493
1758500000.0 -0.10128226434061884 0.034220537221338665
1765000000.0 0.06423533872080982 0.08465327785757824
1771500000.0 0.08466699552127355 0.059408325071625884
1778000000.0 0.05484627574559223 0.0851261533822073
1784500000.0 -0.02223490887911633 0.09912276801794681
1791000000.0 -0.01702825640483097 -0.09817447253615443
1797500000.0 -0.09058099384610144 0.039531018052133333
1804000000.0 -0.06123996354506814 -0.07799479898987915
1810500000.0 0.09779089040242082 0.018445819173295786
1817000000.0 0.0797807132105926 0.054245907925226655
1823500000.0 0.0636192059810793 -0.064539789830973
1830000000.0 0.006804608296653439 -0.0808287029043713
1836500000.0 0.01980611952641005 -0.06959288660538646
1843000000.0 0.032268870362412445 0.04660810505948227
1849500000.0 -0.04404607097168307 -0.00034985974475708234
1856000000.0 0.030932201098877874 -0.00924455104304617
1862500000.0 -0.014080294819727102 0.01718206707998457
1869000000.0 -0.013362222446707917 -0.0149372377958052
1875500000.0 -0.017706113226635463 -0.007200056557319045
1882000000.0 0.005188014349610757 0.01356741311514266
1888500000.0 -0.0018291768787953916 -0.01521165330992517
1895000000.0 0.0037538358342720122 0.017701374579942676
1901500000.0 0.015780221898575794 0.014517251958794605
1908000000.0 0.012811804097279667 0.018473579625641355
1914500000.0 -0.011985062707804334 0.02186906012060247
1921000000.0 -0.02297875713239839 -0.010750049599946793
1927500000.0 -0.010992746075415939 0.02070994766314083
1934000000.0 -0.00458795216575238 -0.02204099517792602
1940500000.0 0.008694053057172368 -0.016433044938773726
1947000000.0 0.014222619537068003 -0.014283513130328704
1953500000.0 -0.015636278429251367 -0.017847931025054893
1960000000.0 0.013367973923201257 -0.01876548525865141
1966500000.0 -0.021723709338848447 0.02510067069329874
1973000000.0 -0.03468941237708372 -0.021427355895454123
1979500000.0 0.008029237045174826 -0.05111376823518319
1986000000.0 -0.014626154798768816 -0.06434588291112829
1992500000.0 -0.07635748652346307 0.010645946066807114
1999000000.0 -0.05190508658790035 -0.07218066204428544
2005500000.0 -0.09976929221310724 0.0021940433637645403
2012000000.0 -0.07726872184705925 -0.07824872224230237
2018500000.0 0.0432175339189177 -0.10966655397056096
2025000000.0 0.12455561695103287 -0.03081686873470673
2031500000.0 0.10723752100265536 0.07561833664383898
2038000000.0 0.025635486585201216 0.1333998032415322
2044500000.0 -0.1381140247186593 0.004583728401942208
2051000000.0 -0.12089938771142764 -0.07439255664905307
2057500000.0 -0.13790376085198575 -0.022741320231937163
2064000000.0 -0.13694534281811013 -0.029438577398596427
2070500000.0 -0.1321166961451252 0.02978924956481932
2077000000.0 0.08990555452942495 0.09276553800275525
2083500000.0 0.10188762902833275 -0.06644100965895819
2090000000.0 -0.1124021861333905 0.030223265697877803
2096500000.0 0.07613216986519543 0.07837234034867342
2103000000.0 -0.07493218672247319 0.07584420183395181
2109500000.0 -0.07051118724127253 -0.07776821260203434
2116000000.0 -0.10254986391797472 0.036426810596710685
2122500000.0 -0.004723334891557743 0.11220664634279581
2129000000.0 0.11628485467813854 0.04073452311899498
2135500000.0 0.1007426346184803 -0.08258738892922327
2142000000.0 -0.06584911176239269 0.12604990894166887
2148500000.0 -0.11820261254956627 -0.09753647013045516
2155000000.0 0.08339053648348098 0.1452310251228109
2161500000.0 -0.05211380853780748 -0.17148125294700908
2168000000.0 -0.17193289614222634 0.09095570764920266
2174500000.0 -0.1311052533909045 0.15927533045752276
2181000000.0 -0.05206256792042026 0.21225942052832378
2187500000.0 0.012147791745400665 0.23078079374049265
2194000000.0 0.05725395522996598 0.23571186877871858
2200500000.0 0.0416780339235 0.24940177433446936
2207000000.0 0.2529287206179172 0.05066032563334122
2213500000.0 0.23756968370218576 0.10440849316989026
2220000000.0 0.25931604385586615 -0.011075473555363065
2226500000.0 0.21789856469422036 0.12782126940832952
2233000000.0 0.21044882588212394 0.13134951173834833
2239500000.0 -0.1254328579042361 0.2071349026176722
2246000000.0 -0.16656547831596527 0.16504384949640588
2252500000.0 -0.22121359386317527 0.0414481119251927
2259000000.0 -0.22001505218677364 -0.01000474232155435
2265500000.0 -0.19441085590306983 0.08973487884397109
2272000000.0 -0.09850908219134526 0.18283132633703886
2278500000.0 0.13072202446242037 -0.15339981011103093
2285000000.0 -0.12380051286127608 0.14801359186429225
2291500000.0 0.054675479892730014 -0.17498661285628705
2298000000.0 -0.047633413726802375 0.16558218502818228
2304500000.0 -0.07316337892076069 -0.1513183357574885
2311000000.0 -0.1536625937365512 -0.021429346850498666
2317500000.0 -0.047033607231980794 0.1471357878840451
2324000000.0 -0.03767799914335289 -0.14594402791369473
2330500000.0 -0.14013354980535522 0.057399092517125154
2337000000.0 0.11517377553715477 0.098136078097447
2343500000.0 0.06278669960368713 -0.14120874755259408
2350000000.0 -0.15485189457297888 -0.00949477073713132
2356500000.0 -0.1456131585632343 0.06270164685382805
2363000000.0 -0.001332768495113285 0.1608311230723344
2369500000.0 0.15646018401936432 0.04360697585402396
2376000000.0 0.15725765100061154 -0.041336516568741745
2382500000.0 0.14528975093398852 -0.06785855320406958
2389000000.0 0.14289906498453914 0.0715159893580125
2395500000.0 0.019137570078113102 0.15769819199503063
2402000000.0 -0.14951830078455394 0.05315389003208655
2408500000.0 -0.15557549518434396 0.03723025124374939
2415000000.0 -0.1347199905650669 0.08634949837441695
2421500000.0 -0.14559153373723113 0.06184061141177101
2428000000.0 -0.07823942563230761 0.13499532848681325
2434500000.0 0.004711833042381533 0.15225792816839992
2441000000.0 -0.008445567905120214 0.15157974844236757
2447500000.0 0.1191773716072248 0.08993103884077568
2454000000.0 0.1447142488554283 -0.0320802071317123
2460500000.0 0.13429146112785928 -0.06086615679680882
2467000000.0 0.14464314629938807 -0.030290040020890304
2473500000.0 0.13530853570411652 -0.06115974583277297
2480000000.0 0.14984630976990673 -0.0018717210695080842
2486500000.0 0.1530902433689305 -0.02566567962216813
2493000000.0 0.003905630173057892 0.1546529658125957
2499500000.0 0.051145752340446896 0.14813262465476487
2506000000.0 0.057476532896891745 0.14796383609960306
2512500000.0 -0.0923337404388414 -0.1293795485841619
2519000000.0 0.15766282912205207 -0.035943302036587826
2525500000.0 -0.132187592606565 0.09787826196138434
2532000000.0 0.06967195981936102 -0.1530398620906363
2538500000.0 -0.042830506785355646 0.1622733636171878
2545000000.0 -0.11465871281604077 -0.12600410095596395
2551500000.0 0.1050966119251756 0.13263981365576652
2558000000.0 0.05193043111565543 -0.161111167303298
2564500000.0 -0.03330883903425134 0.16357834333439084
2571000000.0 0.14611880512333084 -0.07720801908353192
2577500000.0 -0.1474959527997751 -0.058526102815756834
2584000000.0 -0.15665531194001844 -0.007928876498228562
2590500000.0 -0.0025947873499924333 0.15311971430703128
2597000000.0 0.15205637124956897 0.013321414450362072
2603500000.0 0.003312089835279002 -0.14964802227979362
2610000000.0 -0.01078149255188017 0.14893763438202537
2616500000.0 0.008788033110183415 -0.1440251417960423
2623000000.0 0.043860016197463846 0.13200713472564685
2629500000.0 -0.0884115127747304 -0.09584069791935279
2636000000.0 0.12268772382557455 0.002567401112789837
2642500000.0 -0.10824920784765427 0.03141366070214075
2649000000.0 -0.09759493070209459 -0.04099309873065645
2655500000.0 0.09343490270393977 0.02211779068321311
2662000000.0 0.06262184621624228 -0.06652029085806095
2668500000.0 0.03768993892415008 -0.07776674218008013
2675000000.0 -0.020608249460483726 0.0816640567933476
2681500000.0 -0.04358887848776284 0.07030088302203791
2688000000.0 -0.0290944828572519 0.0782789131910476
2694500000.0 0.07622577130929523 0.04010598701730011
2701000000.0 -0.04140697346455929 0.07842043163461164
2707500000.0 -0.09502850968213006 -0.02090971711516256
2714000000.0 0.10493684652823951 -0.0015338145069620744
2720500000.0 0.044958577791730306 -0.10759183222952516
2727000000.0 -0.1270508951223962 -0.011582718580380586
2733500000.0 -0.04788000632358041 -0.1325049500457879
2740000000.0 -0.10569676542470123 -0.1136355927616244
2746500000.0 0.07213699639805478 -0.15105269980774752
2753000000.0 0.18253608771608862 -3.132477240165539e-05
2759500000.0 0.1399654323927861 0.13210314897313943
2766000000.0 -0.17294335240440037 0.10466949901797688
2772500000.0 -0.09834190108078708 -0.18651069116088484
2779000000.0 0.12483665121471982 0.17909120907251339
2785500000.0 -0.2088919186319031 -0.08353695586280765
2792000000.0 0.22390158543833083 0.0628245355563215
2798500000.0 -0.20992692754137238 0.11678149769967712
2805000000.0 0.18318435956653698 -0.16384044966760677
2811500000.0 0.06355789900866952 0.2476394859650062
