!Created with skrf (http://scikit-rf.org).
# Hz S RI R 50.0 
!freq ReS11 ImS11
400000000.0 -0.6796678403347665 0.46254484134670865
420000000.0 0.7221697104769556 -0.21228061143208501
440000000.0 0.565650856685641 0.4406531065710214
460000000.0 -0.19563326950488355 0.6496608870735361
480000000.0 0.5384274687930471 0.2144871863763627
500000000.0 0.03113591315575762 -0.4677349802548977
520000000.0 -0.27168810961135786 -0.29036837411436517
540000000.0 0.4771610032280662 -0.0055792967482577276
560000000.0 -0.1379029202515631 -0.4510297535381594
580000000.0 0.3822472801241706 0.16724489126982847
600000000.0 -0.15772646774123503 -0.3292328254477248
620000000.0 -0.2692107592718535 -0.25890695497460064
640000000.0 0.21791251710856088 -0.2919245348762509
660000000.0 0.11000307258688724 0.3289949434914917
680000000.0 0.17805735296213235 0.2938443087075396
700000000.0 0.023098757528167237 0.32985734122209054
720000000.0 0.3189656685051305 0.1410213410138669
740000000.0 0.2787859126437886 0.15414072237178672
760000000.0 -0.3158181094026956 -0.006478854247282872
780000000.0 -0.29289384375806815 0.00981594995244409
800000000.0 0.17614092307301918 -0.17200696462711504
820000000.0 -0.20387033488855924 -0.06598412083963064
840000000.0 -0.007841076756778715 -0.21403386355411985
860000000.0 -0.17689117854360215 0.04236434318599109
880000000.0 0.18494023863797937 0.00010659746778654478
900000000.0 -0.10517185896235383 -0.12086675322705398
920000000.0 0.1363339705870458 -0.061807824185609116
940000000.0 0.08012624328485268 0.10502261878414483
960000000.0 -0.016629377143149077 0.1099430726368045
980000000.0 0.06162187654387938 -0.03441179595610048
1000000000.0 -0.010457452205268523 0.03777767930210251
1020000000.0 -0.03591135390895862 0.02855499417768853
1040000000.0 -0.01899820821166829 -0.07439146263871833
1060000000.0 -0.0313176377311737 0.10727801078886182
1080000000.0 0.08948706874707871 0.1290821914694148
1100000000.0 -0.004908551536348318 -0.1787747017942362
1120000000.0 -0.20660698144846767 -0.03137464146810732
1140000000.0 0.15391621696875535 -0.20061383871518
1160000000.0 0.20633955631854817 -0.19747683579348765
1180000000.0 0.27023112896622725 -0.1470888899912126
1200000000.0 0.22420337312854902 0.22983642549617478
1220000000.0 0.30558490848959674 0.11068916503107544
1240000000.0 -0.24992915298822707 0.22005333593271875
1260000000.0 -0.2975568895902252 0.15391709086305214
1280000000.0 -0.3343021906072861 -0.03071445124143302
1300000000.0 0.3181160849740246 -0.14567538540845426
1320000000.0 0.18519064041296618 -0.3086600959357903
1340000000.0 -0.04305573362386692 0.3630965835515174
1360000000.0 -0.33555820788730345 -0.1766229286074274
1380000000.0 0.15265210271142496 -0.345470462116792
1400000000.0 -0.2795009415189227 0.24900741683909036
1420000000.0 0.3004784564020551 0.21873226545983665
1440000000.0 0.36567543200756225 0.001821074229443965
1460000000.0 0.27057257134606866 -0.23670512921904632
1480000000.0 -0.013176121044191736 -0.34927261916184166
1500000000.0 -0.17820077877887483 0.2872614535656078
1520000000.0 0.27719219044727655 -0.1413514491975993
1540000000.0 -0.23741902444132137 0.14721803795989746
1560000000.0 0.02787298900581702 0.23927277068575542
1580000000.0 0.08060314455708617 -0.19838502546116826
1600000000.0 -0.01268785507613991 0.1781531891139691
1620000000.0 0.13776783114543675 -0.07681251027701833
1640000000.0 0.03026356199065277 -0.1297866415533006
1660000000.0 -0.0828287845940918 -0.052277538408584144
1680000000.0 -0.08021284546553975 -0.03879209877549825
1700000000.0 -0.022628247817747596 0.07252221369029796
1720000000.0 0.02892149959894052 0.043596823265516074
1740000000.0 -0.03911680337877025 -0.03222550950625906
1760000000.0 -0.05859540387012699 -0.029598858193066364
1780000000.0 -0.047387346373080036 -0.08290597449503129
1800000000.0 0.1197891603157481 -0.0481258651036686
1820000000.0 0.09834789913266694 -0.12445973292574199
1840000000.0 0.0547535302905028 0.1865405505581143
1860000000.0 0.2250179064749991 -0.002826916076304262
1880000000.0 0.16344499491700176 -0.1823191524493522
1900000000.0 0.20188556955536227 -0.1766210968416945
1920000000.0 -0.28197919742497846 -0.06653680377838736
1940000000.0 0.221722491464998 0.21000341962946537
1960000000.0 -0.3099158025980671 0.053497003401634366
1980000000.0 -0.18393441831114743 -0.25519808203394134
2000000000.0 0.3118699043799008 -0.027631622449285697
2020000000.0 0.14457564606880247 0.2750082262957904
2040000000.0 0.08633902167850509 0.2998617103100281
2060000000.0 -0.14472374943822583 0.26991396848981447
2080000000.0 -0.3018011733492327 0.016549413168797163
2100000000.0 0.18330177851388627 0.24586874326804495
2120000000.0 -0.22610632511935605 0.20883990248382955
2140000000.0 -0.07858662563393659 -0.28955106353528637
2160000000.0 -0.12230398945105561 0.2715599485462342
2180000000.0 0.19653789499315366 0.21230090452475797
2200000000.0 0.2629953231902989 -0.1037065603263559
2220000000.0 0.24504452495646054 0.1223493176369909
2240000000.0 0.11820721876819755 0.24588131412252856
2260000000.0 -0.17280575112172783 0.18878304408531396
2280000000.0 -0.03239533889065244 -0.24388591811296115
2300000000.0 0.17169175796518416 0.1716166973699613
2320000000.0 -0.06397024928601114 0.22130924142939587
2340000000.0 0.21078419060850012 -0.0735412891159238
2360000000.0 -0.1471167364706307 0.16515500739652586
2380000000.0 0.19319549095385502 -0.12561237857237398
2400000000.0 0.2115582527303866 0.1362885056311121
2420000000.0 0.23076740891206413 -0.15419530578764096
2440000000.0 -0.2384253139261862 0.1924412637659705
2460000000.0 0.050083222902554125 -0.3327114656794148
2480000000.0 -0.3604465466587272 0.08157929134737936
2500000000.0 -0.10890889870522578 -0.39546623372118944
2520000000.0 0.44271625027611067 -0.054665442627167396
2540000000.0 -0.06040963039876481 0.475049665299569
2560000000.0 -0.23139516215665437 -0.4591694664564103
2580000000.0 0.4953046358539424 0.23038944074838374
2600000000.0 -0.5562642602883527 0.13892042177240438
2620000000.0 0.39103172266691 -0.4493976517316929
2640000000.0 0.00026166742579572527 0.6127586766507463
2660000000.0 -0.5648776191937084 -0.27077647812586314
2680000000.0 0.3180594736472203 -0.5488817650206842
2700000000.0 0.6409832281081509 -0.02411614005824149
2720000000.0 0.5828273560193225 0.2747215118584768
2740000000.0 0.5661015039760171 0.3100104830247786
2760000000.0 0.5058980769494178 0.3961785811036801
2780000000.0 -0.5811626182901406 0.25942175285054814
2800000000.0 -0.6129542587922658 -0.13900139667280328
2820000000.0 -0.130530704650885 -0.6019127907055613
2840000000.0 0.5546127230696788 0.23718890803266907
2860000000.0 -0.5706024519130976 -0.15918605352253265
2880000000.0 0.5063481272734618 0.2770142351846806
2900000000.0 0.15429830014819837 -0.5385690626964669
2920000000.0 -0.5181389726349306 -0.1537630482219829
2940000000.0 -0.32598245927898856 0.39896462159501783
2960000000.0 -0.09646027611830921 0.48436296808271356
2980000000.0 0.39686396887007525 0.25929985422735063
3000000000.0 0.240058032366691 -0.38298288512269596
3020000000.0 -0.41798648430270385 -0.0786537720760026
3040000000.0 0.09719823793341244 0.38722230368426436
3060000000.0 -0.04714785609881964 -0.3739656863777396
3080000000.0 -0.04168096326620907 0.34950314579917896
3100000000.0 0.1083171255482552 -0.3162002028732342
3120000000.0 -0.2085194401855901 -0.2511632739038796
3140000000.0 0.21292163355088062 0.23371806108692744
3160000000.0 -0.008588696662410203 -0.3141271349872263
3180000000.0 -0.12947175923719484 0.28753826602898636
3200000000.0 -0.01288479435174459 -0.3069920050137856
3220000000.0 -0.29255853162752216 -0.021343232765795386
3240000000.0 -0.2776889672802642 0.0016201007154008793
3260000000.0 -0.12558551592690254 -0.23286576791468153
3280000000.0 0.10218540600735782 -0.22489216871375928
3300000000.0 0.043516935876702266 0.22721772771190912
3320000000.0 -0.20659887426450876 -0.05068679637872518
3340000000.0 0.05043107697890166 -0.18694280835725582
3360000000.0 -0.06607828211188027 0.15691882085709938
3380000000.0 0.05159659667051343 -0.1341206609448081
3400000000.0 0.1197013853967746 0.014386346251266231
3420000000.0 0.10450483665896587 0.040453460214803984
3440000000.0 -0.014204074253428343 -0.10192588045909484
3460000000.0 -0.05824393325166542 -0.07686533277465386
3480000000.0 0.07240782224355313 -0.045954177499170974
3500000000.0 -0.030621798519282813 0.06756379732468153
3520000000.0 -0.06147170846677538 -0.029526212954215623
3540000000.0 0.058682613471898744 0.02545815240974621
3560000000.0 0.054100066081265545 0.03429729990104447
3580000000.0 0.06620543782850698 -0.03295153608545428
3600000000.0 -0.08524404936805435 0.0004840931228287065
3620000000.0 0.059867754079955274 0.0763871502928434
3640000000.0 0.10393423676034164 -0.017550039212471228
3660000000.0 -0.012279141888963181 -0.10249855441220129
3680000000.0 0.08064736742021604 -0.06102584445643864
3700000000.0 0.056735201293487206 -0.07763020135996127
3720000000.0 0.08476303682322969 -0.012311826654600358
3740000000.0 0.0400871868715699 -0.06276219073598696
3760000000.0 0.07036584244259071 0.0026097343411240334
3780000000.0 0.026050562752553137 -0.0541934013763364
3800000000.0 0.03601625219086189 -0.0281055927594353
3820000000.0 0.03643936968425698 0.006895368406425203
3840000000.0 -0.01127948337762892 -0.05288825765253726
3860000000.0 -0.008926670477042601 -0.07378610742134009
3880000000.0 -0.09341637890704792 -0.023495060042347842
3900000000.0 -0.038835809191714615 -0.0946432858137094
3920000000.0 -0.06820865107988759 0.08033151400690668
3940000000.0 0.09919931454117865 0.039460246100102465
3960000000.0 -0.09522129060958293 -0.0476087411996745
3980000000.0 0.038478434205010216 0.08643217837406063
4000000000.0 0.08337639308954121 -0.00037634415732065273
