!Created with skrf (http://scikit-rf.org).
# Hz S RI R 50.0 
!freq ReS11 ImS11
400000000.0 -0.8519118546072068 0.014499205144042572
420000000.0 0.13531820201685604 0.8238146693074194
440000000.0 0.04593359361507063 0.7812892761094916
460000000.0 -0.39813655150886285 0.6073293013652861
480000000.0 -0.6609012931836217 -0.0823036731590228
500000000.0 -0.576604873617899 -0.22981584487509882
520000000.0 -0.2105438108876129 -0.4939020171509927
540000000.0 -0.27375336301842185 0.38376999325210975
560000000.0 -0.034914787216051346 -0.4408502607519885
580000000.0 -0.3721387382416966 -0.14203922611136724
600000000.0 0.14268859202628792 -0.32836810077290884
620000000.0 0.11483466156042978 0.33366758486649656
640000000.0 -0.352543481949222 -0.18744240146414498
660000000.0 0.37344605966507105 -0.2135014486209462
680000000.0 0.04765511711142072 -0.4350060161462036
700000000.0 0.36345698407525096 0.2503477754035085
720000000.0 -0.42032967597817894 -0.07569357207618711
740000000.0 -0.3851861366474173 0.021611283957966427
760000000.0 0.2633959013917058 -0.239989736925785
780000000.0 0.2815441424523526 0.187443463012721
800000000.0 0.16537571044098678 -0.2439553042718863
820000000.0 0.21184282219198503 -0.15166814614611074
840000000.0 -0.1403435469877054 0.16079650045161573
860000000.0 0.16819652444399108 -0.02342844796737814
880000000.0 -0.12723825217585122 0.022876038185059597
900000000.0 0.07467020840193087 0.05652720792045155
920000000.0 0.04719003118282093 -0.03914424648916861
940000000.0 0.041725160406319316 -0.012966918704583854
960000000.0 0.035625884538841614 0.04413677186985302
980000000.0 0.058930044714541815 -0.02119589062358329
1000000000.0 -0.056077106689539136 -0.05337252576365325
1020000000.0 -0.0119318377044718 0.0861608069268351
1040000000.0 -0.10519280424692576 0.03657493696827806
1060000000.0 0.04656693386593526 -0.12663522543564718
1080000000.0 -0.001991422273971285 0.1662112643790777
1100000000.0 0.04509135991098409 -0.1986960146225201
1120000000.0 -0.0768492389754059 -0.22172079085465946
1140000000.0 0.12426609426190606 -0.2388993730892247
1160000000.0 -0.10497321723888077 0.2773085071187875
1180000000.0 -0.24496451413205306 0.2073257570435273
1200000000.0 0.14773208949803307 -0.3089014667135562
1220000000.0 -0.3725761491329463 0.014333039186697573
1240000000.0 0.11973337435260738 -0.3853453768081638
1260000000.0 0.20413451448971853 0.3542987153805057
1280000000.0 0.29025522667658304 -0.2813311603980825
1300000000.0 0.35852730924356674 -0.16413302878723524
1320000000.0 0.2315059626265888 0.3228785851386193
1340000000.0 -0.08052272317576491 0.39391531688654063
1360000000.0 -0.21028772234623583 0.3434964374624819
1380000000.0 -0.11792963718072255 0.385026038458638
1400000000.0 0.3958845981520283 0.055200652525469386
1420000000.0 -0.353998710245615 -0.14454168604279605
1440000000.0 0.3474304529688316 0.06682899094528753
1460000000.0 -0.31075330213029084 0.032785254437709965
1480000000.0 -0.018296722456913227 0.2662611267707546
1500000000.0 0.036396358366444295 0.22190785196886897
1520000000.0 -0.06966987354878443 -0.1777718145913205
1540000000.0 0.16053462377018246 -0.042200520945581486
1560000000.0 -0.023015172740923958 -0.1486740914093513
1580000000.0 -0.0006238652231211163 -0.128184643546324
1600000000.0 -0.07527397897016462 -0.06081645451177287
1620000000.0 0.05492967958457428 -0.040787927982281744
1640000000.0 0.031033562773477637 -0.013410202379827632
1660000000.0 0.00075694735332679 -0.0028900760549570967
1680000000.0 -0.023877916611146858 0.014034300899042233
1700000000.0 -0.010874213680106314 0.05244453468194952
1720000000.0 -0.021257203101465182 0.06489076563892367
1740000000.0 0.04018467429662347 0.07341085530635558
1760000000.0 0.04799602552882788 0.09318598754553932
1780000000.0 0.002874458795582873 -0.1281841950559874
1800000000.0 0.10194053538096226 0.11518682904008126
1820000000.0 0.09259770586584389 -0.15542560562428828
1840000000.0 -0.21572728981652778 -0.043627742581693704
1860000000.0 -0.017118785491347665 -0.2615764753307351
1880000000.0 0.19245519603992486 -0.2253223050683945
1900000000.0 -0.05768302018154369 0.316265942782091
1920000000.0 0.20969760431328138 -0.2758937345108067
1940000000.0 -0.36297397467096554 -0.08139051578015649
1960000000.0 0.2508313887302239 0.3012233111801208
1980000000.0 0.3196973815638012 -0.2490969364174707
2000000000.0 -0.1139115651516953 -0.40459675862709776
2020000000.0 -0.43254390721773656 0.0041430897125697055
2040000000.0 0.2995927343729226 0.3200418022832698
2060000000.0 -0.05964328524921467 -0.42774299392132525
2080000000.0 -0.35359159610631247 0.21474779931334065
2100000000.0 -0.1704851789887054 0.35138325537357046
2120000000.0 -0.26500463276027875 0.25677244159564927
2140000000.0 -0.3511351795411336 0.014381817504945837
2160000000.0 0.3095558176934688 -0.1307739490007049
2180000000.0 0.3242356464183527 -0.014598834315018627
2200000000.0 0.2937435131488728 0.1163336624215329
2220000000.0 0.3135323748453575 -0.02662606171908675
2240000000.0 -0.03882457330866436 -0.31502901036574704
2260000000.0 -0.318888357760834 0.029385999457205707
2280000000.0 0.0783427356074618 0.31883567542302627
2300000000.0 0.2947205702532507 -0.1823343609708609
2320000000.0 -0.3660530945274416 -0.08739049214126238
2340000000.0 0.4176763606652994 0.013720154790476021
2360000000.0 -0.2443392058092577 0.39818836917957195
2380000000.0 -0.5070261309418761 -0.12450545778955567
2400000000.0 -0.04261071568333157 -0.5742061537714365
2420000000.0 0.5128140334909188 -0.35723000085923107
2440000000.0 0.5031460541028281 0.43561249028967525
2460000000.0 -0.5378829661496013 0.4440060194115618
2480000000.0 -0.05294715982915696 -0.7191990493307374
2500000000.0 0.2619864106333854 0.6859733965039251
2520000000.0 -0.23698699169657317 -0.7019166120558239
2540000000.0 0.09232695642947383 0.7335536782933123
2560000000.0 0.2614610546795617 -0.6832900062053591
2580000000.0 -0.6318693640262398 0.3354527345520525
2600000000.0 0.6868185695872828 -0.07414286801924398
2620000000.0 0.4134839453017443 -0.5160214771175407
2640000000.0 -0.5399209200106698 0.31840071595622
2660000000.0 0.5886664585673208 0.026373835300121194
2680000000.0 -0.47838212489585435 -0.2720833636566704
2700000000.0 0.26929789647318053 0.43664599940447896
2720000000.0 -0.12686246773788348 -0.46298912474856474
2740000000.0 0.11454030201563088 0.43669892726038545
2760000000.0 -0.24118952588002093 -0.3502800084150551
2780000000.0 0.2941978820644408 0.2752993362605371
2800000000.0 -0.2933635655049722 -0.2535981569583562
2820000000.0 0.2703502905009631 0.26031386568107573
2840000000.0 0.03720612631196105 -0.3664702580427526
2860000000.0 -0.3617620136496092 0.05825198015618041
2880000000.0 -0.047987820000605516 0.36532374541756946
2900000000.0 0.23747432686627074 0.29045259449278954
2920000000.0 0.3719408996943712 -0.087580998161274
2940000000.0 0.15535500768928057 -0.35439045819945725
2960000000.0 -0.043551723758429604 -0.3840810946300872
2980000000.0 0.18292877429905793 -0.33575073408104245
3000000000.0 0.3587970063568215 0.12108804512140182
3020000000.0 -0.2893528195031184 0.23776501263868852
3040000000.0 0.24726282272412867 -0.2725288342673992
3060000000.0 -0.2264367469730147 0.28185357324076526
3080000000.0 0.31407575072850863 -0.1663099846160065
3100000000.0 -0.24834119105460636 0.2452084588399259
3120000000.0 0.14766519927089014 -0.30266949074159205
3140000000.0 -0.027406332691879372 0.31953640791327886
3160000000.0 0.045076645618463716 -0.29620266652700705
3180000000.0 -0.24002567524143156 -0.13913114972027044
3200000000.0 0.16033546447653674 0.1913964094853393
3220000000.0 0.17841383130433153 -0.1268700175145075
3240000000.0 0.16675817336729876 -0.08940047101820647
3260000000.0 0.10757713898492895 0.12520305232177054
3280000000.0 -0.13833965490154415 0.024544101457558167
3300000000.0 0.02189435294421679 0.12027279901657252
3320000000.0 0.07119306468914652 0.08381910296232888
3340000000.0 -0.1025894835913636 -0.006488635797992918
3360000000.0 -0.06684676349165773 0.06572127683738238
3380000000.0 -0.04882666769314765 0.06754696984762536
3400000000.0 0.06875048620991984 0.031019179119358083
3420000000.0 0.0639196304291777 0.014894040724003415
3440000000.0 0.028973199211695607 -0.046817991709408334
3460000000.0 0.04674434000654735 0.015858379227897037
3480000000.0 0.03814362635414745 -0.029825843015388785
3500000000.0 -0.00324667114757278 -0.05288841877963918
3520000000.0 -0.03892112049483045 0.053232589836818237
3540000000.0 -0.05699054367836876 0.0573185719200115
3560000000.0 0.08267193731257949 0.050385065161120166
3580000000.0 0.08074291503686157 0.08100826844619716
3600000000.0 -0.11998297614777033 0.056780123100217995
3620000000.0 0.13125331076337526 -0.07612505110927914
3640000000.0 -0.17058427554841504 -0.02039400346455399
3660000000.0 -0.03282975880702923 0.1872026212469884
3680000000.0 0.19224517093218216 0.08594606211472774
3700000000.0 0.003318853759900705 -0.22741286631989543
3720000000.0 -0.10842774080376812 0.21718718790151606
3740000000.0 0.24044643668682078 0.07468479618761314
3760000000.0 0.23531362306325046 0.11189752860461247
3780000000.0 0.15890581928424688 0.21579413854994847
3800000000.0 -0.08153846214470452 0.2639339478239544
3820000000.0 -0.10782128364202916 0.2620484916882926
3840000000.0 -0.15833347229904632 0.23531075827591846
3860000000.0 -0.21278846899126372 0.19037735123941632
3880000000.0 -0.19191333650157524 0.21373214428250056
3900000000.0 -0.156651562850722 0.24040433104111888
3920000000.0 0.11601992022161453 0.2602339113412893
3940000000.0 0.2630715596884776 -0.0947253939123904
3960000000.0 -0.19142542120644104 -0.19136514395288695
3980000000.0 -0.25494804100531404 0.047468472759358726
4000000000.0 0.2105855834222741 -0.11812583137358851
