!Created with skrf (http://scikit-rf.org).
# Hz S RI R 50.0 
!freq ReS11 ImS11
400000000.0 -0.09210623626632757 0.4987671203526039
420000000.0 0.4179962441453171 0.012947914193228969
440000000.0 0.33930371592252984 -0.0506156500369555
460000000.0 -0.0022337847684068338 -0.31035947535052577
480000000.0 -0.13184994573865716 -0.16673283510735634
500000000.0 0.13545746711501075 -0.015355704573504622
520000000.0 -0.13885628729497124 0.0788196502802709
540000000.0 0.18714961492854817 -0.11779835627426782
560000000.0 0.09286721191598173 0.2575597317487458
580000000.0 0.30482911722719386 0.06939450045651395
600000000.0 -0.13526777734744788 -0.2740643889926505
620000000.0 -0.23198243311298944 0.17211257472859107
640000000.0 0.11349752250441673 0.24629912661410217
660000000.0 0.28397145114933314 -0.01248472025485089
680000000.0 0.2855061120249026 -0.04930988372608423
700000000.0 0.23302805728858597 0.110886344854155
720000000.0 -0.021376831448047664 -0.21930548331936503
740000000.0 -0.11864440115451254 -0.17642312521457715
760000000.0 0.05956631873365142 0.18340439826287747
780000000.0 0.1000182206613817 0.13631838762555282
800000000.0 -0.07377589751705618 -0.14016209578344932
820000000.0 -0.09620798029780268 0.1323489172171952
840000000.0 0.06831406330660063 0.11208594255442825
860000000.0 0.11543885262571893 -0.029762996663441624
880000000.0 0.0142337784493222 0.1177383570624971
900000000.0 0.11473982981204557 0.03453576710706656
920000000.0 0.06037344712636774 -0.08762868785522532
940000000.0 -0.006563159540019484 -0.0953775769057908
960000000.0 -0.06892655408310316 0.06737686219975246
980000000.0 -0.09932257669643016 -0.04223294348284355
1000000000.0 0.015954564362425382 -0.12054188635931275
1020000000.0 0.11437945389004282 0.062108177020104016
1040000000.0 -0.1526130236262227 -0.06409448688965307
1060000000.0 -0.09379840967763234 0.15421820417087878
1080000000.0 -0.1375912788373997 -0.15023686448022136
1100000000.0 0.12037462325475957 -0.19633650522491733
1120000000.0 -0.22241466150542746 -0.10580799718073272
1140000000.0 -0.2439486850365271 -0.06443012767074066
1160000000.0 0.1344589449349062 0.21469993796001863
1180000000.0 -0.09414541517691519 -0.24015064587862775
1200000000.0 0.258879470936753 -0.03516074719480544
1220000000.0 0.22605494499153211 -0.12903643267659937
1240000000.0 0.15063237214881958 0.20554543326257063
1260000000.0 0.2429330937307742 0.08727024556045766
1280000000.0 0.08887394395288926 -0.2255481438256625
1300000000.0 -0.03368962153033467 0.22888100967421435
1320000000.0 -0.03683147831370135 0.22372165982161243
1340000000.0 0.02355446723676314 -0.23014197090109823
1360000000.0 -0.15501663067413504 0.1623937237204387
1380000000.0 -0.21448389160506212 -0.04661413032322287
1400000000.0 -0.1842536770930659 -0.11026453658855134
1420000000.0 0.1888039358519735 0.07250198142196046
1440000000.0 0.1837126791497631 -0.05356121173143486
1460000000.0 -0.0012418896908655082 -0.20225524364625536
1480000000.0 -0.10611600230558012 -0.16541681229386
1500000000.0 0.10803079125540994 -0.13231298720263368
1520000000.0 -0.06597146228916209 0.13621271346109362
1540000000.0 -0.1420145846013562 -0.015950015526675427
1560000000.0 0.11309154858989033 0.06654866471231773
1580000000.0 -0.11506138160091857 0.0708975171741526
1600000000.0 0.08110798866267722 0.11081721359450143
1620000000.0 -0.1395152435213237 0.04632081618349199
1640000000.0 0.031097756015700032 0.15005808540014387
1660000000.0 0.08047780301040286 -0.13142928236736412
1680000000.0 -0.14503437636376654 0.055756907303111475
1700000000.0 0.06068815625677577 0.15094515226949132
1720000000.0 0.11634007845647394 -0.13030102210095937
1740000000.0 0.11532120696274861 -0.13940521079061322
1760000000.0 -0.16224178178054127 -0.10762748923530152
1780000000.0 -0.0615053904166527 0.19918256040013976
1800000000.0 0.1783811021561621 -0.13481201950935706
1820000000.0 -0.13075658892105782 0.1884163754034755
1840000000.0 0.133644239797217 0.18864612308464027
1860000000.0 0.21590798341777534 0.06257605012924781
1880000000.0 0.059013787376477556 0.21136294387196078
1900000000.0 0.1898563107561988 0.09899953443379982
1920000000.0 -0.04930013927804602 -0.19953095557761502
1940000000.0 -0.09603174776388128 0.1628873653803955
1960000000.0 0.09061338643496077 -0.14390578089802455
1980000000.0 -0.11428347074917501 0.09920956920842157
2000000000.0 0.01742338508628986 -0.13410801824486135
2020000000.0 0.08641597468731285 0.07807704005823163
2040000000.0 -0.03665191421426296 -0.0956414818409907
2060000000.0 0.03536762764889439 0.08732411225962206
2080000000.0 0.05607827370918279 0.06866851447690528
2100000000.0 0.07697701082554449 0.04333091858351803
2120000000.0 -0.0493755059902647 -0.07279848177836587
2140000000.0 -0.07857885568944174 -0.016388191348638944
2160000000.0 0.07239757725588883 -0.029437054526048115
2180000000.0 0.01761224848312957 0.06955592583802352
2200000000.0 -0.05220868447986606 -0.038409380689373024
2220000000.0 0.06289789126064747 -0.0024971251152481554
2240000000.0 -0.03725679109847126 0.05041766348081603
2260000000.0 -0.06380658064821369 -0.029293621407369838
2280000000.0 0.06039460301859844 -0.05007785231748927
2300000000.0 0.004048829146154629 -0.08753968205995678
2320000000.0 -0.03463801901208176 0.08963875849246258
2340000000.0 -0.040940781773420906 0.09530103704371672
2360000000.0 -0.031099446108151595 0.09913775088766581
2380000000.0 0.06251173637410212 0.08620997108098852
2400000000.0 -0.03714919834644951 -0.10049641905510905
2420000000.0 0.060833413252714026 -0.08907638261935155
2440000000.0 0.09258506357571133 -0.059063928157833574
2460000000.0 -0.11543570648624309 0.014162763565069264
2480000000.0 -0.01365244142827618 -0.12245071533128231
2500000000.0 -0.12136733608613938 -0.04316866464289922
2520000000.0 -0.11424888999504479 0.08032957341685086
2540000000.0 -0.00011310523988826275 0.15323413671596453
2560000000.0 -0.09491421571000129 0.13186058769128253
2580000000.0 0.16373349570188223 -0.05094403617096315
2600000000.0 -0.17690325396749226 0.03143700286604962
2620000000.0 0.10553907602596437 0.14783469533552476
2640000000.0 0.15692356738076724 0.0955626634684818
2660000000.0 0.0740172201285192 -0.16703974100573857
2680000000.0 -0.17466093414055545 -0.029552225034495314
2700000000.0 0.1020817585411689 0.13655282643364902
2720000000.0 -0.119296585566025 -0.10682082864275651
2740000000.0 0.08791703863629242 0.121157279118037
2760000000.0 -0.14219358618922442 -0.017646727154155613
2780000000.0 0.04484556369914367 -0.13023364975382096
2800000000.0 0.04922487683039327 -0.1248491183985897
2820000000.0 -0.12916098456586048 -0.019025985049448777
2840000000.0 0.03260548908307796 0.12632349139219923
2860000000.0 -0.0016047450977951351 0.13251808395689388
2880000000.0 -0.13198940546792765 -0.04015289276207732
2900000000.0 0.1463612890831605 -2.3829038500142024e-05
2920000000.0 -0.09901479452281732 -0.11812862346352974
2940000000.0 -0.021921958777102034 0.16268403028003323
2960000000.0 0.17281129637786535 0.002029751803705512
2980000000.0 0.04586542634685419 -0.1744189082055029
3000000000.0 -0.14285267886825206 0.12564028156327073
3020000000.0 0.12142757869545798 -0.1578572426090284
3040000000.0 0.02815622872834813 0.20224323740131758
3060000000.0 -0.2050878648253794 0.02613213911543436
3080000000.0 -0.1434912688111844 -0.15069473067462613
3100000000.0 -0.1362903851583115 -0.15270385054422367
3120000000.0 -0.17336363306567792 0.09947247654038704
3140000000.0 0.18552281912522026 0.06003943454753766
3160000000.0 -0.11229752183372702 -0.15331373687062422
3180000000.0 0.11046901320536062 0.15278403310572497
3200000000.0 -0.1867075916148216 0.02874416422124332
3220000000.0 0.10888044465613539 0.15612054945221823
3240000000.0 -0.040196484956159836 -0.18904755079012764
3260000000.0 -0.17265992326578367 0.09621916515183908
3280000000.0 0.0016902061669719023 0.20266737725726644
3300000000.0 -0.032955753147113846 0.20440237158971594
3320000000.0 -0.19011134096548005 0.09306183122670525
3340000000.0 -0.019118482880631116 -0.21380936956243773
3360000000.0 0.1647922924003206 0.13948823326411672
3380000000.0 -0.17436915944639247 -0.1245245144082726
3400000000.0 0.14794215124697632 0.15010305037650382
3420000000.0 -0.06371106633443702 -0.1944053878607856
3440000000.0 -0.10786594317991845 0.16622201295473807
3460000000.0 0.13918190698860097 0.13131235053703555
3480000000.0 0.15326428882879164 -0.10050745087004359
3500000000.0 -0.15800704321150608 -0.08097535262877074
3520000000.0 0.04025565820422206 0.16425631065125224
3540000000.0 0.046644543456348365 -0.1545858215850081
3560000000.0 0.12504597938497114 0.09066269434630204
3580000000.0 -0.06113540978548712 0.13538677236832342
3600000000.0 0.013702256768921218 0.14493572017577894
3620000000.0 0.010209232777849044 0.1432466028861413
3640000000.0 0.04284862040898656 -0.13937622388724
3660000000.0 0.06314084922709969 0.14005927530859538
3680000000.0 -0.10337330198196618 -0.1274153721632512
3700000000.0 -0.044962591677134775 0.17570327138550945
3720000000.0 0.14214037122930379 0.14113263776355553
3740000000.0 0.07147372566128084 0.2069819711904722
3760000000.0 0.0033978553358304645 0.2390356975332591
3780000000.0 -0.21292278966658326 0.143175509919847
3800000000.0 0.03521454627244173 -0.2662997197209467
3820000000.0 0.030342107124906124 0.2761705889061898
3840000000.0 0.03445686419239323 -0.27886272724142425
3860000000.0 -0.1224189471319063 0.25033191810572986
3880000000.0 0.23122959638037438 -0.14378434487426672
3900000000.0 -0.25057639398659853 0.07834077346914066
3920000000.0 0.19096971338685825 -0.151700046281009
3940000000.0 -0.001896443663416926 0.2218341630531639
3960000000.0 -0.18881761110448053 0.0461740056713655
3980000000.0 -0.12481583127318704 0.11151965818181352
4000000000.0 0.06312578951472396 -0.12305919181755542
