!Created with skrf (http://scikit-rf.org).
# Hz S RI R 50.0 
!freq ReS11 ImS11
400000000.0 -0.12254283195913951 0.4913629559840505
420000000.0 0.4152103897921444 0.031821775337806855
440000000.0 0.3440281472888683 -0.006025656509018201
460000000.0 -0.01721271752572029 -0.30963272589807855
480000000.0 -0.08528748509860473 -0.1976098535964449
500000000.0 0.10344793116882166 -0.08897266585364931
520000000.0 -0.15042286161376156 0.05396625734615429
540000000.0 0.19854416432958638 -0.09743796040239648
560000000.0 0.11719047876884765 0.24918602864212597
580000000.0 0.3091263772517537 0.04286082134318779
600000000.0 -0.07286979798170046 -0.2957925242374943
620000000.0 -0.19036446719687616 0.21777494700167696
640000000.0 0.08681787182857205 0.25641167419936667
660000000.0 0.23069791530008202 0.17036255974062944
680000000.0 0.23941351719443948 -0.16660197642772007
700000000.0 0.21169888731047917 0.1480396737286721
720000000.0 0.10368904901563919 -0.19519629175718778
740000000.0 -0.0002721182250884961 -0.20942672818451105
760000000.0 0.0050869585140293876 0.1936783141680759
780000000.0 0.019679446083151517 0.16691650903640068
800000000.0 -0.09465002780371626 -0.12706316127546952
820000000.0 0.002290186392626673 0.16173754001425902
840000000.0 0.03600745317446841 0.12684922543572918
860000000.0 0.02616437812524327 -0.12000669988119597
880000000.0 0.06374559496043514 0.0958849016500262
900000000.0 -0.07367616778381374 0.09682586962777259
920000000.0 0.09855088992241338 0.04626424500614772
940000000.0 -0.09445030860927074 -0.02089863420316228
960000000.0 -0.08942374163299065 0.018311509117380196
980000000.0 0.10377105113641168 -0.023716291042058208
1000000000.0 0.01356797942421466 -0.1240160430175203
1020000000.0 0.0738241673122697 -0.11026050210703472
1040000000.0 -0.1516457679191856 0.06310305818706856
1060000000.0 -0.14689619738313472 -0.10325828025215993
1080000000.0 -0.179780899815842 -0.10674773108396454
1100000000.0 -0.10149932587891364 -0.20570707091200177
1120000000.0 -0.03509043510551029 -0.2403816799249702
1140000000.0 -0.16076116345762337 -0.19666854405089343
1160000000.0 0.22559106736966236 0.11948396157199503
1180000000.0 -0.14170651114073818 -0.2121657357569437
1200000000.0 0.23558808594380926 0.10789466052007096
1220000000.0 0.2329404112646245 -0.12628767424943485
1240000000.0 0.23805158463027382 0.08696086149170867
1260000000.0 0.23345492070451185 0.10476853789022307
1280000000.0 0.18143923166549863 -0.16321815451058716
1300000000.0 0.004675348940742332 0.23323506042356787
1320000000.0 -0.0600917490708668 0.21835369285071846
1340000000.0 0.05949442585641116 -0.22344220634985953
1360000000.0 -0.19221383788476504 0.11677359519247468
1380000000.0 -0.21917977499410665 -0.0013110973228667967
1400000000.0 -0.19288920303601464 -0.09007979763604063
1420000000.0 0.16446915953393032 0.11805936390679657
1440000000.0 0.18651590311194965 -0.03904126070899465
1460000000.0 -0.018430781739612694 -0.19931159495634446
1480000000.0 -0.10374649580606018 -0.16840537421816493
1500000000.0 0.057338227390774536 -0.15946736240639903
1520000000.0 -0.028925014148858653 0.14955056162889974
1540000000.0 -0.1422041075284051 0.002491931836489932
1560000000.0 0.10260239686116666 0.08470151337445421
1580000000.0 -0.07577801314227539 0.11149345892436695
1600000000.0 0.11094640275336141 0.08058680059798608
1620000000.0 -0.13769854297294462 0.05211123331934024
1640000000.0 0.017840482928301035 0.15340183483626474
1660000000.0 0.046823954333586465 -0.14793473844808644
1680000000.0 -0.15545514188956988 0.0021706865366495996
1700000000.0 0.03143483212451238 0.16096801429905644
1720000000.0 0.10153183659463942 -0.14215238368007801
1740000000.0 0.15884083339433455 -0.08408078950907075
1760000000.0 -0.1178520594451671 -0.1546959863403949
1780000000.0 -0.05962921024571428 0.19950692949374704
1800000000.0 0.16137854953483963 -0.15369775811245448
1820000000.0 -0.1555190055673547 0.16728709031242114
1840000000.0 0.16271928373236874 0.16382089570293498
1860000000.0 0.2237020838180296 0.010261257188271405
1880000000.0 0.051721044232929544 0.21249192335723488
1900000000.0 0.19439475965623168 0.08935060938768442
1920000000.0 -0.08442372345716558 -0.18828781217868307
1940000000.0 -0.09686548912218196 0.1624539232123905
1960000000.0 0.08224095979247215 -0.14996541924463747
1980000000.0 -0.11314836099339746 0.1020249625240193
2000000000.0 0.00852911393985933 -0.13418153044204292
2020000000.0 -0.00866726826993503 0.11684091430824209
2040000000.0 0.009112056298014417 -0.10260229031478985
2060000000.0 0.0002736374810222497 0.0937532182183631
2080000000.0 0.028116147555088726 0.08340367931022649
2100000000.0 0.06896046518704124 0.05339055054882671
2120000000.0 -0.043760373754154425 -0.07540655628690353
2140000000.0 -0.077259535674925 -0.017605808642207395
2160000000.0 0.06634505029210323 -0.03984107698139659
2180000000.0 0.05537836508073485 0.04594837121445599
2200000000.0 -0.06273882957376557 0.014638805768912858
2220000000.0 0.04826640183058351 -0.04009001589465669
2240000000.0 -0.030100722366527086 0.05486811947554799
2260000000.0 -0.0675239739800811 0.016875540125430896
2280000000.0 0.046304537801437555 -0.06336799341821837
2300000000.0 -0.0024813345118503147 -0.08841953607934012
2320000000.0 0.00852495474064067 0.09541925247708298
2340000000.0 -0.0470424404730287 0.09233444494907425
2360000000.0 -0.01911801631077367 0.10292426495545798
2380000000.0 0.07699115064294877 0.07409103643267223
2400000000.0 -0.008380721021080246 -0.10693156526157811
2420000000.0 0.09998391801769792 -0.04291603823032402
2440000000.0 0.08033535348305322 -0.07435514630713581
2460000000.0 -0.11093593078405903 -0.03513155909892118
2480000000.0 0.027729455845048413 -0.11923639356028604
2500000000.0 -0.12669625150676783 -0.02019861389736063
2520000000.0 -0.11382396710891739 0.08091702417315241
2540000000.0 0.023729557107847212 0.15064468757470023
2560000000.0 -0.09984292514864378 0.12757832348383483
2580000000.0 0.15887705920521794 -0.06673086180948305
2600000000.0 -0.16218195232270097 0.07820002614210814
2620000000.0 0.11498663040266623 0.1402902172790738
2640000000.0 0.15726447250083556 0.09604240462222406
2660000000.0 0.07632975512401549 -0.1662409179921043
2680000000.0 -0.17261307472595264 -0.041863404736839464
2700000000.0 0.0932621796035417 0.14328625543480958
2720000000.0 -0.100156298104337 -0.12543427280184288
2740000000.0 0.05470309642836068 0.13923326409287326
2760000000.0 -0.14254101899328545 -0.01631868410380671
2780000000.0 0.04525109939800233 -0.12975323830990088
2800000000.0 0.08740193154685001 -0.10069014116106341
2820000000.0 -0.11849268802529336 -0.05411687255237979
2840000000.0 0.03786110322142852 0.12436823753768958
2860000000.0 0.0075756046350210484 0.13173005340770197
2880000000.0 -0.13671325626405995 -0.01157695494308975
2900000000.0 0.14385250889270224 -0.023918916236263466
2920000000.0 -0.11376486933888307 -0.1036041001159943
2940000000.0 0.005772386090189056 0.16411115327699005
2960000000.0 0.16887324329189404 -0.038375529153214225
2980000000.0 0.0019434029687416226 -0.18176748430958684
3000000000.0 -0.15120942375405658 0.11646327094845252
3020000000.0 0.10656293931754006 -0.16912771796466022
3040000000.0 0.016645618992141738 0.203661828410377
3060000000.0 -0.20602542734761337 -0.024599227110115474
3080000000.0 -0.10749073850098455 -0.17890507264167926
3100000000.0 -0.10654307085534404 -0.174845496076701
3120000000.0 -0.19531118160796132 0.039622262121182236
3140000000.0 0.14440648792154784 0.1303588270464268
3160000000.0 -0.09726946403264876 -0.16209458384839906
3180000000.0 0.1378769986043885 0.1276086907661926
3200000000.0 -0.18440597312263574 0.035057021188615096
3220000000.0 0.09988747825849659 0.16044599708431564
3240000000.0 -0.09218804396699248 -0.16948684994990312
3260000000.0 -0.13760524738167063 0.14159929332164878
3280000000.0 0.05411637344409327 0.1958290317040639
3300000000.0 0.0026773273113372144 0.20766481186264488
3320000000.0 -0.1824640871229549 0.10958351356435234
3340000000.0 -0.014782511776048581 -0.21560277389945284
3360000000.0 0.14597939337105487 0.15977145805980114
3380000000.0 -0.12806236790026945 -0.17298821322053293
3400000000.0 0.09773618137954647 0.18744383253861208
3420000000.0 0.003923047036280246 -0.20481071367497933
3440000000.0 -0.16429160966637074 0.11007103026256877
3460000000.0 0.05674971641164518 0.18265143672314207
3480000000.0 0.17923626325390232 -0.036072095485967355
3500000000.0 -0.13412839398048554 -0.11427181294587428
3520000000.0 0.03665146731783989 0.16398905165382566
3540000000.0 0.030446719152044034 -0.15757082345120962
3560000000.0 0.13537751232693193 0.07150802016021728
3580000000.0 -0.03940807746799798 0.14217396834467946
3600000000.0 0.06570136652327654 0.12908070079400838
3620000000.0 0.06935319274992532 0.1257816481092382
3640000000.0 -0.0178688640317306 -0.1449386718775081
3660000000.0 0.0852455493706194 0.12900249994998558
3680000000.0 -0.11269264101185271 -0.1213494046879834
3700000000.0 -0.05734034513855557 0.173213658183797
3720000000.0 0.09790928346204383 0.17580832841955737
3740000000.0 0.010715557305303436 0.21950746791813414
3760000000.0 -0.04708835277434487 0.23426298130696446
3780000000.0 -0.25076441077861883 0.04855162345008745
3800000000.0 0.1367755496305384 -0.23097775536310322
3820000000.0 -0.06214011625012805 0.26913597302108533
3840000000.0 0.0836395647359372 -0.26612448444564946
3860000000.0 -0.16062239612348228 0.22562875273952995
3880000000.0 0.18444372987410623 -0.1985263741965639
3900000000.0 -0.21147530977771 0.15340845101301148
3920000000.0 0.1655593127790717 -0.17803936311692387
3940000000.0 0.06155628181711254 0.2127497835181613
3960000000.0 -0.1625598043430154 0.1067903112974053
3980000000.0 -0.10835947825029983 0.12855018624305278
4000000000.0 0.06504637155482947 -0.12341513016089095
