!Created with skrf (http://scikit-rf.org).
# Hz S RI R 50.0 
!freq ReS11 ImS11
400000000.0 -0.7136452174503656 0.09427364178591889
406500000.0 -0.3035559992905549 -0.6320441242189881
413000000.0 0.6777535651083193 -0.00038304024543302847
419500000.0 -0.6667620110035188 -0.008425193606945628
426000000.0 0.2516952361707815 0.6073710623922359
432500000.0 -0.4462811151275037 -0.46910141229823427
439000000.0 0.6302100339423283 0.07647718504041606
445500000.0 -0.6239392625191935 0.053476302700195724
452000000.0 0.5464997719958068 -0.2904474208075247
458500000.0 -0.14984956451919412 0.603622161331295
465000000.0 -0.5414720756849112 -0.30637470298761316
471500000.0 -0.2970150701399999 -0.5439926520424168
478000000.0 -0.08813270198759522 -0.6052528832337044
484500000.0 0.245937695874567 -0.5523889252730868
491000000.0 0.064460809732622 -0.5867721858507714
497500000.0 -0.304844251396469 -0.4816627640349031
504000000.0 -0.41269090098203215 0.34731258914236196
510500000.0 0.025070891562962636 0.49998722360471765
517000000.0 0.4199665545942486 0.18363271647695328
523500000.0 0.11816650378974752 0.41218952802344644
530000000.0 -0.13550403326464402 0.36896993237618647
536500000.0 0.2501393719872553 0.259368204939678
543000000.0 0.2961492279404891 0.18238868741584954
549500000.0 0.32134488728856786 0.08336883744224478
556000000.0 0.0026225446588746108 -0.30653688666597045
562500000.0 0.1728870952787708 -0.23267739489041092
569000000.0 -0.14907528580795307 -0.22868614083859487
575500000.0 0.26062055582254573 0.030519919274346944
582000000.0 0.06540774608696859 -0.24989350217170658
588500000.0 0.22847454675674297 0.1364151068905148
595000000.0 -0.05040462111675273 -0.2813113985415749
601500000.0 0.09749224978044865 -0.2758986362200058
608000000.0 0.22537549727397696 -0.18917915718250986
614500000.0 0.036756801883412696 -0.29800228546888574
621000000.0 -0.047873221859573274 -0.29542135990828183
627500000.0 0.292099243324698 0.04983625491197872
634000000.0 -0.062057268839714706 0.29597777946514015
640500000.0 -0.2907278789354617 0.02245475098964572
647000000.0 0.2927355795324366 0.05922585184318852
653500000.0 0.1877446460126956 0.233826957881582
660000000.0 -0.29732355884551526 -0.03778277089480703
666500000.0 0.1388605345698616 -0.2666462255320898
673000000.0 0.10040144294981233 0.27825927743778023
679500000.0 0.2845509897859163 -0.10781943030085642
686000000.0 0.25167394205663196 -0.1580166848832447
692500000.0 -0.2924732717365223 -0.040059883545843895
699000000.0 0.2269432778767815 -0.1802936027643498
705500000.0 -0.2921700201399479 0.0030333930485546834
712000000.0 0.2929480954090357 0.004291461446960277
718500000.0 0.13663158742091835 -0.26535864566487194
725000000.0 -0.055927184528725284 0.3070621300434529
731500000.0 0.10946642848883095 -0.2987376322809128
738000000.0 0.16481659404534532 0.28676328394401174
744500000.0 -0.3280273014185609 -0.011038720173424211
751000000.0 0.21405140814328702 0.2513050123113876
757500000.0 -0.142060641766407 -0.3075707758303577
764000000.0 -0.18478489651644775 0.2950007155325437
770500000.0 -0.21358862376024562 -0.2844550736473174
777000000.0 -0.12577404867035433 0.34066224702369324
783500000.0 -0.0929029500657223 -0.34869357575171134
790000000.0 -0.07908839164385995 0.35810738062302766
796500000.0 -0.0027902166315814138 -0.3700424278048576
803000000.0 -0.33495410645261625 0.13944165972067868
809500000.0 0.29830885384292727 0.2053039329747961
816000000.0 0.16662119112085216 -0.32006358946594965
822500000.0 -0.060753022229040665 -0.36578452008254825
829000000.0 -0.32446734163704705 0.20185108734828375
835500000.0 -0.3936647548330731 0.021422976464403568
842000000.0 0.4049773248571086 0.07426682545070697
848500000.0 -0.23490949612843992 -0.33992345322912365
855000000.0 0.1860517648657257 0.38118229864217795
861500000.0 0.1468403381580207 -0.40077294334829267
868000000.0 -0.2848500573986765 0.3281476730200792
874500000.0 0.38505838499282335 -0.2044522330357642
881000000.0 -0.335936663618343 0.291019052361247
887500000.0 0.17196735856805834 -0.4137330959562399
894000000.0 0.05716680970060733 0.44163999783523417
900500000.0 -0.4348244122008928 0.06056661033119973
907000000.0 -0.16834699131412995 -0.39441485223990747
913500000.0 0.3934148458293966 0.11870851293005505
920000000.0 -0.16601926036680373 0.3636813742079129
926500000.0 -0.3837968702308506 -0.02219440384302083
933000000.0 -0.11488095395614929 -0.35411665311960333
939500000.0 -0.07047432015299446 -0.3543967816536473
946000000.0 -0.14318635468076182 -0.31069025027975844
952500000.0 -0.05291640373053819 -0.3166991444989896
959000000.0 -0.10731358952218246 -0.28154202663923195
965500000.0 -0.07794907581909717 -0.2730861609245141
972000000.0 0.12278562718571974 0.23838140039053435
978500000.0 -0.17687969491646044 0.18585758254369789
985000000.0 -0.20280480231192854 0.12947180571640485
991500000.0 -0.18240962024707832 -0.1373732330637055
998000000.0 0.10654884852340842 -0.1866063089226141
1004500000.0 0.18099539179126617 0.09290713461489085
1011000000.0 -0.18926399867205176 0.03367747470984004
1017500000.0 -0.0010834353105980395 -0.1814388675109778
1024000000.0 0.15932058930020276 -0.045292715672879444
1030500000.0 0.10311745632117832 0.11098012190110763
1037000000.0 -0.03604995838329228 -0.13408132822387514
1043500000.0 -0.06338751736712293 -0.11212000268575952
1050000000.0 0.11550019912325116 -0.04252966629428413
1056500000.0 -0.1082373708063831 -0.04319866692218386
1063000000.0 0.1070300114417145 0.026561864193940094
1069500000.0 0.09406514331118078 -0.04419327657892398
1076000000.0 -0.007488551025579046 -0.1022588757386801
1082500000.0 0.03589321985747198 -0.09289627695404067
1089000000.0 -0.0839452665872026 -0.05556856226754241
1095500000.0 0.07114686663089538 0.07086192352401524
1102000000.0 -0.10501115373453421 -0.01782263904945352
1108500000.0 0.0894986452608924 -0.06659280795267121
1115000000.0 -0.05737607573639855 -0.10566146800990318
1121500000.0 -0.05129547423501373 0.12578760753040746
1128000000.0 0.03670512993183069 -0.14621086376317802
1134500000.0 -0.05235847169270003 0.15713555339122684
1141000000.0 -0.09003929041145757 -0.1607501521678378
1147500000.0 0.11706094043620668 -0.16424962021105255
1154000000.0 0.20183144825322805 0.06327881779472737
1160500000.0 0.01745952262657808 0.21895142279036414
1167000000.0 -0.22374601945685374 -0.03176866528640734
1173500000.0 0.2259942162189114 0.0013846550140280988
1180000000.0 -0.22529905002933187 -0.03787395640768641
1186500000.0 0.12498192682993697 0.1907959473943652
1193000000.0 0.18262227312977042 -0.14846677661247965
1199500000.0 -0.24196148066119416 -0.01205091657989777
1206000000.0 -0.21648670656815022 0.1289960749880024
1212500000.0 0.2617093032820496 -0.05123737260224007
1219000000.0 -0.27003881496541127 0.08138683497199432
1225500000.0 0.28701378644646963 -0.037197823709872006
1232000000.0 -0.1975587656429677 -0.22626074163256876
1238500000.0 -0.24261382276525276 0.19242606374873197
1245000000.0 0.2026973296649369 0.24256405308488382
1251500000.0 0.24718352664093668 -0.21082040897231333
1258000000.0 -0.2092938944429896 -0.2553639134053459
1264500000.0 -0.32361190561648956 -0.08588291822556678
1271000000.0 -0.14442644559679307 0.3105313551406667
1277500000.0 0.16166244257580634 0.3067487319002171
1284000000.0 0.3517887295958517 -0.0032110730357240375
1290500000.0 0.1848984777913695 -0.30070507369014027
1297000000.0 -0.16769355718744924 -0.31701590656843
1303500000.0 -0.35570330872429706 0.03562174204052507
1310000000.0 -0.11014946785989385 0.33993613305780607
1316500000.0 0.35895501729493184 0.0005526871626266594
1323000000.0 -0.012101229700852714 -0.35706201844432456
1329500000.0 -0.052094737221120756 0.3504095243985022
1336000000.0 0.33393597509231865 -0.09191817487659949
1342500000.0 -0.33214868658671 -0.07950331320504213
1349000000.0 0.18244013483841848 0.2791980549210704
1355500000.0 0.3196047071876658 -0.08029562340853508
1362000000.0 -0.22974021481655557 -0.2298507079045481
1368500000.0 -0.32447662439288105 0.013957421172906024
1375000000.0 0.06806803755195133 0.3256695926569887
1381500000.0 0.24772634143227898 -0.2278117555369057
1388000000.0 -0.333333858255949 -0.09072107301552947
1394500000.0 0.12381325823457974 0.3306461465433524
1401000000.0 0.11742274592138206 0.3405310634862963
1407500000.0 0.32394648315262115 -0.16970089313673326
1414000000.0 -0.14410868891467737 -0.3442646258847462
1420500000.0 -0.2756283022537302 0.2593716097859407
1427000000.0 -0.15016872726213606 0.34777406584993414
1433500000.0 0.02164040941555494 0.3827889806195275
1440000000.0 0.12675571737532546 0.35867443273826566
1446500000.0 0.07447539293219203 0.3776242263175464
1453000000.0 0.19355180002328373 0.3318951054407058
1459500000.0 0.23929475580656584 0.29926615986952987
1466000000.0 0.37913541306643217 -0.04169316454323816
1472500000.0 0.32856029330986813 -0.18220045385514652
1479000000.0 0.02963564827614887 -0.366494118566439
1485500000.0 -0.2538468366364902 -0.2541501967437692
1492000000.0 -0.32055328666801214 0.13523029138972315
1498500000.0 0.14242311769126975 0.3026877045768625
1505000000.0 0.31936337040872304 0.04586841766603297
1511500000.0 0.0962340191089389 -0.2950971541929519
1518000000.0 -0.22217186782440684 -0.19999394772789106
1524500000.0 0.23681331945326603 0.16746634752263934
1531000000.0 0.1625361625594863 -0.22494090666629152
1537500000.0 -0.23706118695819492 0.13796430051828162
1544000000.0 0.2604285262690077 -0.04880366044571087
1550500000.0 -0.17985720721849707 0.1961657389145467
1557000000.0 0.08578521879787894 -0.24303260513066247
1563500000.0 -0.2444202191099661 0.07224706689831494
1570000000.0 -0.25294547517479765 0.020385557304962058
1576500000.0 0.017087560697433467 0.255499338812717
1583000000.0 0.24093969162397816 0.10030740560986269
1589500000.0 0.152755011626546 -0.21477114037617412
1596000000.0 -0.20555900291272447 -0.16223899022343108
1602500000.0 -0.2557782909934247 0.051546497676598205
1609000000.0 -0.23563401245101112 0.10035980309815944
1615500000.0 -0.1874064227333026 0.16233145443975014
1622000000.0 -0.03834923258514391 -0.23873391882464515
1628500000.0 0.09879543795910965 -0.2153768043409996
1635000000.0 0.2246454648918226 0.05239545892495853
1641500000.0 0.04574914436472552 0.21906884775147004
1648000000.0 -0.21899797607677415 0.00593204176921721
1654500000.0 -0.014353604006001676 -0.21233274055592033
1661000000.0 -0.11444936155593277 -0.17539808146921607
1667500000.0 -0.1950022379419764 0.050516919647359874
1674000000.0 0.12293600165747211 0.14459694541837512
1680500000.0 0.15769919120690434 -0.06886680713068548
1687000000.0 -0.07703396834640903 -0.13913688308635108
1693500000.0 -0.06305677818825138 0.1274477060343244
1700000000.0 0.08434284808137271 -0.10362244889584636
1706500000.0 -0.07802114398186467 0.09214880383610265
1713000000.0 0.0030621961901248717 -0.11372708930616433
1719500000.0 -0.08157353096444933 0.07422737146624275
1726000000.0 -0.07405336274680374 -0.07965257967349393
1732500000.0 0.028590260835652536 -0.10258744579008885
1739000000.0 0.06131443351738966 0.09001193974285482
1745500000.0 -0.09966582174266167 0.03776178305498694
1752000000.0 0.042691115889029844 -0.09970535716816059
1758500000.0 -0.06750378641430752 0.08299473678861961
1765000000.0 0.09243604842816569 0.053726198335579047
1771500000.0 0.07741738472527629 0.06899893161216185
1778000000.0 0.03862916907125484 0.0940186302805442
1784500000.0 -0.04433329101705631 0.09145983748214627
1791000000.0 -0.0055697980663780315 -0.09989310093875244
1797500000.0 -0.09146065524363271 0.03763588888931325
1804000000.0 -0.06847064644736454 -0.07255511522719453
1810500000.0 0.0967625260176957 0.024235894191759127
1817000000.0 0.07379752477921367 0.061913563310178735
1823500000.0 0.06382120411926007 -0.06475884700627348
1830000000.0 0.010733332680503298 -0.0804382693636732
1836500000.0 0.017134476479853215 -0.06987794925116456
1843000000.0 0.037403328003695994 0.04198428823300565
1849500000.0 -0.04351453681895767 0.003978918705249167
1856000000.0 0.03071106909149914 -0.0080634882240984
1862500000.0 -0.015884257739562035 0.015254218406510821
1869000000.0 -0.006773994593064441 -0.01844393677713035
1875500000.0 -0.015940025258161742 -0.010037090650638994
1882000000.0 -0.000278022136810893 0.01418529723735535
1888500000.0 -0.010279467607714435 -0.010281101059656086
1895000000.0 -0.005882421916173772 0.017030837632523898
1901500000.0 0.019064093752507193 0.009180839131156766
1908000000.0 0.015827165030078253 0.015264827076713897
1914500000.0 -0.0012689989874221043 0.024430836276565487
1921000000.0 -0.025596524046174553 -0.000888156402399843
1927500000.0 -0.0014757883941189042 0.02351125133002888
1934000000.0 0.0038131273662897493 -0.022454002668066405
1940500000.0 0.01710256523070945 -0.009040382787924822
1947000000.0 0.019873976066227865 -0.0038489566018630305
1953500000.0 -0.011425867359293167 -0.021032706220946315
1960000000.0 0.013030976905433303 -0.019131385316019107
1966500000.0 -0.023814068817678127 0.02312559192060874
1973000000.0 -0.03712315956039794 -0.016797377827320097
1979500000.0 -0.007920021227365258 -0.051224249191811594
1986000000.0 -0.011029937265156824 -0.06487383518009844
1992500000.0 -0.07699258165435025 -0.006094645501347076
1999000000.0 -0.08703650342190762 -0.016847116141759856
2005500000.0 -0.09899018438004976 0.01226413848371115
2012000000.0 -0.08301684592956216 -0.07251678484130457
2018500000.0 0.0258946823813346 -0.1152486466968906
2025000000.0 0.11896840888049315 -0.0492001599510222
2031500000.0 0.11725524683446786 0.0597758729571296
2038000000.0 0.04996629185629463 0.12602064120440357
2044500000.0 -0.13604825781029756 0.02498599370989772
2051000000.0 -0.1221883949307782 -0.07280942913235956
2057500000.0 -0.13528586743272952 -0.03595508362009601
2064000000.0 -0.13794733848913363 -0.025187754174287112
2070500000.0 -0.12851985915712552 0.04259794757671234
2077000000.0 0.10793175975059728 0.07115588889976138
2083500000.0 0.0861889961007745 -0.08645471617134536
2090000000.0 -0.10870722488402916 0.04196385742367516
2096500000.0 0.07411914909694707 0.08069817843372792
2103000000.0 -0.09193342833982562 0.05329906435452844
2109500000.0 -0.031993687794881265 -0.10014457560193842
2116000000.0 -0.10539937032182395 0.024456122775541617
2122500000.0 0.026822633891042558 0.10837824094253919
2129000000.0 0.11416925389566948 0.04542060519269535
2135500000.0 0.08698166816978616 -0.09659130478708085
2142000000.0 -0.006552962915536736 0.14142968769451622
2148500000.0 -0.1426196816734778 -0.05533914982904269
2155000000.0 0.12718284532082377 0.10848576659120084
2161500000.0 -0.10638038243150724 -0.1440816884579538
2168000000.0 -0.14222301569847937 0.13305520156409933
2174500000.0 -0.09775489450450046 0.18210163631444057
2181000000.0 -0.05440992922853751 0.21200843935714386
2187500000.0 0.02836568592004633 0.22965758926498597
2194000000.0 0.03407301246749869 0.24062791886878135
2200500000.0 0.040944355423989054 0.24980284974798236
2207000000.0 0.2539962583644785 0.04681809304119041
2213500000.0 0.23915902330108846 0.10172872279201435
2220000000.0 0.25947063674546333 0.00561026831549678
2226500000.0 0.2074469883929203 0.1443333729780744
2233000000.0 0.1935946587338602 0.15473470575261525
2239500000.0 -0.14430665700044304 0.19377685846000303
2246000000.0 -0.18180349384348513 0.14750801847510875
2252500000.0 -0.22475321015963573 0.013055259510060396
2259000000.0 -0.21933077487838928 -0.016469715475931606
2265500000.0 -0.19649369648750567 0.08473097547912932
2272000000.0 -0.08521365362893889 0.1888991227871626
2278500000.0 0.13954645840647167 -0.14523111419088616
2285000000.0 -0.11752359834053759 0.1525510311773924
2291500000.0 0.0181256832707769 -0.18227202181994256
2298000000.0 0.026377478200252217 0.17037468570193534
2304500000.0 -0.11262556236280283 -0.12438038882584772
2311000000.0 -0.1540342406483359 0.01784199180485312
2317500000.0 -0.005651246286823069 0.15480975922614318
2324000000.0 -0.046845950134150806 -0.14368408535740707
2330500000.0 -0.1486415803016374 0.030578924652706476
2337000000.0 0.11881534714285492 0.09399845963284914
2343500000.0 0.038766388613383315 -0.14982772014003448
2350000000.0 -0.15518937156921714 -0.00639142536732823
2356500000.0 -0.15008571086478356 0.05218843015782292
2363000000.0 -0.01991126762367746 0.15998949844141788
2369500000.0 0.14852613105972087 0.06561072795083416
2376000000.0 0.16033698786071623 -0.026729386456559617
2382500000.0 0.14242860323224638 -0.07382595992750605
2389000000.0 0.1436427532012023 0.06940980589984508
2395500000.0 0.020445941967535235 0.15771524599564254
2402000000.0 -0.15374450352463848 0.0386051385904559
2408500000.0 -0.1563520491185657 0.032779474812577404
2415000000.0 -0.12918077687677595 0.0933859172141739
2421500000.0 -0.1471403580344367 0.05659176056414451
2428000000.0 -0.05210994023042025 0.14675514768440673
2434500000.0 0.03884807582966736 0.14738097898384622
2441000000.0 0.024770224537345797 0.14950674701635486
2447500000.0 0.13455749623372865 0.06380485751641024
2454000000.0 0.1433434790111603 -0.037675188805208426
2460500000.0 0.137662274630316 -0.05354900186871908
2467000000.0 0.14618127774914974 -0.018774920584838567
2473500000.0 0.13261504100358903 -0.06559922366873827
2480000000.0 0.14873185763175364 0.017581912145016476
2486500000.0 0.15139574424906646 -0.0344291913495483
2493000000.0 0.03681574267852023 0.15040583927504025
2499500000.0 0.07059301387910577 0.14029275856282128
2506000000.0 0.08497829572760131 0.13482266075908367
2512500000.0 -0.09921132754000263 -0.12474641256645885
2519000000.0 0.1558067363180064 -0.0433232922369288
2525500000.0 -0.12791267671734344 0.10320002829534847
2532000000.0 0.04959121463156399 -0.16070650072804502
2538500000.0 -0.04262547492386192 0.16270209815430559
2545000000.0 -0.11198520307455295 -0.12790810086627347
2551500000.0 0.10302432254060337 0.13406449081585883
2558000000.0 0.06497581368570757 -0.15618137168785026
2564500000.0 -0.033920850227023944 0.16324232257108637
2571000000.0 0.14584526167059292 -0.07736116743503564
2577500000.0 -0.15266353099614874 -0.044388412304557506
2584000000.0 -0.15722470818948855 -0.005292439101177357
2590500000.0 -0.005061072110673493 0.1533430445397834
2597000000.0 0.15207167195662843 0.013624753096069284
2603500000.0 0.009715650821605054 -0.14958370547172084
2610000000.0 -0.013459750084140848 0.1486428838087202
2616500000.0 0.011842406496898703 -0.14308077098324617
2623000000.0 0.053262808531642766 0.12863656942695256
2629500000.0 -0.09739735746303012 -0.08615587469644133
2636000000.0 0.12126268791247875 -0.016478152335618293
2642500000.0 -0.10737714313247355 0.03485614432762903
2649000000.0 -0.08900841310308767 -0.05749365123113553
2655500000.0 0.09139263617495501 0.02930918043142271
2662000000.0 0.0691468042029681 -0.058873289511651855
2668500000.0 0.03856618427860269 -0.07691316759276294
2675000000.0 -0.02199455745470006 0.08070645202549732
2681500000.0 -0.027484047205649644 0.07742604880440054
2688000000.0 -8.381600008600038e-05 0.08346881757791179
2694500000.0 0.08248685646226322 0.02450913231896765
2701000000.0 -0.03303621064924115 0.08204415683281623
2707500000.0 -0.09294705274614168 -0.028849257382425438
2714000000.0 0.0933867955194787 -0.05048909857600697
2720500000.0 0.001959536192343417 -0.11750057981079427
2727000000.0 -0.12884964991289696 -0.0007679198675627809
2733500000.0 -0.030139364151745184 -0.1387241417562205
2740000000.0 -0.10274841893183327 -0.11761230982043797
2746500000.0 0.07921570953607286 -0.14794255429271932
2753000000.0 0.18209608647049996 0.012127516683932516
2759500000.0 0.14232096692062968 0.12991434452445214
2766000000.0 -0.1727212425760035 0.1056722137571423
2772500000.0 -0.08658426515219769 -0.19246889631376365
2779000000.0 0.09257807191911341 0.19796827320683463
2785500000.0 -0.18754913814870197 -0.12438264364455955
2792000000.0 0.21301625524363996 0.09223843261633798
2798500000.0 -0.21172763505309422 0.11269476694284866
2805000000.0 0.1916601670211502 -0.1533206587945545
