!Created with skrf (http://scikit-rf.org).
# Hz S RI R 50.0 
!freq ReS11 ImS11
400000000.0 0.2339066313160193 0.8516371664086981
420000000.0 0.5027299926877774 0.6910372027080958
440000000.0 0.7686862597273306 -0.28008255635489254
460000000.0 0.7894918102633812 0.005747618082981419
480000000.0 -0.034739264179542526 0.7198620306912321
500000000.0 -0.6233281434781283 0.03389530272304016
520000000.0 -0.48354055065215273 -0.14272936170624198
540000000.0 -0.1776556743355976 -0.4042485901471189
560000000.0 -0.3337506888326248 0.18596665650718938
580000000.0 -0.1660431621087195 0.3274829534002788
600000000.0 -0.19575515063392507 0.3085732624010168
620000000.0 -0.3381313518747062 -0.08324352401970078
640000000.0 0.046226119390882156 0.3931328477016946
660000000.0 -0.13424045702303505 0.38702202162579624
680000000.0 0.018594094155444746 0.4095476189458608
700000000.0 0.352790611599816 -0.21765778764839747
720000000.0 0.2110256408359165 -0.39419905006996087
740000000.0 -0.4185564072315291 0.1347001278007626
760000000.0 0.32281428756708846 -0.20679230388159014
780000000.0 -0.320492677606264 0.15681031587289787
800000000.0 0.05168450023309384 0.2911241015749563
820000000.0 0.07937851025677249 -0.2311056669650695
840000000.0 -0.23035919441492395 -0.01826402186919115
860000000.0 -0.00984158937512953 0.20592170829953918
880000000.0 0.13174749344505773 0.09507762229397027
900000000.0 0.027497624749915038 0.11902585706782413
920000000.0 -0.03773257253847651 0.07185668940097885
940000000.0 0.015423150929476569 -0.04170736266606963
960000000.0 0.002353594859600384 -0.043150015455524084
980000000.0 0.038907886667128494 0.05359256711217258
1000000000.0 -0.053358720073576886 -0.06561397595808215
1020000000.0 -0.004687388476646983 -0.09768481663019639
1040000000.0 0.06652376285914022 0.1140030160999183
1060000000.0 0.1021171575753656 0.12037231779528758
1080000000.0 -0.16800224778778314 0.0817636637716208
1100000000.0 0.015136067061449229 -0.20508997552082509
1120000000.0 -0.08697895624409757 0.20950239592400838
1140000000.0 0.2596736509519265 0.050910378345963875
1160000000.0 0.08766489036908592 -0.28004677929468774
1180000000.0 -0.09051947812964817 -0.30396091649478957
1200000000.0 0.23710269481093893 0.2494026775489261
1220000000.0 -0.3168035291843081 -0.1919590830207297
1240000000.0 0.3547936677298128 0.17128955974618257
1260000000.0 -0.34526184141427935 -0.2167981506681782
1280000000.0 -0.2558521717110477 0.331735743859181
1300000000.0 -0.13778732862820076 0.4043989518719016
1320000000.0 0.23611885183196302 0.3660901834585504
1340000000.0 0.3669277114084407 -0.2515979226058995
1360000000.0 0.1200896967688038 -0.4269397813375716
1380000000.0 -0.3706780069753531 -0.21298923398759165
1400000000.0 -0.3040735538222059 0.2763714091398676
1420000000.0 -0.34271756771460443 0.19833019909245672
1440000000.0 0.12118897803075364 0.36144726546671635
1460000000.0 0.25753416846236726 -0.2535914678972812
1480000000.0 -0.1661279024331087 0.28344408957271416
1500000000.0 0.2941572696228174 -0.0056427024582472625
1520000000.0 0.16291996954443677 -0.20800397756035038
1540000000.0 -0.18843386449152758 0.12922297516300837
1560000000.0 -0.10336409439777051 -0.17291591365019826
1580000000.0 0.15910822808757927 -0.04995595747365205
1600000000.0 -0.02524215653544111 -0.12921690253125287
1620000000.0 0.008868592499162418 -0.10090634877204054
1640000000.0 0.08732336257423952 -0.005073428563850269
1660000000.0 0.005608440080840507 -0.06216090057218202
1680000000.0 0.02527641530596654 0.03767917561598104
1700000000.0 -0.019573091996321554 -0.006841313600448752
1720000000.0 -0.008415770681825826 -0.005654897186634884
1740000000.0 0.002992716486198891 -0.018076540524139817
1760000000.0 0.02080001976056526 0.030116032548295806
1780000000.0 -0.051055015604077734 0.03450044496288174
1800000000.0 -0.09753637221818443 0.016756046839379785
1820000000.0 -0.08535985900899096 0.09538371619841635
1840000000.0 0.15705857919015728 0.020655836746821806
1860000000.0 -0.10521450128931774 -0.16934263136726466
1880000000.0 0.14424176321534152 -0.18448261223003332
1900000000.0 -0.27014312012242575 -0.023886801638976662
1920000000.0 0.3113368902560351 -0.018359948651140174
1940000000.0 -0.34281518199673283 -0.062261368471255435
1960000000.0 0.3705772332530817 0.05448707270602041
1980000000.0 -0.22871309519026223 -0.3270976736285911
2000000000.0 -0.17850079313494374 0.37011405554066745
2020000000.0 -0.05247027829880459 0.4226879291720678
2040000000.0 0.41160010975523814 0.1556422674172614
2060000000.0 0.0779581953549799 -0.4379802737868813
2080000000.0 -0.3610900991252375 -0.2511480495310636
2100000000.0 -0.4297135158542885 -0.07009271537560341
2120000000.0 -0.40940992164150636 0.10927795553878715
2140000000.0 -0.3938219222978346 -0.13917547319455104
2160000000.0 -0.2891216011962072 -0.2706809846699361
2180000000.0 -0.3038402392411861 -0.23920910830116907
2200000000.0 -0.30019276848392623 0.21726619247374934
2220000000.0 -0.3337899526511585 0.14116895368447066
2240000000.0 -0.13611013836254807 0.3298613219088084
2260000000.0 0.18912231791505754 0.3011359109562441
2280000000.0 0.28030196396898 0.2248235945947134
2300000000.0 0.3465135819473661 -0.12666369847540934
2320000000.0 -0.02573888450346133 -0.3895003290421033
2340000000.0 -0.4148836218338164 -0.0294399475531641
2360000000.0 0.3698045432570315 0.2732733221382117
2380000000.0 -0.48490734959686554 -0.1243918401227427
2400000000.0 0.5143145018820096 0.18524813796642975
2420000000.0 -0.583407568704124 0.12788793590986064
2440000000.0 0.27709243217982327 -0.5806587472577497
2460000000.0 0.30530882432070616 0.606379631711246
2480000000.0 -0.5817828411267368 -0.4007783098641206
2500000000.0 0.5569935821036361 0.465589225084675
2520000000.0 -0.42511453899931156 -0.6020176087777962
2540000000.0 0.04647699545181881 0.7384183520975782
2560000000.0 0.5111334397791232 -0.5307775624862907
2580000000.0 -0.695928871745805 -0.20295842237496223
2600000000.0 0.16843641364501896 0.6831867631512661
2620000000.0 0.514678370396205 -0.4408434933892752
2640000000.0 0.3171284883027897 -0.5628470516512842
2660000000.0 -0.6079289681392923 -0.0018432555355800914
2680000000.0 0.28075232134159384 0.49065348977028983
2700000000.0 0.1578734848808888 -0.498260684728023
2720000000.0 -0.4345472980866461 0.19646623338380756
2740000000.0 0.38640611401188685 0.195733618651295
2760000000.0 -0.17035104064340198 -0.3543824682080894
2780000000.0 0.0469290866490734 0.358302303976123
2800000000.0 0.22967728068806154 -0.24413776434261963
2820000000.0 0.020112070644215743 0.317056627400462
2840000000.0 -0.12929644391605688 -0.27384880487190993
2860000000.0 0.28826599010175546 0.07710216797339735
2880000000.0 0.024233692528211913 0.2949817417578982
2900000000.0 -0.2577180492604664 -0.13470283754451107
2920000000.0 0.1946596020042726 0.21111725491335023
2940000000.0 0.28857132512686356 0.019123931205878013
2960000000.0 0.2495461081485688 -0.1635849019483853
2980000000.0 0.07289625020138416 -0.2971456466298926
3000000000.0 -0.30344480807029717 -0.0751388518630033
3020000000.0 -0.17795737858675037 -0.255363585511562
3040000000.0 0.12154359383135116 -0.2874431084549177
3060000000.0 0.276950923417453 0.12883840592199655
3080000000.0 -0.2964474031550955 -0.05455336051484843
3100000000.0 0.28265999788374285 -0.07733075605644374
3120000000.0 -0.2892409411986198 0.01390247243194197
3140000000.0 0.0365474780091832 -0.2837265404359566
3160000000.0 -0.21543972610837717 0.16831468546720557
3180000000.0 -0.20463537749280472 -0.1587952305858155
3200000000.0 -0.02090615126577024 -0.2318054948651893
3220000000.0 0.17281395054199652 0.1101391762700962
3240000000.0 -0.1298889111319012 0.11778581534006345
3260000000.0 -0.05544670114520388 0.13341988795626814
3280000000.0 -0.07310578802439409 -0.09280287659759641
3300000000.0 -0.01022860929073856 -0.09273734246262122
3320000000.0 0.0002466061139780966 0.07063489002916955
3340000000.0 0.03734370300323902 -0.031356498207117604
3360000000.0 -0.018429034079726347 0.020109678631975984
3380000000.0 0.005113265144417095 0.0086596125701402
3400000000.0 -0.005613886493289858 0.010043862935622557
3420000000.0 -0.01822437704298015 -0.0019098503878629235
3440000000.0 0.014352796142890674 -0.013334365071977102
3460000000.0 0.011693265546540004 -0.03583796108613105
3480000000.0 0.04215558918802593 0.013074272137396238
3500000000.0 -0.07299431672872563 -0.01669036449812121
3520000000.0 -0.08162227766268491 -0.027187396344123066
3540000000.0 -0.061650743221084686 0.07459107031461101
3560000000.0 0.00040904832756268327 0.10163646680780579
3580000000.0 0.0541237188131473 -0.10125151887094726
3600000000.0 -0.11186495210363571 0.06570448744576475
3620000000.0 -0.02969460209230412 0.1454169656685104
3640000000.0 -0.1481074981404556 0.049431543460625914
3660000000.0 -0.09226961663555466 0.14118423335538713
3680000000.0 0.032067069950782935 0.16818827070909964
3700000000.0 -0.0160997184045332 0.16740713464142404
3720000000.0 -0.14904216595502617 -0.08045789068789984
3740000000.0 -0.001081292039601671 -0.16857186966900414
3760000000.0 0.16178655740425776 0.02714179181974296
3780000000.0 -0.15621423023324454 0.03172825375525829
3800000000.0 -0.02718849359153434 -0.15320729490232815
3820000000.0 -0.13728055985448723 0.005565392808387584
3840000000.0 -0.014990114293253918 -0.1290590144616623
3860000000.0 0.08334956840451953 0.09629203394715655
3880000000.0 -0.11390170392312962 0.06427642638833699
3900000000.0 -0.09921185235571595 -0.10348922020700956
3920000000.0 0.1351278451945183 -0.06795250939981824
3940000000.0 0.14245124727144987 0.07125464365143691
3960000000.0 0.15392540932186347 0.03881580168332172
3980000000.0 -0.15896945711274407 0.018233918512155767
4000000000.0 -0.09817341477863432 0.12377220970915216
