!Created with skrf (http://scikit-rf.org).
# Hz S RI R 50.0 
!freq ReS11 ImS11
400000000.0 0.1850387904950378 0.8649508795852886
420000000.0 0.5750249141097525 0.632634659115793
440000000.0 0.7660212511218316 -0.2840490942906893
460000000.0 0.7701544664297841 0.16867000120412223
480000000.0 0.0773091774507547 0.7211318924013841
500000000.0 -0.5885848368440274 0.2108207993716379
520000000.0 -0.5022335500667866 -0.007940292258041187
540000000.0 -0.12539637079509766 -0.4172301342708208
560000000.0 -0.24467830172252353 -0.2919774018906236
580000000.0 -0.37086190612285347 0.07029139542383096
600000000.0 -0.029284766780270935 0.3666831257518871
620000000.0 -0.28091050322685657 0.21409712514237478
640000000.0 0.3894484605279667 0.012035773204520093
660000000.0 -0.35164355014080745 0.19084768568912638
680000000.0 -0.36801856953278417 0.19273703395826863
700000000.0 0.10034020343008536 -0.4054621714476525
720000000.0 0.19081920764113794 -0.407890141222792
740000000.0 -0.3325539352125625 0.28390771984163393
760000000.0 0.36513373192507126 -0.12312855901940073
780000000.0 -0.16471125128662478 0.31604893146908275
800000000.0 0.1346217160058533 0.25112041999883394
820000000.0 0.21854213840344874 0.11252342588466066
840000000.0 -0.22447441783610525 0.06441889498730187
860000000.0 0.11663679699909343 0.17906785874263856
880000000.0 0.030863396673466277 -0.15572413194023915
900000000.0 0.11557150165441878 0.025615741265026082
920000000.0 -0.07423704324789722 -0.02955939913182959
940000000.0 0.016561649031281208 0.03732625740311923
960000000.0 -0.041357881819461075 0.010300860386581213
980000000.0 -0.011990752221671785 -0.062314696125397
1000000000.0 0.05543909738387364 0.065665041265745
1020000000.0 -0.0025783069038233237 0.10233839344303565
1040000000.0 0.1283356752068033 -0.016064683194066714
1060000000.0 0.12359004891150391 0.09052959683952973
1080000000.0 0.044618689533104695 -0.17962190027428065
1100000000.0 0.18597092808719992 -0.10247257510741192
1120000000.0 0.2278689032579246 -0.045380223715691566
1140000000.0 0.22927981332586203 -0.11684937520809059
1160000000.0 0.21483079008069667 -0.19500515170373942
1180000000.0 0.012384012966529917 -0.3196583103851715
1200000000.0 0.26066372340237864 0.2216871203870299
1220000000.0 -0.17812655821400805 -0.3310087942269959
1240000000.0 0.37875657573293803 -0.11595373946162761
1260000000.0 -0.35700570118891173 -0.18081174044611723
1280000000.0 -0.3587941451314384 0.21987698546188825
1300000000.0 -0.19920818250919667 0.37741240184976815
1320000000.0 0.11740968996928519 0.4196382634171984
1340000000.0 0.3374541741594747 -0.29470631782915285
1360000000.0 -0.051836027965404 -0.4364428336910521
1380000000.0 -0.17356594197412015 -0.3919687595904049
1400000000.0 -0.1733573346126859 0.37531512130036887
1420000000.0 -0.2589187490600773 0.2950681867107649
1440000000.0 -0.032063189567349194 0.3796499001493592
1460000000.0 0.24775672054013756 -0.26394416520798686
1480000000.0 -0.3142717891226929 0.10651123083031963
1500000000.0 0.11203292358147057 -0.2756243565541867
1520000000.0 0.12875728538595904 -0.22422689938454216
1540000000.0 -0.22657728528217913 0.004671924075275453
1560000000.0 -0.02981641243181844 -0.20001802423563209
1580000000.0 0.1604997226328025 -0.05055290491301597
1600000000.0 -0.07291732615479181 -0.1132538158462812
1620000000.0 -0.09353084535497883 0.0374702545243736
1640000000.0 0.08414064731957054 -0.017765710400537312
1660000000.0 0.061826493948785324 0.0028024733502012753
1680000000.0 -0.002549781241439908 0.04663708910957345
1700000000.0 -0.011888644166407543 0.015985466572648405
1720000000.0 -0.005966242920979567 -0.009929512666555316
1740000000.0 -0.014692061538759106 0.006324459636223027
1760000000.0 -0.03164112582122568 -0.022300741348747658
1780000000.0 -0.023018853645263907 0.059293109819045266
1800000000.0 -0.09198475071946854 0.03744821251590563
1820000000.0 -0.041358522518657584 0.12017336103977405
1840000000.0 0.15604139770684736 -0.015403878258130409
1860000000.0 -0.08379981170800178 -0.18184371079000827
1880000000.0 0.08551731541920972 -0.21796112756510494
1900000000.0 -0.2588677849634631 -0.08460756591695162
1920000000.0 0.31223644586819976 -0.010846931913347636
1940000000.0 -0.3471848483410668 0.029308122439299145
1960000000.0 0.349727593287383 0.1301705461817217
1980000000.0 -0.21854295377143176 -0.33371314637412836
2000000000.0 -0.1772153036717979 0.37262992488179747
2020000000.0 -0.02164237388162087 0.4258003649731637
2040000000.0 0.39876213929106413 0.18545975600433137
2060000000.0 0.056762306133980416 -0.44037641006207173
2080000000.0 -0.2895343490530817 -0.3311977672303224
2100000000.0 -0.43566714797777245 -0.0006746657091633408
2120000000.0 -0.39754761214201817 0.14508734044283325
2140000000.0 -0.35136908351692087 -0.22427562006909563
2160000000.0 -0.34696632657174387 -0.1909221422554651
2180000000.0 -0.32217883140680376 -0.2114439976866293
2200000000.0 -0.33473810219104433 0.1607299146084008
2220000000.0 -0.30852508596485506 0.19183420576776203
2240000000.0 -0.11785002885314995 0.3360235202224997
2260000000.0 0.13795608199799397 0.3280331569524508
2280000000.0 0.2991687075737193 0.19701678569269912
2300000000.0 0.36851027250962154 -0.02835920648438308
2320000000.0 -0.09035863696228132 -0.3805707117408617
2340000000.0 -0.4147309597879258 -0.021253663253933904
2360000000.0 0.3614733271584954 0.2849660418278665
2380000000.0 -0.4600422610500907 -0.19720824341960533
2400000000.0 0.5117617583180983 0.19450809583156659
2420000000.0 -0.5678184181726703 0.18481025281658148
2440000000.0 0.29614671733404174 -0.570078436935829
2460000000.0 0.2884028656270616 0.6143750401713746
2480000000.0 -0.5860938691666139 -0.39435551916538875
2500000000.0 0.5173281938926158 0.5099841846724452
2520000000.0 -0.36733047037428457 -0.6389340562091814
2540000000.0 0.06510992393805717 0.7370278071506862
2560000000.0 0.4979713913508524 -0.5427751301782905
2580000000.0 -0.6993627908282358 -0.19071537416640505
2600000000.0 0.18673565183126575 0.6787346532354551
2620000000.0 0.5169565064509475 -0.4384978721677512
2640000000.0 0.31273967856521884 -0.5657387643053214
2660000000.0 -0.6081840483891529 -0.0035002508821057525
2680000000.0 0.276502603204812 0.4936283938272388
2700000000.0 0.18932802782738334 -0.4872351282913315
2720000000.0 -0.4481118772170052 0.1635787626766369
2740000000.0 0.39209365536808244 0.18492250154587447
2760000000.0 -0.1818807321339232 -0.3491314077758138
2780000000.0 0.056038029881682626 0.3563306941232576
2800000000.0 0.2777843983242185 -0.18429824631835834
2820000000.0 -0.12498504930676392 0.2941700248036842
2840000000.0 -0.23259643473168792 -0.19600696661836975
2860000000.0 0.2820015993047062 -0.09139587856417988
2880000000.0 -0.04130910995026468 0.29098320289305935
2900000000.0 -0.21382053722573724 -0.19509224547239246
2920000000.0 0.15613840936961965 0.24230591404014157
2940000000.0 0.2892895161957398 -0.031184218171488528
2960000000.0 0.14468749107132267 -0.26092185439907584
2980000000.0 0.08248576580144176 -0.29302867074806455
3000000000.0 -0.269777711779193 -0.1614413048126582
3020000000.0 -0.23782835557875523 -0.2009935296655063
3040000000.0 0.22619012918324996 -0.21508721954093216
3060000000.0 0.2747197352673306 0.13455268255261912
3080000000.0 -0.293443194262226 -0.070645024095329
3100000000.0 0.239083019740311 -0.17231173988724086
3120000000.0 -0.28227446976692244 0.06283753718951157
3140000000.0 0.09688271891915327 -0.2691927182645196
3160000000.0 -0.22460413568945894 0.15373723057091662
3180000000.0 -0.1568378530135726 -0.20730372344615297
3200000000.0 -0.06764142314742512 -0.22403327834508124
3220000000.0 0.19983458998895393 0.03749544995913143
3240000000.0 -0.17154715133681164 -0.03738232827946372
3260000000.0 0.1118052169603099 0.09393711454436171
3280000000.0 -0.03938321008814991 -0.10806912347239252
3300000000.0 0.08917483771676266 0.0314715670521042
3320000000.0 0.030385133458367266 0.0672879604167525
3340000000.0 -0.015273720839647264 0.046453022361727325
3360000000.0 -0.02184064133935855 -0.01120017760372605
3380000000.0 0.00946911487278245 -0.0006649320579048518
3400000000.0 -0.0034918581562623247 0.009554911424015152
3420000000.0 -0.017366935922474392 0.0024417564177059477
3440000000.0 -0.019777638799192334 0.004097315111566842
3460000000.0 -0.008586586436628567 -0.03638374777845597
3480000000.0 0.037475486160501906 0.021865718327283925
3500000000.0 -0.040075590027195046 -0.06329361570344455
3520000000.0 -0.08285042369985716 -0.02286401957183228
3540000000.0 -0.047924953190799965 0.08409696533529921
3560000000.0 -0.031734402148086586 0.09519695876214739
3580000000.0 0.03180355086415492 -0.11108724337237817
3600000000.0 -0.09902916713680789 0.08226856995239615
3620000000.0 -0.07990714523026972 0.12488551670905973
3640000000.0 -0.08739713527521584 0.13246112053598003
3660000000.0 -0.06537759026364898 0.15206800072250018
3680000000.0 -0.12326697777071519 0.11972312633033498
3700000000.0 0.10035509868941493 0.13741442713798477
3720000000.0 -0.16792289586504688 -0.011070984339342846
3740000000.0 -0.003153145597981847 -0.16856922062807608
3760000000.0 0.1420190880298295 0.08354166006342346
3780000000.0 -0.1182231897492691 0.10751073660594238
3800000000.0 0.02783757893071888 -0.15313901518844225
3820000000.0 -0.13365456504188883 0.03286416070052053
3840000000.0 0.031806569132765035 -0.12612896342038893
3860000000.0 0.09223130273973268 0.08863512714581705
3880000000.0 -0.1141119164171655 0.06698646077661224
3900000000.0 -0.13186777479284825 -0.05501041563682979
3920000000.0 0.15004180616663887 0.020595640650087618
3940000000.0 0.1287654422713197 0.09743338210051684
3960000000.0 0.15522345372357557 0.03166946523026418
3980000000.0 -0.1534203999113381 -0.047369659072682986
4000000000.0 -0.09706609994086107 0.12526420992995504
