!Created with skrf (http://scikit-rf.org).
# Hz S RI R 50.0 
!freq ReS11 ImS11
400000000.0 0.21963181613713195 0.855988087141593
420000000.0 0.5090426191175013 0.6855730780790059
440000000.0 0.7863399548569878 -0.23012579275222025
460000000.0 0.7866385719915324 -0.032483198772381996
480000000.0 -0.04886602018991812 0.7241991839881524
500000000.0 -0.5795222801985405 0.2379662551797744
520000000.0 -0.4211397084266695 -0.270724943832228
540000000.0 -0.28572225618594066 -0.33023526402837033
560000000.0 -0.3719848492246992 -0.0793752962200275
580000000.0 -0.3503851504796953 0.13098609374634657
600000000.0 -0.24193558158134013 0.2730021720856351
620000000.0 -0.35084405509971633 0.011505388136126176
640000000.0 0.3550270002656799 0.16880832040528254
660000000.0 -0.40626121040605423 -0.03865760221033401
680000000.0 -0.13026788855711005 0.39195644772161214
700000000.0 0.16773044298329068 -0.379622491988876
720000000.0 0.2449681346223817 -0.3715316804894267
740000000.0 -0.3866138730752962 0.20665953530534542
760000000.0 0.32742672229415115 -0.1972504200088572
780000000.0 -0.33306595367277875 0.1298257834417523
800000000.0 0.15525398994729794 0.24628452579155954
820000000.0 0.16713209294500797 -0.1812493145854121
840000000.0 -0.23282599600491183 -0.0026225103680602912
860000000.0 0.18990146218965953 0.08042920799185538
880000000.0 0.09957673033219241 0.12495841860415706
900000000.0 -0.10227846322422213 0.0625012170940409
920000000.0 -0.06720774379354183 0.046075748260309794
940000000.0 0.021342329034987822 0.03633871917270737
960000000.0 0.010073421702524532 0.04403861606982426
980000000.0 -0.04676523258970421 -0.05075498629421606
1000000000.0 -0.00972201428484323 -0.08643613738191869
1020000000.0 0.05979202353220302 0.07994892679856776
1040000000.0 0.09239054177119278 -0.08811204690567247
1060000000.0 0.0506569051453157 0.144831818795178
1080000000.0 0.09179286619694535 -0.16230365219294351
1100000000.0 -0.042529945987974056 -0.207490880396107
1120000000.0 0.21329611861632206 0.0769991479035151
1140000000.0 0.2585370427750149 0.023647421614405615
1160000000.0 0.23335348329121308 -0.17689669826527707
1180000000.0 0.0017502798765359614 -0.3194286998721658
1200000000.0 0.26388602038817643 0.22007196686278882
1220000000.0 -0.2930843347250867 -0.2289693628532053
1240000000.0 0.374697554283947 0.11854653428558541
1260000000.0 -0.33775887900158685 -0.22337429315362192
1280000000.0 -0.3243666691986979 0.2663179015675588
1300000000.0 -0.18069273635309574 0.387997113213305
1320000000.0 0.2416025198308381 0.3627585547604355
1340000000.0 0.3144004062750462 -0.31377556811269247
1360000000.0 0.13803540287488417 -0.41956279256217865
1380000000.0 -0.34838743100098235 -0.25094992143584255
1400000000.0 -0.3257850748382603 0.25103955104297504
1420000000.0 -0.29628858506490713 0.26217527200811913
1440000000.0 0.10743704050826905 0.36584880715633195
1460000000.0 0.2899921637237667 -0.21435541369247607
1480000000.0 -0.25651270048822367 0.21010397676097659
1500000000.0 0.2375835984850829 -0.1743675713834156
1520000000.0 0.14728075508349245 -0.21532427187653422
1540000000.0 -0.2253589472981956 0.030390494759343474
1560000000.0 0.010492051487368452 -0.20207729017765722
1580000000.0 0.09789256551559734 -0.13652196166183841
1600000000.0 -0.12207282385511059 -0.04860891512614917
1620000000.0 0.030974170368790025 -0.09505512921359963
1640000000.0 0.08774883948926726 0.016348480586869784
1660000000.0 -0.057340208537999655 -0.023302813514806966
1680000000.0 -0.0015697917391298947 0.04493982564148375
1700000000.0 -0.017258544029689075 -0.012812346813074749
1720000000.0 0.011898409045521391 -0.0027577150808119305
1740000000.0 0.00042106408558514457 0.016633137465793455
1760000000.0 -0.0018232998400901962 0.03875136740109894
1780000000.0 0.05629417163413431 0.027578587879095735
1800000000.0 -0.08120350886183925 0.05575245064010047
1820000000.0 -0.10911141404727191 0.06721757846858831
1840000000.0 0.1558508327228298 -0.03320727233482167
1860000000.0 -0.1531966479136016 -0.1257725139307006
1880000000.0 0.2004775967928457 -0.12060886210328793
1900000000.0 -0.27196125457253595 -0.017816433249635794
1920000000.0 0.3089289442774091 -0.047775427918261414
1940000000.0 -0.3460629709574136 -0.03278556610046617
1960000000.0 0.37094363829771276 0.03896673031865446
1980000000.0 -0.1883101299045912 -0.3523851297067316
2000000000.0 -0.20566644139950865 0.35644584972409965
2020000000.0 -0.0199629600922708 0.42669943251250697
2040000000.0 0.42378981210529465 0.1096420169294626
2060000000.0 0.07103158851021116 -0.4389306725886144
2080000000.0 -0.34442819937425434 -0.2739137788496774
2100000000.0 -0.43229238960669225 -0.0504391523724177
2120000000.0 -0.382865427752495 0.18178080463610707
2140000000.0 -0.3873085920911348 -0.15290006262723596
2160000000.0 -0.30078628147570335 -0.25725620152210366
2180000000.0 -0.34202248645184957 -0.18321121588778944
2200000000.0 -0.31343296395710835 0.19795934193736314
2220000000.0 -0.2981082073785357 0.2080923037403717
2240000000.0 -0.161816559997785 0.31718335217974913
2260000000.0 0.08953832722071395 0.34464156599659296
2280000000.0 0.28795520936136826 0.21472261547507732
2300000000.0 0.34991981055190224 -0.11750219652500563
2320000000.0 -0.05582664193724667 -0.3863558375912554
2340000000.0 -0.4066398026847022 -0.0856809556848402
2360000000.0 0.37134565467162195 0.27162262498521567
2380000000.0 -0.46988432069534347 -0.17245810464304295
2400000000.0 0.5233374105531655 0.15923029715798453
2420000000.0 -0.5752070666336521 0.15969285526720292
2440000000.0 0.275369153318173 -0.5810103202436468
2460000000.0 0.30273915623666847 0.6077601542792965
2480000000.0 -0.5827931692678947 -0.3993925009737037
2500000000.0 0.5183233693906034 0.5091928560652142
2520000000.0 -0.3520860042055522 -0.647779642210303
2540000000.0 0.050391472949761665 0.7383402118758999
2560000000.0 0.5055053920440048 -0.535787106755785
2580000000.0 -0.6950921156818145 -0.20586094566095736
2600000000.0 0.18154355307677172 0.6799872889459067
2620000000.0 0.5172094631971912 -0.43840586508151486
2640000000.0 0.3268634794079301 -0.5568118872677147
2660000000.0 -0.6075573663823031 -0.02464545670822209
2680000000.0 0.30092052822186477 0.4791910726747609
2700000000.0 0.11355496310815547 -0.5093466886061794
2720000000.0 -0.42879853957865494 0.206438120946811
2740000000.0 0.39291373355441145 0.18290033210347215
2760000000.0 -0.18665863759632548 -0.3463559484974987
2780000000.0 0.0005078258011737367 0.3622078268595506
2800000000.0 0.21181050725981657 -0.2600471752036792
2820000000.0 0.002488546098000042 0.3195242246277141
2840000000.0 -0.2425416544940778 -0.18094246201138614
2860000000.0 0.28972783975819966 0.059832931440536495
2880000000.0 -0.06059695394749794 0.2889102888611252
2900000000.0 -0.21604628366508644 -0.19537935412781607
2920000000.0 0.16006247166359974 0.239823131379055
2940000000.0 0.2867308622444368 -0.051812578938442884
2960000000.0 0.07007488613549791 -0.289569928780386
2980000000.0 0.09518010182061556 -0.2861545244361403
3000000000.0 -0.1494521826880746 -0.27637878885210954
3020000000.0 -0.21717885812827004 -0.2262371270273148
3040000000.0 0.16642958278499795 -0.2647988438797006
3060000000.0 0.28520932256525944 0.11002664799211105
3080000000.0 -0.299327332998728 -0.021328363424061598
3100000000.0 0.2716828686290773 -0.11309146175708028
3120000000.0 -0.2888470796602812 -0.005923372648297899
3140000000.0 0.06525624097502378 -0.27891791554325485
3160000000.0 -0.18995638656593236 0.19702685815805068
3180000000.0 -0.21648597278321177 -0.1422682242074157
3200000000.0 0.03240918795498003 -0.2303219432868742
3220000000.0 0.17736750548901256 0.10474283828777792
3240000000.0 -0.13473997971173213 0.11202410349908665
3260000000.0 0.0035334074074329074 0.14600156171319673
3280000000.0 -0.09480651991069759 -0.06663926561325409
3300000000.0 0.05139851131060456 0.07758921469499462
3320000000.0 0.027514632513273213 0.06881133769725627
3340000000.0 -0.04719311818709374 -0.009004786832122687
3360000000.0 -0.013788024540870015 0.02146708045956025
3380000000.0 -0.006465638407336935 0.005958037760530265
3400000000.0 -0.009840423716251956 -0.004580584747847686
3420000000.0 -0.01775828415304364 -0.003945003984791147
3440000000.0 0.013499779741262678 -0.014662078991945911
3460000000.0 0.036890097042267096 -0.0024015694825100394
3480000000.0 0.03771186771414311 0.023812468314813547
3500000000.0 -0.05703829409759175 -0.04915215499047996
3520000000.0 -0.086194317948276 0.00549637980725549
3540000000.0 -0.05279548682793759 0.08111023965012083
3560000000.0 -0.015621033945882682 0.0996330994551731
3580000000.0 0.04509163414081042 -0.10489968416409624
3600000000.0 -0.12893728265513363 -0.020343159448035046
3620000000.0 -0.011732494750548461 0.14927354149136934
3640000000.0 -0.08899493144623237 0.12882075614923408
3660000000.0 -0.08032775880257481 0.14573219706215604
3680000000.0 -0.08755240928829189 0.14755864850539846
3700000000.0 0.010853390249148717 0.16871236546827556
3720000000.0 -0.15590490941817867 -0.0664042221062871
3740000000.0 -0.05910720053379689 -0.15769342192946184
3760000000.0 0.11717563485194316 0.11388785380592363
3780000000.0 -0.14322430835413305 0.0706881812845483
3800000000.0 0.03859880694112248 -0.14970164190010596
3820000000.0 -0.1368343630547505 0.01345711245788212
3840000000.0 0.02899000678879771 -0.1260418315363099
3860000000.0 0.11380702979449565 0.0587303835452512
3880000000.0 -0.10728738963130972 0.0724578357381537
3900000000.0 -0.0820408728092996 -0.1172534352351944
3920000000.0 0.11885905104392945 -0.094028910749439
3940000000.0 0.13179873741096998 0.0880404789328724
3960000000.0 0.15854572338020229 0.0008847917022553408
3980000000.0 -0.14827483566725597 0.05931889728299207
4000000000.0 -0.01753345974453253 0.15671564502534
