!Created with skrf (http://scikit-rf.org).
# Hz S RI R 50.0 
!freq ReS11 ImS11
400000000.0 0.2531847182057217 0.8460350536595731
420000000.0 0.45651883215728356 0.7210085944108588
440000000.0 0.7856145789613453 -0.23079480295741128
460000000.0 0.7886918172004538 0.025702874214132494
480000000.0 0.00450065104358539 0.7253902647419481
500000000.0 -0.5698988339851195 0.2583734053901477
520000000.0 -0.4025824119375816 -0.303157566611816
540000000.0 -0.049398651585383285 -0.4349647130004696
560000000.0 -0.3446321470831396 -0.1734398429561986
580000000.0 -0.24693004891823878 0.2803782891781833
600000000.0 0.007881857834603026 0.3623954083938665
620000000.0 -0.17089496605625926 -0.3047769137897591
640000000.0 0.3659277152463076 0.1473685751743338
660000000.0 -0.2577417201405276 0.3180501120841761
680000000.0 -0.07450581779236139 0.4036789545844863
700000000.0 0.3272945140266292 -0.2591325025772615
720000000.0 0.18226732463353995 -0.40663383894332444
740000000.0 -0.42701678177528274 0.09214258174716465
760000000.0 0.35158935591443746 -0.16047577789080192
780000000.0 -0.15040496615616394 0.3236848537286329
800000000.0 0.021737899880293798 0.2892505212201785
820000000.0 0.24073189154652963 -0.05899916534698107
840000000.0 -0.07912915308835844 0.21767689640732624
860000000.0 0.20328602436702461 0.0038744240548926967
880000000.0 -0.12139854653756418 0.10322667249705936
900000000.0 -0.005230636678051494 0.12567797603076636
920000000.0 0.08053754936117524 0.006407459310426965
940000000.0 0.03554142632986857 0.022175622390382805
960000000.0 -0.03417791206089754 0.024932617668732695
980000000.0 -0.05994319529773165 -0.03334865391009645
1000000000.0 -0.06030224581432533 -0.0628976467561898
1020000000.0 0.010690326418497981 0.09817208632436634
1040000000.0 0.11472957515382592 0.05092133182321354
1060000000.0 -0.09166839011015766 0.12644258349037876
1080000000.0 -0.15731877188421725 -0.10497891404903555
1100000000.0 -0.07107946465565121 -0.1981428923318799
1120000000.0 0.16141823345097212 0.16072936802760593
1140000000.0 0.23826062306362994 0.1037219191579877
1160000000.0 0.17418366040681676 -0.23496425041102492
1180000000.0 -0.01303349224131434 -0.31820081992959914
1200000000.0 0.20013982004834208 0.2819267100713652
1220000000.0 -0.31991480189478233 -0.18955555017367753
1240000000.0 0.38012510789878 0.10016753678681083
1260000000.0 -0.39638475974284026 -0.0788288036508935
1280000000.0 -0.40029924347179224 0.1224649067532614
1300000000.0 -0.23467379449206066 0.3604437157092359
1320000000.0 0.4009777983396911 0.17282221263307135
1340000000.0 0.3663222810105938 -0.2503981351236125
1360000000.0 0.12337005288962595 -0.4241538681688744
1380000000.0 -0.3062155607020372 -0.2991516173915327
1400000000.0 -0.28728594045414857 0.29549827192554223
1420000000.0 -0.3292802871135384 0.22151912543169808
1440000000.0 0.18719266524094558 0.3323807246844933
1460000000.0 0.2849959745577381 -0.2210627619408553
1480000000.0 -0.19986372222724075 0.2619757333988503
1500000000.0 0.28779761642958107 -0.06040723474561381
1520000000.0 0.24136714565146447 -0.1071157852608758
1540000000.0 -0.08636665798972723 0.21464993566947044
1560000000.0 -0.13313662074275542 -0.1476670932725404
1580000000.0 0.1250289377324712 0.10735551472954204
1600000000.0 0.03048453997400857 -0.13111942054435832
1620000000.0 -0.10266917804878398 0.006528831235915582
1640000000.0 0.05511991763919415 -0.06699750328071827
1660000000.0 -0.007895290453338966 -0.05909774671006181
1680000000.0 -0.03765616610273074 0.02530385744695327
1700000000.0 -0.008019489671609625 -0.022406498071084583
1720000000.0 -0.0024073590414101747 -0.011037838887610067
1740000000.0 0.0010973231494408938 0.01856445959546331
1760000000.0 0.03731913367370849 0.0023273767313980055
1780000000.0 -0.05271824311522736 0.0363680325647781
1800000000.0 0.03010218766097686 0.09303083766973805
1820000000.0 -0.11087404669065022 -0.059380627969302914
1840000000.0 0.15802093336711814 0.024366430403354362
1860000000.0 -0.17676822520518792 -0.09177932025608822
1880000000.0 0.17502150605296973 -0.15406325127027157
1900000000.0 -0.2678499570812691 -0.05010886466384899
1920000000.0 0.30679289565935947 -0.05736177497013752
1940000000.0 -0.34825149942663447 -0.014204276453583395
1960000000.0 0.35179836329738917 0.12618367301280056
1980000000.0 -0.18855122746121938 -0.35193478467380274
2000000000.0 -0.15159262634661128 0.38322722065877396
2020000000.0 -0.06990314979975473 0.4194641952665594
2040000000.0 0.4022973897896577 0.17932210951432148
2060000000.0 0.04933214365665471 -0.44198617265202955
2080000000.0 -0.33702659911006816 -0.28286172933181963
2100000000.0 -0.42178342526027857 -0.11037186422983898
2120000000.0 -0.3797917802624022 0.18913720351791094
2140000000.0 -0.40675301474451264 -0.08860433708541655
2160000000.0 -0.28679468553163634 -0.27186689788138857
2180000000.0 -0.28289227292692715 -0.2656103931551944
2200000000.0 -0.2538511159013273 0.2712415715811461
2220000000.0 -0.2863580892655527 0.22038993107539595
2240000000.0 -0.20368392278876213 0.29239016999589623
2260000000.0 0.14216932564886428 0.32688623434670805
2280000000.0 0.316907595329302 0.17083750064135728
2300000000.0 0.34475329028411783 -0.127245975695509
2320000000.0 0.03129159844154343 -0.3894150113120348
2340000000.0 -0.41656543374362703 -0.0198062959911396
2360000000.0 0.3903015342917879 0.24223517283576743
2380000000.0 -0.4707694860341613 -0.17121979232376594
2400000000.0 0.5089148575162252 0.19995536857728585
2420000000.0 -0.5708151357646386 0.17604378343471308
2440000000.0 0.27525064830224766 -0.5806778422864182
2460000000.0 0.26606227212357514 0.6242875211087054
2480000000.0 -0.5883280651692061 -0.391317034239319
2500000000.0 0.5235029344250106 0.5033252770779599
2520000000.0 -0.3880384197613912 -0.6266862172935718
2540000000.0 0.059571840829206774 0.7374823598653227
2560000000.0 0.5143205268600383 -0.5274120568909162
2580000000.0 -0.6959903008157381 -0.203022899995467
2600000000.0 0.1495098590605203 0.6878940419321128
2620000000.0 0.5451297785032845 -0.4027596310019596
2640000000.0 0.32417037498697593 -0.5586351546422196
2660000000.0 -0.6080352951110116 -0.016349603672006534
2680000000.0 0.3411343595744479 0.45091808280052625
2700000000.0 0.19900903988039167 -0.4825818040662686
2720000000.0 -0.4427567036551793 0.17770541205062418
2740000000.0 0.4027173468786919 0.15958190811258097
2760000000.0 -0.0795205301445618 -0.38465277442627643
2780000000.0 0.07826915353815952 0.35271594916573684
2800000000.0 0.25099558466880534 -0.22151141657182752
2820000000.0 -0.0014570077817326512 0.3183429160300922
2840000000.0 -0.1914736384176391 -0.235979744837161
2860000000.0 0.28770670014362687 -0.07336823049506086
2880000000.0 -0.0621869894096442 0.2874473174608442
2900000000.0 -0.1950476338647557 -0.21564715140608845
2920000000.0 0.15296509060188518 0.2458445427689573
2940000000.0 0.26326905494140207 -0.12343381285946262
2960000000.0 0.16800047949148653 -0.24398316253503508
2980000000.0 0.13797253173857163 -0.27048253324757676
3000000000.0 -0.26839475420792447 -0.16415319444079973
3020000000.0 -0.182802280659383 -0.2530423904968085
3040000000.0 0.16041714075922478 -0.2685277171720322
3060000000.0 0.2689607720869677 0.14627330632655125
3080000000.0 -0.2996758478124756 0.023917854155925275
3100000000.0 0.27946048609804736 -0.08481611193665899
3120000000.0 -0.28776667329976274 -0.023952141210639835
3140000000.0 0.03318216757019858 -0.28596359652563025
3160000000.0 -0.20082176143938416 0.1828046426445396
3180000000.0 -0.14864004427174374 -0.21275212293684478
3200000000.0 -0.0575427779679677 -0.22656531791705373
3220000000.0 0.20209313691823835 0.031452168224763793
3240000000.0 -0.145194832543631 0.09674429580033218
3260000000.0 0.013663409370032492 0.14443063512337836
3280000000.0 -0.09388486859766501 -0.06869362571047469
3300000000.0 0.08345165369624814 0.045555167317266276
3320000000.0 0.06382371249049612 0.03678696892977756
3340000000.0 -0.03515388219932366 -0.03234186134588646
3360000000.0 0.02006750843020998 -0.015967593675733405
3380000000.0 -0.008585524393021399 0.0012147931103559985
3400000000.0 0.009433118065818667 -0.0034600477982033397
3420000000.0 -0.011167896782513573 -0.013801159005789288
3440000000.0 -0.0018084739826760988 0.02021805453455335
3460000000.0 -0.020423535129012495 -0.03271363911799746
3480000000.0 0.042388829854176774 -0.003970665201671626
3500000000.0 -0.05908807998250099 -0.04727516350866345
3520000000.0 -0.08636645296195426 0.00019517561526863724
3540000000.0 -0.05691312782954228 0.07783727693542646
3560000000.0 -0.05512884053051058 0.08456628557648922
3580000000.0 0.08719282962639192 -0.07601794620035329
3600000000.0 -0.07008757845512109 0.10941749057016771
3620000000.0 -0.08805768028890794 0.1191115877551006
3640000000.0 -0.07510586917792794 0.1383187220522691
3660000000.0 -0.078505010580672 0.146363023700585
3680000000.0 -0.1307844562923733 0.11244268358124251
3700000000.0 0.052460695400712104 0.1619384706308184
3720000000.0 -0.16461625258540832 -0.03630905879813941
3740000000.0 -0.02825384485896441 -0.16513451593463754
3760000000.0 0.07295079497385389 0.14732120260778223
3780000000.0 -0.14315461396700283 0.07360750425479509
3800000000.0 -0.03168624558844054 -0.15163932865850266
3820000000.0 -0.11658728885852349 -0.07091376282967196
3840000000.0 0.005556285828483147 -0.13074236113813895
3860000000.0 0.11128114520406648 0.06178485944514557
3880000000.0 -0.13078149902469952 -0.0013262872576437345
3900000000.0 -0.07480093047249461 -0.1236431963643934
3920000000.0 0.10112627515755765 -0.11180364831784903
3940000000.0 0.044817601940192915 0.1504673281412798
3960000000.0 0.11206693193458507 0.11501839376213696
3980000000.0 -0.1418990133100207 0.07478270293207681
4000000000.0 -0.084323249915144 0.13121701281613957
