!Created with skrf (http://scikit-rf.org).
# Hz S RI R 50.0 
!freq ReS11 ImS11
400000000.0 -0.7117305907110602 0.11873359761013537
406500000.0 -0.34238349637741683 -0.6149474940162253
413000000.0 0.6768200273134191 0.068539130287407
419500000.0 -0.6559914678295964 0.14109973562375727
426000000.0 0.38322793294298957 0.5360343474190037
432500000.0 -0.5978423288539533 -0.25742343281253477
439000000.0 0.5836750925854733 -0.2572187016549785
445500000.0 -0.5078375919492959 0.3681857932801595
452000000.0 0.16006303995305868 -0.5960646969674153
458500000.0 0.23260483618461636 0.5705270112627612
465000000.0 -0.6158207098590334 -0.02672233557218569
471500000.0 -0.3982073059315766 -0.46523006029783653
478000000.0 -0.1537267835604022 -0.5858477446309163
484500000.0 0.21113021763015266 -0.5587425758511738
491000000.0 0.05264183202599531 -0.5840065869330029
497500000.0 -0.36451212519872633 -0.4349139619434887
504000000.0 -0.33865035732187815 0.4137693404182602
510500000.0 0.15185441102855632 0.4751790078367475
517000000.0 0.4495640594932507 -0.05727510550140165
523500000.0 0.2749985139808218 0.31922877872532124
530000000.0 -0.002302905552693636 0.3854403040725988
536500000.0 0.23707991751160884 0.25788926196715245
543000000.0 0.08355378907901849 0.3278735746055917
549500000.0 0.06065457563906673 0.31532233935609627
556000000.0 0.28925070728156893 0.07183745392818244
562500000.0 -0.1353478851626364 0.24898146730657666
569000000.0 0.21248940416093062 0.17223103739895923
575500000.0 -0.26491101732362304 0.013030667594840235
582000000.0 0.1662950279949362 0.2092282443224292
588500000.0 0.05328110407713281 0.27171332027531453
595000000.0 0.06573920048847162 -0.28827739078945874
601500000.0 -0.23817441180503818 -0.1809563994218487
608000000.0 -0.1709934565759357 -0.24421750164862396
614500000.0 -0.2576667948666052 -0.15152713294598347
621000000.0 -0.2540543991605998 -0.15085690991236272
627500000.0 0.29005415180979705 -0.005052993455919664
634000000.0 -0.16492041561921283 0.24920968968204732
640500000.0 -0.28322917219170035 -0.06132382381928864
647000000.0 0.23350764732604495 0.18424318729268835
653500000.0 -0.00987475882407346 0.30197160663987416
660000000.0 -0.24027566715888898 -0.18170013165169965
666500000.0 0.26029751366774184 -0.1525220336491688
673000000.0 0.05857378667502529 0.29375851829850436
679500000.0 0.2628417079936518 -0.15785392305663193
686000000.0 0.22946088524278976 -0.187624244334303
692500000.0 -0.29069920178949615 -0.04031463186245342
699000000.0 0.20543276853994902 -0.20048852974491066
705500000.0 -0.26904162667783577 -0.10262914354365606
712000000.0 0.23548136863981514 0.17370938140945755
718500000.0 0.21310925804395361 -0.20773089330758557
725000000.0 -0.1766895235015556 0.2588882575104769
731500000.0 0.1299926714368614 -0.2907521538934526
738000000.0 0.048929438500869046 0.32633032544326185
744500000.0 -0.3064757825202298 -0.12251611761713384
751000000.0 0.21348015738382112 0.25581904382400245
757500000.0 -0.17119812778027885 -0.29690620781220584
764000000.0 -0.10704440194574416 0.33554337878861773
770500000.0 -0.2718743073424192 -0.23387377500158743
777000000.0 0.016204282072133293 0.363002189810456
783500000.0 -0.2633744603188422 -0.24808174643433822
790000000.0 0.09337831544801052 0.3532490484509559
796500000.0 -0.05138994473755732 -0.36611145626983954
803000000.0 -0.2979074715380894 0.20134105204696032
809500000.0 0.2660920159531717 0.24026131788714233
816000000.0 0.27182859420485445 -0.2339866522218012
822500000.0 0.1272152048316393 -0.34547544565128724
829000000.0 -0.37963746543840676 -0.03810957695593422
835500000.0 -0.3921706039956347 -0.06003330240472339
842000000.0 0.3815639693522633 0.16163903400830226
848500000.0 -0.2990184683455226 -0.28696104252965654
855000000.0 0.17834323270713137 0.38583892512605983
861500000.0 0.02399294169890916 -0.42661498878086795
868000000.0 -0.2919624516486302 0.3193079619938017
874500000.0 0.34013828546020974 -0.27263456141842113
881000000.0 -0.3945112033682512 0.20165659540822067
887500000.0 0.32707853803347187 -0.3039390990042837
894000000.0 -0.11068360898693415 0.4325788309955615
900500000.0 -0.4191387918069347 -0.14076543631147245
907000000.0 0.11130637053348569 -0.42136752828597346
913500000.0 0.2932426968929903 0.301379644403544
920000000.0 -0.18984698418478235 0.3653639950419985
926500000.0 -0.3224743217787029 0.23547303876866726
933000000.0 -0.37767519053080656 0.07417313897964697
939500000.0 -0.30637663754951816 0.20770047604240408
946000000.0 -0.18420895088014955 0.29280185016391713
952500000.0 -0.24167816664510983 0.21115548658669353
959000000.0 -0.2648239019885074 0.14165733029019048
965500000.0 -0.2396751589211597 0.1479447552231525
972000000.0 0.17489095468498886 -0.20068064292793283
978500000.0 0.23601035785795044 0.09203509922901647
985000000.0 0.2016787925252307 0.12551518137118034
991500000.0 -0.03850998331793543 0.22064028979824676
998000000.0 -0.19406583689963078 -0.0800590076320669
1004500000.0 0.10908533929224543 -0.1647826386763138
1011000000.0 0.02000028812389667 0.18576142264968445
1017500000.0 -0.17107150093374515 -0.029209746069376145
1024000000.0 0.09677766632157155 -0.1258630911474684
1030500000.0 0.12614888556911152 0.06954550554080305
1037000000.0 -0.019809361545437092 -0.13301093716619586
1043500000.0 -0.07600549897957709 -0.09927840289067916
1050000000.0 0.035284772628755824 -0.11458646062212613
1056500000.0 -0.0839238987793494 0.07314362473861769
1063000000.0 0.004290038941367106 -0.10416990665322931
1069500000.0 -0.0044772477283291185 -0.09474047671830457
1076000000.0 -0.07550014273621115 -0.05268520632831319
1082500000.0 0.07425480368396299 -0.045220683629549355
1089000000.0 -0.05589756307818488 -0.0687204468322975
1095500000.0 0.028258859600601312 -0.08444349103601131
1102000000.0 -0.062120425490091356 0.07578990530938791
1108500000.0 0.10771073986180196 -0.0012575006730841842
1115000000.0 -0.11962900046415262 -0.02674886511775355
1121500000.0 0.013406025055812716 -0.14163398269987695
1128000000.0 0.15976725899781075 -0.0001156167699201063
1134500000.0 0.10131438963259176 0.14256232949714984
1141000000.0 -0.16714219293054547 0.08971208360409588
1147500000.0 -0.20253855759535855 0.02399558689902877
1154000000.0 -0.09268713536167249 -0.18761468830513012
1160500000.0 0.204260845036621 0.05637172328618166
1167000000.0 -0.21490978673225275 0.02986550892230812
1173500000.0 0.0441761024313662 0.21197487836332993
1180000000.0 0.20972842585164472 -0.07507358275083915
1186500000.0 -0.17810655777481346 -0.1436941955367477
1193000000.0 -0.1312863415480724 0.2005547804376378
1199500000.0 0.18995481141381737 -0.1641965683532647
1206000000.0 -0.25375431010172217 -0.0739848902656091
1212500000.0 0.27230383180439455 -0.05071690593881163
1219000000.0 -0.15638836583355545 0.24576506527074066
1225500000.0 0.055499288652482735 -0.29020171662682165
1232000000.0 -0.27802091912058097 0.11764395557619681
1238500000.0 0.030623605217872912 0.3092532738330245
1245000000.0 0.3144435308990479 -0.013319219975406766
1251500000.0 0.06831484740534714 -0.31649503079832975
1258000000.0 -0.32603662326159116 -0.04929582800962186
1264500000.0 -0.3239980509910807 0.07974670581973918
1271000000.0 -0.07402210718197537 0.33302583811189657
1277500000.0 0.273829175950924 0.2132438277590078
1284000000.0 0.3220804047850093 -0.14178223468438272
1290500000.0 -0.03819407124164399 -0.3514838803472043
1297000000.0 -0.357295207437689 -0.008681622912897553
1303500000.0 -0.16618119825873132 0.31080632748193543
1310000000.0 0.1354031977432399 0.3239102631766418
1316500000.0 0.24804932450572262 -0.24852505161769628
1323000000.0 -0.12013634483427384 -0.32535227302207764
1329500000.0 -0.14056944724647713 0.3139814462804137
1336000000.0 0.2652450139168876 0.20395223489808217
1342500000.0 0.17906227997104257 -0.27793556488418947
1349000000.0 -0.31659536849668535 -0.08630082285908003
1355500000.0 -0.29259249542059285 0.14847277803498116
1362000000.0 0.25531544436151904 0.2081164678932107
1368500000.0 0.1287457582424775 -0.3110579929346022
1375000000.0 -0.25466156715251537 0.23300145750281206
1381500000.0 0.2837218281300667 -0.20449206451789279
1388000000.0 -0.34819135702115067 0.07820542925253131
1394500000.0 0.3261696911773396 0.1538161756974848
1401000000.0 0.3464226717583418 0.11562907183947549
1407500000.0 0.01456224630476438 -0.3693488759197766
1414000000.0 -0.36103985120984877 -0.09649994064125283
1420500000.0 -0.11418170893364177 0.3594535834353839
1427000000.0 -0.07415731668213991 0.3711836788915138
1433500000.0 0.055564990420872186 0.3790917784490583
1440000000.0 0.16827200618468674 0.34523540716038126
1446500000.0 0.26759146552431295 0.2811264175052475
1453000000.0 0.3642585147523072 0.1367928656239686
1459500000.0 0.355731531325913 -0.14930384240515487
1466000000.0 0.05996832132492663 -0.3772694274293695
1472500000.0 -0.1070001763996746 -0.3580900419527374
1479000000.0 -0.3282143725546052 -0.15443045581973855
1485500000.0 -0.3506724874542702 -0.004800726099131976
1492000000.0 -0.29669669822948924 0.166007837940865
1498500000.0 -0.05753513295434676 0.32036990713091507
1505000000.0 -0.13825452113236628 0.28184911583604694
1511500000.0 0.29784263531164895 -0.07466804347980711
1518000000.0 -0.010898729104632432 -0.29613998878933256
1524500000.0 -0.11376485850518821 0.2655116649592133
1531000000.0 0.25524937109093376 -0.11275021617607105
1537500000.0 -0.27278976256440957 0.026318436403221113
1544000000.0 0.26154792626585655 -0.05338137192325458
1550500000.0 -0.18408419101510068 0.18967118660578505
1557000000.0 0.15119192046187355 -0.20740278897216358
1563500000.0 -0.2402380590199555 -0.08337257609040788
1570000000.0 -0.2429761084922699 -0.08238910711525176
1576500000.0 0.018736148618295496 0.2552962760550182
1583000000.0 0.26000560464337 -0.027191107494269135
1589500000.0 0.021912960009675894 -0.2599487554330777
1596000000.0 -0.2203575465831114 -0.13716806887245775
1602500000.0 -0.2526994872122506 0.04642767179587441
1609000000.0 -0.232211343640081 -0.10326424114654752
1615500000.0 -0.20024419383191658 -0.14665806205492654
1622000000.0 0.19016865909951414 -0.15524436302439842
1628500000.0 0.23784002312533584 -0.047484058316598396
1635000000.0 0.22062647438309205 0.08497320212304496
1641500000.0 0.12283896975044864 0.19603170298322456
1648000000.0 0.020859809767569883 0.22431183216864092
1654500000.0 -0.1137659147904926 0.1857348616243002
1661000000.0 0.00480033119663247 0.20815053261208147
1667500000.0 0.11894111250413514 0.15690548527546344
1674000000.0 0.16936845481539675 -0.06655600195538054
1680500000.0 0.16288973606624124 -0.03254417518312436
1687000000.0 0.0672270216113741 -0.13813443017708366
1693500000.0 -0.07057244585557645 -0.12229593495330413
1700000000.0 0.05424819789307623 0.12122046212419492
1706500000.0 -0.015828635097306684 -0.12271141808033699
1713000000.0 0.08718732446110436 -0.07834869222712074
1719500000.0 -0.06527536503371383 0.09465263689703388
1726000000.0 0.01921957911839959 0.10985323297812015
1732500000.0 -0.0365489163778681 0.10242848457808948
1739000000.0 -0.08268141914624284 0.07096667624858495
1745500000.0 -0.01258292055359881 -0.10209463950136256
1752000000.0 0.0673418759085488 0.07673432066232827
1758500000.0 0.09555813454875697 0.01836667462713142
1765000000.0 0.06577014957587762 0.06880408715685804
1771500000.0 -0.09060645746985554 -0.025455857954685593
1778000000.0 0.07745640520686313 -0.05567445778726056
1784500000.0 0.05385807246813784 0.0841735171758657
1791000000.0 -0.048050468862893096 -0.09088214751496533
1797500000.0 0.1002433413789246 -0.03582336806391362
1804000000.0 0.07588082502244367 -0.07656088546892842
1810500000.0 -0.021960843751344546 -0.10457997488894018
1817000000.0 0.009234039445515357 -0.09820368055419863
1823500000.0 -0.09060094083240783 -0.007714170834739998
1830000000.0 0.009945935142977863 -0.07684824861044533
1836500000.0 0.03617473082147804 0.05986702095148727
1843000000.0 0.000716043979979755 0.055175530123547055
1849500000.0 0.04229037593851799 -0.0210165725944691
1856000000.0 -0.03924731977692367 -0.007103967326711136
1862500000.0 -0.03340468866003654 -0.0023063347708337854
1869000000.0 0.02295649064446224 0.019055609332263843
1875500000.0 0.024255183468504592 0.012491274218273085
1882000000.0 -0.0006658097981223562 0.020564112964995367
1888500000.0 -0.0027479788112736827 -0.022385758650967265
1895000000.0 -0.019983106208831567 0.016707667730064955
1901500000.0 -0.028335275778738726 -0.008865003469676658
1908000000.0 0.028090930812799834 -0.003362393775685505
1914500000.0 0.02090830672155465 -0.020855350328961714
1921000000.0 0.013953550681110887 0.02336843182687968
1927500000.0 -0.02216063248544987 0.01009545453909592
1934000000.0 -0.013995514305743416 0.01710951767618963
1940500000.0 -0.014120587786423121 0.010724281787671751
1947000000.0 0.015646151144394767 -0.006733811694277231
1953500000.0 -0.004584674427738973 -0.018502198876107722
1960000000.0 -0.015352459529242718 0.013750094283309205
1966500000.0 0.030839394610697745 0.013905775244809408
1973000000.0 -0.04611476862746915 0.007291874604379568
1979500000.0 0.040703965226023674 0.04351848297289066
1986000000.0 -0.0650883914608936 0.038846834083719875
1992500000.0 0.07868285090193695 0.03417820968817332
1999000000.0 -0.032400930072205125 -0.08971203197510935
2005500000.0 -0.05630686121893573 -0.08711006172886925
2012000000.0 -0.0452000447634806 -0.10066608984864991
2018500000.0 0.10533251304290257 0.04735708670611426
2025000000.0 -0.10208550996536028 0.06719965963090044
2031500000.0 -0.000897944628281649 -0.12496973010626664
2038000000.0 0.10524907897277702 0.07518235335591762
2044500000.0 -0.12657522202208696 0.04333912660331669
2051000000.0 -0.09647761138899953 -0.09786789089380801
2057500000.0 -0.0964113030223146 -0.09690867652368507
2064000000.0 -0.10528761074698703 -0.08681987733221141
2070500000.0 -0.10441696178840107 -0.08313970065362666
2077000000.0 -0.08437374341574708 0.09378465340557494
2083500000.0 0.08125589138906437 0.0884608846079792
2090000000.0 0.053111938223127965 -0.10027199630583516
2096500000.0 -0.1060676228987465 0.028287974131350282
2103000000.0 -0.032125697591511765 -0.09961790597017671
2109500000.0 0.1017916318108156 -0.0247420998050703
2116000000.0 -0.09137443911913365 -0.05464948619759959
2122500000.0 -0.09519688012588184 0.055259611504732756
2129000000.0 0.08077746372147841 0.0871572450718928
2135500000.0 0.07686963452637047 0.09948286670775121
2142000000.0 -0.11929680240339227 -0.06910677195226707
2148500000.0 0.1418337287956273 0.05337021637177888
2155000000.0 -0.1668123258357571 -0.023404948287132802
2161500000.0 0.16729720207537413 0.07750670648994362
2168000000.0 -0.1208615735507032 -0.16179219584364968
2174500000.0 -0.20462700097198225 0.07039698613355348
2181000000.0 -0.016382288434051966 0.22803199660219622
2187500000.0 0.23608702795137074 0.047230098818675466
2194000000.0 0.2400713779217072 -0.061634490194298855
2200500000.0 0.21429703460769492 -0.1397847671513023
2207000000.0 0.09523206907175678 -0.23749981550626248
2213500000.0 0.21143236574635874 -0.14255555711422954
2220000000.0 0.2510299270728577 -0.04010685638738055
2226500000.0 0.1610813305648811 0.18877430053784813
2233000000.0 -0.11186830826289638 0.21808420897913283
2239500000.0 -0.24245083205424814 0.020288094963144213
2246000000.0 -0.23628928332354943 -0.017963487598540145
2252500000.0 -0.22283379655092383 0.05252295462987434
2259000000.0 -0.1690168479825608 0.14690043374977482
2265500000.0 0.09972112663221291 0.19185454174927488
2272000000.0 0.2020453508050396 -0.04447554994626139
2278500000.0 -0.1852055904308799 0.06384393934625404
2285000000.0 0.11596300780957983 0.14468107054698023
2291500000.0 -0.1426267334317343 -0.09996669883112803
2298000000.0 -0.09995059164882483 0.13083004914250776
2304500000.0 0.10609385692594551 -0.1200398588639383
2311000000.0 -0.12531588595636356 -0.08948501394053723
2317500000.0 -0.14481012126038093 -0.049535224214732256
2324000000.0 0.14337009181755409 0.056610004452901486
2330500000.0 -0.15134665549789353 0.03214130181941157
2337000000.0 0.07582850703805044 0.1357464565430821
2343500000.0 -0.029698334790704342 -0.15411096031173296
2350000000.0 -0.1459020795744492 0.059989939571827494
2356500000.0 -0.09754884167683435 0.12502620034876258
2363000000.0 -0.023062891832674612 0.1598258280012586
2369500000.0 0.14392733009084538 0.07151758085189713
2376000000.0 0.0802038976099856 0.13908058205808943
2382500000.0 0.06581284936373037 0.14691226058531506
2389000000.0 0.0006702463445476763 0.16223180487694167
2395500000.0 -0.09520942427312673 0.13115079606450705
2402000000.0 -0.15081487801141522 0.06054668880840408
2408500000.0 -0.12463069797607858 0.10563191032631124
2415000000.0 0.02959711260052266 0.15859703877219244
2421500000.0 0.021239074321401426 0.15706212304568815
2428000000.0 0.07782980484412383 0.13341604498801027
2434500000.0 0.12019772727972848 0.09185977466521647
2441000000.0 0.12764311515589466 0.07880834964761012
2447500000.0 0.1365198677090723 0.05561200741953736
2454000000.0 0.08868758413454113 -0.11879350027377798
2460500000.0 0.07746040174437477 -0.1263381082446252
2467000000.0 -0.026895363229389315 -0.146325304406806
2473500000.0 -0.10807581456548904 -0.09995477621012627
2480000000.0 -0.08701229108484053 -0.11963737320532794
2486500000.0 0.02102665162855608 -0.14758617341086117
2493000000.0 0.10582578776946938 0.10702852526620865
2499500000.0 -0.006638958919536342 0.15120402931648477
2506000000.0 -0.13064016299720477 0.0838033892179118
2512500000.0 0.06181729073514147 -0.14349087403682484
2519000000.0 0.0372418585288492 0.15633922895880797
2525500000.0 -0.07264649065083681 -0.14709822993431385
2532000000.0 0.1631829616998141 0.04465960493927182
2538500000.0 -0.16966318679158676 0.006862410377557178
2545000000.0 0.05563540668705506 -0.16298258878300403
2551500000.0 -0.03009071186634262 0.16839056518513218
2558000000.0 0.16157369906779606 -0.05782851399998263
2564500000.0 -0.15610519632655592 0.06605250340876913
2571000000.0 0.165768390771619 0.026099295494638162
2577500000.0 -0.050565395265360115 -0.1561072104072408
2584000000.0 -0.12175790288811345 0.10565782296046482
2590500000.0 0.11908933060330477 0.10445413758970262
2597000000.0 -0.050463807830443075 -0.1446826361852088
2603500000.0 -0.11565266664700224 0.09600632025257028
2610000000.0 0.14323650777089175 -0.01717120115201819
2616500000.0 -0.11996276592587234 -0.07236471545297317
2623000000.0 0.058197528750836884 0.11973024898453921
2629500000.0 0.005146425404773025 -0.12656300120713987
2636000000.0 0.056312774565150485 0.10480837557256799
2642500000.0 -0.06019740786648741 -0.09369075073488885
2649000000.0 0.08677402510240319 -0.0591748608340984
2655500000.0 0.06435740845040767 0.07351294896909058
2662000000.0 0.08632724455361733 -0.03106230763812787
2668500000.0 -0.08412360759447234 0.024496206822877294
2675000000.0 0.07873388897007516 -0.024980992607952158
2681500000.0 0.0742097642526067 -0.027972782308323126
2688000000.0 0.069216501202459 0.03825278480047721
2694500000.0 0.038550375902537896 -0.07138746475333674
2701000000.0 -0.07666029394718296 0.034318480061892476
2707500000.0 -0.05162769636883732 -0.0794324339615347
2714000000.0 -0.03470231412227424 0.09773668402973776
2720500000.0 0.1042611590509988 0.05483631327438834
2727000000.0 0.04547122231188043 -0.12199437260676849
2733500000.0 0.002807322739632175 -0.14487836061620446
2740000000.0 -0.0585717882460579 -0.1473717651466939
2746500000.0 -0.08106578932709867 -0.15015146624582423
2753000000.0 0.08820056092003581 -0.1593882340356592
2759500000.0 0.18832371927181912 0.02107167309030964
2766000000.0 -0.1919480115213204 0.04635887407946639
2772500000.0 0.15361835471094418 -0.13763908354592555
2779000000.0 -0.2164878822419633 0.01386681532615689
2785500000.0 0.12722868167150608 -0.18788999699601663
2792000000.0 -0.031193723837960298 0.23494764567824716
2798500000.0 -0.2136865973195006 -0.12405453559050206
2805000000.0 0.1261131276569846 -0.21891825358780115
2811500000.0 0.21000164698654475 0.15300815207139803
