!Created with skrf (http://scikit-rf.org).
# Hz S RI R 50.0 
!freq ReS11 ImS11
400000000.0 -0.6905705609482937 0.14962554509634116
406500000.0 -0.40422696022332255 -0.5694069679454484
413000000.0 0.44754748012305534 -0.5062782613528588
419500000.0 -0.6252496170085338 -0.21679317729356323
426000000.0 0.5890691299919373 -0.2600415937659165
432500000.0 -0.6112766087528092 0.1658165222852084
439000000.0 0.5281232414906427 -0.34231822791778166
445500000.0 -0.07700878628860783 0.6140811523179671
452000000.0 -0.24270690521692376 -0.5522687838419662
458500000.0 0.3536558188021428 0.4779877336535455
465000000.0 -0.5633064496114958 -0.20838958698723753
471500000.0 -0.14045251828880614 -0.583357217311622
478000000.0 0.5721323950128481 -0.15350633647696812
484500000.0 0.5031209690864507 0.32171583598972336
491000000.0 0.5724121111102686 -0.15232341591628606
497500000.0 -0.05799287520358492 -0.5718117252973584
504000000.0 -0.5372005609552573 -0.09842164559027411
510500000.0 -0.21692585941146322 0.46292952887125277
517000000.0 0.2537264770568616 0.39504858642439666
523500000.0 0.08005271212729896 0.4311654533451742
530000000.0 -0.09224066666422066 0.39922654291966136
536500000.0 -0.04135784337114082 0.37930041519493546
543000000.0 0.23353267480653525 0.2800572197663341
549500000.0 0.021926375476886757 0.35086750469517947
556000000.0 -0.23880415780452613 -0.23377217728419394
562500000.0 -0.3043969494652105 0.059919460839837145
569000000.0 -0.06059853243380639 0.29042614380259424
575500000.0 -0.013903298884170917 0.2821524877784093
582000000.0 -0.03457920014332925 0.27330078815486997
588500000.0 -0.2272074338701576 0.1469698149983455
595000000.0 -0.05849500359142899 0.2738868219065805
601500000.0 -0.08696667755686961 -0.26089536992324336
608000000.0 0.2682408849687607 0.11813514491058846
614500000.0 0.30060367966753915 0.02022616506487195
621000000.0 0.18550286401233704 0.247277960454274
627500000.0 0.13185245297982717 0.28840382628674366
634000000.0 0.19615822616689021 0.2539945122467911
640500000.0 0.14000072124471927 0.28116341567239755
647000000.0 -0.2016366685711122 0.23704362798334738
653500000.0 -0.29483193724065754 -0.09527495196550437
660000000.0 -0.06300118473311063 -0.29201080623913217
666500000.0 0.06000230234611123 0.29005497980271006
673000000.0 -0.18370190418311783 0.22010604805968007
679500000.0 -0.2794875520395114 0.01770960885421367
686000000.0 0.015043144788688675 -0.27774072799746236
692500000.0 -0.2321690820660055 -0.14367449662529946
699000000.0 0.20538542703922824 0.1884294365092572
705500000.0 -0.13433195261747716 -0.24756644074082057
712000000.0 0.26123769212538595 0.1254858823333051
718500000.0 -0.11438295185967118 -0.2674009240308131
725000000.0 0.158002938803268 0.25445128866735844
731500000.0 0.14715524509443742 -0.27170277041463053
738000000.0 0.16213213715988334 0.2732093232000606
744500000.0 -0.3162162893026106 -0.01226577922225172
751000000.0 0.30693374771316423 0.06770019806340129
757500000.0 -0.2950662128650451 -0.13040556746700274
764000000.0 0.05926841116588797 0.3212889525102015
770500000.0 -0.28310305737791397 -0.1908147431555297
777000000.0 0.24474496692445605 0.24236575951482514
783500000.0 -0.07168218238766186 -0.33876231463033313
790000000.0 -0.02853669289979336 0.3531366400517576
796500000.0 0.20051862668443077 -0.2922993145075172
803000000.0 -0.35415682667164267 -0.0569112135098211
809500000.0 0.2335791399889014 0.27984666087182264
816000000.0 -0.16234766347734594 -0.3308263880208661
822500000.0 -0.20422053076771174 0.3181734718190647
829000000.0 0.1540814820278534 0.35054077422534186
835500000.0 0.35459249535111975 -0.16499029469920365
842000000.0 -0.39101086232277843 -0.08107503750473045
848500000.0 0.05850259833959999 0.40121725376665274
855000000.0 0.025934446507009504 -0.40777408210856964
861500000.0 -0.4002351980765884 -0.09362933446276299
868000000.0 0.3858865377206807 0.1705419484749258
874500000.0 -0.04575791743658299 -0.4209919452889891
881000000.0 0.1553209307115602 0.40261277533245987
887500000.0 -0.22721916426513686 -0.368291887374892
894000000.0 0.19466193216439528 0.3921793284675527
900500000.0 -0.4135599051875755 0.12618803622688313
907000000.0 -0.05252426082071655 -0.42233165747431667
913500000.0 0.4141934269951843 -0.045262922393693346
920000000.0 0.19574892438249722 0.35849435402896906
926500000.0 0.13255776641225395 0.37423996329452797
933000000.0 -0.03345758033967584 0.3804130493759747
939500000.0 -0.11703712058489832 0.34818456515499874
946000000.0 0.055956300246953514 0.34350663523821423
952500000.0 0.22661875722376837 0.23366438230038086
959000000.0 0.30252400759122017 0.033350954255679015
965500000.0 0.24792030138221383 0.12919759636387138
972000000.0 -0.17924446577342612 -0.18951359095027423
978500000.0 0.20193816716559784 0.14133108859139923
985000000.0 -0.23337529002501964 0.01509615420368424
991500000.0 0.14230042326042966 -0.17525972643835108
998000000.0 -0.011171437702358846 0.21346927425492074
1004500000.0 0.048446901145077936 -0.2013035886086953
1011000000.0 -0.09413814820420786 0.18028693524482473
1017500000.0 -0.15818400501002072 -0.12075335613500907
1024000000.0 -0.15409148868560302 -0.10690273724211395
1030500000.0 -0.1711195568142226 -0.04939841259522409
1037000000.0 -0.15320578215674155 -0.043885739895116745
1043500000.0 -0.14137731439737777 0.02008803591396931
1050000000.0 -0.10754145787392243 0.06994858550204186
1056500000.0 -0.08814352864572095 -0.06954252651862848
1063000000.0 0.006346011416296163 -0.10686994602264945
1069500000.0 0.05687208789157668 0.08158421111652209
1076000000.0 0.02565698424996761 -0.09465112367055438
1082500000.0 0.09439650630813853 -0.04053986999843632
1089000000.0 0.07713242974605895 0.07629481932336288
1095500000.0 0.06046265844903049 -0.094414793285857
1102000000.0 0.03440361185877279 -0.11896919204342812
1108500000.0 -0.12014199258767033 -0.06069572271235511
1115000000.0 -0.05202701307541154 -0.13358092914732636
1121500000.0 0.07123392863982163 -0.13690371310700383
1128000000.0 0.16002787318485226 -0.040147848494842216
1134500000.0 -0.09881243076840232 0.13877438465558473
1141000000.0 0.09191343853724163 -0.15674173584520756
1147500000.0 0.13653176077248758 0.12890458527746915
1154000000.0 0.031772875166119124 -0.19283341878870303
1160500000.0 -0.04797767847331577 0.2010212458060688
1167000000.0 -0.030618422336847254 -0.21379256912692715
1173500000.0 0.16517532789803654 0.15365521802450002
1180000000.0 -0.23100388318374335 0.006120776014914334
1186500000.0 0.23461221828973858 0.005969594756941889
1193000000.0 -0.18276346008876856 -0.160135184091268
1199500000.0 0.1923955061358095 0.16358304731646842
1206000000.0 -0.09179610261269919 -0.2432139975198105
1212500000.0 -0.022854782018983496 0.2689807652960325
1219000000.0 -0.02019040072726576 -0.2792469915898494
1225500000.0 -0.17554549173187703 0.2241801479093459
1232000000.0 0.249032916848216 0.16280076643964228
1238500000.0 0.25686461761845963 -0.15138033544182064
1245000000.0 -0.24858128333828977 -0.1772478698016562
1251500000.0 0.06282469294275009 0.3035220332707314
1258000000.0 0.3123391870176356 -0.03874417922191889
1264500000.0 0.13071955522950257 -0.29139734062670725
1271000000.0 0.043283010355778646 -0.32371479421166427
1277500000.0 -0.21110846921690907 -0.2584969332001363
1284000000.0 -0.33868446553762543 0.0044768556039464485
1290500000.0 -0.08382504185494953 0.3319010175860353
1297000000.0 0.27410813652770283 0.2049291711266792
1303500000.0 0.3079289140359443 -0.14615966984686726
1310000000.0 -0.03662517930371453 -0.334581988226668
1316500000.0 -0.2819860886604087 -0.17984346336408924
1323000000.0 -0.2444546394861285 0.22751248089909526
1329500000.0 0.14227783938278118 0.29955283187475557
1336000000.0 0.2516422716222098 -0.22283559461074956
1342500000.0 -0.29581851277075916 0.15953174353504876
1349000000.0 0.2633110694502079 -0.21210618012531077
1355500000.0 -0.20696853370641188 0.2662648496167796
1362000000.0 0.1360405917147991 -0.3034807486804866
1368500000.0 -0.30425750533154516 0.12293387919617961
1375000000.0 0.26989661114556807 0.18921308747715435
1381500000.0 0.10067559110108269 -0.31364757015405015
1388000000.0 -0.3040941024222399 -0.1400719849089466
1394500000.0 -0.06859879858405442 0.3351373327097026
1401000000.0 -0.3127689872618851 0.15219972049550362
1407500000.0 -0.06116350177414177 0.34961755676363276
1414000000.0 0.2633826016108932 0.24894196818276149
1420500000.0 0.35324978852936134 -0.10456758692392042
1427000000.0 0.2025618830591932 -0.3135024344608066
1433500000.0 0.037192282040044836 -0.3735934362106701
1440000000.0 -0.039892344103705464 -0.3720815152777225
1446500000.0 -0.06333124247333384 -0.3676370842386533
1453000000.0 -0.11547899869471172 -0.3519369425888931
1459500000.0 -0.11937665288288364 -0.34812985817097797
1466000000.0 -0.2915609758499749 -0.21940355503848774
1472500000.0 -0.17936983006035323 -0.3131000452170536
1479000000.0 -0.26686948063720306 -0.23484999103371842
1485500000.0 -0.3495001771408989 0.006652274335345648
1492000000.0 -0.205711739326467 0.2705816850723615
1498500000.0 0.22676392012509383 0.24094930423706815
1505000000.0 0.290323956771087 -0.13665043077346034
1511500000.0 -0.22954674971638037 -0.20623177187042802
1518000000.0 -0.21561076612478716 0.20527697755232108
1524500000.0 0.2884370541375888 -0.020912217081938522
1531000000.0 -0.011380846901144413 -0.27902099760255766
1537500000.0 -0.16137395803519192 0.2244543673690958
1544000000.0 0.22898484277084707 -0.1447988425942812
1550500000.0 -0.1090764243929915 0.24953702929532037
1557000000.0 0.06450683244917793 -0.2616144176038807
1563500000.0 -0.14692095286493728 0.22219945545534867
1570000000.0 -0.12642162660481066 0.23175545241589404
1576500000.0 0.21136213614889326 0.15695170074224224
1583000000.0 0.26168339164991944 -0.00391630939751442
1589500000.0 0.20969223347437513 -0.15714672939868637
1596000000.0 0.06803034746860144 -0.2507388643637287
1602500000.0 0.1569196920370639 -0.20739569911556477
1609000000.0 0.09252620207520816 -0.24345848590597333
1615500000.0 0.17180827338878826 -0.19440488259567976
1622000000.0 0.16951401860307025 -0.19149329932174944
1628500000.0 0.019928905465912305 -0.24908626473758314
1635000000.0 -0.09119978199922969 -0.2236348813639143
1641500000.0 -0.025123917724643455 -0.22703677317971788
1648000000.0 0.1211153674950905 -0.1785003212895958
1654500000.0 0.1097294102820851 0.16914700580262196
1661000000.0 -0.12537688936922728 0.14627950498276698
1667500000.0 -0.18044840763901843 0.026872795922416495
1674000000.0 -0.16515026452734485 0.05342325655308533
1680500000.0 -0.00313028430505288 0.1624938732219632
1687000000.0 0.14126969432691858 0.052869295851595145
1693500000.0 -0.11349546611279158 -0.07974617037219896
1700000000.0 0.12277013646732875 0.03711961062636647
1706500000.0 -0.10071555078358572 0.061767784383039454
1713000000.0 0.019730682835334596 -0.10638873254707672
1719500000.0 0.05806361867685356 0.08746675781514766
1726000000.0 -0.09816192428581408 -0.006921763581499357
1732500000.0 0.027063804417775714 -0.09363812557132979
1739000000.0 -0.07089353047170573 -0.06237998266269417
1745500000.0 -0.053315307614841184 0.07944282779260962
1752000000.0 0.0022487573569912552 0.09925789798045698
1758500000.0 0.08991354979698205 -0.05158572244217507
1765000000.0 0.06447163300748726 -0.08563888598932212
1771500000.0 -0.10145762543885545 0.04739929924638617
1778000000.0 -0.01765209740820995 0.1126652338898777
1784500000.0 0.046507694795733245 0.10251683211176191
1791000000.0 0.02447380099293475 0.10637234217807887
1797500000.0 -0.08164445263134207 -0.06688919038956621
1804000000.0 0.05021701771750576 0.08291392163657765
1810500000.0 -0.07736055035054214 -0.050596485700527334
1817000000.0 0.07593526900228312 0.040721817732791876
1823500000.0 -0.06158544665586535 0.04958124810485353
1830000000.0 0.07348820517379055 -0.00962959379649186
1836500000.0 -0.06427045599236304 -0.020075073029326686
1843000000.0 0.05886300295835688 0.005338563656825406
1849500000.0 -0.0400175217694206 0.035215204249878146
1856000000.0 -0.040054991204996435 -0.02082892049600066
1862500000.0 -0.01782123075518799 -0.029245127748259936
1869000000.0 -0.0009745336997531611 -0.027167665706387043
1875500000.0 0.01647569195880419 0.00956499782302847
1882000000.0 0.0003247149845723691 0.01165868385668546
1888500000.0 -0.0015231753589757936 0.004683321743884339
1895000000.0 0.0026894456855439098 -0.0013834003025409054
1901500000.0 0.003009154172355448 -0.0006430007398842072
1908000000.0 -0.00027787646573303946 0.006196033765785904
1914500000.0 0.007573320503171724 0.006027851752975279
1921000000.0 0.011494535745780368 -0.0036156936293689997
1927500000.0 -0.013085783395109874 -0.005206984864669334
1934000000.0 -0.012242009869103437 0.009351708029070685
1940500000.0 -0.010908031182954627 -0.017021936821040275
1947000000.0 0.012067936616153917 -0.026225609397071244
1953500000.0 -0.02987162735609958 -0.022055924480679764
1960000000.0 0.043378071106448104 -0.005835231769487897
1966500000.0 -0.03471623441801974 -0.03885600853604407
1973000000.0 -0.0568685639562573 0.021116176307230783
1979500000.0 0.06743240573362992 0.011763863347065117
1986000000.0 0.06924344938380533 0.03646070802144981
1992500000.0 -0.04044757893038318 0.07669527756742146
1999000000.0 -0.006514667297853708 -0.09527589052387306
2005500000.0 0.09686302284865092 -0.04949490102275798
2012000000.0 0.10988630101512108 0.04234437335010742
2018500000.0 0.055861127856557155 0.1114650536713146
2025000000.0 -0.11666159564151576 0.05881731903397951
2031500000.0 -0.1306395552858434 -0.024520267857891194
2038000000.0 0.12559924978767842 -0.043978384128636944
2044500000.0 -0.04079554577505564 0.12813436153705346
2051000000.0 -0.11854714619134518 -0.06743432778431406
2057500000.0 0.02980442802379284 -0.1334194122257951
2064000000.0 0.1298164658524486 0.04778918520550932
2070500000.0 0.12502190421987525 -0.05562051877650793
2077000000.0 -0.03645266703104805 -0.1293798632349512
2083500000.0 -0.1266577305119459 0.03191212377247444
2090000000.0 0.08006148963994743 -0.09964433839974235
2096500000.0 -0.06043770932985339 0.10743165703624855
2103000000.0 -0.06849159923409566 0.10020820714119771
2109500000.0 -0.07215576605464062 0.09443155224472476
2116000000.0 0.11929612987458486 -0.003292066758820487
2122500000.0 -0.04806291976845854 -0.11299167353172829
2129000000.0 -0.11607362273088327 -0.051084033515279126
2135500000.0 -0.1247985006319817 -0.05207255551947241
2142000000.0 0.11434420818274967 0.08797137922772102
2148500000.0 -0.11063247468507047 -0.11255764190078829
2155000000.0 0.056652434361398406 0.1627618583331005
2161500000.0 0.02321145262280692 -0.1828544773347314
2168000000.0 -0.19771966912269692 -0.0105595527072318
2174500000.0 -0.14122416073670152 0.15586478066529583
2181000000.0 0.09398012314424758 0.2019452511064229
2187500000.0 0.13484610588282514 0.18884625840842734
2194000000.0 0.18655449229068277 0.15333100281024517
2200500000.0 0.23753219378780438 0.0675541831697916
2207000000.0 0.2470635118942497 0.04795151922107206
2213500000.0 0.2054711302568202 0.14557200923078048
2220000000.0 0.05651818100639947 0.24396272521843113
2226500000.0 -0.08490971883891926 0.2323758759730405
2233000000.0 -0.12149988449975384 0.21287894219570713
2239500000.0 -0.2351641108726016 0.05265682433072933
2246000000.0 -0.17207995204300666 0.15690365383994306
2252500000.0 -0.22106947160886078 0.037946519741314
2259000000.0 -0.20268774716935917 0.07672774896935435
2265500000.0 -0.086928513187283 0.18789955999386673
2272000000.0 0.06878080083501803 0.1850967927812448
2278500000.0 0.1784595695291194 -0.06893430064153179
2285000000.0 -0.14710126114243258 -0.1094359970690084
2291500000.0 -0.03829876242777757 0.16745586426358292
2298000000.0 0.09829056339113523 -0.13433963778190408
2304500000.0 -0.12157705368268044 0.10229437453922001
2311000000.0 0.15140481923566348 0.005562204946037073
2317500000.0 0.11466895104935587 -0.0935086167408424
2324000000.0 -0.11211829034381661 0.09238435652491321
2330500000.0 0.13337689855402268 -0.05191593997568285
2337000000.0 -0.14245666549369845 0.003931400932927971
2343500000.0 0.1255604742295855 0.06839257111099947
2350000000.0 -0.006799797856542324 -0.14399986692891809
2356500000.0 -0.10860818040426377 -0.09603067593693851
2363000000.0 -0.12469104851118211 0.07685093055454938
2369500000.0 -0.010424079134226754 0.14783346694261795
2376000000.0 0.11763102618899106 0.0909514320704218
2382500000.0 0.14147619239421752 0.04823792970589547
2389000000.0 0.15016465010574806 -0.00012977744331901686
2395500000.0 0.14791905087411553 0.007351584991320283
2402000000.0 0.05124791898014319 0.1398393233195678
2408500000.0 0.12638056292643982 0.0811432728326103
2415000000.0 0.0704910655948119 0.12961264360704305
2421500000.0 0.010521400091696938 0.1451518918039232
2428000000.0 0.07707337331150887 0.12194889398512494
2434500000.0 0.11239151156313748 0.087092251894409
2441000000.0 0.09237910174762015 0.108884171544291
2447500000.0 0.13656501829936957 -0.042153367299894995
2454000000.0 0.037556362204653734 -0.13629368357848765
2460500000.0 -0.0488628845426109 -0.13027184468135514
2467000000.0 -0.03638609272169639 -0.13267630652674786
2473500000.0 -0.06982758789542087 -0.11844396614557079
2480000000.0 0.11115345397273597 -0.08097071741488758
2486500000.0 0.11583645322243849 -0.08093951007989016
2493000000.0 -0.032936073105451776 0.1377845706080713
2499500000.0 -0.06309887058097798 0.1304105380694537
2506000000.0 -0.14698667734270887 0.0200727216233478
2512500000.0 0.08852821374203176 -0.11872123797508043
2519000000.0 0.0685235586419889 0.1326860885897216
2525500000.0 -0.051222685659088336 -0.14524849992362435
2532000000.0 0.1503477928668759 0.04348483000704904
2538500000.0 -0.11081646401310544 -0.11266960040200583
2545000000.0 0.15325468678632098 -0.046789055814098875
2551500000.0 -0.15847317768726293 0.028690398181218255
2558000000.0 0.1407016486629353 0.0755783708854927
2564500000.0 -0.032740184124124196 -0.1565144037333802
2571000000.0 -0.01104281845812061 0.15911499399378523
2577500000.0 0.10975702260569914 -0.10976614061389564
2584000000.0 -0.12619962824084058 -0.08290488645228954
2590500000.0 0.05673245723325242 0.13509694052180263
2597000000.0 0.14133429294702227 0.010982363192241426
2603500000.0 0.0912716202093737 -0.10254416323633958
2610000000.0 -0.11853245979577232 -0.06288441183523187
2616500000.0 -0.04341510595417787 0.1213176819958108
2623000000.0 0.1251998113308106 0.021386752883101247
2629500000.0 -0.11299320635094488 -0.04152453488031778
2636000000.0 0.11485903136277929 0.004935660136820919
2642500000.0 -0.06853756562138655 0.08412472953855848
2649000000.0 -0.08989873680575507 0.04668780135648072
2655500000.0 -0.07402030028833854 -0.059087606954989144
2662000000.0 -0.07695048205011763 0.04283690788667635
2668500000.0 -0.03520668907312067 0.07367126000643204
2675000000.0 0.020851617860534123 -0.07410438327678734
2681500000.0 0.07348275767392198 -0.0008500917932675803
2688000000.0 0.06704323341779758 -0.03358059630309086
2694500000.0 -0.006668961982672488 -0.0764169279767698
2701000000.0 0.06220931004603322 -0.05170142766988565
2707500000.0 0.08225091620528983 0.0361826516023625
2714000000.0 0.07369821097035298 0.06630712169631268
2720500000.0 -0.012631567282338482 -0.10919641217717856
2727000000.0 -0.10931426933048194 0.05126605933957489
2733500000.0 -0.12371877406039335 0.05141164373700771
2740000000.0 -0.10933867987767483 0.09756267505840749
2746500000.0 -0.1528073541762461 -0.037278516640801874
2753000000.0 0.03033144412424477 -0.1675847436618019
2759500000.0 0.14613762810682324 0.1037644499223098
2766000000.0 -0.19174997985549855 -0.005803618110634527
2772500000.0 0.12868230978544515 -0.15643785915737354
2779000000.0 -0.059756803792102686 0.20477934851312296
2785500000.0 -0.1531564805738231 -0.16189449306013567
2792000000.0 0.22930818493380592 -0.042409554393412006
2798500000.0 -0.075692617022336 0.22989362703881444
2805000000.0 -0.21143576359672303 -0.13048571283536795
