!Created with skrf (http://scikit-rf.org).
# Hz S RI R 50.0 
!freq ReS11 ImS11
400000000.0 0.8679610281470687 -0.11674061614443214
420000000.0 0.8311168997732845 -0.0380879905665116
440000000.0 0.09765187539953409 -0.7789108482311886
460000000.0 0.5623215635780244 -0.37911259232122024
480000000.0 -0.18045284901081604 0.5783906666627318
500000000.0 0.5909391840579168 -0.18613970724575638
520000000.0 0.5238956297159938 0.37484488113679376
540000000.0 0.2390945567094187 -0.5568343738883521
560000000.0 0.34414774473056603 -0.4883090401022699
580000000.0 -0.384068109770539 0.3580758370531884
600000000.0 -0.3170330625682716 0.50682005827543
620000000.0 0.04095468762520215 -0.6096170580459873
640000000.0 -0.44582414411725174 -0.3691297708772315
660000000.0 -0.2974068675512905 0.4332255698117644
680000000.0 0.47328404482639164 0.04592014999669826
700000000.0 -0.45081948172527897 0.24246338769603493
720000000.0 0.5143661326257378 0.04580188638681097
740000000.0 0.4709104857082595 -0.007753464835467495
760000000.0 -0.19204070550385285 0.41764679911247965
780000000.0 0.4196967299043422 0.1484049650961958
800000000.0 -0.13144518942662795 0.35406605316155165
820000000.0 -0.20955907086226136 -0.2847091323480764
840000000.0 -0.3135503767325341 -0.11632874956495695
860000000.0 0.10896397152967076 -0.309034627303269
880000000.0 -0.15000204131044315 -0.23658722839677712
900000000.0 -0.1601305932994486 0.22100181351835016
920000000.0 -0.23060875997343447 -0.11601030065660282
940000000.0 0.21430409207626105 -0.019946773921157516
960000000.0 -0.1433695981156698 -0.10178570449298968
980000000.0 -0.05347938149142819 -0.13501515398709169
1000000000.0 0.12353786669628583 0.005330328694164892
1020000000.0 0.011402497568442237 0.11088373409039828
1040000000.0 -0.11862337059851723 0.056397502348490634
1060000000.0 0.1502456184011873 0.004518570039107641
1080000000.0 -0.1838976261416989 -0.09132500007540384
1100000000.0 -0.022757941727299922 -0.24373758405128176
1120000000.0 -0.03612175877498271 -0.28276360464510675
1140000000.0 -0.28036698636650814 0.10609902824743027
1160000000.0 -0.2728428295233399 0.18223495597991016
1180000000.0 -0.0774151725658544 0.3326814450088517
1200000000.0 -0.18804668375016148 -0.2967992341695026
1220000000.0 -0.18253223920494954 -0.32725863866037896
1240000000.0 -0.26865456250382047 -0.25917814484922713
1260000000.0 -0.17458939223500694 -0.3401599994788036
1280000000.0 -0.37574216027000124 0.022429870148525363
1300000000.0 0.2272834016129474 -0.2975617005529279
1320000000.0 -0.06814825869697165 -0.3773180569934169
1340000000.0 -0.3702608649317537 0.010221693446462747
1360000000.0 -0.0029348972665792904 0.3800889048710244
1380000000.0 -0.3571242043360849 0.1746622508337859
1400000000.0 0.36835046552477874 0.11647376875444247
1420000000.0 0.3812413335946824 -0.06758942924291762
1440000000.0 0.2572808408942196 -0.28977401132894054
1460000000.0 -0.027634327061732144 -0.387391777975389
1480000000.0 -0.04671972973201008 -0.390691573398153
1500000000.0 -0.27122723005119603 0.2872618532011958
1520000000.0 0.05081531950758035 -0.3834691359693498
1540000000.0 0.05719283165816437 0.35815732790066007
1560000000.0 -0.30294111306686344 0.1339112886386244
1580000000.0 0.2911791183922723 0.03174764009928952
1600000000.0 0.22976997410782277 0.1372493009007964
1620000000.0 0.1847653099226301 0.12580259026114168
1640000000.0 0.18669594006290846 -0.0125500737441889
1660000000.0 0.1494010804799578 0.07210081813429434
1680000000.0 -0.00982996145289899 0.1287171895401713
1700000000.0 0.08480094980934554 0.07229809998825709
1720000000.0 -0.09572614168795647 -0.02353211600568933
1740000000.0 -0.03816458296855348 0.07992434424762922
1760000000.0 0.06102992482521281 0.07171641803857949
1780000000.0 0.012231833523926169 -0.10683945273966702
1800000000.0 -0.11080716225582289 -0.059793685025798834
1820000000.0 0.11492878577655506 0.11030045245069348
1840000000.0 0.17626949994509228 -0.05813755531125248
1860000000.0 -0.028509328077210645 0.21725024113960692
1880000000.0 -0.1816042865402235 0.16019999503809468
1900000000.0 -0.22874012097883298 0.14441737454816977
1920000000.0 0.01445739160627929 -0.29183774108787797
1940000000.0 -0.2981708444090734 -0.05404144933214714
1960000000.0 0.2990880416401179 -0.06711539636159947
1980000000.0 -0.2979610583277501 0.09369149474655926
2000000000.0 0.06454287309777411 -0.30901180138008444
2020000000.0 0.2996521133942651 0.10060813938315144
2040000000.0 0.249285175988779 0.2109605723655368
2060000000.0 0.3103047124315284 0.08671986588359483
2080000000.0 -0.06157420321092644 0.3167425573929132
2100000000.0 0.1401864255281678 -0.2885400075499342
2120000000.0 -0.07418870716013655 0.3082039697484959
2140000000.0 -0.00848793862550844 -0.3191170468093152
2160000000.0 -0.05133558563711335 0.31019591224147103
2180000000.0 0.3067559302899151 -0.028533065470200826
2200000000.0 0.16671246142512405 -0.24841319869715273
2220000000.0 0.067996890732081 -0.2820714903404601
2240000000.0 0.24389578962385972 -0.14167952919620197
2260000000.0 0.017573397110567962 0.2680555214601697
2280000000.0 -0.24292345716099153 0.09567078523926555
2300000000.0 -0.24327900220489893 -0.03700179123862112
2320000000.0 0.0918768867187866 0.217505324724392
2340000000.0 -0.022188249682657268 -0.23050371357096108
2360000000.0 -0.1707440786209589 0.1608356288823101
2380000000.0 -0.07992780675976598 -0.2318817935755601
2400000000.0 0.13684070112082689 -0.2313501117778935
2420000000.0 -0.02232433019582829 0.29349096790095563
2440000000.0 0.2978768196790881 0.0962240971210417
2460000000.0 -0.3421682922511377 -0.05480905019413546
2480000000.0 0.23639206697335252 0.29483400992392794
2500000000.0 -0.4080363362052395 -0.06683720969942468
2520000000.0 0.2788005566902633 -0.35303968909165445
2540000000.0 0.17957703803818395 0.44815034171280754
2560000000.0 -0.4153575598501306 -0.30320129774102644
2580000000.0 0.519014989325636 0.14924571293356753
2600000000.0 -0.5219326649193554 -0.21410809165521205
2620000000.0 0.5124897604026527 0.2849844671245963
2640000000.0 -0.5862368086843764 -0.14967415951392
2660000000.0 0.5903669244039581 -0.19665851654352975
2680000000.0 -0.10146802582903204 0.6269048387923842
2700000000.0 -0.6454837080436433 -0.039748732992697704
2720000000.0 -0.41816133831560204 -0.5057126565180022
2740000000.0 -0.11503992047003421 -0.6527991259972283
2760000000.0 -0.029695567578327288 -0.6668823686227864
2780000000.0 0.6504565391399223 0.13928762661262253
2800000000.0 0.58568592675236 0.30217012560862605
2820000000.0 0.19200433604420236 0.6193600435796819
2840000000.0 -0.5665597660075746 0.2884256423793964
2860000000.0 0.16993363712691734 -0.5963301439209059
2880000000.0 -0.2176800870565183 0.5588588543345382
2900000000.0 0.5535074263319979 -0.16966271937682448
2920000000.0 -0.2411930942989403 -0.49787648802047035
2940000000.0 -0.5076101767804209 -0.13216161285214878
2960000000.0 -0.47599039642817265 0.15120899032774446
2980000000.0 -0.3305556471312527 0.33419841215106394
3000000000.0 -0.21983182434680304 0.3900094140742337
3020000000.0 0.015709491831241422 0.42262400202661987
3040000000.0 0.3565171542712399 0.1855997587170168
3060000000.0 0.13419622760742586 -0.35863873508120603
3080000000.0 -0.18711348668946198 -0.3175773803427653
3100000000.0 0.3080451317896058 0.19044208163713225
3120000000.0 0.34628808895500507 -0.058975494858907816
3140000000.0 -0.3515866036003696 0.0443031634498851
3160000000.0 0.33114242571215924 -0.11097048155740293
3180000000.0 -0.33495288696981435 -0.10744145605145368
3200000000.0 0.19089155455748058 0.29180665837497444
3220000000.0 0.3340364806633186 -0.0916776916612838
3240000000.0 0.011902311623531775 -0.34216237259590393
3260000000.0 -0.19266414820941416 -0.27187423596702076
3280000000.0 -0.3228437071723705 -0.03286660165478158
3300000000.0 -0.2734310725211758 0.1297811561890582
3320000000.0 -0.2674851552664011 0.09059472745033703
3340000000.0 -0.24500429476823538 0.06687378550073057
3360000000.0 -0.18732840591746747 -0.1287931013751555
3380000000.0 -0.0460619579208262 -0.19430256393640216
3400000000.0 0.057086530819775785 -0.16433438561919705
3420000000.0 -0.12007895940906486 -0.08995779276668156
3440000000.0 -0.11818320171287217 0.033848015780818835
3460000000.0 0.09446892861844124 -0.028184841822789745
3480000000.0 0.030323603701257088 0.07423279563659786
3500000000.0 0.07259856727143921 0.021671697650250257
3520000000.0 0.07518495756081194 0.0038954065657454497
3540000000.0 0.05975012395687774 -0.05261230756724056
3560000000.0 0.012243939504979602 -0.08827668622500504
3580000000.0 0.09583661574225869 0.007724849229979369
3600000000.0 -0.0992732255814063 -0.052790637035745776
3620000000.0 -0.12015503101999056 0.012817288115342676
3640000000.0 -0.11939457845523384 -0.0718536302983767
3660000000.0 -0.09120989210464046 0.11992998974731439
3680000000.0 0.09742965425349236 0.12256017583733272
3700000000.0 0.14343660152174834 -0.04196485691182841
3720000000.0 0.10454759751106364 0.08103297498366824
3740000000.0 0.11009538898784485 0.016720392459168218
3760000000.0 -0.06477991272833167 0.054821538620219074
3780000000.0 -0.048547932767632924 -0.038168649472055095
3800000000.0 -0.008710178182606476 0.029121811268981685
3820000000.0 -0.0032005375675168138 0.015278249622057483
3840000000.0 0.049073362527372356 0.013192168380620328
3860000000.0 -0.07339839466301788 -0.03890084629472097
3880000000.0 -0.07770117837394555 -0.07334751740900221
3900000000.0 0.11195446424314918 -0.06532771513609917
3920000000.0 -0.08918176339439163 0.11301577352594774
3940000000.0 0.1352514821002835 0.07183518658134697
3960000000.0 -0.1358939713149621 0.07498739997400018
3980000000.0 -0.1415700834664983 -0.027773067523425104
4000000000.0 0.10524950861138299 0.05443264325624922
