!Created with skrf (http://scikit-rf.org).
# Hz S RI R 50.0 
!freq ReS11 ImS11
400000000.0 0.8392347113774352 -0.24980397837356927
420000000.0 0.8255494474658597 -0.11609328059658904
440000000.0 0.08447892550796607 -0.7808270486399261
460000000.0 0.41985570311252796 -0.5363638407922751
480000000.0 -0.22223245292361124 0.557681741275335
500000000.0 0.5622227149410978 0.2519705092960494
520000000.0 0.629055520518384 0.14086309701534971
540000000.0 0.07060082410337658 -0.5982872559504157
560000000.0 0.5228247387347937 -0.2522682684464111
580000000.0 -0.4510394758683333 -0.25508778905232454
600000000.0 -0.4595557614317437 -0.3963961627007009
620000000.0 0.16671275930045026 -0.6033247951350371
640000000.0 -0.5810279693223298 -0.018558001358709997
660000000.0 -0.4510125590243133 0.255672323792955
680000000.0 0.3746997254846771 0.31551688855320575
700000000.0 -0.2653312299224456 0.4457351785117349
720000000.0 0.3676418513205006 -0.37439205046377866
740000000.0 -0.04819194339269031 -0.4808519346275017
760000000.0 0.40640541324426954 -0.20371806004896292
780000000.0 0.4056895310371506 -0.13076369239501376
800000000.0 -0.3390430735722849 0.14468577862090198
820000000.0 0.12564902173540826 -0.33163117039945517
840000000.0 -0.1591295106775853 -0.29742845954077185
860000000.0 0.3036750421195182 -0.09814863956588012
880000000.0 0.20674557036134278 -0.2094197277505442
900000000.0 0.1780045691031623 0.21095383725268907
920000000.0 -0.17151443439146966 0.17713653604738536
940000000.0 0.020981948321143442 0.218326952550343
960000000.0 0.07398329030368242 -0.15828163350515362
980000000.0 -0.14224162767468584 -0.02409081589734274
1000000000.0 -0.10312606123083007 0.07922641295370686
1020000000.0 -0.09851604117838426 -0.06629664522371272
1040000000.0 -0.10408085083844303 0.08610326111222939
1060000000.0 0.14917757605672538 -0.04261046413074474
1080000000.0 0.006544432277976016 0.20774224475219513
1100000000.0 -0.08873624270925903 -0.23408010974919297
1120000000.0 -0.22437490989886186 -0.17868733216623295
1140000000.0 -0.1462343815485212 0.26074741837783133
1160000000.0 -0.0004964129066907408 0.3299692537702321
1180000000.0 0.3103948114909817 0.13773484505219039
1200000000.0 -0.28551784677065084 -0.18395494674853993
1220000000.0 0.10160521837734018 -0.35865832442615575
1240000000.0 -0.19723889129289446 -0.31451740033578557
1260000000.0 0.11835150058416173 -0.36107705763422115
1280000000.0 -0.34827439952485195 -0.13556091025244343
1300000000.0 0.22747433837307626 -0.29772776964502845
1320000000.0 0.25601399900640537 -0.2807978875008048
1340000000.0 -0.22975598203085779 -0.2950651490569666
1360000000.0 0.3689184681514868 0.12695072149440997
1380000000.0 -0.2638135776920094 0.2962038416036236
1400000000.0 0.35322433502586 0.15748111893589858
1420000000.0 0.22407008298340286 -0.31592554398605927
1440000000.0 0.208297097908288 -0.32596105399049846
1460000000.0 -0.17920357848102147 -0.34874954884247855
1480000000.0 -0.36816453740304034 -0.11998452116138283
1500000000.0 -0.37064177979476737 0.11690068072312776
1520000000.0 0.24373344059854768 -0.29799284717000885
1540000000.0 -0.18984010216980376 0.30803384576608317
1560000000.0 -0.33024550022855165 0.04215336704850174
1580000000.0 0.2857700222857306 0.06367792156937754
1600000000.0 -0.0021682483716928286 0.268307093853495
1620000000.0 0.2264841036664198 0.03122796365699245
1640000000.0 0.19100451275017993 0.003075753946829266
1660000000.0 0.16543895655054205 -0.04644120459926844
1680000000.0 0.0027697737008636116 -0.12924235399511744
1700000000.0 -0.054559040342639524 -0.09418118789582347
1720000000.0 -0.036543578992162436 -0.08652453019830025
1740000000.0 0.056114084334188914 -0.06643031875472838
1760000000.0 -0.031182803856616953 0.09129636449111878
1780000000.0 0.09832641400811519 -0.04698710470343784
1800000000.0 -0.030434881981715282 -0.12613114478365522
1820000000.0 0.08930291207310301 0.13650652484747725
1840000000.0 0.06477762738790546 -0.17713963324151896
1860000000.0 0.05150582597372307 0.20893433996486088
1880000000.0 -0.13934925608892065 0.19238875360605975
1900000000.0 -0.26847312956537805 0.01877054169966415
1920000000.0 0.18683493862740472 -0.22309224481328568
1940000000.0 -0.29884543299721955 -0.04912253760297157
1960000000.0 0.24156401402174754 -0.18778570966819802
1980000000.0 -0.2981273224670527 -0.0853797661864752
2000000000.0 0.11609113243836801 -0.29412601185069165
2020000000.0 0.26558384770325805 0.18105803678908844
2040000000.0 0.29649775523559324 0.14395884131187772
2060000000.0 0.3141500299770663 0.07905687666786936
2080000000.0 0.02106053241620614 0.32591158412087184
2100000000.0 -0.12134555066390856 -0.2950749292822193
2120000000.0 -0.08250835096456258 0.30418589280301694
2140000000.0 -0.01747279664289002 -0.31524946487565275
2160000000.0 -0.23429663515114638 0.2065517932571923
2180000000.0 0.23478483102655115 0.19948485844141828
2200000000.0 0.1583606470150775 -0.25801765066276944
2220000000.0 0.02798910537390333 -0.29059811426542403
2240000000.0 0.18833795803912573 -0.20739113243508786
2260000000.0 0.00990227088871825 0.2658546996838227
2280000000.0 -0.25907417262534777 0.055773371315470215
2300000000.0 -0.2256244560649598 0.09650201420141424
2320000000.0 -0.019787713539039967 0.2332111034622728
2340000000.0 -0.003158656937110223 -0.23380565270943485
2360000000.0 -0.11136285691661803 0.20425720151495455
2380000000.0 -0.01687035043759068 -0.24642023674359806
2400000000.0 0.030390254195684294 -0.26714803629694134
2420000000.0 -0.1454768801368057 0.2553851809000933
2440000000.0 0.3149817123937701 -0.009086538477374246
2460000000.0 -0.34610623837409676 0.0216883547820756
2480000000.0 0.242576524689424 0.28916372764044934
2500000000.0 -0.3858024461430332 -0.1492440150752167
2520000000.0 0.260486012643387 -0.3669119897743198
2540000000.0 0.11738419058916463 0.4672366821506127
2560000000.0 -0.39097831931147603 -0.33414358618599826
2580000000.0 0.5238688933293695 0.12837513370368173
2600000000.0 -0.5077030997748867 -0.24477475214526728
2620000000.0 0.5274464924436502 0.2562841822255926
2640000000.0 -0.5844942483870124 -0.15416147480354156
2660000000.0 0.592860149798774 -0.19312563717047868
2680000000.0 -0.06827903148383377 0.6310212924258453
2700000000.0 -0.64634873268575 0.00994694569580601
2720000000.0 -0.4117930945244448 -0.5112867046651128
2740000000.0 -0.1142116738105956 -0.6534819772694339
2760000000.0 0.014494940079277652 -0.6671994007969458
2780000000.0 0.6542675211323704 0.12053764551856734
2800000000.0 0.5629316339162891 0.342712209569658
2820000000.0 0.18408455521630113 0.6217154032979562
2840000000.0 -0.5512262150658713 0.3143743106948912
2860000000.0 0.24816446025884928 -0.5668524514812937
2880000000.0 -0.2516095180871351 0.5439844577249332
2900000000.0 0.5637346147652871 -0.12758428811860772
2920000000.0 -0.16962402388221473 -0.5274359083283466
2940000000.0 -0.5230942141818491 -0.06880603829879288
2960000000.0 -0.3632311229572584 0.3457995118619044
2980000000.0 -0.25826478421839616 0.3913232707188674
3000000000.0 -0.21717343519108961 0.3904606263106841
3020000000.0 0.03921767058751197 0.42124134355254994
3040000000.0 0.24341066312799445 0.31943027501767657
3060000000.0 0.15740632507453525 -0.34995176942081063
3080000000.0 -0.10158909909259628 -0.355444695202935
3100000000.0 0.15673950458586428 0.3281514339556833
3120000000.0 0.34263060904644826 -0.0897816112956366
3140000000.0 -0.3204614008169914 0.1496326124644331
3160000000.0 0.3412862285367595 -0.06498728147242233
3180000000.0 -0.3375642078839456 -0.09745400928845105
3200000000.0 0.2228756533675022 0.26661281082207655
3220000000.0 0.2789885728623042 -0.20135275849525397
3240000000.0 -0.049500742040574176 -0.33822186349720873
3260000000.0 -0.20916544338268353 -0.259828878420209
3280000000.0 -0.3245735374942259 -0.014019230237190228
3300000000.0 -0.27464067105482765 0.13097766615482104
3320000000.0 -0.24786728541257766 0.13834543837162053
3340000000.0 -0.19628310177260727 0.16474497306328156
3360000000.0 -0.1930542389888069 -0.1225986256270494
3380000000.0 0.10820417017673627 -0.16823998381725333
3400000000.0 0.07031936505738633 -0.1598539296747155
3420000000.0 0.0009567637419114661 -0.15142353152256374
3440000000.0 -0.1218533737859205 -0.011071932062548638
3460000000.0 0.08047181150570155 -0.0506004907467108
3480000000.0 -0.07992011498584205 -0.003726114091103474
3500000000.0 -0.056367464038896364 0.05088569697088173
3520000000.0 -0.0035641379951673476 -0.07581080272108882
3540000000.0 -0.04310655661198808 -0.06605070601657186
3560000000.0 -0.04041974870210139 -0.07883422212457948
3580000000.0 0.0931298309789248 -0.02185916480937493
3600000000.0 -0.10727263739071728 0.028375358248804723
3620000000.0 -0.1233293102967293 -0.00898989399757086
3640000000.0 -0.1370599699479201 0.03919294417276145
3660000000.0 -0.047083093038088886 0.14321762475731387
3680000000.0 0.11028622866020563 0.11151613380593949
3700000000.0 0.14832209947585204 -0.0008253068804078069
3720000000.0 0.008787025105666089 0.1329789684002106
3740000000.0 0.10700864738929416 -0.029694795684583754
3760000000.0 -0.08340447085538029 0.02183716573095394
3780000000.0 0.05996162729982962 -0.007089864207644764
3800000000.0 0.025795292884726397 -0.016453948480072797
3820000000.0 -0.013353932685577627 0.006540577847152549
3840000000.0 0.04418203756858888 -0.0224378247839944
3860000000.0 -0.07235814911543371 -0.042750517791825995
3880000000.0 -0.08749982399118725 -0.061468098801725754
3900000000.0 0.10960525916175479 -0.07198741700831403
3920000000.0 -0.08167241654693422 0.11976438822492504
3940000000.0 0.13477344688491708 0.07742382962061392
3960000000.0 -0.026564377323704882 0.15343068395131357
3980000000.0 -0.13799141308138915 -0.0384403044734005
4000000000.0 0.10551586686340002 0.04972887829682186
