!Created with skrf (http://scikit-rf.org).
# Hz S RI R 50.0 
!freq ReS11 ImS11
400000000.0 0.8676525795062118 -0.11967078428824769
420000000.0 0.8304644311774574 -0.04950203417109167
440000000.0 0.06483837272240862 -0.7819332458768634
460000000.0 0.5674144363354947 -0.3719569493907737
480000000.0 -0.17079696474758585 0.5818734825311493
500000000.0 0.5845468771712636 -0.20542252370633635
520000000.0 0.5113951884750011 0.39345644492457044
540000000.0 0.25471463803758926 -0.5501739999534224
560000000.0 0.35126643649368416 -0.4826294832126595
580000000.0 -0.396083191368442 0.3446385596435665
600000000.0 -0.31251865565634207 0.5091455026422025
620000000.0 0.04614699431612026 -0.6088275756594997
640000000.0 -0.4824675310496247 -0.3187107874259227
660000000.0 -0.3065414595119149 0.4280794791586983
680000000.0 0.4746039979067613 0.03736505576416607
700000000.0 -0.46721402269336154 0.2100397108040056
720000000.0 0.5143427853827329 0.053985974995889904
740000000.0 0.4702319668765528 0.03158414740527045
760000000.0 -0.17240622760118998 0.42639278185027313
780000000.0 0.41628496256697395 0.15675536164025344
800000000.0 -0.17942553024097138 0.331700178508241
820000000.0 -0.22011255982294567 -0.2756998822034124
840000000.0 -0.32096526263867003 -0.09605738142848627
860000000.0 0.10333037507741315 -0.31074239402647513
880000000.0 -0.1523815049129435 -0.23491381617743345
900000000.0 -0.15190305279551572 0.22866561032147387
920000000.0 -0.21458917723732118 -0.14382836008493824
940000000.0 0.21547638933889843 0.013896547392368595
960000000.0 -0.12397310319372229 -0.12503761821798806
980000000.0 -0.05236076972182564 -0.13505539709136372
1000000000.0 0.12254714061771863 -0.01573743849910607
1020000000.0 -0.002553981262339324 0.11126238987922994
1040000000.0 -0.0858403850219445 0.09943892404155878
1060000000.0 0.15027694826166632 0.009332287728749835
1080000000.0 -0.20123071462072553 -0.04513680551230398
1100000000.0 -0.002194667158517886 -0.24452479314801262
1120000000.0 -0.005531165704987853 -0.2855350402082235
1140000000.0 -0.28010440069777504 0.10764368258354871
1160000000.0 -0.283163480142582 0.16555689290678527
1180000000.0 -0.09515802156899901 0.32814669219236053
1200000000.0 -0.1813540201177288 -0.3011178390620687
1220000000.0 -0.18074070741878323 -0.32812620744615173
1240000000.0 -0.2584191044330686 -0.26903088878585746
1260000000.0 -0.18169745751261662 -0.3361161315090181
1280000000.0 -0.37344981333291266 0.04934634557266797
1300000000.0 0.21355267500385064 -0.30758838755493106
1320000000.0 -0.08970335893848937 -0.37305115128287664
1340000000.0 -0.3707065365958496 0.005682800146390673
1360000000.0 0.00639585158234062 0.3807912737308698
1380000000.0 -0.3692380436476926 0.14842463089270064
1400000000.0 0.33889712020986984 0.1870034529436192
1420000000.0 0.3847252371293299 -0.04575635830226965
1440000000.0 0.25900546974787214 -0.2880585135031206
1460000000.0 0.03104319799596642 -0.3874967724652023
1480000000.0 -0.01834044412483834 -0.39482627114873137
1500000000.0 -0.3028452967037158 0.25367396280041327
1520000000.0 0.09484485219284847 -0.3748109670274863
1540000000.0 0.03466145071344441 0.3608303531657541
1560000000.0 -0.29650606261710644 0.14773307643889602
1580000000.0 0.29250702309568233 0.004862878638895951
1600000000.0 0.2276533772643902 0.14049112962839205
1620000000.0 0.21084985578713739 0.0755019649135543
1640000000.0 0.18062340359019408 -0.04855892332212793
1660000000.0 0.1520911115063832 0.06667582187593164
1680000000.0 -0.017534906116946827 0.12839831919620134
1700000000.0 0.08532570293853198 0.07304773275939994
1720000000.0 -0.09715345382324529 -0.016915287700105565
1740000000.0 -0.0768989986402768 0.04439535215113861
1760000000.0 0.06691648044155069 0.06681407098228796
1780000000.0 0.048661099999181695 -0.09667231076084745
1800000000.0 -0.11349575438684095 -0.055545669140717964
1820000000.0 0.06507143162516202 0.1460288466004156
1840000000.0 0.18344173429880092 -0.02972110471589624
1860000000.0 -0.05080368948491616 0.21338997456536915
1880000000.0 -0.20386047528527063 0.13051677132517928
1900000000.0 -0.23935359526814293 0.12501133222965194
1920000000.0 0.024359520376013192 -0.2904313313220737
1940000000.0 -0.301106531448757 -0.03311707682235566
1960000000.0 0.29501662634319453 -0.08157496637467745
1980000000.0 -0.2923976668065266 0.10954041894380848
2000000000.0 0.02441215963228518 -0.31505720634557655
2020000000.0 0.3015151983468084 0.09570610287186727
2040000000.0 0.2907265257031474 0.14947189770437994
2060000000.0 0.3133186806386004 0.07780251334320915
2080000000.0 -0.0744036696565205 0.3149028602328053
2100000000.0 0.1617080596210743 -0.2780826478625065
2120000000.0 -0.14726785959806551 0.28114964732971776
2140000000.0 0.03438170370049061 -0.31817941270874156
2160000000.0 -0.11343962394982547 0.29313085384293047
2180000000.0 0.3070774306787183 0.01632848482055611
2200000000.0 0.19118696681976144 -0.22955573466792473
2220000000.0 0.07933528679237074 -0.2785347752390191
2240000000.0 0.22874673073397073 -0.16463442652462623
2260000000.0 0.004086037499243218 0.2676230131958059
2280000000.0 -0.23138102577509412 0.12124959970213327
2300000000.0 -0.24370561264139137 -0.032720218376551466
2320000000.0 0.14606467314330618 0.18545271691933551
2340000000.0 -0.003980682449118306 -0.23192764546478123
2360000000.0 -0.14998816076074648 0.1811222292406801
2380000000.0 -0.13108994605092011 -0.2075303494487058
2400000000.0 0.14620209243344554 -0.22634293006652997
2420000000.0 -0.09374731382428313 0.2798163893877407
2440000000.0 0.29829568861494105 0.09673213137054863
2460000000.0 -0.3273990568040185 -0.1153153204219233
2480000000.0 0.20748919774040026 0.31611816138287313
2500000000.0 -0.40693161844965203 -0.07463380005969086
2520000000.0 0.29216409573679425 -0.342054582259762
2540000000.0 0.15156848403802026 0.4575438853490698
2560000000.0 -0.40358513915651134 -0.3184010608729551
2580000000.0 0.5097360210034264 0.1760037393580039
2600000000.0 -0.5349505382848015 -0.17802237429963702
2620000000.0 0.5424771598444359 0.22247174432213995
2640000000.0 -0.5951993447625701 -0.11106542362475932
2660000000.0 0.5767919891817908 -0.2349405746326591
2680000000.0 -0.04770701862244606 0.6340680859922727
2700000000.0 -0.6465914052623051 -0.03045280836344838
2720000000.0 -0.40953195916730173 -0.5133816297073133
2740000000.0 -0.02966438692225895 -0.6627766932703657
2760000000.0 0.05284848968260607 -0.6654277705156404
2780000000.0 0.6531381336014658 0.1260190669343189
2800000000.0 0.5669779205661867 0.33523101231920677
2820000000.0 0.18721447833299806 0.620480569188178
2840000000.0 -0.576363212389555 0.26741100246173005
2860000000.0 0.1577769906901137 -0.5996163367920625
2880000000.0 -0.22790544401740098 0.5550932060592361
2900000000.0 0.5486525332150275 -0.1840814120324046
2920000000.0 -0.23909888644711363 -0.500055524235091
2940000000.0 -0.5091404415286566 -0.12745468931699228
2960000000.0 -0.4807559308039007 0.13699861835830993
2980000000.0 -0.30930148841777994 0.35535676562278096
3000000000.0 -0.2704526163910561 0.35752791865201217
3020000000.0 -0.056154957654465536 0.419956251525056
3040000000.0 0.2730513870774775 0.29584985824105214
3060000000.0 0.21249545291237534 -0.31969734588707066
3080000000.0 -0.15677166737311474 -0.3327928015472856
3100000000.0 0.24048572416879865 0.27106867782781363
3120000000.0 0.35116002507662336 0.0007981589284562462
3140000000.0 -0.35017914547965934 0.05148109374659265
3160000000.0 0.3261235103965716 -0.12160050519810968
3180000000.0 -0.31523374893241984 -0.1551610054438817
3200000000.0 0.21240040343252511 0.27668015691880005
3220000000.0 0.3148407351670158 -0.1425713114552934
3240000000.0 0.015724525446198387 -0.34210685120889606
3260000000.0 -0.19823868809446232 -0.2685847245005988
3280000000.0 -0.3225028825439197 0.03775637673536955
3300000000.0 -0.25912417558737344 0.15872876078085385
3320000000.0 -0.2756962992950572 0.06565539495502676
3340000000.0 -0.24015086549140824 0.08624386532560532
3360000000.0 -0.17167009378979045 -0.1506646986922337
3380000000.0 0.003165615707871591 -0.2006173347734775
3400000000.0 0.07990590036420789 -0.1544045633908376
3420000000.0 -0.06542606391374382 -0.13520187083749752
3440000000.0 -0.11418083071290679 -0.04539872373978088
3460000000.0 0.09790243257411688 0.008178797115090446
3480000000.0 -0.006531998071466731 0.07888549314916264
3500000000.0 0.06293193594920114 0.04063974393085061
3520000000.0 0.06835340432875847 -0.027365682327353456
3540000000.0 0.013086740886684742 -0.07782818709973519
3560000000.0 -0.06182929057415268 -0.06397518148222307
3580000000.0 0.07967611247052263 -0.053019660547304906
3600000000.0 -0.11174960590039303 -0.008265626892125406
3620000000.0 -0.09138047152892978 0.07898035314249799
3640000000.0 -0.13421297681019778 -0.045074021088009536
3660000000.0 -0.035355643025691906 0.14731556484800595
3680000000.0 0.050354964002819476 0.14926988637116667
3700000000.0 0.14919974249868614 -0.02673424092528457
3720000000.0 0.03669886242874531 0.12810528406287575
3740000000.0 0.09281129172833662 0.062297547282002576
3760000000.0 -0.08509197536093803 0.001277379820263688
3780000000.0 0.03309769065086059 -0.052065251707707365
3800000000.0 -0.02861713569110091 0.00859963271459398
3820000000.0 -0.009072837875695782 0.012191859895370298
3840000000.0 0.03694908799179457 -0.03509602236010596
3860000000.0 -0.0814534950462323 0.022225797316348706
3880000000.0 -0.08604519829254324 -0.06493767276635729
3900000000.0 0.12519461790045278 -0.039304026736991224
3920000000.0 -0.10281292933021033 0.1027583809700844
3940000000.0 0.04594631899156792 0.14688702744430873
3960000000.0 -0.14392078097971958 0.05803867159050836
3980000000.0 -0.06782599422348608 -0.1267469133045335
4000000000.0 0.02117947501508979 0.11566187419484104
