!Created with skrf (http://scikit-rf.org).
# Hz S RI R 50.0 
!freq ReS11 ImS11
400000000.0 0.8737941996881465 -0.05360461496426412
420000000.0 0.8306906463837942 0.026050425438908086
440000000.0 0.4067494734220074 -0.676465361422471
460000000.0 0.5676899576284741 -0.3864059773524939
480000000.0 0.20546745502573063 0.5648533025483592
500000000.0 0.5691056337648843 -0.2387745651490085
520000000.0 0.4586932263703364 0.4491405763409774
540000000.0 0.42912974784448343 -0.43199997483372476
560000000.0 0.21572396645748393 -0.5553034599340343
580000000.0 -0.3694649611592049 0.36377953621185627
600000000.0 -0.5875414287764513 0.11513652706347713
620000000.0 0.11221733811849849 -0.5972367688309528
640000000.0 -0.06276845243894713 -0.5670620912182358
660000000.0 -0.4037509128599833 -0.3434480960072893
680000000.0 0.4896802859609334 -0.10264127681175951
700000000.0 0.49185730396092947 0.1599884565240837
720000000.0 -0.3650847912121205 -0.36268620300810367
740000000.0 -0.10017943006826467 -0.4403007437370745
760000000.0 -0.4232193356848278 -0.12467560318171023
780000000.0 -0.3081876565139382 -0.3126333457138003
800000000.0 -0.33656452014746163 -0.2122763849551244
820000000.0 -0.3610415274577934 0.09347829094378475
840000000.0 0.14351978470308807 0.30901801276232854
860000000.0 -0.2844425048471807 -0.12366143541124638
880000000.0 0.04628605272693307 -0.2689070632986048
900000000.0 -0.26576772414482663 -0.041850009123218665
920000000.0 0.2089008647427331 -0.15662973626690543
940000000.0 0.18765036165147728 -0.1306527471296022
960000000.0 0.06797794620366922 0.1689188224257029
980000000.0 0.0440135842449926 0.13668496835587007
1000000000.0 -0.08363615478185649 -0.07326570375149905
1020000000.0 -0.08487564885754094 -0.059275569434919934
1040000000.0 0.09181331282555891 -0.08284269966088649
1060000000.0 -0.14921166686423962 0.03706480366040671
1080000000.0 -0.08927049356389961 0.1863558190360639
1100000000.0 -0.1349590081624487 -0.20402170079958
1120000000.0 -0.2414371819225158 -0.1503481620034154
1140000000.0 -0.2647248102883311 -0.13541510881272606
1160000000.0 -0.33142994465295733 0.006852762947734987
1180000000.0 -0.018856087921523067 0.3491453311783889
1200000000.0 -0.3469802205175761 0.04909924854986284
1220000000.0 -0.2197185741552697 -0.30061876119340875
1240000000.0 -0.24784094871995843 -0.27182856409714573
1260000000.0 0.20591304103558766 -0.32071605910616513
1280000000.0 -0.3668108809377599 0.08524894657330051
1300000000.0 0.10661176493540958 -0.3580031704471232
1320000000.0 0.11174363829987714 -0.3650462448839854
1340000000.0 -0.31964048199688233 -0.18141423124422196
1360000000.0 0.18556078136326545 0.33685508088723287
1380000000.0 -0.258032182127514 0.30582729998575153
1400000000.0 0.38035197148256894 0.046699834566372514
1420000000.0 0.26206126065788493 -0.2848129108028423
1440000000.0 0.2776298395571702 -0.26443163129665964
1460000000.0 0.1202080521640475 -0.3730439636691342
1480000000.0 -0.13140219635141343 -0.3700511464969587
1500000000.0 -0.38413763319395516 0.10077689500614061
1520000000.0 0.0036619634092616704 -0.38805358731146683
1540000000.0 0.1537283128708187 0.3271129476853975
1560000000.0 -0.31854118403465304 0.0864999523174963
1580000000.0 0.2892904649414268 0.034118032220073875
1600000000.0 0.1080165326906647 0.2466529390013135
1620000000.0 0.1755782420475113 -0.14444954595800796
1640000000.0 0.058843271654108346 -0.1747261426064716
1660000000.0 0.06831226460510983 0.14998494415760302
1680000000.0 0.1023763104361478 0.07504818189784626
1700000000.0 -0.050370814385168404 0.09965797652192371
1720000000.0 -0.007920826676633831 -0.10130205915162392
1740000000.0 -0.03375715317881559 0.0846486352687145
1760000000.0 0.07262807706734858 -0.06072205332174196
1780000000.0 0.07373064116202052 -0.07307920573855409
1800000000.0 0.06017945038835326 -0.10887496936444947
1820000000.0 -0.06526125143687131 0.1485475572352688
1840000000.0 0.11811377264894973 -0.14843144424296778
1860000000.0 0.1505331074419012 0.15462750439193246
1880000000.0 -0.2354337781942872 0.026020751203214794
1900000000.0 -0.2670636972503354 0.0460628228488177
1920000000.0 0.19549290074354594 -0.2194480589424985
1940000000.0 -0.3045972266149746 0.02353949961364308
1960000000.0 0.1209342714712652 -0.282615148514939
1980000000.0 -0.2647379838706391 0.15846944740799865
2000000000.0 0.09168498290821855 -0.2989860481113943
2020000000.0 0.22796459975636799 0.22281670932240635
2040000000.0 0.28032169518131717 0.17249612176020465
2060000000.0 0.3002260927747031 0.11801785361096241
2080000000.0 -0.12154336505369849 0.2999368220926008
2100000000.0 0.055865631000504845 -0.3166338233102737
2120000000.0 -0.020687942682356127 0.31573322756955596
2140000000.0 0.015484140791353863 -0.3156420923575571
2160000000.0 -0.21476362440085128 0.23174585568855396
2180000000.0 0.30736196547150446 -0.005509019689161567
2200000000.0 0.18517036995997463 -0.23615617914679962
2220000000.0 0.002818200746515458 -0.2926081166944142
2240000000.0 0.1296257207660937 -0.24695549373788458
2260000000.0 -0.10083994769454933 0.24596282339256806
2280000000.0 -0.2490049996286586 0.09136718582043388
2300000000.0 -0.24607312635644701 -0.008996019252789271
2320000000.0 0.06588677402856356 0.2256731152274439
2340000000.0 0.030819068621102133 -0.2307606212411316
2360000000.0 -0.11055810345692242 0.20524396857654756
2380000000.0 0.007823772626883144 -0.24719804659274963
2400000000.0 0.03124093737243146 -0.2679521982708885
2420000000.0 -0.13111878069086963 0.26491636830786647
2440000000.0 0.31398341651111694 -0.02238392029522991
2460000000.0 -0.34408759671912575 0.016207140641191175
2480000000.0 0.18926039733920452 0.3247072856861244
2500000000.0 -0.37672109165477885 -0.17080764911775645
2520000000.0 0.3316708301448062 -0.3052407617023873
2540000000.0 0.18352911513085368 0.4463092317250489
2560000000.0 -0.4494469627412726 -0.24970581947678808
2580000000.0 0.5281999749046334 0.10299340934334424
2600000000.0 -0.4987467800139501 -0.2614560225923194
2620000000.0 0.5436406830543523 0.220674740762727
2640000000.0 -0.5878480170824779 -0.14290276803952945
2660000000.0 0.5909350803504816 -0.19716106522170482
2680000000.0 -0.09878886802817838 0.627858569005236
2700000000.0 -0.6438546117523098 -0.06656053002652883
2720000000.0 -0.38306566964059385 -0.5320511579213986
2740000000.0 -0.04300623572660529 -0.6610649148404552
2760000000.0 0.07021242756484401 -0.6629308313098523
2780000000.0 0.6426246028244993 0.16672892013375018
2800000000.0 0.5886752619048122 0.2942360968198688
2820000000.0 0.22716618661954793 0.6065037698279556
2840000000.0 -0.5587381160197246 0.30121939179724994
2860000000.0 0.17329102948363273 -0.5945541093539192
2880000000.0 -0.20376519212494973 0.5640197019450032
2900000000.0 0.5597166530102954 -0.14998520879798444
2920000000.0 -0.2844806164147472 -0.4751205756486194
2940000000.0 -0.5217626236776031 -0.0632860362944806
2960000000.0 -0.46809119497350665 0.176901285530562
2980000000.0 -0.3387940638032377 0.3280379235707729
3000000000.0 -0.22792360682682522 0.3858558777000595
3020000000.0 -0.1032103158914029 0.41118909984858165
3040000000.0 0.2779711299389061 0.2937716900172834
3060000000.0 0.18233361783911417 -0.3389537056937007
3080000000.0 -0.0699909154173276 -0.36185807454260216
3100000000.0 0.13262151712772052 0.3379082932051674
3120000000.0 0.3485540529688201 -0.04659299902271749
3140000000.0 -0.3471854620330201 -0.061174738317928544
3160000000.0 0.34635123791301 -0.027036403860162643
3180000000.0 -0.3373002893901679 -0.09009426603220495
3200000000.0 0.208420485973173 0.2770482201802696
3220000000.0 0.32764673588860843 -0.10719041700871705
3240000000.0 -0.02261690330302995 -0.342380544999435
3260000000.0 -0.3156827222697616 -0.1132685987169614
3280000000.0 -0.27508811214499623 0.17261433798218076
3300000000.0 -0.1627265924213732 0.25547448965775593
3320000000.0 -0.2521991127063606 0.12975363301017467
3340000000.0 -0.21840034791995758 0.13283284800879044
3360000000.0 -0.18956222642502596 -0.13184936526278748
3380000000.0 -0.06504595311430779 -0.1893653983627845
3400000000.0 0.1676981929293561 -0.04959123504123631
3420000000.0 0.03354810133662481 -0.15125146766988642
3440000000.0 -0.12606765537903422 0.0045135968860544945
3460000000.0 0.07074858315277385 -0.06895341917616618
3480000000.0 0.009738839592229993 0.07874898856760643
3500000000.0 -0.07259024052675911 0.005079652300479591
3520000000.0 0.0666950994916895 0.0346019340086263
3540000000.0 0.00209088457350623 -0.0798777836963409
3560000000.0 0.07689277451619708 -0.03902873951237506
3580000000.0 0.0956914217887667 -0.023388077573776336
3600000000.0 -0.10916790277729885 0.014591463779347245
3620000000.0 -0.11587227719094895 0.03352927572704689
3640000000.0 -0.1395608457254132 -0.0074215654561891435
3660000000.0 -0.03121523847355448 0.14627982701234477
3680000000.0 0.08400896043832226 0.13327345915510636
3700000000.0 0.06111975907616851 -0.1374351199456666
3720000000.0 0.12988559317403137 -0.002021532355183909
3740000000.0 0.07141423101514105 0.08443472978480145
3760000000.0 -0.08399589872442206 0.02072038641004469
3780000000.0 -0.047998069440919854 -0.042422061055067496
3800000000.0 0.019603434738973715 -0.02627027019278967
3820000000.0 -0.0011025256426281612 0.015417096234180102
3840000000.0 -0.034784137149446726 -0.033498414665766314
3860000000.0 -0.0339812509977114 0.07593152835395477
3880000000.0 0.020269945850921702 0.10444602325217561
3900000000.0 -0.08550349483310696 -0.09545112204455385
3920000000.0 -0.0023129184153180596 0.14417717022559817
3940000000.0 0.15587183995803758 -0.012427087725439108
3960000000.0 0.02925003428736072 0.15273168670212023
3980000000.0 -0.05786181852633955 -0.13444528019731034
4000000000.0 0.11071264371432875 0.0505278100936418
