!Created with skrf (http://scikit-rf.org).
# Hz S RI R 50.0 
!freq ReS11 ImS11
400000000.0 0.8625381582805193 -0.15017776371833969
420000000.0 0.828276641535434 -0.07408574683428265
440000000.0 0.04590618233283098 -0.7849160577220657
460000000.0 0.652515939374308 -0.1907000192918382
480000000.0 -0.14115538036483324 0.5871122746373365
500000000.0 0.5697164879213399 -0.2388342627425648
520000000.0 0.59237964024241 0.2546603497258789
540000000.0 0.34421729908807563 -0.5022354521002999
560000000.0 0.14090979458358918 -0.5799296575356965
580000000.0 -0.42385158256021566 0.31018897691458225
600000000.0 -0.5267439743428683 0.29258545583840395
620000000.0 -0.46126624816386247 -0.40963276508246005
640000000.0 -0.5544748942362269 -0.10395311252713169
660000000.0 -0.4763623880326258 -0.19954769290597757
680000000.0 0.03206842095687042 0.4894598123880051
700000000.0 0.11453707968446812 0.5030160625413278
720000000.0 0.3468080908023702 -0.3789022447833375
740000000.0 0.282146367311344 -0.37846958194286306
760000000.0 -0.12944546860251369 0.42786436358011287
780000000.0 -0.28266948500930256 0.33708119049949786
800000000.0 -0.17636833963430382 -0.3502949257387925
820000000.0 -0.06292442161845577 0.3628463142109194
840000000.0 -0.12019750249869521 0.30911588952155417
860000000.0 0.14888915458043855 -0.28338733148161027
880000000.0 -0.18934333660242056 -0.20059758509563588
900000000.0 -0.23154418023588352 0.14175668554850715
920000000.0 0.15902173687216103 -0.2071597301164145
940000000.0 0.2203140655457903 0.024559378922281657
960000000.0 -0.16753281337852974 0.07310079292114174
980000000.0 -0.12482337169681007 -0.07243623832928327
1000000000.0 0.11401817836829331 0.0348758804851568
1020000000.0 0.07077454551540246 -0.08591497612805643
1040000000.0 -0.07047100857939426 -0.10345808386438225
1060000000.0 0.1113739174672766 0.10400232574476735
1080000000.0 -0.1939108003382424 0.05983824733626121
1100000000.0 -0.0013688735139024241 -0.2473146625539108
1120000000.0 0.0838106631028764 -0.2663664020184279
1140000000.0 -0.27717340699230636 0.11990892835260118
1160000000.0 -0.2454923588271169 0.22700129238581182
1180000000.0 0.3239988028143131 0.10200148957282965
1200000000.0 -0.19468731426412966 -0.28634660624286573
1220000000.0 0.026294873867153803 -0.37435414675184747
1240000000.0 -0.19468177007123993 -0.3162042889024938
1260000000.0 0.10814562119693938 -0.3679819430604208
1280000000.0 -0.36604787876699707 0.10113971335466257
1300000000.0 -0.18962328494634048 -0.32184821281895803
1320000000.0 -0.07481858670762434 -0.3650410833677456
1340000000.0 -0.2516778642374773 -0.2718652027315592
1360000000.0 0.2339341553934596 0.30382786256185285
1380000000.0 -0.31774912393723626 0.2328857365768709
1400000000.0 0.3707251817424823 0.114428371806711
1420000000.0 0.23551450000840973 -0.3060680836825592
1440000000.0 0.22197560004079123 -0.31455571532178545
1460000000.0 0.018391786530294343 -0.3911041602034896
1480000000.0 -0.1906187645723097 -0.3431807339225649
1500000000.0 -0.39155191642144266 0.045476412255068856
1520000000.0 0.06568312685430594 -0.3831493936611423
1540000000.0 -0.03695641634009041 0.36139287502509065
1560000000.0 -0.3233628648024438 0.06471394479785154
1580000000.0 0.27762685273354665 -0.09384590587279225
1600000000.0 0.24208487599503953 0.10987452840674586
1620000000.0 0.2100926955815867 0.07069796820927933
1640000000.0 0.1707184525908484 0.07183531314292513
1660000000.0 0.10032251478679607 0.1355164762797756
1680000000.0 0.12713219174117565 -0.015918256069901257
1700000000.0 0.08298713558509507 0.07341187232765356
1720000000.0 -0.09654424968683391 -0.014989729061420046
1740000000.0 -0.030646300814436978 -0.08370046583203167
1760000000.0 0.04995566451052756 -0.08054913343064891
1780000000.0 -0.030122860476036968 -0.10147256498803212
1800000000.0 -0.08464724771549043 -0.09579208700299491
1820000000.0 0.08682632948960091 0.13381597984383697
1840000000.0 0.16935718734578828 -0.0768311027239623
1860000000.0 -0.1522838213315678 0.15643215002587466
1880000000.0 -0.07120884219403603 0.234651246423406
1900000000.0 -0.19638528838220437 0.18366886700176469
1920000000.0 0.12955862106679972 -0.2602580110667209
1940000000.0 -0.2861256133690402 -0.09860112085891451
1960000000.0 0.2594153613133571 -0.16370431009101885
1980000000.0 -0.31087083663630044 -0.0019628381254694423
2000000000.0 0.06066021534763257 -0.31058229651925184
2020000000.0 0.3147234506598921 0.050016197925552085
2040000000.0 0.3008247776304449 0.12238595968460766
2060000000.0 0.26001274924107254 0.18957892527488746
2080000000.0 -0.1431255149541538 0.29108357589930867
2100000000.0 0.02124309103309315 -0.31888804429507606
2120000000.0 -0.1799627115584906 0.26083705000551977
2140000000.0 0.04655283145958611 -0.3155413662663441
2160000000.0 -0.055258341460731025 0.3101334177561694
2180000000.0 0.305178744866112 0.02234713809529045
2200000000.0 0.18119496001222982 -0.23820453514627818
2220000000.0 0.05777298266066546 -0.2847982189402308
2240000000.0 0.2350698569951396 -0.1544932417055438
2260000000.0 -0.018826957441709397 0.2664750857298802
2280000000.0 -0.19095365920483892 0.1806754784777236
2300000000.0 -0.24184879244037533 -0.027318401576821045
2320000000.0 -0.015895551545464952 0.23663368180780167
2340000000.0 -0.04278259367912193 -0.230487411823683
2360000000.0 -0.15763777906877122 0.17292056387449936
2380000000.0 -0.08204548648682979 -0.23384237371790098
2400000000.0 0.10250534713525064 -0.24806144026416044
2420000000.0 -0.11376059250990518 0.2727109062530098
2440000000.0 0.30173016867929175 0.08861379322151326
2460000000.0 -0.34455879471294015 -0.033874801643794625
2480000000.0 0.21827092923933467 0.3084269135033104
2500000000.0 -0.4136301020053594 -0.012525168385262886
2520000000.0 0.23853858060732933 -0.3805468990588216
2540000000.0 0.12902969575702253 0.4638932494907338
2560000000.0 -0.4134803164775753 -0.3071019289678059
2580000000.0 0.5250409780215567 0.12331884108227507
2600000000.0 -0.5394703238482221 -0.16291810767059597
2620000000.0 0.5237681759959548 0.26386947526226195
2640000000.0 -0.5836996905289679 -0.16374468686131816
2660000000.0 0.5887372304427392 -0.20590267090619366
2680000000.0 -0.16024640989012737 0.6143713602346316
2700000000.0 -0.6266665869054725 -0.15695582076346618
2720000000.0 -0.3615132960085134 -0.5469132850518313
2740000000.0 -0.17538201989814203 -0.6391380346594702
2760000000.0 -0.03503132686163756 -0.6662178497645791
2780000000.0 0.6505666907009613 0.13290456120232713
2800000000.0 0.5993640124094605 0.27151066971266985
2820000000.0 0.20651660984299883 0.6136326748796271
2840000000.0 -0.5627305258426563 0.2927762558473422
2860000000.0 0.12287586442017387 -0.6076151605390111
2880000000.0 -0.1861238612497898 0.570596546153882
2900000000.0 0.5318853594050711 -0.22564581054838828
2920000000.0 -0.25197272486073435 -0.4924489470955298
2940000000.0 -0.5144552224991306 -0.10731182532256428
2960000000.0 -0.460601234312215 0.19453846728107657
2980000000.0 -0.3759650349921807 0.2808984009943937
3000000000.0 -0.30782588971429825 0.3265180325458147
3020000000.0 -0.061480697682743016 0.41985491114541146
3040000000.0 0.18987613872380452 0.35412909905994466
3060000000.0 0.22779934349114966 -0.3100499503799703
3080000000.0 -0.11151934630580493 -0.3510958017411516
3100000000.0 0.09020978471942309 0.3509754582399086
3120000000.0 0.35138568891150257 -0.0008543461174749
3140000000.0 -0.3514472568453045 -0.035118670334874987
3160000000.0 0.3476272264030367 0.0008515494516158072
3180000000.0 -0.3042080209984565 -0.17497284841285002
3200000000.0 0.21981755265891534 0.26949635616987855
3220000000.0 0.3367041870325478 -0.07258143612218686
3240000000.0 -0.007883385911655851 -0.34109948577305743
3260000000.0 -0.29574215617336314 -0.15114399287156735
3280000000.0 -0.3079786590265668 0.0997579489529698
3300000000.0 -0.16142353293208714 0.25475956270616756
3320000000.0 -0.20663163935650872 0.1930008553412102
3340000000.0 -0.16859288003341066 0.19243796908229382
3360000000.0 -0.22259918641526075 0.059889675462729657
3380000000.0 -0.1353481276620816 -0.14757794098872537
3400000000.0 0.050863452377794605 -0.16901337018710014
3420000000.0 -0.12649614524018096 -0.08488912248560544
3440000000.0 -0.12601526906330543 -0.00800464783927898
3460000000.0 0.01574716974750385 -0.09866210735936937
3480000000.0 -0.07731586886890107 0.021091638573749412
3500000000.0 -0.044424537146271426 0.06350426658885537
3520000000.0 0.06764619868990233 -0.03430497144406513
3540000000.0 0.07257322255258811 -0.032301710675554096
3560000000.0 0.06929605226045506 -0.05470374994074033
3580000000.0 0.07966860168670781 0.05079192718419456
3600000000.0 -0.06555465831651452 -0.09017292413761296
3620000000.0 -0.11888830274402014 -0.01064544213305471
3640000000.0 -0.1378576737542618 -0.02624140110602078
3660000000.0 -0.06741015906982732 0.13235635313191374
3680000000.0 0.14109956521703645 0.06862449414265316
3700000000.0 0.14595144961606601 -0.02754683534063063
3720000000.0 0.12861330193824683 -0.03635080110208974
3740000000.0 0.06878201876617801 -0.0875532367190155
3760000000.0 -0.05315988399996731 0.06707730613200438
3780000000.0 0.024602637520058687 -0.05715502456565255
3800000000.0 -0.024944743190246827 -0.02132845631719905
3820000000.0 -0.004706978266213396 0.0136363011674534
3840000000.0 -0.04316684419851002 -0.022550309401424086
3860000000.0 0.06390877580013454 0.05110328618912827
3880000000.0 -0.09794367435574429 0.040143335210639355
3900000000.0 0.007651708325616974 -0.12970861254593785
3920000000.0 -0.013636656023676903 0.14362590418109694
3940000000.0 0.13341062948019433 0.07856672752181766
3960000000.0 0.022617357916606406 0.15463953739576017
3980000000.0 -0.09661640650402224 -0.10947137765800377
4000000000.0 0.017560236880060153 0.12035765360625988
