!Created with skrf (http://scikit-rf.org).
# Hz S RI R 50.0 
!freq ReS11 ImS11
400000000.0 0.855228239010723 -0.1850728341945824
420000000.0 0.8241565477667813 -0.09537336839518962
440000000.0 0.17663566148706317 -0.7647939764538413
460000000.0 0.6550202534895619 -0.18712675765782344
480000000.0 -0.05809532765840872 0.6045404831390347
500000000.0 0.59055155674925 -0.17035745492792756
520000000.0 0.12065316357396164 0.6329961498540562
540000000.0 0.47291890493691563 -0.3999002049481734
560000000.0 -0.32981482410565865 -0.5044122164152564
580000000.0 -0.14064268109060174 0.4986885578867311
600000000.0 -0.33446891001731566 0.4940185398105681
620000000.0 -0.45712104634259526 -0.40457627582308847
640000000.0 -0.5100402691546155 -0.23311173998379975
660000000.0 -0.28836618815759124 -0.43342061862942916
680000000.0 0.46095227054508997 0.16516577298120297
700000000.0 -0.227077925654361 0.4539678862381683
720000000.0 0.24945308412568748 0.44956475457054085
740000000.0 0.38925047055602174 0.2748269299172762
760000000.0 -0.08802941692293602 0.46246054427364364
780000000.0 0.4092896154992667 0.1912760525175229
800000000.0 0.260202316602121 0.28499472640324863
820000000.0 0.012022812545382988 0.352931916926443
840000000.0 -0.17621917180986704 0.2628735888017377
860000000.0 0.3077345254733998 0.06615887655933031
880000000.0 0.05435514896901725 0.28188118109948995
900000000.0 -0.17809652532978248 0.21446555240070903
920000000.0 -0.18370648849332097 -0.1838398747079577
940000000.0 0.14365743408064732 -0.16322217297288713
960000000.0 -0.07743220330089245 -0.15825261026425044
980000000.0 -0.04717329740154682 0.1408661662690764
1000000000.0 0.03650378619363909 -0.13021292639796697
1020000000.0 -0.09046389420017152 -0.07285508898139804
1040000000.0 0.08324500141467836 -0.10262788289768103
1060000000.0 -0.12520840641674763 -0.08153134744140136
1080000000.0 0.0004120728305992079 0.19912917819378648
1100000000.0 0.01192162019820882 -0.2416149785753314
1120000000.0 0.17187776660870543 -0.22366533905008942
1140000000.0 -0.29684423072412053 -0.04332519753818702
1160000000.0 -0.15847728829453503 0.2984982254030519
1180000000.0 0.28856242318980396 0.1754101097194417
1200000000.0 -0.02126645425267187 -0.3424582819381207
1220000000.0 0.1406581548357875 -0.34683913704865177
1240000000.0 -0.08943469799331848 -0.3670311033483043
1260000000.0 -0.06881896533515566 -0.3822768930467628
1280000000.0 -0.11255352924721614 0.3608500287103497
1300000000.0 -0.046811358164162466 -0.3648743611550428
1320000000.0 0.11393670433956044 -0.3575926678554888
1340000000.0 -0.2600084485530052 0.26439782019552127
1360000000.0 0.24672697005606345 0.29523022220903883
1380000000.0 -0.24639326277767426 0.30910642356963103
1400000000.0 0.34196507700070783 0.18132056759351636
1420000000.0 0.3709427054963159 -0.10404926694706965
1440000000.0 0.3529743305782416 -0.1653971043058605
1460000000.0 -0.048836769213340646 -0.38766228115721185
1480000000.0 -0.0315404053299973 -0.39024255351091425
1500000000.0 -0.3079153150171049 0.2522777482111061
1520000000.0 -0.01368737718679714 -0.38455653509476384
1540000000.0 -0.06891618785084927 0.35523638025379295
1560000000.0 -0.30473767387410133 0.13061737383940442
1580000000.0 0.2802093532603801 -0.07962884818545758
1600000000.0 0.15863637695977956 0.21362357540510066
1620000000.0 0.22104760036967372 0.04087674377271563
1640000000.0 0.14930900261774513 0.11191972991598093
1660000000.0 0.1570028494331512 0.06448205444460588
1680000000.0 0.13003381326618474 -0.01463835872857203
1700000000.0 0.110468754016179 -0.0008628392741032878
1720000000.0 -0.07775344066743649 -0.05363446162236844
1740000000.0 0.05952965011418366 -0.06563397713076033
1760000000.0 0.10017688058873928 -0.0017349362947918288
1780000000.0 -0.07841076400905676 -0.06968180099898033
1800000000.0 -0.034205199931347 -0.12092971120430894
1820000000.0 0.0034025820661635845 0.15931573097861443
1840000000.0 0.16876689125768743 0.07847059072541211
1860000000.0 -0.03044837763587148 0.2165007440926236
1880000000.0 -0.1928399297815439 0.14533368857113466
1900000000.0 -0.20814125754475793 0.1722388962950704
1920000000.0 0.07340812819499799 -0.27927308269765827
1940000000.0 -0.30234225460624214 -0.03239025202703133
1960000000.0 0.2599175912989399 -0.16103751575596312
1980000000.0 -0.30913454833436427 -0.028011667702292818
2000000000.0 0.029630164316104764 -0.31621335377617965
2020000000.0 0.3178887095593196 -0.03548707572475377
2040000000.0 0.29330157418832337 0.13973681210951988
2060000000.0 0.3039679141188893 0.10647893158772508
2080000000.0 -0.06027853074732403 0.3184588347427875
2100000000.0 0.1670355081906656 -0.27263361958174037
2120000000.0 -0.1931196672978615 0.2511694651176424
2140000000.0 -0.021994116297186117 -0.3196667224391806
2160000000.0 0.0017453080308513643 0.3136267043534959
2180000000.0 0.30766358858770493 -0.01263375042894415
2200000000.0 0.13697745092918134 -0.26576317218953455
2220000000.0 0.04295385585658134 -0.2873270724799311
2240000000.0 0.19088339049040096 -0.20440032461091737
2260000000.0 -0.03753518280242709 0.265283805519997
2280000000.0 -0.22881288641317757 0.13265697537864313
2300000000.0 -0.24421867167976605 -0.00489968232713019
2320000000.0 0.05223435561774871 0.2332427688695533
2340000000.0 -0.21298883830949009 -0.09284743243162467
2360000000.0 -0.19495916533988897 0.1247796700214144
2380000000.0 0.03758050352191905 -0.2438162668194762
2400000000.0 0.09340313397755137 -0.25255831961994196
2420000000.0 -0.09202377082770878 0.2789295616380875
2440000000.0 0.29722664676562666 0.1045499126701892
2460000000.0 -0.34184209850149083 0.0573674273270672
2480000000.0 0.28976126760703835 0.24082438081803922
2500000000.0 -0.41151398052383475 -0.04206855875976325
2520000000.0 0.18833817698437202 -0.40836209703419574
2540000000.0 0.18176638208763635 0.44612090373711066
2560000000.0 -0.40880698168234014 -0.3122756569868758
2580000000.0 0.5197282783176296 0.14811326371910816
2600000000.0 -0.535744914421925 -0.17736027429066756
2620000000.0 0.5211345574738604 0.2690808029040554
2640000000.0 -0.5730480802665932 -0.19681791580237104
2660000000.0 0.5852915317102907 -0.21210874778561156
2680000000.0 -0.024352876590553567 0.6339484980198261
2700000000.0 -0.6446350302967491 -0.041425798017435476
2720000000.0 -0.4256999630104077 -0.4987330474382796
2740000000.0 -0.11204800980837709 -0.653632179673678
2760000000.0 -0.03336956881074488 -0.6670580007520734
2780000000.0 0.6592314573592533 0.09219337262185369
2800000000.0 0.5986321886288606 0.27767153476798034
2820000000.0 0.22813970012932847 0.6076970682318371
2840000000.0 -0.6063064156388825 0.1943208738409895
2860000000.0 0.22167894238876887 -0.5797206847185028
2880000000.0 -0.27928896677529863 0.5317960196165913
2900000000.0 0.563212901685011 -0.13180538613999976
2920000000.0 -0.22721198436073972 -0.5048839300915108
2940000000.0 -0.5175687420208778 -0.08318827079791277
2960000000.0 -0.4466587857799265 0.22185959628441806
2980000000.0 -0.2717973243193227 0.383373119428326
3000000000.0 -0.2005642979101407 0.39945305091223915
3020000000.0 0.13124632468567163 0.4025599613313823
3040000000.0 0.32824079871016687 0.23241817130138404
3060000000.0 0.1161634240221743 -0.3676340137288786
3080000000.0 -0.26007112882645295 -0.2619364483984013
3100000000.0 0.208147645639564 0.29512071794303263
3120000000.0 0.35006721045391714 0.03399879069314881
3140000000.0 -0.3541693505658465 0.012681051510206839
3160000000.0 0.3478209590671444 -0.0234948724875807
3180000000.0 -0.3239406201611237 -0.13916297393440377
3200000000.0 0.2354799585752946 0.2564491712231182
3220000000.0 0.32716141012145883 -0.11047777959375306
3240000000.0 -0.007462126705621623 -0.34115098628009355
3260000000.0 -0.24058622928741577 -0.2322264655017831
3280000000.0 -0.31192384944378715 0.09200647196939239
3300000000.0 -0.2529831912829664 0.1653937795855218
3320000000.0 -0.27962643842624924 0.04247690309318621
3340000000.0 -0.25456046415210204 0.03308109434949386
3360000000.0 -0.19303786130592568 -0.12540539465309183
3380000000.0 -0.025009643496968464 -0.19764721968353677
3400000000.0 0.14769632766398313 -0.09064690938595518
3420000000.0 -0.053649206639183246 -0.14047383670530353
3440000000.0 -0.04653003921811111 -0.11292213962370336
3460000000.0 0.06938926755365643 -0.06984067730158022
3480000000.0 0.03983208721918722 0.07017545310565278
3500000000.0 0.0739170858490695 -0.002454341215837429
3520000000.0 0.07064192060953746 -0.01640233231294308
3540000000.0 0.06399492710362965 -0.047754220530965126
3560000000.0 -0.056548946984862604 -0.07034465957040523
3580000000.0 0.06648197092008347 -0.0700879180861161
3600000000.0 -0.09566053100367161 0.05920060405290361
3620000000.0 -0.11798110806232066 0.025378854413143314
3640000000.0 -0.09893561918416349 -0.09892023714414638
3660000000.0 -0.05974568280583518 0.1392795672581067
3680000000.0 0.13588822654855093 0.08073247945281162
3700000000.0 0.1438160987745523 -0.040759615500568634
3720000000.0 0.09943169975983117 0.08610933857724724
3740000000.0 0.05588119553924228 0.09571276689031677
3760000000.0 -0.0837543462518878 -0.020646923714740754
3780000000.0 -0.02855293171713532 -0.05554403829141134
3800000000.0 0.010745646353312153 -0.028569847971933293
3820000000.0 -0.003787789168707201 -0.01499577068148752
3840000000.0 0.03978371091084487 -0.03000905562646554
3860000000.0 -0.08214644962341232 0.01459137578365155
3880000000.0 -0.09637746675749026 -0.048407622732036235
3900000000.0 0.10033850984034709 -0.08363422502699622
3920000000.0 -0.06172235642943161 0.13065239526948055
3940000000.0 0.11752525581034827 0.09877877036198002
3960000000.0 -0.06465336058723965 0.14099031896268138
3980000000.0 -0.1445590587752548 -0.01585803585940458
4000000000.0 0.09263284833705034 0.07403269434311983
