!Created with skrf (http://scikit-rf.org).
# Hz S RI R 50.0 
!freq ReS11 ImS11
400000000.0 0.8358294892777793 -0.2598126692576534
420000000.0 0.8237699945082295 -0.1273608186702516
440000000.0 0.13495371434412057 -0.7743486357394261
460000000.0 0.3853443056633327 -0.5618623067508163
480000000.0 -0.2927175806033955 0.5228582537862596
500000000.0 0.5799482106208121 0.21769823547193815
520000000.0 0.6410608495990255 -0.033076060819300715
540000000.0 0.3373738666655128 -0.492904287376134
560000000.0 0.5419809387464756 0.2209580518147803
580000000.0 -0.4514423788870946 -0.2658162025543347
600000000.0 -0.5681801193254586 -0.22403073531615333
620000000.0 -0.07992761053006378 -0.6211864222486984
640000000.0 -0.504689306436219 0.2824390356167148
660000000.0 -0.4478600499245989 0.2541086303120017
680000000.0 0.25470023317485124 0.4171210287366247
700000000.0 -0.3193709413163399 0.40758322602371583
720000000.0 0.4408858384557989 -0.2852407733684751
740000000.0 -0.07160798535022721 -0.4768997230133009
760000000.0 0.41271237117024995 -0.18829734062153086
780000000.0 0.40580676199379295 -0.12258180533856995
800000000.0 -0.3511960325238232 -0.10579549102826072
820000000.0 0.3112665208983777 -0.17242603534767997
840000000.0 -0.18963531556337845 -0.28282766891960265
860000000.0 0.2895074267210974 -0.14325730353878569
880000000.0 0.09348566009528812 -0.28090503312524456
900000000.0 0.252600971910411 0.10380347888342935
920000000.0 -0.19061685653300472 0.1523138798167174
940000000.0 -0.06243237269647559 0.20817422641591823
960000000.0 0.1556177261145137 -0.0812944443458559
980000000.0 -0.08806340645372389 -0.11950970097514747
1000000000.0 0.025941911542226304 0.13219403197997412
1020000000.0 0.08374015530223937 0.08532827682242008
1040000000.0 0.132360516386956 -0.012579026010391946
1060000000.0 0.1316389361010406 -0.07757369677333799
1080000000.0 -0.14962034812711777 0.14019782803016098
1100000000.0 0.18209120563964462 -0.1717377903851844
1120000000.0 -0.22617621488714068 -0.18242846172835356
1140000000.0 -0.04156138645219902 0.29742577494108835
1160000000.0 0.19882379193161054 0.2614756281262419
1180000000.0 0.2690676839576261 0.2014698106503564
1200000000.0 -0.19961130593074725 -0.27352995622539245
1220000000.0 0.13974577541617525 -0.345748577153478
1240000000.0 -0.23656974810852843 -0.2871195071845577
1260000000.0 0.10674196675295287 -0.36688168507691027
1280000000.0 -0.37363754443313174 -0.02133396815705157
1300000000.0 0.14904581803447656 -0.3420672781140486
1320000000.0 0.3230638160418467 -0.19529434629464298
1340000000.0 -0.3247985582067481 0.18733406810642847
1360000000.0 0.32167067771786745 0.2242266568149405
1380000000.0 -0.0799648518600547 0.39118246364296794
1400000000.0 0.3821477819703674 0.05450633986346453
1420000000.0 0.19193725480753293 -0.33479910685789693
1440000000.0 0.2777844739814537 -0.26513957162762336
1460000000.0 -0.039341825541901965 -0.3889089403234399
1480000000.0 -0.23304587022138445 -0.3116484216688769
1500000000.0 -0.38971458890293126 0.015172354671950217
1520000000.0 0.2460025887398005 -0.29570401243876476
1540000000.0 -0.1885444846011722 0.31029710499762236
1560000000.0 -0.3219394539146356 0.08708611780949334
1580000000.0 0.28876706687165143 0.04819556362922274
1600000000.0 0.07147895261426834 0.2599556134859387
1620000000.0 0.20306464557939052 -0.10643709753082103
1640000000.0 0.1432553036881558 -0.12309103912397876
1660000000.0 0.15199813360706457 -0.07655973902890656
1680000000.0 0.016249738949890465 -0.12601346638842248
1700000000.0 0.10306211092466633 -0.03189528433486925
1720000000.0 0.041784818769516445 -0.0862233413731922
1740000000.0 0.05747011001830483 -0.06688276009280254
1760000000.0 0.005222066776177611 0.09721393704283478
1780000000.0 -0.03374948566466605 -0.10398827762156392
1800000000.0 -0.06188454065778284 -0.11313623208432307
1820000000.0 0.14715092602054725 0.06918725579856143
1840000000.0 0.09997730925101285 -0.1576732431104955
1860000000.0 -0.014052589371260209 0.21324477373981857
1880000000.0 -0.2294395729841955 0.06347211890072445
1900000000.0 -0.2547176566706091 -0.09327214682668261
1920000000.0 0.1823599802673387 -0.22895497523770955
1940000000.0 -0.3043538943067985 0.018068762339959032
1960000000.0 0.20283962541876777 -0.2293207140417676
1980000000.0 -0.3094017014387852 -0.00534784430802154
2000000000.0 0.050566880507051305 -0.3124085807722755
2020000000.0 0.3081525875530971 0.08908402880466423
2040000000.0 0.3258974030968943 0.03835087660307707
2060000000.0 0.3111126483305135 0.08802526343545859
2080000000.0 0.009586681811871167 0.3256784365000087
2100000000.0 -0.002537655129942654 -0.3184755070559791
2120000000.0 -0.22710437321095214 0.22116203978249904
2140000000.0 0.12797201333751998 -0.29187068669856264
2160000000.0 -0.2074029897303964 0.2359599226010453
2180000000.0 0.2557304426408915 0.17319564692587372
2200000000.0 0.10907935376780865 -0.2810175463762596
2220000000.0 0.02931475361741242 -0.28926646517117466
2240000000.0 0.14049127021563818 -0.2406589888655543
2260000000.0 -0.038465295272526234 0.2622416548586382
2280000000.0 -0.2604145768606131 0.04174962922876096
2300000000.0 -0.24485163790268383 0.015372268086695385
2320000000.0 0.012724024061648739 0.23525913120298492
2340000000.0 -0.05140971885568884 -0.22806659225492118
2360000000.0 -0.0807672840503283 0.2191365330669873
2380000000.0 -0.11880585417430026 -0.21676932297560528
2400000000.0 0.022276450681280636 -0.26803636363468036
2420000000.0 -0.18936156373561328 0.22593177168956582
2440000000.0 0.29802040567229315 0.10127312073210817
2460000000.0 -0.3398279695996109 -0.06836059315496519
2480000000.0 0.1876719400905432 0.32890739083546533
2500000000.0 -0.38981777015315494 -0.14181016214078246
2520000000.0 0.2559175414142231 -0.36907156387740864
2540000000.0 0.13569431042245664 0.46150840676882054
2560000000.0 -0.40132114594794077 -0.3193860651836031
2580000000.0 0.5135871353035666 0.1639392943337862
2600000000.0 -0.49288013022742977 -0.27258732688271603
2620000000.0 0.5552032959253344 0.18989004537941637
2640000000.0 -0.5870156467263384 -0.14824229245997217
2660000000.0 0.5959864114695602 -0.18629094838110713
2680000000.0 -0.08074802380592559 0.629988317152553
2700000000.0 -0.641203521947641 -0.08689025005630224
2720000000.0 -0.3464392184686023 -0.5581921530841609
2740000000.0 -0.14129670029109426 -0.6488943968151325
2760000000.0 -0.023051343252241358 -0.6676465782295861
2780000000.0 0.6328941916674922 0.20459910372009735
2800000000.0 0.5471115159627976 0.3663163561555454
2820000000.0 0.1940368070459186 0.6181088857387145
2840000000.0 -0.5511824057063062 0.3145641357824258
2860000000.0 0.19711667437187014 -0.586866739347946
2880000000.0 -0.16312023930648198 0.5769347338492901
2900000000.0 0.5428080302930123 -0.19701051096949357
2920000000.0 -0.20345559999966736 -0.5141292473647487
2940000000.0 -0.5113784292766459 -0.1252300596172829
2960000000.0 -0.4353059647491967 0.24694149306649105
2980000000.0 -0.37245134119207307 0.28622354495532554
3000000000.0 -0.3192274823148941 0.316191642300728
3020000000.0 0.03325612120595452 0.4239479492395538
3040000000.0 0.34234430786912606 0.21179643568444229
3060000000.0 0.11033746346487465 -0.36668990206462754
3080000000.0 -0.14031485581147365 -0.3402380041985581
3100000000.0 0.14343059108801048 0.33157727304128637
3120000000.0 0.35001610174229003 -0.042823322611167086
3140000000.0 -0.35002085859151943 0.04508177232590569
3160000000.0 0.34800545906725117 0.0029474746159166535
3180000000.0 -0.3334308323209647 -0.1161030503081269
3200000000.0 0.18511156987668204 0.2945000891381849
3220000000.0 0.29306538534932774 -0.18329868131742677
3240000000.0 -0.12452506521023844 -0.3188236407951414
3260000000.0 -0.2744803462029223 -0.1913379737885207
3280000000.0 -0.3153066053009772 0.07591307162642569
3300000000.0 -0.24527644206180685 0.18126221155762184
3320000000.0 -0.25099335821738467 0.13111845640002265
3340000000.0 -0.20371794986063463 0.15312086445869655
3360000000.0 -0.13221682448373306 -0.18638970709120986
3380000000.0 0.1673967976907807 -0.11328949741930856
3400000000.0 0.07377517087107097 -0.159237040301037
3420000000.0 -0.018500823115005224 -0.15105439470691512
3440000000.0 -0.11311204768155067 0.04759706426546034
3460000000.0 0.06152190286286921 -0.07334835299293647
3480000000.0 -0.06431670393471532 0.046054359863089964
3500000000.0 -0.06537387021694258 0.03620494596159773
3520000000.0 -0.013661528862120768 -0.07327697725336829
3540000000.0 -0.002486060719508913 -0.07740827447598128
3560000000.0 -0.012857853686611574 -0.08736612236853056
3580000000.0 0.08388602726830305 -0.04731910937395102
3600000000.0 -0.09109392776763639 0.06446468485543067
3620000000.0 -0.11452214648084151 0.043649712654045394
3640000000.0 -0.11243454178707388 0.08684482608570884
3660000000.0 0.0060909155844326105 0.1509392056885922
3680000000.0 0.13051041619387727 0.08758655901940558
3700000000.0 0.1491252903589293 -0.01132019200680267
3720000000.0 0.01584384962280719 0.13317312567414516
3740000000.0 0.11111580967230393 -0.006618657358642085
3760000000.0 -0.08496065993434017 -0.005946252306463122
3780000000.0 0.025809490154842442 0.05529032341861223
3800000000.0 0.029674180339198105 0.001316834323839932
3820000000.0 0.011633252014284898 -0.0075066346576504175
3840000000.0 0.007637205049711803 -0.04943088458628569
3860000000.0 -0.06590744186227024 0.05280281963938216
3880000000.0 -0.08762779358518334 -0.061971953219254965
3900000000.0 0.1248824703803033 -0.03976891291892382
3920000000.0 -0.14368488097110255 0.013650531185568433
3940000000.0 0.03812964210343548 0.15123101306003872
3960000000.0 -0.10128588959369912 0.11933816499118448
3980000000.0 -0.12352486925149837 -0.0748877292727837
4000000000.0 0.10584036662233 0.05341051249291359
