!Created with skrf (http://scikit-rf.org).
# Hz S RI R 50.0 
!freq ReS11 ImS11
400000000.0 0.8511003373241426 -0.20603221351940992
420000000.0 0.8292154225381072 -0.06774751007980058
440000000.0 0.1185086815292097 -0.7761464569188966
460000000.0 0.590941869603047 -0.3334653798787537
480000000.0 -0.21906548881969135 0.5651871468819948
500000000.0 0.6092119065258006 -0.11255002577309042
520000000.0 0.5646928074225773 0.31167305548440455
540000000.0 0.2729921871852016 -0.5404433835456198
560000000.0 0.37901990457859414 -0.4631206821523039
580000000.0 -0.3976588656793363 0.3435896005728922
600000000.0 -0.3552285412476435 0.4810172499025373
620000000.0 0.04666550428047519 -0.6079983553662129
640000000.0 -0.4803729953875163 -0.32371967501097365
660000000.0 -0.27352023548130877 0.44930636677676183
680000000.0 0.47033598392804293 0.07558027305389191
700000000.0 -0.470845585828673 0.2030657887508456
720000000.0 0.5076508764359797 0.10215316654335789
740000000.0 0.4717793676661768 0.04018287089136765
760000000.0 -0.24349328399060013 0.39022174182568026
780000000.0 0.3602497255650134 0.262810744490411
800000000.0 -0.19896855714365194 0.31983369409151263
820000000.0 -0.20076918235790694 -0.2899519377697516
840000000.0 -0.3299770350809101 -0.04952947755214602
860000000.0 0.15310957913319648 -0.2899563638448692
880000000.0 -0.24200342059524066 -0.14067591154793688
900000000.0 -0.03992170198163669 0.2722497495090578
920000000.0 -0.23447362142295955 -0.11453555595679975
940000000.0 0.21700446190890418 -0.0077974220743235794
960000000.0 -0.12173635022166242 -0.12892978703904512
980000000.0 0.08603409899855388 -0.11693479960729854
1000000000.0 0.1085895249839996 0.05973923763388888
1020000000.0 -0.06099758164918004 0.09077748295218219
1040000000.0 -0.06143393710879543 0.11508908419609387
1060000000.0 0.08329549690417624 -0.12546252019231902
1080000000.0 -0.19346173854410711 -0.07386176936392949
1100000000.0 -0.09864203991853449 -0.22754383310567095
1120000000.0 0.057121975713483805 -0.28214099905718615
1140000000.0 -0.301813508684576 -0.015183135583685598
1160000000.0 -0.33022108990219085 -0.002471068025564911
1180000000.0 -0.20080417259334607 0.27528986444238646
1200000000.0 -0.1578141772453837 -0.3146739416333526
1220000000.0 -0.07904848571322402 -0.36456791624857793
1240000000.0 -0.22897464731158532 -0.2918480814365086
1260000000.0 -0.2221981124426506 -0.30933734610639635
1280000000.0 -0.3504007710466279 0.13508865111818963
1300000000.0 0.1397067019584151 -0.34767975605254686
1320000000.0 -0.15661142994563143 -0.3513326897899729
1340000000.0 -0.3701911784225915 0.050753611050056546
1360000000.0 0.049217690835770295 0.3794253986893959
1380000000.0 -0.375568361678136 0.13968644215209142
1400000000.0 0.3164028582862637 0.22792313408705242
1420000000.0 0.38881519086222316 0.018233773648217617
1440000000.0 0.316578457868875 -0.22652145163199622
1460000000.0 0.19460118093990725 -0.33730390204814237
1480000000.0 0.10192275316272453 -0.3811134956795016
1500000000.0 -0.36714894062159875 0.13978759024377113
1520000000.0 0.17339276020107794 -0.3461278920520303
1540000000.0 0.047565093236434826 0.35772253385403285
1560000000.0 -0.29607843771962206 0.1440378329108489
1580000000.0 0.29163928399063754 -0.0064952231526668285
1600000000.0 0.266058970650836 0.021339123116290902
1620000000.0 0.21763751364971343 -0.054440745322351033
1640000000.0 0.1354295960892322 -0.13130420111033425
1660000000.0 0.15537447532070006 0.06504843220410653
1680000000.0 0.04125016668065503 0.12483446786614003
1700000000.0 0.06987701704592354 0.0899746165655431
1720000000.0 -0.07458761907250169 -0.06814075688027563
1740000000.0 -0.08863046329143595 0.02048311332373694
1760000000.0 0.034091099260220505 0.09116651571390383
1780000000.0 0.10448703675342857 -0.03297557732342886
1800000000.0 -0.00011784984538631755 -0.1278766840693065
1820000000.0 -0.049035178096192567 0.15225841068364235
1840000000.0 0.16220425557691423 0.09196091933141987
1860000000.0 -0.1563712432542818 0.15353270631686683
1880000000.0 -0.23726800852449045 0.04415651996566208
1900000000.0 -0.2605111759192369 0.06822449528045918
1920000000.0 0.054029109992906776 -0.28543483270916853
1940000000.0 -0.294116474050429 -0.06338535921595385
1960000000.0 0.25981505499994045 -0.15968949263623802
1980000000.0 -0.27003571454543845 0.1567776459371258
2000000000.0 -0.06438984651715003 -0.3091771915059125
2020000000.0 0.3167973842012363 0.02769946728057864
2040000000.0 0.305627239061446 0.12086254621344042
2060000000.0 0.32319708220057913 0.03282473975160777
2080000000.0 -0.10832574844007502 0.3066557445623447
2100000000.0 0.2281702307415223 -0.23022360882316079
2120000000.0 -0.22405046622975355 0.22672130811637464
2140000000.0 0.1824683737084036 -0.26277699207091254
2160000000.0 -0.1834530866952345 0.2546138976533916
2180000000.0 0.2829026619132034 0.11762862864421782
2200000000.0 0.23659902798246676 -0.1809727676907313
2220000000.0 0.05598122607675855 -0.28262694068409233
2240000000.0 0.21585211207543634 -0.179439286268967
2260000000.0 0.0020835634024538177 0.267991501926609
2280000000.0 -0.18955240299821136 0.1808186086851954
2300000000.0 -0.2387900692221029 0.06032833001402024
2320000000.0 0.09446748565004563 0.21661881936669553
2340000000.0 -0.03664823393325724 -0.2295636408603105
2360000000.0 -0.09693204759642347 0.2160663780003064
2380000000.0 -0.07538100938181334 -0.23494682302661735
2400000000.0 0.19556919562545422 -0.18593947644628084
2420000000.0 -0.14072419000596473 0.26202830503269897
2440000000.0 0.2907351814763431 0.11762875679079984
2460000000.0 -0.29870208211406624 -0.1760390149674764
2480000000.0 0.12722252901270675 0.35643513958728396
2500000000.0 -0.3732174279905875 -0.17672824596085718
2520000000.0 0.32874975260943395 -0.30685679204294364
2540000000.0 0.12078128813671955 0.4660673481964835
2560000000.0 -0.3742355079943109 -0.35162858935973273
2580000000.0 0.5178231880722071 0.14966831091174745
2600000000.0 -0.5333535299632223 -0.18401229488430984
2620000000.0 0.5444410667909444 0.21798712053910096
2640000000.0 -0.5925723900342419 -0.1268345414874422
2660000000.0 0.581654337878155 -0.22465126279414432
2680000000.0 -0.10109145374557546 0.6291757221304671
2700000000.0 -0.6405224568095378 -0.09953137371854469
2720000000.0 -0.3258770321910928 -0.5714513319393025
2740000000.0 0.015040702478749788 -0.6640795107233928
2760000000.0 0.16487488011113827 -0.6475322110667485
2780000000.0 0.6176084126663675 0.24658143111849565
2800000000.0 0.528008913176178 0.3935832116550566
2820000000.0 0.12501168606099877 0.6350090713334202
2840000000.0 -0.5951104629001792 0.22077625515677138
2860000000.0 0.17055555631885036 -0.5949809261278005
2880000000.0 -0.18158983501520157 0.5711683434084057
2900000000.0 0.5427131985099543 -0.20282492507873628
2920000000.0 -0.30983811279260903 -0.45933142206162375
2940000000.0 -0.5175115941777086 -0.09080261342022229
2960000000.0 -0.4542020336264347 0.21373791286606586
2980000000.0 -0.28546810463885525 0.37611506222282015
3000000000.0 -0.2708926067604703 0.3597871899183621
3020000000.0 -0.12339475649454523 0.4076647262415393
3040000000.0 0.25591278553738744 0.31171395124687035
3060000000.0 0.2772202783902816 -0.26625933752058173
3080000000.0 -0.06141648619878787 -0.3626732984954662
3100000000.0 0.0824640163172799 0.3531498027442844
3120000000.0 0.3503532497790257 0.011929276313955345
3140000000.0 -0.3513801805690142 -0.009316092486628043
3160000000.0 0.34154410805651353 -0.06290901994600509
3180000000.0 -0.34527849476427863 -0.061511339528810154
3200000000.0 0.26963099805860563 0.21973044314504137
3220000000.0 0.28890327068764254 -0.1894626410239734
3240000000.0 -0.08505848330974426 -0.33300840553887073
3260000000.0 -0.2686222375864479 -0.2014646630124418
3280000000.0 -0.3210321681626631 0.06069489272409622
3300000000.0 -0.2627475118032804 0.156802803748258
3320000000.0 -0.2852106797256307 0.006264786430454187
3340000000.0 -0.2418418132867924 0.08568717102032528
3360000000.0 -0.08884206662208727 -0.21161368452233714
3380000000.0 0.09740233824327243 -0.17687436406961954
3400000000.0 0.15433187701526757 -0.07889345315957894
3420000000.0 0.030951842796074377 -0.14627204656898563
3440000000.0 -0.08275455733063986 -0.09051054593862189
3460000000.0 0.09635331265195998 0.003769604434448632
3480000000.0 -0.034863934347609225 0.07051683323303769
3500000000.0 0.07252343205669774 0.014536004772806447
3520000000.0 0.026725481464792932 -0.0673801447282777
3540000000.0 -0.02239398332126404 -0.075400712526152
3560000000.0 -0.08858135155649409 -0.012721727763167325
3580000000.0 0.03705036368676039 -0.08860114405431432
3600000000.0 -0.10886085821590055 0.029812469771786074
3620000000.0 -0.08879432124096606 0.08484836219588573
3640000000.0 -0.1391092101361136 0.02568658457435729
3660000000.0 -0.07983058286401412 0.12961794619783815
3680000000.0 0.010571650405038038 0.15893024183754179
3700000000.0 0.11220918888126843 0.10408525420493689
3720000000.0 -0.014947348311261141 0.13256673809824238
3740000000.0 -0.027394855405357677 0.10782577114631245
3760000000.0 -0.0033793865547604397 -0.08457372907054367
3780000000.0 0.056789449365915 0.020036338043268456
3800000000.0 -0.02803047069090131 -0.0024778054382203754
3820000000.0 -0.014472958693009602 -0.005562107210218846
3840000000.0 -0.03558167642935555 -0.039180692696884664
3860000000.0 -0.08605731678150087 -0.006501288205610893
3880000000.0 0.00515996430041338 -0.10923269456288638
3900000000.0 0.07377414742850083 0.10980984014254831
3920000000.0 -0.14606853521208024 0.0017673063527278072
3940000000.0 -0.08219438153513706 0.13018083002748917
3960000000.0 -0.14521864932230205 -0.054165969738137275
3980000000.0 0.04239365585419428 -0.13627585895557065
4000000000.0 -0.06304423642379237 0.0966453523095592
