!Created with skrf (http://scikit-rf.org).
# Hz S RI R 50.0 
!freq ReS11 ImS11
400000000.0 0.8600132548695155 -0.16639649244912974
420000000.0 0.813364737800783 -0.16723260213005262
440000000.0 0.16650371174320708 -0.7688554764694603
460000000.0 0.5445345547249905 -0.4015324224649012
480000000.0 -0.22213680149788223 0.5608748625321749
500000000.0 0.6152067869500828 -0.04922388966110086
520000000.0 0.42462046574992895 0.48504680293356517
540000000.0 0.5624082453943644 -0.24658583426831668
560000000.0 0.3627013579340158 -0.4871932519717529
580000000.0 -0.06501441809810464 0.5244868265056574
600000000.0 -0.029424538322369343 0.5990781614337141
620000000.0 -0.5738331463504892 -0.20356351335946507
640000000.0 -0.549974818457505 -0.11144589672765214
660000000.0 -0.5198093655776573 -0.0040376392128157225
680000000.0 0.3327561936099019 0.3563218914018595
700000000.0 0.16415381222024236 0.48507005703476974
720000000.0 0.4771201084591934 -0.18677214914490164
740000000.0 0.46029221527239256 0.0640602726891777
760000000.0 -0.31490344405435616 0.3280842913748074
780000000.0 -0.3921632739221116 0.2056745524350157
800000000.0 -0.27681594130662196 -0.2752925967088315
820000000.0 -0.2990849250603413 0.21865623500793713
840000000.0 0.05193351667363126 0.3319957867019428
860000000.0 -0.02603769831251414 -0.32147735526457766
880000000.0 -0.2760344733871203 -0.01570143325951352
900000000.0 -0.1365366073502068 0.22811265127019345
920000000.0 0.2110774205155732 -0.15088796033580693
940000000.0 0.15161320815687757 -0.1603641104679315
960000000.0 -0.1465740419706202 0.10853311619464458
980000000.0 -0.011898105060516515 0.14410583277180075
1000000000.0 0.08297491909988691 -0.08550910790893042
1020000000.0 0.047247935782821125 0.09253276876549459
1040000000.0 -0.12235429273324262 0.01677093202050537
1060000000.0 0.08460467938876647 0.11735263132023484
1080000000.0 -0.04213977342608588 -0.19461240413341307
1100000000.0 0.24575211402711353 0.02756632787078882
1120000000.0 0.16057725160117384 -0.23439820463399658
1140000000.0 -0.26623858403449946 -0.15686778372335686
1160000000.0 -0.19319444883302214 0.2797144429554022
1180000000.0 0.31856313254557667 -0.12337901203110561
1200000000.0 -0.32638294788320377 -0.10670878635920313
1220000000.0 -0.03535979436189928 -0.37045794240887503
1240000000.0 0.019667341401374713 -0.37109229974333063
1260000000.0 0.1149029666715468 -0.36721465238779877
1280000000.0 -0.33302185942796503 0.17677443946131588
1300000000.0 -0.19318869031954092 -0.3170228152486058
1320000000.0 -0.06313709226862606 -0.37033854298503577
1340000000.0 -0.22663935286846548 0.28851986540279895
1360000000.0 0.03712425719214726 0.38221329393840164
1380000000.0 -0.34054883585530327 0.20641733496176398
1400000000.0 0.35085764734867864 0.170708479623933
1420000000.0 0.16615298600467032 -0.3534166977968367
1440000000.0 0.01225179878621296 -0.38175152408189317
1460000000.0 -0.03509619857827331 -0.38802493804429583
1480000000.0 -0.14544787910556434 -0.3613074635280184
1500000000.0 -0.3931983448679887 -0.015804679202614604
1520000000.0 0.11155016226319404 -0.37379497330950273
1540000000.0 0.17276151897771105 0.3208776763785114
1560000000.0 -0.28897931165435575 0.15239443170347988
1580000000.0 0.235237534612272 0.1728226136525067
1600000000.0 0.16634621033135405 0.21554790425972728
1620000000.0 0.18477124705208003 -0.1276581083484214
1640000000.0 0.1722103341532502 -0.06593253452806239
1660000000.0 0.08270031340121375 0.14539488823886404
1680000000.0 0.08084531394446359 0.10059091859206767
1700000000.0 0.07585045255736782 -0.07837986290494885
1720000000.0 0.041436132850020055 -0.0892386553555133
1740000000.0 -0.06823395769934827 -0.0578203221275179
1760000000.0 0.09659397407355008 0.015448812530676597
1780000000.0 -0.0877914244346124 0.05654565066004592
1800000000.0 0.0879218444446279 -0.08879538717803737
1820000000.0 -0.06426816399724616 0.15011805780234072
1840000000.0 0.15865904344311138 -0.10137074672713184
1860000000.0 0.08075146152634502 0.20214891215115816
1880000000.0 -0.12560721315510734 0.20531924679617114
1900000000.0 -0.2616078746403717 0.059940206733837084
1920000000.0 0.17590604596067094 -0.23663275095281727
1940000000.0 -0.30025846153212704 0.04649139849065548
1960000000.0 0.2229488914110467 -0.20776392365398394
1980000000.0 -0.3022905699128044 0.0737524818003328
2000000000.0 0.12936934211036594 -0.28721584031195146
2020000000.0 0.28968207873604934 0.1332781330610001
2040000000.0 0.29657264272103534 0.13728750014955973
2060000000.0 0.3079393784504374 0.09341257511029488
2080000000.0 -0.20794479084807693 0.24788107517867425
2100000000.0 0.08221946665024504 -0.30980640003542814
2120000000.0 -0.07757997709714932 0.3082686177184772
2140000000.0 -0.06642205568048425 -0.3114256581879883
2160000000.0 -0.07001353522992655 0.3052616306419331
2180000000.0 0.282972320272776 0.11619334016812835
2200000000.0 0.2655394877520338 -0.1385912497541702
2220000000.0 0.07097428371536357 -0.2839978166788484
2240000000.0 0.14118794118139563 -0.2448780607450621
2260000000.0 -0.01985507653848973 0.26407845648418293
2280000000.0 -0.2489100691413865 0.08379462902795412
2300000000.0 -0.2442709453647248 0.016943232824471514
2320000000.0 -0.0943700412953669 0.21558842573215634
2340000000.0 -0.06963325345415101 -0.22431076969777425
2360000000.0 -0.07319461945360933 0.22238314650285151
2380000000.0 -0.07244311472164004 -0.23608625979572717
2400000000.0 0.09545649616903797 -0.2513982339355567
2420000000.0 -0.07529835968575713 0.2856624740102682
2440000000.0 0.2776365442571875 0.14918004229111967
2460000000.0 -0.3421201696513318 0.0602928143781149
2480000000.0 0.17843038193947394 0.33183526647809164
2500000000.0 -0.3962029280377017 -0.1190337197680804
2520000000.0 0.26198191475316146 -0.3660058010330915
2540000000.0 0.08219484084005851 0.47507125803730993
2560000000.0 -0.4270856686568628 -0.287237791388987
2580000000.0 0.5201151331069452 0.14134518589384643
2600000000.0 -0.5223363268994037 -0.21022062522440088
2620000000.0 0.5340114631659468 0.2415672260974072
2640000000.0 -0.5913360972019206 -0.13040926909841127
2660000000.0 0.5833739105132462 -0.2201015573899203
2680000000.0 -0.13597164092018496 0.6203063268833388
2700000000.0 -0.634368426586021 -0.12231385822272071
2720000000.0 -0.3416178621020107 -0.560042835302732
2740000000.0 -0.1812493150395082 -0.6382665210765484
2760000000.0 -0.02413124325377374 -0.6672418410749035
2780000000.0 0.6367849100413768 0.18853302552180987
2800000000.0 0.5812149003249284 0.3084507495198671
2820000000.0 0.19036609107406438 0.6188202121222198
2840000000.0 -0.5932107468880257 0.22597549026270602
2860000000.0 0.16793493699065193 -0.59548155806053
2880000000.0 -0.16394218341908107 0.5765959761442958
2900000000.0 0.5187844360495971 -0.2520914264799391
2920000000.0 -0.27582690495122153 -0.4787209587839048
2940000000.0 -0.5102136957767957 -0.1253768049924816
2960000000.0 -0.47241735465780416 0.16325493471483032
2980000000.0 -0.4064185568052225 0.23746012244470097
3000000000.0 -0.27061323433693196 0.3597406526705563
3020000000.0 -0.012544712504539568 0.4246475009197043
3040000000.0 0.3170819041857943 0.24516091149832916
3060000000.0 0.24900661565415325 -0.2922519017668799
3080000000.0 -0.11344393514291129 -0.34907645791014297
3100000000.0 0.09966193771582506 0.34715040690913995
3120000000.0 0.3251317672316162 0.13111418413093592
3140000000.0 -0.3314258076145266 -0.12550839455143428
3160000000.0 0.34895308728034075 -0.0036302917593196804
3180000000.0 -0.32922857980242504 -0.12141265831258967
3200000000.0 0.2624631218745959 0.22739898614187093
3220000000.0 0.33572147286513876 -0.07383441238762006
3240000000.0 -0.08122361459482152 -0.33169151420054094
3260000000.0 -0.2719051771968342 -0.18983372638791957
3280000000.0 -0.32264051288138573 0.03627938001244551
3300000000.0 -0.2266905499456865 0.20124737255090921
3320000000.0 -0.21525683482943928 0.18509004034002485
3340000000.0 -0.13586251399150182 0.2158037085982426
3360000000.0 -0.2282885143954992 -0.029980142193322366
3380000000.0 -0.12705828844457215 -0.15722585438885822
3400000000.0 0.05079429994315104 -0.167234901522067
3420000000.0 -0.13028858783336533 -0.07788349259710059
3440000000.0 -0.11554002944750406 -0.046916627744502344
3460000000.0 0.06073357081538393 -0.08037458906360434
3480000000.0 -0.08153607216671846 0.005714757737957073
3500000000.0 -0.034409946741436236 0.06918971479040385
3520000000.0 0.056570543508516605 -0.05066166436269281
3540000000.0 0.07906069135196454 0.007915368361241274
3560000000.0 -0.0009205563415316423 -0.08744939565785194
3580000000.0 0.09120912555584113 0.024375610957232455
3600000000.0 -0.02584427665729617 -0.1072681237090678
3620000000.0 -0.11369062323558723 -0.0405836946562209
3640000000.0 -0.14034575632569657 0.011604591337922314
3660000000.0 0.02413580443176467 0.1473594636915051
3680000000.0 0.15618905455842857 0.007874522212774215
3700000000.0 0.14095151914182988 -0.04647583841685831
3720000000.0 0.13345148930788797 0.008973840129776551
3740000000.0 0.10502756452457807 0.04179164148348157
3760000000.0 -0.011495714231462527 0.08525303856622404
3780000000.0 0.04342600956539738 -0.044674427605212334
3800000000.0 0.006121337659473399 -0.031930152265324814
3820000000.0 0.010257883363910493 -0.00979294794251049
3840000000.0 -0.04135936039629372 0.023124633437988124
3860000000.0 -0.0009705274397186668 0.08066943242625893
3880000000.0 -0.10331314506448978 0.03234835236342947
3900000000.0 -0.08078741713930938 -0.10398562333049038
3920000000.0 -0.012747030205435678 0.14362277365854773
3940000000.0 0.11544677324120944 0.1032477729801484
3960000000.0 -0.1247962075679725 0.09643917310906416
3980000000.0 -0.032575663898236476 -0.14261526365872826
4000000000.0 0.0065556241306168085 0.12092422892632049
