!Created with skrf (http://scikit-rf.org).
# Hz S RI R 50.0 
!freq ReS11 ImS11
400000000.0 0.8558163167849815 -0.18473521972594215
420000000.0 0.8317474876715407 -0.019310300456224803
440000000.0 0.10684091477452741 -0.7775956422824842
460000000.0 0.546982143364602 -0.4002724478376081
480000000.0 -0.16743852869753292 0.5821671338635199
500000000.0 0.5953733883428499 -0.17122597246824062
520000000.0 0.5524726397240007 0.3313029812948117
540000000.0 0.2735765156657538 -0.5405184637951709
560000000.0 0.36991835738614304 -0.4692120316558402
580000000.0 -0.36968086920067655 0.3743780436944536
600000000.0 -0.36705248092382675 0.4716565866816136
620000000.0 0.06703831654302295 -0.6072581165477252
640000000.0 -0.4502072998661656 -0.3634662651122361
660000000.0 -0.31207721777035013 0.42370875303679406
680000000.0 0.47510623044212275 0.00652047593423707
700000000.0 -0.46994727446586476 0.20462934401997815
720000000.0 0.5154664080212658 0.0355823100838637
740000000.0 0.47233017935105476 0.01881632787758353
760000000.0 -0.17132109571964285 0.4274072473851095
780000000.0 0.40227201121724826 0.19223154062931586
800000000.0 -0.1351931802551962 0.35337841489440414
820000000.0 -0.12965776868037945 -0.3291723118258685
840000000.0 -0.3205409828260078 -0.09622222156960436
860000000.0 0.135357028979327 -0.2985981764994119
880000000.0 -0.2039882893932773 -0.19189337587470853
900000000.0 -0.09046504077036084 0.2585161215303916
920000000.0 -0.24488550060415448 -0.08600673321150473
940000000.0 0.20338854371780576 -0.07012130242338353
960000000.0 -0.13974592568437574 -0.1079428064429879
980000000.0 -0.007145563423169951 -0.1453322270421063
1000000000.0 0.1169657908826369 -0.042615880171689886
1020000000.0 -0.007172752535701455 0.110342304436776
1040000000.0 -0.12633154767427715 0.0333785281303516
1060000000.0 0.14963051394969315 -0.013296515813471787
1080000000.0 -0.18726698971228442 -0.08613403754055982
1100000000.0 -0.05829068452823989 -0.23793064873143
1120000000.0 0.0213705848194756 -0.28474358316261905
1140000000.0 -0.27739168446862006 0.11501277988830678
1160000000.0 -0.29944606688837594 0.13569359961098407
1180000000.0 -0.08744132428707432 0.3299907768752623
1200000000.0 -0.21674824247436253 -0.27708168659931565
1220000000.0 -0.17141412667511544 -0.3332520417620795
1240000000.0 -0.26535568585712 -0.2621714824106465
1260000000.0 -0.19003142726048125 -0.331132961969153
1280000000.0 -0.3736701868606413 0.04419048698111846
1300000000.0 0.2170396650961472 -0.30541088096885705
1320000000.0 -0.0929187024013416 -0.3722397171644263
1340000000.0 -0.367321000347302 0.049366597440829364
1360000000.0 -0.04557773753337462 0.3780048117273409
1380000000.0 -0.3689726782887039 0.14967530988959593
1400000000.0 0.3421531547779957 0.18138665788645955
1420000000.0 0.3692941048896594 -0.1188272288285708
1440000000.0 0.2752409413979429 -0.2737584812971395
1460000000.0 0.03835479718216697 -0.38698423738655996
1480000000.0 -0.10772939513755209 -0.37754872141091417
1500000000.0 -0.3039472025814174 0.2525624409006335
1520000000.0 0.0776826640268668 -0.37883255632769924
1540000000.0 0.06969759108378776 0.35590832804158656
1560000000.0 -0.29817066872732806 0.14206341803990713
1580000000.0 0.29208644771472186 0.015909879229479566
1600000000.0 0.2510914053942754 0.09210459340134189
1620000000.0 0.21206919228969845 0.07111617456300452
1640000000.0 0.17708677352072855 -0.06018637647691819
1660000000.0 0.1270372488478534 0.10812509406879145
1680000000.0 0.026704061277511917 0.12614186888539214
1700000000.0 0.06366122635482982 0.09275779550474818
1720000000.0 -0.08415922962832387 -0.05179411538842947
1740000000.0 -0.0554278176148374 0.0697898535277251
1760000000.0 0.06094579090331203 0.07263785648160347
1780000000.0 0.03861473212410372 -0.10168971696132294
1800000000.0 -0.0951143155901561 -0.08243489079682878
1820000000.0 0.06979601635911713 0.14418532334923315
1840000000.0 0.18463026901772925 -0.02058499018150669
1860000000.0 -0.09533889267215034 0.19666724759462081
1880000000.0 -0.18713931761198632 0.15353450569823376
1900000000.0 -0.2511346739602777 0.09774010753013931
1920000000.0 -0.000725757859014266 -0.2913661600074308
1940000000.0 -0.29870464939462116 -0.046353676323424284
1960000000.0 0.28932568251399926 -0.10057733512993972
1980000000.0 -0.29121143757596407 0.11315796026163445
2000000000.0 0.037792296679929276 -0.31365418229849046
2020000000.0 0.3084014484105768 0.07008030634001337
2040000000.0 0.27405403052137994 0.17884250392816148
2060000000.0 0.3116344481746487 0.08309013043572872
2080000000.0 -0.05875651838574433 0.3177401260668487
2100000000.0 0.16661828891122796 -0.27523849644468357
2120000000.0 -0.14803692267972174 0.28095084854571084
2140000000.0 0.06968575967610126 -0.310660704205757
2160000000.0 -0.0922127054816634 0.30037795811013307
2180000000.0 0.3027709459744538 0.0542043248552423
2200000000.0 0.16958378632936041 -0.24625887071525374
2220000000.0 0.08312347614268971 -0.2766726105897826
2240000000.0 0.23948451705240095 -0.14831214552606872
2260000000.0 0.0133982282681378 0.2685811253514191
2280000000.0 -0.22629082232951428 0.13078204597569615
2300000000.0 -0.2456333689417184 -0.0014141155701957076
2320000000.0 0.07995526111110725 0.22208601083988436
2340000000.0 0.003186665648322677 -0.23210187553970588
2360000000.0 -0.13315110151995674 0.1924523848468227
2380000000.0 -0.07581503767419824 -0.23354358173561837
2400000000.0 0.13456125096509025 -0.23275105151668382
2420000000.0 -0.015925093051475693 0.29500131916163136
2440000000.0 0.31052214129005695 0.042792246794641754
2460000000.0 -0.3376312563884151 -0.07314520311652647
2480000000.0 0.24572993149862027 0.28820835431155734
2500000000.0 -0.4136293682176229 -0.01786930212710962
2520000000.0 0.25508545851378206 -0.3713172973681097
2540000000.0 0.1442062619639143 0.4605343726878493
2560000000.0 -0.4108133015404603 -0.30981514934689314
2580000000.0 0.5090371943629265 0.18013654102788992
2600000000.0 -0.525410529123668 -0.20488228856743132
2620000000.0 0.5288613618111128 0.25354330110864254
2640000000.0 -0.587196477654951 -0.147731688327756
2660000000.0 0.584817216917111 -0.21403522349151108
2680000000.0 -0.1494012446426483 0.6180953248476491
2700000000.0 -0.6437489146990062 -0.06570473521760675
2720000000.0 -0.4043690774477308 -0.5175958256717552
2740000000.0 -0.1836510443450636 -0.6376579364258204
2760000000.0 0.02888432857874329 -0.6676522168956465
2780000000.0 0.630065595977179 0.2126268567937149
2800000000.0 0.580815708637029 0.31055058921532785
2820000000.0 0.1862198401958126 0.6204473556622111
2840000000.0 -0.6070389997207706 0.18857352875270386
2860000000.0 0.07892002000419618 -0.6151162888796166
2880000000.0 -0.1941492582641024 0.5672353817438767
2900000000.0 0.5403479029543842 -0.20714471160196712
2920000000.0 -0.28130627437080835 -0.47705291284399465
2940000000.0 -0.517116754013158 -0.08873507955116389
2960000000.0 -0.4641982733729851 0.18702389252472768
2980000000.0 -0.3072172346733821 0.356777876401533
3000000000.0 -0.24874945948846244 0.37271036406252833
3020000000.0 -0.08553450957854368 0.41533285108692086
3040000000.0 0.3285450865603191 0.23089394662821547
3060000000.0 0.2199302068089585 -0.31377256637825274
3080000000.0 -0.14861126091683863 -0.33782979160915577
3100000000.0 0.2930876984338846 0.2130962803279304
3120000000.0 0.35075222371136594 -0.015483435553581833
3140000000.0 -0.3538199132896678 0.009843970852347643
3160000000.0 0.33768227568618703 -0.08528220554937259
3180000000.0 -0.32788650913050116 -0.12652871777651942
3200000000.0 0.2329787749734726 0.2599525405071599
3220000000.0 0.3355147509208185 -0.08576679136798919
3240000000.0 -0.0126272884565836 -0.34184049328039157
3260000000.0 -0.22279030791554025 -0.2478296000845792
3280000000.0 -0.3251368202880468 0.015981607221728734
3300000000.0 -0.2560640979595088 0.1616849143064469
3320000000.0 -0.2713054936970754 0.08012455009827538
3340000000.0 -0.24647757054959116 0.06291810130467436
3360000000.0 -0.1633083520763637 -0.16034282365632743
3380000000.0 -0.037677519059519056 -0.19700683438716365
3400000000.0 0.12625136956085564 -0.11820630639381184
3420000000.0 -0.022215699691599217 -0.1488050043285265
3440000000.0 -0.11997214387706186 -0.03112785023614555
3460000000.0 0.09637023696340044 0.011713729409404197
3480000000.0 -0.04967905851356994 0.061122029234013664
3500000000.0 0.04235413826037581 0.06198160014953412
3520000000.0 0.05227067255559383 -0.052544597802833715
3540000000.0 0.03651881477465811 -0.07008714391844433
3560000000.0 -0.023893286288332965 -0.08485682041208485
3580000000.0 0.09315949077482803 -0.02411056171766527
3600000000.0 -0.1135107270827214 0.0017236443440567103
3620000000.0 -0.1164618495943349 0.034915141671667996
3640000000.0 -0.13951171940256094 -0.013884872229991746
3660000000.0 -0.09066423141009247 0.12114091149634251
3680000000.0 0.07437995225564162 0.13978390466157875
3700000000.0 0.14871325697004098 -0.023131813161278818
3720000000.0 0.10769943520780621 0.07707903858640062
3740000000.0 0.090203024036671 0.065447404553964
3760000000.0 -0.08255970157880675 0.0228507638066762
3780000000.0 -0.03817977820881162 -0.04855691175849138
3800000000.0 -0.026522649527803952 0.013690778319134917
3820000000.0 -0.004480679949021685 -0.014233464595519458
3840000000.0 0.0031690530270272687 -0.05105542288014041
3860000000.0 -0.07121686636087417 0.04205613786624158
3880000000.0 -0.07635807111678622 -0.07531256879221672
3900000000.0 0.12929485875282698 -0.019109031273210245
3920000000.0 -0.07463378891548837 0.12339679074952795
3940000000.0 0.0742470386765648 0.1341186595602762
3960000000.0 -0.14200648117839762 0.06515272644729415
3980000000.0 -0.0766129311536298 -0.12315819123787927
4000000000.0 0.08611869880531557 0.08001571603222252
