!Created with skrf (http://scikit-rf.org).
# Hz S RI R 50.0 
!freq ReS11 ImS11
400000000.0 -0.6519348784744359 -0.06876321189673876
420000000.0 0.6124481517376416 0.08097809628720266
440000000.0 0.5040895852691633 -0.24479833413950455
460000000.0 -0.19682458932545438 -0.4754537206145063
480000000.0 -0.30539771624299017 0.31379609973237305
500000000.0 -0.029461452699768246 0.4003453927420713
520000000.0 0.04345327552554618 0.3270178320212044
540000000.0 0.07789654681093254 0.2439415183334658
560000000.0 -0.09180833702170714 0.21125925944975574
580000000.0 0.003325828594995027 -0.2315847868191367
600000000.0 0.15105988284537503 0.1614962386909644
620000000.0 -0.001635490294380419 -0.20261074009565921
640000000.0 0.15164759929596833 0.13023162395490395
660000000.0 0.1780937322202839 0.0012458576255937172
680000000.0 0.025480156796986488 -0.1569273420396926
700000000.0 -0.040360262914468564 -0.11184113981545918
720000000.0 0.05544943770277145 0.09069614398383441
740000000.0 -0.05099715253848491 -0.09750721882368121
760000000.0 0.0393196757577356 0.09796832435175774
780000000.0 -0.11387410518466615 0.022186193846479064
800000000.0 -0.017842286282303874 -0.09799113067624976
820000000.0 -0.052503608206054084 0.0722848127296046
840000000.0 0.053437646840576856 -0.04411649832316314
860000000.0 0.02374127812478813 0.07029141801795254
880000000.0 -0.0693930326937522 -0.03237897688273371
900000000.0 0.057962470887260406 0.03820166860102398
920000000.0 0.05634647446928426 0.05486405678782509
940000000.0 0.07105675475108776 0.051313101787852325
960000000.0 0.09630065140522297 0.009894960490156245
980000000.0 -0.08109362432569031 -0.041947396333663824
1000000000.0 0.03447498885190427 0.05733342268473629
1020000000.0 0.043406998812529914 0.013374941033061083
1040000000.0 -0.04414750658633793 0.0167806745891447
1060000000.0 -0.05082898228562909 -0.03210433233103292
1080000000.0 0.05676595559223337 -0.06368385858123604
1100000000.0 0.1106679498724771 -0.014503328856978743
1120000000.0 0.13355084972852388 0.02993100888682278
1140000000.0 0.1537606028958174 -0.05004611450181532
1160000000.0 0.05687274806617526 0.16370400476650784
1180000000.0 -0.006836226548175453 -0.2031813864605456
1200000000.0 0.20159852606286804 0.017200294593794026
1220000000.0 -0.06514585416295939 0.212758190146048
1240000000.0 -0.22180293199070714 0.04431655504080821
1260000000.0 -0.1454640548858955 0.170797126751774
1280000000.0 -0.19335235831939493 -0.14311297800016212
1300000000.0 0.12520775476118787 0.20391428812803156
1320000000.0 -0.24709504388673578 0.0013308626025073172
1340000000.0 0.18269182504061998 -0.18288670435923704
1360000000.0 0.12339190045605357 0.23981950640300623
1380000000.0 -0.21627229855560307 -0.15425761461275
1400000000.0 -0.26089778616309456 0.03846041411330738
1420000000.0 -0.2607281814961762 0.07726018074473227
1440000000.0 -0.1938535569244844 -0.18601854074763816
1460000000.0 0.014787464595537305 -0.2670831052940912
1480000000.0 0.04550659087782316 0.26176039245999666
1500000000.0 -0.03745198684856164 0.26550192310395443
1520000000.0 0.1635442155085767 0.20447513331224218
1540000000.0 0.23254368747803503 0.06398390998207529
1560000000.0 0.14179384526107755 -0.17950669976162173
1580000000.0 -0.049483605160637024 0.19679071222101233
1600000000.0 -0.026757430404567774 -0.17287151175682822
1620000000.0 0.10478621548529758 0.11199213491784485
1640000000.0 -0.09840337113495753 -0.07901724215177926
1660000000.0 0.08723774742716946 0.06825983361314872
1680000000.0 0.011625579092398771 -0.08727795457818698
1700000000.0 -0.022998881371193235 -0.07602365789257613
1720000000.0 0.06981503870584638 0.0005938862695422352
1740000000.0 -0.04623171203649966 -0.04032283889099311
1760000000.0 -0.05787498057531486 -0.018384072501433722
1780000000.0 0.07469823868377559 -0.0002972899815302105
1800000000.0 -0.09849028602894185 0.01087115984599478
1820000000.0 -0.08130708719238298 0.10309783950804705
1840000000.0 -0.02313083159883969 -0.16007831631940397
1860000000.0 -0.08186617309237455 -0.16609623157667683
1880000000.0 -0.10145194313548332 -0.18077742693624932
1900000000.0 -0.20515558331411443 0.07821888946831346
1920000000.0 -0.150247729454953 0.17029642802862918
1940000000.0 0.13413593012216782 0.18727180580092073
1960000000.0 0.056441503859446664 -0.21801386872251838
1980000000.0 -0.21850556463129536 0.015675984901269403
2000000000.0 0.20768654188327465 -0.03192876958915242
2020000000.0 -0.07264703405205457 0.18449901565178708
2040000000.0 -0.17684415882891333 -0.06889174221869335
2060000000.0 -0.15009537873382744 -0.10592524754146311
2080000000.0 -0.16918582846784808 -0.05698866821435617
2100000000.0 -0.0733785481205718 -0.15729810804023298
2120000000.0 0.09014362779875061 0.1481209721760045
2140000000.0 0.09115226889802278 0.14462986450964643
2160000000.0 0.13412214022006205 -0.09130829561745817
2180000000.0 -0.16009075578233986 -0.004672585785149635
2200000000.0 -0.0787533455233172 0.13024734335114524
2220000000.0 -0.08284146607279141 -0.11882976880424985
2240000000.0 0.1404245481134221 0.011287528939232959
2260000000.0 -0.11239412160312785 0.06633723774685922
2280000000.0 -0.1044079006902715 -0.060336692539512404
2300000000.0 0.02228553160251997 -0.10231416890077848
2320000000.0 -0.06573931440716871 0.06220420202130744
2340000000.0 0.04415035486518494 -0.06368515436035586
2360000000.0 -0.05562191313222036 -0.018469237123108932
2380000000.0 0.02126364456413928 0.04294840907437125
2400000000.0 -0.04187195960990894 0.0023113547632973934
2420000000.0 0.03440630385261051 -0.014803481883063126
2440000000.0 0.037851324661112434 0.0010263084670563093
2460000000.0 -0.03742979242396915 -0.02123589622680194
2480000000.0 -0.014212872830075296 -0.0433537959426774
2500000000.0 0.03641047064762557 -0.04092658674436678
2520000000.0 0.03151433620178714 -0.0644474903075148
2540000000.0 0.08684476580457252 -0.014020405658495277
2560000000.0 -0.026476763629346166 -0.09983116871107757
2580000000.0 -0.05880991685493062 -0.10318817840751512
2600000000.0 -0.1146111362153597 -0.06782332933729569
2620000000.0 -0.1365078456403171 -0.044872698262508344
2640000000.0 -0.06257227791859282 -0.14075501989993217
2660000000.0 -0.14577206019860578 -0.06171002623531974
2680000000.0 -0.1602856510561243 0.006360079279927049
2700000000.0 0.08236068499533951 0.13672197176733344
2720000000.0 -0.14701610304156076 -0.05061503606691701
2740000000.0 0.15198333106314552 -0.01369751836910443
2760000000.0 0.12404269409850238 0.08132586839636552
2780000000.0 0.09695541515710196 -0.11049956806761295
2800000000.0 0.04364015740872341 -0.14429741957509332
2820000000.0 0.15680455836664953 0.011978853941483852
2840000000.0 0.0749905987443143 0.1463068448256879
2860000000.0 -0.10904514803092233 -0.13682826358975836
2880000000.0 0.021295195665094108 0.1823604510306565
2900000000.0 0.055923130377456304 0.1848060546854485
2920000000.0 -0.13366856590973167 0.14621279535556753
2940000000.0 -0.1557739342793976 -0.13223452635099314
2960000000.0 0.2019605933603069 -0.0315097722681507
2980000000.0 -0.16986647361690355 0.1108760630281067
3000000000.0 0.16041548119612176 -0.12368755217487619
3020000000.0 -0.14182460355911303 0.13126945932184036
3040000000.0 0.14710256167150096 -0.11577392004150333
3060000000.0 0.009841120000661546 0.17863735529276462
3080000000.0 -0.11549587611140091 -0.12459146620075207
3100000000.0 0.07511558761224166 -0.1424803560895767
3120000000.0 0.12731036104378485 -0.08426833668569333
3140000000.0 0.05650304956183744 -0.1304883913350072
3160000000.0 0.10551706414625651 -0.08630207458815328
3180000000.0 0.06313197967991321 -0.11673683208314287
3200000000.0 0.11373653684207208 -0.06914133616088931
3220000000.0 0.13686224464346874 0.021966371394829425
3240000000.0 -0.010524932807637303 0.14675415684564086
3260000000.0 -0.12313979238506138 0.09894695249914418
3280000000.0 -0.06833085938322708 -0.15816767580698507
3300000000.0 0.04644193607181819 -0.17918820035785585
3320000000.0 0.19386094805900014 -0.04893616108508455
3340000000.0 0.028080256991344997 0.2121143743746586
3360000000.0 -0.21879739011930746 -0.06126796150784138
3380000000.0 0.0981992807214201 -0.21365419454830084
3400000000.0 0.14050543742419622 0.19498617617710015
3420000000.0 -0.20451119543404017 0.13231928802079396
3440000000.0 -0.06702793938036822 -0.2340541624806008
3460000000.0 0.23287593114737087 0.0629854124901222
3480000000.0 -0.16334876606936163 0.17245324410329196
3500000000.0 -0.20288878904292912 -0.11006143852361056
3520000000.0 0.07127787947800555 -0.21113642882786932
3540000000.0 0.15397163779480774 -0.147139329356235
3560000000.0 0.051966811815393504 -0.19294742500520864
3580000000.0 -0.08376930364986851 -0.1690946563805165
3600000000.0 -0.16883723651672972 0.05964951874358297
3620000000.0 -0.1681540093441463 0.03244520783140938
3640000000.0 0.1445504196533713 0.08104674746790237
3660000000.0 0.06987917393798058 -0.150327995401595
3680000000.0 -0.08130544194605933 -0.1479172402042798
3700000000.0 -0.17000127154118655 -0.053568785552688125
3720000000.0 -0.02120309931198892 -0.18727436876200954
3740000000.0 0.17661675032053942 0.0992909823651522
3760000000.0 0.03857404192622216 0.21382879147453188
3780000000.0 -0.10778783827353738 -0.2057577577400374
3800000000.0 0.010386408925123013 0.2448733510396293
3820000000.0 0.022033081652711423 -0.25535222681716
3840000000.0 -0.2580137960281051 0.055141238114790304
3860000000.0 0.25195658181606045 0.09373304073264882
3880000000.0 -0.17212072430967634 -0.2093606488493844
3900000000.0 0.056024086022913186 0.26073629295188844
3920000000.0 -0.16044818795052898 -0.1992606877047524
3940000000.0 0.22497119002201033 0.079537879153567
3960000000.0 0.08623266622388917 0.20051515245559307
3980000000.0 0.18289833199389913 0.06743219142838724
4000000000.0 -0.16368983979733698 0.046234331101711636
