!Created with skrf (http://scikit-rf.org).
# Hz S RI R 50.0 
!freq ReS11 ImS11
400000000.0 -0.6549108583477673 0.09600643180121497
420000000.0 0.6187837269065716 -0.039410013733210146
440000000.0 0.26263565543356965 -0.49342735462016535
460000000.0 -0.161226027862175 -0.48184688351052674
480000000.0 -0.4303256634794589 -0.0164846868847366
500000000.0 -0.3632196855339886 0.1691127030117583
520000000.0 -0.2997506333702782 0.14524062097821017
540000000.0 0.20077167915445127 0.18172101920707762
560000000.0 0.22950964669911283 -0.0081076180009379
580000000.0 -0.190724816657729 -0.12584549357014985
600000000.0 0.16299975720430485 0.14080631726193515
620000000.0 -0.11199294705187751 -0.1669109376931954
640000000.0 0.002027103007381634 0.19434985230274263
660000000.0 0.16422321769603396 0.07249826858283533
680000000.0 0.05943584891194537 -0.14950761099719276
700000000.0 -0.06871051589804131 -0.09608737824281267
720000000.0 -0.08079821290655187 0.07264741292915848
740000000.0 -0.07290009728612099 -0.09114436530807694
760000000.0 0.07002869381533308 -0.08287375255195818
780000000.0 0.054948690501848564 0.10309448912434692
800000000.0 -0.033937533671582636 -0.08838115007221894
820000000.0 -0.02262461111435735 -0.08665453923006927
840000000.0 -0.024985122095314966 0.06882348306714108
860000000.0 0.0737896118737259 -0.025556018217577154
880000000.0 -0.07531559903166775 -0.013172575856135632
900000000.0 -0.007359932029815047 0.06843653760685971
920000000.0 -0.006144799506225241 -0.07872379131005347
940000000.0 0.09123278750486268 0.003907739709525569
960000000.0 0.09674627149313901 0.0035507366944097464
980000000.0 -0.09034715013983181 0.0017145211415139949
1000000000.0 0.007767842778713091 0.06432811473219295
1020000000.0 0.034858319617494596 0.02718931609286034
1040000000.0 -0.021990814954536708 0.04082087056566266
1060000000.0 -0.05997377001069946 0.0075449499451407925
1080000000.0 0.056389865211516864 -0.06597449791758703
1100000000.0 0.11224194402312812 -0.011018160780941085
1120000000.0 0.13461338931573996 -0.033863012103751845
1140000000.0 0.13258405380714955 -0.09577289766985694
1160000000.0 0.06658738413362703 0.16092666449170642
1180000000.0 0.05842576078523207 -0.19577494824712594
1200000000.0 0.2046012307438478 0.01809507115065639
1220000000.0 -0.035585954534709974 0.22160705446425774
1240000000.0 -0.21949931197499933 0.056199588486217804
1260000000.0 -0.12440050651399545 0.18720280601513847
1280000000.0 -0.13700832160334253 -0.1972406373004589
1300000000.0 0.037608839707820585 0.23741855972741366
1320000000.0 -0.24794032950487777 -0.0203588584963859
1340000000.0 0.20344682900188873 -0.16152536793395403
1360000000.0 0.17687936448855257 0.20340033564998344
1380000000.0 -0.22878327783100233 -0.13323970055704687
1400000000.0 -0.25791797835698116 -0.05047072117052021
1420000000.0 -0.27084884731335607 -0.02894042132397054
1440000000.0 -0.20543042329382238 -0.1767394606054984
1460000000.0 -0.0318377701208269 -0.26500650976543105
1480000000.0 0.0579955302456666 0.25768753175596054
1500000000.0 -0.09111724566675271 0.25187514988990045
1520000000.0 0.0538186289477391 0.2552880903411499
1540000000.0 0.21812766755843177 0.10646019309669975
1560000000.0 0.08557961703009609 -0.21181641671967164
1580000000.0 -0.0042364722533733265 0.20234620899809838
1600000000.0 0.0025445712739379993 -0.17249445213962358
1620000000.0 0.09990662280963726 0.11483661146440931
1640000000.0 -0.07856731224708749 -0.09813597752521452
1660000000.0 0.09219492651752505 0.06175443414013567
1680000000.0 -0.02847083244154729 -0.08340860070488597
1700000000.0 -0.07779572265072288 0.00479047512000524
1720000000.0 0.06580808125080014 0.018388668057784018
1740000000.0 -0.00831969888501204 -0.06030226252493649
1760000000.0 -0.05946083688680564 -0.013750559499731444
1780000000.0 0.06024413990014944 -0.04431083323908786
1800000000.0 -0.09094627270197789 0.03503138310944494
1820000000.0 -0.12001312907802894 0.0513139254846856
1840000000.0 0.020320393765831144 -0.16003542416929106
1860000000.0 -0.07253743254987363 -0.17065869115605933
1880000000.0 -0.12435962406297998 -0.1650905791863262
1900000000.0 -0.20062077214372545 0.08720996792201434
1920000000.0 -0.14398226849862292 0.17491604394066662
1940000000.0 0.1360474094912092 0.18537937419043302
1960000000.0 0.03274044269551767 -0.22249065428484793
1980000000.0 -0.20749209413116249 0.06678770831376249
2000000000.0 0.20560271521728193 -0.03933155259854192
2020000000.0 -0.04309465600018552 0.19328371642352693
2040000000.0 -0.18908397830536308 -0.0015443621218370561
2060000000.0 -0.16625007438631922 -0.07762739605565017
2080000000.0 -0.17737744310041975 -0.021150647895999432
2100000000.0 -0.11587585668770928 -0.12916506854795548
2120000000.0 0.15151757522763623 0.08432655410066446
2140000000.0 0.13476409243449863 0.10539477481614748
2160000000.0 0.05716539132399424 -0.15193825855391618
2180000000.0 -0.15454090040158697 0.04204375816413373
2200000000.0 -0.015679019928254153 0.15194695788514057
2220000000.0 -0.13177361327015855 -0.06078662319214178
2240000000.0 0.12799871314191774 -0.05870956535959152
2260000000.0 -0.09403753660410764 0.09063627938444675
2280000000.0 -0.11776126747632398 -0.028387149496530827
2300000000.0 -0.05123885333618323 -0.09205137790580918
2320000000.0 -0.0007589279433629063 0.0908634678243826
2340000000.0 -0.0005628567233458716 -0.07746846146848325
2360000000.0 -0.046663642514452326 -0.035131559153716595
2380000000.0 0.04859766035961572 0.0032015093013158004
2400000000.0 0.01891388070501619 0.038157615224437634
2420000000.0 -0.0145047183678069 -0.034383611289371674
2440000000.0 0.03594010398276505 -0.010273656242444213
2460000000.0 -0.041166120239996634 -0.013341119507638324
2480000000.0 -0.04517813068861527 -0.012478516864721567
2500000000.0 -0.009595973386901043 -0.05529642080412405
2520000000.0 -0.03784197423148354 -0.06200211435590936
2540000000.0 0.0703114318451552 -0.05361371662863142
2560000000.0 -0.039932165232524075 -0.09616694269231785
2580000000.0 -0.058641882341188195 -0.10443885873283514
2600000000.0 -0.11881403508453973 -0.0627289027584809
2620000000.0 -0.1431609191241744 -0.021609075113891894
2640000000.0 -0.0824804063310901 -0.13090711714307837
2660000000.0 -0.14504183456864295 -0.06541505545077095
2680000000.0 -0.1605319429520667 -0.01615395190605972
2700000000.0 0.06032367469054468 0.14814632945466788
2720000000.0 -0.13557591728109822 -0.07859540225398934
2740000000.0 0.15204410054086112 -0.01949898228725568
2760000000.0 0.13971109628464068 0.05113946985210482
2780000000.0 0.10986504686097323 -0.09809933689134731
2800000000.0 0.0674171504354757 -0.13503656640983885
2820000000.0 0.14533943976946317 0.06078668956329486
2840000000.0 0.055633503906879295 0.15514856889342118
2860000000.0 -0.08525135808875593 -0.15271709046795484
2880000000.0 -0.00908311660362151 0.18279241627875084
2900000000.0 0.0015693602573339936 0.19291993740939567
2920000000.0 -0.16790338829220688 0.10524234793977622
2940000000.0 -0.12422807624164425 -0.16264558503388848
2960000000.0 0.20147480327165282 -0.03381447574719777
2980000000.0 -0.1615061183995815 0.12237237101542935
3000000000.0 0.18165468007210592 -0.08752446617842496
3020000000.0 -0.1642475912467196 0.10021647713174704
3040000000.0 0.15370893591141632 -0.10500139977243034
3060000000.0 -0.0496190034194527 0.1716041933522934
3080000000.0 -0.11627184133720642 -0.12370836237467227
3100000000.0 0.06631999733717012 -0.14593254909072423
3120000000.0 0.0895045257841916 -0.12281181099522503
3140000000.0 0.06120487817105457 -0.12710472166659306
3160000000.0 0.09995018732513736 -0.09167134413709048
3180000000.0 0.09116738392129795 -0.09494984566080732
3200000000.0 0.11369850364440055 -0.06835610814974302
3220000000.0 0.13672045397327612 0.023658664276690604
3240000000.0 0.005582283060976521 0.14637446051077785
3260000000.0 -0.11676786346060176 0.10618584748174541
3280000000.0 -0.07669981015001764 -0.15389009461632977
3300000000.0 0.04339285945942334 -0.17964918373936659
3320000000.0 0.19750231765682824 -0.029261253756406803
3340000000.0 0.02710827721150312 0.21155545902984085
3360000000.0 -0.22179779367481978 -0.0459368117271744
3380000000.0 0.07158982669957362 -0.22275063747764137
3400000000.0 0.14187838727650617 0.19279960001035773
3420000000.0 -0.180131699917081 0.16265234280317795
3440000000.0 -0.06108959100882019 -0.2352505404903074
3460000000.0 0.23401771313219702 0.05651530939038824
3480000000.0 -0.14167058969681082 0.18970304907509183
3500000000.0 -0.2180698030222464 -0.07276286496744003
3520000000.0 0.046188341735412496 -0.2170191145169041
3540000000.0 0.10626108504880158 -0.1838748699338181
3560000000.0 0.025107772124022452 -0.19733129060525365
3580000000.0 -0.1178180439579508 -0.14701534850605227
3600000000.0 -0.1456449331901753 0.10404804708583648
3620000000.0 -0.1546436915735346 0.07324385453862356
3640000000.0 0.1632205918470985 0.028523912298466146
3660000000.0 0.039027040143494354 -0.16055960982793568
3680000000.0 -0.0875614680875779 -0.14376550250715886
3700000000.0 -0.16989235082745222 -0.05333316464704508
3720000000.0 -0.06765788886127018 -0.17581299925710983
3740000000.0 0.18293400340974705 0.08700491913900439
3760000000.0 0.04849759246974041 0.21159365525043627
3780000000.0 -0.12379307124865402 -0.19596516052386218
3800000000.0 0.04103301147823987 0.24107030886657677
3820000000.0 -0.04600852924758436 -0.251483517409057
3840000000.0 -0.24225912484190587 0.10257729573328883
3860000000.0 0.2622668090182796 0.05433942482912103
3880000000.0 -0.20642942176894924 -0.1749753207027903
3900000000.0 0.11920917552909512 0.23811491391147854
3920000000.0 -0.19824361322474654 -0.1610188901278196
3940000000.0 0.23590853958878363 -0.0372532217292126
3960000000.0 0.12701830780714202 0.177115479269551
3980000000.0 0.1947296017566225 0.010522186988106306
4000000000.0 -0.1308371082505996 0.10952743627734353
