!Created with skrf (http://scikit-rf.org).
# Hz S RI R 50.0 
!freq ReS11 ImS11
400000000.0 -0.6350274314104974 0.14819584902088673
420000000.0 0.579856483209104 0.20218093369700735
440000000.0 0.477523097598778 -0.27681187695602893
460000000.0 0.3604147602194821 -0.36263774729800036
480000000.0 -0.31571647588020135 -0.3092132323106499
500000000.0 -0.14976427106416174 0.3785447586618674
520000000.0 0.008201135120209608 0.3386751560733068
540000000.0 0.15413313228259343 -0.2185067948415546
560000000.0 0.22716457829967407 0.00044279402399288254
580000000.0 -0.1547384497818822 -0.15931119939013547
600000000.0 -0.20892503918781452 0.06108293761443872
620000000.0 -0.05260436336180685 -0.1952398193382911
640000000.0 -0.005609938408600372 0.19580919865268598
660000000.0 -0.05387006066631489 0.16911256586742177
680000000.0 0.13597219132430743 0.08736081013538062
700000000.0 -0.014521274440444187 -0.1248189963097653
720000000.0 0.08970364838285506 -0.06465415853387413
740000000.0 -0.030757233451176154 0.10625117561416283
760000000.0 0.08472582518062093 -0.05786421546515401
780000000.0 -0.09736711315393037 -0.05530633646696434
800000000.0 0.05397277747490947 0.07866089524624463
820000000.0 0.044838898621978665 -0.081084532759964
840000000.0 0.0712983091996414 0.012523948275865436
860000000.0 0.07500915889743968 -0.021937108344229555
880000000.0 -0.026255025506189963 0.07358795135740812
900000000.0 0.05368854377851754 -0.03692111769299107
920000000.0 -0.036144148143570795 -0.06788046537171342
940000000.0 0.005628829770964746 0.09136926214323987
960000000.0 0.09587798482757465 0.018711939125649
980000000.0 -0.08752201107550463 -0.02836328617570621
1000000000.0 0.0666044971197178 -0.0005356023434242482
1020000000.0 0.030719997744884434 -0.03264205839976573
1040000000.0 0.0025141232955405027 0.046580385798050315
1060000000.0 -0.0484552312659665 -0.034139270485987326
1080000000.0 0.04789578446432851 -0.06985437997511057
1100000000.0 0.08651873268662177 0.07082634600386646
1120000000.0 0.13243559256210816 0.03774282703673645
1140000000.0 0.12527123431129072 -0.10335843332876325
1160000000.0 0.08899007340616479 0.1484931534556187
1180000000.0 0.03958125903149921 -0.19929737577978776
1200000000.0 0.20062780240046613 0.03788612252502747
1220000000.0 -0.060207594331810166 0.21451200776829218
1240000000.0 -0.22461773502724808 0.03125495117042177
1260000000.0 -0.11339439287540205 0.19455878387837688
1280000000.0 -0.17196538310956483 -0.1673140942755018
1300000000.0 0.10291322094862876 0.21612770329032865
1320000000.0 -0.2471412566562742 -0.007001800449772312
1340000000.0 0.23623989330018288 -0.10283872773892166
1360000000.0 0.08243679619095637 0.25862610768455735
1380000000.0 -0.2540901828004223 -0.07710576743137389
1400000000.0 -0.2595645821608713 0.045214757055723136
1420000000.0 -0.2704975837293275 0.014341725764784556
1440000000.0 -0.20394392531174058 -0.17625170809532584
1460000000.0 0.09739703522355718 -0.24980568596703923
1480000000.0 0.09258807121823455 0.24980493487580027
1500000000.0 -0.0242923270165673 0.2667811855662032
1520000000.0 0.12877039683248723 0.22736743881191612
1540000000.0 0.23099108933537177 0.06964312372721147
1560000000.0 0.18128571312506145 -0.13905001268495892
1580000000.0 -0.0443650670520903 0.19868621222214966
1600000000.0 -0.0012695073695739095 -0.1746534962555151
1620000000.0 0.11701232701705677 0.09954302137996561
1640000000.0 -0.1258249717363642 -0.011796508994005564
1660000000.0 0.10434867275674796 0.037141451617508224
1680000000.0 0.030437857238593734 -0.08222411635509523
1700000000.0 -0.030853085628556334 -0.07195552849986088
1720000000.0 0.028485473428760278 0.06356797807785207
1740000000.0 -0.016367099648423533 -0.059809341061444685
1760000000.0 -0.04960071479524387 0.03568733410232176
1780000000.0 0.07133232708862255 -0.021691203699931393
1800000000.0 -0.09129603597092052 0.0364253518808614
1820000000.0 -0.09971422889089321 0.08524335935106304
1840000000.0 0.010230387325541993 -0.16173189123957624
1860000000.0 -0.0975347358666759 -0.15782629212362553
1880000000.0 -0.10944767118649015 -0.17500314599561134
1900000000.0 -0.21060685174597782 0.061467803163388186
1920000000.0 -0.14381652135672113 0.17586804855601385
1940000000.0 0.13159124989264098 0.18906002309829759
1960000000.0 0.06051466125324749 -0.2169400668705778
1980000000.0 -0.2153141012761436 0.03814297775058751
2000000000.0 0.20613339174825293 -0.03914744740715454
2020000000.0 -0.0689253849295994 0.18621359246267463
2040000000.0 -0.18753691160396949 -0.024626880846235634
2060000000.0 -0.15912787287014543 -0.0918439566879963
2080000000.0 -0.15996242707839603 -0.08059616780944606
2100000000.0 -0.07995440258572356 -0.15442702963299645
2120000000.0 0.11021581228905586 0.13430440850530234
2140000000.0 0.11567691572087238 0.12557419043356813
2160000000.0 0.11864161238556478 -0.1104994798839863
2180000000.0 -0.15640450675770665 -0.03263271406028017
2200000000.0 -0.06506088676179722 0.13848789285454094
2220000000.0 -0.1285185193014208 -0.06762410532895369
2240000000.0 0.1402572537554227 -0.0033278347757600565
2260000000.0 -0.11328950095191684 0.06484462492246486
2280000000.0 -0.10473266327131099 -0.060091630093171824
2300000000.0 0.004592713985469851 -0.1051524823030243
2320000000.0 -0.03406349326334014 0.08425943724334908
2340000000.0 0.015095375794207621 -0.07615509126914527
2360000000.0 -0.04719617111138749 -0.03419215728855975
2380000000.0 0.027002665175925474 0.03997288482799542
2400000000.0 -0.03844514315916423 0.0175590836973386
2420000000.0 0.03715348994960396 0.00027903831244630885
2440000000.0 0.03768396804451652 -0.004158074808864191
2460000000.0 -0.03500077495088389 -0.025165444397126945
2480000000.0 -0.02528611090109117 -0.038273612611906926
2500000000.0 0.002833691329537347 -0.05544020432976885
2520000000.0 -0.005157044944281238 -0.0716893733113563
2540000000.0 0.08110846122004851 -0.03404922102019118
2560000000.0 -0.040481992537948076 -0.09539134903899624
2580000000.0 -0.060758099911123416 -0.10246885458718473
2600000000.0 -0.10676410074575902 -0.08048865515380811
2620000000.0 -0.14139517447077765 -0.027994408904548376
2640000000.0 -0.06448547983045684 -0.13997089385233358
2660000000.0 -0.14379954417875326 -0.066714178485969
2680000000.0 -0.1594438565351547 -0.022899291321453026
2700000000.0 0.05375423114637242 0.15054625011526973
2720000000.0 -0.1365172963389966 -0.07561591748614092
2740000000.0 0.14787840240862604 -0.03682642338576373
2760000000.0 0.13700524551487464 0.05785407171418273
2780000000.0 0.11684019252976352 -0.08959777789274646
2800000000.0 0.01630767295932375 -0.15004559132548123
2820000000.0 0.15723901182443467 0.007342438745013144
2840000000.0 0.07200145278862018 0.14790301869002512
2860000000.0 -0.09391905174145004 -0.1473916861392396
2880000000.0 -0.0051997428076112654 0.18301692950133105
2900000000.0 0.017566167280761526 0.19198604061090052
2920000000.0 -0.15759820184313766 0.12033264831844183
2940000000.0 -0.1310711166650265 -0.15720256668542232
2960000000.0 0.20184415283156235 -0.03472562150658126
2980000000.0 -0.15599722455108492 0.12869985806214224
3000000000.0 0.1509381963545275 -0.13363375766955018
3020000000.0 -0.13800194014309747 0.13443647050357627
3040000000.0 0.13589270444834617 -0.1275554453335023
3060000000.0 -0.005092484993402764 0.17891358313973424
3080000000.0 -0.12264528118020414 -0.11777071150245912
3100000000.0 0.058777325752154636 -0.1504983488507932
3120000000.0 0.12815813461727313 -0.08314575094671975
3140000000.0 0.0514870843811602 -0.13243048987709408
3160000000.0 0.07624575372180402 -0.11300257234455031
3180000000.0 0.07594258110257035 -0.10900830914291111
3200000000.0 0.1139390762431167 -0.06926405712582419
3220000000.0 0.13444840835488125 0.03418674506927489
3240000000.0 -0.028023102195172803 0.14387068994265315
3260000000.0 -0.13193209975115947 0.08677852595169751
3280000000.0 -0.05641561217872098 -0.16268354376278876
3300000000.0 0.05360865825653972 -0.17712616991608485
3320000000.0 0.19382794575781517 -0.04914695481024203
3340000000.0 0.05009154344301001 0.20767811594071015
3360000000.0 -0.22303125329828463 -0.04051715673537346
3380000000.0 0.06620452871667337 -0.22482740431898318
3400000000.0 0.16917117000867007 0.16909573520878532
3420000000.0 -0.1839094071165969 0.15949582255253797
3440000000.0 -0.09866017487781731 -0.2225519676961767
3460000000.0 0.23546268911758006 0.05511632090987361
3480000000.0 -0.1493357181296652 0.18450313468223536
3500000000.0 -0.2083308673120665 -0.09898875183828322
3520000000.0 0.08288963830410045 -0.20666407828520691
3540000000.0 0.14413291033738834 -0.1571001518373727
3560000000.0 0.06800040998153394 -0.18748289592520695
3580000000.0 -0.10398435926876884 -0.1575602626567305
3600000000.0 -0.15523187993060666 0.0887019037235522
3620000000.0 -0.16207940970946907 0.05321237144278274
3640000000.0 0.14804518676969003 0.07390581878244791
3660000000.0 0.06401120210693967 -0.15283837964306662
3680000000.0 -0.08619565666764739 -0.14484469721216015
3700000000.0 -0.1738825155521723 -0.03850144360864909
3720000000.0 -0.06009767818496058 -0.17795209920636865
3740000000.0 0.17989494896976893 0.09335936247239465
3760000000.0 0.06926211265744843 0.20621023443412037
3780000000.0 -0.1312278957985909 -0.19151712370937257
3800000000.0 0.0036775308637566036 0.24487860490107952
3820000000.0 -0.024695366820378005 -0.25471469981159933
3840000000.0 -0.25514137290313704 0.06733362412537587
3860000000.0 0.26337575914030953 0.05386509494703948
3880000000.0 -0.19863512922742763 -0.18411720600922316
3900000000.0 0.08672116842824912 0.25173233499817743
3920000000.0 -0.16249721934107367 -0.19745238534673717
3940000000.0 0.2297230684383242 0.06602041056885466
3960000000.0 0.07494980470008628 0.20547376748776516
3980000000.0 0.1773582199556679 0.08299136456723258
4000000000.0 -0.16697654869820283 0.03599483336041468
