!Created with skrf (http://scikit-rf.org).
# Hz S RI R 50.0 
!freq ReS11 ImS11
400000000.0 0.5133289063249292 0.7156461026624005
420000000.0 0.4492540065903867 0.7353165748571632
440000000.0 0.732767313123695 -0.3887689783606633
460000000.0 0.4092223617076055 -0.6780672002711265
480000000.0 0.5914625335335927 0.42666805917289025
500000000.0 -0.09435540256063217 0.6121258715136675
520000000.0 0.11458137998918011 0.46190300621155805
540000000.0 0.11763527674128095 0.4187995276406467
560000000.0 -0.3723284840747257 0.06800833465787771
580000000.0 0.0009968833004097893 -0.36810373541051333
600000000.0 -0.2865798420751935 0.23697675798288062
620000000.0 0.10737818276981731 0.3416908633085024
640000000.0 0.0890486736445254 0.3764293882573275
660000000.0 -0.15368254027449682 0.36625459189439835
680000000.0 -0.23612378503724143 0.34237892333858716
700000000.0 0.2618309154077548 -0.33493062256383793
720000000.0 -0.3306398748519538 -0.30404631565370677
740000000.0 -0.41228989754178424 0.10920380877061314
760000000.0 0.3901808055044489 0.041765581087906845
780000000.0 -0.06253033197181286 0.3506255939949289
800000000.0 0.17693751922256226 0.22870185372829974
820000000.0 -0.04171339904635405 0.2424281052073157
840000000.0 -0.08987568405599566 0.2216159849676506
860000000.0 0.13607436363365485 -0.15300857645823487
880000000.0 0.018954273257506114 0.15762609857969317
900000000.0 0.1163441593282489 0.022804787053162138
920000000.0 -0.05976227210318443 0.05187908124584107
940000000.0 -0.037664048723163625 -0.03083015580188003
960000000.0 0.042756346939747475 0.013939158767256191
980000000.0 0.01853652599550989 -0.05634968462133527
1000000000.0 -0.010753718454328171 -0.0791355324798546
1020000000.0 -0.056183301924135266 -0.08212969970750719
1040000000.0 -0.028922726405000973 -0.1271672344614588
1060000000.0 0.07631495548740533 0.14396981135113485
1080000000.0 -0.1766797716552835 -0.0585344170054499
1100000000.0 -0.20322588759337548 -0.06612732876864068
1120000000.0 0.22001026950109828 -0.023740433050119403
1140000000.0 0.24449662679649084 0.06258378587435445
1160000000.0 0.26752721813606334 -0.10620812026763504
1180000000.0 0.04212118229342362 -0.3185464323423406
1200000000.0 0.3444565205567521 0.039827207328248106
1220000000.0 -0.35782359062367747 0.08764122428378719
1240000000.0 0.387829382430318 -0.03624522948343264
1260000000.0 -0.316065695603252 -0.2543654577520566
1280000000.0 -0.23467497157058093 0.3561705881184332
1300000000.0 0.31578990725160516 0.2876512698295669
1320000000.0 0.2968960040462434 0.3126523551729293
1340000000.0 0.41178766456844773 -0.16975235518147627
1360000000.0 0.08586816518689494 -0.43496598709586415
1380000000.0 -0.23679258190052066 -0.35911996816763064
1400000000.0 -0.2552090048452566 0.32736709808091535
1420000000.0 -0.3318266126987772 0.22030052141666784
1440000000.0 0.14571755592239777 0.3544583993714937
1460000000.0 0.0933117129375604 -0.345437060587787
1480000000.0 -0.2792925456752456 0.16542999333638556
1500000000.0 0.2251144967460827 0.18970504063499447
1520000000.0 0.2480435031972511 -0.09011940709887262
1540000000.0 -0.090636061596995 0.21107593202655825
1560000000.0 -0.18994536758820793 0.05387354759969074
1580000000.0 0.15074500072281066 -0.04625722980229016
1600000000.0 0.04390691204605798 -0.12510966606659338
1620000000.0 -0.10119932432140835 0.024273087632470148
1640000000.0 -0.08496783377128773 0.007882367643553378
1660000000.0 -0.03544881522340345 0.05065790829199626
1680000000.0 0.04306818423479902 -0.017567913012908512
1700000000.0 -0.021703015433007143 -0.012054253026998236
1720000000.0 -0.0034171309991233973 -0.01051524722338294
1740000000.0 -0.01464021698737786 -0.005378903730628761
1760000000.0 -0.03250216417376148 -0.017629628393872273
1780000000.0 -0.062176344458791555 -0.010149052640232714
1800000000.0 0.09180695163792177 -0.04202658383015714
1820000000.0 0.06024581919010918 0.11499031320528617
1840000000.0 0.15592826629165124 0.024634635940249817
1860000000.0 -0.1473987807277227 -0.13665726861151836
1880000000.0 0.18259635881364616 -0.15183987318406272
1900000000.0 -0.2743568890973063 0.029175478548802477
1920000000.0 0.29583599865529325 -0.10637896421469538
1940000000.0 -0.3463947454717061 0.030551537655553396
1960000000.0 0.2922665004681055 0.22974390315552884
1980000000.0 -0.0443712072171486 -0.3964362498750084
2000000000.0 -0.20781523140716196 0.35494724431180424
2020000000.0 -0.08397795186653904 0.41624770182536125
2040000000.0 0.4262171553470079 0.10157767220429774
2060000000.0 0.10529827605086928 -0.42757128742453837
2080000000.0 -0.39547643044675534 -0.1915743218956552
2100000000.0 -0.42107947711585386 0.1000748595985351
2120000000.0 -0.35573053295557305 0.22181514271172806
2140000000.0 -0.41356504709983183 -0.03909181912489781
2160000000.0 -0.39131651943509826 -0.04588781575027735
2180000000.0 -0.38447335517827996 0.010355720399342757
2200000000.0 -0.2372030991701559 0.285273468047024
2220000000.0 -0.10935892122327757 0.34362103972825786
2240000000.0 -0.046336871981179785 0.35290714622850194
2260000000.0 0.24697848757477178 0.2585621989385029
2280000000.0 0.33031881261751 0.1396380477645892
2300000000.0 0.3334589063443799 -0.1603432185415408
2320000000.0 -0.08281363961565646 -0.3825542369054996
2340000000.0 -0.4185159524510007 -0.015540940086059413
2360000000.0 0.34546468482379133 0.3062472050455491
2380000000.0 -0.4703761428352281 -0.174537388333875
2400000000.0 0.4532109489080574 0.30793805775825095
2420000000.0 -0.5979633383822132 -0.008795131275698602
2440000000.0 0.40368000466012377 -0.501013822860852
2460000000.0 0.18139780268796915 0.6550669956468633
2480000000.0 -0.5172844644599393 -0.48188261167670965
2500000000.0 0.5506186572504499 0.4735756368363832
2520000000.0 -0.46023617179848225 -0.575668541357881
2540000000.0 0.15512102395148392 0.7244090924706845
2560000000.0 0.3192897159394436 -0.6644579020651018
2580000000.0 -0.7257929377760595 0.008441045407020287
2600000000.0 0.41799126090505384 0.5678303172814293
2620000000.0 0.2959861904315414 -0.6117608600889669
2640000000.0 -0.08138053128806103 -0.6429500895118249
2660000000.0 -0.5395788005735213 0.28541026782893775
2680000000.0 0.49835558864942225 0.27279134107675335
2700000000.0 -0.09978677686862202 -0.5164088831978226
2720000000.0 -0.32721751286706086 0.35090677921164526
2740000000.0 0.4270188121579025 -0.08904765539139492
2760000000.0 -0.27666759062594676 -0.28254232234905696
2780000000.0 0.18754903545687032 0.31125764960679175
2800000000.0 0.23900795444137704 -0.2354997941948832
2820000000.0 -0.03975282609805079 0.3200747752265806
2840000000.0 -0.26131567996530014 -0.1573936454771175
2860000000.0 0.28018535792126564 -0.09986602903144404
2880000000.0 -0.054955194178676635 0.28799688023256165
2900000000.0 -0.20902282738913402 -0.20187103667963363
2920000000.0 0.08242565942046733 0.27592627125243663
2940000000.0 0.28349759134028457 -0.07136656490615971
2960000000.0 -0.025462190158478018 -0.29589696573818924
2980000000.0 -0.0796831420282343 -0.29166612736669956
3000000000.0 -0.294109349358472 -0.09913924817395034
3020000000.0 -0.25758466419328596 -0.17343748950942647
3040000000.0 0.08369022082019001 -0.29931523578484404
3060000000.0 0.30316643765065737 -0.00805385865405519
3080000000.0 -0.21548359676004242 0.20919555063133727
3100000000.0 0.06450434325414803 -0.28500783025014165
3120000000.0 -0.1346371218848153 0.25201637687477113
3140000000.0 -0.11273540989728477 -0.25872182886397993
3160000000.0 -0.051247668871786174 0.26663645489934595
3180000000.0 -0.2606696041685582 -0.00265512545605739
3200000000.0 -0.2226453571686948 -0.06972093347379864
3220000000.0 0.11322986273611858 -0.17528475782421174
3240000000.0 0.1762444472601053 0.015127085704388261
3260000000.0 0.14063878419518086 -0.03404427396499837
3280000000.0 -0.06673968517714435 -0.09475084148567531
3300000000.0 0.040320888712077854 -0.09026065283867998
3320000000.0 0.0050391688881261205 -0.0761105839144022
3340000000.0 -0.026804380041319076 0.04314012332234037
3360000000.0 0.025902714849559583 0.0075091279120721435
3380000000.0 -0.011641243257202243 0.0027438248904675788
3400000000.0 0.0022963619694241393 0.010367346601769486
3420000000.0 0.01524732224448767 0.009844846084936347
3440000000.0 0.0040636347314743386 -0.0159698305277525
3460000000.0 0.03217301397910206 -0.020373052591491827
3480000000.0 -0.03724250256741171 -0.026681289038706632
3500000000.0 -0.047978576203014746 0.05828451291232629
3520000000.0 -0.055676545324991764 0.06766923990227841
3540000000.0 0.09291566808184538 0.02744032858354465
3560000000.0 0.10001448696969287 -0.014496566030188352
3580000000.0 -0.1161029437920086 -0.017903042936809294
3600000000.0 0.12644651892198613 0.034046506677963675
3620000000.0 0.1475512432971406 0.03119282864612383
3640000000.0 0.12375140245415989 0.099593091718785
3660000000.0 0.07890863316129741 0.1482451054886499
3680000000.0 0.07583964603822833 0.15828916519083167
3700000000.0 0.16520503116847868 0.046933606925865345
3720000000.0 -0.16256815636831531 0.05071602670255566
3740000000.0 -0.07124405675500894 -0.15500400277739818
3760000000.0 0.1660266890715048 0.023322427128506462
3780000000.0 -0.10783347362769309 0.12581152020304037
3800000000.0 -0.12970346120494275 -0.09178820780764962
3820000000.0 -0.019024977586110638 0.13748602235349636
3840000000.0 -0.1162396556670136 -0.059604646627216346
3860000000.0 0.12779274453797532 0.022230953084252325
3880000000.0 -0.0647203057605926 0.11550091033077822
3900000000.0 -0.1443121248625247 0.010403818257291864
3920000000.0 0.09195347012207356 -0.12157299183977717
3940000000.0 0.1393848031905102 0.08051825341371038
3960000000.0 0.14604984899570275 0.07102367954533999
3980000000.0 -0.1626032198050417 -0.011727056515613019
4000000000.0 -0.07249178788600125 0.14332339128747712
