!Created with skrf (http://scikit-rf.org).
# Hz S RI R 50.0 
!freq ReS11 ImS11
400000000.0 0.7806181959981568 0.38722888394480504
420000000.0 0.2500162573220757 0.7773505755115155
440000000.0 0.3948701189543378 0.6510666422811123
460000000.0 -0.5350754842842755 -0.43173716012303537
480000000.0 -0.18757528328866838 -0.5902862047520989
500000000.0 0.6461472482444395 0.04495064207852297
520000000.0 -0.351426447083679 0.5716036679982426
540000000.0 0.6102916296758019 -0.293187215804401
560000000.0 -0.2388572078202846 0.6241872117303195
580000000.0 -0.3098929781149727 0.4163015387434477
600000000.0 0.13516290513736592 0.5799355895412823
620000000.0 -0.4445147040277206 -0.4189208962580145
640000000.0 -0.4487456660392331 -0.34111573356767894
660000000.0 0.05082126410985502 0.5252283339474174
680000000.0 -0.07699877608876125 0.48675192168657844
700000000.0 0.4085086193922246 -0.19258805944749946
720000000.0 -0.26711362134059596 0.40856328820196114
740000000.0 0.43061955019537773 0.1924331727473373
760000000.0 -0.07351585445648583 0.4406286971364037
780000000.0 -0.43141013950879153 0.0017706187468539423
800000000.0 0.033828232619882576 -0.3966275263535725
820000000.0 0.35454140748902135 -0.008037974148825754
840000000.0 -0.08330917982304645 0.3106387212418311
860000000.0 0.24913613285811573 -0.1692921165414731
880000000.0 0.18888004355339882 0.1973788888139477
900000000.0 -0.05851310252876662 0.25981741502095324
920000000.0 0.24976569306781155 -0.05443370936783643
940000000.0 0.06483501960638176 0.21272892348641342
960000000.0 -0.15634687958000903 -0.08923804833507724
980000000.0 -0.13714997084382236 0.05349444629882681
1000000000.0 -0.03311329110739648 -0.12540758998782223
1020000000.0 0.02041992037554593 -0.09788189004325715
1040000000.0 -0.09890105346858685 0.05432055508130402
1060000000.0 0.04935764103853938 0.13594084529596573
1080000000.0 0.18365990201065308 0.06413390303554675
1100000000.0 0.0633550205577163 0.22961725546116973
1120000000.0 0.2289842835918291 -0.15438373416710888
1140000000.0 -0.30117049182908345 0.00984954422803185
1160000000.0 -0.2880017788684797 0.1395565153423887
1180000000.0 -0.33691187297699055 -0.0018990465482384426
1200000000.0 -0.2663459526442207 -0.2261318330703814
1220000000.0 0.3561457318912904 0.02956871325307439
1240000000.0 0.1422590748397049 0.3499526467647589
1260000000.0 0.37300952715551683 -0.12644797184979595
1280000000.0 -0.36266818560747494 -0.12717954707651868
1300000000.0 -0.15826676847387408 -0.344791077317731
1320000000.0 0.004755935317162364 -0.3805599614174152
1340000000.0 -0.36411848519129913 0.052411906989181634
1360000000.0 0.19382707164226853 0.33524380843838686
1380000000.0 -0.015302846018569786 0.400046033547751
1400000000.0 -0.09892841720383354 -0.38144192460481346
1420000000.0 0.024363098148289557 -0.39214693655910177
1440000000.0 -0.2850266326817206 -0.2737680427013726
1460000000.0 -0.3896175514756978 0.07144771041359764
1480000000.0 -0.3784060024328437 -0.11203946490793695
1500000000.0 0.11662094860668641 0.3836503266596815
1520000000.0 -0.38112692696911077 0.07304761909998546
1540000000.0 0.36174731734532767 0.018419240401065063
1560000000.0 -0.19508354947935094 0.26666802758001784
1580000000.0 -0.19935065390054305 -0.21575245849623675
1600000000.0 0.06892913374964725 -0.24680224639107495
1620000000.0 0.18878474452613264 -0.1065320911869857
1640000000.0 -0.17358783096483046 -0.06189340332672227
1660000000.0 0.060349163617377875 0.14170560960286135
1680000000.0 0.08776660032602274 -0.0682673374934913
1700000000.0 -0.10101914961786844 -0.014259210509886714
1720000000.0 0.042026349087622525 -0.06816871342255448
1740000000.0 0.050446122279743946 -0.059323660483393666
1760000000.0 -0.053913989888423046 -0.07118682756459838
1780000000.0 0.06886185521791877 -0.09341634177974427
1800000000.0 -0.01990533385429938 -0.13685803280048742
1820000000.0 -0.15938544007538982 0.052744397220883
1840000000.0 0.16446358987150522 -0.10657603901891173
1860000000.0 -0.16430961193170282 0.14932117292004266
1880000000.0 -0.07281782167106345 0.24664763480127785
1900000000.0 0.154856294276926 0.22692048359620048
1920000000.0 0.19489987936789394 -0.22133918253581603
1940000000.0 -0.3043278029180633 -0.013705169939805013
1960000000.0 0.3007775375771831 0.07537782197523091
1980000000.0 -0.2994667149959522 -0.09439107665032907
2000000000.0 0.0905190781346923 -0.30676217475144296
2020000000.0 0.3164343988735967 -0.0487684298286475
2040000000.0 0.3157728995956477 0.04587293980729197
2060000000.0 0.2856627090608054 0.1343446992202774
2080000000.0 0.15433760181384912 0.2754909637330707
2100000000.0 -0.0012372413220556916 -0.3122556971260431
2120000000.0 0.3047312340666472 0.0094126959676093
2140000000.0 -0.10798994327082188 -0.2788315494228727
2160000000.0 -0.18454092338497263 0.23371675797693628
2180000000.0 0.03801905989655798 0.28591917721178794
2200000000.0 -0.17382055571716226 0.22689028696707564
2220000000.0 -0.12633744993909302 0.2525690935641987
2240000000.0 -0.200924403190465 -0.19054331989880158
2260000000.0 0.22125469093983877 -0.15711388477403743
2280000000.0 0.26873599653362845 -0.05500841980824174
2300000000.0 0.2190783862669117 0.1355301017246804
2320000000.0 -0.1114161072415941 -0.2289505405288788
2340000000.0 -0.0342663835975637 -0.2547791420757082
2360000000.0 0.14666182787941287 -0.20648506157284618
2380000000.0 0.08103557504331602 0.24304152736889137
2400000000.0 0.14256885370419806 0.23825576150177585
2420000000.0 0.03914188889388695 -0.29378201841793006
2440000000.0 -0.16108074574886608 0.2707494719098101
2460000000.0 0.336352027303766 -0.02878829324155561
2480000000.0 0.018626419056191845 -0.3714302812055371
2500000000.0 0.24215926150729064 0.3270900331187759
2520000000.0 -0.39377725485587467 -0.20361265867843448
2540000000.0 0.4711934546246227 -0.08718435179719636
2560000000.0 -0.3198270711707782 0.4000064964259334
2580000000.0 0.19792557623580306 -0.5038448343742515
2600000000.0 -0.0744176280553141 0.56146160552989
2620000000.0 0.011783521717331576 -0.5885056997496005
2640000000.0 0.23429174099223002 0.5582651641435404
2660000000.0 -0.55213163895868 -0.28448836129812394
2680000000.0 0.38811853530449586 -0.496911650728745
2700000000.0 0.6089560728289926 0.19633133925907761
2720000000.0 0.4457267502174745 0.4657324144280316
2740000000.0 0.2648754488588959 0.589666445242797
2760000000.0 0.3096612504245825 0.5670699802094364
2780000000.0 -0.639914040773094 -0.013074189083749244
2800000000.0 -0.49345248583229195 -0.39182685590848254
2820000000.0 0.10112037333313706 -0.6097161548045861
2840000000.0 0.462752144512735 0.38718592451014394
2860000000.0 -0.49883949883393175 -0.3115678286501709
2880000000.0 0.21421567891899862 0.527560576776041
2900000000.0 0.47701636652197477 -0.2708349156931291
2920000000.0 0.05130119490708729 -0.5245270457178834
2940000000.0 -0.3538728357915023 -0.356071349330986
2960000000.0 -0.2249126587817886 -0.4215835651694991
2980000000.0 -0.3150813193095203 -0.3287870451447168
3000000000.0 -0.33369586607905494 -0.2822219745306033
3020000000.0 -0.3918455150224843 0.14914497506549051
3040000000.0 0.12746120775666656 0.37813914260831405
3060000000.0 0.34421621091029353 -0.16054229055520794
3080000000.0 -0.3648477618411716 0.008478984116940149
3100000000.0 0.3444220239280502 0.0704135850810369
3120000000.0 0.20994712155721515 -0.2758871656330693
3140000000.0 -0.05860405656564379 0.33677511523609654
3160000000.0 0.0631917792225747 -0.3329748747580061
3180000000.0 0.08656618162674411 0.3247584885304204
3200000000.0 0.32525153650084393 -0.05385598997214206
3220000000.0 -0.12753074404416215 -0.29883227142457575
3240000000.0 -0.27678267466036965 -0.15352014690996335
3260000000.0 -0.30316996944368485 0.03266666421038469
3280000000.0 -0.2872088236895329 -0.053675305202979355
3300000000.0 -0.2660384286576529 -0.06916428858709042
3320000000.0 -0.1595324717605753 -0.19426021863393603
3340000000.0 0.2212730786204188 -0.05178969530089239
3360000000.0 -0.15576555203644638 0.13211007537060912
3380000000.0 0.022959049413461254 -0.18505932548999732
3400000000.0 0.15682788297651545 -0.052600420000942366
3420000000.0 0.14151986827891835 -0.014227632683258648
3440000000.0 0.04866719733617764 0.11598274249089385
3460000000.0 0.04465488805228233 0.09731727934556988
3480000000.0 -0.03936167060471983 -0.08143066105587339
3500000000.0 0.008978066201274173 0.08138681736200935
3520000000.0 0.008423392682756027 -0.07914316406771783
3540000000.0 0.05209828638426352 0.06118775944710192
3560000000.0 0.07511696078477079 0.04814591708892714
3580000000.0 -0.06249775768211871 -0.06918479571612533
3600000000.0 -0.08480676688437444 -0.04647594201290612
3620000000.0 0.09114198537419292 0.06048107701944634
3640000000.0 0.03724476329197225 0.11768085084506962
3660000000.0 -0.005253580326755778 0.13278854939176138
3680000000.0 0.018927111458849222 0.13650435877359018
3700000000.0 -0.12917230062124715 -0.005630257359530612
3720000000.0 0.07446640978950915 -0.08928815019836668
3740000000.0 -0.09989394235786196 -0.001712428158744653
3760000000.0 -0.06847905478634254 0.04599186204268491
3780000000.0 0.06369060160033177 -0.008487386709427284
3800000000.0 0.000749966138596982 0.03509088943463047
3820000000.0 -0.0026518189584171497 -0.0032682164012937565
3840000000.0 0.004128490388612582 -0.03287501915508169
3860000000.0 -0.0031993385574478252 -0.06207543957222333
3880000000.0 0.054508213545870036 -0.0695887956897397
3900000000.0 -0.10416889066043777 0.03136578894180993
3920000000.0 0.023390562474145792 0.1236236124415522
3940000000.0 0.1060269850175762 0.08162079032809069
3960000000.0 0.09356663580042758 0.10165182003542106
3980000000.0 -0.0783291300947042 -0.10978243910234659
4000000000.0 -0.08008215078044284 -0.08154536624954271
