!Created with skrf (http://scikit-rf.org).
# Hz S RI R 50.0 
!freq ReS11 ImS11
400000000.0 0.780837368286999 0.3778792115142745
420000000.0 0.42358674681958963 0.7031974340023944
440000000.0 0.3342207876307637 0.683278018944535
460000000.0 -0.3970837559363203 -0.5669550046496329
480000000.0 -0.3397576826474284 0.5464628474506082
500000000.0 -0.6405319928207001 -0.04294587958646987
520000000.0 -0.4727601190264063 0.45491081204324935
540000000.0 0.6666127530910928 -0.06071300861962884
560000000.0 -0.2633384387108926 0.6053781555204237
580000000.0 -0.12361849245094568 -0.5280401245049492
600000000.0 -0.15591026224184756 0.5547901396265549
620000000.0 -0.025684106516733536 -0.6141240926073037
640000000.0 -0.4851484632014651 0.2982308413431923
660000000.0 0.1986215005495682 0.4730866135953427
680000000.0 -0.46939387035365343 -0.08102548231366205
700000000.0 0.3915717883032567 0.2500941888620203
720000000.0 -0.39780516690340484 0.2734407545330108
740000000.0 0.17531050214584756 0.43899216904255
760000000.0 -0.10713640501817594 0.43327146822476065
780000000.0 -0.1782373939813096 -0.4034578194187736
800000000.0 -0.40551351388459295 -0.011315574712100554
820000000.0 0.33934261288498246 -0.11356826627463928
840000000.0 0.3119677485549833 -0.0982309407103433
860000000.0 -0.04599330229692312 -0.28923025720851986
880000000.0 0.19649244442876368 0.1801751477584134
900000000.0 -0.16342137214162467 0.21464112573792904
920000000.0 -0.06481135735403772 -0.23848019818736063
940000000.0 0.08623853588726821 0.19969721794819714
960000000.0 0.005037656731807728 -0.1811554478521538
980000000.0 -0.06460575595960999 0.12086668321390794
1000000000.0 -0.07369930217572325 -0.10748603620954149
1020000000.0 -0.060145821352983686 0.09824322301966883
1040000000.0 -0.08930656158244156 0.08024936532092551
1060000000.0 -0.15087115780440394 -0.007346148770200454
1080000000.0 -0.01148356905636932 0.19469381097483815
1100000000.0 0.22192769317943195 -0.07031385209362537
1120000000.0 -0.0267899428755305 -0.2707165814007607
1140000000.0 0.04443967409792712 0.2847818652644265
1160000000.0 -0.15307896785653557 -0.26397094961271583
1180000000.0 -0.005615156953605662 -0.33988694169314493
1200000000.0 -0.041672714362600664 -0.3492509702164538
1220000000.0 0.2871308911044659 0.2265026761709539
1240000000.0 0.2770912136304206 0.26019297192223034
1260000000.0 0.3050992562230067 -0.255919220615297
1280000000.0 -0.3701883721013207 0.10071678080060048
1300000000.0 -0.22480940827937804 -0.30237146658098607
1320000000.0 -0.0979706047693203 -0.3606691092981393
1340000000.0 -0.27224713024516 -0.2446573307592603
1360000000.0 0.14353728208994632 0.36348946635490587
1380000000.0 -0.07903963460229263 0.3940428705960207
1400000000.0 -0.12203978738457102 -0.37823632931206125
1420000000.0 -0.23536239929793934 -0.31347878067206936
1440000000.0 -0.3097795215465689 -0.24766522952417971
1460000000.0 -0.3729216737742192 0.1353951456951538
1480000000.0 -0.35393961058543333 0.17633942356666552
1500000000.0 0.23355417589837338 0.31984448839073126
1520000000.0 -0.2828855050103763 -0.26293824631162976
1540000000.0 0.27939945928685056 0.2278745274242242
1560000000.0 -0.3228319513313261 0.10252697494258861
1580000000.0 -0.19476083905709213 -0.22559315470327057
1600000000.0 -0.03568231984732651 -0.2564848713034076
1620000000.0 -0.05927101294291914 -0.21022601891865478
1640000000.0 -0.12806543425959316 0.12891591185812484
1660000000.0 -0.11367349674404761 0.0982661930404606
1680000000.0 0.08270363459949387 0.07696216982256157
1700000000.0 0.007266881854430905 -0.11129006248773136
1720000000.0 -0.013210934646994346 -0.07878468271337184
1740000000.0 -0.0166174534445158 0.06793407011127603
1760000000.0 0.06957581238646986 -0.04209037247851021
1780000000.0 -0.06127032948210662 0.09980704961392912
1800000000.0 0.1275265254746606 0.05771121387035831
1820000000.0 -0.16613833918273552 -0.035435934495497035
1840000000.0 0.18557308016666374 -0.07466436257421885
1860000000.0 -0.21486887118411016 0.06627336100002756
1880000000.0 0.1942561015397778 0.17072755676526105
1900000000.0 0.24938935288342343 0.1167821195831863
1920000000.0 0.22744634175143857 -0.18652517606362018
1940000000.0 -0.3030086396031512 0.03159993730567224
1960000000.0 0.301665032447163 0.06025736406748298
1980000000.0 -0.2589372062170903 -0.17664144290095743
2000000000.0 0.06857550596879161 -0.31606832972395954
2020000000.0 0.30559144887569967 -0.10778144592505565
2040000000.0 0.26772117324889483 -0.17491285060747197
2060000000.0 0.302652409724547 0.08179563624744365
2080000000.0 0.23459996239902367 0.20829566173910924
2100000000.0 0.12424453659883873 -0.2852698277344756
2120000000.0 0.2651135188588312 0.1527881336663881
2140000000.0 -0.2210749509142595 -0.20601223953489683
2160000000.0 -0.018464237631831977 0.2969677928445714
2180000000.0 0.2397021594759182 0.15856268645398722
2200000000.0 0.03191548072502937 0.28100707848889644
2220000000.0 -0.22572680176166882 0.16475059453097973
2240000000.0 -0.10191237174350028 -0.25762575224910894
2260000000.0 0.2607287633552743 -0.08632902068754342
2280000000.0 0.2769433701683137 0.005618445107069798
2300000000.0 0.25551427118921444 -0.05742443370672567
2320000000.0 -0.2457973113879001 -0.06087871366762705
2340000000.0 -0.10643135886002154 -0.23196479871919995
2360000000.0 0.22851750770920937 -0.1055513289427264
2380000000.0 0.08735982656646292 0.24093096465934713
2400000000.0 0.19534226881893396 0.19242977976724712
2420000000.0 0.08485461690662838 -0.27958125032397374
2440000000.0 -0.22730095682896392 0.2165517373997456
2460000000.0 0.33645796603877687 -0.031506845034675976
2480000000.0 0.0005735009339064864 -0.3716165870639887
2500000000.0 0.3197791012528141 0.2521096176143555
2520000000.0 -0.43817035303940494 -0.07147988933220763
2540000000.0 0.45524272363021584 -0.15283904269685247
2560000000.0 -0.2882065927848269 0.4226900012057476
2580000000.0 0.23309169695654527 -0.4893359729638866
2600000000.0 0.001312355016316602 0.5672814050963201
2620000000.0 -0.06095235636742867 -0.5846171173416788
2640000000.0 0.2593155967562097 0.5463744740565138
2660000000.0 -0.5729037535118721 -0.2387721870802053
2680000000.0 0.34005136046988294 -0.5296917026266105
2700000000.0 0.6201731411870656 0.1551138740601638
2720000000.0 0.4724575813113531 0.43885910044601845
2740000000.0 0.4667660300961683 0.44734849788748643
2760000000.0 0.40033982225450276 0.5071997982736439
2780000000.0 -0.638291871864696 0.030021115106015663
2800000000.0 -0.5524100293146027 -0.30213072355901455
2820000000.0 0.060460559997070146 -0.6157147593143365
2840000000.0 0.4804471009031964 0.3662347869499054
2860000000.0 -0.4994594206436007 -0.3116499753852721
2880000000.0 0.20956235171852974 0.5317898229089002
2900000000.0 0.4224132949313817 -0.3529700634575697
2920000000.0 -0.12038302913555368 -0.5151760045706594
2940000000.0 -0.4368773902793585 -0.24492464702294958
2960000000.0 -0.29755082990858067 -0.3706614773104217
2980000000.0 -0.36658041891821225 -0.2670447915286636
3000000000.0 -0.3557224679216336 -0.24356933958168264
3020000000.0 -0.4081924176112756 0.08850223539151938
3040000000.0 0.07092017058047696 0.39028405167728336
3060000000.0 0.3237183809994251 -0.19810038799186885
3080000000.0 -0.3588638658902421 0.07718532570110744
3100000000.0 0.35086743027928524 0.01877108782256262
3120000000.0 0.16904186174473723 -0.30228355076072216
3140000000.0 -0.12779236082110632 0.31623785510639013
3160000000.0 0.018355193744466272 -0.34054989515237294
3180000000.0 -0.07436303894523395 0.3273620791784583
3200000000.0 0.33332237163373774 -0.003193254855791653
3220000000.0 -0.1579311044410091 -0.28708284755546865
3240000000.0 -0.30706869900623096 -0.08301164255220302
3260000000.0 -0.2864195433261993 0.10199589371078252
3280000000.0 -0.28611418912573183 0.06286478806467664
3300000000.0 -0.2735050076533521 -0.0037371805867167274
3320000000.0 -0.18776633676702315 -0.16443682019084407
3340000000.0 0.21120357274001655 -0.07968809097583404
3360000000.0 -0.16020086789960325 0.12380019639455433
3380000000.0 0.030954269235840687 -0.1823902787014198
3400000000.0 0.11089925900778047 -0.12100051231658657
3420000000.0 0.10524769057322882 -0.0944536472571959
3440000000.0 0.03710009872327524 0.11699063752136125
3460000000.0 0.07762733849411647 0.07085990803181151
3480000000.0 0.044351562807988104 0.07985834086754576
3500000000.0 -0.08336711182547975 0.008903154079881435
3520000000.0 -0.0675504897535372 -0.04528830492820971
3540000000.0 0.0803665279568351 -0.018441657892975343
3560000000.0 0.0561899678851333 0.06920587291649338
3580000000.0 -0.09319026058816181 -0.007871230018077017
3600000000.0 -0.060917101315663504 -0.07730589618324633
3620000000.0 -0.04552917716632281 0.10094045922952942
3640000000.0 0.035332743017663294 0.11969284077724585
3660000000.0 -0.045419112382976336 0.12744544664705687
3680000000.0 0.11830279053255366 0.0741683031480303
3700000000.0 -0.000915007656293253 0.12833954169144268
3720000000.0 -0.06966516905636745 -0.09209388243764781
3740000000.0 -0.08217840640156238 0.051879872853643164
3760000000.0 0.011361089834764457 0.08088663480588282
3780000000.0 0.06246471982230869 -0.010469185339217337
3800000000.0 -0.008466046887102506 0.0343216789992906
3820000000.0 -0.0013235372016068055 0.0013402717449697338
3840000000.0 -0.03121601684155903 0.013286461815074417
3860000000.0 -0.05345603017596987 -0.03276063070356002
3880000000.0 -0.08314090991082361 -0.03423237425578257
3900000000.0 0.06492236804992288 0.08699517018438446
3920000000.0 0.11964713722430904 0.025231363178422003
3940000000.0 0.10403173049266895 0.08035757692117002
3960000000.0 0.13854994530922177 0.005789153836039128
3980000000.0 -0.1302867391558665 0.027636614275348376
4000000000.0 -0.11010706972503992 0.027275576018664878
