!Created with skrf (http://scikit-rf.org).
# Hz S RI R 50.0 
!freq ReS11 ImS11
400000000.0 0.7809708244767594 0.38680778615485234
420000000.0 0.16646986833003277 0.7992678845717888
440000000.0 0.36935401970849197 0.668655123653664
460000000.0 -0.6504003367578135 -0.2260416837661028
480000000.0 -0.37055791763753754 -0.49494874009645484
500000000.0 0.647998140558318 0.05751019944674453
520000000.0 -0.19914272300888722 0.641366094571529
540000000.0 0.6066415755837822 -0.3002232163960721
560000000.0 -0.4996445657166956 0.4340210468492084
580000000.0 -0.5040733908272461 0.13149780462837127
600000000.0 -0.3152454028048389 0.50792740357273
620000000.0 -0.30100312433819787 -0.5422727185370732
640000000.0 -0.5694265817410066 0.09131905826878557
660000000.0 0.5208659646648137 0.06682354488573683
680000000.0 0.08282487029929017 0.47660146353891664
700000000.0 0.42116343532717 0.15281193861654047
720000000.0 -0.48875275018422165 0.01732430831824191
740000000.0 0.2932500594430332 0.381603314254201
760000000.0 0.30658411783268125 0.32018815349196994
780000000.0 -0.424100144844189 -0.041486015046677746
800000000.0 0.3685155421193207 -0.1500497576234882
820000000.0 0.22303394236218643 0.2880839802166717
840000000.0 0.3123784451409845 -0.10318982761884253
860000000.0 -0.2626489881670976 -0.1319500937723306
880000000.0 0.25352904278943 0.058429195705017756
900000000.0 -0.25529527645166594 0.07296436386297113
920000000.0 -0.10253843812247956 0.24035763288256884
940000000.0 0.13298543899530613 0.18598330713807631
960000000.0 0.0822040183122299 0.1686648189179793
980000000.0 -0.12169626237225627 0.061497849417724085
1000000000.0 -0.07030727804443365 -0.10398696589810351
1020000000.0 -0.10076862102905808 -0.021959166862773213
1040000000.0 -0.0506989260071524 -0.11400775161484056
1060000000.0 -0.002494827920212137 -0.14771666273270231
1080000000.0 -0.19024812123240917 -0.051006084550235094
1100000000.0 0.1751061013708024 0.15577874614096893
1120000000.0 0.26437488841956674 -0.06810043188958056
1140000000.0 -0.2975696374963201 -0.044254401293113435
1160000000.0 -0.2981087119300804 -0.10702707499023023
1180000000.0 -0.21247154628866075 -0.26755222323178873
1200000000.0 -0.31745880323408954 0.15708084308783957
1220000000.0 0.3510114259714114 -0.0065838148401377175
1240000000.0 -0.0410400068527669 0.3750484372368663
1260000000.0 0.379404837515493 -0.11379974572708337
1280000000.0 -0.38651173359022867 0.03634097173935766
1300000000.0 -0.32692012887830757 -0.18512348944437787
1320000000.0 0.07144255813210004 -0.36945169153521906
1340000000.0 -0.3091137078528412 -0.20768181812959963
1360000000.0 0.2057964621288598 0.3362921776496279
1380000000.0 -0.07099457827472196 0.3936897304268115
1400000000.0 -0.0191157967876264 -0.3956296860293027
1420000000.0 -0.0031224207477940132 -0.39033563035938684
1440000000.0 -0.15181294640636026 -0.3658134022164961
1460000000.0 -0.3694112471685133 -0.1457618416727648
1480000000.0 -0.35002968513090266 -0.18894107904875576
1500000000.0 0.14217535568850884 0.3715096853626367
1520000000.0 -0.38070465897874545 -0.06939555462065333
1540000000.0 0.3573340704643169 -0.06085415205944135
1560000000.0 -0.058418892519888736 0.3229009374257763
1580000000.0 -0.16867587203068807 -0.2385231481826851
1600000000.0 0.04724098057802577 -0.2530860876850624
1620000000.0 0.18496375247265284 -0.11298375808387272
1640000000.0 -0.13357892969910204 0.12714261201199134
1660000000.0 -0.08490904016151027 0.13127426600259803
1680000000.0 0.029073476516999933 -0.10961245732243839
1700000000.0 -0.09287415103012998 -0.041494953805040376
1720000000.0 0.0710026326849491 0.03454892220164549
1740000000.0 0.08017833416497064 -0.01019696189357081
1760000000.0 0.0435068170222784 -0.07788057621492311
1780000000.0 0.08563543068410753 -0.08177618394659375
1800000000.0 0.07967734709802651 -0.1134899484099265
1820000000.0 -0.15423828279552732 0.06464697098635822
1840000000.0 0.18814737749475202 0.04928426389742898
1860000000.0 -0.1911975383135982 -0.11465105017439402
1880000000.0 0.051859414258655784 0.25237702401255274
1900000000.0 0.106684657745637 0.25117168163015746
1920000000.0 0.1754192696390867 -0.23497245464721916
1940000000.0 -0.3049098216246664 -0.0030650749862114403
1960000000.0 0.28427151789904 -0.11633252510865655
1980000000.0 -0.292858344864775 -0.11298797938345877
2000000000.0 0.09538141041028932 -0.30687782389869317
2020000000.0 0.29647320878987954 -0.12879966461574838
2040000000.0 0.3186343139647838 -0.048542688191003824
2060000000.0 0.3090855616715051 0.0661910887917943
2080000000.0 0.04677665787166098 0.31199523202690316
2100000000.0 0.2334546914082663 -0.21105308943160178
2120000000.0 0.2788266221749605 0.12814418636430033
2140000000.0 -0.12504230396297658 -0.27252526172968417
2160000000.0 -0.27994907699985594 0.09444301748699256
2180000000.0 0.013658456319922102 0.28728453051263936
2200000000.0 -0.17878382835702564 0.21841085640285837
2220000000.0 -0.20606573638568715 0.19096154017995987
2240000000.0 -0.14630567637479486 -0.23481376575717133
2260000000.0 0.08545205422737663 -0.2568583350944383
2280000000.0 0.27146514806768723 -0.009593364166086644
2300000000.0 0.21942570412838902 0.14030307994252217
2320000000.0 -0.2295681283986541 0.11301454629188475
2340000000.0 -0.09491591236322067 -0.236405258126163
2360000000.0 0.2546547388547689 -0.019968624449622843
2380000000.0 0.0531276219281323 0.25352400909365336
2400000000.0 0.13420265355738395 0.24761197541306582
2420000000.0 0.042275203637172375 -0.2953767405049046
2440000000.0 -0.17868280753503415 0.2614990331573656
2460000000.0 0.31547703559634815 0.12102664510037103
2480000000.0 0.22984880421745565 -0.29217947535164285
2500000000.0 0.019840611292122924 0.4073056904647398
2520000000.0 -0.3994474002834001 -0.19432957238644938
2540000000.0 0.4698134141979693 -0.0841974031889801
2560000000.0 -0.32637460578974364 0.3914014540732683
2580000000.0 0.24178833533785693 -0.4824736806829453
2600000000.0 -0.06037993611243816 0.5635457665477102
2620000000.0 -0.12036732625550978 -0.5777898230362244
2640000000.0 0.3507121293403495 0.4958651036790302
2660000000.0 -0.5657056753885881 -0.26176697830329204
2680000000.0 0.4111316982264308 -0.48116028005311523
2700000000.0 0.6030217513749465 0.2198288686869348
2720000000.0 0.30727651526718586 0.568937059214199
2740000000.0 0.24195724425484885 0.6010100968085923
2760000000.0 0.13703603812065043 0.6323896690861609
2780000000.0 -0.6016224117685788 -0.216233012121089
2800000000.0 -0.3870302424052277 -0.4961907992005283
2820000000.0 0.18123723066055816 -0.5889355508736216
2840000000.0 0.4586225890748713 0.39036923989368233
2860000000.0 -0.503775487195161 -0.3007746403864699
2880000000.0 0.27028193059715006 0.500371715090824
2900000000.0 0.3931966147550915 -0.3816739258630579
2920000000.0 0.015777358324344605 -0.5258547011312934
2940000000.0 -0.34438411256492485 -0.3677157417430121
2960000000.0 -0.19277106148918827 -0.4391252518144346
2980000000.0 -0.2948411335607334 -0.3512185025058492
3000000000.0 -0.36560655764598976 -0.2426381093509457
3020000000.0 -0.40828839625844005 0.10023935965809085
3040000000.0 -0.0868026766714456 0.39114650445634846
3060000000.0 0.3809019421434021 -0.022851932574597392
3080000000.0 -0.3255658826699824 -0.16490254384549075
3100000000.0 0.2528357932161255 0.24456391530948857
3120000000.0 0.26134254379909283 -0.2256759354254691
3140000000.0 -0.16017020487182068 0.2993155482349866
3160000000.0 0.13042464096814826 -0.31082575239831994
3180000000.0 -0.0316737046280841 0.3331316948163737
3200000000.0 0.29663569849323995 -0.14231214515503168
3220000000.0 -0.22189965154181052 -0.23649399078689431
3240000000.0 -0.28882191401887497 -0.12821322733588175
3260000000.0 -0.2706715380360276 0.1433235083384148
3280000000.0 -0.29369199899150433 0.01867154838849734
3300000000.0 -0.27603199926824545 0.01186761583193227
3320000000.0 -0.1287745963051969 -0.2182589775559471
3340000000.0 0.20348816218995414 0.10700495686628739
3360000000.0 -0.18709285125621722 0.08895742494881366
3380000000.0 0.1279104461991592 -0.1393403500585687
3400000000.0 0.1334091102639651 0.1019504093841508
3420000000.0 0.12715254619650246 0.06503273491234872
3440000000.0 -0.08932031889861766 0.08623583508847085
3460000000.0 -0.09256480596967727 0.04998562270399154
3480000000.0 0.0760057671393121 0.045508810823818545
3500000000.0 -0.04633872463273765 0.0662089754554386
3520000000.0 -0.022650965857207134 -0.07455957776465716
3540000000.0 -0.009632627483227916 -0.07797518269220674
3560000000.0 0.07886867050649816 -0.036563064308283655
3580000000.0 -0.09211581190977045 0.014170177712693587
3600000000.0 -0.07617839250327038 0.06226642194686492
3620000000.0 0.0879482304881967 -0.06902254222814312
3640000000.0 0.11029768440723867 0.059772058187688555
3660000000.0 0.009777617320177618 0.13393895774832038
3680000000.0 -0.04827021965120547 0.13129859305529262
3700000000.0 -0.06686247976437389 -0.11420168284937388
3720000000.0 0.11888393709965935 -0.021634465378322493
3740000000.0 -0.09578611784759383 -0.03292905050564502
3760000000.0 -0.05182048979362893 -0.0641357831655385
3780000000.0 -0.05580501016573065 -0.02898537491178349
3800000000.0 0.020674581172221464 -0.02779199851551434
3820000000.0 -0.0021247984036052428 -0.00038025561169479407
3840000000.0 -0.036190781091524585 -0.00032224616452930835
3860000000.0 -0.04516737490176492 -0.045515411036655434
3880000000.0 0.08763793017001552 -0.023920395169304186
3900000000.0 -0.08546910629035773 -0.07125462374363281
3920000000.0 -0.12596742079192533 -0.007399705880312748
3940000000.0 -0.07794748138835302 0.11277664365035352
3960000000.0 -0.023031328317748623 0.13910007012490114
3980000000.0 0.021871152784134974 -0.13148897176581967
4000000000.0 0.059853591537564456 -0.09401830591222093
