!Created with skrf (http://scikit-rf.org).
# Hz S RI R 50.0 
!freq ReS11 ImS11
400000000.0 0.8428224821353668 -0.2460391436761814
420000000.0 0.7665349351418465 -0.32296044673717306
440000000.0 0.4206852815758969 -0.6472953605533784
460000000.0 0.22439371509465175 0.6588221236200986
480000000.0 0.34874879954672955 -0.4768846977726658
500000000.0 0.45498494379806387 0.43049068155043396
520000000.0 0.4411275717525477 -0.46619830608706647
540000000.0 0.09145468883397152 -0.5982196838154792
560000000.0 0.620371974233191 0.03898095757724383
580000000.0 0.4454123346429383 0.2695900348617802
600000000.0 -0.25430372793987427 0.5390584853508916
620000000.0 -0.383425878524953 -0.4699927945113492
640000000.0 -0.334677953624937 -0.44972275259549627
660000000.0 -0.0908919649695516 0.5102995488029239
680000000.0 0.28418858720927154 -0.3876623819702096
700000000.0 0.44209690535970986 0.21530532036298178
720000000.0 0.47032414634247866 0.16442820929454044
740000000.0 0.17508851588232563 0.4395861712376477
760000000.0 -0.09439773183366464 0.4492876420128836
780000000.0 -0.45158153056260086 -0.005061652725432679
800000000.0 -0.15004903891686297 -0.37353313941402205
820000000.0 0.07385853297993875 0.35070061865365176
840000000.0 -0.3239212653478873 -0.09239862299781826
860000000.0 0.16554036500240193 -0.2642143461217206
880000000.0 0.17241521056563824 0.2184250896519188
900000000.0 0.07977849242147997 0.262632560751199
920000000.0 0.03194141822603516 -0.25844484724117595
940000000.0 -0.06788521314890575 -0.21186722982298797
960000000.0 0.030996878167800616 -0.16187461963075941
980000000.0 -0.11837349235715737 -0.06242259537852601
1000000000.0 0.08764488727245746 0.10561026652948399
1020000000.0 0.11361337290174 0.021437107231657003
1040000000.0 0.01816715227902278 0.12863562606509912
1060000000.0 -0.12973099114114334 -0.08385904529517706
1080000000.0 -0.1867779243561048 0.0724001170014237
1100000000.0 -0.1088428217872983 -0.2236688301374983
1120000000.0 -0.21713659291696666 -0.1791457012939273
1140000000.0 -0.09507532068592615 0.29404958683425136
1160000000.0 0.23852998134868814 0.22897139795322943
1180000000.0 -0.08013776310548786 0.32981854866287846
1200000000.0 -0.35522372030989346 -0.048272354847657954
1220000000.0 0.19087275505898055 -0.3144482351850127
1240000000.0 0.36074318727163407 -0.10527897495510807
1260000000.0 0.17421659006370352 -0.3533931007703645
1280000000.0 -0.29508503490495097 0.23982916172167357
1300000000.0 0.07642986475992107 -0.35832959912028395
1320000000.0 0.2724914145504307 -0.2601706267174855
1340000000.0 -0.346255744819041 0.12293053181252496
1360000000.0 0.16668507979651678 0.3462998037330484
1380000000.0 -0.10503316067271673 0.379225264347996
1400000000.0 -0.0378926629017249 -0.3818896858059903
1420000000.0 0.31455444341261984 -0.217964715655505
1440000000.0 -0.062282556684812945 -0.38269749520973906
1460000000.0 -0.21354633305643198 -0.32319835341352293
1480000000.0 -0.09758238886021527 -0.38020845664001657
1500000000.0 -0.35243798391486103 0.17178767039863818
1520000000.0 0.11645223696402897 -0.36716395295541626
1540000000.0 0.031060446419187305 0.3591019402890484
1560000000.0 -0.16992738177888236 -0.28253270178579937
1580000000.0 0.29363649540189 0.022975460279627487
1600000000.0 0.26184892546980437 -0.009300991505765606
1620000000.0 0.12444172999440299 0.17126754891592436
1640000000.0 -0.01107155458305252 0.18640903786097654
1660000000.0 0.1312906558574518 -0.09375000303043356
1680000000.0 -0.08764191893045421 -0.08654605523271426
1700000000.0 0.11840365623129731 -0.007959376773815014
1720000000.0 0.07957594293847148 -0.04650287410728356
1740000000.0 0.01163648581207212 -0.08371218980041334
1760000000.0 -0.022649689112158516 0.08849001244478652
1780000000.0 -0.095675617526909 0.05294746701517283
1800000000.0 0.08815247421419356 0.09485415515046962
1820000000.0 0.06519954655882454 0.14571212608445716
1840000000.0 0.0747393443662944 -0.17710883920908754
1860000000.0 0.0577192686826373 0.21024858068939767
1880000000.0 0.18898191874787199 0.16639236100460175
1900000000.0 0.2669593935545261 -0.05698574591618201
1920000000.0 0.020407266954620657 -0.2903708325857729
1940000000.0 -0.3056206430308819 -0.001061095121450063
1960000000.0 0.17931865315562484 -0.25331349936681935
1980000000.0 -0.3059672684607371 0.05887588938064079
2000000000.0 0.15677186040202842 -0.2800686689445293
2020000000.0 0.24138385553535413 -0.2172854291686929
2040000000.0 0.3110883379021425 -0.08781641036895231
2060000000.0 0.20043132941653094 0.2517096137105183
2080000000.0 -0.002243089149705726 0.32778320299311614
2100000000.0 -0.10913821641567624 -0.30556387452080574
2120000000.0 0.21401877090481172 0.23619372406682773
2140000000.0 -0.22425857152559206 -0.22893885310976392
2160000000.0 0.11057182299123226 0.2986959309609264
2180000000.0 0.26838439571246764 -0.15392955111107293
2200000000.0 0.233625835569824 -0.19472542989720537
2220000000.0 0.06497443983873243 -0.2897267042635245
2240000000.0 0.2896199153550404 -0.008142323431538622
2260000000.0 0.11862421676339882 0.24847674046574675
2280000000.0 -0.19916224034444152 0.1801050793747694
2300000000.0 0.0667732353151622 -0.2408736775729589
2320000000.0 -0.16658841038091293 0.18174794989773072
2340000000.0 0.01974807131403293 -0.24312783472613464
2360000000.0 0.041340679815965654 0.23968131756539793
2380000000.0 0.04655568567145006 -0.252274139115848
2400000000.0 -0.2828473795609574 0.006959411827340586
2420000000.0 0.2649750572060066 0.14478461975848358
2440000000.0 -0.195884720899531 -0.2602506133680606
2460000000.0 0.11180665828557917 0.3376644135681692
2480000000.0 0.144884691521941 -0.364484225905863
2500000000.0 0.3308670820828591 0.2704555974774902
2520000000.0 -0.4452885215310524 0.1262226129793019
2540000000.0 0.2627436774934185 -0.419838229514312
2560000000.0 0.052439045354597015 0.5235529218909265
2580000000.0 -0.20994644137999469 -0.5120170820772199
2600000000.0 0.2570968270726778 0.5153483394616196
2620000000.0 -0.34100040457452807 -0.4880580893561243
2640000000.0 0.4662966409740358 0.3945439864621361
2660000000.0 -0.6243307753010183 0.03509728865059385
2680000000.0 0.12576187628495886 -0.6213415069114945
2700000000.0 0.6251081124253957 -0.1497371508205409
2720000000.0 0.614942504057258 0.20234207541394855
2740000000.0 0.600168284706684 0.24725526217335234
2760000000.0 0.581443417503459 0.2901028399616564
2780000000.0 -0.5072311382483701 0.39706624277675284
2800000000.0 -0.6244910454460314 0.11673965669810886
2820000000.0 -0.38889056234608677 -0.48741047074550103
2840000000.0 0.5928930090375039 -0.14082812171109102
2860000000.0 -0.4380666268560076 0.40033907746156283
2880000000.0 0.5619852934857009 -0.11476528477645469
2900000000.0 -0.23794675584149827 -0.4973903762939395
2920000000.0 -0.5253503892351148 0.05078189723510021
2940000000.0 -0.3598668593557956 0.3446858797601016
2960000000.0 -0.32177228351892223 0.3457566945655027
2980000000.0 -0.28292334247734885 0.3455453746792596
3000000000.0 -0.15707140776292536 0.3951006618411709
3020000000.0 0.06243070556197345 0.3980607259912216
3040000000.0 0.3058592473174616 0.233883130140845
3060000000.0 0.27360430958233506 -0.24874562599374728
3080000000.0 -0.3330187625387279 -0.13204248709987915
3100000000.0 0.22904164987140788 0.2618490285297993
3120000000.0 0.26439433296002746 -0.22248232642306162
3140000000.0 -0.33907218777437886 0.053632320457348795
3160000000.0 0.3421078949610661 0.016223056138021788
3180000000.0 -0.3395113701261817 -0.056383787943771815
3200000000.0 -0.017334512513309783 0.3421098017926886
3220000000.0 0.2973991775339726 -0.16308400644356452
3240000000.0 0.11197557557992723 -0.3145158388517409
3260000000.0 -0.176611184065118 -0.27432893679294973
3280000000.0 -0.30765998587300386 -0.06876618627421952
3300000000.0 -0.2238907829507563 0.19697961440088876
3320000000.0 -0.04355813177116662 0.2682322080808795
3340000000.0 -0.23386877296459135 0.0819454200780425
3360000000.0 -0.2059210566849713 0.07856727726490595
3380000000.0 -0.11298816382856987 -0.15482570218147973
3400000000.0 -0.058617203251808844 -0.15733499880596233
3420000000.0 -0.06886553229599211 -0.12281984684194601
3440000000.0 -0.024709060207375073 -0.11593013869810463
3460000000.0 0.0872882438881377 -0.0365736948176033
3480000000.0 -0.054670123246391825 0.05466629074061622
3500000000.0 -0.07008664647084387 -0.019293822199761914
3520000000.0 -0.041825175530254895 -0.05765281853201357
3540000000.0 0.05866883132661285 0.05152494378494642
3560000000.0 -0.05605584506346082 0.06481231668285518
3580000000.0 0.06691240380776657 0.069665284544023
3600000000.0 0.012768384955089218 -0.10334642987178365
3620000000.0 0.07998996100048414 0.08753188799071251
3640000000.0 0.07465259283276635 -0.11232940515709265
3660000000.0 -0.10113648759975019 -0.10593235473167074
3680000000.0 0.11067740483129623 0.10216267711922274
3700000000.0 0.03536706007804118 0.13866570995922847
3720000000.0 0.12882842169204933 -0.006200600125376711
3740000000.0 0.1020348530629008 -0.015175513005800978
3760000000.0 -0.027973822818943474 -0.07457011159098752
3780000000.0 0.05786822415266588 0.010727158755675122
3800000000.0 -0.018580172666974076 -0.019851741967284477
3820000000.0 -0.007744150350667402 -0.008258080107910973
3840000000.0 -0.04796426671271844 0.005385746876296627
3860000000.0 -0.05453052630002158 0.057319133702235806
3880000000.0 -0.07445243221086052 -0.07284124303111027
3900000000.0 0.0995600769815368 0.07969960656369537
3920000000.0 -0.109975898935558 -0.09145354665906312
3940000000.0 -0.04191584558540686 0.1465372433873089
3960000000.0 0.05030045110730313 -0.15052212620767894
3980000000.0 0.13044566269795188 -0.07020151407746307
4000000000.0 -0.12351934555299794 0.01998704511046377
