!Created with skrf (http://scikit-rf.org).
# Hz S RI R 50.0 
!freq ReS11 ImS11
400000000.0 0.7815985449247995 0.38562581774071863
420000000.0 0.30803400211561016 0.756099312058303
440000000.0 0.4459474183423294 0.6163399530134773
460000000.0 -0.544202529345528 -0.4158420903487725
480000000.0 0.11262353155984849 -0.6076087502791797
500000000.0 0.605874793622086 -0.23988668732581508
520000000.0 -0.10744441923335993 0.659590034473066
540000000.0 0.644914248798871 -0.19125893237078168
560000000.0 -0.476751954421618 0.46896083266144406
580000000.0 -0.11553732400955342 0.5144002345063533
600000000.0 0.31708546778208585 0.49595811199581585
620000000.0 -0.2743825057211403 -0.540674156304856
640000000.0 -0.161608962260283 -0.5422489670188916
660000000.0 0.05565715996980847 0.5244524970852309
680000000.0 -0.028115412094578338 0.4964566059859036
700000000.0 0.36256399055659927 -0.2677723930967306
720000000.0 0.10556820393779462 0.47753743468086035
740000000.0 0.2733004802422028 0.3735003419899242
760000000.0 -0.3781812430810235 0.23414541961392582
780000000.0 -0.433991356209995 0.025896672270956978
800000000.0 -0.15976655645757132 -0.3676116738558179
820000000.0 0.36008985931710363 -0.010036937268626187
840000000.0 0.2042538809679833 0.24713400361437504
860000000.0 0.15165112985212234 -0.24748454741262452
880000000.0 -0.2586779786434237 0.09022388265990539
900000000.0 -0.2057242437459497 0.17919563861309878
920000000.0 0.1780512303539396 -0.18427987302358165
940000000.0 0.15963352061468844 0.1576979011085199
960000000.0 -0.10481462603844642 -0.15200431188934524
980000000.0 0.06497894373142575 0.13593594287133945
1000000000.0 -0.006130268354224704 0.12219709529086648
1020000000.0 -0.09146138993715523 -0.013477424974779523
1040000000.0 0.03492378511795115 -0.10786299452294623
1060000000.0 0.14799546399362773 0.021045919270163197
1080000000.0 0.11427340138835408 -0.15690132182981015
1100000000.0 0.06121726772650365 0.2312606225670665
1120000000.0 0.27781769501168785 -0.008093630124264442
1140000000.0 -0.19818989571636558 0.22270511132327112
1160000000.0 -0.2652168712879902 0.17736100402966154
1180000000.0 -0.32658553718510885 -0.07540202979040689
1200000000.0 -0.15088271521254273 -0.3168386448628625
1220000000.0 0.34236481973397564 -0.11301592485889612
1240000000.0 0.20900632549607465 0.3136501670973585
1260000000.0 0.33082443211346757 -0.20752740641492373
1280000000.0 -0.3368712048900049 -0.17790273562550568
1300000000.0 0.1566919798235862 -0.34718545614880386
1320000000.0 -0.08382260442824371 -0.37550004353844374
1340000000.0 -0.3181109107425416 0.18456977626307927
1360000000.0 0.2872763373058531 0.2583576146620508
1380000000.0 -0.21091897316356248 0.33854734736672415
1400000000.0 -0.16813733985638776 -0.358670318315687
1420000000.0 -0.08148546960633236 -0.3848942235808276
1440000000.0 -0.3103873388493423 -0.2424912153005863
1460000000.0 -0.37844571476776956 -0.11091404545798218
1480000000.0 -0.3950457009129095 -0.05247558190432059
1500000000.0 0.20700697172034582 0.34166697680223096
1520000000.0 -0.38406683024522664 0.05874001919703382
1540000000.0 0.3414422814912847 -0.11551616360849484
1560000000.0 -0.28252265172803775 0.1733852248132705
1580000000.0 -0.16980601379249904 -0.23991774285224177
1600000000.0 -0.02669632032958157 -0.2550263180305804
1620000000.0 0.2010810605660316 -0.07596961182592164
1640000000.0 -0.18381071652693293 0.019200293578918913
1660000000.0 -0.0006134153386870648 0.1551807630944476
1680000000.0 0.011836800565935276 -0.11051243396150474
1700000000.0 -0.056556167639246833 -0.0839619824622252
1720000000.0 0.05433082696551817 -0.05883999589508937
1740000000.0 -0.02969165231693266 -0.07361362401133309
1760000000.0 -0.02722742154089194 -0.08213193562822357
1780000000.0 0.11535149506243454 -0.008711294979213056
1800000000.0 0.09956827294059654 -0.09800446262440879
1820000000.0 -0.11460311986841462 0.12394211417949026
1840000000.0 0.14637619826699982 -0.12813164827961912
1860000000.0 -0.1943353165145768 0.10864310084406299
1880000000.0 -0.11596195047570725 0.22685818417408865
1900000000.0 0.13758742416776032 0.23927356094035435
1920000000.0 0.18298221357463118 -0.23018321117035043
1940000000.0 -0.3049708360942306 -0.026095566566117997
1960000000.0 0.29561013554757026 0.08974539776119073
1980000000.0 -0.30743779866031495 -0.06808577221378197
2000000000.0 0.014075444432269279 -0.31989939662924227
2020000000.0 0.31839896890139824 0.0045613782073320895
2040000000.0 0.2943001660753309 0.12655253825191468
2060000000.0 0.27993006204688753 0.1493884845501395
2080000000.0 0.1873238155554875 0.2558479692177207
2100000000.0 -0.0804020565215609 -0.3013138480915242
2120000000.0 0.30315267528377554 0.014298706625083656
2140000000.0 -0.08948177507246052 -0.28475614964268886
2160000000.0 -0.2219493679171771 0.19892406600221468
2180000000.0 0.05687204568563395 0.28401300894715226
2200000000.0 -0.10652281888665566 0.2643821236432065
2220000000.0 -0.168389939717755 0.22524382708047302
2240000000.0 -0.22220743624696038 -0.16810091680310918
2260000000.0 0.2550415935636388 -0.09441580130294301
2280000000.0 0.2659609697406162 -0.062415960631431726
2300000000.0 0.22831835693205849 0.12156329594236791
2320000000.0 -0.1618645132390839 -0.19615460804839024
2340000000.0 0.0037118582599690417 -0.2561988586937712
2360000000.0 0.2196202223682571 -0.12994371193259555
2380000000.0 0.14628108561955205 0.21021602630180822
2400000000.0 0.08744405499586407 0.262739258268592
2420000000.0 0.02526078577583678 -0.29509201287254827
2440000000.0 -0.14647074674396157 0.2784460743021943
2460000000.0 0.33648395849144125 -0.02664828166019034
2480000000.0 0.02005357235342064 -0.3709213941404129
2500000000.0 0.14839906218919063 0.3792168720302653
2520000000.0 -0.4208868639155623 -0.1449896899820989
2540000000.0 0.4438244518244179 -0.18131971077053324
2560000000.0 -0.3095787754268086 0.4062814166727914
2580000000.0 0.2091451434733411 -0.49937839538346
2600000000.0 -0.1376229954005982 0.5493451686072554
2620000000.0 -0.0063322459873757725 -0.588837036929898
2640000000.0 0.19958666387575896 0.5712679220114292
2660000000.0 -0.5481713650153511 -0.29303660072772797
2680000000.0 0.378844974827247 -0.5042138949255727
2700000000.0 0.6244605172682253 0.1413888289323707
2720000000.0 0.47229649888213426 0.4382900970830632
2740000000.0 0.24606888235261756 0.5973937412589497
2760000000.0 0.2506561250602048 0.5951964936179658
2780000000.0 -0.6386949854686353 -0.04255215694057437
2800000000.0 -0.4693090400375084 -0.42124442749616015
2820000000.0 0.10643999703856463 -0.6090080081781835
2840000000.0 0.4719672478027892 0.37542539248005574
2860000000.0 -0.5060560467085004 -0.29703856053489347
2880000000.0 0.14835840160390515 0.5492577781375799
2900000000.0 0.47917411760799405 -0.2674559495466348
2920000000.0 0.006414867097193738 -0.5272576661982641
2940000000.0 -0.2743777291991333 -0.4213112139212982
2960000000.0 -0.2389353821963509 -0.4141922662848841
2980000000.0 -0.3610840001706421 -0.2778868663226348
3000000000.0 -0.3538990270881328 -0.25502977113429026
3020000000.0 -0.3932903747896076 0.14180748717771047
3040000000.0 0.10119408457898414 0.38680867823555054
3060000000.0 0.31392150487294035 -0.2154132221439355
3080000000.0 -0.3640525673356881 0.036275143027145795
3100000000.0 0.34275647311958257 0.06714278799474903
3120000000.0 0.2749156282813107 -0.20926376603810123
3140000000.0 -0.1400752217108396 0.31269081806091675
3160000000.0 -0.019817922544805813 -0.3383215507941772
3180000000.0 0.005722316207104292 0.3357542695382537
3200000000.0 0.3184813442410401 -0.08712255565390858
3220000000.0 -0.12227063252267635 -0.3008823531844796
3240000000.0 -0.2435278495186355 -0.2038539382513477
3260000000.0 -0.28835866330558096 0.10070704036249882
3280000000.0 -0.2907067487762876 0.0014484333500220253
3300000000.0 -0.24406684959240849 -0.12720749833439468
3320000000.0 -0.14927457337613947 -0.20286758809485989
3340000000.0 0.22707724612878255 0.023688000211939828
3360000000.0 -0.1396730491539514 0.1493931160573942
3380000000.0 0.03446298922249853 -0.18236522742600578
3400000000.0 0.16448839730584558 -0.013341541430398028
3420000000.0 0.1333891313365246 0.05189659850109575
3440000000.0 0.06727507420466632 0.10691879191853403
3460000000.0 0.07837954808572656 0.07147317175487652
3480000000.0 0.029742971325755596 -0.08513409188799632
3500000000.0 0.052352475152078956 0.0625921394373087
3520000000.0 0.006690701642526508 -0.07922189804937572
3540000000.0 0.08045919934596088 -0.003419236270858438
3560000000.0 0.08797958026059113 0.011780226604449643
3580000000.0 -0.06429157299017094 -0.0675495967550733
3600000000.0 -0.07058480861410589 -0.06785181083361393
3620000000.0 0.10875276710851961 0.012741437112164373
3640000000.0 0.027178649370011333 0.11994624926860352
3660000000.0 -0.11835682361925745 0.059324392147389514
3680000000.0 0.01233712889112588 0.1379763399913198
3700000000.0 -0.1143313584161167 0.06202518822718868
3720000000.0 0.03373751330658944 -0.11104577108079938
3740000000.0 -0.09264927953771829 -0.0346257884888593
3760000000.0 -0.08139672405499952 -0.014783762295326372
3780000000.0 0.06213958354019739 -0.020344397362630405
3800000000.0 0.03437817930460075 -0.008753735490723695
3820000000.0 -0.0031482452382751366 0.0013268125895031118
3840000000.0 -0.00248131714216639 -0.0332738987596134
3860000000.0 -0.016258934305967022 -0.05954854758346575
3880000000.0 0.04323681205164042 -0.07679779751997012
3900000000.0 -0.10556214092542665 -0.02424809051566318
3920000000.0 -0.01771555878680264 0.12444007586654654
3940000000.0 0.10209042952299124 0.08734691803347133
3960000000.0 0.06417236577657123 0.12268311713112051
3980000000.0 -0.05552105059605524 -0.12280609295057889
4000000000.0 -0.09950172291143279 -0.05576319836560356
