!Created with skrf (http://scikit-rf.org).
# Hz S RI R 50.0 
!freq ReS11 ImS11
400000000.0 0.8294109062071765 -0.28769744176647266
420000000.0 0.7826122594709697 -0.2865453142220507
440000000.0 0.3907366866229679 -0.6637999073686863
460000000.0 0.10346085179242781 0.6861498887366405
480000000.0 0.4392030492241759 -0.3987323281289152
500000000.0 0.5844877970271604 0.22981105386287295
520000000.0 0.09478732558304566 -0.6345496301545455
540000000.0 0.10774062606499737 -0.5917797704583574
560000000.0 0.6024373029816986 0.1478165793402064
580000000.0 0.3238507004587937 0.413813942810275
600000000.0 -0.15065416408402216 0.5838720810019473
620000000.0 -0.41852845831966823 -0.4390696376158273
640000000.0 -0.5194706199291763 -0.21208145095847833
660000000.0 0.017913875087333168 0.5134428534463398
680000000.0 0.4056436020461301 -0.24838180575071583
700000000.0 0.1418246084954299 0.4799649825174387
720000000.0 0.4950531242084259 -0.0843321093940358
740000000.0 0.4039443565337964 0.2553404916575556
760000000.0 0.11924835190396381 0.4351948559679948
780000000.0 -0.38884848252391285 -0.22036739413747544
800000000.0 0.3477908701273011 -0.21263140201806832
820000000.0 0.35658310927884923 0.09606787814657661
840000000.0 -0.26510559401969136 0.19285774078215553
860000000.0 0.3067666253271038 -0.051000073881145754
880000000.0 0.2525347484961877 0.1298295609380946
900000000.0 0.1649663202299634 0.21736038646257375
920000000.0 0.07171609635113417 -0.24445903357351906
940000000.0 0.08169484227857825 -0.20516734965498204
960000000.0 0.09242982046220659 -0.1400139234348705
980000000.0 -0.08719126886903919 0.10531141438868549
1000000000.0 -0.022980594644636063 -0.12936862112799416
1020000000.0 -0.03260015332579596 0.10943149409473245
1040000000.0 0.13027697722536008 0.011728363826451866
1060000000.0 0.08669831766799066 -0.13012286886207128
1080000000.0 -0.15834899557556956 0.12683480079655485
1100000000.0 -0.15997074638107403 -0.18973330457830204
1120000000.0 -0.2719083208460918 -0.05765568592747096
1140000000.0 -0.2771438675579002 0.1338832402442328
1160000000.0 0.3005698926947753 0.1436003811238786
1180000000.0 0.14387261093308712 0.30581730146484465
1200000000.0 -0.3525607424255738 0.013288787946879686
1220000000.0 0.33560675052363453 -0.1527585734235816
1240000000.0 0.3270886705640338 -0.19561507899760658
1260000000.0 -0.15805162102618492 -0.36056064366134793
1280000000.0 -0.36341531950246786 0.09724152476496442
1300000000.0 0.15531816995542416 -0.32977864353331376
1320000000.0 0.2825751292366349 -0.2546858434918691
1340000000.0 -0.3272900784203062 0.16695642602174418
1360000000.0 0.22343653751909473 0.3092656518772326
1380000000.0 -0.195945276937642 0.34181200178197424
1400000000.0 0.01807676565656321 -0.38181954376538474
1420000000.0 0.32658636594702106 -0.20430454847148252
1440000000.0 -0.18010876756809524 -0.34337338150263386
1460000000.0 -0.28452991722021437 -0.2607327945005631
1480000000.0 0.07545732363425992 -0.38760444775221126
1500000000.0 -0.23612185084663473 0.31380147373034845
1520000000.0 0.05187957188760631 -0.3815015794020339
1540000000.0 0.031079442527219114 0.361111067779168
1560000000.0 -0.248673954370947 -0.21614684767550402
1580000000.0 0.28871103504525597 0.057333267831366164
1600000000.0 0.25605913689339077 -0.05551480616105373
1620000000.0 0.050103454618928685 0.20744233059563327
1640000000.0 0.11585674684765813 0.14759196155048013
1660000000.0 0.08390664775736444 -0.13561110575311638
1680000000.0 -0.10864318130147806 -0.051087922355980184
1700000000.0 0.07514804458314461 0.09112074611479422
1720000000.0 -0.06185915599671757 -0.07204524627307755
1740000000.0 -0.0170360058189092 -0.07979334613663738
1760000000.0 -0.09128207730969262 0.011647649033158212
1780000000.0 -0.03976191388225707 0.10319987309754991
1800000000.0 0.09027055527450982 0.08918527672082262
1820000000.0 0.0762523194360158 0.14035770649340823
1840000000.0 0.049438053814866656 -0.1857151534044347
1860000000.0 0.07362512799196201 0.20668162411122698
1880000000.0 0.19502163583529858 0.15624214235351083
1900000000.0 0.26189518430085135 -0.07962313019285279
1920000000.0 0.018224823288205714 -0.29142206646761487
1940000000.0 -0.30480609846222484 0.0287927041811156
1960000000.0 0.18577108870173803 -0.24637250948017664
1980000000.0 -0.31220757512253594 0.0216201408871968
2000000000.0 -0.015002320324742774 -0.3201890670923518
2020000000.0 0.2816403496982039 -0.16019130827251224
2040000000.0 0.321843397589219 -0.027231458353688735
2060000000.0 0.1994044163988486 0.25394829411355035
2080000000.0 0.06752391927147812 0.3193765441568373
2100000000.0 -0.08222243938550004 -0.31303542629122594
2120000000.0 0.2142220839926513 0.23556738223326174
2140000000.0 -0.26207575112476833 -0.18529022737505374
2160000000.0 0.19175807089801972 0.2535783499390547
2180000000.0 0.27531878768993223 -0.14003674674740343
2200000000.0 0.2480010176489301 -0.17795464550978934
2220000000.0 0.020681024208732444 -0.29819176738101894
2240000000.0 0.264173422138134 -0.11693167888990709
2260000000.0 -0.005240193480379808 0.27598011869665573
2280000000.0 -0.23018354735162758 0.13606811040428765
2300000000.0 0.008823730172360862 -0.251387756182084
2320000000.0 -0.08294580837032998 0.22940210565914726
2340000000.0 -0.004459488100180196 -0.2432924335303493
2360000000.0 0.050235697654667504 0.23747709962521157
2380000000.0 -0.09521229523386109 -0.238285260764559
2400000000.0 -0.2822969418280229 -0.01964693731330281
2420000000.0 0.2828718234007099 0.10488092016951825
2440000000.0 -0.18589029639306362 -0.2676798473007669
2460000000.0 0.14660327737199752 0.32401479845121983
2480000000.0 0.1792337846280676 -0.34776930847963194
2500000000.0 0.2622108567163163 0.33644306909743577
2520000000.0 -0.43023090343273 0.17173713648067626
2540000000.0 0.1938690335560965 -0.45381560004094534
2560000000.0 0.09475962794514828 0.516787271613531
2580000000.0 -0.2393731662456065 -0.49801448140592036
2600000000.0 0.3115229447040476 0.4842589731915132
2620000000.0 -0.33237165032659355 -0.49392132678966894
2640000000.0 0.4892362163757772 0.3662590225773981
2660000000.0 -0.6230818016560805 0.05667390560950957
2680000000.0 0.06577229821322589 -0.6297745366517054
2700000000.0 0.6138126522564938 -0.19202560241162697
2720000000.0 0.632713083051389 0.13714473971681526
2740000000.0 0.5849064282384936 0.2798935457929779
2760000000.0 0.5380516025512813 0.36231746363961626
2780000000.0 -0.4435660508399015 0.46692785501686473
2800000000.0 -0.6138326179487703 0.15994657596822184
2820000000.0 -0.4175249837364153 -0.462166338377926
2840000000.0 0.5617692616534622 -0.23628098676343953
2860000000.0 -0.41405124433422397 0.4262380924730894
2880000000.0 0.5519724188801693 -0.15648059260043168
2900000000.0 -0.2700836786619903 -0.48129339025901946
2920000000.0 -0.5257507371048381 0.05473310435895303
2940000000.0 -0.24051180737884034 0.4359808124293998
2960000000.0 -0.32919642413164923 0.33947734457122297
2980000000.0 -0.3288292654952289 0.3044261808009952
3000000000.0 -0.12713851360818926 0.4059111950620683
3020000000.0 0.05351008336317438 0.3990875277988482
3040000000.0 0.25017900251364505 0.28964834874113254
3060000000.0 0.23960991281025448 -0.27890978798955945
3080000000.0 -0.3257453580278339 -0.14611808142851573
3100000000.0 0.24452247140246877 0.24725884968435677
3120000000.0 0.23216724156961022 -0.25271668283169246
3140000000.0 -0.3135996977175568 0.13465028651715616
3160000000.0 0.3425076437854199 -0.027620569619097212
3180000000.0 -0.3340196389770993 0.08071307724377244
3200000000.0 0.02617038102743306 0.3417045880858489
3220000000.0 0.2365690103255473 -0.24371473312483033
3240000000.0 0.07526123311558161 -0.32592805823074256
3260000000.0 -0.21503514653153263 -0.24748397453793258
3280000000.0 -0.3133779568754143 -0.048762744049701844
3300000000.0 -0.14447579987656206 0.26296580045161877
3320000000.0 -0.05186286056407098 0.267613698288348
3340000000.0 -0.2480045379097928 0.03056258198534749
3360000000.0 -0.1993255096413616 0.09850288425112019
3380000000.0 -0.08926709515129093 -0.1712233112952535
3400000000.0 -0.03903636740597845 -0.16408814532564284
3420000000.0 -0.013781941448063531 -0.1422459325547892
3440000000.0 -0.005005868793289037 -0.1199604677161635
3460000000.0 0.09357188021167523 0.01486075540411366
3480000000.0 -0.07843110143911929 -0.0068163191000364136
3500000000.0 -0.044513566501914 -0.057324323062279844
3520000000.0 0.026973246807877046 -0.06580502180691122
3540000000.0 -0.07309582640870803 0.03079805543840576
3560000000.0 -0.03696784699189913 0.07559773549806165
3580000000.0 0.049388852468894684 0.08057197916907485
3600000000.0 0.08790846072647347 -0.055336367438602235
3620000000.0 0.1164345163842282 0.02727212224445384
3640000000.0 0.02101496953214936 -0.13187324789496224
3660000000.0 -0.09774605256199516 -0.10894764460610949
3680000000.0 0.10782379876117601 0.10713612335197668
3700000000.0 0.10687155153871952 0.09719255578059954
3720000000.0 0.1280386812623709 0.01651211063411519
3740000000.0 0.09316665032723674 -0.046713438184329194
3760000000.0 -0.05746526028144226 -0.05851061023469483
3780000000.0 0.06048039168136538 -0.002098749219251262
3800000000.0 -0.010523839770611203 -0.025650851335146524
3820000000.0 -0.00013474049357473761 0.01040812833880072
3840000000.0 -0.03626503556684413 -0.03002978899429996
3860000000.0 -0.04343796111308585 0.06667535624611289
3880000000.0 -0.07753259107857013 -0.07291595037313421
3900000000.0 0.12234028150404909 0.04042334220674571
3920000000.0 -0.10529355519293729 -0.09822221677639961
3940000000.0 -0.08348712179108171 0.12870597084258728
3960000000.0 0.10144988204678262 -0.12334271782573879
3980000000.0 0.08476736905601312 0.12198281252472243
4000000000.0 0.03478971110719363 -0.12021057258394334
