!Created with skrf (http://scikit-rf.org).
# Hz S RI R 50.0 
!freq ReS11 ImS11
400000000.0 0.79013820511294 0.36626683759626005
420000000.0 0.24636021737578936 0.7779379070379501
440000000.0 0.4595680842949533 0.6054937559120381
460000000.0 -0.5984488645298056 -0.33928038071015776
480000000.0 -0.1251185660631782 -0.60657202871864
500000000.0 0.6124626329458973 -0.23019277990375778
520000000.0 -0.39407616881818636 0.5393006978965035
540000000.0 0.678802084688721 0.047746613375907784
560000000.0 -0.1345030318137957 0.6599538318290699
580000000.0 -0.16553283191028548 0.49266446894501015
600000000.0 -0.1730188951524872 0.5631683439205476
620000000.0 -0.2680202711500761 -0.5528176200413709
640000000.0 -0.462254600659298 -0.33739985589491306
660000000.0 0.3297040210804041 0.41239706317061836
680000000.0 0.26145008638813955 0.4170311878825945
700000000.0 0.25823639674762533 0.36460040023890516
720000000.0 -0.35316963108350957 0.3457566333596051
740000000.0 0.3814400074342833 0.2792129778666801
760000000.0 0.08792763376068526 0.43643261144117307
780000000.0 -0.42074864839795295 -0.0952793814852696
800000000.0 0.05735876717644846 -0.39291399105860025
820000000.0 0.23004479062998456 0.26398542306561446
840000000.0 0.05630919448181254 0.3165295455536737
860000000.0 0.2992790702450454 -0.03745009275931657
880000000.0 0.27677700181751314 0.015692376070916506
900000000.0 0.07745401814399112 0.2510758270628513
920000000.0 0.25273780973734 0.04535402043628769
940000000.0 -0.14227789944658034 0.1759185474490816
960000000.0 -0.18169102530744521 -0.013089972631940056
980000000.0 -0.11493655356385409 -0.0872220582193184
1000000000.0 0.12919915141980487 -0.01967596666340008
1020000000.0 -0.09475560039039695 -0.027501545158164605
1040000000.0 -0.10791379103149559 0.02329169146407099
1060000000.0 0.1345585834257163 -0.05914838369383805
1080000000.0 0.09125398012562264 0.17234172193338332
1100000000.0 0.14839860006170313 0.19296337467388378
1120000000.0 0.2553011135419851 -0.10437162429250565
1140000000.0 -0.29323480665401597 -0.05904066247886019
1160000000.0 -0.31598896293234907 -0.03560050014846732
1180000000.0 -0.33646543590748823 -0.03295571546424451
1200000000.0 -0.3242652497374912 -0.1352000172532175
1220000000.0 0.3406815606425776 0.09848990014822566
1240000000.0 0.20244622420836836 0.31780693032029583
1260000000.0 0.34866318683408526 -0.17943140922598885
1280000000.0 -0.3419620043520874 -0.17316001925295074
1300000000.0 -0.05140981937766481 -0.3771984061024974
1320000000.0 -0.12802172232312295 -0.35948328731005624
1340000000.0 -0.36539398846918575 0.0577406072649885
1360000000.0 0.23147295672557106 0.31382397843800824
1380000000.0 -0.19045108590938614 0.35438176697075996
1400000000.0 -0.05989602722650349 -0.39079293864214065
1420000000.0 0.1994590730644547 -0.3387197318713504
1440000000.0 -0.18351332571593318 -0.3501978258364709
1460000000.0 -0.3758244976452472 -0.12611434245348876
1480000000.0 -0.3044994578192165 -0.2531919949868142
1500000000.0 -0.04113418678158273 0.39622396266863213
1520000000.0 -0.3888167079443796 0.017459636760982437
1540000000.0 0.3168095698246925 -0.1702886819091249
1560000000.0 -0.28692515610722674 0.15926406443621072
1580000000.0 -0.20402029532918428 -0.21296514364995398
1600000000.0 0.03540081731463322 -0.25533721687607425
1620000000.0 0.18913938989192272 -0.10595272215486658
1640000000.0 -0.17560810767981008 0.05801014138187285
1660000000.0 -0.08046559166651768 0.13219959880336968
1680000000.0 0.09547331488901614 -0.06229252067429998
1700000000.0 -0.07952702039305598 -0.06395332549291576
1720000000.0 0.08084638234548784 0.006501017997457986
1740000000.0 0.07809228569605206 0.009426237807204613
1760000000.0 0.004794714655831482 -0.091083114059198
1780000000.0 0.09847049043159505 -0.06344048568865995
1800000000.0 0.1266649274169407 0.058921063513647995
1820000000.0 -0.1676619664947485 0.0172887653677531
1840000000.0 0.18495186703866834 -0.06274499658281765
1860000000.0 -0.20840655588495474 -0.075152771491467
1880000000.0 -0.043944401351627756 0.2510455054880606
1900000000.0 -0.011980194508916209 0.27281836952639665
1920000000.0 0.198879764652797 -0.21640815496181245
1940000000.0 -0.3030492483045419 -0.023145940449784762
1960000000.0 0.30506298251487074 -0.04029974075495743
1980000000.0 -0.303284128802986 -0.07925326800793957
2000000000.0 0.04745674791343117 -0.31730206530553196
2020000000.0 0.3138338170696557 -0.07344899450363511
2040000000.0 0.3217562901793385 -0.005334167285613305
2060000000.0 0.27436766947816155 0.15963270818985198
2080000000.0 -0.027138888765978357 0.3164748799228101
2100000000.0 0.1403410070447105 -0.28177706219719934
2120000000.0 0.2317476649819288 0.1987094332856987
2140000000.0 0.06571594071140645 -0.29205820949282046
2160000000.0 -0.29156232955507466 0.048348491896606074
2180000000.0 -0.1006423070124075 0.26987054830656226
2200000000.0 -0.15989146165649282 0.2337319664614394
2220000000.0 -0.22294942233208126 0.16866144639509364
2240000000.0 -0.1599599850691154 -0.2245288000253651
2260000000.0 0.1226813553817721 -0.2407001977213493
2280000000.0 0.26997638641617216 -0.01573934427717142
2300000000.0 0.25957535553078465 0.018655017227494075
2320000000.0 -0.25473509502931146 -0.004092547155965101
2340000000.0 -0.05784116035265841 -0.24987535505314895
2360000000.0 0.17579305379154606 -0.1869615852296453
2380000000.0 0.10703579835051129 0.23762363409300197
2400000000.0 0.16399225480402208 0.22912825899296055
2420000000.0 0.12427361482927862 -0.2714538058748308
2440000000.0 -0.2875059121521564 0.1322097012541378
2460000000.0 0.2754744222458727 0.19884484831414428
2480000000.0 0.19863150276091804 -0.3159792826215721
2500000000.0 -0.01643128069915457 0.40520543349265487
2520000000.0 -0.33607867759059934 -0.2893863871977922
2540000000.0 0.4763174189546412 -0.027690863001413112
2560000000.0 -0.3260997081257319 0.3919306153013477
2580000000.0 0.2024008894846271 -0.4999393310961231
2600000000.0 0.0007736584244125172 0.5663666396675968
2620000000.0 -0.15389794766704043 -0.5695288098202526
2640000000.0 0.2903353143553066 0.5339031393387862
2660000000.0 -0.5832193668127983 -0.2231899318469555
2680000000.0 0.3777930451983471 -0.5094113245017075
2700000000.0 0.5781323881989001 0.2822351545419617
2720000000.0 0.25534153853744246 0.5949353520713855
2740000000.0 0.1637555222297174 0.6275711356779455
2760000000.0 0.05697713085638855 0.6444274739959441
2780000000.0 -0.566714941153778 -0.2950422430839355
2800000000.0 -0.3567521994271081 -0.5171631312953865
2820000000.0 0.1870623982825445 -0.5866390533644399
2840000000.0 0.4803222125479036 0.36150221640555197
2860000000.0 -0.4944274450162122 -0.3150127072094162
2880000000.0 0.27148668635685447 0.5005688024659388
2900000000.0 0.436078882461596 -0.3335517086465545
2920000000.0 0.0035878254695128264 -0.528490660893524
2940000000.0 -0.35369592056953225 -0.35895147589630616
2960000000.0 -0.22565593048465657 -0.4240411337987609
2980000000.0 -0.28643500501500435 -0.3577249021943813
3000000000.0 -0.29097378160535475 -0.3293216568630608
3020000000.0 -0.4211277037312405 0.03387361909059413
3040000000.0 -0.06284541704143572 0.3939628710835811
3060000000.0 0.3807499249479841 -0.004591920849177954
3080000000.0 -0.3119644604416728 -0.19263916267376016
3100000000.0 0.2727351063200766 0.2195478062320601
3120000000.0 0.3270248825658051 -0.10769964881311755
3140000000.0 -0.1722488928895139 0.2922298500638815
3160000000.0 0.18223987551241794 -0.28354281641331935
3180000000.0 0.08422382985170894 0.32356798196242187
3200000000.0 0.3124282739528444 -0.10113286220618203
3220000000.0 -0.1687421774634961 -0.2771298007024139
3240000000.0 -0.3102024397256719 -0.06022664873180518
3260000000.0 -0.28695991456911746 0.10634387493535535
3280000000.0 -0.29168725596724826 0.03775707514152575
3300000000.0 -0.27603604795475234 -0.03198441599549568
3320000000.0 -0.16180923372742434 -0.19559316981091535
3340000000.0 0.2233634061041863 0.05203549194898897
3360000000.0 -0.19559665115193084 0.07075515438986275
3380000000.0 0.10633637231719206 -0.15563055322513508
3400000000.0 0.09168888918554205 0.14001712320398907
3420000000.0 0.02872188659699512 0.1409264712693176
3440000000.0 -0.08461110989448045 0.09338823113619531
3460000000.0 -0.0785194726927999 0.06966030139213641
3480000000.0 0.0775278318341795 0.04167884086688288
3500000000.0 -0.07846207395053797 0.016592343134938594
3520000000.0 -0.058655860430940156 -0.04947698597867158
3540000000.0 0.06794677056267279 -0.03595306112315301
3560000000.0 0.07509912365511502 -0.04488941693519324
3580000000.0 -0.04437470861152818 0.08201671399803542
3600000000.0 -0.054579492313799764 0.08140563886807266
3620000000.0 0.07936409093907315 -0.07843548527226649
3640000000.0 0.11363713737411962 0.05374125230451541
3660000000.0 -0.008667112159126321 0.13589523756119992
3680000000.0 -0.019715224402637958 0.13953779378844466
3700000000.0 -0.09839219781263696 -0.09060772626704096
3720000000.0 0.11926911230260286 -0.0020824228518846566
3740000000.0 0.0018020003394589362 -0.10077464872932086
3760000000.0 0.07607081160909433 -0.03367259859097461
3780000000.0 -0.06049450233929531 0.021457343917599417
3800000000.0 0.03387107557338944 0.0034395556582440105
3820000000.0 -0.0022170681057066917 0.0005994416856985125
3840000000.0 -0.03654896656066254 -0.0027522969127855477
3860000000.0 0.0369366161631005 -0.054106873132054645
3880000000.0 0.0562805476204247 -0.07408038412293369
3900000000.0 -0.09135648392286055 -0.06477122267197592
3920000000.0 -0.11437372659828693 -0.05612506900601104
3940000000.0 -0.09191492971160115 0.10161934580868581
3960000000.0 -0.08940830077771728 0.1054216668541563
3980000000.0 0.133175442483547 0.01630262402656876
4000000000.0 0.040772719515052534 -0.10625591023186405
