!Created with skrf (http://scikit-rf.org).
# Hz S RI R 50.0 
!freq ReS11 ImS11
400000000.0 0.7591212339785105 0.42072676364815953
420000000.0 0.4616906010524713 0.6785795007710055
440000000.0 0.32508792798383906 0.6937193533379491
460000000.0 -0.6730533146795599 -0.15308564012474407
480000000.0 -0.5885916959817938 0.2546804844250114
500000000.0 -0.6238762671919749 -0.16475914698321042
520000000.0 -0.5499150859935882 0.3594748646722486
540000000.0 0.5718963131698562 -0.35617541360708543
560000000.0 -0.15251548408062993 0.6333779719545161
580000000.0 0.13188960029159166 -0.520775521330972
600000000.0 -0.14322735012098817 0.5594360558340257
620000000.0 0.03171181795345355 -0.6125451555168413
640000000.0 -0.5415668197021953 -0.16230486382909157
660000000.0 0.2784310523783594 0.44838889760101835
680000000.0 -0.42222297700610395 0.20330731641117616
700000000.0 0.13285972263177045 0.4537771088531847
720000000.0 -0.0058398083545524474 0.48795824574067337
740000000.0 0.4697649400047932 -0.040948627358082045
760000000.0 -0.052072870087930136 0.4412259650740662
780000000.0 -0.3116443942700471 -0.3055531466098881
800000000.0 -0.3193116498286009 -0.23608913166287684
820000000.0 0.3190786372579067 0.1442209495513729
840000000.0 -0.15669516258648497 0.28653482246491413
860000000.0 0.09013445334302898 -0.2878238629390769
880000000.0 0.24322532103703776 0.12334437505880044
900000000.0 0.07305170138899218 0.2632147851291113
920000000.0 0.11241956951996744 -0.23287225250199003
940000000.0 0.20360147754001393 -0.08640889188192515
960000000.0 0.04183882723438013 0.17610808493206062
980000000.0 0.08306208370465629 0.10604104790866949
1000000000.0 0.04737856891456471 0.1248612562872926
1020000000.0 0.014347760936033889 -0.10246614942174663
1040000000.0 -0.0313480049834396 0.10404851877194775
1060000000.0 0.06161630288764162 -0.12876487960982524
1080000000.0 0.04030719306784189 -0.18894989104410428
1100000000.0 0.22742003390920898 0.035274169136526014
1120000000.0 0.26291060342952494 -0.07466508833422869
1140000000.0 -0.2614209904742137 0.13919472525997467
1160000000.0 -0.29615924016873335 0.09412773615920537
1180000000.0 -0.07823175855505402 -0.3307976550962498
1200000000.0 -0.32361744744879684 -0.1366453883666334
1220000000.0 0.3094576257413711 0.1765199164314308
1240000000.0 0.004135644424431562 0.376725252003048
1260000000.0 0.3592844828946423 -0.17221777534266003
1280000000.0 -0.3734411302753038 0.09887824976662561
1300000000.0 -0.258085276186608 -0.27108358255115866
1320000000.0 0.13080947087407518 -0.3551405947665651
1340000000.0 -0.33545663655716135 0.15510920834607758
1360000000.0 0.2422751446689076 0.30245677796186776
1380000000.0 -0.07032885299799634 0.39742093614076524
1400000000.0 -0.24400276785180897 -0.30832881292698194
1420000000.0 -0.004806857748933525 -0.3925906406552115
1440000000.0 -0.37223350050588533 -0.1332629071628256
1460000000.0 -0.3822888253129295 0.09467382289294415
1480000000.0 -0.28195188364755436 -0.27699835288701297
1500000000.0 0.2146355084433467 0.33819132030778604
1520000000.0 -0.37948915171258124 -0.07453516015807046
1540000000.0 0.33831552557829314 0.119571992874094
1560000000.0 -0.28142782047251214 0.17879346594134682
1580000000.0 -0.11446490630944092 -0.27206471061114745
1600000000.0 0.05635674301620217 -0.2525995113980557
1620000000.0 0.15782142319924858 -0.15136332536249367
1640000000.0 -0.14092414232196965 0.12231512140306001
1660000000.0 0.04295106064835554 0.1480006591479495
1680000000.0 0.041677898449382224 -0.10511191832595475
1700000000.0 -0.08476380596959691 0.06324097305892516
1720000000.0 -0.04255183132295986 0.0665426890442084
1740000000.0 -0.05870785961081367 -0.044402003954391076
1760000000.0 -0.08198469517038039 -0.015260644371150583
1780000000.0 -0.07649912491116007 0.0866979984484917
1800000000.0 0.13644956436074918 0.039274506932764866
1820000000.0 -0.16616591549541224 0.02880060574121628
1840000000.0 0.1871364943791047 -0.06835540643354442
1860000000.0 -0.20944114693998134 0.07934953409927897
1880000000.0 0.017849765489592263 0.2569891517290668
1900000000.0 0.21507685760081713 0.17219513514401535
1920000000.0 0.22142208350727194 -0.19680728408678055
1940000000.0 -0.287398552913545 0.10269795274398885
1960000000.0 0.26679732905690845 -0.15227985098772756
1980000000.0 -0.24870183448240368 -0.19072791141713072
2000000000.0 -0.005982216852779402 -0.32235921595165357
2020000000.0 0.26134400185115353 -0.18526330817325784
2040000000.0 0.3026362502873727 0.10726322069411809
2060000000.0 0.3014429841325135 0.1060501149466292
2080000000.0 0.24101921495360426 0.20293658455349015
2100000000.0 0.1331303346923401 -0.2832504695559606
2120000000.0 0.3022822754406096 0.06052952587037417
2140000000.0 -0.2276765364744229 -0.191931047593878
2160000000.0 -0.2493575130787642 0.1561913662439456
2180000000.0 0.04883059795670267 0.2843974164823928
2200000000.0 -0.037444029521389 0.2791515455057305
2220000000.0 -0.24592239069073032 0.13773392475914567
2240000000.0 -0.18842027548052578 -0.20461715867801092
2260000000.0 0.041648825483264144 -0.2692398874567579
2280000000.0 0.26981511238681166 -0.01610100127629768
2300000000.0 0.12138178625379101 0.23025092618865003
2320000000.0 -0.2584916148194482 0.011633534970780195
2340000000.0 -0.18123635378665143 -0.1789400620869125
2360000000.0 0.25282445046118773 0.015641393878070044
2380000000.0 0.17743878958593406 0.19023262992974738
2400000000.0 0.2362685470725374 0.14041171062608232
2420000000.0 0.15199153571170848 -0.2516932651835814
2440000000.0 -0.27943942046136994 0.1441067488985779
2460000000.0 0.32943022641253494 0.0674369688115931
2480000000.0 0.2467297893403862 -0.27743840402815045
2500000000.0 0.13899156300569912 0.38288321424504645
2520000000.0 -0.4016902597918555 -0.18651038621263763
2540000000.0 0.4674461519155032 -0.10409298108902972
2560000000.0 -0.2763986584829579 0.43162703240316436
2580000000.0 0.030548913038627695 -0.5403005112966011
2600000000.0 -0.03454758220760736 0.5648418298141201
2620000000.0 -0.06856544531054863 -0.584856677760496
2640000000.0 0.3138963739146598 0.518122673927901
2660000000.0 -0.5647843767079295 -0.25891460768185787
2680000000.0 0.4053359416584776 -0.48403543345887307
2700000000.0 0.605579458419456 0.20831020217992618
2720000000.0 0.38518758419270427 0.517955747623964
2740000000.0 0.3514101026242344 0.5425111717804394
2760000000.0 0.23283962851525888 0.6019118590052162
2780000000.0 -0.6376530994954969 -0.029498747761605323
2800000000.0 -0.5019949161380822 -0.37902884556281285
2820000000.0 0.06061558050786298 -0.614042894701596
2840000000.0 0.46902076137061427 0.37904408028338393
2860000000.0 -0.5320674862985785 -0.25071338969138324
2880000000.0 0.2684051367093255 0.5030479936099593
2900000000.0 0.4350079834011476 -0.3387419842091978
2920000000.0 -0.09729587387385133 -0.5200029435570112
2940000000.0 -0.42504215210656277 -0.266314855369833
2960000000.0 -0.2831486987133602 -0.3834684227297816
2980000000.0 -0.3165053847272649 -0.32835004424005415
3000000000.0 -0.34454240896372545 -0.2607840785259412
3020000000.0 -0.41519963891608613 0.03143092559483549
3040000000.0 0.07424742994792656 0.3907364800388448
3060000000.0 0.35831567020698135 -0.12129464857826125
3080000000.0 -0.35735059390788887 -0.06896124555168266
3100000000.0 0.27393004972805873 0.22129179026679494
3120000000.0 0.2427940489148771 -0.24971073817948067
3140000000.0 -0.0167868115583496 0.3384323129088013
3160000000.0 0.09844191924302112 -0.32409518269438065
3180000000.0 0.021105074370319336 0.3362406586125964
3200000000.0 0.3309922846513027 -0.015873961353501838
3220000000.0 -0.21311322032590996 -0.24997594264333486
3240000000.0 -0.307345847274896 -0.07865445565172542
3260000000.0 -0.2956326535333686 0.08280953934136955
3280000000.0 -0.27241626341456215 0.11567041513923555
3300000000.0 -0.2614730490761603 0.08414539631543125
3320000000.0 -0.12893611638558863 -0.21550502600696003
3340000000.0 0.22550783716028802 -0.03455520015586297
3360000000.0 -0.18118333477440624 0.09498389648717348
3380000000.0 0.13461481425191665 -0.1271064982544398
3400000000.0 0.16465102369629625 0.003787203818026941
3420000000.0 0.07929463146526289 0.11820714988017955
3440000000.0 -0.07953090249770307 0.094948598467827
3460000000.0 0.07635421742725046 0.07223029790663589
3480000000.0 0.06867149679789386 0.05312617735949071
3500000000.0 -0.05608666171234483 -0.05748815912111537
3520000000.0 -0.03773206687693977 -0.06989018294307887
3540000000.0 0.08026451218336766 -0.0018792403613996983
3560000000.0 0.07284396323261749 0.04919491631859242
3580000000.0 -0.09521602345459873 -0.009645084003817807
3600000000.0 -0.08183476276492439 0.05908689066359304
3620000000.0 0.11035949300174708 -0.006661172306067108
3640000000.0 0.09592120583129941 0.08023539596738166
3660000000.0 0.052198139889196374 0.12578841003409852
3680000000.0 0.1116060463897955 0.08513133707783412
3700000000.0 -0.13133302470114694 -0.0016040206292820462
3720000000.0 0.08412554318953651 -0.08214273800885236
3740000000.0 -0.054342086119616384 0.08218300875344235
3760000000.0 -0.07942683611173992 0.015876875669346372
3780000000.0 0.019642150412971522 0.05987524557639301
3800000000.0 -0.028786582743680983 0.018457126222797843
3820000000.0 0.00014439400535898585 0.0009579342648656729
3840000000.0 -0.02241524794051872 0.02840030505789028
3860000000.0 -0.06472652763162176 -0.00664939380068129
3880000000.0 -0.032373242209067045 -0.08501300885291709
3900000000.0 -0.05227695471035232 0.09540904716091282
3920000000.0 -0.022123908047688517 0.12100366885869139
3940000000.0 0.08046617745261228 0.10771713219899276
3960000000.0 -0.014969354612096671 0.1352467921841184
3980000000.0 0.04357407267171091 -0.12578585799688602
4000000000.0 -0.09195686508986935 -0.06830152332567956
