!Created with skrf (http://scikit-rf.org).
# Hz S RI R 50.0 
!freq ReS11 ImS11
400000000.0 0.836414908497168 -0.26615980299139186
420000000.0 0.7622767552754162 -0.33199373803173227
440000000.0 0.42892801306418443 -0.6424754625763875
460000000.0 0.18817859363416103 0.670194139153666
480000000.0 0.39313210913865076 -0.4411143553539012
500000000.0 0.5472621471661863 0.3086853724453072
520000000.0 0.4646081005718675 -0.43677874662962074
540000000.0 0.08869519043602916 -0.6021088047386954
560000000.0 0.6185218431482037 0.05225488186016378
580000000.0 0.46328045561089376 0.23512569967279642
600000000.0 -0.2906050590619842 0.5224470371234918
620000000.0 -0.32125653820634165 -0.5136968099300119
640000000.0 -0.30634777161342147 -0.4722650682924954
660000000.0 0.0201014359979573 0.5163116695503557
680000000.0 0.32029601093961746 -0.3563646436590032
700000000.0 0.39259617445968065 0.29770986682980644
720000000.0 0.4797462254400432 0.13552294296943196
740000000.0 0.13712665141811575 0.45421394119959807
760000000.0 -0.05905491258315751 0.45577836558593027
780000000.0 -0.439047874035715 0.09500444308104425
800000000.0 -0.12403345923738404 -0.38201920881403706
820000000.0 -0.018100514073633008 0.36150451262437494
840000000.0 -0.3350319745812213 -0.01256766900894854
860000000.0 0.24351658100344603 -0.19639166950881792
880000000.0 0.21896253685609102 0.1757128321587214
900000000.0 -0.00549058745443317 0.27212055846167754
920000000.0 0.05580382695666163 -0.2548242389464134
940000000.0 -0.16195645391397168 -0.15100091073702043
960000000.0 0.14224039552915424 -0.08072764576193955
980000000.0 -0.11548640454520245 -0.07156252038789856
1000000000.0 0.1361247331338241 0.00782667008862245
1020000000.0 0.07758640218702645 0.0882321583904569
1040000000.0 0.09867747511784297 0.08388417475344151
1060000000.0 -0.06621856301949111 -0.139127959921736
1080000000.0 -0.18109973190666104 0.08694694340262285
1100000000.0 -0.20545552663902172 -0.138281758125568
1120000000.0 -0.18330207713684163 -0.21379664912057056
1140000000.0 -0.15035641944752173 0.27096015238263726
1160000000.0 0.31734547162076426 0.10003338320018389
1180000000.0 -0.05210847890327204 0.3330286994685604
1200000000.0 -0.31397531427451997 -0.1686966754763932
1220000000.0 0.1946808919259194 -0.3133383549851987
1240000000.0 0.2993619443067661 -0.22969324041025826
1260000000.0 0.187514270282671 -0.34556236496794535
1280000000.0 -0.31277349249747244 0.21426251393440357
1300000000.0 0.05161574598105209 -0.3648054255018825
1320000000.0 0.22696046010638674 -0.2997438401677045
1340000000.0 -0.359902780149871 0.06972151799532089
1360000000.0 0.14618820754211756 0.357356824548921
1380000000.0 -0.019170410976950516 0.39294673817549863
1400000000.0 -0.005158629507566878 -0.3823166098860564
1420000000.0 0.34933214396457135 -0.1632551903968279
1440000000.0 -0.1777779532656071 -0.34274318538461673
1460000000.0 -0.17619347881596711 -0.34347038736782026
1480000000.0 -0.007734289118629252 -0.3950228840674759
1500000000.0 -0.29626922168545344 0.25495103701410693
1520000000.0 0.1310274197401662 -0.3622269949272575
1540000000.0 -0.028941907692159027 0.3597644238076242
1560000000.0 -0.17372042324060064 -0.28027452887525983
1580000000.0 0.2928935383300481 0.011775078214806852
1600000000.0 0.26163512909588554 0.024563993662576722
1620000000.0 0.08741125424489456 0.1938068595874597
1640000000.0 0.08974562347311396 0.16387858118569298
1660000000.0 0.15472813674166597 -0.04342977165941794
1680000000.0 -0.046821418673826457 -0.1142714688698059
1700000000.0 0.11549680613598133 -0.02683288112495942
1720000000.0 0.04867255704129909 -0.07780275965300501
1740000000.0 0.06271096649768687 -0.05635298752978244
1760000000.0 -0.0533727735212664 0.07638054194807245
1780000000.0 -0.06496268860950147 0.08580573507724741
1800000000.0 -0.0002551575290695738 0.13026080305408563
1820000000.0 0.08410953910824781 0.13582801361910707
1840000000.0 0.08438407353964365 -0.17197756225806604
1860000000.0 -0.054669961968101186 0.21082601224808442
1880000000.0 0.22932155252457564 0.10604903522050294
1900000000.0 0.26965751725079234 -0.028726841755735807
1920000000.0 0.05607624682472282 -0.286366437709069
1940000000.0 -0.3058696261221036 0.005024503020574576
1960000000.0 0.14189022924607766 -0.27463614228231226
1980000000.0 -0.31001980742025526 0.025598162885386026
2000000000.0 0.15005166427067818 -0.2855308790959589
2020000000.0 0.20700745635659734 -0.25026783983373946
2040000000.0 0.3229411429075881 0.0031521759098308054
2060000000.0 0.19571571300479915 0.25627203171523955
2080000000.0 0.007475553736811026 0.3270909295501149
2100000000.0 -0.07103300208224667 -0.31677210608870643
2120000000.0 0.19289147057594178 0.25368126834779653
2140000000.0 -0.2290443657661126 -0.2240067088662646
2160000000.0 0.1665060442768989 0.27157646408882014
2180000000.0 0.2657204108349846 -0.15838995799060251
2200000000.0 0.23519412225023956 -0.19219272491771797
2220000000.0 0.06279085293468753 -0.29160427778673714
2240000000.0 0.2709654879555615 -0.10420030565050122
2260000000.0 0.07188000037968242 0.26459420500039543
2280000000.0 -0.18279253552158695 0.19653829796430866
2300000000.0 0.10149040940521181 -0.22996130828735423
2320000000.0 -0.1211047628579766 0.21613403281605498
2340000000.0 -0.05308592493574537 -0.2363299738848527
2360000000.0 -0.047524482167084534 0.23819663746718728
2380000000.0 -0.027733661140312896 -0.25578530741345207
2400000000.0 -0.27835581333134796 0.0463381716458882
2420000000.0 0.25642469751992314 0.15817314452755044
2440000000.0 -0.2167561972300789 -0.24382007256128596
2460000000.0 0.14783610267719127 0.32425297259216496
2480000000.0 0.13024072552817323 -0.36914897548685044
2500000000.0 0.2692597914828644 0.33126416904208683
2520000000.0 -0.45135680899660763 0.10460507962540153
2540000000.0 0.1936245018144111 -0.45645647558863073
2560000000.0 0.03565136272147905 0.5247409444738851
2580000000.0 -0.16490831949185383 -0.5273157350924176
2600000000.0 0.27952417320676676 0.5032007755926671
2620000000.0 -0.28890277871545395 -0.5211804131941511
2640000000.0 0.47286187898423754 0.386700970066377
2660000000.0 -0.6233327183662817 0.047265617605292
2680000000.0 0.19119825266594312 -0.6044386181411175
2700000000.0 0.6046319713359308 -0.21781509442550506
2720000000.0 0.6336063265468468 0.13573343267457993
2740000000.0 0.5704079761822457 0.30945903824583315
2760000000.0 0.5187963281245547 0.390580810172265
2780000000.0 -0.5262070152815308 0.37111331553908683
2800000000.0 -0.6177385737429807 0.1481450528508562
2820000000.0 -0.36749828770978693 -0.5042648414401345
2840000000.0 0.5821652878501181 -0.17989067382386115
2860000000.0 -0.4415491218322036 0.3968101646869212
2880000000.0 0.5650410703280703 -0.09755596876028236
2900000000.0 -0.2139411478422113 -0.5087773953794122
2920000000.0 -0.5218080059907717 0.08071872496629356
2940000000.0 -0.33527063656323425 0.36755196225231407
2960000000.0 -0.3592777928766441 0.3074101264804912
2980000000.0 -0.29520196469283044 0.3363613212696191
3000000000.0 -0.19846535992461392 0.3755036410285819
3020000000.0 -0.004385495958642833 0.4029653455716252
3040000000.0 0.3028113335569531 0.23659234553575562
3060000000.0 0.18818327988214223 -0.317242889011705
3080000000.0 -0.32597518502670986 -0.14795939849875145
3100000000.0 0.2120240496121687 0.27611067552404595
3120000000.0 0.303779612496194 -0.16226657256671803
3140000000.0 -0.3369025637588013 0.06774639190796827
3160000000.0 0.3367862357634134 -0.059168320081938924
3180000000.0 -0.33885067527245677 -0.059067429860863906
3200000000.0 -0.009965421420547523 0.3435902041102915
3220000000.0 0.29192141833356455 -0.1712827304158989
3240000000.0 0.1300926281298702 -0.307769999929787
3260000000.0 -0.15573886614842042 -0.28670115369964155
3280000000.0 -0.3081253288377773 -0.06833860357003253
3300000000.0 -0.21525338068984418 0.20657103910786098
3320000000.0 -0.042662528338582265 0.2683151244034044
3340000000.0 -0.24098162940176385 0.05705211832526945
3360000000.0 -0.21375821925603516 0.05548042878350785
3380000000.0 -0.11602445157154286 -0.1525933819758319
3400000000.0 -0.054869969045098575 -0.15834214408067848
3420000000.0 -0.03059909310323708 -0.13745063645664238
3440000000.0 -0.020559774057083 -0.11690238804453915
3460000000.0 0.06093422393692616 -0.07199652714476425
3480000000.0 -0.07632057276101607 0.006718725488494957
3500000000.0 -0.0696240431832396 -0.022452921291391998
3520000000.0 -0.06437762244813508 -0.030251927617696964
3540000000.0 0.03107812236518028 0.07124919740864726
3560000000.0 -0.07228823492345181 0.04524867662235816
3580000000.0 0.09188336569225854 0.029654868468699015
3600000000.0 0.02735600401702593 -0.09955740348397502
3620000000.0 0.07117516378910856 0.09554011379047808
3640000000.0 0.07169050353806168 -0.11481477639960128
3660000000.0 -0.12558358953738227 -0.07472024425638789
3680000000.0 0.06656618517608066 0.1349681920057975
3700000000.0 0.07268579835462823 0.12322176647936599
3720000000.0 0.12918823345646038 -0.0035895420044985862
3740000000.0 0.07953570256687459 -0.06583316709749039
3760000000.0 0.01490780907683881 -0.07824583518377178
3780000000.0 0.05901768322789105 -0.007998729330625034
3800000000.0 -0.015056523484040813 -0.023253294574086716
3820000000.0 -0.010888427828250336 0.0026862181339980685
3840000000.0 -0.04760545093529844 -0.00689282171693197
3860000000.0 0.03564008974701956 0.07035228694916171
3880000000.0 -0.04455205709834266 -0.09415467401667528
3900000000.0 0.0923548043119194 0.08807237989286415
3920000000.0 -0.12059920240004782 -0.08054663377531851
3940000000.0 0.0041567567818938875 0.15259237449727517
3960000000.0 0.0788049038063502 -0.13530164616514817
3980000000.0 0.10796458227589167 0.10164999730052368
4000000000.0 -0.12519703013941388 0.018463653276529803
