!Created with skrf (http://scikit-rf.org).
# Hz S RI R 50.0 
!freq ReS11 ImS11
400000000.0 0.7875218144505974 0.37428342329938036
420000000.0 0.2695927112405774 0.7707458085265737
440000000.0 0.3885104587505495 0.6536693572926882
460000000.0 -0.6034193499285255 -0.32704152700727684
480000000.0 -0.21343272825271908 -0.5796526351426707
500000000.0 0.6494641742170939 -0.09176759204881023
520000000.0 -0.43073963870990045 0.5140542226053391
540000000.0 0.5236166193403559 -0.4352606388570711
560000000.0 -0.19514125057041926 0.6379996170900855
580000000.0 -0.4113694297705196 0.3109368155662242
600000000.0 -0.33853668412026666 0.49318782879692
620000000.0 -0.617871964313653 0.03366235950500305
640000000.0 -0.5453938605325442 -0.14684462595690734
660000000.0 0.07805920494619602 0.5165513405510547
680000000.0 -0.013783962391147564 0.4915004986490588
700000000.0 0.4440708328921772 0.0995315981457582
720000000.0 -0.13706579209095018 0.47246216694551874
740000000.0 0.3372624616892581 0.32555539048111737
760000000.0 -0.16335134388896042 0.41664353488115563
780000000.0 -0.40219466994677067 0.15387201147733587
800000000.0 0.31251737468982266 -0.24746863929335855
820000000.0 0.3200781757178754 0.15529771807792503
840000000.0 0.11347050561929123 0.3015384012966323
860000000.0 0.23414277513361945 -0.17985582691891513
880000000.0 -0.05265924304283618 0.2687545309963346
900000000.0 -0.007135080078341144 0.272278931008067
920000000.0 0.2191274147025365 -0.1364222060844621
940000000.0 0.08646098382148847 0.20450728601566534
960000000.0 -0.177624310977362 0.025788369058471563
980000000.0 0.043559744356597846 -0.13787369891329465
1000000000.0 0.07975653494552215 0.10873965163377237
1020000000.0 -0.0037271926001777767 0.10110908026099902
1040000000.0 0.06491916826250936 0.08739597623052144
1060000000.0 0.14286101745324664 0.0140958237776999
1080000000.0 0.14692980099965178 0.1295641578887288
1100000000.0 0.16177206981524966 0.1782304803213629
1120000000.0 0.24304812414139507 -0.13609936317546573
1140000000.0 -0.29991879514065406 0.0026416824966965205
1160000000.0 -0.3017833140993061 0.10331356078189124
1180000000.0 -0.2539522860492692 -0.22008607105952527
1200000000.0 -0.2986802118372752 -0.18809173900528667
1220000000.0 0.3259453718509003 -0.14128730921449606
1240000000.0 0.1853495831069814 0.3251056072527521
1260000000.0 0.3931633995760265 -0.002451158611981614
1280000000.0 -0.3830137476612984 -0.049714585132701695
1300000000.0 -0.11781098897257493 -0.36074584753492267
1320000000.0 -0.10299848691281861 -0.36632722582994176
1340000000.0 -0.369701064802821 0.017110549565595164
1360000000.0 0.19372618535949274 0.3380439603101907
1380000000.0 -0.10322126755509149 0.38930538307553947
1400000000.0 0.008327732859753492 -0.39588556666059127
1420000000.0 0.14861141060427707 -0.36246735155157717
1440000000.0 -0.2301992556121303 -0.32202737804419024
1460000000.0 -0.3940921297634818 -0.04178217308171681
1480000000.0 -0.3456881087680086 -0.18967119290127726
1500000000.0 0.04223108562415035 0.39710374939324544
1520000000.0 -0.3707734697363033 0.11461693220536777
1540000000.0 0.35762172789852426 -0.044003501522804224
1560000000.0 -0.22160753254671647 0.24413871859318326
1580000000.0 -0.20428840662365222 -0.2096649333773725
1600000000.0 0.019168151187296704 -0.2555675206859195
1620000000.0 0.18041371261887967 -0.12297908166822225
1640000000.0 -0.12312460502971603 0.1377034419165756
1660000000.0 -0.10501970949102069 0.11258602436167989
1680000000.0 0.10534021528702056 -0.04486454803255477
1700000000.0 -0.10171543763128708 -0.0017363374377503949
1720000000.0 0.07774453234421763 0.021400419172877924
1740000000.0 0.07193359786383934 -0.03455270565737051
1760000000.0 0.005538302707999716 -0.08862882230270694
1780000000.0 0.11710304316666524 -0.0011210332503421572
1800000000.0 0.11470884853370256 -0.08002073312790098
1820000000.0 -0.16703764603148738 0.018474485238804985
1840000000.0 0.19259655597520295 0.026739646280790227
1860000000.0 -0.22047599187316447 -0.036538026291641344
1880000000.0 -0.0028127141513541462 0.25507253357622306
1900000000.0 0.058694457506957814 0.2660081087178673
1920000000.0 0.24136299717438978 -0.1678919841408494
1940000000.0 -0.29860237247038773 0.06517993286284283
1960000000.0 0.2774156888819978 -0.1332779899155231
1980000000.0 -0.3004176424102222 -0.0873072663014666
2000000000.0 0.11375566048826714 -0.30090426800395825
2020000000.0 0.30892265027518206 -0.09159772612650142
2040000000.0 0.3203959022964733 -0.037055860148239604
2060000000.0 0.3033473549010325 0.09034168767570666
2080000000.0 -0.027957145401601345 0.3155539921326705
2100000000.0 0.13870304993487803 -0.2825801045797862
2120000000.0 0.24396601288505662 0.18495820876329827
2140000000.0 -0.0023314549752246057 -0.2988786750434102
2160000000.0 -0.28362856136783654 0.08316621009950997
2180000000.0 -0.09474030067083569 0.27184571342603114
2200000000.0 -0.159885149949248 0.23407014855692773
2220000000.0 -0.09856090831577594 0.26417568740912545
2240000000.0 -0.17607154655585608 -0.2111624054801157
2260000000.0 0.15258382716549868 -0.22376357920861667
2280000000.0 0.26673482331509224 -0.05374460203867169
2300000000.0 0.25274801322923396 0.06129137431851516
2320000000.0 -0.2541693767079011 -0.019528070078035628
2340000000.0 -0.055112586114236674 -0.2506941792800476
2360000000.0 0.2133665816273175 -0.14129477393992995
2380000000.0 0.1149250685108665 0.23334039534896972
2400000000.0 0.18799752056897137 0.20663354632726869
2420000000.0 0.15060718945275212 -0.2572973694108312
2440000000.0 -0.24878118277211775 0.19612320464891106
2460000000.0 0.3277095563891095 0.08691923571698218
2480000000.0 0.2299494724627259 -0.29260524580343394
2500000000.0 0.05062890179383848 0.4039725119316006
2520000000.0 -0.3818220828116915 -0.2263429130059038
2540000000.0 0.4725688922904836 -0.061883953079576094
2560000000.0 -0.34319987727648943 0.377738443538975
2580000000.0 0.18215122095866634 -0.5080592484122128
2600000000.0 -0.051861395406206136 0.5638784777182962
2620000000.0 -0.1236830171706798 -0.5763537470656105
2640000000.0 0.29210908902243143 0.5323724860953722
2660000000.0 -0.5827431359812745 -0.22114103318801645
2680000000.0 0.3939321952733538 -0.49610147658402853
2700000000.0 0.5908165180721675 0.25326617158792203
2720000000.0 0.33022795259894844 0.5566771847638042
2740000000.0 0.2336649506447827 0.6046172893778213
2760000000.0 0.1393360652019196 0.6322462276070188
2780000000.0 -0.5924254546108345 -0.24065403593482892
2800000000.0 -0.3760134134073823 -0.5042806088919943
2820000000.0 0.21523659089753733 -0.5774183782475129
2840000000.0 0.43148403483373027 0.4189283281046143
2860000000.0 -0.4882737998148996 -0.32514962235367934
2880000000.0 0.2730502563329614 0.500134936043367
2900000000.0 0.422797066601346 -0.3495133056776158
2920000000.0 -0.0177787249607933 -0.5272899991211827
2940000000.0 -0.37881456870227587 -0.3330630691774167
2960000000.0 -0.2886990155625003 -0.38262097560990915
2980000000.0 -0.26316382462481014 -0.375354439281717
3000000000.0 -0.32539653611434943 -0.29603985923174264
3020000000.0 -0.4117294637263795 0.09099749100337645
3040000000.0 0.04428839597455075 0.3981756395717312
3060000000.0 0.36644518686301913 -0.10239244132947167
3080000000.0 -0.3170978201364921 -0.18262641039398467
3100000000.0 0.2889561315080097 0.20026097840559437
3120000000.0 0.29653822983003214 -0.17523428129186377
3140000000.0 -0.21619888875625365 0.2607728266929163
3160000000.0 0.14075338008101498 -0.30669739620988345
3180000000.0 0.10075027543047377 0.3196781173186222
3200000000.0 0.2993464951242447 -0.13536988252681553
3220000000.0 -0.22102796290538373 -0.2379815407267623
3240000000.0 -0.30961269245859285 -0.06815808156524465
3260000000.0 -0.27276109455597664 0.13681042857634562
3280000000.0 -0.2947879495993843 0.012810632942069937
3300000000.0 -0.2773925454482275 0.011475879144708578
3320000000.0 -0.12764498061856341 -0.21956750912468476
3340000000.0 0.2246250798355511 0.04950679775398273
3360000000.0 -0.18335650327148317 0.09753313026344129
3380000000.0 0.14977211999620732 -0.11364849692077438
3400000000.0 0.08442513057578378 0.14453198503550996
3420000000.0 0.08486695435255509 0.11499727022875267
3440000000.0 -0.07533305695548831 0.10037348929453009
3460000000.0 -0.07466692301066863 0.07526497675327946
3480000000.0 0.07761054418947946 -0.040636157997306764
3500000000.0 -0.03507881029105053 0.0718683342638473
3520000000.0 -0.06235034762972057 -0.04505086630700628
3540000000.0 0.06430911413802427 -0.04464918315531326
3560000000.0 0.08225802822855423 -0.03256161747465
3580000000.0 -0.07959582381084637 0.049000612072505084
3600000000.0 -0.06971480782571597 0.06813946679223506
3620000000.0 0.0864220247423723 -0.07079345483341622
3640000000.0 0.09209379322988753 0.08542155305425478
3660000000.0 0.057174905522990045 0.12270124929643157
3680000000.0 -0.002484332806366792 0.13980478012048456
3700000000.0 -0.08177607463856558 -0.10459676771974033
3720000000.0 0.11823775375831258 -0.016174621994612958
3740000000.0 -0.06747003186787828 -0.07437487312761855
3760000000.0 -0.01361357129154793 -0.08200837390373303
3780000000.0 -0.06253414115897568 -0.013153922966682625
3800000000.0 0.0032099102884870774 -0.03499621633600969
3820000000.0 0.00034335553844754956 0.0013242215199180426
3840000000.0 -0.03497976009848661 -0.007910628372092483
3860000000.0 -0.03297353544328999 -0.05565569306047636
3880000000.0 0.07951591962662231 -0.04608615726630234
3900000000.0 -0.09996714503976979 -0.05095972433036974
3920000000.0 -0.12427826865563874 0.026695414420862935
3940000000.0 -0.01640686047525922 0.13545815838947586
3960000000.0 -0.08242423521176452 0.11231933746846304
3980000000.0 0.13087386240446627 -0.03046184242270515
4000000000.0 0.04017468225384365 -0.107367583453493
