!Created with skrf (http://scikit-rf.org).
# Hz S RI R 50.0 
!freq ReS11 ImS11
400000000.0 0.7956420413814996 0.35508131437817964
420000000.0 0.23298496656800632 0.7826647819140138
440000000.0 0.4436378411479341 0.6191426938702516
460000000.0 -0.6305804655961484 -0.26766446105058095
480000000.0 0.1411637847803468 -0.6051503019042445
500000000.0 0.6204454417591868 -0.1901119566013899
520000000.0 -0.39797514810958723 0.5330685098504392
540000000.0 0.6602616929253456 -0.16327551257290157
560000000.0 -0.3111259269804948 0.5943404390668156
580000000.0 0.00014067437443921133 0.5178252852910425
600000000.0 -0.03714045389082849 0.589973478719413
620000000.0 -0.3319235218242177 -0.5083306530988363
640000000.0 -0.04679462173931079 -0.5671416559009066
660000000.0 0.23991097354069177 0.4772133846536907
680000000.0 0.1680978384064927 0.46063776962649317
700000000.0 0.44391692296454366 -0.030141387275838052
720000000.0 -0.29644084094641343 0.3852124362745497
740000000.0 0.058875807463109976 0.4673302201590255
760000000.0 0.14927893071729142 0.42838646004285635
780000000.0 -0.41999605728728095 0.10241675333563005
800000000.0 -0.1347087825003809 -0.374217702188999
820000000.0 0.27619201998033105 0.20943652637058754
840000000.0 -0.04453467289535565 0.3233806753720363
860000000.0 0.21754956744450388 -0.20693815278045227
880000000.0 0.1085817570020547 0.24996512023086684
900000000.0 -0.06162837327910946 0.2601164011865695
920000000.0 0.19144492956156028 0.1765222945518354
940000000.0 0.19261263274478818 0.11865423428809031
960000000.0 0.08047088518966193 0.15821226585963913
980000000.0 -0.13905538924669714 -0.015908126261865507
1000000000.0 -0.06924327546787455 0.11097000917009686
1020000000.0 0.003992980146865776 0.10297224528798139
1040000000.0 -0.08588477806164883 0.08355984354135867
1060000000.0 -0.11594277895782383 -0.08509908141617029
1080000000.0 0.10341426473350501 0.15993085074305516
1100000000.0 0.09259125777010867 0.21958951637481358
1120000000.0 0.26091343564684766 -0.09527936589647579
1140000000.0 -0.27441735613720647 0.11932840263522247
1160000000.0 -0.25991191189693313 0.1850740610506793
1180000000.0 -0.3345397358727879 -0.028505436549723095
1200000000.0 -0.23230539802840355 -0.2671263713178137
1220000000.0 0.3423055404490088 -0.10012618317873667
1240000000.0 0.1677159450509429 0.33646408757138624
1260000000.0 0.3609635160349413 -0.15407372954657947
1280000000.0 -0.32465595870901365 -0.20247313056742486
1300000000.0 0.019689164422507267 -0.3799627539879374
1320000000.0 -0.15130733466179302 -0.35099865178678435
1340000000.0 -0.3237119617082947 0.17515744771102906
1360000000.0 0.16574497182114659 0.35076488047440757
1380000000.0 -0.14791013109219275 0.37166618983734073
1400000000.0 -0.19519303859952572 -0.34554815143155126
1420000000.0 -0.07637980520317132 -0.38384757659294155
1440000000.0 -0.2448230476851716 -0.3091001555647515
1460000000.0 -0.3866275390497361 -0.08407535498573084
1480000000.0 -0.3689381626159737 -0.14188364939343584
1500000000.0 0.1135248931173331 0.3829505174026896
1520000000.0 -0.389581594284065 0.00571424822544623
1540000000.0 0.32831679434320676 -0.15100506813826248
1560000000.0 -0.28057944960602005 0.17330386265474565
1580000000.0 -0.197514211336369 -0.2183546701973026
1600000000.0 0.055232971081835884 -0.25169091870797367
1620000000.0 0.20659065705715077 -0.06375894122942605
1640000000.0 -0.16723178683181178 0.08108368171723879
1660000000.0 -0.05290886753822945 0.14535173036635993
1680000000.0 0.10005742808172055 0.045726331161524594
1700000000.0 -0.0915007095238229 -0.04954467808945064
1720000000.0 -0.07017899756445302 -0.034914864513244714
1740000000.0 0.006105188986307983 -0.07697836242970099
1760000000.0 0.05909037613598776 -0.06663228123046706
1780000000.0 -0.004258178114173216 -0.11665761801898492
1800000000.0 -0.05466486642978145 -0.1259078775428403
1820000000.0 -0.1674560853544196 -0.01189157923003304
1840000000.0 0.1931979519932488 -0.036335799919639374
1860000000.0 -0.19436043782542106 0.10662553853824493
1880000000.0 0.004798035893694315 0.25594243831195174
1900000000.0 0.07100475565678184 0.2650767043513823
1920000000.0 0.18756776648288756 -0.2269004958290171
1940000000.0 -0.29354112713550745 -0.08290378519903169
1960000000.0 0.3087941287141005 -0.013875616182436186
1980000000.0 -0.3029535938260136 -0.07975114541622465
2000000000.0 0.11754536938298862 -0.297766814067913
2020000000.0 0.3166821677728734 -0.05422643847441598
2040000000.0 0.3204675327060584 0.02248307548147899
2060000000.0 0.2905673797552623 0.12478820984180593
2080000000.0 0.10909395848339433 0.2964720248001443
2100000000.0 0.032382515396341106 -0.31159803714855516
2120000000.0 0.2839802079313021 0.11123907283123777
2140000000.0 -0.17605999419587562 -0.241902603408052
2160000000.0 -0.2620184778311189 0.1367644845971868
2180000000.0 0.04486384658006326 0.2859682461552278
2200000000.0 -0.021434220474246816 0.2836746247182558
2220000000.0 -0.16794399859209175 0.22628414846286904
2240000000.0 -0.18376916235891622 -0.20754181392872337
2260000000.0 0.15546037847456018 -0.2235285148537325
2280000000.0 0.2700756197916084 -0.031194666525834164
2300000000.0 0.1825846941249362 0.1834199234260539
2320000000.0 -0.18263410007331937 -0.17943601900509665
2340000000.0 -0.09642167077118104 -0.2374285653777297
2360000000.0 0.22422402151991927 -0.11740858851632585
2380000000.0 0.05993063399863098 0.24984000649683755
2400000000.0 0.09960378956482985 0.25933950189365007
2420000000.0 0.06679381387062282 -0.28944463289564915
2440000000.0 -0.1396506637443186 0.281297414715488
2460000000.0 0.3353696098993549 -0.027519790071412954
2480000000.0 0.11187747917733176 -0.3538190096074994
2500000000.0 0.12442093481116245 0.386993038915776
2520000000.0 -0.4269389821810067 -0.12436675670433642
2540000000.0 0.4463272713714215 -0.17001895715392842
2560000000.0 -0.3027820703752508 0.4111213700251613
2580000000.0 0.18764782955831377 -0.5073475927014247
2600000000.0 -0.11000354039610856 0.5561287475815294
2620000000.0 -0.03472259691718411 -0.5879085449732113
2640000000.0 0.22230528297458566 0.5635343151697492
2660000000.0 -0.5681582816867875 -0.2521147097775884
2680000000.0 0.4255257407935461 -0.46624073968211566
2700000000.0 0.6074915821280613 0.20207125540166512
2720000000.0 0.4241017424757688 0.4858116265682951
2740000000.0 0.19568019215698335 0.6160697421596953
2760000000.0 0.24245939278225723 0.5983928816735259
2780000000.0 -0.6376785471437568 -0.043933430421470264
2800000000.0 -0.4977153889431867 -0.3848573162090538
2820000000.0 0.10015342069767659 -0.608787709851149
2840000000.0 0.46011714403730886 0.38913264487903176
2860000000.0 -0.5014041053153995 -0.3064885882968139
2880000000.0 0.21682342619191386 0.527217959184506
2900000000.0 0.4760996917882921 -0.2742494501232648
2920000000.0 0.04788984454536707 -0.5255717055678621
2940000000.0 -0.33513232429652234 -0.374716324387825
2960000000.0 -0.24516626593250576 -0.4094895122956288
2980000000.0 -0.2834881000754207 -0.35786738877585295
3000000000.0 -0.3333677801416762 -0.2831683511157173
3020000000.0 -0.3712401678213946 0.1956388353165223
3040000000.0 0.1209782743426169 0.3794865531799349
3060000000.0 0.30314204181028453 -0.22628472822319595
3080000000.0 -0.3617605147052248 0.05535800172485296
3100000000.0 0.33634010256263347 0.1024503920435777
3120000000.0 0.1675620289313429 -0.30316339802623443
3140000000.0 -0.1814845667092001 0.28813282256497097
3160000000.0 0.05027773326272773 -0.33612176628425183
3180000000.0 0.10653369132371668 0.31811178143738905
3200000000.0 0.31755966589088924 -0.09051987281365977
3220000000.0 -0.14733920038762235 -0.28942156032322863
3240000000.0 -0.276219720974019 -0.15320693249594003
3260000000.0 -0.2955917397914338 0.07125878386507413
3280000000.0 -0.29096590386868887 -0.0308727937113349
3300000000.0 -0.27575555750178665 0.0027216959176279386
3320000000.0 -0.16881007118149488 -0.1866887052256327
3340000000.0 0.22739507415601978 -0.006759940378193294
3360000000.0 -0.17489301287649334 0.10806797711886561
3380000000.0 0.02553859307481447 -0.1851083059037584
3400000000.0 0.1652964119822799 0.01463287055174468
3420000000.0 0.13723278665572125 0.042345205856672716
3440000000.0 0.05501107116529908 0.11294053485642336
3460000000.0 0.09122804966276854 0.05625779540569141
3480000000.0 0.03558717326183017 -0.08072401435026755
3500000000.0 -0.029787248890126534 0.07701593254257909
3520000000.0 -0.08026102526782432 0.004396575136679125
3540000000.0 0.08042967454861746 -0.005801019520403779
3560000000.0 0.04381676233931546 0.07633315298526525
3580000000.0 -0.0030828205144992674 -0.09351817833296681
3600000000.0 -0.0803593635817895 -0.057788150157994454
3620000000.0 0.10818934529748496 0.015014608452807618
3640000000.0 0.03044349715234462 0.11957870332536447
3660000000.0 -0.07616353455092763 0.10906650388081783
3680000000.0 -0.020002609203092152 0.13776808482738587
3700000000.0 -0.1242916780696218 -0.039603460814530415
3720000000.0 0.09397954022658639 -0.06986276025732724
3740000000.0 -0.09774190510544906 -0.021474111985413664
3760000000.0 -0.08205886680232415 -0.009314240246029082
3780000000.0 0.04903616347530915 0.03984216708524726
3800000000.0 -0.030061085341243125 0.019199587045169764
3820000000.0 0.0005518173951533039 0.0023069378626444054
3840000000.0 -0.010907864666586447 -0.03231084230872536
3860000000.0 0.053599714619668073 -0.03239458221621587
3880000000.0 0.08982345602901828 -0.006575314796025596
3900000000.0 -0.10470222701230576 0.028651867587410236
3920000000.0 -0.07081503218647033 0.10415536188157008
3940000000.0 0.04817800914763895 0.126124784276236
3960000000.0 -0.008980358640557594 0.13725167940570393
3980000000.0 0.09735654872107224 -0.09251889722554678
4000000000.0 -0.07678197627933736 -0.08616338156201796
