!Created with skrf (http://scikit-rf.org).
# Hz S RI R 50.0 
!freq ReS11 ImS11
400000000.0 0.784243132383588 0.37979402509004073
420000000.0 0.21773689989413594 0.7871284963260068
440000000.0 0.40380151276622805 0.6434764946587748
460000000.0 -0.5885662603153834 -0.3554229728218998
480000000.0 -0.14861739991488296 -0.6022911193037888
500000000.0 0.5958687779824693 -0.26659162574993833
520000000.0 -0.3614802338277452 0.5633883782762624
540000000.0 0.6672832495627506 -0.13328980680823435
560000000.0 -0.31703470429930125 0.5888676171916506
580000000.0 -0.4231857299928844 0.3115174979274871
600000000.0 0.08419108232164053 0.5818474336288632
620000000.0 -0.4511626216144724 -0.4155069719804302
640000000.0 -0.4285489126480254 -0.3710716285030756
660000000.0 -0.0004141097862332422 0.5278321386736073
680000000.0 0.17949372331893096 0.46207805224446663
700000000.0 0.4446477718552594 0.05584673780105269
720000000.0 -0.3045171247161254 0.3815886737616084
740000000.0 0.21665615468172267 0.42017085082463307
760000000.0 0.11485728833242917 0.43406003403300164
780000000.0 -0.4296292353148485 0.028722571551830847
800000000.0 0.3014144770043749 -0.2593016996020158
820000000.0 0.34613789029651454 0.05906789173966075
840000000.0 0.01687277304366013 0.32248297304632395
860000000.0 0.2367470991541651 -0.18006569644454504
880000000.0 0.028418886822186216 0.2750326582019635
900000000.0 0.22816019344989386 0.14832071094938973
920000000.0 0.2501581104367531 -0.061983181163640974
940000000.0 -0.07900602892078626 0.20611273719747533
960000000.0 -0.08921384813012592 -0.15768672264851605
980000000.0 -0.12551653836430599 -0.07495219842562256
1000000000.0 0.1283048492953315 -0.020424094645955754
1020000000.0 -0.09614424771038636 -0.02762941642539083
1040000000.0 -0.06770359182659429 0.08892102095982851
1060000000.0 0.12973257333418328 0.0653724118965916
1080000000.0 0.19095242066280868 0.04599404812388255
1100000000.0 0.06403701615253912 0.2307387397166938
1120000000.0 0.2736863985468917 -0.04873047670721193
1140000000.0 -0.29925879996241794 0.02802904884757963
1160000000.0 -0.31703964025091336 -0.01217998899760295
1180000000.0 -0.3245763909498573 -0.09046037486285159
1200000000.0 -0.28392715348415803 -0.20605489232010502
1220000000.0 0.35433545172413855 0.03454601497217787
1240000000.0 0.14191597551649945 0.3475910096359306
1260000000.0 0.30090924369635047 -0.2528446378605653
1280000000.0 -0.3075607824532526 -0.2313767809209774
1300000000.0 -0.17879072377140723 -0.3353107864936567
1320000000.0 -0.02842423045675183 -0.3795740203754971
1340000000.0 -0.3716399698097596 0.0035469496689640796
1360000000.0 0.23189668774324795 0.3127969871422348
1380000000.0 -0.14673505011749188 0.37455573624982413
1400000000.0 0.027057233871613514 -0.39498061400580686
1420000000.0 0.1988556051128306 -0.33844664908082456
1440000000.0 -0.20267976205900198 -0.3402803045966814
1460000000.0 -0.3881881103258784 -0.0781895982197622
1480000000.0 -0.23688874467268126 -0.31641474876690706
1500000000.0 0.08582143493678453 0.3901452592197532
1520000000.0 -0.3813067474045202 0.05875164810249675
1540000000.0 0.36122025783314554 -0.015060046044838018
1560000000.0 -0.17855018076145446 0.2760497588858126
1580000000.0 -0.2278703695496923 -0.18486430001398085
1600000000.0 0.02507571086299072 -0.25573809594336416
1620000000.0 0.18773941744526138 -0.10993579908403668
1640000000.0 -0.18158824777362648 0.03989600523073451
1660000000.0 -0.043627951009385046 0.14863511190207213
1680000000.0 0.1127084481695608 -0.014816125178359021
1700000000.0 -0.055004958202601525 -0.08657859463924658
1720000000.0 0.07195545444452785 -0.03723165713884247
1740000000.0 0.06633027751033282 -0.04009042199846576
1760000000.0 0.07661628313411983 -0.04887099325996219
1780000000.0 0.029795190848580785 -0.11180507909456806
1800000000.0 0.13315251825870372 0.04193533641460887
1820000000.0 -0.16573344941454332 0.03587226037250007
1840000000.0 0.1907938931577745 -0.03696736529679985
1860000000.0 -0.20605443828647824 -0.07863707519613408
1880000000.0 -0.028265550299744584 0.2557670781999165
1900000000.0 0.05186106458832103 0.2670638914090621
1920000000.0 0.2546392697337969 -0.1456771965467462
1940000000.0 -0.30411003013102933 -0.013972070053080834
1960000000.0 0.29444685012275024 -0.0915215135317676
1980000000.0 -0.28924178029787 -0.11988296447957295
2000000000.0 0.007556004607040839 -0.32078530956227597
2020000000.0 0.31234105164469705 -0.07447271911475398
2040000000.0 0.31839534486706933 0.04488659120552084
2060000000.0 0.26405357317657935 0.17878828411068706
2080000000.0 0.015143846399660838 0.3182074530752055
2100000000.0 0.11214919485779165 -0.2927437254273366
2120000000.0 0.13868040384879696 0.2716731096751681
2140000000.0 0.03587885513802352 -0.298389614753168
2160000000.0 -0.292170743746749 0.04523267823714171
2180000000.0 -0.08445615605113813 0.27422945277446636
2200000000.0 -0.1825287744323641 0.21687963343371852
2220000000.0 -0.16105125639661289 0.22971738396097238
2240000000.0 -0.1591448631796445 -0.22370655761730046
2260000000.0 0.14548246558431024 -0.22854762117627664
2280000000.0 0.24342824249142456 -0.12071669365856011
2300000000.0 0.2562971330180812 0.03090792735453989
2320000000.0 -0.24125192412283405 -0.08713682634290287
2340000000.0 -0.12510434234116305 -0.22496148447560807
2360000000.0 0.18006086552801306 -0.18343735661586472
2380000000.0 0.09034891253127637 0.24344036641876843
2400000000.0 0.17768527945857335 0.21791432995029822
2420000000.0 0.16081865959607822 -0.25184953851168346
2440000000.0 -0.2931080669675269 0.12087716626339166
2460000000.0 0.3119919858920625 0.1352610432490683
2480000000.0 0.22803608586471247 -0.29393501026849983
2500000000.0 -0.13359312982102786 0.38237700405933955
2520000000.0 -0.3305379964362677 -0.29671701290329133
2540000000.0 0.474349548864948 -0.039834839192709845
2560000000.0 -0.3506215684048837 0.3697331546977111
2580000000.0 0.15023815466637078 -0.5181991223525853
2600000000.0 -0.0216314122167438 0.5658647706028828
2620000000.0 -0.1323263896019535 -0.5748555120173598
2640000000.0 0.2862897338033885 0.5359601776335925
2660000000.0 -0.5845588682244159 -0.2200451891855944
2680000000.0 0.45743059897572674 -0.44008035841842863
2700000000.0 0.6051530743831537 0.21849887571866178
2720000000.0 0.2602458288535051 0.5932601864994396
2740000000.0 0.0749937239734143 0.6438623297416178
2760000000.0 -0.05965740361576068 0.6436512087932684
2780000000.0 -0.5743737439504737 -0.27953763253233216
2800000000.0 -0.357995325635861 -0.516145477269164
2820000000.0 0.18003921565631872 -0.5888445378843804
2840000000.0 0.4684677474322338 0.37553319737000074
2860000000.0 -0.4777405335709796 -0.3401576651808231
2880000000.0 0.256619379437584 0.5088034589434001
2900000000.0 0.3874882915774098 -0.3893064366145539
2920000000.0 0.036155175424933024 -0.5266245394662291
2940000000.0 -0.3477355249007198 -0.36645794886152494
2960000000.0 -0.2438430861775919 -0.4128434953241993
2980000000.0 -0.20463952901001897 -0.4104097489009526
3000000000.0 -0.36733538448898573 -0.24293336655070175
3020000000.0 -0.42071461487216305 -0.013502843065878407
3040000000.0 -0.13626994082071067 0.37663310568521186
3060000000.0 0.3772046193027287 -0.051974426509906
3080000000.0 -0.2861194487234372 -0.22724170482843145
3100000000.0 0.2760668938364985 0.21544411233509167
3120000000.0 0.3029096603624911 -0.1642528080496621
3140000000.0 -0.19714360558916166 0.27610116463659534
3160000000.0 0.1183000117605278 -0.3158018320385187
3180000000.0 0.025384597996146962 0.3329479378873486
3200000000.0 0.31552198257403824 -0.09407019394088771
3220000000.0 -0.20119321226174658 -0.255077882354764
3240000000.0 -0.3127577939632952 -0.04467706925054679
3260000000.0 -0.2938910648263933 0.08602857296706931
3280000000.0 -0.29334600765925284 0.0140197828717924
3300000000.0 -0.2777682977418697 -0.0081046772387531
3320000000.0 -0.14433644600350248 -0.20830716921904133
3340000000.0 0.2233097781446793 0.05504209806930762
3360000000.0 -0.18666087722380834 0.08952579466317857
3380000000.0 0.1414359810650137 -0.12494184736091585
3400000000.0 0.12202892172210854 0.11374304068434168
3420000000.0 0.02731374961337592 0.14057610244911894
3440000000.0 -0.11572097775587185 0.04999685829321905
3460000000.0 -0.06813434319518724 0.08091812870718919
3480000000.0 0.088015317478523 0.010224752460595237
3500000000.0 -0.0772057597435143 0.01690124618190494
3520000000.0 0.026093102861797456 -0.07243956539426895
3540000000.0 0.07585117194727617 -0.01941422525388983
3560000000.0 0.02179081137884662 -0.08378748811987818
3580000000.0 -0.08942835629255863 0.026767146475651885
3600000000.0 -0.029006265307299255 0.0938371789581321
3620000000.0 0.054821153502525054 -0.09672974006430583
3640000000.0 0.10885980384661971 0.061439656081554224
3660000000.0 -0.02573725022736911 0.1342283412678944
3680000000.0 0.07884278593152146 0.11817104828920326
3700000000.0 -0.08511324302590956 -0.10183424790556561
3720000000.0 0.10860519895647236 0.05077402787257711
3740000000.0 -0.022604245895906313 -0.0998144564910495
3760000000.0 0.05212957912942363 -0.06510243071958201
3780000000.0 -0.025815152852593608 -0.05820563625573328
3800000000.0 0.0226814080558393 0.025200423316968062
3820000000.0 0.0013423836370053202 -0.0005795554868119735
3840000000.0 0.007361928264018526 0.035920756928534935
3860000000.0 0.01879822348409376 -0.06204340062015171
3880000000.0 0.08726426761891697 -0.031664891289023216
3900000000.0 -0.10007384996627397 -0.053296142367636246
3920000000.0 -0.12605529191832088 0.020948798667470455
3940000000.0 -0.12040691208482283 0.061672796508007256
3960000000.0 -0.13869248907582288 -0.010687473424010684
3980000000.0 0.13354261959630606 -0.011462943120972055
4000000000.0 0.055942152818699034 -0.09776146071335752
