!Created with skrf (http://scikit-rf.org).
# Hz S RI R 50.0 
!freq ReS11 ImS11
400000000.0 0.8363233676426486 -0.26692969477965584
420000000.0 0.7827287634049328 -0.28001980934574067
440000000.0 0.47232818593290693 -0.6110507882829647
460000000.0 0.26220412686245603 0.6447489243355059
480000000.0 0.2672217508268806 -0.5296923681989812
500000000.0 0.5163202052677655 0.350619741551648
520000000.0 0.5097698974086609 -0.3867024638369934
540000000.0 0.04744131254308907 -0.6044505985376883
560000000.0 0.5852420535908047 0.21111055000339152
580000000.0 0.4907583898998025 0.19171695245131015
600000000.0 -0.16579549147853007 0.5729194928006441
620000000.0 -0.36309664575711914 -0.48109539590615674
640000000.0 -0.26943643700347436 -0.4932249375233815
660000000.0 -0.10866003259205693 0.5080339659583727
680000000.0 0.33757868814267933 -0.3428812717918603
700000000.0 0.4783293357687556 0.12474919461084283
720000000.0 0.47249467641943727 0.15521024382253903
740000000.0 0.334233049451854 0.34236800879531576
760000000.0 0.025669113701513143 0.45630378627551776
780000000.0 -0.43324227686669653 -0.11008415310071973
800000000.0 -0.08780595187929688 -0.39362068053813387
820000000.0 0.0633931702779004 0.3591222929884083
840000000.0 -0.279581610009593 0.1885450106008702
860000000.0 0.08428290645306338 -0.2976478390550236
880000000.0 0.2184055048697053 0.18083173272614764
900000000.0 0.1287194320881276 0.23895962347483551
920000000.0 0.22009919029507566 -0.12703002755475398
940000000.0 -0.0034403356104472627 -0.2256785138859758
960000000.0 0.14735578490190412 0.08186044772819019
980000000.0 -0.05149893322886498 0.12994579279814433
1000000000.0 -0.08947946345362329 0.09563211740701151
1020000000.0 0.0037151439928480366 0.10683650937211343
1040000000.0 -0.11967673274512546 -0.037401257823754065
1060000000.0 0.15536955779345496 -0.015393772753274235
1080000000.0 0.08282767875663032 0.18602275038311278
1100000000.0 -0.1925371810562156 0.15587292057084526
1120000000.0 -0.2464100808348872 -0.13030387949544422
1140000000.0 -0.18780205423597152 0.24054342115007085
1160000000.0 0.12424667448879663 0.30498968236902096
1180000000.0 0.06627925498066477 0.335890639149275
1200000000.0 -0.35012573057906915 0.046939643988341224
1220000000.0 0.2129341522824958 -0.30052497234425324
1240000000.0 0.335243665883068 -0.17330057029855198
1260000000.0 0.14200596080322533 -0.3668785645008495
1280000000.0 -0.3001735361073279 0.22770369742469043
1300000000.0 0.047478630745589924 -0.366398534520282
1320000000.0 0.2643906130524202 -0.26494522730196784
1340000000.0 -0.367224696268817 -0.008546575257387045
1360000000.0 0.18923739117251595 0.3381906513161064
1380000000.0 0.021721935978167486 0.3928616829965543
1400000000.0 0.04816785396721503 -0.37936334493542406
1420000000.0 0.29134280784827693 -0.2506566062167706
1440000000.0 -0.06615942349484553 -0.38433089061164866
1460000000.0 -0.2929181050911789 -0.25335861673165294
1480000000.0 -0.19442143980670548 -0.34082439493843364
1500000000.0 -0.3518800938065292 0.17102762087940634
1520000000.0 0.18369945920537376 -0.34157435062123437
1540000000.0 0.09996540843184618 0.34612634664363745
1560000000.0 -0.2031619707866467 -0.26132038558519044
1580000000.0 0.2942730022295241 0.026158792640938944
1600000000.0 0.23883283550201637 -0.10603030172208515
1620000000.0 0.010093388527181703 0.21244122708435204
1640000000.0 0.05670693921114917 0.17904717995669897
1660000000.0 0.13641704090398069 -0.08620978590793038
1680000000.0 -0.11833957905862769 -0.029221618547473235
1700000000.0 0.09097932825335674 0.07477805373974403
1720000000.0 0.03317875157884678 -0.08488649442460772
1740000000.0 0.0010590666161765315 -0.08361177820836412
1760000000.0 -0.029985767373603128 0.08725866617471692
1780000000.0 -0.08946013685030364 0.06005667258892261
1800000000.0 0.03290428273627808 0.12332125621327827
1820000000.0 0.1443075872245658 0.07080673738036665
1840000000.0 0.09101934663960325 -0.1671278664426536
1860000000.0 0.005217634753309263 0.21885017491784672
1880000000.0 0.22439676053911253 0.11602846969711156
1900000000.0 0.27069930996294966 0.0349156567680773
1920000000.0 0.046619206510520296 -0.28724428157091825
1940000000.0 -0.3040345964637796 0.031249098985203373
1960000000.0 0.17380803183277635 -0.2575488190456877
1980000000.0 -0.2823287682526614 0.1302319529378016
2000000000.0 0.21082084195511297 -0.24003834646003083
2020000000.0 0.28484265279804083 -0.15928294677951357
2040000000.0 0.317182814876223 -0.06581614980974047
2060000000.0 0.24665874807785657 0.2038730377003458
2080000000.0 0.011084555569096386 0.32630892944265494
2100000000.0 -0.02557225529258263 -0.32352796885718166
2120000000.0 0.24516222509890198 0.20124731420962058
2140000000.0 -0.22302985616551965 -0.23034941916636206
2160000000.0 0.090841826146824 0.3046908004743582
2180000000.0 0.24973212854929772 -0.18225536634930722
2200000000.0 0.1834800075572219 -0.24225769468683825
2220000000.0 0.08014682343010016 -0.2864960650696543
2240000000.0 0.28967409995024523 0.011974723639518965
2260000000.0 0.05322967791279017 0.27033139364664444
2280000000.0 -0.2063020359031432 0.17079630407134208
2300000000.0 -0.04859892293799045 -0.24594931251060168
2320000000.0 -0.04863919735798611 0.23904553470352
2340000000.0 0.035497787260466394 -0.24005948756264428
2360000000.0 -0.0006641435586787333 0.24484146470758045
2380000000.0 -0.14121983260696597 -0.21478090894906288
2400000000.0 -0.27310307284364066 0.0699770166188822
2420000000.0 0.292397190925802 0.07582015411368631
2440000000.0 -0.1809594850641126 -0.27275711888539306
2460000000.0 0.12195523254512347 0.33472022227527665
2480000000.0 0.22905255411728334 -0.3180274583143817
2500000000.0 0.29222016141433327 0.31212910117611065
2520000000.0 -0.4465986475060329 0.12356077205902548
2540000000.0 0.22636833789807972 -0.4392790422691467
2560000000.0 0.03798972701588965 0.5234604277469403
2580000000.0 -0.23092034081216808 -0.5020510187417786
2600000000.0 0.304601473991657 0.488988054611675
2620000000.0 -0.3771660484143232 -0.4602895403038022
2640000000.0 0.4643792187916224 0.3966513828163547
2660000000.0 -0.622854599430873 0.05730715189814618
2680000000.0 0.10879187066699901 -0.6248272884246899
2700000000.0 0.631085447857806 -0.11862601624101515
2720000000.0 0.5942978328660053 0.2587469379707945
2740000000.0 0.5437064042014134 0.35548398074571486
2760000000.0 0.5147258466768342 0.395700738904353
2780000000.0 -0.5418003597863184 0.34794096361577753
2800000000.0 -0.6341253395310863 0.03335744842637737
2820000000.0 -0.38900962426364527 -0.48680702581201457
2840000000.0 0.5723757161490869 -0.2085590012660754
2860000000.0 -0.4354587991436759 0.4040603998631871
2880000000.0 0.5612509915113859 -0.11874933719527093
2900000000.0 -0.26467015826561363 -0.4839302177317897
2920000000.0 -0.525529711770468 0.05679128790256994
2940000000.0 -0.34235849010428426 0.36357892326554
2960000000.0 -0.3080463976600982 0.3590895742064415
2980000000.0 -0.28557642592766674 0.3442269199105591
3000000000.0 -0.22950341440190408 0.3590071029639667
3020000000.0 0.08642859755429999 0.3950961395521126
3040000000.0 0.3075516198553803 0.2307198846994581
3060000000.0 0.28737297749110063 -0.2323749061545318
3080000000.0 -0.35547602451305466 -0.04293846254048259
3100000000.0 0.17821611310835256 0.2985118016606912
3120000000.0 0.2956806042401427 -0.1780131422182325
3140000000.0 -0.3327697766960475 0.07667594898444238
3160000000.0 0.34216054832378623 0.017501818309902592
3180000000.0 -0.34476871891890737 -0.00110627258413484
3200000000.0 0.038455740846301725 0.33958142835253446
3220000000.0 0.29475802291081576 -0.1648742540287798
3240000000.0 0.09854633282556179 -0.319634991027001
3260000000.0 -0.22733057741484908 -0.23488682234781189
3280000000.0 -0.3143799896796483 -0.02659060780018059
3300000000.0 -0.22525864545228952 0.19583859329445477
3320000000.0 -0.053018043271658835 0.26663059947643736
3340000000.0 -0.23292453643527775 0.08707185665667652
3360000000.0 -0.20157720496068782 0.09316199873945677
3380000000.0 -0.10893502792064869 -0.15929601277399885
3400000000.0 -0.0273405382687815 -0.16738737497466658
3420000000.0 0.017569375492108616 -0.14109259729614776
3440000000.0 0.034673669984743416 -0.11301605331843428
3460000000.0 0.09046217400841834 -0.0267445564405051
3480000000.0 -0.05811534722894459 0.050900970659809794
3500000000.0 -0.04153795810781371 -0.0596390740432805
3520000000.0 -0.06842974756847085 0.023557442594637434
3540000000.0 0.06040745545399453 0.049597187678926145
3560000000.0 -0.08399374391428778 -0.0016738226709328728
3580000000.0 0.09630660272853499 0.013320549097466829
3600000000.0 -0.03294500045990676 -0.09797518315978201
3620000000.0 0.06228349109341473 0.10237969850224536
3640000000.0 0.0022712054499917237 -0.1360612894500125
3660000000.0 -0.1008943937874942 -0.10673714132423043
3680000000.0 0.10006470294815703 0.11236823064794811
3700000000.0 0.031517417942396576 0.140098780037283
3720000000.0 0.10326769633032326 0.07802907582833177
3740000000.0 0.08489757371233882 -0.058312234049098174
3760000000.0 -0.05988205509220552 -0.05270281207882547
3780000000.0 0.0405215686120166 0.04214470602101234
3800000000.0 0.0019844960776303133 -0.027224834033162105
3820000000.0 -0.0008365234181583754 0.010934649115057486
3840000000.0 -0.045188812778667306 0.015036253526959927
3860000000.0 -0.04194787491758214 0.06641016457193398
3880000000.0 -0.04072083034418057 -0.09767150604081516
3900000000.0 0.1289346286375936 -0.012386640713773522
3920000000.0 -0.13570942709502296 -0.04765939145109877
3940000000.0 -0.051138535256720734 0.1433429488585307
3960000000.0 0.111920635999151 -0.11014851360199979
3980000000.0 0.14300904008357115 0.0373587680131775
4000000000.0 -0.09651298223216816 -0.07856980874311087
