!Created with skrf (http://scikit-rf.org).
# Hz S RI R 50.0 
!freq ReS11 ImS11
400000000.0 0.7733614573937257 0.4073279995586215
420000000.0 0.4042141093824988 0.7118553685328852
440000000.0 0.7085846674871985 0.27364113275784474
460000000.0 -0.6726374602869303 -0.03972686281541754
480000000.0 0.42367767013144614 -0.45117863199499836
500000000.0 0.6133061148763662 -0.2324079500592777
520000000.0 -0.2759195166797203 0.6067671230519704
540000000.0 0.6254904295353406 -0.2522845420057195
560000000.0 -0.53065378048484 0.38455572148149103
580000000.0 -0.40052855992791125 -0.3373421500486177
600000000.0 -0.45622354785808267 0.38850728887286173
620000000.0 -0.2043025975111433 -0.5794287931670742
640000000.0 -0.2803515576340383 -0.5069889783978395
660000000.0 0.16387375639051185 0.5129081386581712
680000000.0 0.04301944292075638 0.5015372065673528
700000000.0 0.3519676472165134 -0.3049242813455506
720000000.0 0.42483925979136405 0.2405694258701547
740000000.0 0.3422037341204698 0.3241599576736586
760000000.0 0.4275734236996453 0.1207110556222463
780000000.0 -0.37711717220315977 0.1760991374626235
800000000.0 0.027634901653512095 -0.38853298800426217
820000000.0 0.10123811022697626 0.32847376254722327
840000000.0 -0.25761692625783084 -0.19218821219580515
860000000.0 0.21458700916791887 -0.2128204710771256
880000000.0 0.05561897012798093 0.2621228952822571
900000000.0 -0.18086715182860777 0.19698340808770426
920000000.0 -0.05906615695389659 0.24306979920341357
940000000.0 -0.04495972645620135 -0.2248160358975122
960000000.0 0.05159270944012482 -0.1865265120665084
980000000.0 -0.12833738348059603 -0.08566660325037782
1000000000.0 0.13761932401886487 -0.016570206904100823
1020000000.0 0.10555695786833119 0.014337605596992445
1040000000.0 -0.0869985855751302 0.062420111767114775
1060000000.0 0.1351429744567609 -0.063144101300491
1080000000.0 -0.1467937399359945 -0.1346456849430483
1100000000.0 0.0014465666712624378 0.23251992564040114
1120000000.0 -0.22814758182587636 0.16309588048310392
1140000000.0 -0.3012768848123196 0.08702663760469637
1160000000.0 0.1610251233851785 0.27997503455251327
1180000000.0 -0.09617789032245681 0.31990713978438445
1200000000.0 -0.33939545902721263 0.044715202856752546
1220000000.0 0.3496461070322054 0.05968129597096463
1240000000.0 0.15826710194249305 0.33957093547255074
1260000000.0 0.3015091978097384 -0.23469737310489286
1280000000.0 -0.08701390320312481 -0.3717265850355408
1300000000.0 0.02123751229167033 -0.3809418103826613
1320000000.0 0.1074712612956366 -0.363303439739986
1340000000.0 -0.36983528855692477 0.0010395160306415888
1360000000.0 -0.25797726019287903 0.2858585939066391
1380000000.0 -0.39830862931984856 -0.09827539047645707
1400000000.0 0.12698815961044344 -0.3850424435875436
1420000000.0 -0.20028280168558252 -0.34601965755486563
1440000000.0 -0.3999703711573611 -0.002681878326971762
1460000000.0 -0.20502875734436304 0.33509252200238493
1480000000.0 -0.3863423491502161 -0.041502450745114446
1500000000.0 -0.08746371316544144 0.38287176343698615
1520000000.0 -0.34697508116597053 -0.1649399055252954
1540000000.0 0.3588135839377108 -0.0311596258019728
1560000000.0 -0.3076895383434801 0.10677455886463433
1580000000.0 -0.030069036337002357 -0.28928655189220237
1600000000.0 0.2566250341852519 -0.030908108249690577
1620000000.0 0.12837399817399106 0.1821089956500462
1640000000.0 -0.189673186296295 0.004563491607764472
1660000000.0 0.006656942709765727 0.16037029450996976
1680000000.0 0.00508330604253081 -0.11891301393766265
1700000000.0 -0.09044540767218384 0.05619853483477741
1720000000.0 -0.024553226541975826 -0.074729460205167
1740000000.0 5.1536001810124346e-05 -0.06955889736132466
1760000000.0 -0.08744343912958753 0.009978469751246836
1780000000.0 -0.11396963425922683 0.008098178753288974
1800000000.0 -0.03842848375732697 0.13837872559680994
1820000000.0 -0.11182132836165357 -0.1313334248098704
1840000000.0 0.19473968984878 0.0441666212552569
1860000000.0 -0.1575094820332345 0.16518417379562472
1880000000.0 0.12394288923300514 0.22477027910302982
1900000000.0 0.26403374417902775 -0.07863131763356844
1920000000.0 -0.07629654535863167 -0.27596399124771087
1940000000.0 -0.3016448771488585 0.003205918770959452
1960000000.0 0.29091250553929277 -0.08491853045218564
1980000000.0 -0.1985333868754145 -0.23686001543298552
2000000000.0 0.2572795954079677 -0.1909213451015263
2020000000.0 0.3163582411627904 0.03797511007520842
2040000000.0 0.06167261668462238 0.31617298641747804
2060000000.0 0.15143857331219968 0.28645345343188455
2080000000.0 0.13188454634465685 0.29127612565047034
2100000000.0 0.24331805287613067 -0.20048719238027768
2120000000.0 0.07255123425916195 0.30164615276945944
2140000000.0 -0.1498455273718836 -0.26466013526113663
2160000000.0 -0.16213911384754917 0.2494578676746927
2180000000.0 -0.041418143701972776 0.2831016209025332
2200000000.0 -0.03638969650658881 0.2815100034671413
2220000000.0 0.0725550826492889 0.27110456559273893
2240000000.0 -0.2654475448198512 0.037296365483045844
2260000000.0 0.2393708793830611 -0.1118992004728659
2280000000.0 0.22182793730128642 0.14871965123234196
2300000000.0 -0.11737516705453085 0.22895697420017064
2320000000.0 -0.02817653410080628 -0.26194340757589846
2340000000.0 -0.2518778166358808 -0.07168470969885606
2360000000.0 0.25910413719570596 0.021875270599695584
2380000000.0 0.2377188406221033 0.12899263241492356
2400000000.0 0.17586308308538248 -0.2194222696549352
2420000000.0 -0.13555061137700206 -0.26271814850482006
2440000000.0 -0.11829924592266926 0.2907159470974035
2460000000.0 0.32532083180859295 -0.05961423202817194
2480000000.0 0.36444402551773225 0.015366001594789024
2500000000.0 -0.3905315505201776 0.09862192138706237
2520000000.0 -0.058986243082775225 -0.44044590301359415
2540000000.0 0.421236430382507 0.2263717411448967
2560000000.0 -0.46586749864099375 0.2176726467076395
2580000000.0 0.06511225551410543 -0.5414536267217168
2600000000.0 0.17368718519906354 0.5412484849049994
2620000000.0 -0.2799577979404856 -0.5209674595940608
2640000000.0 0.41934473645232107 0.43989696951747104
2660000000.0 -0.6176497102181768 -0.08349941003667351
2680000000.0 0.4095135188974443 -0.48266946080237483
2700000000.0 0.6026852364174192 0.22042496238684464
2720000000.0 0.29035588006948504 0.5782353943562593
2740000000.0 0.09783592144469584 0.639802445691467
2760000000.0 -0.04528335406104754 0.6435566615806868
2780000000.0 -0.5424978985751624 -0.3364496064035447
2800000000.0 -0.41432943839611736 -0.47157250087674807
2820000000.0 0.2133858619587578 -0.5752763630881368
2840000000.0 0.38618092314512836 0.4585736462718161
2860000000.0 -0.46938851705622364 -0.3512909161609167
2880000000.0 0.22130174057547197 0.524594161708884
2900000000.0 0.4640728026775954 -0.2956363472887894
2920000000.0 -0.04243745218031653 -0.5287287645562403
2940000000.0 -0.38279788932148345 -0.3297175844812877
2960000000.0 -0.2662529232397958 -0.39967460054262727
2980000000.0 -0.3045634936137737 -0.345403592529864
3000000000.0 -0.4218937977844632 -0.12091485083017864
3020000000.0 -0.4169871192399201 0.01885121945646382
3040000000.0 -0.10191657744798688 0.38683766567025357
3060000000.0 0.33302357006885497 -0.17992030438471857
3080000000.0 -0.2584814129584181 -0.2531788673150197
3100000000.0 0.04643374881013434 0.3466148299827431
3120000000.0 0.3461829352561089 0.019179820430342914
3140000000.0 -0.22441232421045185 0.2557658458149842
3160000000.0 0.18186203601452153 -0.2868218526601496
3180000000.0 0.03342917160549879 0.3338999401152566
3200000000.0 0.3073439266921254 -0.11721261917250965
3220000000.0 -0.14649767960776117 -0.28925180190428046
3240000000.0 -0.3090347886035386 -0.0790196673473473
3260000000.0 -0.21504522153158834 0.21779027232964487
3280000000.0 -0.28663246020795713 0.05022721312895333
3300000000.0 -0.2533385549483408 -0.11109515685143341
3320000000.0 -0.17704104443067759 -0.18261310417509677
3340000000.0 0.2219204002851307 -0.05380410625603873
3360000000.0 -0.1862005632815445 0.08876327643305294
3380000000.0 0.1808666267829394 -0.04047068489717701
3400000000.0 -0.04914263909333201 0.15824763771334213
3420000000.0 -0.138188280941524 0.047971948949985695
3440000000.0 -0.12615703312847662 -0.026906666537189095
3460000000.0 -0.10950548033688667 0.00419547748997175
3480000000.0 0.08462664637392811 0.04040199870944596
3500000000.0 0.058131608714314185 -0.059748024593978676
3520000000.0 -0.018945210954086876 -0.07674863945452938
3540000000.0 0.07076860266637715 -0.010395045612466297
3560000000.0 -0.0687462648724896 -0.03550111937499453
3580000000.0 0.05163998882266919 -0.06623745854870774
3600000000.0 0.08588298038653666 -0.045209479763299025
3620000000.0 -0.01061565736061642 0.11050474169102555
3640000000.0 -0.08874118586282577 0.09339906331788186
3660000000.0 -0.12421189358667167 0.06587261329176533
3680000000.0 -0.017600260427774215 0.14658604240496745
3700000000.0 -0.10907742209772725 0.08385125800932136
3720000000.0 -0.07874971664166341 -0.09288333701147947
3740000000.0 0.0887839183766443 0.04556876556446679
3760000000.0 -0.07700350970840872 -0.00808142305654062
3780000000.0 -0.016384592884691282 -0.05800914103389079
3800000000.0 -0.022649913660247777 -0.016944191073270214
3820000000.0 -0.009617859398761735 3.1090186002460825e-06
3840000000.0 -0.03498829957269185 0.00862835082845503
3860000000.0 0.036658060965620555 0.04695451023578413
3880000000.0 0.07873490451135194 0.04040908141082519
3900000000.0 0.03307563558358902 -0.10216652502718031
3920000000.0 0.12300113445647728 -0.02092149003288014
3940000000.0 0.08775928744348116 -0.10683744420020437
3960000000.0 -0.12281695702663614 -0.07748215273754508
3980000000.0 0.12373339093121138 -0.059585697109094726
4000000000.0 -0.08247392161853653 -0.07904509474328088
