!Created with skrf (http://scikit-rf.org).
# Hz S RI R 50.0 
!freq ReS11 ImS11
400000000.0 0.8526175249117006 -0.21141922423895707
420000000.0 0.7676923602219887 -0.3185317155244851
440000000.0 0.3652336861829512 -0.6813057687560474
460000000.0 0.03330063800745984 0.6899691569668869
480000000.0 0.30448038578757786 -0.5094524425436522
500000000.0 0.5884065493812132 0.22432216026999358
520000000.0 0.2266639337029608 -0.5951877330846359
540000000.0 0.1948599205845245 -0.5706673295096403
560000000.0 0.6230328763302537 0.05067580471815034
580000000.0 0.5038846583394748 0.12999538699503943
600000000.0 -0.252858833695119 0.5448711794868435
620000000.0 -0.4163647415493295 -0.4381737761877988
640000000.0 -0.15747278563667017 -0.5399858439939684
660000000.0 0.13530289226940823 0.5016730548675277
680000000.0 0.3659049585926227 -0.30203058078878403
700000000.0 0.31567785586878966 0.3808556548178515
720000000.0 0.4024981732263799 0.29553526368826966
740000000.0 0.4253834059200044 0.22792016185492758
760000000.0 0.3075280406361162 0.33820224590121545
780000000.0 -0.41305902799350286 -0.15797674018754887
800000000.0 0.39949160620296315 -0.06000165291719623
820000000.0 0.32009965699939835 0.1773422912241164
840000000.0 -0.31912703329858333 0.09738499293090375
860000000.0 0.06489940179098708 -0.30560601577516344
880000000.0 0.24619107485305866 -0.12648970138590634
900000000.0 -0.07701014446410884 0.2604135834491681
920000000.0 0.25732320347553295 -0.022282165674299376
940000000.0 -0.10582480020163909 -0.20232719406937477
960000000.0 -0.13197103163791302 -0.1029793280605109
980000000.0 0.02633919218551863 0.128920217891924
1000000000.0 0.1231764205140889 0.04683011799330217
1020000000.0 -0.09133288309243058 0.07118654004696783
1040000000.0 -0.005707384939989477 0.13076275560796494
1060000000.0 -0.035845974046293826 -0.15367794591086023
1080000000.0 0.07067996189683316 0.1895056592442845
1100000000.0 -0.19687906159392166 -0.14431142733223942
1120000000.0 -0.05613959248960531 -0.27447899858039654
1140000000.0 -0.2555429191980388 0.17521327141355134
1160000000.0 0.29628840542005924 0.1542801781924186
1180000000.0 0.07905194805917339 0.3285854445278245
1200000000.0 -0.33365999987592954 -0.11735930277227109
1220000000.0 0.2942248186358348 -0.2230748903872015
1240000000.0 0.37121028592501376 -0.08373994531185053
1260000000.0 -0.09059366332505475 -0.381798822260117
1280000000.0 -0.3545797162409944 0.12892295256039674
1300000000.0 0.16309030274507746 -0.3268843034621459
1320000000.0 0.33429576244918835 -0.17502819549233678
1340000000.0 -0.3472880863113539 0.12633431950476437
1360000000.0 0.2692126191898813 0.27103235974768675
1380000000.0 -0.2327133085374954 0.31645937657898976
1400000000.0 0.04072279751611505 -0.38156952128935473
1420000000.0 0.32560354446138845 -0.20610963242579067
1440000000.0 -0.1663271989785038 -0.34975413846319703
1460000000.0 -0.2436192708532078 -0.30180971972957554
1480000000.0 -0.005687771310568969 -0.3925646975639452
1500000000.0 -0.3821681118855386 0.09047907668995313
1520000000.0 0.07373001846976264 -0.3799680178571585
1540000000.0 0.04950865629267133 0.3562439464666308
1560000000.0 -0.1761759140369943 -0.2765464143653495
1580000000.0 0.2729307428830098 0.11210202130674526
1600000000.0 0.2626427469130919 -0.02664686877333525
1620000000.0 0.206570471504682 0.04479776530050637
1640000000.0 0.00397782342896061 0.18555312510518218
1660000000.0 0.16102228412515052 -0.017787120227524184
1680000000.0 -0.073551417218456 -0.09832354651443194
1700000000.0 0.10387669171298365 0.052705480401159396
1720000000.0 0.08831207139191546 -0.028091766501545153
1740000000.0 0.04099459501864378 -0.07229717482230741
1760000000.0 -0.007773840319222631 0.09177649679819076
1780000000.0 -0.10709761482673097 0.02435540525480033
1800000000.0 -0.007350329953045217 0.12879051272430297
1820000000.0 0.0681246315106211 0.14468438818125146
1840000000.0 0.11019564323342762 -0.15656135001492621
1860000000.0 0.035312175075227006 0.2157822616065909
1880000000.0 0.19260538877496566 0.16028560354040589
1900000000.0 0.2713409523616713 -0.031775236636423614
1920000000.0 0.05787109383583278 -0.2852509980724314
1940000000.0 -0.3053400908034057 0.02874736204590213
1960000000.0 0.23766961566458578 -0.19794673482340264
1980000000.0 -0.3026674700596121 0.0776890201307995
2000000000.0 0.07916878320778702 -0.3090273932994961
2020000000.0 0.317151958333038 -0.07224726167837721
2040000000.0 0.3250900119265143 -0.025171215806097064
2060000000.0 0.27290421448169006 0.16975163815185187
2080000000.0 -0.002617890353187897 0.32590591148210085
2100000000.0 -0.03222608156719208 -0.32203835648319734
2120000000.0 0.18534930267170013 0.25903047750726654
2140000000.0 -0.22483965004969747 -0.22900499869373941
2160000000.0 0.1997061971175445 0.24687672003172026
2180000000.0 0.3003925639031497 -0.07071663762591578
2200000000.0 0.19789784659303483 -0.2316352481501329
2220000000.0 0.002619778621075399 -0.2973980551916578
2240000000.0 0.2876980616014231 -0.029902971209488944
2260000000.0 0.07932688736260518 0.2649695864357146
2280000000.0 -0.14861525916659815 0.22288486181563097
2300000000.0 0.05666925484918851 -0.24345259479230993
2320000000.0 -0.13519964632450934 0.20626286243473346
2340000000.0 -0.023202887215074873 -0.24119442520731074
2360000000.0 -0.020972647754073464 0.24490746625191295
2380000000.0 -0.0786931831019254 -0.24450570107767305
2400000000.0 -0.27673384277310814 -0.04947519293078984
2420000000.0 0.2576309898569137 0.15750835007773065
2440000000.0 -0.19234367501516605 -0.263823065607881
2460000000.0 0.10555519634824961 0.340166486927506
2480000000.0 0.14983896716896733 -0.36136518977071846
2500000000.0 0.3141012076884186 0.2894851556424303
2520000000.0 -0.4531101884637295 0.10069419351679122
2540000000.0 0.22309981291327408 -0.4424109247962705
2560000000.0 0.060809708375532644 0.5220947459983518
2580000000.0 -0.1762725473781397 -0.5234800828052569
2600000000.0 0.2795673083891928 0.5038283528127305
2620000000.0 -0.38306299262320703 -0.4564614094198435
2640000000.0 0.4588173600030164 0.40322978389867314
2660000000.0 -0.6238926559530866 0.043329444778888546
2680000000.0 0.13274080044926365 -0.6202255038444134
2700000000.0 0.6272761079291445 -0.14241527195631914
2720000000.0 0.6105669358069029 0.21516485125328755
2740000000.0 0.5322494925806105 0.37210172981726675
2760000000.0 0.573602409083302 0.30486398869162296
2780000000.0 -0.5129713392156722 0.3888992101592097
2800000000.0 -0.6306325965954405 0.07065824045828333
2820000000.0 -0.35920501348165784 -0.5099284597219633
2840000000.0 0.5739374510492877 -0.20359523636882407
2860000000.0 -0.46221602098856857 0.37317794699683143
2880000000.0 0.5633167836946824 -0.10934398897401965
2900000000.0 -0.25969649577801834 -0.48695388705780596
2920000000.0 -0.5278735679531957 0.010071464215099588
2940000000.0 -0.34670098289207535 0.3578959337041901
2960000000.0 -0.3767154454893144 0.28521854687983433
2980000000.0 -0.25866891906016887 0.3658699302457403
3000000000.0 -0.2077084131901508 0.37143057529685797
3020000000.0 0.04128783105275326 0.40070572283415723
3040000000.0 0.30279886144043505 0.23550889486836762
3060000000.0 0.23405451976490207 -0.2864981469952208
3080000000.0 -0.34164281297397614 -0.10789829009689106
3100000000.0 0.25236380151246024 0.2393957200780704
3120000000.0 0.32577219609989644 -0.10956310035418373
3140000000.0 -0.3414683665081922 0.037322494486993416
3160000000.0 0.3412773786047288 -0.029114183708722128
3180000000.0 -0.3351942902079071 -0.06966849745360564
3200000000.0 0.01782734393860005 0.34337514651188045
3220000000.0 0.30819469174586195 -0.1392406407081324
3240000000.0 0.09484426479552062 -0.32047660637091363
3260000000.0 -0.12985668907753461 -0.2998066818888385
3280000000.0 -0.3139431396714214 -0.026410830342874832
3300000000.0 -0.24089464720487316 0.17555595689578818
3320000000.0 -0.026573469260349793 0.2703393971819519
3340000000.0 -0.22648300013702022 0.1031165172028568
3360000000.0 -0.20847288015075713 0.07008372878803754
3380000000.0 -0.025665986853967978 -0.19096192698196082
3400000000.0 -0.11330567504461472 -0.12378806102617083
3420000000.0 -0.028528161981495926 -0.13768336056967773
3440000000.0 -0.03951355327450712 -0.11246178966334179
3460000000.0 0.09036780431568275 -0.021568584434249177
3480000000.0 -0.0602971144980763 0.04962236884853164
3500000000.0 -0.06483810279258016 0.03266126049101388
3520000000.0 0.018110049885986832 -0.06843919166306643
3540000000.0 0.004779591298508526 0.07858381508064462
3560000000.0 -0.057247041429636596 0.06359624249300022
3580000000.0 0.08968423919873658 0.032725956221363754
3600000000.0 0.053006326240979035 -0.08914236621128083
3620000000.0 0.0706907444258763 0.09743995036279965
3640000000.0 0.06374464175577761 -0.11815355622415175
3660000000.0 -0.12703872477314093 -0.07196561365012653
3680000000.0 0.06726604524419161 0.13368833523682644
3700000000.0 0.041388464405337236 0.13792745522183608
3720000000.0 0.12738281470823462 0.010232401444800792
3740000000.0 0.09993909255733002 -0.024282183133861174
3760000000.0 0.004477409454744149 -0.07962328745555941
3780000000.0 0.058131598774597566 -0.0033293834186908858
3800000000.0 -0.02497414461909103 -0.012407690314564982
3820000000.0 0.011090565778412581 -0.00122087985415805
3840000000.0 -0.04753212650043541 0.004686458597069476
3860000000.0 -0.03997088025067424 0.06759428556190994
3880000000.0 -0.0446825347214849 -0.09598119212084756
3900000000.0 0.11872983703942394 0.04304728436118415
3920000000.0 -0.09772612436984728 -0.10566214778282688
3940000000.0 -0.02881162876513463 0.15069895973771402
3960000000.0 -0.08722116969762689 -0.1306262543545923
3980000000.0 0.14213913001045891 -0.04188791962435936
4000000000.0 -0.12212349803026665 -0.03422229135327457
