!Created with skrf (http://scikit-rf.org).
# Hz S RI R 50.0 
!freq ReS11 ImS11
400000000.0 0.7603521880872324 0.42563549043936294
420000000.0 0.3058172182159245 0.7566717860291736
440000000.0 0.42477477678471376 0.6293432233328331
460000000.0 -0.6052479361370082 -0.32733786896222866
480000000.0 -0.1539731051616845 -0.600352290098136
500000000.0 0.6208695177181007 -0.20158379985211314
520000000.0 -0.428040536392172 0.512950938451788
540000000.0 0.6788505641998523 0.0425121843354164
560000000.0 -0.11739723461337478 0.662495082776669
580000000.0 -0.2678347412550663 0.44479243943430974
600000000.0 -0.2092647889522767 0.5532563457275542
620000000.0 -0.5188437065277485 -0.3280277871921446
640000000.0 -0.3685136751145158 -0.43097913060931803
660000000.0 0.21877413240870697 0.48252656299680774
680000000.0 0.22543264315436695 0.4410127243990105
700000000.0 0.43160327383521935 0.1127605712079632
720000000.0 -0.4272996326089354 0.24334126694932237
740000000.0 0.3279223362035982 0.338967199099016
760000000.0 0.02775891217290688 0.44925785021576276
780000000.0 -0.3853944458699034 0.19180028715540426
800000000.0 0.11597802429324108 -0.3758940473647687
820000000.0 0.03303140792833603 0.35114147861548245
840000000.0 0.17077417336104783 0.27766688398211475
860000000.0 0.22317671276405568 -0.19822727965474324
880000000.0 0.22221060110324348 0.1616457653301841
900000000.0 -0.06980012977627612 0.25756621522946893
920000000.0 0.24751360153706434 -0.07808501546713202
940000000.0 0.11677692772566793 0.18930086436594287
960000000.0 -0.09591246397627674 -0.15211863083605495
980000000.0 -0.0006561751654310823 -0.14649048545946627
1000000000.0 0.09643193628056453 -0.09128123083735264
1020000000.0 -0.05753917474304322 0.08014492168323248
1040000000.0 -0.05954499966569875 0.09137219470755202
1060000000.0 0.08177892257047097 0.12207254924494122
1080000000.0 0.16209813811706988 0.11100504220044319
1100000000.0 0.1573108437147513 0.18332428380701132
1120000000.0 0.26098079675471847 -0.09409214012685893
1140000000.0 -0.2997760791110552 -0.019024563163395125
1160000000.0 -0.31708814006184427 0.009362248900789318
1180000000.0 -0.32335298409838487 -0.09238890289368122
1200000000.0 -0.2727776798730636 -0.22239511153507288
1220000000.0 0.3545290118975022 0.028537625980680898
1240000000.0 0.26231103255370786 0.2690479196538547
1260000000.0 0.375265099769303 -0.11098738596691737
1280000000.0 -0.3223404079600911 -0.21160017697887787
1300000000.0 -0.15049515402448033 -0.3494767336293625
1320000000.0 -0.1334381223593003 -0.35688643460815167
1340000000.0 -0.36966966594249234 0.0049035147400809985
1360000000.0 0.22416518133698274 0.3197703263427595
1380000000.0 -0.1740654769694573 0.3630992013583499
1400000000.0 -0.013907255276036907 -0.3955869391037257
1420000000.0 0.13793983427281284 -0.3666942903152527
1440000000.0 -0.18157812535199705 -0.3525116187345157
1460000000.0 -0.3817868382998812 -0.10720667983713768
1480000000.0 -0.35103474420270614 -0.1799124153996394
1500000000.0 0.0894591811343721 0.38682534040989086
1520000000.0 -0.3807754368428863 -0.07981868588168733
1540000000.0 0.3316972262302583 -0.14407201398941646
1560000000.0 -0.2020834983397359 0.2563628160225022
1580000000.0 -0.12729465248317873 -0.26527073926447614
1600000000.0 0.03488679797087346 -0.25616892944819547
1620000000.0 0.16065612814144165 -0.1469043040199461
1640000000.0 -0.18429110523154468 0.01041164808055401
1660000000.0 -0.03895193055666718 0.15026187661916865
1680000000.0 0.08955910110332965 -0.07152182242418789
1700000000.0 -0.0649999381960754 -0.0790783276648911
1720000000.0 0.0775773347194042 -0.02662750955783075
1740000000.0 0.06231412826995203 0.04813166925906911
1760000000.0 -0.013096202073510546 -0.09008004421366592
1780000000.0 0.10109932553568121 -0.05837538925101615
1800000000.0 0.1401662147663751 -0.019356371652138226
1820000000.0 -0.16613138109606945 0.016162279467763017
1840000000.0 0.19509329319389607 -0.009611944978718711
1860000000.0 -0.21950411014119106 -0.03463799451944175
1880000000.0 -0.05717987682957887 0.2480215084479582
1900000000.0 -0.04706235721675791 0.26848119699868855
1920000000.0 0.2119325772989222 -0.20336681057028252
1940000000.0 -0.3028392749107046 -0.02072427106709028
1960000000.0 0.2893446315003236 -0.10465226362734766
1980000000.0 -0.30035985730724757 -0.08408504585175265
2000000000.0 0.08243170377814718 -0.310751806665372
2020000000.0 0.27856269437550196 -0.16328840532082836
2040000000.0 0.31914564300483295 0.041655590309868526
2060000000.0 0.28010359522607997 0.1511209235864049
2080000000.0 0.050660304636778855 0.31350796184450613
2100000000.0 0.1906114069536245 -0.2506685079384436
2120000000.0 0.21742557954025804 0.21492282805022697
2140000000.0 0.004347548014566071 -0.29938061273015254
2160000000.0 -0.2954187432326367 0.011465806724559886
2180000000.0 -0.11597240450752638 0.26273030882742626
2200000000.0 -0.17441524988080404 0.22328344912743978
2220000000.0 -0.2109539032080008 0.18418272417334347
2240000000.0 -0.19706103598625468 -0.1902768793986765
2260000000.0 0.18856736111412564 -0.19409645209316745
2280000000.0 0.2541400809559727 -0.095660564419969
2300000000.0 0.25912941862688604 -0.008279563085932149
2320000000.0 -0.2520625397044802 -0.044645768535932724
2340000000.0 -0.08448341137903677 -0.24367920795174788
2360000000.0 0.1892297146252985 -0.17287769746529708
2380000000.0 0.09907462943460864 0.24128690404693362
2400000000.0 0.18047162357232047 0.21642822576963858
2420000000.0 0.15269236026666994 -0.25592023203008496
2440000000.0 -0.2962669382076205 0.11165502471751503
2460000000.0 0.28870868209531353 0.17935398611127437
2480000000.0 0.20630293047015502 -0.3095918109545847
2500000000.0 -0.009224093498543312 0.4056785563323827
2520000000.0 -0.3387499453924175 -0.2862349750674453
2540000000.0 0.4721160952285113 -0.06556422232288223
2560000000.0 -0.3249655851442792 0.3928322370851848
2580000000.0 0.18100366137634744 -0.5083871958100964
2600000000.0 0.021711418748447543 0.5658758773791892
2620000000.0 -0.16433973430665336 -0.5667937322912114
2640000000.0 0.28362265204108433 0.5377352066818398
2660000000.0 -0.5826408021698759 -0.2244545528404465
2680000000.0 0.4046316888668147 -0.4882628809504807
2700000000.0 0.5781925511654362 0.28224146753262314
2720000000.0 0.2607461147837943 0.5923791751836168
2740000000.0 0.15561691912263945 0.6293788851435927
2760000000.0 0.05251024480847187 0.6445944031453541
2780000000.0 -0.5775882695552447 -0.2730508065489528
2800000000.0 -0.3735985952916521 -0.5055347487940075
2820000000.0 0.15881207730512475 -0.59525795135085
2840000000.0 0.4366549128477386 0.4134414468898515
2860000000.0 -0.4665393864609196 -0.3561352430099567
2880000000.0 0.25161288038254465 0.511394709695368
2900000000.0 0.4068586399364676 -0.368433191252106
2920000000.0 0.011068139556844122 -0.5285044920086432
2940000000.0 -0.3408313121773283 -0.370868872342218
2960000000.0 -0.2487753729422846 -0.41108120889681593
2980000000.0 -0.2860216929295541 -0.3585988446702086
3000000000.0 -0.3386409984236496 -0.2780284988271841
3020000000.0 -0.42023559466418164 0.027319981346756624
3040000000.0 0.04561072940453565 0.3978798416742644
3060000000.0 0.37988117857812254 -0.022490015566318335
3080000000.0 -0.33597639996559664 -0.14512868595147962
3100000000.0 0.254450081642402 0.2411623711049842
3120000000.0 0.32566547634444065 -0.11375028988268562
3140000000.0 -0.2108680156250693 0.26705955096849215
3160000000.0 0.12738104402033718 -0.311820263738982
3180000000.0 0.0068155748030159285 0.3344544186742228
3200000000.0 0.3111197058088024 -0.10658861270649632
3220000000.0 -0.19344307809152353 -0.26001509801064815
3240000000.0 -0.3154829141208204 0.014867979767832194
3260000000.0 -0.29314095021392245 0.08561862457534634
3280000000.0 -0.29242188453339635 0.0346408583304252
3300000000.0 -0.2787738726423891 0.00722611442616542
3320000000.0 -0.1849314177922802 -0.1738542044733674
3340000000.0 0.2267387186492775 0.03679997097153674
3360000000.0 -0.16643430645092766 0.12400143103320256
3380000000.0 0.13130279072406226 -0.1373781875822991
3400000000.0 0.11635856300947442 0.12041474908953356
3420000000.0 0.027095242645990662 0.14065592486928422
3440000000.0 -0.10389515009479175 0.07164854563329429
3460000000.0 -0.10158687673475714 0.0312749148877857
3480000000.0 0.07370984951369731 0.04775132700889829
3500000000.0 -0.06511143035909832 0.04581232314725453
3520000000.0 0.05429221802484798 -0.05369394238788053
3540000000.0 0.06349591643604853 -0.04410470018946387
3560000000.0 0.04501957989154354 -0.07409531677343112
3580000000.0 -0.03433340394391474 0.08585189379159532
3600000000.0 -0.05662046242780149 0.07989261941936132
3620000000.0 -0.020508096102219917 -0.1093926747622791
3640000000.0 0.12477139762798714 -0.009105330577375921
3660000000.0 -0.04072943559550775 0.1305719975761208
3680000000.0 0.03944357979284211 0.1361746509665026
3700000000.0 -0.11953619922103437 -0.05914759205769816
3720000000.0 0.100310056963419 0.06500246201367453
3740000000.0 0.016683196914978392 -0.09987355943262848
3760000000.0 0.04187552985655128 -0.07346694064942326
3780000000.0 -0.05381804647784019 -0.0328547420395148
3800000000.0 0.00396659223254806 0.03355246860313605
3820000000.0 0.0016009882403483192 0.0017117023239056643
3840000000.0 -0.036233129657512596 -0.002729113364698013
3860000000.0 -0.007647834623034345 -0.06625142089287105
3880000000.0 0.08774546320353253 -0.029541781319733642
3900000000.0 -0.06268862434378634 -0.09365107570877372
3920000000.0 -0.12616759563184352 -0.023459135057362093
3940000000.0 -0.10482886417691673 0.08564116935165965
3960000000.0 -0.13125090486781377 0.04482963825811577
3980000000.0 0.13431678986605758 0.0012197974310760168
4000000000.0 0.054230092471061725 -0.09780693694703017
