!Created with skrf (http://scikit-rf.org).
# Hz S RI R 50.0 
!freq ReS11 ImS11
400000000.0 0.7644990409199081 0.4133993402394702
420000000.0 0.5778047812334541 0.5807011105817177
440000000.0 0.3383923703251417 0.6842392555148715
460000000.0 -0.676508631800358 -0.13236229916631942
480000000.0 -0.5452747693338423 0.3321636143220967
500000000.0 -0.4416994300530525 -0.46902453096739155
520000000.0 -0.36842563895033925 0.5358664689299484
540000000.0 0.6585005135533646 -0.14443420533515586
560000000.0 0.15460334084984573 0.6398018089229979
580000000.0 0.04097002026805914 -0.5267400125276567
600000000.0 -0.44314866836913397 0.36781223294077947
620000000.0 0.3649131852017296 -0.5017789043662637
640000000.0 -0.5688218327915635 0.0736627828632174
660000000.0 0.3601467435080907 0.37517920227455487
680000000.0 -0.4693213853474867 0.05878165886954207
700000000.0 0.21976085388412048 0.41556214433903077
720000000.0 0.0831509902982779 0.4773677408059996
740000000.0 0.3477488507016757 0.3249449427986933
760000000.0 -0.038355857652157675 0.4436225952852291
780000000.0 -0.4237168282326728 -0.0804902768779683
800000000.0 -0.3302613575808101 -0.22575119551325099
820000000.0 0.35374186005264485 0.022479585139896056
840000000.0 -0.11780063696752795 0.2980284265021499
860000000.0 0.2431357474300276 -0.17930487832505998
880000000.0 0.09312070836299881 0.2585583686662044
900000000.0 -0.031900634218970714 0.27795134940534566
920000000.0 -0.24354427316279748 0.06924829152804161
940000000.0 0.20783513750796975 0.050305510228780805
960000000.0 -0.18295203532559354 -0.03263863275330903
980000000.0 0.11495464012109483 -0.07421205492531935
1000000000.0 0.1270364985181681 -0.007526915063338767
1020000000.0 0.09984848264990129 0.016156894266706436
1040000000.0 0.11097930299251103 -0.020207363683804266
1060000000.0 -0.056148171886442715 -0.1407608402810581
1080000000.0 -0.03442058921396541 -0.18591872686494884
1100000000.0 0.22388688656806954 0.063811714650232
1120000000.0 0.20662329576000157 -0.18006184562024777
1140000000.0 -0.06611980843965473 0.2855292462821959
1160000000.0 -0.29636974612394285 -0.09448872164035177
1180000000.0 -0.2938063983475657 -0.17111250497696073
1200000000.0 -0.13378694442240846 -0.327333380217796
1220000000.0 0.34335577808458745 -0.11181015793516895
1240000000.0 -0.0657587470227123 0.3702426111288942
1260000000.0 0.2812975294718315 -0.27913660424529885
1280000000.0 -0.3813009744653721 -0.04560853583311607
1300000000.0 -0.0281033242785406 -0.3785460165536609
1320000000.0 -0.15764499005227034 -0.3425866267719342
1340000000.0 -0.36690880493795064 -0.027446984494765066
1360000000.0 0.20262866050428147 0.33173962764459114
1380000000.0 0.15509250264597227 0.3654025177263052
1400000000.0 0.08132963575401657 -0.389205955649847
1420000000.0 -0.3451467364455379 -0.1876862219301671
1440000000.0 -0.3169160870605067 -0.23137347168165492
1460000000.0 -0.3967183950972684 -0.016441870242815335
1480000000.0 -0.3762459238583442 0.12950346160959392
1500000000.0 0.16018116308432828 0.36039222116634834
1520000000.0 -0.3298630043110703 -0.20852066063815533
1540000000.0 0.35386957049354895 -0.06459538185451327
1560000000.0 -0.3304964560871288 -0.025505822074615322
1580000000.0 -0.15462501494256917 -0.25564302174308284
1600000000.0 0.055838247773154756 -0.25073533880906035
1620000000.0 0.21388196778031926 -0.04019282911335752
1640000000.0 -0.15169530542386825 0.10384869132677285
1660000000.0 -0.0019423944825309345 0.15415961215188012
1680000000.0 0.08181424380003383 -0.08100088434359612
1700000000.0 -0.00586180233814106 0.10535806453312392
1720000000.0 0.04773442133254611 0.05666066819368534
1740000000.0 0.04904931514886452 0.0572940434259182
1760000000.0 0.00764513855689368 0.08321952625528761
1780000000.0 0.10060665399020301 0.052874943729299816
1800000000.0 0.11527427889449801 0.07933241216567745
1820000000.0 -0.16260917345049875 -0.04425739403933188
1840000000.0 0.18978546840644722 -0.05879956791732453
1860000000.0 -0.18575775405607206 0.13032438974024976
1880000000.0 0.1712567090961298 0.19134713079800977
1900000000.0 0.23588801735502435 0.14080913904399314
1920000000.0 0.20813883586110185 -0.2086833522279269
1940000000.0 -0.29670837453806953 -0.06945199775254375
1960000000.0 0.31034982650285975 -0.026982176843482558
1980000000.0 -0.31205375014498765 0.0317659481789785
2000000000.0 0.0979181847350927 -0.3043389743786737
2020000000.0 0.31937523109019716 -0.00551871064651548
2040000000.0 0.2741811351803176 0.1641397589656106
2060000000.0 0.30367366316816374 0.08713641880084148
2080000000.0 0.17224211883793458 0.2656221364515499
2100000000.0 -0.12755931647877297 -0.2861299152544293
2120000000.0 0.30233578367669117 -0.041404676221553284
2140000000.0 -0.2585695003633172 -0.1468122236484262
2160000000.0 -0.25341209497330547 0.15085073039736338
2180000000.0 0.1886025340489214 0.21883914441202804
2200000000.0 -0.03615509235655657 0.2815208874643144
2220000000.0 -0.18174282338344444 0.21668690305116461
2240000000.0 -0.23206587717689364 -0.15074265731941555
2260000000.0 0.18823594319505296 -0.1958139412836194
2280000000.0 0.25023453995076544 0.10675125189942726
2300000000.0 0.2291680185302106 0.12686286407039557
2320000000.0 -0.25151341924609316 -0.03294876981707792
2340000000.0 -0.0441100127375118 -0.24977283549579388
2360000000.0 0.24184554898856042 -0.07646928443342692
2380000000.0 0.12558605516668703 0.22332479662330865
2400000000.0 0.1797627652666146 0.21013263597020385
2420000000.0 -0.03910232961740997 -0.2905763290640078
2440000000.0 -0.17014229544000756 0.2598250739398712
2460000000.0 0.3353754592318107 0.039875439681805916
2480000000.0 0.020617807704982546 -0.3721496831941249
2500000000.0 0.2543173619818252 0.3152662725248025
2520000000.0 -0.4239017393088135 -0.13747575922765506
2540000000.0 0.4362080065790328 -0.2005696480927475
2560000000.0 -0.23585661530682045 0.4557056941831555
2580000000.0 0.0037137699339574266 -0.5416048132647252
2600000000.0 -0.03585633248388151 0.5643935340072024
2620000000.0 -0.01585267978764617 -0.5880304710905586
2640000000.0 0.21514053447007883 0.5655194479795498
2660000000.0 -0.5581603342601921 -0.270437577042004
2680000000.0 0.4232214397467764 -0.4672109826536512
2700000000.0 0.6091777140299552 0.19153554708614193
2720000000.0 0.4188862305035724 0.48883401794373804
2740000000.0 0.31730413754292447 0.5618296538845184
2760000000.0 0.27794603021706876 0.5818389158694656
2780000000.0 -0.6358978432231959 0.05721223531838707
2800000000.0 -0.5236767406630434 -0.3490753608292586
2820000000.0 0.009306403435208171 -0.6175877186454676
2840000000.0 0.5054083315874379 0.33007041865191183
2860000000.0 -0.5162630453030504 -0.28162202139289366
2880000000.0 0.20809370437083988 0.5317836873074218
2900000000.0 0.4289645132115107 -0.3461628791770122
2920000000.0 -0.019257508209860476 -0.5285699494895753
2940000000.0 -0.4207852695305599 -0.2718650758737265
2960000000.0 -0.31212167717306183 -0.35696428259981355
2980000000.0 -0.28301614070259046 -0.35438885391475755
3000000000.0 -0.3144426146354016 -0.2958183811500717
3020000000.0 -0.39337725927762174 0.129162243449216
3040000000.0 0.04758402884413348 0.39282800129728246
3060000000.0 0.3317557704479567 -0.17933003195396344
3080000000.0 -0.3563572448697708 0.07547107875984121
3100000000.0 0.3473278177321579 0.04887197390195322
3120000000.0 0.1893449279275834 -0.29113609572838245
3140000000.0 0.013391119177692649 0.3421856603323937
3160000000.0 -0.090775691813703 -0.32925593779732076
3180000000.0 -0.025122656773928675 0.33667247852248966
3200000000.0 0.320792526886579 -0.08304185196456797
3220000000.0 -0.014719666692147393 -0.32766336790708356
3240000000.0 -0.24825701976662054 -0.2035319416975201
3260000000.0 -0.2986170554083292 0.06416037183288154
3280000000.0 -0.29221732399264994 -0.01275222246241081
3300000000.0 -0.27261214412832435 0.02687533737338711
3320000000.0 -0.10116564956177548 -0.22651441521675872
3340000000.0 0.2135922481257489 -0.07511444866349867
3360000000.0 -0.18513396165641258 0.07934670564803187
3380000000.0 0.09218632720416402 -0.16015697389515587
3400000000.0 0.08114645475353775 -0.13983045735196664
3420000000.0 0.13849587513810674 0.0366926056696823
3440000000.0 0.10977672115768296 0.05901898365394887
3460000000.0 0.09483105346155603 -0.04265206765330082
3480000000.0 0.04409680084005978 0.07774172071354148
3500000000.0 -0.07623680763516938 0.03386435200603141
3520000000.0 -0.05136809460100656 -0.06303432456530128
3540000000.0 0.06584500136255464 0.04973574807349714
3560000000.0 0.030517087741643325 0.08380065695046869
3580000000.0 0.02306754648577063 -0.09231125603510013
3600000000.0 -0.07557926072676253 -0.06618817449697646
3620000000.0 0.10866973769713817 0.01943878895794743
3640000000.0 -0.004235427022000606 0.12168483910107047
3660000000.0 -0.04282575707857629 0.12675924410204084
3680000000.0 0.0846781699191174 0.10986449874901646
3700000000.0 -0.061336715544627565 0.11500576665287177
3720000000.0 -0.10164779481434666 -0.05272887875714491
3740000000.0 -0.053228880751996534 0.0783460676148873
3760000000.0 -0.04808095383619303 0.06610591184217127
3780000000.0 -0.052772031621727694 -0.037154268448553386
3800000000.0 -0.017281983340762804 -0.029042906163453782
3820000000.0 -0.0005712799094271142 0.0016785234619687006
3840000000.0 -0.018728904577503497 -0.029826151402512116
3860000000.0 -0.06128689534597237 -0.01781997417629398
3880000000.0 -0.02044189356180401 -0.08393697045820406
3900000000.0 -0.0028084568759005374 0.10607179082430444
3920000000.0 0.07197549974952978 0.09739172000851293
3940000000.0 0.1241946324114116 0.04522532914402738
3960000000.0 0.12699718233106855 0.049913801039760904
3980000000.0 -0.1269948673538051 -0.03877399504121318
4000000000.0 -0.07763493559128384 0.0812985977637668
