!Created with skrf (http://scikit-rf.org).
# Hz S RI R 50.0 
!freq ReS11 ImS11
400000000.0 0.7920283709788081 0.36237117824308257
420000000.0 0.263619901231776 0.7733177530589931
440000000.0 0.40011031306270756 0.6475398426612008
460000000.0 -0.6267611450320126 -0.28005055107954446
480000000.0 -0.05488654085188711 -0.618448967674777
500000000.0 0.6369538256399844 -0.1264748183126361
520000000.0 -0.211885024575179 0.6331889798431866
540000000.0 0.6612003740574872 -0.14518117249515872
560000000.0 -0.3010898244354654 0.6015434191539587
580000000.0 -0.16906256331494446 0.4951184591562269
600000000.0 0.04598808966020005 0.5885257990552649
620000000.0 -0.45290247282769847 -0.4046892618955029
640000000.0 -0.1419615718467339 -0.5456695345617072
660000000.0 -0.049658280368766385 0.529656761407852
680000000.0 0.25618284379503103 0.4227266489267972
700000000.0 0.4332216620399728 -0.12859295355817463
720000000.0 -0.21433609968271072 0.4342350935853696
740000000.0 0.40707713248071437 0.23521950296504548
760000000.0 -0.19761852093362473 0.4021424022481275
780000000.0 -0.4163121350670113 0.11976107820736646
800000000.0 0.0002717571017535403 -0.39967211661176655
820000000.0 0.350883932280414 -0.0028542617618513796
840000000.0 0.05312599206079382 0.3191302805704152
860000000.0 0.08583963834590666 -0.28347785454690955
880000000.0 0.012655677753036335 0.2721127141539465
900000000.0 -0.022959254906836445 0.2701292872111782
920000000.0 0.23078341905190336 0.10345650591095591
940000000.0 -0.13164029292021562 0.18402839409194965
960000000.0 -0.18393606921325623 0.029366789454527094
980000000.0 0.14177420923493222 -0.015220637245526768
1000000000.0 0.0175984860595749 -0.11938899215555901
1020000000.0 -0.03269540497887262 -0.09013096311791426
1040000000.0 0.10295648547380076 -0.060524525095962387
1060000000.0 -0.08536797575448778 -0.12491383810731782
1080000000.0 0.14044728452790478 -0.1284883711327361
1100000000.0 0.06117560458602688 0.22781869375808164
1120000000.0 0.2306335631543803 0.1513983329558531
1140000000.0 -0.2966922610275547 0.061495062328246655
1160000000.0 -0.25253826888711267 0.19480829550375522
1180000000.0 -0.3273508815630206 0.0716343757723057
1200000000.0 -0.1742459808127656 -0.3055543621882806
1220000000.0 0.35188750082857584 -0.06696443918574907
1240000000.0 0.139111675464668 0.3515777660010195
1260000000.0 0.2978171378917704 -0.2568832914777177
1280000000.0 -0.3716609283092359 -0.09076568449673723
1300000000.0 0.18774085757790032 -0.32746265250738155
1320000000.0 -0.01857962103278651 -0.3835708410622269
1340000000.0 -0.3215464078964034 0.1823634233889072
1360000000.0 0.2518115978653827 0.2938088608952517
1380000000.0 -0.10795732532760535 0.3836681054319893
1400000000.0 0.04299787507053724 -0.3944990377693384
1420000000.0 -0.1759118253665021 -0.3523481361546982
1440000000.0 -0.3024198055951998 -0.24839775090920777
1460000000.0 -0.37328063223207014 -0.131494024537686
1480000000.0 -0.3424244091972853 -0.20818673285900843
1500000000.0 0.2796440288516273 0.2852383638555646
1520000000.0 -0.3790085727550494 0.07125633805487092
1540000000.0 0.3482057771066706 0.09308328335187907
1560000000.0 -0.24123464077504464 0.2250366999836199
1580000000.0 -0.21930114623122896 -0.19540605839516012
1600000000.0 0.03801218595006736 -0.2546764272159952
1620000000.0 0.1569648522500385 -0.14776951848985678
1640000000.0 -0.1589373883610812 0.0920454474212665
1660000000.0 -0.1470516110652055 0.04701337963288434
1680000000.0 0.08255067193605495 -0.0765062215989725
1700000000.0 -0.10088286462232186 -0.012729785131655015
1720000000.0 -0.029319025066090014 -0.0720860206384377
1740000000.0 0.07361922503937597 0.027441875934846562
1760000000.0 -0.07139875478943007 -0.05308338900966518
1780000000.0 0.05909335764801429 -0.1012801441329869
1800000000.0 0.018164692872110214 -0.1372679165981027
1820000000.0 -0.16149197270672033 0.04843818517331271
1840000000.0 0.13673264080416275 -0.13877870085205077
1860000000.0 -0.2203155379104674 0.031057118728129923
1880000000.0 0.0027805975844269284 0.25634452175464756
1900000000.0 0.07315851780016251 0.26423939425172965
1920000000.0 0.1510223204639936 -0.25234832886126746
1940000000.0 -0.30226964406933543 -0.04176533821798703
1960000000.0 0.30884355204288616 0.01250865684897304
1980000000.0 -0.30318949994729194 -0.08544472114350116
2000000000.0 0.0862162736879369 -0.3081242145966769
2020000000.0 0.3195249357796594 -0.023646899536677517
2040000000.0 0.316888538112136 0.048447932085387016
2060000000.0 0.3022480166805081 0.09851193265609615
2080000000.0 0.15868519020502397 0.2713576498944208
2100000000.0 0.05928384605813179 -0.3062772145323087
2120000000.0 0.2863490147133778 0.10689811701058259
2140000000.0 -0.09862807307239603 -0.28383022787445744
2160000000.0 -0.15859264327786693 0.25006732354648703
2180000000.0 -0.04509878576437581 0.284774312020821
2200000000.0 -0.08970023273456254 0.271119716708569
2220000000.0 -0.15406203309656763 0.23748862437292775
2240000000.0 -0.25205200616451634 -0.11465672732273079
2260000000.0 0.23087766619250513 -0.14039590743960859
2280000000.0 0.27034322539839406 0.038275647304405414
2300000000.0 0.22839420260861562 0.12579545237992146
2320000000.0 -0.22838491477924575 -0.11189074163719052
2340000000.0 0.029063884159466955 -0.25346185591230563
2360000000.0 0.2273573984087107 -0.11472407323912075
2380000000.0 0.11848625871885941 0.2294000475062278
2400000000.0 0.14989841879263208 0.23425072049755497
2420000000.0 0.08961283388867128 -0.2816503008688524
2440000000.0 -0.14755799602693415 0.27736324547553004
2460000000.0 0.33825502607877467 -0.002681947675088306
2480000000.0 0.002381085715950127 -0.3712745484918303
2500000000.0 0.22820577105492462 0.33647168472197136
2520000000.0 -0.4132392396707504 -0.16538240967669177
2540000000.0 0.42932869786063665 -0.21369889416299126
2560000000.0 -0.3492887615600176 0.3729244827600057
2580000000.0 0.19647056102945457 -0.5047113215072964
2600000000.0 -0.05582851552086992 0.5644154049104572
2620000000.0 -0.0554102387595388 -0.5858054152175624
2640000000.0 0.21039270464395146 0.5678932392251718
2660000000.0 -0.5630971389380391 -0.26355562740650157
2680000000.0 0.4416234948658 -0.45132571343276895
2700000000.0 0.6316625142420154 0.10131382002249535
2720000000.0 0.45179690935214106 0.4599377633533998
2740000000.0 0.28266237740927114 0.5812279452718628
2760000000.0 0.18194256547930612 0.6197485900950144
2780000000.0 -0.6321358434072736 -0.09783498812017082
2800000000.0 -0.5089907119364064 -0.37160860603895324
2820000000.0 0.100281697582321 -0.6096014984178938
2840000000.0 0.4699365318406255 0.37826294241887265
2860000000.0 -0.49673075473016925 -0.31479525005584214
2880000000.0 0.20019382494731305 0.5331090061847449
2900000000.0 0.46925672705696486 -0.282960928716582
2920000000.0 0.07557946235465174 -0.5210218418805812
2940000000.0 -0.3104219519650819 -0.3959987464128849
2960000000.0 -0.2861270606007676 -0.38165567904413567
2980000000.0 -0.32988774662233294 -0.3151166198833945
3000000000.0 -0.3323788687846456 -0.28256722288357544
3020000000.0 -0.3898379827879619 0.15401193383173628
3040000000.0 0.12117261008458621 0.3806192649635713
3060000000.0 0.3143099311880069 -0.21242836784957791
3080000000.0 -0.36541427782689406 -0.00840258529017135
3100000000.0 0.33473988276528 0.10436985855884487
3120000000.0 0.23653368922396048 -0.25247428111134074
3140000000.0 -0.10948558045864826 0.3223709622102705
3160000000.0 0.06999359107127509 -0.33179806588272476
3180000000.0 -0.024257524949254403 0.3347608512503019
3200000000.0 0.30395648785540125 -0.12996195598157295
3220000000.0 -0.18206416271797038 -0.26776572835211354
3240000000.0 -0.2742924666837451 -0.15612163726106434
3260000000.0 -0.3048749665502189 0.012361217872550463
3280000000.0 -0.2929044954291314 0.007435391948869836
3300000000.0 -0.2688231539952426 -0.05903988567535123
3320000000.0 -0.16251288081507226 -0.19226220471774352
3340000000.0 0.22884407715911614 -0.002031139313710846
3360000000.0 -0.1605604028591066 0.12698056343638844
3380000000.0 0.09301784376912614 -0.16193044180568414
3400000000.0 0.16157766575703084 0.03710737468256198
3420000000.0 0.14093524013826916 0.017662185423384782
3440000000.0 0.005776924980894542 0.12589711635792528
3460000000.0 0.06658334733000394 0.08407335894795542
3480000000.0 0.006650986501965213 -0.08897934224290005
3500000000.0 -0.06246316841035724 0.051262419276911914
3520000000.0 0.006535145681978451 -0.07996244579558967
3540000000.0 0.0711816659173439 -0.03681857258361941
3560000000.0 0.08779904481801117 -0.0001268062265269842
3580000000.0 -0.06883171670547127 -0.06203752528016578
3600000000.0 -0.08438674019985881 -0.05174173224326233
3620000000.0 0.1046305818253481 -0.03692591577606428
3640000000.0 0.06461165727619361 0.1042466313840418
3660000000.0 -0.07710890890938621 0.10863541124722306
3680000000.0 -0.01653635889188755 0.13700126138780186
3700000000.0 -0.126824307900232 -0.03368121782953804
3720000000.0 0.08000244936995106 -0.08475383375677983
3740000000.0 -0.09762020522499118 -0.00692251730209781
3760000000.0 -0.0791368175423478 -0.0242177054454533
3780000000.0 0.052690436670382014 0.03692529432517222
3800000000.0 -0.02551093223290856 0.02444319574529526
3820000000.0 0.003200396858535853 0.0010463278492681373
3840000000.0 0.029596410991496732 0.017958332023597326
3860000000.0 -0.013825492284096554 -0.06123091955742077
3880000000.0 0.013879718964418556 -0.08716656909204372
3900000000.0 -0.09700451238371353 -0.05091101965009798
3920000000.0 -0.08112491439265791 0.09401022863872395
3940000000.0 0.028967100789295045 0.1314103897775963
3960000000.0 0.07013191011783594 0.1191128388532136
3980000000.0 -0.017488217944071148 -0.1328448923784013
4000000000.0 -0.09531744227747065 -0.06121375719225251
