!Created with skrf (http://scikit-rf.org).
# Hz S RI R 50.0 
!freq ReS11 ImS11
400000000.0 0.842952111046149 -0.24542831936052192
420000000.0 0.7432090539523655 -0.37181841282205
440000000.0 0.49562297874948646 -0.5905298440620522
460000000.0 0.21319347588327606 0.664674994351847
480000000.0 0.3774233207305593 -0.45907992041315765
500000000.0 0.6168884961945674 0.11419829144753513
520000000.0 0.4338401115200986 -0.4615056658121368
540000000.0 0.45258587295665964 -0.40601114158012536
560000000.0 0.46990895562271373 0.4093856561772832
580000000.0 0.4709140831760982 0.23660393850102032
600000000.0 0.14795968204779866 0.5784902369476671
620000000.0 -0.1622574532995039 -0.5785782041655463
640000000.0 -0.4829549986483016 -0.2866196171032993
660000000.0 -0.07457463036290746 0.5090512168344751
680000000.0 0.4538535657512725 -0.1660454510012672
700000000.0 0.34341400001290384 0.36057672373149213
720000000.0 0.49962198369755895 -0.026391919863306947
740000000.0 0.4358132253882001 0.19360697811277097
760000000.0 0.04572965798770266 0.4523550408155808
780000000.0 -0.35358875717570026 -0.26900728560285814
800000000.0 0.22628001671918982 -0.3331667056760681
820000000.0 0.2223814626644902 0.29549002628089527
840000000.0 -0.16206985834454896 0.29099949190514957
860000000.0 0.2919990611639858 -0.09825531810821567
880000000.0 0.24027090792209999 0.1491968704774573
900000000.0 0.2714868674462639 0.020289056719104352
920000000.0 0.07433331169310756 -0.24293196531928885
940000000.0 0.20486315129232127 -0.08473969282402931
960000000.0 0.1604322371973363 0.05178594088463193
980000000.0 0.09962627263321115 0.09785083306662731
1000000000.0 0.12157170044847347 -0.04775518721838128
1020000000.0 0.08231288582391029 0.08122846706581986
1040000000.0 0.07040073651068664 0.10912836764516332
1060000000.0 -0.1482878665927453 -0.034816106204191115
1080000000.0 -0.14736319715201193 0.13144880633317896
1100000000.0 0.11015646538962022 -0.22159678791789222
1120000000.0 -0.10422925748746235 -0.2660834284747558
1140000000.0 0.03880228292947485 0.3085782777400522
1160000000.0 0.3118842208008664 0.09727401714925349
1180000000.0 -0.03855962154158209 0.33649626349013506
1200000000.0 -0.3526122566492632 0.029674468466872925
1220000000.0 0.2876907995618326 -0.23053229707323114
1240000000.0 0.37296400490550546 -0.06140681339954579
1260000000.0 0.07271195702130744 -0.3898893484357643
1280000000.0 -0.21980324881677885 0.30944421094811353
1300000000.0 0.0972837986061363 -0.3517067592513083
1320000000.0 0.2773879896793277 -0.2509571178761741
1340000000.0 -0.3621458830104654 0.06758393268797673
1360000000.0 0.07860433256480204 0.3781684017556946
1380000000.0 0.0807640735899195 0.38471496395686655
1400000000.0 0.022169507509858896 -0.3825817774468192
1420000000.0 0.3411018608131929 -0.1743552605812632
1440000000.0 -0.03565276972985842 -0.38606865924729367
1460000000.0 -0.30711051989696847 -0.23448905048666466
1480000000.0 -0.1308145451711793 -0.3713054905656013
1500000000.0 -0.35811323509395254 0.15859681039510184
1520000000.0 0.11135204265840414 -0.36868202840665054
1540000000.0 0.06385950051246593 0.3557587201650301
1560000000.0 -0.2656865528208736 -0.1942101179601525
1580000000.0 0.2653219837769148 0.12685522095122292
1600000000.0 0.2273969607089346 -0.13037148457169706
1620000000.0 0.011443390932233906 0.212324962325547
1640000000.0 0.043155470860931966 0.1831910392484317
1660000000.0 0.0972256308573831 -0.12827558853329815
1680000000.0 -0.09954779399111285 -0.06722215000119697
1700000000.0 0.03766544983781255 0.11203367077154604
1720000000.0 0.047059377863475964 -0.08022256397532682
1740000000.0 -0.033625981215234024 -0.07598499399372093
1760000000.0 -0.04816384874820758 0.07738173926109061
1780000000.0 -0.08843062165820734 0.06256052101672058
1800000000.0 0.030670126696795016 0.1257743756911698
1820000000.0 0.15120049954183087 0.0541036839384022
1840000000.0 0.035342222345715865 -0.18813900626862418
1860000000.0 -0.006475910703797348 0.2186109791553426
1880000000.0 0.20416036023414333 0.14671448276509771
1900000000.0 0.27356130295798453 0.010140906802764395
1920000000.0 -0.053192598050257944 -0.28700838812805607
1940000000.0 -0.3038813176868362 0.028069994175310795
1960000000.0 0.22820896355758857 -0.20905715626027804
1980000000.0 -0.2959047032496211 0.10018928497853395
2000000000.0 0.13582083158996966 -0.28941835549555817
2020000000.0 0.29635558006143986 -0.13023077639680045
2040000000.0 0.32400181993901017 -0.015120768887919647
2060000000.0 0.23154138275252584 0.22281495611487667
2080000000.0 0.08070567505118285 0.3164191784316302
2100000000.0 -0.013157668363647996 -0.32249939601955047
2120000000.0 0.22686552659834322 0.22461557923713354
2140000000.0 -0.25005470234728644 -0.19935695266795042
2160000000.0 0.11940478083062668 0.2945763661586716
2180000000.0 0.2380063259840229 -0.1970354231236416
2200000000.0 0.21269624258946587 -0.2167005304272977
2220000000.0 0.11163026706656588 -0.27485103491251034
2240000000.0 0.2835205853924904 -0.05839522875699204
2260000000.0 -0.04452925501961301 0.2718365208322595
2280000000.0 -0.12426607246780107 0.239468030081947
2300000000.0 -0.06099486018436437 -0.24096844097954276
2320000000.0 -0.1484105165373385 0.19224605812885387
2340000000.0 0.08992169534305808 -0.22838243801336383
2360000000.0 0.1519378826136865 0.19219985560470362
2380000000.0 -0.14156005747222866 -0.21267599816837476
2400000000.0 -0.2818387710081406 0.002526183117695294
2420000000.0 0.26883623560817405 0.13990666770939372
2440000000.0 -0.15136673494184646 -0.29010657679008933
2460000000.0 0.15038596570244972 0.32371093467208634
2480000000.0 0.21511098425920272 -0.3271838561274919
2500000000.0 0.16000054554949902 0.3950427901042142
2520000000.0 -0.4591218363315463 0.06297812429184611
2540000000.0 0.21790327942166346 -0.4441494074536219
2560000000.0 0.07170772513342787 0.5191998675017173
2580000000.0 -0.20743075114366955 -0.5120957939377224
2600000000.0 0.279297918384675 0.5036551732687196
2620000000.0 -0.33520264843468955 -0.49202551732766087
2640000000.0 0.4818687763455869 0.3758020846384779
2660000000.0 -0.6208390720545698 0.07627548216354485
2680000000.0 0.11403515559763701 -0.62345324590801
2700000000.0 0.6259266812033579 -0.14769900818849926
2720000000.0 0.6242966227544154 0.17309119493635397
2740000000.0 0.5205178920911604 0.3881479232993253
2760000000.0 0.48849737544774946 0.4269946962408405
2780000000.0 -0.5243008099401273 0.3743850381841618
2800000000.0 -0.6320210997416914 0.05746208300861477
2820000000.0 -0.36822140243440604 -0.5026242742812075
2840000000.0 0.577342525514321 -0.19355826123954364
2860000000.0 -0.4237912027880359 0.4158952266459113
2880000000.0 0.5465886050801159 -0.17424734912668163
2900000000.0 -0.25202830506462576 -0.4907259872846933
2920000000.0 -0.5231766206301675 0.07377020169102136
2940000000.0 -0.294578018477846 0.40282371284927954
2960000000.0 -0.34357174413758135 0.32637144765882936
2980000000.0 -0.30429006930729907 0.32835876242494577
3000000000.0 -0.1967565577519257 0.37877605828995214
3020000000.0 0.07081363891477496 0.3979472741616668
3040000000.0 0.24243722025269723 0.29835933423003896
3060000000.0 0.30252235771120195 -0.21377371177026094
3080000000.0 -0.35143036725216525 -0.07254446151345947
3100000000.0 0.2378250685799897 0.253717540550432
3120000000.0 0.3054944583040792 -0.159051258065596
3140000000.0 -0.3418539690219256 0.021504651854748702
3160000000.0 0.3419177961759397 0.017043016315757744
3180000000.0 -0.34413169502778285 -0.005257305499869376
3200000000.0 0.061542315543914684 0.33631151995053793
3220000000.0 0.2967912098639175 -0.16314420474612462
3240000000.0 0.1373792530843878 -0.3037695226789916
3260000000.0 -0.2053103368252133 -0.25421815974948575
3280000000.0 -0.3070332989879973 -0.07012660834781276
3300000000.0 -0.2128245788653191 0.20976932792471537
3320000000.0 -0.05126746054051149 0.2660613981308083
3340000000.0 -0.2185727027832364 0.11512461152243024
3360000000.0 -0.21451070571801245 0.052798537892188475
3380000000.0 -0.11005234785045866 -0.15815567757078788
3400000000.0 -0.0616231955813203 -0.15555196192858384
3420000000.0 -0.029962269249327888 -0.13829501538473551
3440000000.0 -0.012049109436652355 -0.11756807149256256
3460000000.0 0.0706279372190669 -0.061859557402061435
3480000000.0 -0.0645052810280807 0.041676270817613194
3500000000.0 -0.07166200143947223 -0.011046531091593335
3520000000.0 -0.0665117938302219 -0.027788888004655454
3540000000.0 0.0414112885907986 0.06686227066747195
3560000000.0 -0.0036067985390258782 0.08531007023042826
3580000000.0 0.03912233198512263 0.087011767711969
3600000000.0 0.05434711123289734 -0.08972868815927641
3620000000.0 0.10382190317288018 0.06087391397733268
3640000000.0 0.0347572511497677 -0.13049722949882614
3660000000.0 -0.07744983422093843 -0.1235891176846844
3680000000.0 0.06294875416325946 0.13752692863826982
3700000000.0 0.06702086072985837 0.12747594363632242
3720000000.0 0.12724224207899082 0.009602385298792508
3740000000.0 0.10235637534056784 0.010369365231462238
3760000000.0 -0.05052594645727194 -0.06080775572939979
3780000000.0 0.050405948149696504 0.029872816287962272
3800000000.0 -0.025583078387177768 0.008863897128944606
3820000000.0 0.010945315035865925 -2.7738284685266332e-05
3840000000.0 -0.04217599607474091 -0.023576814465821567
3860000000.0 -0.025729464305679507 0.07433513356071433
3880000000.0 -0.052657577756011764 -0.09137740713733197
3900000000.0 0.12532720076672318 0.029069906179068062
3920000000.0 -0.1084860590197252 -0.09275740268468918
3940000000.0 -0.08694589271157852 0.12458386181304608
3960000000.0 0.1178025261587588 -0.10480083284574403
3980000000.0 0.1443060997807829 0.016663227202750847
4000000000.0 -0.11784070431450111 -0.0376920922618658
