!Created with skrf (http://scikit-rf.org).
# Hz S RI R 50.0 
!freq ReS11 ImS11
400000000.0 0.8361346459205979 -0.2695306400240281
420000000.0 0.7749344785314243 -0.30124309361810975
440000000.0 0.3997330612105074 -0.6604724009898971
460000000.0 0.23342177452027907 0.6541137233123987
480000000.0 0.4215241271476895 -0.4182465045734259
500000000.0 0.5245358377079402 0.3423603638207797
520000000.0 0.4804874820996299 -0.42764516157039606
540000000.0 -0.05387230700202902 -0.6024349042524496
560000000.0 0.6139431164515594 0.09091206168719572
580000000.0 0.4112825832993672 0.32349447225074485
600000000.0 -0.3262772190067494 0.5002459269474546
620000000.0 -0.27942276814648526 -0.5378642282789474
640000000.0 -0.3421683260685319 -0.4449217958104182
660000000.0 0.06779523163697121 0.5167329938250236
680000000.0 0.3349647230807314 -0.33646063788314456
700000000.0 0.39869564288000087 0.2899745779594061
720000000.0 0.46896985081436515 0.1678231495574241
740000000.0 0.19060937287924526 0.4365803473361254
760000000.0 0.03707012161524784 0.4568502078370243
780000000.0 -0.4388572900781735 -0.10457161899689801
800000000.0 -0.2143888409599382 -0.34224558022279117
820000000.0 0.18675556068483815 0.30933275890557166
840000000.0 -0.33195664236553607 -0.002040808684329632
860000000.0 0.3005792461316096 0.08081675994350355
880000000.0 0.2862994239683404 0.04217933051344991
900000000.0 0.24591074532184554 0.11521551802903345
920000000.0 -0.013162267599284709 -0.2541698284099352
940000000.0 0.18444447048302284 -0.12096856104001359
960000000.0 0.10640658224175695 -0.13164522782029434
980000000.0 -0.08130663620140052 -0.10734286957612368
1000000000.0 0.08531112381986598 -0.10380584925422891
1020000000.0 -0.054245328797750056 0.10391346721653202
1040000000.0 0.09906270471833509 0.08885300367585851
1060000000.0 -0.07904879457432579 -0.1306949363992036
1080000000.0 0.01420187307519378 0.19889329894342528
1100000000.0 -0.07872099381356656 -0.233507953963817
1120000000.0 -0.10083113110007662 -0.2622002891495686
1140000000.0 -0.18956256876143537 0.24418811971794754
1160000000.0 0.30135617920887414 0.13852997594650054
1180000000.0 0.15653012534726538 0.2985339746990009
1200000000.0 -0.33131706230881514 -0.12455967203666517
1220000000.0 0.3287600432083763 -0.17210077395349424
1240000000.0 0.22979846694503764 -0.2987181013980085
1260000000.0 0.12448623651723352 -0.3721655359199574
1280000000.0 -0.3676462886127409 0.096472990639906
1300000000.0 -0.0015134500730707577 -0.36745057743639864
1320000000.0 0.2086089376025558 -0.3122177892085795
1340000000.0 -0.3547745262345613 0.09001814871144771
1360000000.0 0.06073034422956708 0.38054629862854433
1380000000.0 -0.07154893934321865 0.3879545046796669
1400000000.0 -0.07877725515942544 -0.37546262965218324
1420000000.0 0.33980299251189217 -0.17474907889861951
1440000000.0 -0.06130065641298774 -0.3835267230299929
1460000000.0 -0.31141744596293863 -0.22945869101738076
1480000000.0 -0.11024082805082953 -0.37647763732393374
1500000000.0 -0.372570179285884 0.12348887910301308
1520000000.0 0.05882402325562273 -0.38294081859889656
1540000000.0 0.08354985646413639 0.3504190784184654
1560000000.0 -0.15280571508708748 -0.2911768514867696
1580000000.0 0.27790482585074205 0.1027165927806474
1600000000.0 0.2175403905578872 -0.1469451812448164
1620000000.0 0.04202739502363896 0.2083987633842903
1640000000.0 -0.006267979873291205 0.18695411715732135
1660000000.0 0.13256516041079774 -0.0921850067179479
1680000000.0 -0.11992324734785946 0.014845905933718153
1700000000.0 0.07763963653325467 0.08851117788297419
1720000000.0 0.04219912799522799 -0.08325069782914786
1740000000.0 0.010761669746949469 -0.08289670678358507
1760000000.0 -0.005136836265774378 0.0915592363156165
1780000000.0 -0.10680623487524664 0.015900551907509126
1800000000.0 0.07740324894366818 0.10336431479277823
1820000000.0 0.12602238129965668 0.10008482331735298
1840000000.0 -0.001841480087434961 -0.19068047450757003
1860000000.0 -0.03521597304035914 0.2154503469402742
1880000000.0 0.18034182781813599 0.17803599646015988
1900000000.0 0.23107749614624862 -0.1470607164816231
1920000000.0 -0.014219539634213865 -0.2904240218944555
1940000000.0 -0.3038596033691328 -0.028300305915345294
1960000000.0 0.22127703935459772 -0.21863974050347965
1980000000.0 -0.28164649472728126 0.13541710865668047
2000000000.0 0.12985860242713138 -0.2916720629895903
2020000000.0 0.2572952628016955 -0.1971908439998116
2040000000.0 0.31864505642223784 0.053559689192269354
2060000000.0 0.23177844760820215 0.22366420998718206
2080000000.0 0.04715328815861048 0.32365801609849004
2100000000.0 -0.05395222686920548 -0.3195094800171376
2120000000.0 0.2290847984490529 0.22148773340921205
2140000000.0 -0.22960461442601512 -0.2217897082735585
2160000000.0 0.10958480817438289 0.2982131153338473
2180000000.0 0.27851665384619034 -0.13605163217163335
2200000000.0 0.23174520409451455 -0.19797138505719328
2220000000.0 -0.028064515891392687 -0.2964670842686047
2240000000.0 0.28975927354658054 0.0005313284826162573
2260000000.0 -0.019043081517954703 0.27357261185702975
2280000000.0 -0.1985426532124358 0.1818669895216763
2300000000.0 -0.029768196544269297 -0.2502007778647184
2320000000.0 -0.018594254244494752 0.2418505361434435
2340000000.0 0.06407689458959727 -0.23363786026029573
2360000000.0 0.04981213637618709 0.24009682481907657
2380000000.0 -0.1733383563388951 -0.19080718596876706
2400000000.0 -0.2493511797885653 0.12938812002929956
2420000000.0 0.25848604194577685 0.1591308053029202
2440000000.0 -0.2425059183504133 -0.21996386480211588
2460000000.0 0.09433476541199667 0.34284588398508414
2480000000.0 0.2364167330960225 -0.31324717757517095
2500000000.0 0.2998047978929984 0.30564920113821636
2520000000.0 -0.44988367332376306 0.11107419459882756
2540000000.0 0.16333357740165313 -0.46716053178756334
2560000000.0 -0.015588460731934843 0.5254059246741992
2580000000.0 -0.19571168430106511 -0.5168374066548548
2600000000.0 0.28941623994857885 0.49792858125622735
2620000000.0 -0.3445674411891094 -0.48442899638290376
2640000000.0 0.47734133430914893 0.3810625523600936
2660000000.0 -0.6200152481356984 0.08235945921555277
2680000000.0 0.13840092144913854 -0.6184579099201162
2700000000.0 0.6055462875862012 -0.2147311343662687
2720000000.0 0.6299757229279753 0.15172596138005406
2740000000.0 0.5672255664674815 0.31648854252861336
2760000000.0 0.5100632000365265 0.4017749107085116
2780000000.0 -0.5287954149364595 0.36865749783139895
2800000000.0 -0.6231929199958761 0.1238455617476775
2820000000.0 -0.3803523494056204 -0.4938440057131274
2840000000.0 0.5737515406304031 -0.20607226443829646
2860000000.0 -0.40656085607825354 0.4332786645816422
2880000000.0 0.5590351533570356 -0.1251916553586463
2900000000.0 -0.23655222397498343 -0.49824455132363354
2920000000.0 -0.5201375361536329 0.09346963171348387
2940000000.0 -0.272608565320402 0.41747060737825337
2960000000.0 -0.3566830728537569 0.30982243462706127
2980000000.0 -0.297953897027555 0.3333967213119224
3000000000.0 -0.18354536549485195 0.3848270763824591
3020000000.0 0.11339964324286919 0.38768349796647317
3040000000.0 0.2820771159038893 0.2597679497820337
3060000000.0 0.2817025145643979 -0.23992197412536298
3080000000.0 -0.35651711028129063 -0.038367904322818176
3100000000.0 0.231366269588329 0.25741715587417424
3120000000.0 0.3085500985414877 -0.15494263202123898
3140000000.0 -0.3166937292326183 0.1310755041486211
3160000000.0 0.33917381885767556 -0.04601765854360243
3180000000.0 -0.3415815164297355 -0.03512354832584235
3200000000.0 0.04722136284383723 0.33977995710504405
3220000000.0 0.262662743390068 -0.2120463432991157
3240000000.0 0.052525595321564665 -0.33014079669709123
3260000000.0 -0.19658032716732424 -0.26216683796975815
3280000000.0 -0.3132617241194745 -0.04145980310372554
3300000000.0 -0.22916838097333717 0.19317528160238662
3320000000.0 -0.07282104825148795 0.2625932670984073
3340000000.0 -0.23497674384142486 0.08296606738788319
3360000000.0 -0.19808627080162194 0.10018569941829032
3380000000.0 -0.02958620223567544 -0.19043519448995241
3400000000.0 0.005985850362324068 -0.17015858612717918
3420000000.0 -0.020369797069283775 -0.14064795851314632
3440000000.0 0.041127993873009305 -0.10946787676378741
3460000000.0 0.07462703813937759 0.058693536823094784
3480000000.0 -0.0704798947046378 0.03335134387778264
3500000000.0 -0.06518833885134608 -0.031524003131614964
3520000000.0 -0.048351926325010085 -0.051688682541830525
3540000000.0 0.015453605456951342 0.07602696973989127
3560000000.0 -0.03577070133291861 0.07627334452885738
3580000000.0 0.0773547207375961 0.05721635386192544
3600000000.0 0.006862363853538788 -0.10366096661771755
3620000000.0 0.11951893421757898 0.016802743288059974
3640000000.0 -0.018401181399626685 -0.13230181926609286
3660000000.0 -0.06530156303171494 -0.13134675337644983
3680000000.0 0.10568041501987196 0.11025697915718338
3700000000.0 0.0874379536054026 0.11445940761369033
3720000000.0 0.1268429630849052 -0.023963779759127304
3740000000.0 0.10204903314796106 -0.00972136183371734
3760000000.0 -0.008149732004565594 -0.07998218884260484
3780000000.0 0.049419274687672626 -0.032700716547646586
3800000000.0 0.002017574162063085 -0.026773373133886884
3820000000.0 0.010568199177561783 -0.0001685088897453063
3840000000.0 -0.04766244950994165 -0.004281612768303895
3860000000.0 -0.014434449444891494 0.07709741564273923
3880000000.0 -0.0574552782569442 -0.08947353000775249
3900000000.0 0.12896011939720467 0.006568165204944268
3920000000.0 -0.10970696937484763 -0.09341293028438266
3940000000.0 -0.04971057278810699 0.14423306774242847
3960000000.0 0.13246124598009137 -0.08437579831030974
3980000000.0 0.1063705352445638 0.10271042706291238
4000000000.0 -0.10123404560471974 -0.07422667152660947
