!Created with skrf (http://scikit-rf.org).
# Hz S RI R 50.0 
!freq ReS11 ImS11
400000000.0 0.7767422439295252 0.3950657307937028
420000000.0 0.21079702293555097 0.7882797668706713
440000000.0 0.34868542922866863 0.677361665737344
460000000.0 -0.6384385508568851 -0.25224193917677223
480000000.0 -0.05888662628688854 -0.6172575285155941
500000000.0 0.6338250397473358 -0.14033739696355557
520000000.0 -0.2477819139699517 0.6189421597893128
540000000.0 0.6594557143937824 -0.15136169611968442
560000000.0 -0.33409100822806354 0.5805243902372325
580000000.0 -0.24583925477921242 0.46184824304457633
600000000.0 0.2038147711018033 0.558206830444809
620000000.0 -0.5121318771506375 -0.3301549377184499
640000000.0 -0.36682020986775854 -0.4225868906438252
660000000.0 -0.05671242764300823 0.5241545370358665
680000000.0 -0.12353906293907782 0.4784716725928716
700000000.0 0.42709704248303637 -0.15734424651419288
720000000.0 -0.1416254186745855 0.46663286540534094
740000000.0 0.4610122432218505 0.08414218685719789
760000000.0 -0.3473231135747796 0.28066696984720835
780000000.0 -0.43515889379439027 0.026439507302752147
800000000.0 -0.08424221834688388 -0.3909732584348174
820000000.0 0.3415830423219531 0.07469939604754544
840000000.0 -0.21990325087286192 0.23761674659563242
860000000.0 0.19687961352186908 -0.22952863067772447
880000000.0 0.26725080479413327 0.05871398784860434
900000000.0 0.11446623725674711 0.23826637229665737
920000000.0 0.15572492198879714 0.20015071747023133
940000000.0 -0.12502378045752974 0.19129044207057674
960000000.0 -0.02340166543952237 0.18438747610412998
980000000.0 -0.13757392414979133 0.041255397148677854
1000000000.0 0.03605233237377713 -0.12403361170859545
1020000000.0 0.09759870243954134 -0.019357535194838987
1040000000.0 -0.11325870056629685 -0.008270034183121003
1060000000.0 0.14518173040948898 0.015279829830713215
1080000000.0 0.18810132288197837 0.04026611515307456
1100000000.0 0.09894180688309746 0.2182092181925618
1120000000.0 0.23414007138270543 -0.1473892555953215
1140000000.0 -0.2900988404295258 0.07764931612347242
1160000000.0 -0.3175252555241223 0.03585456655105844
1180000000.0 -0.33516558905343063 0.04076523727761263
1200000000.0 -0.2683986598763753 -0.2219368299065923
1220000000.0 0.35666435464767204 -0.04082798696902597
1240000000.0 0.13976235649868193 0.34871001348012975
1260000000.0 0.37066133547139585 -0.13376605899844415
1280000000.0 -0.369387218981402 -0.10507141343677352
1300000000.0 -0.11419361614946237 -0.36179304683478986
1320000000.0 -0.04278751302631096 -0.37727068014635845
1340000000.0 -0.3654042103480198 0.05111464031502705
1360000000.0 0.2988309522702339 0.24871864671319935
1380000000.0 -0.08804302191556598 0.38940488606848317
1400000000.0 -0.1189997524999255 -0.3761507815617052
1420000000.0 0.014625910437792065 -0.39477705773341093
1440000000.0 -0.3456405440974471 -0.19188112718006878
1460000000.0 -0.39213066174213607 -0.008156436154908388
1480000000.0 -0.3024680770104961 -0.25809892608945795
1500000000.0 0.15450010451556165 0.36911713452728534
1520000000.0 -0.3840113017726613 0.06563955613839287
1540000000.0 0.3354583154196008 -0.13380396634095587
1560000000.0 -0.26654660792044144 0.19345539394987443
1580000000.0 -0.09312427964893819 -0.2785866190435277
1600000000.0 -0.012370828296810044 -0.257761270990368
1620000000.0 0.17087342161004707 -0.13125455026625346
1640000000.0 -0.1853436135906937 0.006161616686693348
1660000000.0 0.041692853690097315 0.14806206129082775
1680000000.0 0.09847724718287813 -0.051200277897035115
1700000000.0 -0.08112164487921128 -0.06139347415721702
1720000000.0 -0.018110133912775703 -0.07807346288443343
1740000000.0 -0.003182056175305064 -0.07733248829623635
1760000000.0 0.002855279252178825 -0.08783410140315824
1780000000.0 0.07986927921824317 -0.08571579274579406
1800000000.0 -0.018754763669225783 -0.1360050906515793
1820000000.0 -0.15112100071256143 0.07585194657269058
1840000000.0 0.1335448637759189 -0.14219587769050604
1860000000.0 -0.16620871981722596 0.1458808727251441
1880000000.0 -0.058805458766003675 0.24965630907282557
1900000000.0 0.14110794388380885 0.2379613871794363
1920000000.0 0.164797835531825 -0.24397183633052155
1940000000.0 -0.30271696530619197 -0.04459405677717412
1960000000.0 0.30817671273692593 0.026234027410442656
1980000000.0 -0.3007103946288523 -0.08886104301728617
2000000000.0 0.11269897413128925 -0.2997640360246644
2020000000.0 0.3182092676230802 0.03909348654588481
2040000000.0 0.3147563962016374 0.05058346566320415
2060000000.0 0.29518115684230417 0.11558821177768543
2080000000.0 0.19342397309405002 0.2484511750045825
2100000000.0 -0.005197311872920636 -0.31157523786841673
2120000000.0 0.30436400619162646 0.006887454717879459
2140000000.0 -0.15257730973260067 -0.2582747745627939
2160000000.0 -0.19488933057515787 0.2245139729316794
2180000000.0 0.1449801785505331 0.2501882299756299
2200000000.0 -0.14588962672427758 0.24570943280927637
2220000000.0 -0.14237717042721879 0.24447910713313015
2240000000.0 -0.14976447857274788 -0.23317236164033528
2260000000.0 0.1836027874541458 -0.19998712289352566
2280000000.0 0.2699171740538896 0.03944428298373931
2300000000.0 0.20261897094171066 0.16233397105389938
2320000000.0 -0.19027494593930214 -0.16966351594882503
2340000000.0 -0.04830586808005603 -0.24976414927088805
2360000000.0 0.23992792825535927 -0.0809453643587657
2380000000.0 0.03144681917834041 0.25601234006873363
2400000000.0 0.20553207229758164 0.18772917262989233
2420000000.0 -0.06354734546279475 -0.2876235479215
2440000000.0 -0.1799111130568196 0.2565671004242729
2460000000.0 0.3354656120584793 -0.04028200640319859
2480000000.0 0.05345482350557524 -0.369353283880279
2500000000.0 0.2863293560565374 0.28975165678045484
2520000000.0 -0.4047836025054118 -0.18407960684005314
2540000000.0 0.4624598028357346 -0.12556030530912893
2560000000.0 -0.336682473379544 0.3843238111279874
2580000000.0 0.27464358035846015 -0.46614037231348615
2600000000.0 -0.10070437523889833 0.557385415972379
2620000000.0 -0.05574440513055557 -0.5859045832569056
2640000000.0 0.2108238699550352 0.5671429891791766
2660000000.0 -0.5587100949632797 -0.2707222941295779
2680000000.0 0.354809879298292 -0.5206367595140052
2700000000.0 0.6142377317433975 0.17924208957982332
2720000000.0 0.45470274648181763 0.45679734984771725
2740000000.0 0.3708666538261738 0.5297620338958153
2760000000.0 0.2946374271980011 0.575667437110051
2780000000.0 -0.6399672270884331 -0.019031829916888884
2800000000.0 -0.48865977250987236 -0.3976782370309415
2820000000.0 0.10959059181019322 -0.6082124050305707
2840000000.0 0.4584150040751292 0.3915377496838121
2860000000.0 -0.46522059406477795 -0.35940417407994363
2880000000.0 0.1594101216494527 0.5468899614869204
2900000000.0 0.4699231567503039 -0.2845787525677153
2920000000.0 0.020453297928081326 -0.5263955636359791
2940000000.0 -0.3567481187674913 -0.3534641023006136
2960000000.0 -0.22624018217202718 -0.42034278812884807
2980000000.0 -0.34021818760656825 -0.30155792674574156
3000000000.0 -0.32788647437535073 -0.28888033940221153
3020000000.0 -0.3906897795429903 0.15297006480754785
3040000000.0 0.18519640101894036 0.3526402131774261
3060000000.0 0.35372818128844724 -0.13554678718861476
3080000000.0 -0.36528223592769704 0.020374402993526407
3100000000.0 0.3410648270174578 0.0806007859651442
3120000000.0 0.24013931063641863 -0.24877630030450368
3140000000.0 -0.08066166941742912 0.33186967302166537
3160000000.0 0.05658669904089616 -0.3342647397120463
3180000000.0 0.0321399307954495 0.33488460133458425
3200000000.0 0.31709778654075604 -0.09028012411558742
3220000000.0 -0.13044690491170455 -0.29842146815438597
3240000000.0 -0.2748014652386839 -0.15638434982268612
3260000000.0 -0.30373512119086954 -0.018630989976684848
3280000000.0 -0.2843933374908362 -0.07200426294011911
3300000000.0 -0.271145223086458 -0.047094721248101136
3320000000.0 -0.14108804917139414 -0.2067291919423991
3340000000.0 0.2266082107890216 0.013380991745023168
3360000000.0 -0.16537109286449558 0.12056621290231369
3380000000.0 0.013427421661939663 -0.18627573396339023
3400000000.0 0.15920232685391142 -0.04292149216214386
3420000000.0 0.14027309653017625 -0.028095185808545284
3440000000.0 0.09873526932130333 0.07881427040977083
3460000000.0 0.08160589995622769 0.06928737462359522
3480000000.0 0.019076401739089525 -0.08798339885310962
3500000000.0 -0.003063705695070684 0.08282080303273055
3520000000.0 -0.0282394058000755 -0.07592504420667662
3540000000.0 0.07559644547192353 0.026166405323388802
3560000000.0 0.01730147534778223 0.08645731425535579
3580000000.0 -0.027151849359651186 -0.09065530999647449
3600000000.0 -0.08539807139350455 -0.046899685041699446
3620000000.0 0.10053634206570185 0.04095202125332119
3640000000.0 -0.024989407303439997 0.12019791164326378
3660000000.0 -0.04770308662869676 0.12342364415589982
3680000000.0 0.05876505835887529 0.1242553293823348
3700000000.0 -0.1275801025225845 0.021538798775086365
3720000000.0 0.04401267533844784 -0.10741925995998335
3740000000.0 -0.09604894899457829 0.024412819131440517
3760000000.0 -0.07861241133284345 0.02948408765074685
3780000000.0 0.042490780303012995 -0.04810941721266262
3800000000.0 -0.013300787781189935 0.0333460535059011
3820000000.0 0.0008093419916175204 0.004612707966471739
3840000000.0 0.012851695906271644 -0.03015715057040963
3860000000.0 0.038750302736991815 -0.049284303142569354
3880000000.0 -0.04006314027102435 -0.07880599715686445
3900000000.0 -0.1071563840027196 0.0033018310012136085
3920000000.0 -0.03606695841257278 0.1205136013478515
3940000000.0 0.12543560186573716 0.04885768682069754
3960000000.0 0.09057650223534879 0.10361473241106302
3980000000.0 -0.04262367670010581 -0.12819052925608623
4000000000.0 -0.09376172949759178 -0.06598682103691204
