!Created with skrf (http://scikit-rf.org).
# Hz S RI R 50.0 
!freq ReS11 ImS11
400000000.0 0.782496878603532 0.38288724963744514
420000000.0 0.29699221991977354 0.7622717494018219
440000000.0 0.4934156164155816 0.5755151651966047
460000000.0 -0.5377686315201307 -0.4251812820804414
480000000.0 -0.07906614459230628 -0.6131351561642171
500000000.0 0.6302983351158968 -0.19056590139053808
520000000.0 -0.28274704278898544 0.6044451433769515
540000000.0 0.6723871004490884 -0.09309766953644766
560000000.0 -0.26023122777824603 0.6215484725873617
580000000.0 0.20544398298466457 0.47365127470547136
600000000.0 -0.17657520778929617 0.563391257182773
620000000.0 -0.12277917417383244 -0.5958413341264275
640000000.0 -0.2675967346425086 -0.5016970013940487
660000000.0 0.03796429416701268 0.5310637407601027
680000000.0 0.13743595859254 0.4784771031133302
700000000.0 0.19851891276978137 -0.40066745074029186
720000000.0 -0.1706518321147504 0.4516119567950019
740000000.0 -0.05545791754250846 0.46535558122384457
760000000.0 -0.18626269432022732 0.41241528923268445
780000000.0 -0.4214216761968525 0.09521848691387158
800000000.0 0.0010420844648347909 -0.39848399303632404
820000000.0 0.33478673508081985 0.10521136574406761
840000000.0 -0.1833590746782797 0.2647059936558847
860000000.0 0.07881910574005478 -0.29451901626810767
880000000.0 0.2689179237562417 -0.038838024566319344
900000000.0 0.1261652924651426 0.2285555651449149
920000000.0 0.14391908398443584 0.206658769559179
940000000.0 -0.2108846614105496 -0.08156429238591717
960000000.0 -0.18506867977040414 -0.03582183435498317
980000000.0 0.03143593600615833 0.1390009063139199
1000000000.0 0.12802909392811976 -0.02300674739463927
1020000000.0 -0.015547553899242849 -0.10072208700814482
1040000000.0 -0.08429525645177177 0.07691387233368988
1060000000.0 0.1444503609365825 0.002245016192433602
1080000000.0 0.1879788466409431 -0.05080483372336589
1100000000.0 0.15201677782035677 0.1807882554799737
1120000000.0 0.25999548434014064 -0.09226285402527028
1140000000.0 -0.2972186819746301 -0.036591773943206674
1160000000.0 -0.31928002953528684 0.010848883001080115
1180000000.0 -0.32940713965152496 0.07622074565941485
1200000000.0 -0.33477658167695995 -0.10214976452244529
1220000000.0 0.31705190232983355 0.1595100840630696
1240000000.0 0.29365312645668706 0.23810667968649515
1260000000.0 0.3241078242932804 -0.2188498978061758
1280000000.0 -0.29595980053775905 -0.24199850453077415
1300000000.0 0.04987692125136301 -0.3777621120666493
1320000000.0 -0.02590282102024007 -0.3818562032509331
1340000000.0 -0.3153422243304719 0.1935798438096635
1360000000.0 0.19635136223027083 0.33457453188573266
1380000000.0 -0.20485764603984988 0.3419508645152929
1400000000.0 0.015238694285167408 -0.3966695872692035
1420000000.0 -0.024449469960152806 -0.392017266603173
1440000000.0 -0.2897404269511822 -0.2689945334544868
1460000000.0 -0.39318079278542106 0.04210727590133567
1480000000.0 -0.36954459026143227 -0.13870264216589331
1500000000.0 0.04202543318630951 0.39692230878782064
1520000000.0 -0.38770403146113586 0.007990747174982672
1540000000.0 0.34762943476723035 -0.10236310937564669
1560000000.0 -0.15364958525370354 0.2905150790989148
1580000000.0 -0.08752651055911939 -0.27914979387392935
1600000000.0 0.04624001134609384 -0.2522796963408929
1620000000.0 0.21625181698181029 -0.02614207111599158
1640000000.0 -0.1305145424875902 0.13214646936614077
1660000000.0 0.033426135742285853 0.14890371113229206
1680000000.0 0.10532636736865462 0.036262465219967226
1700000000.0 -0.10172333690225885 -0.019747955366008613
1720000000.0 0.07215745271446106 -0.03410361774042115
1740000000.0 0.039616764922542624 -0.0670088671288572
1760000000.0 0.0834932520345816 -0.030848431003513366
1780000000.0 -0.03553594711354345 -0.11117521048034452
1800000000.0 0.051890108138110035 -0.12831737035724053
1820000000.0 -0.1657216377260087 -0.022575340314898988
1840000000.0 0.18819631638958834 -0.055145527714821944
1860000000.0 -0.21066655933681586 0.06986318738109436
1880000000.0 0.0022029270503247317 0.25584441165215926
1900000000.0 0.08893108473353759 0.26095930070881246
1920000000.0 0.13753099777989594 -0.2608621001344178
1940000000.0 -0.3031960963477767 -0.008988456702430602
1960000000.0 0.3065777415511156 0.031063078278735147
1980000000.0 -0.2714279141966465 -0.1585357584552687
2000000000.0 0.12292576703519793 -0.2974386664512565
2020000000.0 0.30465001102952494 -0.09948024033656473
2040000000.0 0.32055893781180156 0.021148455333146805
2060000000.0 0.2995475349638064 0.10163782554709819
2080000000.0 0.12148063446638686 0.29229836801966963
2100000000.0 0.03597323738821905 -0.311113264105176
2120000000.0 0.25695903336839543 0.16267050475287706
2140000000.0 -0.04391013663456367 -0.2969901453151717
2160000000.0 -0.26844034350645973 0.12643087320496527
2180000000.0 0.08728988838590938 0.2754622980544799
2200000000.0 -0.1443347382236608 0.24366407728087103
2220000000.0 -0.1569363849763663 0.23483308578534434
2240000000.0 -0.15293494621366807 -0.23061394649813133
2260000000.0 0.19647430230764673 -0.18608955663862536
2280000000.0 0.2716987027897432 0.016542390551688463
2300000000.0 0.22219870408025313 0.1363466555295034
2320000000.0 -0.23612129822805653 -0.09842463316973682
2340000000.0 -0.12691346724788857 -0.22248519446633508
2360000000.0 0.19733558841099247 -0.1581165620680867
2380000000.0 0.001943247938177369 0.25736484912555607
2400000000.0 0.11639775380329853 0.2552905990556681
2420000000.0 0.05797064806054456 -0.29235275597232885
2440000000.0 -0.1811546119010115 0.2579428267417434
2460000000.0 0.3374453480692566 0.012174669076689038
2480000000.0 0.10948456426674436 -0.3559519110979665
2500000000.0 0.10059689495168568 0.3929564263449731
2520000000.0 -0.3709165314198605 -0.24413137673494367
2540000000.0 0.4747393808718444 -0.06350567620831732
2560000000.0 -0.2847671403098175 0.42433182894594684
2580000000.0 0.14521442924488076 -0.5204959086571144
2600000000.0 -0.07578402387664998 0.5612287594055481
2620000000.0 -0.08092761666297175 -0.5831428428436988
2640000000.0 0.2923635028795513 0.5314715373792962
2660000000.0 -0.578371503078996 -0.22951001371965854
2680000000.0 0.369232695755024 -0.5128501040151884
2700000000.0 0.597357916085867 0.2326213689849098
2720000000.0 0.3910033716785668 0.5138304062846707
2740000000.0 0.3158347806655842 0.5647696141220914
2760000000.0 0.19368343430000834 0.6169304905857097
2780000000.0 -0.636514927104246 -0.06542803528211294
2800000000.0 -0.45984064408476266 -0.4293068092735824
2820000000.0 0.10969273022523855 -0.6066660907099392
2840000000.0 0.45289598713599943 0.39644347616156334
2860000000.0 -0.4832033051646714 -0.33371800696365717
2880000000.0 0.22292360765868552 0.5238961217439694
2900000000.0 0.45423457168436343 -0.30756708297019786
2920000000.0 0.02555295667988453 -0.5273236727869615
2940000000.0 -0.3254033813216263 -0.3832721208938205
2960000000.0 -0.2377159632197415 -0.41538027263398325
2980000000.0 -0.3015549548760527 -0.3425241072299552
3000000000.0 -0.3303667502953025 -0.28681123010540327
3020000000.0 -0.3903478449982902 0.15421866061448233
3040000000.0 0.09715432660395987 0.3884410272008828
3060000000.0 0.30040685460212263 -0.23047461694634583
3080000000.0 -0.3495969572681188 -0.10766321881641237
3100000000.0 0.3289613403495214 0.12407874572320952
3120000000.0 0.2847961873570987 -0.19408932210436122
3140000000.0 -0.17752285599697673 0.2901496766223025
3160000000.0 0.1028206031286197 -0.3220209325410051
3180000000.0 0.0050854512538823565 0.33554994135177163
3200000000.0 0.3023451069357909 -0.13115236818604667
3220000000.0 -0.19765627597301105 -0.2577470510965159
3240000000.0 -0.2714312906888225 -0.16133346341734559
3260000000.0 -0.30169474832175097 0.04607558510101946
3280000000.0 -0.29167895248013054 -0.03001655382025594
3300000000.0 -0.27496459182723015 -0.026468085711015894
3320000000.0 -0.14113389228651055 -0.20885074918865407
3340000000.0 0.21799351109679568 0.06733725887396452
3360000000.0 -0.14913892043382626 0.14176435279604793
3380000000.0 0.09255107500774605 -0.16233119005924498
3400000000.0 0.1583232827693043 0.05006841404501969
3420000000.0 0.12922520257563833 0.06045621795344601
3440000000.0 -0.008456885530480792 0.1253977718941398
3460000000.0 -0.017226706115610765 0.10467912610062984
3480000000.0 0.07933285991400908 -0.04043879590924765
3500000000.0 -0.03467841303542595 0.07316665178606922
3520000000.0 -0.025444347298853056 -0.07524120698460196
3540000000.0 0.057979819711692374 -0.05416823816255987
3560000000.0 0.08397459937725545 -0.025344248559269318
3580000000.0 -0.07175857616263175 -0.059738000768706404
3600000000.0 -0.09756955037071775 -0.011482409257213742
3620000000.0 0.10784572421410876 -0.02697289893182892
3640000000.0 0.0749705463889699 0.09887326217536958
3660000000.0 -0.02074027584812733 0.13200010040309937
3680000000.0 0.002007306010633105 0.1375716086783845
3700000000.0 -0.08646043687402498 -0.09975977078628735
3720000000.0 0.0625175406772732 -0.1004297267159282
3740000000.0 -0.08545097361410756 -0.050085653015130426
3760000000.0 -0.051291802918391007 -0.06543369848806985
3780000000.0 -0.018064602518092242 0.061511821839165565
3800000000.0 -0.015392238184546042 0.031316523817693315
3820000000.0 0.0023135031527744127 -0.0010636655894651916
3840000000.0 -0.019638860867714 -0.026657880737238668
3860000000.0 -0.002569039186988972 -0.06361921752534726
3880000000.0 0.058922553819499415 -0.0684267160187832
3900000000.0 -0.11061089337130556 -0.005465147283645375
3920000000.0 -0.07179963720319239 0.10316927834959821
3940000000.0 0.037721615003340356 0.12979817211198766
3960000000.0 -0.002491056152802704 0.13816692301195616
3980000000.0 0.11056830762049608 -0.07569320896568164
4000000000.0 -0.0008816923090220528 -0.11446542534131486
