!Created with skrf (http://scikit-rf.org).
# Hz S RI R 50.0 
!freq ReS11 ImS11
400000000.0 0.7810906303559375 0.3850397728149621
420000000.0 0.2829113650253862 0.765731637832204
440000000.0 0.44881494431181335 0.6141484228053696
460000000.0 -0.5404412390020682 -0.42213737067541873
480000000.0 -0.031019617907569148 -0.6180341058533402
500000000.0 0.6496563390570093 -0.08004334743877985
520000000.0 -0.2056812003465908 0.6388447385541876
540000000.0 0.5908040924687654 -0.3284705008164797
560000000.0 -0.32483882145218973 0.5829533057019932
580000000.0 -0.4081309354508025 0.3267197566961638
600000000.0 -0.09775062075042287 0.5871293725688084
620000000.0 -0.4852642187996766 -0.3724973360600408
640000000.0 -0.40898473315848743 -0.3917212948586826
660000000.0 0.37276395311234345 0.3780052739390033
680000000.0 -0.023171754130625062 0.483123809990329
700000000.0 0.32113829546094924 0.32565926649148835
720000000.0 -0.37384301136151804 0.3173330855342728
740000000.0 0.44089006331562697 0.18005100946123753
760000000.0 0.22572517761993247 0.38789073806159335
780000000.0 -0.3935189654768689 -0.16333854412625864
800000000.0 0.1092871131613892 -0.3825841072711612
820000000.0 0.18350137859287546 0.2984614281848128
840000000.0 0.008483462972789 0.327961465796473
860000000.0 -0.12466119060329864 -0.2733687765369894
880000000.0 0.26341747502712265 0.007628853130858144
900000000.0 -0.2493290685092759 0.09706342743154842
920000000.0 0.08369528336493756 0.24469554330500803
940000000.0 0.20110392947000585 0.11549186279108344
960000000.0 -0.1573304157210421 0.08637422418334713
980000000.0 -0.05029321597800643 0.13061558563631062
1000000000.0 -0.019810557568142116 0.1293826391715845
1020000000.0 -0.0668446635800496 -0.07546819962482322
1040000000.0 -0.0796722390000968 -0.07694763546931331
1060000000.0 0.14657478733231835 -0.026893917551293053
1080000000.0 0.1779902914454368 -0.07296732112877376
1100000000.0 0.14364313931882025 0.18428019032978007
1120000000.0 0.2705249900308878 0.06799352569950443
1140000000.0 -0.2899913013820481 0.088317850044049
1160000000.0 -0.28378570867121977 0.1310339256990492
1180000000.0 -0.29160621866560665 -0.17203874248019912
1200000000.0 -0.3527069302012499 0.007505172731121497
1220000000.0 0.33051928175689516 0.1288996102482875
1240000000.0 0.2080098241611657 0.3149371425453831
1260000000.0 0.3176935104424546 -0.2310557295613497
1280000000.0 -0.3650935075846 -0.11252041199127628
1300000000.0 0.03252572759289291 -0.3787789806591572
1320000000.0 0.01913711241131076 -0.38293802957085166
1340000000.0 -0.3179268431313174 0.18561631239715284
1360000000.0 0.20054028166346638 0.3318367393253145
1380000000.0 -0.2953217953541779 0.27066253828511955
1400000000.0 -0.003100861368374501 -0.39670746472609025
1420000000.0 -0.03396086457354618 -0.39103328460224035
1440000000.0 -0.23585988282728837 -0.3177167421055203
1460000000.0 -0.3947843839874428 -0.00801953172135483
1480000000.0 -0.1867837477151323 -0.35236675038529985
1500000000.0 0.25936795313281774 0.3077553566385867
1520000000.0 -0.3838989757534342 0.03346191847402391
1540000000.0 0.35804335316113645 0.04855369568975731
1560000000.0 -0.01826929593726882 0.3310723511680168
1580000000.0 -0.18127464967053986 -0.22873157940132138
1600000000.0 0.13819462827172815 -0.21654529325084296
1620000000.0 0.19292470852974417 -0.10238958844033443
1640000000.0 -0.07651104689876026 0.1681247579621251
1660000000.0 -0.10616092901445663 0.10984138071566465
1680000000.0 0.08657247058607147 -0.07277746319589892
1700000000.0 -0.10301780326226154 0.010196992714674162
1720000000.0 0.07880539413702468 0.0015029077195423159
1740000000.0 0.0733799755584788 0.03157873962499291
1760000000.0 -0.04076780415385779 -0.07927297032006513
1780000000.0 0.1014163629005626 -0.0573659291264993
1800000000.0 0.1385117462368734 0.0044983220699328745
1820000000.0 -0.1688092367254795 0.010912951269704721
1840000000.0 0.16547860366741135 -0.10511764838304882
1860000000.0 -0.21897361847400373 -0.038637074475897266
1880000000.0 -0.014625320425467034 0.25448213645732015
1900000000.0 0.06852208065493828 0.26503866061844283
1920000000.0 0.24954987562149836 -0.1606022941398017
1940000000.0 -0.2970734061371726 0.06573996274151074
1960000000.0 0.30233820044153425 -0.0520778149898299
1980000000.0 -0.26489592174456733 -0.17095513192854253
2000000000.0 -0.03882419247365069 -0.3201949040483259
2020000000.0 0.30869998564686085 -0.0809820747585065
2040000000.0 0.28148148227956826 0.1572640728944049
2060000000.0 0.3184250172949833 0.02183335617551891
2080000000.0 0.07101114326763869 0.30707482309762674
2100000000.0 0.17641537615838962 -0.25919798735046656
2120000000.0 0.27548157750608226 0.13629295399758506
2140000000.0 -0.08830830720236692 -0.28431046279389066
2160000000.0 -0.2778202738262649 0.10238128785950343
2180000000.0 -0.03677368806822776 0.2872861190349868
2200000000.0 -0.06402466238309369 0.2757272410627195
2220000000.0 -0.20359294199661856 0.1951526188135302
2240000000.0 -0.22821367000234935 -0.15686875140335188
2260000000.0 0.10135252490531346 -0.2511493094046673
2280000000.0 0.2688131762421336 0.04321398714959447
2300000000.0 0.23421727391790478 0.1117473224087724
2320000000.0 -0.24390031401867052 -0.08012224001885766
2340000000.0 -0.09401694441290233 -0.2368620975058643
2360000000.0 0.24948517922518337 -0.05284252486894751
2380000000.0 0.1341029957355851 0.2215939437296031
2400000000.0 0.1607704101469375 0.22857415306676757
2420000000.0 0.12481193933701855 -0.2696959535064446
2440000000.0 -0.1715860847806199 0.2667937652137006
2460000000.0 0.33177262393000223 0.04988108289637052
2480000000.0 0.2351022456588819 -0.28907195331769864
2500000000.0 0.15501372925696405 0.3777310885943291
2520000000.0 -0.4262192280417446 -0.12175232427469686
2540000000.0 0.47430510174440227 -0.046642064752076204
2560000000.0 -0.35213560195842175 0.3704326374241491
2580000000.0 0.15954117688488503 -0.5165297292684577
2600000000.0 -0.04301951977186372 0.5645346959156751
2620000000.0 -0.0722300611556253 -0.5851050574373916
2640000000.0 0.2638013928065093 0.5468030647410536
2660000000.0 -0.5781672924712132 -0.23057129876021878
2680000000.0 0.3628487828910594 -0.5177839051794887
2700000000.0 0.5967917303764159 0.23628244450000185
2720000000.0 0.3948649735129604 0.5114432911050834
2740000000.0 0.2992551490242252 0.573557345948885
2760000000.0 0.18718811307924632 0.6188749628835944
2780000000.0 -0.598089573046683 -0.22704706009514766
2800000000.0 -0.4527936835151521 -0.43737385027427256
2820000000.0 0.16837274180282796 -0.5929659949276108
2840000000.0 0.4062016067894407 0.44445325990754636
2860000000.0 -0.5090466963817799 -0.2931441920381822
2880000000.0 0.24896771314220664 0.5112124638971517
2900000000.0 0.47515316218332265 -0.27364437879423
2920000000.0 0.009321798975571923 -0.5282871797605955
2940000000.0 -0.39720115910944814 -0.3082070863187626
2960000000.0 -0.21097286826859674 -0.4287751344748576
2980000000.0 -0.22849825812645677 -0.39769653727201393
3000000000.0 -0.3824906504626648 -0.21253348571360595
3020000000.0 -0.4168079380540243 0.05255660105237824
3040000000.0 0.03775169151740025 0.3986441570695183
3060000000.0 0.33111462349760656 -0.18636812002829292
3080000000.0 -0.3354396494215661 -0.14705614749761045
3100000000.0 0.3189523099938107 0.14696250485611756
3120000000.0 0.29456035548491855 -0.18057171464476904
3140000000.0 -0.18621037445072378 0.2838354323370268
3160000000.0 0.08162213314932587 -0.32809963827743094
3180000000.0 0.049349761236899124 0.33160660917586177
3200000000.0 0.3242397732088232 -0.05544255318690498
3220000000.0 -0.21853099202354842 -0.23932007555959475
3240000000.0 -0.2930816120660396 -0.11836781432167885
3260000000.0 -0.29283137629246614 0.08671165906914458
3280000000.0 -0.29316880068618173 0.008570384608696894
3300000000.0 -0.2762700460890534 -6.244435661080016e-06
3320000000.0 -0.1694680054069546 -0.18864366367247457
3340000000.0 0.2129591547279984 0.08230491782722607
3360000000.0 -0.19306740216867244 0.07754488449678425
3380000000.0 0.11195264386173955 -0.1501208501122643
3400000000.0 0.1275920607358338 0.10651491836485237
3420000000.0 0.09431075421668084 0.10764652546971223
3440000000.0 -0.10170442426187555 0.07323205750217712
3460000000.0 0.041051760678546295 0.09861904155520212
3480000000.0 0.06411603063407716 -0.059724317643188696
3500000000.0 -0.029759269263509195 0.07429232846614309
3520000000.0 -0.04456097811338946 -0.06394841550505741
3540000000.0 0.05325978576481809 -0.058868659686135694
3560000000.0 0.049160685469304036 -0.0731726735392513
3580000000.0 -0.08821709860344319 0.030141830404008505
3600000000.0 -0.0980941700065772 -0.010182609320709453
3620000000.0 0.10652042279875196 -0.03202467690290877
3640000000.0 0.09813641789772701 0.07676634786029041
3660000000.0 0.008962397603353872 0.13387342041137823
3680000000.0 -0.05567678415374621 0.12767122555895116
3700000000.0 -0.1055698478841424 -0.07936908816853494
3720000000.0 0.09968051262192476 -0.06431633170021056
3740000000.0 -0.07497316513183908 -0.06481955673160306
3760000000.0 -0.027758163696002924 -0.07744739944594813
3780000000.0 -0.0623142245530996 0.016553661117885945
3800000000.0 -0.03070154146305336 0.01575137470833729
3820000000.0 -0.0003196395322269377 -0.0014004781989026076
3840000000.0 -0.015549002067068446 -0.031054768308454758
3860000000.0 -0.014495735957209203 -0.061802534056162206
3880000000.0 0.06550737420218171 -0.06210612533989461
3900000000.0 -0.1050513750822889 -0.036678863881975936
3920000000.0 -0.10348730901812524 0.07078375077119796
3940000000.0 0.03611179254486521 0.13035690489124652
3960000000.0 0.014433988107616745 0.13777355596987192
3980000000.0 0.11438897787808529 -0.06896155137874235
4000000000.0 -0.07782307998015708 -0.08393812428166093
