!Created with skrf (http://scikit-rf.org).
# Hz S RI R 50.0 
!freq ReS11 ImS11
400000000.0 0.7908497867743876 0.36572299839670797
420000000.0 0.28969308008033884 0.7637732937457355
440000000.0 0.3887181614375029 0.6530315543501206
460000000.0 -0.5990491784555586 -0.3365770812696838
480000000.0 -0.17946221454816352 -0.5938941720270359
500000000.0 0.5950551228367977 -0.26623073669999137
520000000.0 -0.40538069780658426 0.5339976089317656
540000000.0 0.6680910925876085 -0.12303597384570274
560000000.0 -0.31764352060593065 0.5891985871097992
580000000.0 -0.37340008833135746 0.36971021647489477
600000000.0 0.04918197650535908 0.5849923557732217
620000000.0 -0.41416714362465923 -0.4523699443986509
640000000.0 -0.4113729789147899 -0.39151254469822083
660000000.0 0.06359066231138287 0.5245418567505459
680000000.0 0.19448135492540408 0.45529985882414303
700000000.0 0.448626179447621 0.007481637038604605
720000000.0 -0.3343365130495223 0.35499612475550635
740000000.0 0.22602625203895654 0.4154417653858824
760000000.0 0.09082934185064953 0.4407327498133898
780000000.0 -0.4251951808349302 0.06792359353294478
800000000.0 0.2855536458152911 -0.27615440097202937
820000000.0 0.3305103897746546 0.117651297126256
840000000.0 0.06539189735579831 0.31641216387768917
860000000.0 0.24692984608706198 -0.1674260330517762
880000000.0 0.014167573476078997 0.27576446506517016
900000000.0 0.2357567643942661 0.1353556717719178
920000000.0 0.2495679109248788 -0.05984189419686212
940000000.0 -0.011048693609544465 0.22132287506326245
960000000.0 -0.08816693738304522 -0.15919244836914026
980000000.0 -0.07968089242532327 -0.12101381886610156
1000000000.0 0.11695820934555523 -0.05840892646325158
1020000000.0 -0.09969570022536109 -0.0087989213573718
1040000000.0 -0.054310491278321 0.09564292460205837
1060000000.0 0.11389128668779702 0.09076256253155952
1080000000.0 0.1858664842660703 0.06100428272306268
1100000000.0 0.07460196756355125 0.22840471362235681
1120000000.0 0.2739460884619004 -0.043850842438893936
1140000000.0 -0.29817423271032334 -0.04045658182668402
1160000000.0 -0.31591230909781465 0.02760936347558601
1180000000.0 -0.31525080636504055 -0.11802491489941899
1200000000.0 -0.29477286400535485 -0.19151641527145216
1220000000.0 0.35558795038501334 -0.013683237657947284
1240000000.0 0.12236125020182585 0.35479607305730715
1260000000.0 0.3122170905012675 -0.2387259946990443
1280000000.0 -0.3046481649836846 -0.23669442198428461
1300000000.0 -0.2097629477587052 -0.3152876939858469
1320000000.0 0.005061366180707737 -0.3806834257953719
1340000000.0 -0.3715111643796266 -0.001800589283290079
1360000000.0 0.23475912088856782 0.3112218176134806
1380000000.0 -0.18850714837568566 0.35504379709503164
1400000000.0 0.010603328370223757 -0.39557028165642
1420000000.0 0.22242208625428528 -0.3238226847423822
1440000000.0 -0.21372649978565464 -0.33341710871388813
1460000000.0 -0.3799802441071665 -0.11045406475419925
1480000000.0 -0.18943884463939373 -0.34784908049880425
1500000000.0 0.08880145075403632 0.39014064048099334
1520000000.0 -0.37311771294794016 0.09861493204760141
1540000000.0 0.355879151098744 0.060680599974538355
1560000000.0 -0.1968393081692179 0.2648672564387933
1580000000.0 -0.25234379539324364 -0.14900212656241477
1600000000.0 0.02392847393343192 -0.25472844147737
1620000000.0 0.2000401579834713 -0.08491077403133132
1640000000.0 -0.18471457438282704 0.025680930700431787
1660000000.0 0.009837263001087651 0.15414736156841036
1680000000.0 0.11147528346776121 -0.02228093053296456
1700000000.0 -0.05084402995319271 -0.0893314251849806
1720000000.0 0.0663830044697448 -0.04775881785336102
1740000000.0 0.0685679117824777 -0.03552956566518438
1760000000.0 0.06602536843682624 -0.06348930662235601
1780000000.0 0.03795916645472931 -0.10895647650285771
1800000000.0 0.13822702826292674 0.02510347933312081
1820000000.0 -0.16376721678872094 0.04112764548866708
1840000000.0 0.19447204135589655 0.005341811301664261
1860000000.0 -0.20877989538650582 -0.07264677778245068
1880000000.0 -0.026290405749855975 0.25553138858221486
1900000000.0 0.048419759078219 0.26760828889316624
1920000000.0 0.2700849666143176 -0.11326059970690093
1940000000.0 -0.3048899909687928 -0.0031288634329310846
1960000000.0 0.29224622279777224 -0.09753742883336144
1980000000.0 -0.2931424967340946 -0.10831789364935325
2000000000.0 0.04199607998227629 -0.3184020604710872
2020000000.0 0.3127199738611835 -0.07584980355089144
2040000000.0 0.3210426477093024 0.018337308866048077
2060000000.0 0.25773607481395205 0.1877168680585682
2080000000.0 0.1080454454210555 0.2994277774369098
2100000000.0 0.11372784872216549 -0.29202745687307563
2120000000.0 0.14886637252818696 0.2659192845025581
2140000000.0 0.04260529840101327 -0.2977185143044657
2160000000.0 -0.2849359294260028 0.07854110522203456
2180000000.0 -0.0711726142960666 0.278222769477249
2200000000.0 -0.20716009222773127 0.19312398580735535
2220000000.0 -0.19998483751320442 0.19563397309638583
2240000000.0 -0.16908629801520855 -0.21677707312114708
2260000000.0 0.13228098447716305 -0.23658674597160068
2280000000.0 0.23664713898456008 -0.13283423137349437
2300000000.0 0.24964600405478157 0.06452773505119562
2320000000.0 -0.23875384045363443 -0.09290852607409869
2340000000.0 -0.13889901140237093 -0.21718751601376923
2360000000.0 0.14461193338150868 -0.21190367316693987
2380000000.0 0.05647802462736201 0.2526467770561391
2400000000.0 0.09691473507476212 0.2646858583088709
2420000000.0 0.09377809792964323 -0.28447528893559715
2440000000.0 -0.2608883448729629 0.17849898764912744
2460000000.0 0.276300349768353 0.1972333433249808
2480000000.0 0.23695450745850039 -0.28724436025497707
2500000000.0 -0.050938013288617724 0.40280462249563004
2520000000.0 -0.3275119854930075 -0.29832518343887365
2540000000.0 0.4733900016640688 -0.0554294803964896
2560000000.0 -0.34186972011706285 0.378143679485417
2580000000.0 0.15264699628220266 -0.5174896635573177
2600000000.0 -0.0015242527724256452 0.5666415867809873
2620000000.0 -0.13538501112434448 -0.5739275930512305
2640000000.0 0.29442573301124825 0.5317204538962819
2660000000.0 -0.581395649769175 -0.22806906511233113
2680000000.0 0.3908880932512467 -0.49887007493041147
2700000000.0 0.6091785453494566 0.2061367484491156
2720000000.0 0.25066539726869314 0.596912583538456
2740000000.0 0.04662890430903205 0.6466332685854403
2760000000.0 -0.08258138034113938 0.6408139278644012
2780000000.0 -0.5910962484133887 -0.24374647316310794
2800000000.0 -0.3672676298218138 -0.5098262500453364
2820000000.0 0.20698814643779032 -0.5799604214528414
2840000000.0 0.46167144490859485 0.38410066387725367
2860000000.0 -0.48638154651142823 -0.32727178884546804
2880000000.0 0.2561294187513189 0.5088914080283478
2900000000.0 0.3822727968228975 -0.3945699485627856
2920000000.0 -0.03645231246759204 -0.5258463685288028
2940000000.0 -0.3248386010515071 -0.3862437680765406
2960000000.0 -0.2844247580635987 -0.3864515746069128
2980000000.0 -0.21441137567796303 -0.4046794106986301
3000000000.0 -0.3518289357338715 -0.2639542808740327
3020000000.0 -0.42166018583474785 0.0030554604214760674
3040000000.0 -0.12914452287890438 0.3797776632638405
3060000000.0 0.3802030492221163 -0.03327231572092747
3080000000.0 -0.280746105848544 -0.23325692236603743
3100000000.0 0.23937248270340739 0.2568623245136498
3120000000.0 0.28210007743615584 -0.1990507019935814
3140000000.0 -0.1889197992718492 0.28152027669115764
3160000000.0 0.17050458646886008 -0.2914264683988727
3180000000.0 0.0641786076650911 0.327188069510063
3200000000.0 0.322000214764492 -0.06981307119669887
3220000000.0 -0.2272681512928864 -0.2323196086861533
3240000000.0 -0.3092751666677348 -0.061690254450402555
3260000000.0 -0.2907611572686858 0.09370974894580966
3280000000.0 -0.2945981390074892 0.004201392814423374
3300000000.0 -0.2776245252543329 0.018075980923173966
3320000000.0 -0.14191696476865728 -0.20977297734869046
3340000000.0 0.21527680906589383 0.08121483735781848
3360000000.0 -0.182747144194931 0.09806618274941391
3380000000.0 0.1281769447027741 -0.1385461841002447
3400000000.0 0.1317364172968597 0.10236493206779206
3420000000.0 0.0007060864246614796 0.1432502566220685
3440000000.0 -0.11034199181849225 0.06161539824873989
3460000000.0 -0.03304431226516226 0.1010435654475842
3480000000.0 0.08278778412336452 0.028177102016192362
3500000000.0 -0.0792795176682712 -0.007219617315093193
3520000000.0 0.030255872847063516 -0.07132781088374748
3540000000.0 0.06432470316765505 -0.044631209468363874
3560000000.0 0.008807724606056057 -0.08586478567194955
3580000000.0 -0.08821212085129744 0.02837733945521871
3600000000.0 -0.05817591165998863 0.0796253626507453
3620000000.0 0.014390460086865982 -0.10978958675688105
3640000000.0 0.09877842972283372 0.07625525765976565
3660000000.0 0.008105306980585914 0.13648318115152547
3680000000.0 0.06781605427370474 0.1236565550094728
3700000000.0 -0.07344832734153124 -0.11094378701941855
3720000000.0 0.10633586522531016 0.0552104936775962
3740000000.0 -0.04586859044469292 -0.09025495037241452
3760000000.0 0.05316155611984061 -0.06357219000911694
3780000000.0 -0.04624786124315648 -0.04372017422119737
3800000000.0 0.03373867869658779 0.006911041287945508
3820000000.0 0.0013296243217472536 0.0001838734746096196
3840000000.0 -0.021942460482373836 0.03004308815267326
3860000000.0 -0.007255681129737964 -0.06408884034346707
3880000000.0 0.08982711420738289 0.022063415965699492
3900000000.0 -0.09680062102982273 -0.05994844159241322
3920000000.0 -0.12231116581655997 0.03166893883783887
3940000000.0 -0.1340071033145859 0.019537048699221075
3960000000.0 -0.13877228901776942 0.017695349123274313
3980000000.0 0.1081873623710134 -0.07870330923952713
4000000000.0 0.08166351177638766 -0.07679558760431357
