!Created with skrf (http://scikit-rf.org).
# Hz S RI R 50.0 
!freq ReS11 ImS11
400000000.0 0.8325755183108143 -0.27856310546528174
420000000.0 0.7773337575043584 -0.2924584583118094
440000000.0 0.42476339940103414 -0.6443564109395773
460000000.0 0.2392841741827034 0.6537907160372319
480000000.0 0.29751937077493734 -0.508063941490102
500000000.0 0.4002337672411428 0.4834004118592401
520000000.0 0.31680010205756093 -0.5593691375311894
540000000.0 0.2174684273761323 -0.5644511423940188
560000000.0 0.6013136977812059 -0.1567973716991109
580000000.0 0.4286093256215221 0.29480838284695904
600000000.0 -0.18892045268545057 0.5674633442985106
620000000.0 -0.3848049654734314 -0.4664993047312174
640000000.0 -0.25869693112777103 -0.4990463635336165
660000000.0 -0.06674969671219738 0.5143343282191606
680000000.0 0.2560486741327325 -0.40720052265511864
700000000.0 0.48256208374074444 0.10355181890728417
720000000.0 0.45050196649139973 0.20398813442140537
740000000.0 0.13837081595029652 0.455086686206244
760000000.0 -0.13800077255707444 0.43841191993667183
780000000.0 -0.4417457673028095 0.08414331890225783
800000000.0 -0.02682627138172216 -0.4022047740249469
820000000.0 0.2889964111351379 0.21440261513999057
840000000.0 -0.3249253640648012 -0.07531312163890337
860000000.0 0.3024261676483913 -0.07291851776201759
880000000.0 0.25411164148837734 0.12913218631025228
900000000.0 0.21492547656641264 0.1665763876674153
920000000.0 0.11402463736971485 -0.22811703238885572
940000000.0 0.048901390124059134 -0.21843386770501752
960000000.0 0.09997481500804332 -0.1313655197498881
980000000.0 -0.13463779580676963 -0.017101843099019413
1000000000.0 0.13376091040376528 0.01711652733724598
1020000000.0 0.11258309713196699 0.007437443040443959
1040000000.0 0.10956805758470899 0.07200090032633705
1060000000.0 -0.027268699040783953 -0.15205052070764566
1080000000.0 -0.15896530357122385 0.1261423643772138
1100000000.0 -0.17447664268443336 -0.1727132535221956
1120000000.0 -0.11832986061270354 -0.25424248703598235
1140000000.0 -0.09875400100717358 0.2922589208933219
1160000000.0 0.20594789720768758 0.25855966674622116
1180000000.0 0.03383452931182785 0.3352903359440659
1200000000.0 -0.35442615843287895 -0.030849531057752674
1220000000.0 0.16581319651419069 -0.3285417128700234
1240000000.0 0.3653951980284837 -0.09396800573967157
1260000000.0 -0.005712395920194809 -0.39439057050366316
1280000000.0 -0.3206763766487629 0.20329681269467673
1300000000.0 0.11129031823020351 -0.34769488279270977
1320000000.0 0.32534316973275457 -0.1912322126287173
1340000000.0 -0.3573004207102271 0.08622791940320866
1360000000.0 0.3227840715145653 0.20908624767112985
1380000000.0 -0.16794080231468622 0.3545822717642877
1400000000.0 -0.05114593583231943 -0.3793628152505778
1420000000.0 0.3056574682182178 -0.23314679246209663
1440000000.0 -0.10464270773238403 -0.37443204520907614
1460000000.0 -0.24651173801101658 -0.29628567031608144
1480000000.0 -0.2173956801882061 -0.32399388589417283
1500000000.0 -0.29885063192698585 0.2556090241565971
1520000000.0 0.10300100811045679 -0.3709651293856935
1540000000.0 -0.03650845418843516 0.3594278645753976
1560000000.0 -0.23082242518188095 -0.2370736836943914
1580000000.0 0.2922956772385016 0.024551923867037095
1600000000.0 0.2623951237192726 -0.012290002878296452
1620000000.0 0.10406498310474342 0.1848108184956259
1640000000.0 -0.005695044252921492 0.1889255092485381
1660000000.0 -0.0022353715654682546 -0.1587666112003561
1680000000.0 -0.06549205151329109 -0.10153958064170757
1700000000.0 0.10515195841721847 0.05576777288708751
1720000000.0 0.06496533925464562 -0.06816901993935551
1740000000.0 -0.017346484744286152 -0.0786313659618451
1760000000.0 -0.0018897970962013478 0.09187376706950418
1780000000.0 -0.09526407872397175 0.05503753189850243
1800000000.0 0.08311005733295863 0.09819456856642475
1820000000.0 0.11463393132544489 0.10981464854128101
1840000000.0 0.03313792293020292 -0.1900401257809282
1860000000.0 0.032686371906570574 0.21397730228080653
1880000000.0 0.22141317826755624 0.12342847774354816
1900000000.0 0.26489775950845446 -0.06110380051021649
1920000000.0 0.04545588675879155 -0.2885263901904408
1940000000.0 -0.30188294875776966 0.050558665747023404
1960000000.0 0.19507555586486403 -0.2403886778050386
1980000000.0 -0.3113360999874414 0.023395290462840106
2000000000.0 0.14001468988001828 -0.28815460439995183
2020000000.0 0.26237432519643317 -0.19247533508205097
2040000000.0 0.3175608469981909 -0.05864638856063744
2060000000.0 0.25065368742487154 0.19936392826788887
2080000000.0 0.015319394393233047 0.3266464101295901
2100000000.0 -0.0840308506598153 -0.31245495550478325
2120000000.0 0.2816120728874272 0.15105016322039477
2140000000.0 -0.265023331982575 -0.1809308243074201
2160000000.0 0.14717262681973883 0.2814471748958464
2180000000.0 0.2599795702809063 -0.1689800584052863
2200000000.0 0.2121833373069624 -0.21883777266144414
2220000000.0 0.05051513315175929 -0.29368463081650104
2240000000.0 0.2892860398906725 -0.023057868624440335
2260000000.0 0.10975154614955909 0.254476334213172
2280000000.0 -0.1632751603774102 0.21085926072692474
2300000000.0 0.0315259904389117 -0.24719766426849485
2320000000.0 -0.19386391152740573 0.15196528312502022
2340000000.0 -0.04269760243364874 -0.2406790533159045
2360000000.0 0.08377672077859784 0.2277193308501318
2380000000.0 -0.03582458750147377 -0.25282824893367983
2400000000.0 -0.2787267772629313 0.05088722767636072
2420000000.0 0.2847245069518778 0.10289452796730438
2440000000.0 -0.220864607748373 -0.24049306996877073
2460000000.0 0.07363199710604469 0.3484193838739295
2480000000.0 0.21454486844678253 -0.32804440383235034
2500000000.0 0.3003983400786081 0.3036933350647907
2520000000.0 -0.4397517840893347 0.14542614109267704
2540000000.0 0.25413017959565853 -0.4242696103251625
2560000000.0 0.05625286858203722 0.5224615590794197
2580000000.0 -0.20198445654322464 -0.5141038200550202
2600000000.0 0.3373512514594466 0.4664486430568915
2620000000.0 -0.36938380503320295 -0.4672968853898509
2640000000.0 0.47358714751110564 0.3852498839030659
2660000000.0 -0.6233283215107686 0.04940304620872831
2680000000.0 0.10154920596614864 -0.6259223110565278
2700000000.0 0.6207613185865881 -0.1649369974863433
2720000000.0 0.6192628283993091 0.18893276807675177
2740000000.0 0.6082699430648423 0.22674542462615202
2760000000.0 0.5687220121549302 0.3143263114502047
2780000000.0 -0.5017912963624026 0.40346107836964956
2800000000.0 -0.6203137897507486 0.13238930778328736
2820000000.0 -0.3925152696582288 -0.4839959075568363
2840000000.0 0.5540145353204027 -0.25529681054870323
2860000000.0 -0.4498027477309141 0.38823717563185817
2880000000.0 0.5411208827402353 -0.18759693998052243
2900000000.0 -0.23722781771849538 -0.4985138712669246
2920000000.0 -0.5160018586030505 0.11355612614393125
2940000000.0 -0.25101812838046955 0.43052189834826743
2960000000.0 -0.3321734548916201 0.3364800176291715
2980000000.0 -0.30434264146432105 0.328750436080016
3000000000.0 -0.16130070603062371 0.39475215990300694
3020000000.0 0.10122735919835212 0.39108361654953133
3040000000.0 0.2864090603487458 0.2544163019259021
3060000000.0 0.2700003661008467 -0.25099717774229735
3080000000.0 -0.3320888433442927 -0.1333443326599541
3100000000.0 0.24360137618710842 0.246800453232257
3120000000.0 0.24667058005151143 -0.23782320828211434
3140000000.0 -0.3341999737977071 0.07705371210325208
3160000000.0 0.34125429675968366 -0.02909139357229398
3180000000.0 -0.34014076388106823 0.049024331561255304
3200000000.0 0.07019812261005973 0.33550092842237106
3220000000.0 0.257821681942438 -0.2207598534560668
3240000000.0 0.0882514581673748 -0.3229717673719963
3260000000.0 -0.2028456955013753 -0.2567794418062576
3280000000.0 -0.31663405341253914 0.013055041623654342
3300000000.0 -0.18719260749197586 0.23350278195497878
3320000000.0 -0.041512654710049224 0.2689286956808153
3340000000.0 -0.24563461327087727 0.0461034676286477
3360000000.0 -0.19444725895512194 0.10627213081485527
3380000000.0 -0.07406401933259314 -0.17830360381515445
3400000000.0 -0.004682635522886146 -0.16858497190041172
3420000000.0 -0.03121561983056419 -0.1399610240727643
3440000000.0 0.04582223218787529 -0.10969708971881971
3460000000.0 0.09208989965035999 0.026830147685873714
3480000000.0 -0.07818862899556314 -0.009341901284270789
3500000000.0 0.013400604584866424 -0.07180490806199465
3520000000.0 -0.0005535946301418881 -0.0709571931651756
3540000000.0 -0.02606607741525345 0.0733984943637025
3560000000.0 -0.08290877825600153 -0.009576483603870894
3580000000.0 0.05943503893733468 0.07471112639398074
3600000000.0 -0.0031722564137299457 -0.10273975365327843
3620000000.0 0.11620728960820222 0.025014300861549457
3640000000.0 -0.01738045765908669 -0.13221163485798013
3660000000.0 -0.11108780258674406 -0.09550931909319904
3680000000.0 0.14295979566706069 0.05108731321986653
3700000000.0 0.08449695932028994 0.11665418309860022
3720000000.0 0.12516059076881728 -0.035073108657899116
3740000000.0 0.10357607628414531 -0.013776993969589523
3760000000.0 -0.006272972264325122 -0.0803973199724696
3780000000.0 0.04682534723841747 0.03663256686847246
3800000000.0 0.0035044523568358707 0.02720096063038204
3820000000.0 0.009137737346681093 -0.004946020638220498
3840000000.0 -0.045278869100491316 0.015843452162335545
3860000000.0 0.02417623241403744 0.07571542731759053
3880000000.0 -0.07639612187079646 -0.07435729140559065
3900000000.0 0.11680342970247236 0.0559951037674623
3920000000.0 -0.13234992564999712 -0.05791944580399835
3940000000.0 -0.006834649275298516 0.15208467575103762
3960000000.0 0.13223146533122723 -0.08692101371417714
3980000000.0 0.13938943025941072 0.05670498683684404
4000000000.0 -0.12763894804277376 -0.0033128710647353098
