!Created with skrf (http://scikit-rf.org).
# Hz S RI R 50.0 
!freq ReS11 ImS11
400000000.0 0.7654703692141043 0.41588953222506814
420000000.0 0.27565354326065733 0.7683695401748869
440000000.0 0.4495373351529014 0.6137797723387788
460000000.0 -0.5439296972109962 -0.4177434331733379
480000000.0 -0.048539168346837566 -0.6168207315780486
500000000.0 0.6486979957130433 -0.08626788710237694
520000000.0 -0.17205160652160043 0.6486768334031701
540000000.0 0.6311834070653122 -0.23898542999905598
560000000.0 -0.26751179619290355 0.6109003916738118
580000000.0 -0.42849982061553893 0.29907698930236465
600000000.0 -0.061488184054177074 0.5917216983321664
620000000.0 -0.48715260592417137 -0.37093956640417547
640000000.0 -0.3934276889899012 -0.4078252607618747
660000000.0 0.36991469462591287 0.38044612603358596
680000000.0 -0.03904662940104525 0.482197249251722
700000000.0 0.30907297763015046 0.33683181205790813
720000000.0 -0.4020260536319215 0.280626790883416
740000000.0 0.4438077413273589 0.17310052700049688
760000000.0 0.20359909714910243 0.39901389590658654
780000000.0 -0.3959014713287975 -0.15865246845157055
800000000.0 0.09850370542682263 -0.3852257533448892
820000000.0 0.13904264490266738 0.32199149061706994
840000000.0 0.00965212154907035 0.3279523357289111
860000000.0 -0.13294946949809391 -0.2695706266073551
880000000.0 0.25201912374725044 0.07588313014752769
900000000.0 -0.23264780658762385 0.1310029277074985
920000000.0 0.07803255697440145 0.24657243274960733
940000000.0 0.1862370205003957 0.1374744784281351
960000000.0 -0.14357034654721104 0.1097296137860721
980000000.0 -0.05102215568669535 0.13006534216327512
1000000000.0 -0.04501040610228652 0.12355873516674712
1020000000.0 0.012112580129853303 -0.09960762081277656
1040000000.0 -0.07699119532418246 -0.08018682446860938
1060000000.0 0.14764856070866075 -0.01650461630006529
1080000000.0 0.1752668001837587 -0.08025650038051804
1100000000.0 0.19943779598957326 0.12344816724458095
1120000000.0 0.26565752065765635 0.08791303936794785
1140000000.0 -0.28889083899157036 0.08908504459885155
1160000000.0 -0.27279662848398184 0.15351859044955923
1180000000.0 -0.2727465878246273 -0.20092575033774257
1200000000.0 -0.35078243907554074 -0.03426204243408617
1220000000.0 0.3309852454653679 0.12756148035633533
1240000000.0 0.2204541444910325 0.30608573062046385
1260000000.0 0.31567282793578394 -0.23496893121962212
1280000000.0 -0.35503789098629607 -0.13934098835497974
1300000000.0 0.04462707420005304 -0.3779152126147936
1320000000.0 -0.025343458024626835 -0.38253442900420254
1340000000.0 -0.3299535955276517 0.16369014675456373
1360000000.0 0.18684859832421413 0.3394485753558322
1380000000.0 -0.27296268274847435 0.29310234139830416
1400000000.0 0.02173642071423842 -0.3956686380028862
1420000000.0 -0.07545779418242343 -0.38512720588101207
1440000000.0 -0.24692055064691157 -0.3091259098791902
1460000000.0 -0.39253769150303025 -0.043155798605548884
1480000000.0 -0.31192984623794057 -0.2435725142475999
1500000000.0 0.25917992358278363 0.30834155238111144
1520000000.0 -0.38470557041930337 0.028755532424134922
1540000000.0 0.35874306244386633 0.04393773816433722
1560000000.0 0.013211641878160523 0.3313139871404606
1580000000.0 -0.18412988268267075 -0.22695420596578947
1600000000.0 0.15578321373257775 -0.2035026909092395
1620000000.0 0.16987810878111828 -0.13663399291278022
1640000000.0 -0.09397108672429022 0.15922367072227853
1660000000.0 -0.10874897671647858 0.10695661553176183
1680000000.0 0.0788223900798563 -0.08037004597706056
1700000000.0 -0.07526387680169548 0.07150221081152652
1720000000.0 0.0715342224784865 -0.03358718499419138
1740000000.0 0.0735934627628535 0.030603732309133477
1760000000.0 -0.05131168352302255 -0.07254086395805126
1780000000.0 0.09047913147208914 -0.07370669861419958
1800000000.0 0.139022906592583 0.005068670046050343
1820000000.0 -0.1694821200097454 0.0010405970160837312
1840000000.0 0.1640482305088629 -0.10700660413577327
1860000000.0 -0.22187144963056762 -0.016019236461257132
1880000000.0 -0.021134899887822203 0.25374375295251334
1900000000.0 0.08430245141452711 0.2605720773013463
1920000000.0 0.245075484509361 -0.16746428176664335
1940000000.0 -0.29731806075872474 0.06416815616821232
1960000000.0 0.2989543574986164 -0.06922077678727527
1980000000.0 -0.25762552326495186 -0.18283853789365936
2000000000.0 -0.019297529701979198 -0.3218448317664326
2020000000.0 0.3032147695096364 -0.10075910856548746
2040000000.0 0.2862891275792454 0.1476283142042237
2060000000.0 0.3181259706940495 0.018255333286008077
2080000000.0 0.1419052409850824 0.2814616460365997
2100000000.0 0.16142944549243796 -0.2688219812708955
2120000000.0 0.29290243877415506 0.09284463010911018
2140000000.0 -0.1264542440106444 -0.26946332165981896
2160000000.0 -0.275589344566801 0.10828151654212259
2180000000.0 -0.03828859444454942 0.2868970133868342
2200000000.0 -0.04535006982786585 0.2794886955473014
2220000000.0 -0.19581604824854978 0.20345013303423545
2240000000.0 -0.22320294429938678 -0.1641569817398345
2260000000.0 0.10024619448940988 -0.25143528413308924
2280000000.0 0.27076296390439847 0.029259217508446223
2300000000.0 0.22735283079900107 0.12566895020559488
2320000000.0 -0.23951365597068938 -0.0923047132118219
2340000000.0 -0.08888736961603608 -0.2384507643667786
2360000000.0 0.2501948940327858 -0.05017055522101864
2380000000.0 0.13385879207976373 0.22178795844975532
2400000000.0 0.16847346354044976 0.2228910035643533
2420000000.0 0.10476430594091325 -0.2775517380438355
2440000000.0 -0.18527465194988033 0.25734598776200446
2460000000.0 0.33409467336967164 0.03506779314436378
2480000000.0 0.21357520038332345 -0.30554115601601944
2500000000.0 0.18335784303872185 0.3648767929833523
2520000000.0 -0.4264113104435283 -0.12240677026620822
2540000000.0 0.4742619956425056 -0.049839070300365856
2560000000.0 -0.3502147566941389 0.3726882604270186
2580000000.0 0.1526173595127255 -0.5188167279722242
2600000000.0 -0.017287310956579403 0.5658940371902955
2620000000.0 -0.08501588895844771 -0.5833432747837978
2640000000.0 0.27232104168784255 0.5423683334524171
2660000000.0 -0.572486971232257 -0.24399674444278047
2680000000.0 0.38113766857638565 -0.5045437426681688
2700000000.0 0.6014710991665768 0.22347918388272434
2720000000.0 0.3619091451617025 0.535419080625157
2740000000.0 0.29852165393417424 0.5739255157785821
2760000000.0 0.19665412356919787 0.6159247041615749
2780000000.0 -0.6253641249469056 -0.13559628068034021
2800000000.0 -0.4596457923361733 -0.4301480083812201
2820000000.0 0.16178422917360527 -0.5946050987701149
2840000000.0 0.42626090731831673 0.4252596505524726
2860000000.0 -0.49163828812714966 -0.3223924937931047
2880000000.0 0.26582365886070825 0.5023677032622327
2900000000.0 0.48675769100296906 -0.2529167435425004
2920000000.0 0.05992588992517115 -0.5255531525711975
2940000000.0 -0.39415461942910907 -0.31166847692287936
2960000000.0 -0.19836674702245427 -0.4346094045866878
2980000000.0 -0.2504411168342453 -0.3837954254978322
3000000000.0 -0.371507164452829 -0.23198384425556046
3020000000.0 -0.3962457535425321 0.13658089635519086
3040000000.0 0.10345820271288794 0.38641501867585776
3060000000.0 0.3386165141247964 -0.1736675598015073
3080000000.0 -0.3429019670630301 -0.12734078240153393
3100000000.0 0.32932637185880786 0.12181242344692514
3120000000.0 0.2884105976463885 -0.19039306000761805
3140000000.0 -0.18330271317382046 0.2854891607199534
3160000000.0 0.10271742329923525 -0.32185645452649936
3180000000.0 0.07576581284703326 0.3265405107464921
3200000000.0 0.32505788888527937 -0.0503006213569915
3220000000.0 -0.20801363730244157 -0.24936201534688396
3240000000.0 -0.2898539818439833 -0.12637180396232028
3260000000.0 -0.29690187947506114 0.07085400119545801
3280000000.0 -0.2936814617348839 -0.004282955652770233
3300000000.0 -0.2744175668609118 -0.036609585146208254
3320000000.0 -0.15832879216827347 -0.1976062933229985
3340000000.0 0.20796123776601644 0.09493512887628366
3360000000.0 -0.18875806753352317 0.08645046203419134
3380000000.0 0.08179812423082763 -0.1677391557599774
3400000000.0 0.12668346157546645 0.10741730512828324
3420000000.0 0.10657147595988031 0.09513111123440907
3440000000.0 -0.07223066119341975 0.102762032410404
3460000000.0 0.06390176403442105 0.08513582729283972
3480000000.0 0.06185933452627728 -0.06247573640815293
3500000000.0 -0.05318174538995963 0.06020456686131258
3520000000.0 -0.035824501907496635 -0.0698583574944741
3540000000.0 0.05099697648027882 -0.06122756619731519
3560000000.0 0.06078724846776822 -0.06343631710360535
3580000000.0 -0.0923051987539613 0.014165875380993363
3600000000.0 -0.09327861464811524 -0.03359051349589909
3620000000.0 0.11032922893313449 -0.014932737503954756
3640000000.0 0.10020113591882537 0.07389917196826568
3660000000.0 0.00047555403257644934 0.1336202113288401
3680000000.0 -0.06187163812164153 0.1249874866823189
3700000000.0 -0.10041227542652581 -0.08586107366820743
3720000000.0 0.08626872068325948 -0.08043159842408774
3740000000.0 -0.08680981377370162 -0.04765009679844363
3760000000.0 -0.025698650014784916 -0.0782244304590846
3780000000.0 -0.05508362350848599 0.033801375396465765
3800000000.0 -0.00792048285909776 0.03375265675061933
3820000000.0 -0.0015080293021267745 0.00043171577486936826
3840000000.0 -0.011544688405627893 -0.0331672102177933
3860000000.0 -0.015183936123089518 -0.06106849038988212
3880000000.0 0.0813938767404019 -0.03816925282125703
3900000000.0 -0.08883973260240033 -0.06744515094900706
3920000000.0 -0.09382317300288227 0.08371816995342038
3940000000.0 0.017807121687343302 0.13349079128805705
3960000000.0 -0.038333051217409486 0.1325214125217916
3980000000.0 0.12007125554225864 -0.059271695795109956
4000000000.0 -0.09524050206830872 -0.06401423888005445
