!Created with skrf (http://scikit-rf.org).
# Hz S RI R 50.0 
!freq ReS11 ImS11
400000000.0 0.7490568428094824 0.44523928883502734
420000000.0 0.2998780904629096 0.7600192955881908
440000000.0 0.3771902665806677 0.6605593204155426
460000000.0 -0.6239617879070439 -0.28408593331545884
480000000.0 -0.0975238012202886 -0.6110235220487945
500000000.0 0.6148048789047528 -0.22938197169070876
520000000.0 -0.5292774869862422 0.4117915664807481
540000000.0 0.5781469904790572 -0.3593855676489053
560000000.0 -0.28535569276048445 0.6024366894277207
580000000.0 -0.40706193105120764 0.3192512255688936
600000000.0 -0.17501303025477555 0.571178956918491
620000000.0 -0.5355408747898351 -0.30057863583593064
640000000.0 -0.4896775798131584 -0.28713497626579887
660000000.0 0.2448758833862963 0.46580799411253404
680000000.0 0.08116941674292498 0.48420544778549723
700000000.0 0.3920223078075723 0.22649845539992866
720000000.0 -0.27593884100241317 0.40802360356859213
740000000.0 0.44113835662399636 0.1657419951341516
760000000.0 -0.04938037600484244 0.44111457876409726
780000000.0 -0.41880852803624535 -0.10770885958851913
800000000.0 0.131943056381145 -0.3753301647678013
820000000.0 0.34266735714828983 0.0815904956913793
840000000.0 0.029575312189098927 0.32136282464441496
860000000.0 0.23126212614439265 -0.1850155875805199
880000000.0 0.08945422756720618 0.25852688157697956
900000000.0 0.12455612664301656 0.2399111442955088
920000000.0 0.2456882843585665 -0.07631721001812224
940000000.0 -0.09587138922821124 0.20361928870804483
960000000.0 -0.1790246230438649 0.03391977485729872
980000000.0 -0.12935501393722618 0.06665536678031637
1000000000.0 0.08004184293006196 0.09825735519818721
1020000000.0 0.024575603919025316 -0.09622437947510351
1040000000.0 -0.11496086547098203 -0.018383276708837725
1060000000.0 -0.017728887020122982 -0.1453183520576015
1080000000.0 0.18604308307214806 -0.05561317124903245
1100000000.0 0.029457037966601148 0.23707806639866924
1120000000.0 0.24258939705780777 -0.13339742546001349
1140000000.0 -0.3008863273535023 -0.03492241298929057
1160000000.0 -0.2940305675401438 0.12157942861000984
1180000000.0 -0.29883311814963875 -0.15314319923593908
1200000000.0 -0.3036119620775934 -0.17936705599491456
1220000000.0 0.353086751757228 0.028545267306257244
1240000000.0 0.18128984803945145 0.3294255823019995
1260000000.0 0.35988599583723746 -0.16022208118014164
1280000000.0 -0.3827880209186726 0.02839824267345643
1300000000.0 0.023466081512098703 -0.3780945383596104
1320000000.0 -0.025389167461151482 -0.3821134795700186
1340000000.0 -0.351769730782822 0.1113134683046778
1360000000.0 0.1637904837309067 0.35324896592149285
1380000000.0 -0.17291802949668084 0.3614831632430262
1400000000.0 -0.04152777270774045 -0.39554009448221794
1420000000.0 0.08910451099791108 -0.38218073738194897
1440000000.0 -0.1965583368080745 -0.3428594245094691
1460000000.0 -0.3820423686388588 -0.1040012454429969
1480000000.0 -0.34853284487442243 -0.1883173673920156
1500000000.0 -0.02039231357125845 0.39944066184899685
1520000000.0 -0.38651119876738 0.02116642916792767
1540000000.0 0.3530269282302417 -0.07563687130275362
1560000000.0 -0.23051347947924755 0.23371089124614278
1580000000.0 -0.19576901184079343 -0.21798211751911312
1600000000.0 0.031971179486272296 -0.25538606656905505
1620000000.0 0.1562008800640851 -0.15293983202714387
1640000000.0 -0.16113001565801824 0.09115847671588305
1660000000.0 -0.10320304412550527 0.11614947181242156
1680000000.0 0.11305903076816501 -0.013927944581548434
1700000000.0 -0.10005465452423498 -0.029146865675865944
1720000000.0 0.07220943051992364 -0.032463754097892754
1740000000.0 0.07472259863956038 0.03027140361876742
1760000000.0 -0.03580705857426927 -0.0820625086335489
1780000000.0 0.10651179880469927 -0.04720033630891207
1800000000.0 0.13599577304269006 -0.035325536798263515
1820000000.0 -0.16851316259614071 -0.001918654692488802
1840000000.0 0.19587974153911197 0.0014562510521181223
1860000000.0 -0.21641057296119778 -0.04227662833812247
1880000000.0 -0.06806551157303893 0.24632901605858928
1900000000.0 0.0352365916956128 0.2714089339835706
1920000000.0 0.14613626534196858 -0.25486522476307333
1940000000.0 -0.29991152111024855 -0.04885565870341944
1960000000.0 0.2995746981354884 -0.06879051529787643
1980000000.0 -0.30689608994573525 -0.06822070846597919
2000000000.0 -0.048807381742893736 -0.3161494718594889
2020000000.0 0.3115145304725694 -0.07664707123981156
2040000000.0 0.31421726676075534 0.07477580687234156
2060000000.0 0.31664728325619956 0.035366009818489204
2080000000.0 -0.004327638405365049 0.31749770738619215
2100000000.0 0.1436005957320639 -0.2794041611073761
2120000000.0 0.22777123682273698 0.20376584676442838
2140000000.0 0.05499508721198219 -0.2945974312298609
2160000000.0 -0.26830642456653175 0.1254933938803633
2180000000.0 -0.030815031882576924 0.2870395532400869
2200000000.0 -0.1619148317045813 0.22958654571125092
2220000000.0 -0.23024440116458608 0.16355224080537026
2240000000.0 -0.23344686567904466 -0.1474776331791689
2260000000.0 0.07191628660083713 -0.25962740488921204
2280000000.0 0.26428598117504193 -0.05765680913149532
2300000000.0 0.2427355031226159 0.0935254625940848
2320000000.0 -0.25613376218650474 0.021014058251410436
2340000000.0 -0.1435484940310575 -0.21116863297248906
2360000000.0 0.22952623320790305 -0.11267159726036383
2380000000.0 0.07534066759648923 0.24899025602086597
2400000000.0 0.17518432367704528 0.2202078670272749
2420000000.0 0.07985810116446718 -0.2877079289736249
2440000000.0 -0.2692830370214301 0.16540011790522982
2460000000.0 0.29475967558617944 0.1662000944474091
2480000000.0 0.2600295475005627 -0.2678445978665725
2500000000.0 0.05990743253403309 0.40213407831359244
2520000000.0 -0.3752773663789826 -0.2357560047564209
2540000000.0 0.4760282157748713 -0.017540097165988273
2560000000.0 -0.34472002111259703 0.3759745118793803
2580000000.0 0.20117027703987272 -0.500616418126121
2600000000.0 -0.01344439819257938 0.5662534283736878
2620000000.0 -0.1540234160463106 -0.5689140134484826
2640000000.0 0.26756318169214316 0.5454765627635314
2660000000.0 -0.5768955082682703 -0.2384812506594917
2680000000.0 0.40613894902707537 -0.4872589671813254
2700000000.0 0.5864026493579265 0.2634844430768035
2720000000.0 0.2720030054228455 0.5874940875390221
2740000000.0 0.07255300202246474 0.6442724346082618
2760000000.0 0.09185415841297785 0.6408226340926699
2780000000.0 -0.5590914139543492 -0.3098709050121553
2800000000.0 -0.3395802147121706 -0.5290355535630686
2820000000.0 0.19715427520717643 -0.5838356801988925
2840000000.0 0.44812291375002783 0.4014155232406496
2860000000.0 -0.4719119031625944 -0.34829322393309203
2880000000.0 0.2234249469877691 0.5245455173025947
2900000000.0 0.3839435933310952 -0.39279802172931333
2920000000.0 0.004646090613190016 -0.527590820489691
2940000000.0 -0.3409834444561028 -0.3732845582117158
2960000000.0 -0.2397285443870907 -0.4167769657685027
2980000000.0 -0.3113377382737506 -0.33580756235969655
3000000000.0 -0.2940769265122169 -0.3267880916253896
3020000000.0 -0.4189599334569297 0.05403493896789654
3040000000.0 0.03685702458278495 0.39920265554965
3060000000.0 0.3772557134112814 -0.05154303914596617
3080000000.0 -0.2810558972226487 -0.23406608471641938
3100000000.0 0.2999908307258996 0.18205942759328939
3120000000.0 0.30744040018985397 -0.15429940788232538
3140000000.0 -0.20350357498217206 0.2730012777945873
3160000000.0 0.0595321736724599 -0.3323755056068865
3180000000.0 0.0984665465522219 0.31957395275850553
3200000000.0 0.3228340165683411 -0.06522107669764103
3220000000.0 -0.25891878203096785 -0.19701523410901753
3240000000.0 -0.3155227448034195 -0.009965085026690182
3260000000.0 -0.28537274625729303 0.10933867320753922
3280000000.0 -0.2949449333628459 -0.01766149707668687
3300000000.0 -0.2777650451626177 0.018493274382557157
3320000000.0 -0.16474817107196388 -0.19423798011468588
3340000000.0 0.21926387800069363 0.06654086695940672
3360000000.0 -0.20339290796822768 0.04794468826887079
3380000000.0 0.11633404493895104 -0.14858862497703593
3400000000.0 0.11191142002556133 0.12354138441065614
3420000000.0 0.0322741038582231 0.13992830708117115
3440000000.0 -0.10023974835322176 0.07620033318766492
3460000000.0 -0.05904357196688049 0.08841725623299743
3480000000.0 0.08772234108405719 0.0073455262860303155
3500000000.0 -0.029171371413497377 0.07357689109406172
3520000000.0 0.01811388758459208 -0.07479236026551256
3540000000.0 0.044274267557813565 -0.06407019055302247
3560000000.0 0.05262194963569139 -0.07033309411984799
3580000000.0 -0.05147773196762662 0.07825334742515407
3600000000.0 -0.07992712279517925 0.05689457541210725
3620000000.0 0.04470725246797331 -0.10165242079434582
3640000000.0 0.11201163447429346 0.05826245575559537
3660000000.0 0.05464735642007516 0.12444334009912679
3680000000.0 -0.011491504854415715 0.14059540500607104
3700000000.0 -0.10312777764814948 -0.08526956401566198
3720000000.0 0.11854710085298784 0.01533876059515923
3740000000.0 0.009826914360996763 -0.1012967583987178
3760000000.0 0.03444149851272759 -0.07575484670355322
3780000000.0 -0.03912485999803789 -0.05048367896585667
3800000000.0 0.03306732039147461 0.006908687054227718
3820000000.0 0.0011209949062469546 0.0021645848439467165
3840000000.0 -0.03644145426110457 0.0006917226411667305
3860000000.0 0.026455132200148612 -0.060434401934848704
3880000000.0 0.08576325286519479 -0.03607458176226161
3900000000.0 -0.10323811579198688 -0.04709295861130377
3920000000.0 -0.1247570258440669 -0.017281472384285044
3940000000.0 -0.1360638970555047 0.016044160957812713
3960000000.0 -0.10967719552625639 0.08850303841216373
3980000000.0 0.10370498652989603 -0.08301198188951778
4000000000.0 0.1128031162015119 -0.00042578441437106433
