!Created with skrf (http://scikit-rf.org).
# Hz S RI R 50.0 
!freq ReS11 ImS11
400000000.0 0.7684922071535141 0.4119171176968952
420000000.0 0.1837245547752888 0.7962012517452957
440000000.0 0.4295494451339011 0.6270544162936356
460000000.0 -0.6278661861769476 -0.27258982712137064
480000000.0 -0.19444404648347438 -0.5898626935576694
500000000.0 0.6271698659004259 -0.17773869731169722
520000000.0 -0.5536466178693795 0.3824796063632412
540000000.0 0.5635722360132553 -0.3889317745337016
560000000.0 0.011739240523101869 0.6632382765156591
580000000.0 -0.507812883423392 -0.10361096632155624
600000000.0 -0.10953985071000172 0.5856566283503433
620000000.0 -0.6053336661482573 -0.10640782906677482
640000000.0 -0.4221821990495734 -0.378792079505262
660000000.0 0.29743122370999603 0.43557238607216037
680000000.0 -0.2386758288993364 0.4282118222825299
700000000.0 0.4396111948071271 0.1169649245569583
720000000.0 -0.3388278191929044 0.35407716873905304
740000000.0 0.34159011666580597 0.32623272179006635
760000000.0 -0.025989166910180463 0.4441939609034247
780000000.0 -0.43033767963854974 0.017276335198446468
800000000.0 0.2119172484264999 -0.33622387331546494
820000000.0 0.3088347533714224 0.17501047318559185
840000000.0 0.005325157179832763 0.3222790345623369
860000000.0 0.10360547205352702 -0.2770397558566284
880000000.0 0.02728648012135733 0.2688116174020552
900000000.0 -0.1287011537247952 0.24045017906059757
920000000.0 0.24517126221309055 -0.07446672376549646
940000000.0 -0.04472055976736483 0.22156403666074245
960000000.0 -0.17556459156333032 0.040563834988216085
980000000.0 -0.06789798745030567 -0.12540684293175894
1000000000.0 -0.04043920728235676 0.12163923740851813
1020000000.0 -0.07120815881504704 -0.07606022554761788
1040000000.0 0.11354399935899623 0.011005399767580405
1060000000.0 0.14125398155444335 -0.003805953360737362
1080000000.0 0.1826166416955266 0.07294910608269098
1100000000.0 0.08532948076082641 0.22454858196074784
1120000000.0 0.27094433343986407 -0.059460240399739545
1140000000.0 -0.26498249328911705 -0.1423441013433225
1160000000.0 -0.2616010923927579 0.1830231555929533
1180000000.0 -0.2692489982880093 -0.20152129358602844
1200000000.0 -0.3125165484664002 -0.15862809151491825
1220000000.0 0.3537002950200977 -0.038951704418238975
1240000000.0 0.19039018404239394 0.32508484160232326
1260000000.0 0.3438203364232883 -0.1925450738633605
1280000000.0 -0.3766193491479992 -0.06755043363601602
1300000000.0 0.07942592716504149 -0.3720024792981405
1320000000.0 -0.12249223839529261 -0.361880516100332
1340000000.0 -0.35524517602784794 0.106006012448426
1360000000.0 0.2425658869523526 0.302925673478894
1380000000.0 -0.22409387054798685 0.3348685043731363
1400000000.0 0.07252992364711906 -0.38845491781259534
1420000000.0 0.03506449641289556 -0.3913417437854314
1440000000.0 -0.14290143591844104 -0.3680908511062895
1460000000.0 -0.36969419517801316 -0.14367934465010263
1480000000.0 -0.3136073021142668 -0.2418945060255792
1500000000.0 0.007290863567025197 0.39970445501038504
1520000000.0 -0.3763054394209597 0.09354434453337303
1540000000.0 0.3596630118320503 -0.024889069172146706
1560000000.0 -0.23221773024679745 0.23320210761405855
1580000000.0 -0.24187782081447814 -0.16534623910263935
1600000000.0 0.014472933709509979 -0.2565038678898153
1620000000.0 0.1932826281427951 -0.10205511756619487
1640000000.0 -0.17600915304997983 0.055739273698164296
1660000000.0 -0.04749489481899025 0.14662884392272182
1680000000.0 0.1098033501248957 -0.03403157692053349
1700000000.0 -0.050796811020950454 -0.08919080872056784
1720000000.0 0.0787947150715166 -0.01799329844683014
1740000000.0 0.0795170233811367 0.0024786941527770354
1760000000.0 -0.024998067532623937 -0.08675965721437758
1780000000.0 0.11511833805350818 0.0030589872937446406
1800000000.0 0.13415888082323355 0.038429648795194365
1820000000.0 -0.13218206078653008 0.10462671311933108
1840000000.0 0.19273096168502604 -0.027642563663778937
1860000000.0 -0.21322806584777185 -0.06644431735081767
1880000000.0 -0.059669732593500155 0.2474689778178903
1900000000.0 -0.038022589822654114 0.27106560753971987
1920000000.0 0.16142099502057644 -0.24514308712234054
1940000000.0 -0.3042693639728138 -0.015502962471179339
1960000000.0 0.29750582523674 -0.07598381812521543
1980000000.0 -0.2824853154889091 -0.1374335008177626
2000000000.0 -0.006481820125973583 -0.32220793788986923
2020000000.0 0.3137302458096256 -0.06838188933324717
2040000000.0 0.31667731966703017 0.05744161728295741
2060000000.0 0.2781457415269231 0.15554944470915802
2080000000.0 0.07501667626201755 0.3091661125380732
2100000000.0 0.1357678300500223 -0.2838425972117135
2120000000.0 0.24036713837821086 0.18883454670745034
2140000000.0 0.01742230059521597 -0.299472113550296
2160000000.0 -0.293912519626007 0.03258705505343151
2180000000.0 -0.08053346033367577 0.2761223529295918
2200000000.0 -0.14436955372004937 0.243238211770656
2220000000.0 -0.21142039513797875 0.18241600979528771
2240000000.0 -0.1865565159082679 -0.20472667819676574
2260000000.0 0.10359042765489525 -0.2497655496110962
2280000000.0 0.25291212914410155 -0.09733178929143477
2300000000.0 0.2327668982666375 0.11290202206274248
2320000000.0 -0.24288864359661458 -0.08850230033978158
2340000000.0 -0.16296875421757923 -0.19687606708993213
2360000000.0 0.2170952905927063 -0.13239628027443145
2380000000.0 0.04503358794885552 0.25802101708298814
2400000000.0 0.18482043657561276 0.21164492242556343
2420000000.0 0.13232678695640454 -0.2666027060018439
2440000000.0 -0.31160248323748546 0.062241613185656984
2460000000.0 0.3319553513676893 0.07013601036204346
2480000000.0 0.2720127435773765 -0.2518988762204124
2500000000.0 -0.06575566385552724 0.4014940125269096
2520000000.0 -0.3821205455973706 -0.22573292164025688
2540000000.0 0.4734031826484646 -0.0468772988889206
2560000000.0 -0.3824784775049924 0.3368759907301805
2580000000.0 0.178790023612567 -0.5099285795606405
2600000000.0 0.02404773358396249 0.5658296671375727
2620000000.0 -0.1048877393712502 -0.5801153164573528
2640000000.0 0.27014436097840067 0.5448569269122985
2660000000.0 -0.5836716341463616 -0.22065804372476966
2680000000.0 0.4098441918912749 -0.4835778774352639
2700000000.0 0.5795946069015602 0.2786098001463934
2720000000.0 0.27146830143462203 0.5879305482238488
2740000000.0 0.1732338232331241 0.6246622675667536
2760000000.0 0.07467284021084808 0.6426675485256566
2780000000.0 -0.5721105085910845 -0.28489345102750596
2800000000.0 -0.3585409144217177 -0.5167785713730488
2820000000.0 0.19238317598371935 -0.5850755231639011
2840000000.0 0.42305552053414874 0.4268531588673366
2860000000.0 -0.4689201176270652 -0.3537585846661736
2880000000.0 0.3050542033182666 0.48106772179246127
2900000000.0 0.4271657770839515 -0.3429119974660986
2920000000.0 0.053348939514690226 -0.5260662092760896
2940000000.0 -0.4060112215445551 -0.29913102033982497
2960000000.0 -0.21021151455879636 -0.43066883378703946
2980000000.0 -0.24468628519538263 -0.3884901580033557
3000000000.0 -0.36944770913525593 -0.23774769547627236
3020000000.0 -0.4203300571179812 0.03213039653506515
3040000000.0 -0.024425542788215265 0.40028865765800314
3060000000.0 0.37315264994786074 -0.07624680152258316
3080000000.0 -0.2968952707684631 -0.2140080954025855
3100000000.0 0.24829862089483823 0.2471377146103381
3120000000.0 0.31309717936345643 -0.14620991430160402
3140000000.0 -0.22969030345484148 0.2489731958274726
3160000000.0 0.16045711358089385 -0.2965557701243941
3180000000.0 0.03716148271752932 0.33162323480032196
3200000000.0 0.29949803065098785 -0.13593424826794018
3220000000.0 -0.19258686018160573 -0.2602254178111152
3240000000.0 -0.3157161713079278 0.009872065605897495
3260000000.0 -0.27904159478520263 0.12407687042536802
3280000000.0 -0.29365147471479325 0.023640565296609024
3300000000.0 -0.2767211672058564 -0.02958970119811118
3320000000.0 -0.1699651564024139 -0.1898185656366467
3340000000.0 0.22671735958068143 0.038565822572924374
3360000000.0 -0.20715779808626833 0.02534907325378453
3380000000.0 0.13470996628635448 -0.13345529901377098
3400000000.0 0.09289602039840696 0.13805230806271784
3420000000.0 0.03224501018102052 0.14047039012666349
3440000000.0 -0.11369608377239851 0.05534841624847772
3460000000.0 -0.08724576631042151 0.059297435051147256
3480000000.0 0.08667097139993248 0.011411252862319867
3500000000.0 -0.07366283771859371 0.029470191444635148
3520000000.0 -0.012581060842406264 -0.07549408525627806
3540000000.0 0.046964421200100484 -0.06221485728251601
3560000000.0 0.05293035316181579 -0.06919491020322292
3580000000.0 -0.047510105539224204 0.08021496596332985
3600000000.0 -0.05237771357018623 0.08278032848686069
3620000000.0 0.0496639995502984 -0.09994937888118574
3640000000.0 0.11342967174431237 0.05521470088872021
3660000000.0 -0.04914862818102569 0.12762141231294374
3680000000.0 0.05690362661751549 0.12904148712099142
3700000000.0 -0.06809754111762237 -0.11378013830233615
3720000000.0 0.12020943245753235 0.013543594789545062
3740000000.0 -0.07267397509741193 -0.07009332593990986
3760000000.0 0.08220919616845902 -0.0004453569760221454
3780000000.0 -0.03393292302347428 -0.05479525648269743
3800000000.0 -0.011767157747582921 -0.03281056873413777
3820000000.0 -1.8580918753716838e-05 0.0017775661116995385
3840000000.0 0.005452240400592348 0.03535621952799182
3860000000.0 0.05760547820065865 -0.031273959036352515
3880000000.0 0.0898474176274363 -0.023968523489458226
3900000000.0 -0.09570802563978811 -0.05993245894367999
3920000000.0 -0.1251884003207236 -0.007443900111614811
3940000000.0 -0.12805335374129825 0.04962834700810781
3960000000.0 -0.06415380538828254 0.12443071789664382
3980000000.0 0.11906429429921819 -0.060246777048837886
4000000000.0 0.08251878069381795 -0.07858418929210444
