!Created with skrf (http://scikit-rf.org).
# Hz S RI R 50.0 
!freq ReS11 ImS11
400000000.0 0.8436756300748696 -0.24330726875943184
420000000.0 0.7819963896645055 -0.28385964844053746
440000000.0 0.4090073682199921 -0.653432472684972
460000000.0 0.1139503823082679 0.6876972524814469
480000000.0 0.2973642012841347 -0.5107618663075795
500000000.0 0.4039232970993866 0.47929440739614365
520000000.0 0.37956500871747084 -0.5167858901524213
540000000.0 0.19254025552918028 -0.5739333416878738
560000000.0 0.6196699940459386 -0.028397584428670103
580000000.0 0.473654769822878 0.21791266836929407
600000000.0 -0.25518371957894853 0.539417222281691
620000000.0 -0.3654304229525276 -0.4840426143222929
640000000.0 -0.39762937585691116 -0.39826048323321345
660000000.0 -0.1456887530627111 0.4971691224403036
680000000.0 0.13636734487630317 -0.4591912962385171
700000000.0 0.3812562644845422 0.31143326285310075
720000000.0 0.4930448590515111 0.06530067472361946
740000000.0 0.04128028612054611 0.47381961855543714
760000000.0 -0.03172273135477934 0.45775208803897643
780000000.0 -0.4360950010442429 0.10694200418960866
800000000.0 0.05816740843342263 -0.39711532947253153
820000000.0 0.18057523262623867 0.3134483512475864
840000000.0 -0.3214168902756514 -0.09646542410659889
860000000.0 0.10299824694188871 -0.29751270228651405
880000000.0 0.2666082311428785 0.07654331514748247
900000000.0 -0.05242438782947401 0.26931214705769113
920000000.0 -0.015298268856916175 -0.26056720434100406
940000000.0 -0.14817696995742993 -0.16555549241314593
960000000.0 0.12838852680764676 -0.10188836563691167
980000000.0 -0.0046237414563711455 -0.13556449457203446
1000000000.0 0.1375614589249737 -0.005416597681285192
1020000000.0 0.10597930663843162 -0.04210837504316834
1040000000.0 0.039523359545561965 0.12333919016112123
1060000000.0 -0.06174125703001128 -0.1426834861145127
1080000000.0 -0.16106114408034092 0.12169465663237969
1100000000.0 -0.15763710560467484 -0.189634242723744
1120000000.0 -0.15432445643990347 -0.23495207382191863
1140000000.0 -0.11845711505983633 0.28425131924997504
1160000000.0 0.19552573846560553 0.2667384047179299
1180000000.0 -0.025401801975392966 0.33707293027160523
1200000000.0 -0.35719490658069536 -0.012533296476223293
1220000000.0 0.1215951416911758 -0.34490004126726836
1240000000.0 0.37707859498539686 -0.011154072430008866
1260000000.0 0.025242057089531523 -0.39494916834410154
1280000000.0 -0.307653801930871 0.22152460229137846
1300000000.0 0.09719799375026925 -0.35222744851410626
1320000000.0 0.2983483474154967 -0.23266034644236958
1340000000.0 -0.36091361608936606 0.06683770033674127
1360000000.0 0.292335509227675 0.2491700007900931
1380000000.0 -0.14332025821038857 0.3661251391977647
1400000000.0 -0.07811584874628329 -0.3755139516877539
1420000000.0 0.3056165336720632 -0.23218392098540644
1440000000.0 -0.1013754974089772 -0.37435776872689325
1460000000.0 -0.29365518930088036 -0.2530666176660086
1480000000.0 -0.17290511917671653 -0.3510966681278284
1500000000.0 -0.28159364454773633 0.2735822834210278
1520000000.0 0.052386968226323494 -0.3822534533694193
1540000000.0 0.03478731111077006 0.3598239055440734
1560000000.0 -0.18232342044260863 -0.27615787980923234
1580000000.0 0.29004594380247845 0.043057470195794
1600000000.0 0.2527706282374012 -0.06965122459202465
1620000000.0 0.07756065574186785 0.19791487367448293
1640000000.0 0.01944860464319468 0.1864332385877543
1660000000.0 0.07398905555215243 -0.1406061936948514
1680000000.0 -0.11117032428126192 -0.05041826797091851
1700000000.0 0.11570941778377926 -0.021571470250912734
1720000000.0 0.06972358577236105 -0.06254902624380651
1740000000.0 0.021308555011805813 -0.07956384676188653
1760000000.0 0.07256832086843173 0.056360225790277
1780000000.0 -0.07938635416607942 0.07484995594538366
1800000000.0 0.07403726959809827 0.10586808138929965
1820000000.0 0.08919946389293847 0.13128253269279314
1840000000.0 0.020070832154512375 -0.1921240055302718
1860000000.0 0.08976419862155809 0.198634803829377
1880000000.0 0.2136434589373639 0.1331290604746241
1900000000.0 0.27135870583989125 0.023669951213046173
1920000000.0 0.031003201349583034 -0.2920001745646821
1940000000.0 -0.29615644705721567 0.07231842248830853
1960000000.0 0.2241193821031466 -0.21341388209489
1980000000.0 -0.3111353188228646 -0.02680603152476608
2000000000.0 0.07606808609983409 -0.31117407746640946
2020000000.0 0.20997495346487427 -0.2469555877256287
2040000000.0 0.32164764858675043 0.01605213646604225
2060000000.0 0.22926144877817933 0.22673104154462737
2080000000.0 0.07452162324562582 0.31873794800359684
2100000000.0 -0.14670950735052254 -0.28904858489126517
2120000000.0 0.268938232527863 0.17213000492109287
2140000000.0 -0.22535604280286678 -0.22786495288407543
2160000000.0 0.16255022068535582 0.27471234872280087
2180000000.0 0.27172949107149225 -0.14882154383414933
2200000000.0 0.2192896064877954 -0.2115014352612165
2220000000.0 0.13048021434434856 -0.2679498648637452
2240000000.0 0.2617499992581275 -0.1260384111420181
2260000000.0 0.08932975127121034 0.26048459134048707
2280000000.0 -0.2149599962845604 0.15905999448888836
2300000000.0 0.055940134093288435 -0.24318162127034282
2320000000.0 -0.09296811390809057 0.22831039645176493
2340000000.0 -0.08499054382261766 -0.22697177146873793
2360000000.0 -0.0051518751391863545 0.24314219822485467
2380000000.0 -0.09807585111634819 -0.23767965095074534
2400000000.0 -0.2706024355403536 0.08497470413299912
2420000000.0 0.29190988748207153 0.08149725314587354
2440000000.0 -0.1922511814571954 -0.26404032844043385
2460000000.0 0.08070926057652637 0.34793048027995704
2480000000.0 0.1571567415345536 -0.3587550505665628
2500000000.0 0.31096167972832384 0.2922881579627647
2520000000.0 -0.44508294919339303 0.1292506621980981
2540000000.0 0.27038462114656076 -0.4152300418364671
2560000000.0 0.11646124365654527 0.5120983847904972
2580000000.0 -0.16932436810176282 -0.5253079046329989
2600000000.0 0.311926374113067 0.48414046531801036
2620000000.0 -0.37651311372116736 -0.4615758029329668
2640000000.0 0.4750513746703241 0.38363688137185065
2660000000.0 -0.6220003533277301 0.06393596309945987
2680000000.0 0.07023523497719719 -0.6297187629734298
2700000000.0 0.6188501326296135 -0.17252804498823912
2720000000.0 0.6209392164494044 0.1835979220313237
2740000000.0 0.6073397886135269 0.2287121250619832
2760000000.0 0.5900383158349362 0.2729391316737527
2780000000.0 -0.4922593027972182 0.41557210750218104
2800000000.0 -0.6214280681562705 0.1294496805909908
2820000000.0 -0.4161840009288174 -0.46431591679740647
2840000000.0 0.571859947287228 -0.21233198106419898
2860000000.0 -0.43511563236125744 0.40501329982348055
2880000000.0 0.5294745688909306 -0.2191704091291869
2900000000.0 -0.2551968526450935 -0.48865857972217924
2920000000.0 -0.5242941276258704 0.06651382621910522
2940000000.0 -0.24997035606493587 0.4311508834839252
2960000000.0 -0.31138077653541046 0.3553531426932506
2980000000.0 -0.27377253012320296 0.35399969910589446
3000000000.0 -0.1116644140559102 0.4107591121646562
3020000000.0 0.12405380598368718 0.3848005179873004
3040000000.0 0.2854428178469662 0.2563136613789778
3060000000.0 0.26138892179167034 -0.2601767780352648
3080000000.0 -0.3384573918326655 -0.11513092024940014
3100000000.0 0.24241153675264945 0.24980019375189794
3120000000.0 0.23831170085398803 -0.24653943859296282
3140000000.0 -0.33911637619527774 0.048068828092806506
3160000000.0 0.34331525039797417 -0.012207859387453845
3180000000.0 -0.3313638756055998 0.09036821185411853
3200000000.0 0.04509362974358298 0.33943954188973696
3220000000.0 0.2553767255347293 -0.22283995966928766
3240000000.0 0.10557475171503639 -0.3172277499805294
3260000000.0 -0.20797718961738734 -0.25246410471933267
3280000000.0 -0.31342509861664125 0.041303402440735354
3300000000.0 -0.21291299343574258 0.2103004839911672
3320000000.0 0.011303065579222733 0.2728120071127735
3340000000.0 -0.2436712211577663 0.05130036149399713
3360000000.0 -0.21146043213365112 0.06845612953150268
3380000000.0 -0.09527329108076527 -0.1685413830099522
3400000000.0 0.03928134922024384 -0.16380740841350216
3420000000.0 0.02152225782271494 -0.14141319899951577
3440000000.0 0.05044885262837031 -0.10840306174130102
3460000000.0 0.09053564682925845 -0.028861044187709586
3480000000.0 -0.06890962459638277 -0.03797197647095154
3500000000.0 -0.01483455471442864 -0.07118154859217941
3520000000.0 0.02240318335971157 -0.06806277370152405
3540000000.0 -0.06101041672608141 0.047944251942730956
3560000000.0 -0.0626648427439718 0.05666920534780948
3580000000.0 0.0713008773523373 0.06192096746950559
3600000000.0 0.010610429511163044 -0.1018809761967487
3620000000.0 0.09883450153330282 0.06693399777198017
3640000000.0 -0.0567282671255404 -0.12078988094148338
3660000000.0 -0.13700590337606766 -0.05281028886523076
3680000000.0 0.13604729813006172 0.06656244569481858
3700000000.0 0.08991903062672867 0.1129793316882942
3720000000.0 0.12742337875835158 -0.02969549101707779
3740000000.0 0.08804109099150471 -0.05447593002018993
3760000000.0 0.07535806867968298 -0.02761419605623294
3780000000.0 0.05110893876110045 0.032033649885669056
3800000000.0 -0.019901313664748004 -0.018767534887054002
3820000000.0 0.009943915332268393 0.0037770256751275275
3840000000.0 -0.0038973451157079827 0.04742403447661621
3860000000.0 0.015143106324405624 0.07742481605669488
3880000000.0 -0.06639409188516482 -0.08316968437139301
3900000000.0 0.0988993114390267 0.0824650039465822
3920000000.0 -0.11951618297685165 -0.08067070605032496
3940000000.0 -0.051534896478824234 0.14430487860166627
3960000000.0 0.06559498069367806 -0.14384679617565407
3980000000.0 0.12273030044196787 0.08233430853478313
4000000000.0 -0.10723189691364263 -0.06680938573610261
