!Created with skrf (http://scikit-rf.org).
# Hz S RI R 50.0 
!freq ReS11 ImS11
400000000.0 0.8281680919758886 -0.29046840687878406
420000000.0 0.7688162802422751 -0.3128757087240133
440000000.0 0.46376338673846906 -0.6175377430356852
460000000.0 0.20492025952725948 0.667149285244048
480000000.0 0.3748120192163035 -0.4584814502890265
500000000.0 0.5686225222285066 0.25283810880884994
520000000.0 0.4534297868182345 -0.452708722073624
540000000.0 0.2766896414208451 -0.5376797020637568
560000000.0 0.6212471943557151 0.04302029963963608
580000000.0 0.4288873932351006 0.30450040270400397
600000000.0 0.05652178956643683 0.5960708008246779
620000000.0 -0.39576830723667783 -0.45471504177092353
640000000.0 -0.4566794370533563 -0.3247495186730645
660000000.0 -0.18296041539017793 0.4833150508948865
680000000.0 0.4139603122729627 -0.2358075968820039
700000000.0 0.1190084633398879 0.48649074249652663
720000000.0 0.5027067143113594 -0.008152085826207326
740000000.0 0.424507040121174 -0.20928342542101544
760000000.0 -0.21785130477837325 0.3950362845725422
780000000.0 -0.16095969581215483 -0.41856275257611947
800000000.0 0.0993337844711058 -0.3985182473991964
820000000.0 0.3645933822831137 -0.008493482591863409
840000000.0 -0.32932653228795256 0.010418650180602711
860000000.0 0.2916793231431537 -0.10798313028208749
880000000.0 0.19432005970066143 0.21030172383339835
900000000.0 0.27309758527860367 0.038339419733559775
920000000.0 0.021323600331446042 -0.25176377072508577
940000000.0 0.20776495720685476 0.07368591035037189
960000000.0 0.13865359211107708 -0.09827787715062945
980000000.0 -0.13296121885898385 -0.02033959562966139
1000000000.0 -0.0717663391106721 -0.11497582617165156
1020000000.0 0.09530470861686693 0.05866848435449505
1040000000.0 0.0025256916508278673 0.12970402778586984
1060000000.0 0.01721465170692047 -0.15397171188029193
1080000000.0 -0.15072332587941384 0.13722056011188424
1100000000.0 -0.2383588752247076 -0.07037132646420977
1120000000.0 -0.21107341970017757 -0.17819690092082532
1140000000.0 -0.30566059839288895 0.018679255891138807
1160000000.0 0.17771296911265408 0.28376460271651094
1180000000.0 0.20051806096629335 0.27448961183844284
1200000000.0 -0.35134529822198657 0.033627845361413534
1220000000.0 0.2674979170055428 -0.24964135915120478
1240000000.0 0.3784028570174247 0.014188058020390804
1260000000.0 0.08350227760750435 -0.38907069825357926
1280000000.0 -0.22841843612362112 0.3022421458098494
1300000000.0 0.09110072684435655 -0.35236020803852025
1320000000.0 0.3460423993008559 -0.15007017553199542
1340000000.0 -0.3527908832261715 0.10900230387306017
1360000000.0 0.28834885637552515 0.252538059554784
1380000000.0 -0.1392394829852381 0.36823129703561897
1400000000.0 0.06361487955711022 -0.37784349559929237
1420000000.0 0.2968631373733272 -0.24322062471162023
1440000000.0 -0.08592347469618099 -0.37697206051215476
1460000000.0 -0.2580388475209754 -0.2892355762829742
1480000000.0 -0.12940304666497313 -0.3711482382057902
1500000000.0 -0.3370860095225435 0.20249580087591337
1520000000.0 -0.005179564124329526 -0.3860766150179641
1540000000.0 -0.049995869329593615 0.3569504418343711
1560000000.0 -0.23311622326888717 -0.2330141833955428
1580000000.0 0.2881807917607952 0.06421412550484018
1600000000.0 0.2613744564865562 -0.03836364990032654
1620000000.0 0.1307478252913512 0.16666089394241218
1640000000.0 -0.01861900735770157 0.18645929709222364
1660000000.0 0.1168169675746841 -0.10842758180517882
1680000000.0 -0.09848620597600334 -0.07216042488430746
1700000000.0 0.11474399508534833 0.028708444653615408
1720000000.0 0.03398305958734622 -0.08722470515068766
1740000000.0 0.04938244070158572 -0.06542580385849368
1760000000.0 0.04847155806837493 0.07808470077579265
1780000000.0 -0.10247577625293515 0.0376719391788812
1800000000.0 0.06979564243193775 0.10946326003850503
1820000000.0 0.12928229875151623 0.09063084882098252
1840000000.0 0.05399604918933071 -0.1836445497430244
1860000000.0 0.05126548563861301 0.21199581153000746
1880000000.0 0.24120956418775877 0.07496793405104199
1900000000.0 0.2695779036102892 -0.04079042655413681
1920000000.0 0.04192837199983322 -0.28911710973801785
1940000000.0 -0.2975449758027209 0.06944584088797207
1960000000.0 0.2218098491880516 -0.2164442811590838
1980000000.0 -0.3062886267719578 0.06545794280671187
2000000000.0 0.11613260042134792 -0.29758003461479093
2020000000.0 0.2847763598138725 -0.15231359630800437
2040000000.0 0.31773027270030285 0.06509117030711907
2060000000.0 0.27269384285732706 0.17344627433226603
2080000000.0 0.056789894827743465 0.32083472118688383
2100000000.0 -0.05011679890784195 -0.31859525335214456
2120000000.0 0.1814689545740753 0.262988856086667
2140000000.0 -0.2516867898257862 -0.1998756515362541
2160000000.0 0.1932091351123078 0.2516882804444001
2180000000.0 0.2918476844293134 -0.1045197901615423
2200000000.0 0.16861333323375186 -0.25596697522503614
2220000000.0 -0.010061122817252091 -0.2965922612089235
2240000000.0 0.2863681562654535 0.03389756491709458
2260000000.0 0.05865723617147518 0.27067116285059223
2280000000.0 -0.19274136477792905 0.1870036395292148
2300000000.0 -0.0676641106753973 -0.24137081622072223
2320000000.0 -0.11978688340784967 0.21359849840445297
2340000000.0 0.003432675417525342 -0.24234318592244503
2360000000.0 -0.012335820336441176 0.2437611125014312
2380000000.0 -0.12330721480467301 -0.22569866530302715
2400000000.0 -0.27639490968741426 0.054953981382028644
2420000000.0 0.2193484160034101 0.21061594965618843
2440000000.0 -0.23672930885877974 -0.22600509441532196
2460000000.0 0.060565964315768966 0.3493507086941587
2480000000.0 0.2391397447660777 -0.3101723409825917
2500000000.0 0.27352116087974415 0.3282303915225072
2520000000.0 -0.4441205518603505 0.13182055213757893
2540000000.0 0.25200402842910974 -0.42451546098885123
2560000000.0 0.03996130063255456 0.5236096636757539
2580000000.0 -0.2397740713276719 -0.4979847864701446
2600000000.0 0.28351311021371367 0.5007813852973951
2620000000.0 -0.31374320767321057 -0.506279671035007
2640000000.0 0.48342719910731385 0.37404846636925765
2660000000.0 -0.6248074448736699 0.03355229821034202
2680000000.0 0.11570462678453078 -0.6234307283510292
2700000000.0 0.6266305125441521 -0.14197735702083988
2720000000.0 0.6245887390043293 0.16924307796819857
2740000000.0 0.533101926350478 0.3698202884705343
2760000000.0 0.5487196515834101 0.3471261285063056
2780000000.0 -0.4963258555152094 0.41034073453340875
2800000000.0 -0.6228441778717918 0.1191088292988268
2820000000.0 -0.38757578517315855 -0.48743569597558933
2840000000.0 0.5708752608726301 -0.21376309609455021
2860000000.0 -0.41252725703862253 0.4270138243217744
2880000000.0 0.5346633839004161 -0.20884225573137202
2900000000.0 -0.24507431370897478 -0.49494049710994037
2920000000.0 -0.5211371708496698 0.08738131172320779
2940000000.0 -0.3364201758094679 0.3690343543056216
2960000000.0 -0.3442155929509659 0.3256096030477628
2980000000.0 -0.26273166992909114 0.3635602049991449
3000000000.0 -0.20333123020336125 0.3735350025998989
3020000000.0 -0.05769158259231695 0.4001019114011081
3040000000.0 0.22767456153807997 0.309100620095232
3060000000.0 0.2687908445565556 -0.2529939614775176
3080000000.0 -0.3478105485256507 -0.0777904484308802
3100000000.0 0.17108527600346232 0.30189687825849104
3120000000.0 0.278633191432331 -0.20195065841935717
3140000000.0 -0.31453067138750956 0.13161160417469325
3160000000.0 0.3418420033122493 -0.027891879617702835
3180000000.0 -0.33497119965616956 0.07310879771480862
3200000000.0 0.04346499961022283 0.3399599931556324
3220000000.0 0.24787333219449953 -0.23189336367696642
3240000000.0 0.03501343340685922 -0.3327880603025277
3260000000.0 -0.21251848805592444 -0.2494345751102583
3280000000.0 -0.3132640902519875 -0.04884900849521029
3300000000.0 -0.1894073909396484 0.23335538646885082
3320000000.0 -0.0260094759878052 0.2717490929990122
3340000000.0 -0.22411385793056854 0.10847059179987262
3360000000.0 -0.2017207290252717 0.0918796117007964
3380000000.0 -0.04652013712116685 -0.18898720644437808
3400000000.0 -0.10311814457399548 -0.1339412147282823
3420000000.0 -0.037719583105689236 -0.1373427440538545
3440000000.0 0.08825027092570682 -0.08091186623660322
3460000000.0 0.09536911085437577 0.011409120331447342
3480000000.0 -0.07832807460815396 0.012499925143853435
3500000000.0 -0.04434927278095517 -0.056996960582081535
3520000000.0 0.04957836141406997 -0.05156049561042424
3540000000.0 -0.058572659761814194 0.05277967649678626
3560000000.0 -0.03584283381912806 0.07564177248716082
3580000000.0 0.03960028474507316 0.08657686793442432
3600000000.0 0.03129673626962493 -0.0976446513218353
3620000000.0 0.10472024617800313 0.05718098324306352
3640000000.0 -0.008736382251372013 -0.13260970443469453
3660000000.0 -0.10702138518077917 -0.10005993393115163
3680000000.0 0.14533897269576534 0.040267498507488925
3700000000.0 0.0993967117961236 0.10422175376404857
3720000000.0 0.1293563353158743 -0.011512827400987259
3740000000.0 0.10421306331621014 0.008954349867609648
3760000000.0 -0.0033312532993759482 -0.08034341955993125
3780000000.0 0.04630104513470628 0.03652703747783685
3800000000.0 0.027088684578146383 -0.0032597897009339484
3820000000.0 -0.009616117546923852 -0.003031861050627882
3840000000.0 -0.04147658211880547 0.02418426100786156
3860000000.0 0.06929490585765787 0.0374124571346881
3880000000.0 -0.08661841598594622 -0.06094895565121457
3900000000.0 0.10776370447797676 0.06945277289032002
3920000000.0 -0.08302349442004972 -0.11805386543052238
3940000000.0 0.028884985937460386 0.15033687428175788
3960000000.0 0.1199391370352726 -0.10207245139954514
3980000000.0 0.1289535505613675 0.07201868580366384
4000000000.0 -0.10363460597060781 -0.07199768614350505
