!Created with skrf (http://scikit-rf.org).
# Hz S RI R 50.0 
!freq ReS11 ImS11
400000000.0 0.7853021895625721 0.37882267245558704
420000000.0 0.2685067171081666 0.7718231171245937
440000000.0 0.427385139967018 0.6291497083794731
460000000.0 -0.5411268132094044 -0.4221451222754828
480000000.0 -0.17310827386320635 -0.5959493116427315
500000000.0 0.6355543630080617 0.12590955462641748
520000000.0 -0.38254323954673924 0.553463810679589
540000000.0 0.6028626192223062 -0.3108409034635671
560000000.0 -0.11413705976224763 0.6570691540490192
580000000.0 -0.3457922208093889 0.38560592878791655
600000000.0 0.023688078654249153 0.5926053793629528
620000000.0 -0.27698399532215995 -0.5449973375565255
640000000.0 -0.360409484840022 -0.4384328329381345
660000000.0 0.2781517318766047 0.4520567645593202
680000000.0 0.026146741163981305 0.4858559268171912
700000000.0 0.45275105906621355 0.018248510453299286
720000000.0 -0.11285094722648968 0.47470937513138717
740000000.0 0.1670288701616158 0.4374282998942466
760000000.0 -0.07481207798626874 0.44319062996077363
780000000.0 -0.41603835682225804 0.13212310901084892
800000000.0 -0.13015020524618573 -0.37413498876359563
820000000.0 0.3336183142369383 0.1076156070647779
840000000.0 -0.0217312926941305 0.3208253121522109
860000000.0 0.27798510442882873 -0.10824046438109175
880000000.0 -0.047905224799406204 0.2737096538394027
900000000.0 0.17816827097424565 0.20076441804057518
920000000.0 0.2512837184544086 0.03236681340196664
940000000.0 -0.027366770017040673 0.2225674112613358
960000000.0 -0.13621292210372848 0.1200302633897675
980000000.0 -0.14246647955028613 0.0027650079151349477
1000000000.0 0.0839131332903296 -0.09754890411841405
1020000000.0 0.018376211856992376 0.10037843016216093
1040000000.0 -0.10800172849753177 -0.04345659277312305
1060000000.0 0.12303632322081154 -0.07168634918507441
1080000000.0 0.18339271003265498 0.06496878553307336
1100000000.0 0.17280056146806827 0.16302709273618696
1120000000.0 0.269181169239331 -0.06254502602662847
1140000000.0 -0.28810017678389604 0.08404025632234996
1160000000.0 -0.3181532199876993 0.03704161271053582
1180000000.0 -0.33408255523302594 0.03964175241339348
1200000000.0 -0.2939858069131325 -0.19274983475425636
1220000000.0 0.35624518811617906 0.024312002000793576
1240000000.0 0.27571981803793016 0.2574657131548407
1260000000.0 0.37851946272262615 -0.10178484310546966
1280000000.0 -0.33033449308266205 -0.19677363361985503
1300000000.0 -0.08495433213545546 -0.3709901537958162
1320000000.0 -0.1383043093427888 -0.3557859139999712
1340000000.0 -0.3587748485693925 0.06843764932284455
1360000000.0 0.17417607321109424 0.3466524431384706
1380000000.0 -0.03274540071037617 0.4001586606791997
1400000000.0 -0.09925437300807208 -0.38098335994120336
1420000000.0 0.03139130375106815 -0.3929036375730416
1440000000.0 -0.3013004220804145 -0.2548444197980789
1460000000.0 -0.3945128124586328 0.020892584245017085
1480000000.0 -0.3378358019908579 -0.20454507861065468
1500000000.0 0.1890676935813931 0.3536447637832368
1520000000.0 -0.3702576351517483 0.1112145898478246
1540000000.0 0.3534196241365998 0.07657155222554747
1560000000.0 -0.23009261489585273 0.23819769455356052
1580000000.0 -0.24156808822885922 -0.16749601282101612
1600000000.0 0.10996009341012655 -0.23110823886027212
1620000000.0 0.20747886416999167 -0.06609669662194989
1640000000.0 -0.179651126112886 0.04345424008139595
1660000000.0 0.04910614835313736 0.14457390944479082
1680000000.0 0.109377081804906 -0.018878741370027787
1700000000.0 -0.08086371856757292 -0.06177454908340033
1720000000.0 0.03474829319680891 -0.07265096599392575
1740000000.0 0.0371160033309121 -0.0672653456262743
1760000000.0 -0.036870332550545275 -0.0808062634222451
1780000000.0 0.05052228289372596 -0.10510356930349139
1800000000.0 0.017211113122332908 -0.13732592521820428
1820000000.0 -0.15695930358399865 0.06087595270829718
1840000000.0 0.1463267435180709 -0.127854974568484
1860000000.0 -0.18750568380679827 0.11848218190619049
1880000000.0 -0.036987717708233656 0.255225880553856
1900000000.0 0.1986564393886786 0.1897778255435771
1920000000.0 0.19921435051209185 -0.21707847375801037
1940000000.0 -0.3049702710762093 -0.024541643717618432
1960000000.0 0.31004254223188715 0.007983862931906631
1980000000.0 -0.2868619812613735 -0.1266889677583853
2000000000.0 0.11819280849071073 -0.2977699851562746
2020000000.0 0.3195665661324449 -0.02380044496662216
2040000000.0 0.31424794463753114 0.0564493269392007
2060000000.0 0.28707268035736927 0.13424891681713114
2080000000.0 0.20780945532893783 0.23674637418650205
2100000000.0 -0.03491229730619425 -0.31002734814504085
2120000000.0 0.303172665104025 0.02862185540773488
2140000000.0 -0.16666242487607358 -0.2495134002445348
2160000000.0 -0.17632780867598527 0.23901284824034655
2180000000.0 0.04700344950665951 0.28497129260170395
2200000000.0 -0.11879829234268559 0.2597697021139877
2220000000.0 -0.1355398663472873 0.24814855109482636
2240000000.0 -0.2092888606326334 -0.18112039079979067
2260000000.0 0.18077368365568225 -0.20283676978500895
2280000000.0 0.2713324561092854 -0.03721800176721912
2300000000.0 0.19360572886085747 0.17267349260370796
2320000000.0 -0.16596371521867054 -0.1936925975317118
2340000000.0 0.01073895820876114 -0.25609803942513126
2360000000.0 0.17693267732776338 -0.1806063506177083
2380000000.0 0.032574287394479436 0.25391922597384176
2400000000.0 0.14539022448113278 0.23825181550352806
2420000000.0 -0.00604175944134026 -0.295713882572313
2440000000.0 -0.09187941889550444 0.30052534698076794
2460000000.0 0.33509389048591254 -0.026592443870402677
2480000000.0 0.10399489501697226 -0.35772124599369887
2500000000.0 0.28255920953325453 0.2940264935937239
2520000000.0 -0.4271809013862868 -0.12227482836778288
2540000000.0 0.4590539148464231 -0.13495558780922468
2560000000.0 -0.34251529303896566 0.3800771603373078
2580000000.0 0.24350896287507162 -0.4835215889614293
2600000000.0 -0.06345891926793559 0.563016144452943
2620000000.0 -0.041842814523305655 -0.5868067869146752
2640000000.0 0.20157881575664455 0.5709804587176729
2660000000.0 -0.5548971771703264 -0.27839748458672064
2680000000.0 0.38987605816070375 -0.4953881739303443
2700000000.0 0.6176006780082012 0.16666200429007896
2720000000.0 0.4529731046684521 0.45838882509680057
2740000000.0 0.33741865582468156 0.5513476481677241
2760000000.0 0.27764562174884716 0.583987052814086
2780000000.0 -0.6379551222787495 -0.05085143964796501
2800000000.0 -0.504331193168034 -0.3775544880633518
2820000000.0 0.14431032410714806 -0.6007096617730431
2840000000.0 0.44413037706680103 0.40824327667143134
2860000000.0 -0.48027386154664925 -0.339207046831688
2880000000.0 0.18879037756577835 0.5377663827766488
2900000000.0 0.4723613212769658 -0.27952742731661134
2920000000.0 0.06652964758632803 -0.5222956208477489
2940000000.0 -0.304956403756188 -0.3987019143390929
2960000000.0 -0.23181785733122157 -0.4176613572332825
2980000000.0 -0.339919760803529 -0.3027906648337847
3000000000.0 -0.3629480458702599 -0.24270760345103842
3020000000.0 -0.40027111509187757 0.12610248566013024
3040000000.0 0.1253437761967348 0.3780957289556084
3060000000.0 0.31875551442029665 -0.2072138322753749
3080000000.0 -0.3652919570516034 0.008161272820584773
3100000000.0 0.3345062118559857 0.10602674264684658
3120000000.0 0.20725698589346508 -0.277214225330062
3140000000.0 -0.06370032624622689 0.33464159553956313
3160000000.0 0.09996707328807568 -0.32462800402598413
3180000000.0 0.08573103542667755 0.32572289855476616
3200000000.0 0.31588218079832414 -0.09383557265698816
3220000000.0 -0.12107286211919771 -0.301833411095764
3240000000.0 -0.293198803412534 -0.11879472372605952
3260000000.0 -0.3048816883316648 0.002975119240019714
3280000000.0 -0.2889761648544987 -0.05040549955515532
3300000000.0 -0.26537641115715727 -0.07483229549720782
3320000000.0 -0.1545497186128652 -0.19835257854001795
3340000000.0 0.2265605127994766 -0.014885664761336067
3360000000.0 -0.1867308650608226 0.08466140936415643
3380000000.0 -0.01919847347996944 -0.18498702296521113
3400000000.0 0.16344092892241976 -0.02142458428424669
3420000000.0 0.14256151554520194 -6.98429240522544e-05
3440000000.0 0.05952901973346843 0.11130965523643821
3460000000.0 0.09950993823213962 0.0382749910857846
3480000000.0 0.00860972790068333 -0.08910188353082804
3500000000.0 -0.030404549700042027 0.07652320643743943
3520000000.0 -0.04980047171001918 -0.06261316198130769
3540000000.0 0.07889147956918702 0.013379480814759736
3560000000.0 0.05950497845358082 0.06608628579826742
3580000000.0 -0.059428816533795656 -0.07315677169028124
3600000000.0 -0.08559223877447392 -0.04690659447117242
3620000000.0 0.10022992252844827 0.04244359536076472
3640000000.0 0.020977345280475523 0.12181419036741817
3660000000.0 -0.016711164152269902 0.1314843563712575
3680000000.0 0.0014827517437443335 0.13741507792222232
3700000000.0 -0.12923175409099527 -0.008182614200580135
3720000000.0 0.049063077082318496 -0.10498924669678245
3740000000.0 -0.07084129186346536 0.0692803090924268
3760000000.0 -0.07120614124140724 0.04161153887397921
3780000000.0 0.062232331890602254 0.014242510212437965
3800000000.0 0.015147687588190673 0.03220834256323724
3820000000.0 0.0034861165497671186 0.0016765636809855401
3840000000.0 0.00039642066709106644 -0.03256741338923925
3860000000.0 0.025943790281942478 -0.055916630166442875
3880000000.0 0.0647365015449964 -0.06085024743766805
3900000000.0 -0.08612653406423552 0.06651607394325124
3920000000.0 0.061320300378025626 0.10841228953456733
3940000000.0 0.06741662079051734 0.11512316557406263
3960000000.0 0.06972033577678806 0.12014787891052864
3980000000.0 -0.0698324713719893 -0.11591094766815671
4000000000.0 -0.10774982744278706 -0.037823579648020626
