!Created with skrf (http://scikit-rf.org).
# Hz S RI R 50.0 
!freq ReS11 ImS11
400000000.0 0.7980444748137285 0.3474978983847339
420000000.0 0.19965407780172525 0.7919722888347239
440000000.0 0.46201295181646096 0.6037732567576533
460000000.0 -0.6243661669803683 -0.2837207349948533
480000000.0 -0.16678321475268215 -0.5986734463792847
500000000.0 0.6279641134957122 -0.17834889869363338
520000000.0 -0.38311446188852105 0.5484418627845417
540000000.0 0.6805327027599122 0.007705903595323822
560000000.0 -0.07136197184735125 0.670441265549998
580000000.0 -0.12343440605007579 0.502708723404069
600000000.0 -0.12408653667520259 0.5767059055219319
620000000.0 -0.24477434644418222 -0.5636575168589368
640000000.0 -0.49583704201418993 -0.29170837615064715
660000000.0 0.4487328113707954 0.2745776086665368
680000000.0 0.13584675799216003 0.470990698234681
700000000.0 0.22707844902216898 0.38643163611263354
720000000.0 -0.31987132251772926 0.37736047179782173
740000000.0 0.3999448902489107 0.2515188450536698
760000000.0 0.2532344206827701 0.36894244533315246
780000000.0 -0.4089658022297591 -0.13416295423970692
800000000.0 0.24493335342716488 -0.311730183050615
820000000.0 0.270474454541749 0.22642684210249217
840000000.0 0.10482826436714851 0.30684626518742436
860000000.0 0.2198995725608631 -0.19952346192486647
880000000.0 0.21972991855542892 0.16259247425331605
900000000.0 0.11046997145809401 0.24256901187627267
920000000.0 0.25810146539392886 -0.03553892547294028
940000000.0 0.1093065301282808 0.1964528772956634
960000000.0 -0.14015234925835596 -0.11359406127066247
980000000.0 -0.07811314824022111 -0.12290742034269217
1000000000.0 0.11874445027254123 0.049768486569359595
1020000000.0 -0.09222579273643847 -0.04331708349992872
1040000000.0 0.028192138155622475 0.10763858384371569
1060000000.0 0.14399778898455845 -0.02245828548799496
1080000000.0 0.15317162886410196 0.1201517506386659
1100000000.0 0.060947222947736426 0.2334485061197783
1120000000.0 0.24955523116491116 -0.12463570674248188
1140000000.0 -0.2663905128585423 0.1348496324311995
1160000000.0 -0.2800396674986395 -0.14636075390837383
1180000000.0 -0.3086235299270864 -0.1416826255274142
1200000000.0 -0.3314902949153332 -0.11687196433203124
1220000000.0 0.33318865412389703 -0.11605053235147056
1240000000.0 0.012660176684131948 0.37425232130903296
1260000000.0 0.3499129527760142 -0.18487559640499535
1280000000.0 -0.3850258308497137 -0.015025056965104096
1300000000.0 -0.061217733862019307 -0.3725729906842845
1320000000.0 -0.021116521508482918 -0.38061033748960965
1340000000.0 -0.36709024827531544 0.04951482433625791
1360000000.0 0.18178894027559997 0.3441728506438715
1380000000.0 -0.17045207884019606 0.3639306676898216
1400000000.0 0.028198507580231007 -0.394689138705864
1420000000.0 0.11665551970391679 -0.3744406945837819
1440000000.0 -0.17123513195909137 -0.3580536672181137
1460000000.0 -0.37813342540509914 -0.12148688986118433
1480000000.0 -0.29826594544904467 -0.25885411682538007
1500000000.0 -0.054889005888287004 0.3970729361138338
1520000000.0 -0.3771645330994669 0.08828964388899878
1540000000.0 0.3600294186651836 -0.016490244334938065
1560000000.0 -0.21491671884534672 0.24940552841817343
1580000000.0 -0.21504899668197308 -0.19859045368064354
1600000000.0 0.02864118744809322 -0.2558870434449818
1620000000.0 0.18879840640743784 -0.1091519657040181
1640000000.0 -0.168875309774669 0.0761074074751512
1660000000.0 -0.032973676526514104 0.15106479726967334
1680000000.0 0.10019293033145316 -0.05364141907792406
1700000000.0 -0.04105713347621743 -0.0936823079808161
1720000000.0 0.04883016142324769 -0.06535061885413326
1740000000.0 0.0780591066464655 -0.007907530830359189
1760000000.0 0.06189041188410242 -0.06469662235884717
1780000000.0 0.09363586595411401 -0.07230871473922515
1800000000.0 0.10730315594331251 -0.08721942431234915
1820000000.0 -0.14472823929954748 -0.08626323286644023
1840000000.0 0.18188904866358332 -0.07439902083665022
1860000000.0 -0.21950711659322603 0.014290927869615675
1880000000.0 -0.08925929934653186 0.2395525487499331
1900000000.0 0.021275708666557962 0.27305799142157444
1920000000.0 0.19731667253123217 -0.21657190362481935
1940000000.0 -0.3030489335869134 0.0163798810866165
1960000000.0 0.30818623910724624 -0.008959039162264785
1980000000.0 -0.31235530501308384 -0.027063032071754093
2000000000.0 0.09379513291115292 -0.3051776297262863
2020000000.0 0.30528847535587683 -0.10610523082060523
2040000000.0 0.32062101143777705 -0.025426900720148336
2060000000.0 0.2882605693452434 0.13227893335740679
2080000000.0 -0.021942403384624047 0.31693024771546086
2100000000.0 0.08930766602438275 -0.30283703641537635
2120000000.0 0.2183376144972455 0.21246407305943804
2140000000.0 0.09213457835350698 -0.28427610243336376
2160000000.0 -0.29666234789629065 0.004883431175964305
2180000000.0 -0.07044419063485728 0.2794630936431308
2200000000.0 -0.12648625019983878 0.250994732596426
2220000000.0 -0.23733612612046553 0.15043408600823183
2240000000.0 -0.19705248538124115 -0.19257192206501245
2260000000.0 0.09742559702259732 -0.2522220881268634
2280000000.0 0.27120337025691327 -0.01476190741669898
2300000000.0 0.2596498341638853 0.0011988625255442392
2320000000.0 -0.25432634517308794 -0.020377294203268538
2340000000.0 -0.046044786083014086 -0.25265374018246883
2360000000.0 0.17099270798224808 -0.19243627545169126
2380000000.0 0.13385561757534786 0.22318176553304844
2400000000.0 0.14239969850979953 0.24114186951883357
2420000000.0 0.18089037658830967 -0.23964585843367783
2440000000.0 -0.24821173013975564 0.1961910177168989
2460000000.0 0.25964754975544785 0.218025050731735
2480000000.0 0.2653370151312272 -0.26077417281411047
2500000000.0 -0.016233715485595403 0.40566109230737524
2520000000.0 -0.33771094161640247 -0.2867218383860955
2540000000.0 0.47192018906705524 -0.0677231728914076
2560000000.0 -0.32561982784101534 0.3920004468875391
2580000000.0 0.17830502025299472 -0.5091062990249567
2600000000.0 -0.005487418068903254 0.5662283056631987
2620000000.0 -0.15427969738317956 -0.569555841400429
2640000000.0 0.2842325852817219 0.5374447464890378
2660000000.0 -0.5788518191857188 -0.2340391265628689
2680000000.0 0.411304819314169 -0.4828627383624989
2700000000.0 0.5687190176487763 0.3007957349730292
2720000000.0 0.28082102783381013 0.583629549277431
2740000000.0 0.17180564166301962 0.6247522647140694
2760000000.0 0.049545587981179154 0.6449603370484186
2780000000.0 -0.5920670116389668 -0.23993685723256694
2800000000.0 -0.3818984574195191 -0.4989328286103065
2820000000.0 0.1807651548072371 -0.5885606786618162
2840000000.0 0.4367636994383708 0.41294413548428777
2860000000.0 -0.4802119833417907 -0.3371783608850155
2880000000.0 0.25715865284026296 0.5081973101433852
2900000000.0 0.39921341342600886 -0.37762995833606944
2920000000.0 -0.009282331365776837 -0.527476844412059
2940000000.0 -0.33718825665599306 -0.37503824558084475
2960000000.0 -0.23216360509436795 -0.4203790714298209
2980000000.0 -0.2720007570849439 -0.3688646823672096
3000000000.0 -0.2834809037952447 -0.33576077839374685
3020000000.0 -0.4215466222174793 0.023566785353627644
3040000000.0 -0.09437121927842686 0.3885718438651171
3060000000.0 0.37073524117117296 -0.09144389836535631
3080000000.0 -0.31263100066646354 -0.1879390029221275
3100000000.0 0.24444880160308324 0.2515400812921933
3120000000.0 0.3074330182277861 -0.15608006368742763
3140000000.0 -0.2215147003431457 0.2580006023214698
3160000000.0 0.12792590087948513 -0.31209319409741826
3180000000.0 0.021562255935901085 0.33373465703109334
3200000000.0 0.3086699461466282 -0.11390914872544709
3220000000.0 -0.18928696636915113 -0.2631708618474903
3240000000.0 -0.3110678890296338 -0.0543787034559287
3260000000.0 -0.2994203618269495 0.061274417791729596
3280000000.0 -0.2904031054623071 0.04793085470873428
3300000000.0 -0.272155584946803 -0.052550498390179314
3320000000.0 -0.16324938067254252 -0.19448144966314856
3340000000.0 0.22215996023679466 0.061776355717579466
3360000000.0 -0.18694832917163517 0.09067394237147813
3380000000.0 0.13592650495073577 -0.13196247427227728
3400000000.0 0.08577079510975251 0.14353845715333927
3420000000.0 0.04862756319199466 0.13558637568361057
3440000000.0 -0.11446316368177632 0.05112774043872549
3460000000.0 -0.09230245877857861 0.05232096637594273
3480000000.0 0.08674234023901385 -0.01310463624986179
3500000000.0 -0.0757629133390478 -0.023802622391821526
3520000000.0 -0.02730046272832081 -0.07174665240427713
3540000000.0 0.07038758763761828 -0.03050037800112761
3560000000.0 0.04195121447783907 -0.07630719574967082
3580000000.0 -0.056978535606555795 0.07325565427234781
3600000000.0 -0.0458159343475221 0.08634186505855472
3620000000.0 0.05425620568237939 -0.09764599236058778
3640000000.0 0.12282435660707273 0.027361325686945107
3660000000.0 0.03458385065689803 0.13155408342200317
3680000000.0 0.015090774838842467 0.14033853771455473
3700000000.0 -0.08024273226076925 -0.1074942126801443
3720000000.0 0.11140068057129973 -0.043824809141499166
3740000000.0 0.02762196924742102 -0.0970121226023629
3760000000.0 0.06704800534389654 -0.050841693024784654
3780000000.0 -0.0501755624485749 -0.03939644445176204
3800000000.0 0.03140828990231835 0.011116854413576778
3820000000.0 0.001979110793081208 -0.0018164789632542902
3840000000.0 -0.03617456621149487 0.0006267876261721784
3860000000.0 0.050712744606626683 -0.04321788195943091
3880000000.0 0.07531767966161182 -0.05385243608106374
3900000000.0 -0.05103423337256657 -0.10021592435560532
3920000000.0 -0.12398214106179624 -0.032167097909016944
3940000000.0 -0.10719369991330148 0.0839831159447395
3960000000.0 -0.13002873998989176 0.04820446450018321
3980000000.0 0.13426236640707612 0.012320665388025535
4000000000.0 0.07228572888429492 -0.08766393219596184
