!Created with skrf (http://scikit-rf.org).
# Hz S RI R 50.0 
!freq ReS11 ImS11
400000000.0 0.7869142466605838 0.374063360891466
420000000.0 0.31029405038565355 0.7560560596893038
440000000.0 0.4125422874525165 0.6369109087156666
460000000.0 -0.5867417085440562 -0.3524193314832863
480000000.0 0.0761072411492145 -0.6164427362488302
500000000.0 0.6367997476594076 -0.16586072003229824
520000000.0 -0.12875581534803218 0.6563920018414333
540000000.0 0.635523437151609 -0.22733627608484
560000000.0 -0.29249919949135317 0.6014568568474107
580000000.0 -0.23616839942136936 0.4591838887796346
600000000.0 -0.12446419794237862 0.5796339410114922
620000000.0 -0.13673292284835364 -0.5963003421664216
640000000.0 -0.3469403599136862 -0.4544577030475635
660000000.0 0.40194946298305234 0.35267852523508175
680000000.0 0.28408664877570317 0.3954380614411386
700000000.0 0.2702606961015515 0.35641519366752683
720000000.0 -0.2617381864936094 0.4090581339605591
740000000.0 -0.24111324105205625 0.4126820329978355
760000000.0 0.40903962414623274 0.19383882642796915
780000000.0 -0.4166094296321961 0.09338391003479217
800000000.0 0.10230711440989503 -0.3809457294198918
820000000.0 -0.025498981885999708 0.3561069698645089
840000000.0 0.23275108257936541 0.229186304584002
860000000.0 -0.007395839237133398 -0.2967368800554577
880000000.0 0.06863115377408031 0.2614151818853187
900000000.0 -0.08864129201654505 0.2533776258065811
920000000.0 0.20297809612437384 0.16189046392908896
940000000.0 0.17120876276020494 0.1469036419292355
960000000.0 -0.11588476482449878 -0.13878950285990047
980000000.0 -0.06243081732858388 0.1355992567841432
1000000000.0 -0.016682324042394194 -0.13059658962876802
1020000000.0 -0.07551565340298168 -0.06338363679394111
1040000000.0 -0.09179340159514766 -0.061778599765386175
1060000000.0 0.09548743963313543 0.10834357817064899
1080000000.0 0.19200289023921874 -0.012743576453379
1100000000.0 0.07804180608253868 0.22376643685087752
1120000000.0 0.27722924576027524 0.006251563476111468
1140000000.0 -0.29017073737694143 0.08755544350506966
1160000000.0 -0.21427937251817375 0.23335469990041546
1180000000.0 -0.33699733545694693 -0.011414173404556424
1200000000.0 -0.31483748825521424 -0.15577216941805627
1220000000.0 0.3504241734256415 0.071487002914572
1240000000.0 0.2309691335119272 0.2974308846672486
1260000000.0 0.34844098369665416 -0.18307022867093228
1280000000.0 -0.31982529791785524 -0.21388548523594714
1300000000.0 -0.10685865791024121 -0.3644978407879349
1320000000.0 -0.08017813733956343 -0.3718944063689001
1340000000.0 -0.3458456078994164 0.12490058957074848
1360000000.0 0.06891011195153297 0.38032836750008986
1380000000.0 -0.15059920289301745 0.37429024731450394
1400000000.0 -0.08794440924685586 -0.38605783797325366
1420000000.0 -0.0456602668366308 -0.38939318732359507
1440000000.0 -0.2764077655681946 -0.28286152237981316
1460000000.0 -0.396733362416085 -0.011756844291969751
1480000000.0 -0.27606711197441614 -0.28591869517018886
1500000000.0 0.16552426952284063 0.3630440266558759
1520000000.0 -0.3891936153800584 -0.0018619114118452196
1540000000.0 0.36263838803680887 0.0023242136128809768
1560000000.0 -0.16979042179020598 0.2821617949678402
1580000000.0 -0.13191921041429203 -0.25956017203725934
1600000000.0 0.09218502848603649 -0.24095222869466354
1620000000.0 0.19155867117233843 -0.10489651090848158
1640000000.0 -0.1356518073161597 0.12453686802619324
1660000000.0 -0.10514609199714728 0.11261409901822167
1680000000.0 0.09541461237066609 -0.06006631470422034
1700000000.0 -0.09969994533799634 0.02425194548293746
1720000000.0 0.05871230126012929 -0.05338037090322141
1740000000.0 0.07632984100189 -0.02322137755627672
1760000000.0 -0.06270188076442003 -0.06172788927892636
1780000000.0 0.10333349628789341 -0.05503712466890773
1800000000.0 -0.0060027168366358526 -0.1396395274032234
1820000000.0 -0.15893719211654564 -0.05432875736392645
1840000000.0 0.17498452316281807 -0.08459868963461342
1860000000.0 -0.22211155794814175 -0.007625591132001399
1880000000.0 -0.05475052607054913 0.250692956632232
1900000000.0 0.16719631921752348 0.21880390478475623
1920000000.0 0.1584513117184053 -0.24607634204761675
1940000000.0 -0.30197223858759203 -0.03558175541542273
1960000000.0 0.30903403652994527 0.0008502187738989557
1980000000.0 -0.31045991408866136 -0.05412982189239255
2000000000.0 0.12121864739158242 -0.29642816561059904
2020000000.0 0.32133689182272623 -0.004208233243232231
2040000000.0 0.32208504978612484 -0.0032825719668866183
2060000000.0 0.31502387292015954 0.02231792717518939
2080000000.0 0.10833050230582296 0.2955520382333767
2100000000.0 0.10606490466603763 -0.2945878970458141
2120000000.0 0.26095491093509204 0.16026601998717951
2140000000.0 -0.1262945185314212 -0.27316748411822767
2160000000.0 -0.25533952235517254 0.1492453955368084
2180000000.0 0.041588369308098894 0.28518830840103226
2200000000.0 -0.12369132082969946 0.2552350697168247
2220000000.0 -0.17699286082425958 0.22018153185679784
2240000000.0 -0.17297240253038434 -0.2162063140171415
2260000000.0 0.15984894818404272 -0.21968880510540362
2280000000.0 0.27188251320708096 0.010037997960947136
2300000000.0 0.20040412582800549 0.16738576033286226
2320000000.0 -0.25473061749321296 0.0128015842363819
2340000000.0 -0.10594726828117706 -0.23095256812567308
2360000000.0 0.25463920737766405 0.006469648347928145
2380000000.0 0.056906995887495565 0.25422710242105495
2400000000.0 0.23273123112314195 0.15546390628857903
2420000000.0 0.12206941389910732 -0.2704604469464561
2440000000.0 -0.23050882617747037 0.21624329504695813
2460000000.0 0.3335238542157836 -0.04550576335748226
2480000000.0 0.15918567351181653 -0.3359303248330612
2500000000.0 0.0486842732810451 0.40425210090266367
2520000000.0 -0.4218726821347249 -0.14162980341579334
2540000000.0 0.4405062025931989 -0.1847070669636041
2560000000.0 -0.35528287271134934 0.36638627231427234
2580000000.0 0.2224475447356379 -0.4933191669214188
2600000000.0 -0.02744917917898257 0.5661760916407088
2620000000.0 -0.07171933756706843 -0.584123757719118
2640000000.0 0.2481246953569382 0.5536031805371203
2660000000.0 -0.5845144443168858 -0.2139475772369997
2680000000.0 0.43228293132081 -0.4610398913470303
2700000000.0 0.6200657016804342 0.16250678191675166
2720000000.0 0.4277304043245058 0.4844132499845899
2740000000.0 0.2526549998627953 0.5954940528870137
2760000000.0 0.1534643462000093 0.6273161230116716
2780000000.0 -0.6194408219644272 -0.15883022100813915
2800000000.0 -0.45961358660077495 -0.42995725757411035
2820000000.0 0.16643456675491305 -0.5937059266682205
2840000000.0 0.44060386143347824 0.41106783703543465
2860000000.0 -0.4958074676567729 -0.3154710372192999
2880000000.0 0.2183625507026978 0.526092806468709
2900000000.0 0.4580877170778401 -0.3015271784923101
2920000000.0 -0.004392197595204958 -0.5271862504445183
2940000000.0 -0.3021713130554805 -0.40126085350733814
2960000000.0 -0.2440435128844056 -0.41159577870392
2980000000.0 -0.3342824680153947 -0.31184686000420136
3000000000.0 -0.29259442717054196 -0.3247089428506123
3020000000.0 -0.4050792474467111 0.10993454056846252
3040000000.0 0.12667552215039002 0.3787513194396661
3060000000.0 0.3640050140325966 -0.10714116540377601
3080000000.0 -0.352833054158245 -0.10020762255764273
3100000000.0 0.33559018693827286 0.10243915542486333
3120000000.0 0.26685898027148225 -0.21785347804148938
3140000000.0 -0.16253806984644675 0.2997159429427862
3160000000.0 0.08300495038440758 -0.3277805801768256
3180000000.0 0.03579435145174362 0.3335985506977114
3200000000.0 0.31535433561052634 -0.09106537750388513
3220000000.0 -0.13983776617684415 -0.2934473657072021
3240000000.0 -0.3029563935215741 -0.09044393757693374
3260000000.0 -0.2950873562101741 0.07488118498496299
3280000000.0 -0.2915712191184227 -0.027283305622681615
3300000000.0 -0.2641426979296465 -0.07990658456220023
3320000000.0 -0.1754835051116372 -0.1835122495664221
3340000000.0 0.22559590595036397 0.029932792318257892
3360000000.0 -0.19173273556071632 0.07716126098591378
3380000000.0 0.10302625225045818 -0.15739849493961536
3400000000.0 0.16571319779549912 0.011884693721110536
3420000000.0 0.1289646270446372 0.05783344650295383
3440000000.0 -0.10670264637547003 0.06643887091830199
3460000000.0 -0.004909325314399593 0.10745192216386405
3480000000.0 0.05642212223288244 -0.06779639140155114
3500000000.0 -0.029834551128486767 0.07456782556259212
3520000000.0 -0.032447568328738886 -0.07220415454960691
3540000000.0 0.05115411598419121 -0.060086683697177096
3560000000.0 0.08306738987593817 -0.024405386537660178
3580000000.0 -0.07828592667497566 -0.05246619324906969
3600000000.0 -0.09647088669005544 0.019391801279099407
3620000000.0 0.10309569085235744 -0.04133411262281695
3640000000.0 0.050787262019014345 0.11345768465171739
3660000000.0 0.02314988745523195 0.1319647213802003
3680000000.0 0.005178090672099575 0.13746681339248662
3700000000.0 -0.07987772000495481 -0.10391837199365936
3720000000.0 0.11184169161968761 -0.03818124068561076
3740000000.0 -0.09922584586165543 -0.011794355173178525
3760000000.0 -0.06454554086935502 -0.05226174186063737
3780000000.0 -0.02288727786417636 0.058535971952960446
3800000000.0 0.006094171081617867 0.03396041393406192
3820000000.0 -0.002617401286129424 -0.0001744371305315841
3840000000.0 -0.0028714652570807145 -0.03431308814809405
3860000000.0 0.028476057675936823 -0.05637653303014787
3880000000.0 0.041690606013629776 -0.07928062927692643
3900000000.0 -0.10792932098163044 -0.019002252558907615
3920000000.0 -0.09902856425102559 0.07664294011258112
3940000000.0 -0.00267605508586271 0.13553175896184988
3960000000.0 0.10292391170844659 0.09315859266492112
3980000000.0 0.032411162389650736 -0.12923191896342365
4000000000.0 -0.014942026521363498 -0.11436218160813096
