!Created with skrf (http://scikit-rf.org).
# Hz S RI R 50.0 
!freq ReS11 ImS11
400000000.0 0.7825437376368923 0.38470976058867945
420000000.0 0.2827932560997794 0.7652459951006632
440000000.0 0.32560100265702113 0.6876466935953607
460000000.0 -0.5761084830033781 -0.3768409857806688
480000000.0 -0.2918317606553784 -0.5437249648573128
500000000.0 0.6524876236655647 -0.029528966615475046
520000000.0 -0.37961292313694006 0.5541806833688946
540000000.0 0.6111215905619827 -0.2902316106988885
560000000.0 -0.31774991273677494 0.5855875592529847
580000000.0 -0.36799010018518136 0.36969354924647957
600000000.0 0.0337547168286142 0.5947086011729232
620000000.0 -0.44260058282972714 -0.4245830616424543
640000000.0 -0.5464235505798904 -0.1504015177896433
660000000.0 -0.10086427385186628 0.513159335835584
680000000.0 -0.01064215210223588 0.49760551623926086
700000000.0 0.39029245264050694 -0.22277855218778742
720000000.0 -0.3240895803715315 0.364009896401086
740000000.0 0.3959808759007156 0.2562998803064182
760000000.0 -0.34442270052621116 0.2871648821605668
780000000.0 -0.39700616091489527 0.17655336022359636
800000000.0 -0.08619663784619698 -0.3900120310265132
820000000.0 0.3409989528778307 -0.06627670499142843
840000000.0 -0.12508537713394524 0.29623215780787404
860000000.0 0.2551942154877351 -0.16028664894504352
880000000.0 0.1719683628889126 0.20783005381232242
900000000.0 -0.07911219341273258 0.2551329177386401
920000000.0 0.19489550487209056 -0.17557868571538607
940000000.0 0.10091778470851645 0.20037375013043981
960000000.0 -0.1739281050532579 0.0402386318832363
980000000.0 -0.10877313805620689 -0.09429030350039593
1000000000.0 0.1339983649098304 -0.006100685561249879
1020000000.0 -0.08627951725769271 0.04205161128302319
1040000000.0 -0.08761248435510094 -0.07502166576773837
1060000000.0 0.14046687463751129 -0.02767832412322286
1080000000.0 0.138519678918256 0.14103149577243207
1100000000.0 0.21660395547930655 0.10118874314933567
1120000000.0 0.2598258848292262 -0.09550433348405088
1140000000.0 -0.300276799684864 0.009629396288348462
1160000000.0 -0.3023905790291269 0.09307195249452821
1180000000.0 -0.2921319953299467 -0.1717631736782326
1200000000.0 -0.35100600320125863 -0.034524988111016036
1220000000.0 0.3497063250182619 -0.04544208052066233
1240000000.0 -0.04798903042572035 0.3729208730384186
1260000000.0 0.38015951501726075 -0.11161551403888462
1280000000.0 -0.38170844819517585 -0.05859671041450937
1300000000.0 -0.25417297291189067 -0.279716836201976
1320000000.0 0.10678949269273243 -0.3614800532357745
1340000000.0 -0.368127259908218 -0.053462584313068294
1360000000.0 0.237176246087394 0.3092782305116198
1380000000.0 -0.1335118491366027 0.37744876231335434
1400000000.0 0.0026117846146868216 -0.395384098953652
1420000000.0 0.12798005849601263 -0.3714676623531305
1440000000.0 -0.2814287261718161 -0.28085620353241375
1460000000.0 -0.3906237164484421 0.05396513555894619
1480000000.0 -0.21272401516797587 -0.33262070656762704
1500000000.0 -0.011102559709499476 0.4009770435602514
1520000000.0 -0.38820566426642655 0.029162105793636182
1540000000.0 0.24698300569996456 -0.26301318668637647
1560000000.0 -0.22374550133353432 0.2368878916300375
1580000000.0 0.027042125041256988 -0.2928848292068542
1600000000.0 -0.09478353410201829 -0.24373859881575047
1620000000.0 0.07302596201710518 -0.2021455747462056
1640000000.0 -0.15697042015479043 0.09274136638278314
1660000000.0 -0.15202993036450052 -0.031538123039134704
1680000000.0 0.06277029924150042 -0.09796682935090899
1700000000.0 -0.07920224811582578 0.06356026474127976
1720000000.0 0.06861786907163901 0.038522780941902715
1740000000.0 0.08022680467370265 -0.015400382162780672
1760000000.0 -0.08777892768407038 -0.01745867777241383
1780000000.0 0.11137474449910273 0.026510153654393673
1800000000.0 0.13988843737093723 -0.012544020308375559
1820000000.0 -0.12632238466536883 0.11060931169413635
1840000000.0 0.16346218031435536 -0.1059916913826444
1860000000.0 -0.2181919300098781 -0.034103609657018995
1880000000.0 -0.09270004981390394 0.23920164721940146
1900000000.0 0.1476621346937322 0.2314002036765377
1920000000.0 0.18385754687812594 -0.22899403823374898
1940000000.0 -0.2997841691827108 -0.046928817126811705
1960000000.0 0.301220979217836 -0.06637872108528484
1980000000.0 -0.3024255355024034 -0.08687336314074344
2000000000.0 0.006263223518529676 -0.3208076529444784
2020000000.0 0.3165611390728041 -0.050355570899553836
2040000000.0 0.3120684846630347 0.0797276620942471
2060000000.0 0.31328507834707214 0.053906585495099
2080000000.0 0.06159499389961865 0.3097001802498285
2100000000.0 0.12962340735609854 -0.2864759726920154
2120000000.0 0.2955239568973992 0.07710391285718357
2140000000.0 -0.02136764947313059 -0.2976554769413527
2160000000.0 -0.2748773953368941 0.10989171740391959
2180000000.0 -0.018654616438242358 0.2888272621445744
2200000000.0 -0.0769442442177184 0.27238973719350235
2220000000.0 -0.22676084807401597 0.1674475680344446
2240000000.0 -0.2369451012288695 -0.1415702448179461
2260000000.0 0.16892660316094468 -0.21112734029879293
2280000000.0 0.2696052895076343 0.03759773568329342
2300000000.0 0.2544522346041291 0.055336626053625396
2320000000.0 -0.2514113087487892 -0.04099813790223412
2340000000.0 -0.05032733517742055 -0.25122638276670234
2360000000.0 0.20323474384908316 -0.15522359362578356
2380000000.0 0.07076555603527464 0.24742912895089803
2400000000.0 0.14861783088811328 0.23812652581774932
2420000000.0 0.08541227365340924 -0.285395863723091
2440000000.0 -0.22134892369362447 0.22547622421786653
2460000000.0 0.3191161983550508 0.10746625386212802
2480000000.0 0.22146322118303083 -0.2996639502354087
2500000000.0 0.09258857619305262 0.39587872628281523
2520000000.0 -0.3672319731770533 -0.24886424646075836
2540000000.0 0.46794210390164204 -0.09656565120163958
2560000000.0 -0.34273060554442486 0.37821393622381816
2580000000.0 0.18547610855167715 -0.5073041890320141
2600000000.0 -0.07326833720600588 0.5619167441002711
2620000000.0 -0.0886179923495331 -0.5827517170371351
2640000000.0 0.25817806404716453 0.5490039030394331
2660000000.0 -0.5719901659346899 -0.24667845463057192
2680000000.0 0.43252075730068856 -0.4620436824938136
2700000000.0 0.6228259500857753 0.15371898631591502
2720000000.0 0.3884424489471865 0.517277734031782
2740000000.0 0.21741129833565548 0.6099479083888032
2760000000.0 0.07697965218730402 0.6420982076247902
2780000000.0 -0.6078405960275697 -0.19961407810918458
2800000000.0 -0.4470832317486032 -0.4434842914334456
2820000000.0 0.16904043255157852 -0.5932815798378608
2840000000.0 0.4452374721980198 0.4050236111870986
2860000000.0 -0.47554811904480904 -0.34423316127703113
2880000000.0 0.22440360523375028 0.5239011220240777
2900000000.0 0.40900075467304964 -0.3655951893654119
2920000000.0 0.017287406611353813 -0.5260909615065061
2940000000.0 -0.3554150092092486 -0.35644641778689307
2960000000.0 -0.2691989823726873 -0.39663199090289314
2980000000.0 -0.316953085615847 -0.329720949920671
3000000000.0 -0.3449046454435983 -0.27115720646771324
3020000000.0 -0.40986228364021154 0.09468492784424173
3040000000.0 0.05971754516169911 0.39584566438540075
3060000000.0 0.3438922368033238 -0.16380422918397933
3080000000.0 -0.3358943853970298 -0.143265940450815
3100000000.0 0.30382301531886124 0.17739947885363383
3120000000.0 0.29218728251405807 -0.18161320906486839
3140000000.0 -0.19946919134550792 0.27562946511062886
3160000000.0 0.11661365023461594 -0.31709387111131365
3180000000.0 0.10557330796918257 0.31771282224808683
3200000000.0 0.3145796967502973 -0.09421245841425242
3220000000.0 -0.20581171848684904 -0.2509833137981923
3240000000.0 -0.3107523351826602 -0.0632095375240484
3260000000.0 -0.28390235069249553 0.1124950631910755
3280000000.0 -0.29375209529218027 -0.0032924497987658714
3300000000.0 -0.27442726387761013 -0.039889861849823675
3320000000.0 -0.15895597999652183 -0.19911005562210374
3340000000.0 0.22546406865041954 0.03694131825888879
3360000000.0 -0.1849818706795489 0.09198228853737568
3380000000.0 0.13160716599447433 -0.13491921840227084
3400000000.0 0.1556255565999933 0.060309121696256004
3420000000.0 0.09575375229930934 0.10604488814241109
3440000000.0 -0.09486144179661805 0.08018817536106973
3460000000.0 -0.03751494533894405 0.10036531424143909
3480000000.0 0.059309223270149494 -0.06560053324309309
3500000000.0 0.029594483574047207 0.07404709335455825
3520000000.0 0.019757547660671393 -0.07515737277019438
3540000000.0 0.07207709290755498 -0.031756514673765064
3560000000.0 0.0734560973080847 -0.04896109741688566
3580000000.0 -0.08628584327050158 0.03574840764276668
3600000000.0 -0.09285834425405982 0.03306045527035314
3620000000.0 0.07310579650257334 -0.08369083875088404
3640000000.0 0.04528614130421062 0.1162447896704719
3660000000.0 -0.0289967614571875 0.13210643549431203
3680000000.0 0.05331169259388387 0.12931689308920463
3700000000.0 -0.1135698805154944 -0.06671298829798233
3720000000.0 0.11770081795583513 -0.007490795685741922
3740000000.0 -0.09371233046244484 -0.03813208422744328
3760000000.0 -0.06065281940223484 -0.055615185790107165
3780000000.0 -0.06333695463259853 -0.0013531613940701917
3800000000.0 -0.009956580283649583 -0.03313071917468051
3820000000.0 -0.0023454844135380798 -0.0005891656846426464
3840000000.0 -0.007954721635114053 -0.03405960567786735
3860000000.0 0.0055194873667285815 -0.06380300593109942
3880000000.0 0.045194128469789215 -0.0797310535066873
3900000000.0 -0.1028665017666106 -0.041386993094109994
3920000000.0 -0.08618851056775137 0.09180048773603759
3940000000.0 -0.09883610337262727 0.09314784487016259
3960000000.0 0.03032664797753251 0.13644449288753902
3980000000.0 0.07139270671465181 -0.11323080364923692
4000000000.0 0.02098376848737788 -0.11318778603232296
