!Created with skrf (http://scikit-rf.org).
# Hz S RI R 50.0 
!freq ReS11 ImS11
400000000.0 0.7449519554774643 0.4525671523038667
420000000.0 0.28522471696868 0.7650885918397471
440000000.0 0.4617399159968985 0.6040605916440278
460000000.0 -0.5917223638675827 -0.3469990284979196
480000000.0 -0.11406023970463475 -0.610934345706542
500000000.0 0.5747411456018532 -0.3143251338017671
520000000.0 -0.4773321113310157 0.46916834268904783
540000000.0 0.6569760399966028 -0.18279536772708704
560000000.0 -0.10656178487944688 0.6615879064174429
580000000.0 -0.4818329011437152 0.1847683542916581
600000000.0 -0.18194038908562296 0.5669505274306491
620000000.0 -0.5288132862718601 -0.31278922848233215
640000000.0 -0.49342586526870924 -0.2821244485302909
660000000.0 0.22338594283063654 0.47381475183194355
680000000.0 -0.06201490490586916 0.49128472111362775
700000000.0 0.44173738762134 -0.09790640780873015
720000000.0 -0.38915605076345766 0.29659528345548164
740000000.0 0.27421288231861896 0.3833834107162234
760000000.0 0.11207179258919926 0.4368065539692311
780000000.0 -0.4298831699249232 0.00060855413557616
800000000.0 0.25233425831749 -0.3025689572272836
820000000.0 0.253652726881913 0.24950492244014183
840000000.0 0.11745633428813933 0.3014671394003871
860000000.0 0.19042307432757632 -0.22711971194609074
880000000.0 0.1512216878496323 0.22808094514377425
900000000.0 -0.07266473409037782 0.2586329454645833
920000000.0 0.20673144766067372 -0.15279509382019124
940000000.0 0.1069548741972088 0.19833543857597474
960000000.0 -0.12667066238634608 -0.12757748834112362
980000000.0 -0.11073723469004951 0.09397100891987685
1000000000.0 0.12920387557210455 -0.00643337953770377
1020000000.0 -0.024456445949937983 -0.09636136044682941
1040000000.0 -0.11214752496908585 -0.009013072676354237
1060000000.0 0.13443190670038874 -0.06008934656239943
1080000000.0 0.1698820259160951 -0.09375730076853513
1100000000.0 0.19851357049877405 0.13435206220248017
1120000000.0 0.26567280899819945 0.0762402471799006
1140000000.0 -0.2862223429424176 0.09967660175934026
1160000000.0 -0.3090424322898285 0.07559768062869489
1180000000.0 -0.32031355728477234 -0.09862555282826312
1200000000.0 -0.26873045024350223 -0.22526802834707293
1220000000.0 0.35527175559359203 0.03145409538591922
1240000000.0 0.215184149423214 0.3080225124717629
1260000000.0 0.36519039993466407 -0.14371829134428846
1280000000.0 -0.3796641408800929 -0.06371753579784226
1300000000.0 -0.08119221292748206 -0.37027057070510166
1320000000.0 -0.012442614745268277 -0.3812148475829168
1340000000.0 -0.37082551385434165 -0.0038960396091003774
1360000000.0 0.2715983481129673 0.2788310372373787
1380000000.0 -0.20070943179181353 0.34521928475852953
1400000000.0 0.04287372944458958 -0.39459094732168826
1420000000.0 0.047875395465392316 -0.3916280912108598
1440000000.0 -0.17290146925049416 -0.3542411441446732
1460000000.0 -0.3691591281664847 -0.1417727527340965
1480000000.0 -0.3309117960527274 -0.21572484391320515
1500000000.0 0.08064802538433245 0.39192252263024124
1520000000.0 -0.38560985090480787 0.018769647911721764
1540000000.0 0.36129945382762896 -0.01082621959250289
1560000000.0 -0.21274483988745252 0.25143840021827646
1580000000.0 -0.22060984993629926 -0.1926205939514186
1600000000.0 0.04604810567628694 -0.25387666316191826
1620000000.0 0.16811241105867208 -0.140705653324166
1640000000.0 -0.1788548599391213 0.04731665683414417
1660000000.0 -0.07785724007575179 0.13407386287297163
1680000000.0 0.10479584161448656 -0.043784737155055396
1700000000.0 -0.09664019530529194 -0.03664690464330069
1720000000.0 0.08166001567489019 0.0029658332933288315
1740000000.0 0.07798218252064837 -0.016615621364017952
1760000000.0 0.03760464347722193 -0.08168426885795825
1780000000.0 0.10773435813604974 -0.04327124931554646
1800000000.0 0.12670819538508557 0.06104516843452218
1820000000.0 -0.16224561661271072 0.040519584840960396
1840000000.0 0.19352020333869352 0.02489783687242889
1860000000.0 -0.20550859031764981 -0.08450152960396815
1880000000.0 -0.020168240297665837 0.2538989678085371
1900000000.0 -0.01592444132254856 0.27260540869809186
1920000000.0 0.2072414879719015 -0.20819772582737933
1940000000.0 -0.3042277083692823 0.009236404837255564
1960000000.0 0.29762902417423825 -0.07505087777904475
1980000000.0 -0.31010567171270736 -0.04633327176461701
2000000000.0 0.06268389796428528 -0.3142845227145276
2020000000.0 0.31304162129190644 -0.07620720282384712
2040000000.0 0.3223452720887419 0.008082870778949322
2060000000.0 0.3112109394986695 0.06359597944609519
2080000000.0 -0.015934225612904886 0.315825857535482
2100000000.0 0.1191442951092056 -0.2922129627805577
2120000000.0 0.23811904875265413 0.19075736370029486
2140000000.0 0.060181963916699346 -0.2934722409827853
2160000000.0 -0.29096497668567284 0.05387509403162787
2180000000.0 -0.07095128393792492 0.27871497676628804
2200000000.0 -0.19837055379873053 0.2013894897167029
2220000000.0 -0.20719715158754723 0.18972959386952748
2240000000.0 -0.2156561315879954 -0.17130500602097853
2260000000.0 0.12191515714154388 -0.23973822281914972
2280000000.0 0.2702792785828714 -0.023494202002642513
2300000000.0 0.2560261718094455 0.04967480005059034
2320000000.0 -0.2513200118395301 0.04351853291535177
2340000000.0 -0.061973429883655964 -0.2486409369293655
2360000000.0 0.22094008488026928 -0.1317163994308512
2380000000.0 0.1390792108328714 0.21957965774168184
2400000000.0 0.11907608467006693 0.25487565852751093
2420000000.0 0.0875414224312903 -0.2854111127955485
2440000000.0 -0.3020007195568331 0.09257323829367131
2460000000.0 0.25136971638144195 0.22766099404804738
2480000000.0 0.23755189206336114 -0.28752279744017756
2500000000.0 0.03770178367878616 0.4044366257655344
2520000000.0 -0.3598380836755265 -0.2583129522086146
2540000000.0 0.4762474644220267 0.01780087337480563
2560000000.0 -0.3177903186511748 0.3990569116793678
2580000000.0 0.20154443206382033 -0.5005414640669471
2600000000.0 -0.0036995929802605748 0.5662399505830935
2620000000.0 -0.1426757022797483 -0.5723103838151373
2640000000.0 0.268801426914065 0.5451548796647272
2660000000.0 -0.5747782713381107 -0.243390795304141
2680000000.0 0.3896930648426186 -0.5002911717248324
2700000000.0 0.5852831609803347 0.26664313960989083
2720000000.0 0.2930555723359473 0.5769637190118574
2740000000.0 0.16525627887195854 0.6268149697399278
2760000000.0 0.06995518505707302 0.6435390720961888
2780000000.0 -0.565314780412555 -0.298520564939952
2800000000.0 -0.3617521610657468 -0.5141667091463362
2820000000.0 0.19250073683372 -0.5852797336010889
2840000000.0 0.4304691799387142 0.4199462985029984
2860000000.0 -0.49221838353936137 -0.31913130017315966
2880000000.0 0.25215769987139874 0.5109417865562431
2900000000.0 0.414887430584492 -0.36028100129877455
2920000000.0 -0.040863502724269564 -0.5266375045617312
2940000000.0 -0.34731337147966534 -0.3650373655789396
2960000000.0 -0.217945171842079 -0.42845787887702025
2980000000.0 -0.2894061416858371 -0.3554722655612676
3000000000.0 -0.3259754218159762 -0.29433200568755813
3020000000.0 -0.4211196534801267 0.02966850271266345
3040000000.0 0.09972165749592538 0.3879648387538041
3060000000.0 0.3774553980865589 0.04511172972243497
3080000000.0 -0.29225568366394544 -0.22151143156107306
3100000000.0 0.30305422573478663 0.17729248272381748
3120000000.0 0.31672679402598725 -0.13422468047226083
3140000000.0 -0.24201115312737242 0.23862693771993285
3160000000.0 0.1420129284585876 -0.30647661041994867
3180000000.0 0.05711858572801675 0.328664570840065
3200000000.0 0.31952959065495967 -0.07825404183512459
3220000000.0 -0.2074720872708945 -0.2490976793233571
3240000000.0 -0.3125614914104828 -0.05049245286060256
3260000000.0 -0.2839816995343266 0.11275183601622873
3280000000.0 -0.29457033928773424 0.012804438210347777
3300000000.0 -0.2778057897983103 -0.0006361830865338597
3320000000.0 -0.17098147385539716 -0.18751871590562028
3340000000.0 0.22369277729687043 0.05752720051202748
3360000000.0 -0.1904888737834395 0.08185012918401861
3380000000.0 0.12707648788719858 -0.14056527510327999
3400000000.0 0.1100935710829021 0.12565802430356737
3420000000.0 -0.0005402704225749676 0.14310563355109468
3440000000.0 -0.10505449788618011 0.071670702553257
3460000000.0 -0.07832927866634319 0.07012093717172796
3480000000.0 0.08614233344294003 0.020076154363954168
3500000000.0 -0.05751838525139788 0.054440571986868934
3520000000.0 -0.009787070673680037 -0.07589084601971892
3540000000.0 0.07119064435447368 -0.03146934768369532
3560000000.0 0.03197546918992364 -0.08084573627918128
3580000000.0 -0.05821422212561834 0.07314339308027014
3600000000.0 0.002660563882669536 0.09806738564177313
3620000000.0 0.07187066407060726 -0.08493132235459298
3640000000.0 0.121002338102014 0.03610805876820469
3660000000.0 -0.017492482545066197 0.13480567384895994
3680000000.0 0.03295844650299868 0.13762582992281258
3700000000.0 -0.11032539314629809 -0.07466781725814522
3720000000.0 0.09340319693354258 0.07430544235321568
3740000000.0 0.005886493144646341 -0.10087552438911455
3760000000.0 0.02632629650692825 -0.07999531620189768
3780000000.0 -0.05153365807050437 -0.03557593621502551
3800000000.0 0.004439674200799115 0.03451477785097507
3820000000.0 0.0017981100673275113 0.000400143614658929
3840000000.0 -0.03462998296558587 -0.011307302420517282
3860000000.0 -0.028404741424312145 -0.05921933964505672
3880000000.0 0.09053493185802425 -0.01930571016306648
3900000000.0 -0.06478619116694544 -0.09277101314092774
3920000000.0 -0.12726785398298646 0.0075785221309114656
3940000000.0 -0.12769466781188532 0.04437502400055517
3960000000.0 -0.13591744883078197 -0.03313054960001918
3980000000.0 0.10674286042249218 -0.08053436499948514
4000000000.0 0.09704601884003868 -0.05447809476744356
