!Created with skrf (http://scikit-rf.org).
# Hz S RI R 50.0 
!freq ReS11 ImS11
400000000.0 0.7843297585751455 0.37847361364066545
420000000.0 0.28461683715641206 0.7657789604320385
440000000.0 0.36364628213424416 0.6671284770384677
460000000.0 -0.5676430270688801 -0.3868022000918046
480000000.0 -0.19293217145230937 -0.5889329976164003
500000000.0 0.5956778486480745 -0.26785996839202814
520000000.0 -0.401198112079011 0.5345536093395026
540000000.0 0.6766063487681837 -0.0634289291560371
560000000.0 -0.43361672271127144 0.5123272636399311
580000000.0 -0.15208309522433258 0.5011625482396944
600000000.0 -0.0530457366239063 0.587957558775547
620000000.0 -0.37017541416142075 -0.4904840322145358
640000000.0 -0.47870207117155067 -0.307045897050336
660000000.0 0.11300397700259904 0.5122815138338684
680000000.0 0.2717156848592929 0.41531871811591675
700000000.0 0.3464330149011621 0.2847537323986573
720000000.0 -0.15824387183944336 0.46461854712583217
740000000.0 0.16399654950623374 0.44130416157825775
760000000.0 0.09887790732813957 0.43828187846804917
780000000.0 -0.4274033190569532 -0.044702713214371075
800000000.0 0.10436871094709407 -0.384829638062513
820000000.0 0.28264552050686675 0.20554763924125857
840000000.0 0.08368030926950484 0.3133736014025727
860000000.0 0.29213694951354996 -0.051505439668669134
880000000.0 0.1181342689791147 0.2501136600658014
900000000.0 0.20252717067326173 0.1790915910407434
920000000.0 0.21854398238520015 -0.13505128696781474
940000000.0 -0.06644939135276945 0.2111336430913814
960000000.0 -0.177486465877072 -0.04354427738402929
980000000.0 -0.10553420513891565 -0.10043405325088098
1000000000.0 0.12740385145423452 -0.03368272024892652
1020000000.0 -0.08442930800310625 -0.05704176500645769
1040000000.0 0.04593941389386412 0.09971989496308732
1060000000.0 0.07532728427346906 0.12245284510044524
1080000000.0 0.15819471972318053 0.1184556988111897
1100000000.0 0.15897381901220492 0.17872391707068822
1120000000.0 0.2175571545513376 -0.17275550885060692
1140000000.0 -0.2966706157083053 -0.04867007933641409
1160000000.0 -0.31553525828641066 -0.03854908339500786
1180000000.0 -0.3341824559449204 -0.04843848935556738
1200000000.0 -0.297030928613335 -0.18665095652364233
1220000000.0 0.34819250458969814 0.06782323651459247
1240000000.0 0.18906055716539635 0.32500159000254647
1260000000.0 0.32759032503441443 -0.21985207226196463
1280000000.0 -0.36645306497408037 -0.11176428511373077
1300000000.0 -0.10792851282245812 -0.3636602266556795
1320000000.0 -0.06774472927980363 -0.37619648466247424
1340000000.0 -0.34754294083365184 0.12636823834044114
1360000000.0 0.15107058398179662 0.3595045454905247
1380000000.0 -0.1448705726652197 0.37351154063794456
1400000000.0 -0.012199241381830072 -0.39738281367782274
1420000000.0 0.16201126779967845 -0.35798472294666783
1440000000.0 -0.26234903013544525 -0.29423149313022207
1460000000.0 -0.37599391094995527 -0.12800356442391192
1480000000.0 -0.3449601348233112 -0.19417170057712585
1500000000.0 0.0472896546255046 0.3958343821294708
1520000000.0 -0.3711738457596465 0.11072672162650952
1540000000.0 0.3609204089315697 -0.0008877865964739847
1560000000.0 -0.21580924137181368 0.24946808458686562
1580000000.0 -0.20474632408939078 -0.2097113668540409
1600000000.0 0.014661137134079318 -0.2569599166885536
1620000000.0 0.18508022764458157 -0.11412777754219082
1640000000.0 -0.17392065404062312 0.06465183318613507
1660000000.0 -0.04442636248588491 0.14902343958875244
1680000000.0 0.11251931028526338 -0.01471125692578533
1700000000.0 -0.08344169684569804 -0.060602570005685426
1720000000.0 0.06976871490524188 -0.04048749057491072
1740000000.0 0.07478198884302634 -0.024970697264274914
1760000000.0 0.011311275878950585 -0.08948925553725093
1780000000.0 0.08764392523843832 -0.07528225955825
1800000000.0 0.1323578677357006 -0.04828208491178584
1820000000.0 -0.16609640206387422 0.02423933217585242
1840000000.0 0.1854799545331009 -0.05966911125294743
1860000000.0 -0.19624723923989965 -0.10423909219486506
1880000000.0 0.006953495232939696 0.2561866873149015
1900000000.0 0.07845950470961768 0.260816344489412
1920000000.0 0.23414606538589466 -0.17653019355524374
1940000000.0 -0.3043959848214461 -0.028612211124285847
1960000000.0 0.2648963474241309 -0.15677869713111922
1980000000.0 -0.29422077412320435 -0.10442601810538167
2000000000.0 0.06514477699528409 -0.31553057767534876
2020000000.0 0.2944211022219053 -0.13027254509268238
2040000000.0 0.32138721319135694 0.00438245596697472
2060000000.0 0.26588931802620486 0.17508569469413227
2080000000.0 0.1289588219392297 0.2909547948760674
2100000000.0 0.10364218994256176 -0.29602097150387646
2120000000.0 0.1713384165228009 0.25285416991531906
2140000000.0 0.03294031418006469 -0.29774363552313576
2160000000.0 -0.29236310598035814 0.04640917316218499
2180000000.0 -0.023340463584618026 0.28637098872311745
2200000000.0 -0.18533902932158872 0.21355917052606838
2220000000.0 -0.17285388436415866 0.22078724633634594
2240000000.0 -0.17777088897189283 -0.21061395415007653
2260000000.0 0.12328776885330432 -0.24048250285785078
2280000000.0 0.25286358209367604 -0.09827942676722906
2300000000.0 0.2500843301301507 0.0681807410800615
2320000000.0 -0.2515518728215087 -0.04510370256171554
2340000000.0 -0.11328077344196617 -0.23145924324162084
2360000000.0 0.18939321327432132 -0.17107187743193764
2380000000.0 0.0018751955665540104 0.2600141589742814
2400000000.0 0.24778402538042382 0.13270132333877033
2420000000.0 0.0904879228003051 -0.283332879943225
2440000000.0 -0.30210124772749647 0.09438125838737475
2460000000.0 0.31234257864137016 0.13237700300823274
2480000000.0 0.23431180236368962 -0.28867974208091723
2500000000.0 -0.06576917346916383 0.399940699437451
2520000000.0 -0.36786396094207297 -0.24797283243411872
2540000000.0 0.46899535363809375 -0.08572131144404051
2560000000.0 -0.33163351812023 0.38695912235001884
2580000000.0 0.17198834624457546 -0.5116577740824602
2600000000.0 -0.02800632655696917 0.5658810020949518
2620000000.0 -0.16956451139603734 -0.564201009740082
2640000000.0 0.31353297704999694 0.5202399985503343
2660000000.0 -0.5831214603593861 -0.22181528331072647
2680000000.0 0.3676161732248988 -0.5159187189158642
2700000000.0 0.5907724705713412 0.25394941931788145
2720000000.0 0.33341178146489203 0.5546677887742542
2740000000.0 0.2200652072240767 0.6097223822994489
2760000000.0 0.10786265236646866 0.6380995648621188
2780000000.0 -0.604622556422769 -0.2083221119684707
2800000000.0 -0.38790318513903316 -0.49502765422649786
2820000000.0 0.17161373379187828 -0.5920732673075306
2840000000.0 0.4652697636787285 0.38085570810564945
2860000000.0 -0.45869496643750185 -0.365816827200673
2880000000.0 0.2634632103947082 0.5052106563261259
2900000000.0 0.40077108544255335 -0.375102639843929
2920000000.0 0.016557149896095427 -0.5281586737032726
2940000000.0 -0.37520364360590613 -0.3370057191208889
2960000000.0 -0.2776730639271663 -0.39028452353019266
2980000000.0 -0.2708197177557552 -0.37079686787791893
3000000000.0 -0.3580140387958125 -0.2551626578310315
3020000000.0 -0.41144050185797443 0.09493259087894633
3040000000.0 0.020228552696201125 0.40044564960724094
3060000000.0 0.3761376418661416 -0.06170510521029651
3080000000.0 -0.33148409007562113 -0.1555946948931547
3100000000.0 0.27737554285689703 0.2154044739719853
3120000000.0 0.2968646136249484 -0.17480529528477076
3140000000.0 -0.192268862848738 0.2799966723282555
3160000000.0 0.13297673421171563 -0.31029302096873257
3180000000.0 0.06391055609381578 0.3282404390813751
3200000000.0 0.3163850400782593 -0.09096341596590322
3220000000.0 -0.2710044353523309 -0.17863417425088965
3240000000.0 -0.3020214228261967 -0.09351745957860434
3260000000.0 -0.2786536510878145 0.1257828747493854
3280000000.0 -0.29390513656435363 0.02270806170954221
3300000000.0 -0.2763797299030339 0.030189880108225906
3320000000.0 -0.17734333399691565 -0.18189639646913436
3340000000.0 0.2042681386110437 0.10503370819854294
3360000000.0 -0.1896460890507091 0.08740145551173854
3380000000.0 0.09407189131000251 -0.16267740539754824
3400000000.0 0.07547567108107672 0.14807513636937325
3420000000.0 0.035773237492486606 0.139010479661187
3440000000.0 -0.06302607119280251 0.10989312698244119
3460000000.0 -0.03657375032853617 0.09906909243568854
3480000000.0 0.08504940193122461 0.019477319594695293
3500000000.0 -0.06245411635919986 0.05026810705241874
3520000000.0 -0.039030421324171276 -0.06667328005776407
3540000000.0 0.028161910322738314 -0.07217613192289941
3560000000.0 0.05515582402911958 -0.06873113041300004
3580000000.0 -0.06243519738992333 0.06900043563018288
3600000000.0 -0.08459607165401403 0.04924184158533526
3620000000.0 0.06691461980873066 -0.09043376706716168
3640000000.0 0.1216986864241377 0.030200571721606614
3660000000.0 0.016815661015617933 0.13389072235514599
3680000000.0 -0.01497674769401746 0.14004093626285247
3700000000.0 -0.1053425343074767 -0.08206686238333114
3720000000.0 0.11850043405992434 0.013254099397398944
3740000000.0 -0.017784207485753437 -0.09946134729347353
3760000000.0 0.011826768005499297 -0.08275789082730206
3780000000.0 -0.04392848898428433 -0.04621504288028346
3800000000.0 0.03391173636233207 0.0057534996287116865
3820000000.0 0.0012160504279788579 0.001128579333908496
3840000000.0 -0.03472050017740287 -0.011548852856009104
3860000000.0 0.025106543532046013 -0.06100640267402888
3880000000.0 0.0735817999176287 -0.054995793765386346
3900000000.0 -0.10340905129325707 -0.04498618655009975
3920000000.0 -0.12643850165583248 -0.009315723368529854
3940000000.0 -0.09926060557109093 0.09477916053806233
3960000000.0 -0.10035269790772827 0.09669875162286726
3980000000.0 0.11670466109113953 -0.06461444891582423
4000000000.0 0.10569518204216553 -0.04139006962439078
