!Created with skrf (http://scikit-rf.org).
# Hz S RI R 50.0 
!freq ReS11 ImS11
400000000.0 0.8055698378985593 0.3306506221394503
420000000.0 0.29078813475028453 0.7629134356812567
440000000.0 0.4223945376137314 0.6319991489980838
460000000.0 -0.6423615696972151 -0.24724862827503802
480000000.0 -0.13520296080409483 -0.6045646597375222
500000000.0 0.6234515843116981 -0.1917669868957829
520000000.0 -0.45204131819075527 0.49272701264312846
540000000.0 0.6801361901583463 -0.0025038267755770217
560000000.0 -0.1606100238113724 0.6536691133016368
580000000.0 -0.21607734889379543 0.4741606491385177
600000000.0 -0.06181684301276361 0.5873813003775451
620000000.0 -0.3831970699540617 -0.4789818166824678
640000000.0 -0.3642586509467741 -0.43827729134687454
660000000.0 0.2726571386334785 0.4515572133070524
680000000.0 0.29153868962920043 0.4006288099952125
700000000.0 0.4209976523106174 0.15035209207047842
720000000.0 -0.3377241421019969 0.3549861695286768
740000000.0 0.30483969964839724 0.36083511383402606
760000000.0 0.10425102046941531 0.43925461779466984
780000000.0 -0.42039207469988493 0.09448577373801409
800000000.0 0.037637480953571834 -0.3936458741887846
820000000.0 0.09101710110868902 0.33804778484838716
840000000.0 0.052121377741142005 0.3217327834872913
860000000.0 0.1766758197243662 -0.24016116823046046
880000000.0 0.2142148541412817 0.17196344555157791
900000000.0 0.10053140870355104 0.2473279162064506
920000000.0 0.2249018242673406 -0.1274007072570863
940000000.0 -0.04548628426340598 0.2179177749147542
960000000.0 -0.11317135264022855 -0.14335188217857928
980000000.0 -0.03869359576874582 -0.14054138868401456
1000000000.0 0.12057946231094387 -0.051497798214873755
1020000000.0 -0.09511733304208812 0.025934999273663224
1040000000.0 -0.08698902645662861 0.0671228773009065
1060000000.0 0.048760789648755756 0.13683823264006983
1080000000.0 0.193870102226639 0.030974558248598388
1100000000.0 0.05754785724200341 0.23361657608237493
1120000000.0 0.26282333602955227 -0.08973064304882594
1140000000.0 -0.29798749733575175 0.038303388716294455
1160000000.0 -0.30337521882768154 -0.09304227350223689
1180000000.0 -0.33143474035473414 -0.05960550041889163
1200000000.0 -0.26914001770628837 -0.22597467526073223
1220000000.0 0.3540444018262069 -0.03736822490016988
1240000000.0 0.20886789277678786 0.3122153864605245
1260000000.0 0.3460485419292361 -0.1841005524930134
1280000000.0 -0.32359347527225313 -0.2100846296445079
1300000000.0 -0.171974621688579 -0.339484750288068
1320000000.0 -0.1784155624440998 -0.33606888646693317
1340000000.0 -0.3687931026225029 -0.02132117076502299
1360000000.0 0.19836438822059393 0.3362801469306471
1380000000.0 -0.16344706812063647 0.36796010208806296
1400000000.0 -0.10652006710706709 -0.37998607736075124
1420000000.0 0.2563032705143547 -0.29773677738910326
1440000000.0 -0.2262048477058274 -0.3250663156157199
1460000000.0 -0.37198626052886297 -0.13375627747617372
1480000000.0 -0.27392526094436725 -0.28810633287704834
1500000000.0 0.026129744435778417 0.39678606479536954
1520000000.0 -0.3792177224737774 -0.08161889097133349
1540000000.0 0.34520685301188875 -0.1109680086412962
1560000000.0 -0.21336149981072797 0.24815984346185987
1580000000.0 -0.17783266333246453 -0.23306739682550495
1600000000.0 -0.005115465350316697 -0.25831640390296107
1620000000.0 0.16684734739295923 -0.13944268695981418
1640000000.0 -0.18477605302841277 0.01979864643954376
1660000000.0 -0.0260240089540301 0.1532943978645844
1680000000.0 0.07570648149187852 -0.08494065939167961
1700000000.0 -0.03239720345967963 -0.0973569421996544
1720000000.0 0.05682460261578555 -0.05902526827100798
1740000000.0 0.07784443912568675 0.004793690234660383
1760000000.0 0.06513264747637341 -0.06349322818035837
1780000000.0 0.11208643520150044 -0.03482221953642611
1800000000.0 0.12178793496393481 -0.0690225269020121
1820000000.0 -0.1533859755378328 -0.06586754319836371
1840000000.0 0.18814719081293318 -0.056212109669748295
1860000000.0 -0.19459014566692084 -0.10381777530888772
1880000000.0 -0.013021792140959993 0.25408862038139785
1900000000.0 -0.006969063742597098 0.27343633422647073
1920000000.0 0.19720829113105223 -0.2167732912934795
1940000000.0 -0.3048335689225857 -0.006442129962335196
1960000000.0 0.28159424925697746 -0.12335323535794471
1980000000.0 -0.3045796835061246 -0.07213856108876711
2000000000.0 0.09364762665177657 -0.3065045089459246
2020000000.0 0.30340587040774536 -0.11171932416057313
2040000000.0 0.320939293115658 -0.02445785987141326
2060000000.0 0.2630002856380125 0.1763367643545185
2080000000.0 -0.02854173760719313 0.3171970107644189
2100000000.0 0.08597558192453103 -0.3024401506277578
2120000000.0 0.2232421004847615 0.20785508781353826
2140000000.0 0.1063679527151906 -0.280097428571767
2160000000.0 -0.25086485689122723 0.15755671442033023
2180000000.0 -0.10706907530697744 0.2662277683713304
2200000000.0 -0.1621111032450741 0.23243577522037576
2220000000.0 -0.22721175372126723 0.1649264519124824
2240000000.0 -0.20781818630478244 -0.18173577009247727
2260000000.0 0.12495178358606265 -0.23930904071130615
2280000000.0 0.2624323323683327 -0.06473540673070828
2300000000.0 0.2401564124747608 0.09934670975992685
2320000000.0 -0.2563643944665626 0.012535830502956334
2340000000.0 -0.15764482077213726 -0.20288385222616667
2360000000.0 0.18732119402717753 -0.1722881598104898
2380000000.0 -0.012586031408488189 0.2602070895447673
2400000000.0 0.18973000553438768 0.2103882158499841
2420000000.0 0.09821408132178024 -0.28115229368474554
2440000000.0 -0.284194065225803 0.13740275254613213
2460000000.0 0.24574939547800773 0.23381296181895295
2480000000.0 0.21326449765849495 -0.30586242931040386
2500000000.0 0.019381881679995203 0.4062124848495635
2520000000.0 -0.3609072486730945 -0.2584223970427295
2540000000.0 0.47519690831498534 -0.02915962553032099
2560000000.0 -0.3513066573115691 0.3689084901987157
2580000000.0 0.24101214852406588 -0.483314588976048
2600000000.0 0.03536301345645314 0.5655655431256656
2620000000.0 -0.1896059901072724 -0.5584150808371751
2640000000.0 0.2866031100739099 0.5352801172030592
2660000000.0 -0.577644762374619 -0.23631544357232606
2680000000.0 0.3984776090985228 -0.49344012254139147
2700000000.0 0.575921722942433 0.2871279977995385
2720000000.0 0.3086485939885862 0.569149883880921
2740000000.0 0.1848027718444873 0.6216002183569821
2760000000.0 0.07818979476796555 0.6424174855659849
2780000000.0 -0.5842967477013468 -0.2589743642075358
2800000000.0 -0.34961439827760843 -0.5227374171892466
2820000000.0 0.24284342599089434 -0.5663166882304796
2840000000.0 0.43837861679258866 0.411383947816503
2860000000.0 -0.47118380116581093 -0.3486667220022035
2880000000.0 0.24365731039129665 0.5144969008964865
2900000000.0 0.41389154291323194 -0.3618822758401934
2920000000.0 -0.07743543474090296 -0.5217743989616416
2940000000.0 -0.3713660485505987 -0.34079001449428686
2960000000.0 -0.23238993621069753 -0.42109394175929016
2980000000.0 -0.31157894204319436 -0.3349158833886812
3000000000.0 -0.2947296046564093 -0.32615902999425855
3020000000.0 -0.41292689954745093 0.08923241465120439
3040000000.0 -0.004781648671657147 0.40075734986171957
3060000000.0 0.380432608487667 0.006184250577012612
3080000000.0 -0.29222313505218006 -0.22091212418845224
3100000000.0 0.2484626073556618 0.24761186095488194
3120000000.0 0.3243740170677123 -0.11548713597546416
3140000000.0 -0.2016945083702141 0.2734126958864052
3160000000.0 0.14096932810677507 -0.3053632541625522
3180000000.0 0.012088433092877307 0.33408879330010877
3200000000.0 0.30400183100520645 -0.12628994784835412
3220000000.0 -0.2224877310925555 -0.23541451868062624
3240000000.0 -0.3117053431479264 -0.054467347212749366
3260000000.0 -0.2741881382236264 0.13456197013904617
3280000000.0 -0.2926238658330003 0.040431846771960295
3300000000.0 -0.2786190173337946 -0.011173266529704299
3320000000.0 -0.1867029487675692 -0.17154641625764264
3340000000.0 0.20771671652294801 0.09952010033018162
3360000000.0 -0.19792686600143455 0.06474121234573735
3380000000.0 0.09310945121193205 -0.16477636793704376
3400000000.0 0.09890470800918379 0.1343551816806232
3420000000.0 -0.013351617985504497 0.14271304050029973
3440000000.0 -0.11844197269498921 0.042301565376207946
3460000000.0 -0.0657818019095651 0.08329572054133629
3480000000.0 0.08533101614452622 0.016904373527043673
3500000000.0 -0.07831682224449216 0.011486587831618069
3520000000.0 0.0026198693685051708 -0.07726116854718602
3540000000.0 0.03876271700607725 -0.06733944161315757
3560000000.0 0.021852469987672804 -0.08437010853878804
3580000000.0 -0.07645113281703625 0.05313339563177157
3600000000.0 -0.05573816605582876 0.08026837888709822
3620000000.0 0.06956781136947565 -0.08719677831329557
3640000000.0 0.12514282655634276 0.01710961531955341
3660000000.0 -0.0326799316138845 0.1322872574745355
3680000000.0 -0.005513732247266831 0.14079379716741064
3700000000.0 -0.11668339834059879 -0.06520479137284252
3720000000.0 0.10361708472987792 0.06098677747395066
3740000000.0 -0.004440481883565005 -0.10100093041580567
3760000000.0 0.020151218819680978 -0.08148691145620755
3780000000.0 -0.038518707640650324 -0.049590333628528674
3800000000.0 -0.01020345423529806 0.03300640508858255
3820000000.0 0.001106700729483748 0.001150369294740232
3840000000.0 0.00562318845431178 -0.036645674931364565
3860000000.0 -0.04843391994530586 -0.04576321753135743
3880000000.0 0.04613033063396248 -0.07924756384665019
3900000000.0 -0.06374781079813438 -0.0933039566892652
3920000000.0 -0.12422617481786945 0.03213586656503838
3940000000.0 -0.0998189347841412 0.09199829546541302
3960000000.0 -0.13629479566459468 0.0341912148446379
3980000000.0 0.133596821459946 -0.016443230313579887
4000000000.0 0.06314078774461356 -0.09344454604001712
