!Created with skrf (http://scikit-rf.org).
# Hz S RI R 50.0 
!freq ReS11 ImS11
400000000.0 0.8402014188947019 -0.2538408762424922
420000000.0 0.7733815564866652 -0.3045532795110296
440000000.0 0.4493817237966898 -0.6287108623392189
460000000.0 0.1703115442322304 0.6744179892933607
480000000.0 0.25210206635975857 -0.5338079111565711
500000000.0 0.46971665760307074 0.416008307553984
520000000.0 0.360916953122716 -0.5283139208850638
540000000.0 0.23846835421614138 -0.5566038348946596
560000000.0 0.6181982743402059 -0.06990105565603025
580000000.0 0.46872223540094227 0.22445917933456638
600000000.0 -0.29431020130808094 0.5187211630914456
620000000.0 -0.347934946490252 -0.4964341633100338
640000000.0 -0.36429535187974565 -0.4268375318598835
660000000.0 -0.18925345568032426 0.4827800509763661
680000000.0 0.28812172661196217 -0.38582448013741544
700000000.0 0.45148195987315576 0.19447888978101732
720000000.0 0.46490102727527305 0.18050579154934152
740000000.0 0.2715294703855769 0.3876635070866291
760000000.0 -0.17912037089785918 0.4218201411705307
780000000.0 -0.4514558984591777 -0.006620616338003392
800000000.0 -0.13390882767072582 -0.380702443827716
820000000.0 0.24467420954954575 0.2623481114445322
840000000.0 -0.3104520697525468 -0.1261306771233161
860000000.0 0.10355491476967028 -0.2944357736474273
880000000.0 0.18797082964302836 0.20442375371419735
900000000.0 0.08340372341578592 0.2619627840262867
920000000.0 0.02816563840389409 -0.25942073135211224
940000000.0 -0.12376257404351425 -0.1820316002824423
960000000.0 0.07840754380220634 -0.14462157744131202
980000000.0 -0.13213407303765617 0.023879353386499023
1000000000.0 0.13692051245075174 -0.0026932307884548964
1020000000.0 0.08626490178890142 0.0750349993052425
1040000000.0 0.008189960587571921 0.13044868204653517
1060000000.0 -0.07560144801993951 -0.13674619075865202
1080000000.0 -0.20086136111880043 0.0013570410491873894
1100000000.0 -0.17705263481492142 -0.17429459233878658
1120000000.0 -0.2043180643725608 -0.1920161904697641
1140000000.0 -0.20640195255036903 0.23004415355524332
1160000000.0 0.28857616590008495 0.16391714465834492
1180000000.0 -0.0926261840405751 0.32557628796868787
1200000000.0 -0.3341790890992824 -0.12544967082767472
1220000000.0 0.17200664105279342 -0.3263597443046229
1240000000.0 0.3500517070244522 -0.13987229147457103
1260000000.0 0.06858674971769964 -0.3870517584767213
1280000000.0 -0.3431074985938669 0.16453239403767728
1300000000.0 0.024370450701700973 -0.36561942702770445
1320000000.0 0.2951388101341447 -0.233993357214566
1340000000.0 -0.35608672820972775 0.09210790470673727
1360000000.0 0.20611241223409246 0.32332674784520704
1380000000.0 -0.12993747972154474 0.37171398571198544
1400000000.0 -0.05892522710946425 -0.3779136777218801
1420000000.0 0.31286800036407625 -0.21976370170709716
1440000000.0 -0.018419218564792766 -0.38796777799872034
1460000000.0 -0.2655221085071935 -0.28039194499311665
1480000000.0 0.00926223307551867 -0.39317920936491096
1500000000.0 -0.3455217147628839 0.18562777388486223
1520000000.0 0.12824081335331086 -0.3643265595868494
1540000000.0 0.02913487704022634 0.35872116634849655
1560000000.0 -0.15349296911094623 -0.2912604873718901
1580000000.0 0.2926623721262199 0.03959350720857034
1600000000.0 0.2626654421853421 -0.009821209406780926
1620000000.0 0.15993063144517708 0.13926289338433548
1640000000.0 -0.04556967061743536 0.18114154536238025
1660000000.0 0.1356920369604032 -0.08670666992749472
1680000000.0 -0.06697702476130124 -0.1028864812208595
1700000000.0 0.1125461521523675 -0.03136440710007442
1720000000.0 0.0804344463050119 -0.04635160419572505
1740000000.0 0.07771309601437658 -0.03174953470495891
1760000000.0 0.0847651887384099 0.034853317971618024
1780000000.0 -0.10189319604705435 -0.038644315808738595
1800000000.0 0.011103147558709985 0.12931783098478625
1820000000.0 0.12186527103622838 0.1026634216586697
1840000000.0 0.06985626397930152 -0.17949217928236086
1860000000.0 -0.006245362644525116 0.21728668401336454
1880000000.0 0.2080686449678649 0.14298524082876793
1900000000.0 0.26353189420496254 -0.06621701635818339
1920000000.0 0.10812749437889836 -0.27097198986336263
1940000000.0 -0.2959259955081711 0.07900421252657956
1960000000.0 0.1842717909286449 -0.24782834618258306
1980000000.0 -0.3116960144081295 0.008827811446480918
2000000000.0 0.11368021472284053 -0.30067160066552845
2020000000.0 0.25490882956794175 -0.20106447424514923
2040000000.0 0.31868159298754856 -0.0579995122156686
2060000000.0 0.17233577174863876 0.2717420258978884
2080000000.0 -0.03627068801086029 0.32528895914553435
2100000000.0 -0.09070601344400106 -0.31055050747806034
2120000000.0 0.15199363603940771 0.28025832907874815
2140000000.0 -0.2503066802227357 -0.20093121055123914
2160000000.0 0.1627758829172702 0.27278927361479766
2180000000.0 0.2683573977757288 -0.1533002771093739
2200000000.0 0.2611412199163221 -0.15757398812656223
2220000000.0 -0.007450459477264355 -0.29672008296717634
2240000000.0 0.28936289767548645 -0.006746204496615815
2260000000.0 0.12230948287859737 0.24736050031320164
2280000000.0 -0.19487368508972194 0.18509025401675872
2300000000.0 0.0003903935967142061 -0.249157855743367
2320000000.0 -0.21450422234893743 0.12107521299237077
2340000000.0 0.02196189806126172 -0.24399447810144292
2360000000.0 0.08132382383561083 0.22926102987006988
2380000000.0 -0.024758162242752468 -0.25509448680196245
2400000000.0 -0.27805932536190603 -0.0493745485742685
2420000000.0 0.2716398384102075 0.13198661629263894
2440000000.0 -0.20809446107057333 -0.25124304146764226
2460000000.0 0.18944860662496643 0.30227065159766664
2480000000.0 0.22159874445332492 -0.32167967449278656
2500000000.0 0.3121621875668695 0.2928020795994915
2520000000.0 -0.4462819883290554 0.12502583194448127
2540000000.0 0.2035860669312247 -0.45166059798152514
2560000000.0 0.030341841611954017 0.5247164408259295
2580000000.0 -0.25095706473364465 -0.4930161621745469
2600000000.0 0.32303129020439697 0.47713244701060126
2620000000.0 -0.3487073562016743 -0.48225336532471874
2640000000.0 0.4425646697792317 0.4216176502219066
2660000000.0 -0.6261844511646886 0.0018813123358859217
2680000000.0 0.11955779713412534 -0.622655361336726
2700000000.0 0.635464213151654 -0.0989172156464343
2720000000.0 0.6171026438873518 0.19507863178145468
2740000000.0 0.5615947348534568 0.3252882083397032
2760000000.0 0.540741279578305 0.3591955411459292
2780000000.0 -0.5373542808405748 0.3543998657908593
2800000000.0 -0.631913058089347 0.06222670938182419
2820000000.0 -0.37501798262260927 -0.49791725753883415
2840000000.0 0.5717725627693465 -0.21067373447125476
2860000000.0 -0.4370375791434176 0.40173155442141967
2880000000.0 0.5605219341007809 -0.1234694804912803
2900000000.0 -0.23809531895562125 -0.49807272888410953
2920000000.0 -0.527896993922344 0.0020765944784004553
2940000000.0 -0.3728691306163248 0.3305972995529248
2960000000.0 -0.3400182868032361 0.3282594285150351
2980000000.0 -0.2801250679312311 0.34851885203783123
3000000000.0 -0.2291688576191733 0.3579496021205184
3020000000.0 0.02505047708990007 0.4027918730439528
3040000000.0 0.3228691865124281 0.2068679009265229
3060000000.0 0.29943660059233596 -0.21582225164422644
3080000000.0 -0.3302765364258838 -0.13858432418351901
3100000000.0 0.2492667426541784 0.24335121127954099
3120000000.0 0.30291175760218525 -0.1635812078570391
3140000000.0 -0.3391435962661551 0.04688354336910147
3160000000.0 0.3414150021120796 0.03671827229230194
3180000000.0 -0.34275359816349527 -0.023351828354985945
3200000000.0 -0.025822877746658562 0.34203728172416425
3220000000.0 0.3072412050539018 -0.14365118767471546
3240000000.0 0.13103450504294742 -0.30700525186305777
3260000000.0 -0.15717669567339546 -0.2861329485083346
3280000000.0 -0.31373446357348794 -0.02929270828138111
3300000000.0 -0.25177812145903117 0.1609705844723143
3320000000.0 0.005748339165237114 0.27066593026540287
3340000000.0 -0.2400240700815422 0.060679806366574884
3360000000.0 -0.2058007601117626 0.0809916774238321
3380000000.0 -0.11492313062912002 -0.15304781982759563
3400000000.0 -0.10661891681659248 -0.12986140236602933
3420000000.0 -0.05183739261336551 -0.13074895238693088
3440000000.0 -0.03251141025204706 -0.11493377426078992
3460000000.0 0.08078775647368454 -0.047970189122069753
3480000000.0 -0.059230219361172294 0.050591417746444815
3500000000.0 -0.06745065125411918 -0.02702966975878984
3520000000.0 -0.058362620829795875 -0.040018520441138725
3540000000.0 0.05505008709162845 0.05591795760582044
3560000000.0 -0.06332651100183548 0.057132232013943615
3580000000.0 0.07552418170475862 0.060687429142954
3600000000.0 0.010635431814218761 -0.10335607370743333
3620000000.0 0.07134127883852553 0.09525309709792223
3640000000.0 0.08513163231726098 -0.1044456876374678
3660000000.0 -0.13519736822118686 -0.05597655777623207
3680000000.0 0.06609378597572228 0.13438613579645697
3700000000.0 0.0006012865015242484 0.14346695310964813
3720000000.0 0.12842689075582536 -0.01166551365887281
3740000000.0 0.04931739415785415 -0.09043098010244437
3760000000.0 0.017357772528637797 -0.07664857151731469
3780000000.0 0.05668007539958043 0.01680024459154209
3800000000.0 -0.027042454804435123 -0.005788437558765947
3820000000.0 -0.0017507430166255103 -0.011263879239112021
3840000000.0 -0.047850248008078584 0.007570457154571299
3860000000.0 -0.034221759271440916 0.07057563737354167
3880000000.0 -0.06104744676620912 -0.08512163358340871
3900000000.0 0.09756423144524791 0.08261962934239986
3920000000.0 -0.13080366594866213 -0.05775124228275898
3940000000.0 -0.056593438895658946 0.14142500432934674
3960000000.0 0.05098783567040956 -0.14983945065291485
3980000000.0 0.1481383858502804 0.006060281052872375
4000000000.0 -0.10475515316989902 0.07029920148402051
