!Created with skrf (http://scikit-rf.org).
# Hz S RI R 50.0 
!freq ReS11 ImS11
400000000.0 0.7730629306672887 0.4020345205383193
420000000.0 0.2755644689851789 0.7686758124918895
440000000.0 0.450606675273572 0.6107821245973708
460000000.0 -0.6232899283190155 -0.2903496129991883
480000000.0 -0.154364323128931 -0.599800333759761
500000000.0 0.6465703820925903 -0.09857904869411346
520000000.0 -0.4151165185109077 0.5241234947986584
540000000.0 0.6794373063791183 -0.032590014758209024
560000000.0 -0.08077101373390994 0.6679695504334261
580000000.0 -0.2579487649064236 0.4480916975574157
600000000.0 -0.30234904475743224 0.5090642907382866
620000000.0 -0.5040699036968511 -0.3534219483745751
640000000.0 -0.4563737949970803 -0.34185159861227143
660000000.0 0.26603397462966955 0.4548425639933932
680000000.0 0.22645588550476906 0.4377556079824617
700000000.0 0.3921443045852153 0.21879057648972655
720000000.0 -0.43390715343831937 0.23173168766989213
740000000.0 0.4090799882339862 0.2387677085854977
760000000.0 0.11959278786603571 0.43078667194486425
780000000.0 -0.39015935083442216 0.1829063983389013
800000000.0 0.24550538073969488 -0.3065743815821246
820000000.0 -0.01887010512154246 0.35536431523668044
840000000.0 0.23564338938080673 0.22539334140494555
860000000.0 0.159238550037301 -0.25086237610766376
880000000.0 0.23419368847581026 0.1399862305082702
900000000.0 -0.15072316008418832 0.2201941539079094
920000000.0 0.26074780790339425 -0.009681257995411523
940000000.0 0.16919771377109608 0.14706679131809108
960000000.0 -0.1649349633064291 -0.07392581160758847
980000000.0 -0.006458086887369549 -0.1449301011345072
1000000000.0 0.1313976746764292 -0.008055878126826342
1020000000.0 -0.09645022204440017 0.019480160819290906
1040000000.0 -0.058713684774709556 0.09376412444580152
1060000000.0 0.0962904079954053 0.11121377153359781
1080000000.0 0.19648948365828303 -0.01992819548868121
1100000000.0 0.15583880591548163 0.18210131832937898
1120000000.0 0.2684707680182146 -0.06974657033742175
1140000000.0 -0.29493506102448563 -0.05752884738508425
1160000000.0 -0.31579337166217825 -0.03510581992773894
1180000000.0 -0.3325240109965978 -0.05854633215348092
1200000000.0 -0.3141065777113334 -0.15554990696583967
1220000000.0 0.3487914627709711 0.06747660388309767
1240000000.0 0.2230079802299448 0.30245682702998183
1260000000.0 0.36630717666093104 -0.14249395956786953
1280000000.0 -0.3705590546340524 -0.10826255240530747
1300000000.0 -0.1603908407566303 -0.3436772437138881
1320000000.0 -0.04052883453812088 -0.37738390341754074
1340000000.0 -0.3679996497985379 -0.0518914286509234
1360000000.0 0.2940312752668807 0.256560257442691
1380000000.0 -0.16036812394607938 0.36808383215710155
1400000000.0 0.06851123527096777 -0.38957843192295244
1420000000.0 0.15374280316258337 -0.3624569715106919
1440000000.0 -0.216344347773707 -0.3321569228593032
1460000000.0 -0.37523402464064776 -0.12334037850291386
1480000000.0 -0.29784607450906875 -0.2623930293816113
1500000000.0 0.08626943352508457 0.3890277574269769
1520000000.0 -0.38667798617585303 -0.03507034512076445
1540000000.0 0.35285916630960623 -0.07728350228525398
1560000000.0 -0.22737771647642643 0.23702336152063982
1580000000.0 -0.2129513735855636 -0.20201478338498086
1600000000.0 0.06559676908222435 -0.24911217314398595
1620000000.0 0.16505979494139728 -0.14177967948115458
1640000000.0 -0.1823202785050406 0.03327504718879014
1660000000.0 -0.06764928606500807 0.13947891066788404
1680000000.0 0.07310696741908562 -0.08724483306086372
1700000000.0 -0.056245942384973574 -0.08597715989585246
1720000000.0 0.07082604336354338 -0.041542297111724746
1740000000.0 0.07360488197268444 0.028264687101513957
1760000000.0 0.006373423603359803 -0.08959165346462764
1780000000.0 0.09903210610303763 -0.06298621984132508
1800000000.0 0.13428710909525587 -0.04419647089685755
1820000000.0 -0.1670293628291852 0.0028426777164964816
1840000000.0 0.19543457149984392 0.0023136122806485418
1860000000.0 -0.21360278592159657 -0.06313592835859227
1880000000.0 -0.008901462694633015 0.25461851235166205
1900000000.0 -0.04117953968816927 0.26954060983756434
1920000000.0 0.20226103072056986 -0.2124087069068894
1940000000.0 -0.3040611734437058 0.004331080363151973
1960000000.0 0.30168462796389933 -0.06060347831253378
1980000000.0 -0.31106507519452953 -0.0366149052984507
2000000000.0 0.08749532595348801 -0.30776653449958413
2020000000.0 0.29424860577300105 -0.1336189983986491
2040000000.0 0.3203775582892487 0.036495671593611195
2060000000.0 0.28524559702611585 0.1404648012777873
2080000000.0 0.0642526242951068 0.3108240090321888
2100000000.0 0.1343329003140831 -0.2842999481731002
2120000000.0 0.2062351842355225 0.22515258344073255
2140000000.0 0.010709947659190408 -0.30002490501417833
2160000000.0 -0.28982349971475735 0.05900792024340981
2180000000.0 -0.06564127872345228 0.2792423281255289
2200000000.0 -0.19774115122834343 0.20245393590096444
2220000000.0 -0.23249995898022505 0.15594804825463218
2240000000.0 -0.17862253381149135 -0.20998070494410173
2260000000.0 0.07229835975168261 -0.26045968319313323
2280000000.0 0.256182029458413 -0.0852241712068093
2300000000.0 0.22946300842490716 0.12090851452692963
2320000000.0 -0.25549937070978784 0.021586552257505356
2340000000.0 -0.20705023488992422 -0.15439365832873633
2360000000.0 0.19743847394704533 -0.15981220528672746
2380000000.0 -0.020437984634946955 0.2600119192914051
2400000000.0 0.20961932775119743 0.19139696790244362
2420000000.0 0.07962563109578752 -0.28721968842329204
2440000000.0 -0.29840803864135906 0.10245557425171682
2460000000.0 0.27102641392215754 0.20376001811910016
2480000000.0 0.2520277966567616 -0.27485325950997586
2500000000.0 0.008051105258804859 0.4065823475871553
2520000000.0 -0.35146540166234935 -0.27032676566077446
2540000000.0 0.47459496604892176 -0.035009056593874634
2560000000.0 -0.35184048731779566 0.36812066304816377
2580000000.0 0.21406173347593865 -0.4959279347705183
2600000000.0 0.041295212465885446 0.5648920562960099
2620000000.0 -0.1862011338095421 -0.55989554098283
2640000000.0 0.26650564581511127 0.5460262769719818
2660000000.0 -0.5722049089337247 -0.24957793614869117
2680000000.0 0.38708410188298864 -0.5026714790911997
2700000000.0 0.5878157498329795 0.2611320007545326
2720000000.0 0.22852745056440632 0.6056697992037267
2740000000.0 0.15213344404384915 0.6299846918287578
2760000000.0 0.08086101217041602 0.6416865230280342
2780000000.0 -0.5858074248916492 -0.2548853608061878
2800000000.0 -0.3637854070200352 -0.512984883687195
2820000000.0 0.20924759556904277 -0.5794692842579757
2840000000.0 0.4371291440200791 0.4123021301363034
2860000000.0 -0.48562752627906675 -0.32802055736652314
2880000000.0 0.25757502379615715 0.5080620209435779
2900000000.0 0.4242312342042767 -0.3494770972870678
2920000000.0 -0.0791746797072783 -0.5222731696979998
2940000000.0 -0.40974578399687134 -0.29230277650646097
2960000000.0 -0.1901629236419063 -0.44152906105100737
2980000000.0 -0.2759856151133684 -0.3671057448391135
3000000000.0 -0.3300935263624632 -0.289408019318176
3020000000.0 -0.4209327129380818 0.029981096143742152
3040000000.0 -0.011238701072800639 0.4009679966648171
3060000000.0 0.3809539506884999 -0.008056320154355617
3080000000.0 -0.3003561637860536 -0.20928334924867462
3100000000.0 0.28699950785219314 0.2013020435742015
3120000000.0 0.32698833640945624 -0.10919531310357938
3140000000.0 -0.1982867719936865 0.2762931250473622
3160000000.0 0.13877183990269595 -0.30640142024299644
3180000000.0 -0.006617495619800489 0.33494581909656385
3200000000.0 0.28966309481318586 -0.15541490664740454
3220000000.0 -0.17867058271394687 -0.2708404108954861
3240000000.0 -0.3159004256790227 -0.011846553329489126
3260000000.0 -0.2889818930399901 0.1003561384926846
3280000000.0 -0.2904581610381536 0.047922472495318974
3300000000.0 -0.27732444622209174 -0.026412046507659957
3320000000.0 -0.18280633986985242 -0.17569881629351572
3340000000.0 0.21802802963062748 0.07545808298283163
3360000000.0 -0.19900676132655667 0.060802026083636294
3380000000.0 0.12220058151648144 -0.14416163426079642
3400000000.0 0.10122676114337988 0.1335112896608629
3420000000.0 -0.008523502960631276 0.14327448822494984
3440000000.0 -0.09431834884203405 0.0841372619325894
3460000000.0 -0.08030227374772175 0.06840558719881618
3480000000.0 0.05544243440596657 0.06741000739980642
3500000000.0 -0.07839723771450972 0.01643779703589498
3520000000.0 0.02615676963159032 -0.07206292454965524
3540000000.0 0.04261483461092191 -0.06383035707120456
3560000000.0 0.05138655418622061 -0.07021649263674974
3580000000.0 -0.06261945402684563 0.06829212649809194
3600000000.0 -0.06331336587190678 0.07508716161779154
3620000000.0 0.0071698604819717526 -0.11118813657343797
3640000000.0 0.12503657491689274 -0.0028762816771209935
3660000000.0 -0.05787401958680583 0.12350281503310612
3680000000.0 0.03353538388926299 0.1375546134977361
3700000000.0 -0.10746590994444613 -0.07901906284089599
3720000000.0 0.11889049945726263 0.013651985719899586
3740000000.0 0.04505341508484186 -0.09039372025704384
3760000000.0 0.03295330330759299 -0.07732521750527391
3780000000.0 -0.025773520008879447 -0.057452529862206225
3800000000.0 0.016222695375976925 0.030144216981031858
3820000000.0 0.0008236435321639033 0.0014091983353914778
3840000000.0 -0.0339298343035171 0.014816742987974144
3860000000.0 0.007503253510601924 -0.06549727146720723
3880000000.0 0.09050698854977042 0.020344168387281755
3900000000.0 -0.05774127037191266 -0.09677966041323978
3920000000.0 -0.12585500850221512 -0.023303658125545006
3940000000.0 -0.12333645236789777 0.05528692696447564
3960000000.0 -0.13907966648039136 0.0010567721452045065
3980000000.0 0.1341097039719993 -0.004744447672994648
4000000000.0 0.0643830510491129 -0.09220325163345666
