!Created with skrf (http://scikit-rf.org).
# Hz S RI R 50.0 
!freq ReS11 ImS11
400000000.0 0.8014373206332442 0.34188080596993836
420000000.0 0.25402945020618556 0.7766421292226251
440000000.0 0.4711474699946119 0.5965713459202912
460000000.0 -0.5964200816449576 -0.340562684617394
480000000.0 -0.06976973979252957 -0.6157131665899065
500000000.0 0.587124548144462 -0.29042648834567264
520000000.0 -0.31363749310339084 0.5909419253960323
540000000.0 0.6782788697869524 -0.03391821158589404
560000000.0 -0.030690300157050994 0.6683922516461097
580000000.0 -0.5131020886107833 0.06803178306996899
600000000.0 -0.07387186027732644 0.5928157328602779
620000000.0 -0.5357041371344816 -0.3005229044919933
640000000.0 -0.5403888096834648 -0.18038393902571806
660000000.0 0.30122880746859676 0.4237952506529905
680000000.0 -0.21272421504008904 0.44802360377388545
700000000.0 0.4522945933940309 4.20918498618214e-05
720000000.0 -0.37621849048342476 0.3144123359402271
740000000.0 0.3696166438563535 0.2970445473192599
760000000.0 0.13561494825361375 0.42680702962579226
780000000.0 -0.4180317427519987 0.0987247297772025
800000000.0 0.3231605739291516 -0.2231677773593436
820000000.0 0.11678869538920876 0.3390387087106323
840000000.0 0.20175254458260122 0.2564914415555111
860000000.0 0.10182305438523935 -0.27637537766040077
880000000.0 0.15010236825716775 0.22359797141280247
900000000.0 -0.20701565344079717 0.17376818813703213
920000000.0 0.2276041604550509 -0.13153258047858468
940000000.0 0.18731386901406558 0.11939474589452884
960000000.0 -0.1341401499275925 -0.12022031627901107
980000000.0 -0.023615358171755006 -0.14246622187032
1000000000.0 0.12638736257594307 0.03825623574993887
1020000000.0 -0.0862711220481221 -0.05229672842846606
1040000000.0 0.0648526614502148 0.09037288302541223
1060000000.0 0.1393450317973182 0.03418010091797013
1080000000.0 0.15318209476024447 0.12283065774197742
1100000000.0 0.02543405129779123 0.24136734064516094
1120000000.0 0.27459480033715983 -0.03989579580593873
1140000000.0 -0.2808122216557805 0.10408640603464722
1160000000.0 -0.2972331124196775 -0.11000464373416471
1180000000.0 -0.31401674822332076 -0.12658266492070888
1200000000.0 -0.3194923979223019 -0.14526237320979762
1220000000.0 0.3500674887446727 0.0572669423803238
1240000000.0 0.24265677095797036 0.28760057998379374
1260000000.0 0.37507658315228193 -0.12052111409536533
1280000000.0 -0.37129313716968293 -0.1000443885049506
1300000000.0 -0.04898426258502247 -0.37654360500892864
1320000000.0 -0.14117739437801838 -0.3546378819137013
1340000000.0 -0.37102600793795476 0.004680324918255573
1360000000.0 0.2236130823661711 0.3187032896865872
1380000000.0 -0.1695851741534398 0.36379925845900685
1400000000.0 -0.05734354621323137 -0.39138637822187405
1420000000.0 0.18347061048739993 -0.34728652232198015
1440000000.0 -0.21323570810666892 -0.3350278700109746
1460000000.0 -0.36906511424510013 -0.14095269470297042
1480000000.0 -0.226774245079662 -0.32668604297309184
1500000000.0 0.11805829765884007 0.38033031600338346
1520000000.0 -0.38701105473981434 -0.023857666675942062
1540000000.0 0.35489153758284364 -0.07077046671270336
1560000000.0 -0.22337335972259287 0.23970761921016234
1580000000.0 -0.1923789951243916 -0.2217313511549522
1600000000.0 0.008478132168218761 -0.2574143615950905
1620000000.0 0.1497825609501437 -0.1573656672224434
1640000000.0 -0.18299105524319695 0.029151186836164005
1660000000.0 -0.05392269990153694 0.1465822215475701
1680000000.0 0.07309370784274702 -0.08638953646840421
1700000000.0 -0.04475473462017968 -0.09132023687280814
1720000000.0 0.07787524984595726 0.024754607969537264
1740000000.0 0.06561819849159511 -0.0435531069347975
1760000000.0 0.07919887657863249 -0.04173908217123121
1780000000.0 0.08434934099321335 -0.08231814852856341
1800000000.0 0.1384788028938716 -0.02385217405486196
1820000000.0 -0.16675199841075855 0.011511813905267078
1840000000.0 0.19483372994003287 -0.021969844607523718
1860000000.0 -0.2004456148403679 -0.09316147441063007
1880000000.0 -0.006969635609871238 0.25525619786127274
1900000000.0 0.010590705160811998 0.27304742510052304
1920000000.0 0.21195452332574108 -0.20173696178391776
1940000000.0 -0.30376637845725346 -0.012780362336988324
1960000000.0 0.30333696446685493 -0.05545174824443789
1980000000.0 -0.3129117417459486 -0.012008908337272781
2000000000.0 0.10924104865143082 -0.301661493703545
2020000000.0 0.29753104095689664 -0.12399852619413347
2040000000.0 0.3214922409321268 0.01632943678515909
2060000000.0 0.27092579685512747 0.1661584807512703
2080000000.0 0.09279859416350297 0.3042844225075056
2100000000.0 0.14601013472135788 -0.27821527817668523
2120000000.0 0.2127290671482233 0.21944435631137849
2140000000.0 0.010992229916740098 -0.2999531283887977
2160000000.0 -0.290357552082157 0.048858104925657383
2180000000.0 -0.14630566894590752 0.24738824226578318
2200000000.0 -0.16476755002828716 0.230480162496559
2220000000.0 -0.18305075663347536 0.21221324406270392
2240000000.0 -0.19849645953850384 -0.18864390717510787
2260000000.0 0.1609024927800172 -0.2178117048843993
2280000000.0 0.2614374758538313 -0.07328570056375837
2300000000.0 0.25537221501996044 0.04601188872705705
2320000000.0 -0.2510525606871674 -0.05310672940477171
2340000000.0 -0.15716116864227392 -0.20410912872201067
2360000000.0 0.2093913324668188 -0.14559555455797749
2380000000.0 0.03198405312448295 0.25845002523541993
2400000000.0 0.16258921032566914 0.23171547517983057
2420000000.0 0.11146650629228634 -0.2772673792320745
2440000000.0 -0.2735772454712426 0.15608977713108624
2460000000.0 0.257616197626032 0.2210016584203435
2480000000.0 0.23775576038795845 -0.2876662149315366
2500000000.0 -0.06725489781952929 0.40016457578989884
2520000000.0 -0.35295275212352994 -0.2677118899167972
2540000000.0 0.4760951442861239 -0.009161677331259594
2560000000.0 -0.3535141869984157 0.3668566520929591
2580000000.0 0.1635632953051948 -0.5151218676052505
2600000000.0 -0.035274314356353156 0.5655471084925797
2620000000.0 -0.15444929540356106 -0.5689284257490111
2640000000.0 0.2994355717759781 0.5287605057866833
2660000000.0 -0.5799383046596134 -0.2312888339207992
2680000000.0 0.40926316019899495 -0.4841597397669303
2700000000.0 0.569026980402663 0.3003555387845162
2720000000.0 0.281826685480164 0.58275380619021
2740000000.0 0.09159622276320914 0.6418976917287872
2760000000.0 0.012099646748309307 0.6463551951088189
2780000000.0 -0.5650028080254458 -0.2980262122632168
2800000000.0 -0.3293153203240485 -0.5353737319505043
2820000000.0 0.22695854454572248 -0.5723917343304579
2840000000.0 0.4502294721421576 0.3983393359500495
2860000000.0 -0.469932714609175 -0.3517029394369074
2880000000.0 0.31114148641836264 0.4768240243729231
2900000000.0 0.4322441874759412 -0.33798380251621446
2920000000.0 0.013008871477900672 -0.5284048680451179
2940000000.0 -0.3648627483540928 -0.34771363256469534
2960000000.0 -0.22292569866970388 -0.42550146813133144
2980000000.0 -0.2729773472103819 -0.3687995255197027
3000000000.0 -0.31285851535483683 -0.30727587864475064
3020000000.0 -0.42233761269545433 0.006789181075877995
3040000000.0 -0.02429362010735472 0.3995797370151829
3060000000.0 0.360080166269856 -0.12497317029344046
3080000000.0 -0.3052592123092 -0.20131332032242363
3100000000.0 0.24876886658367028 0.2476501311722896
3120000000.0 0.30771968372937464 -0.15405416053520204
3140000000.0 -0.21516861057390343 0.263344754905477
3160000000.0 0.15923877216287827 -0.2966735985865556
3180000000.0 0.07068316268332726 0.32706410805912633
3200000000.0 0.31251391662649397 -0.10182768253734151
3220000000.0 -0.1647141781613354 -0.28017484349158467
3240000000.0 -0.3153900893307903 -0.029386936832925557
3260000000.0 -0.2874976870410547 0.10249787446863862
3280000000.0 -0.2926044960124633 0.034301275375621276
3300000000.0 -0.27702898658022307 -0.027371734153042827
3320000000.0 -0.16253408669044941 -0.19611010062144327
3340000000.0 0.2263737305342883 0.03561508965296726
3360000000.0 -0.1989946364171543 0.061190504778908736
3380000000.0 0.12908315600392073 -0.13888139705224642
3400000000.0 0.09350478095676601 0.13812224931263736
3420000000.0 0.04050940138227973 0.1380515737658633
3440000000.0 -0.09681684491533947 0.07979347962646056
3460000000.0 -0.10423313857001258 0.02074869570497979
3480000000.0 0.08696104234590951 0.008268049222125548
3500000000.0 -0.07978564237034279 -0.0012076290035482411
3520000000.0 -0.025751545596441074 -0.0713874346958566
3540000000.0 0.07644866244640902 -0.00873323663706852
3560000000.0 0.05426822041585817 -0.06842291151144321
3580000000.0 -0.02756537813581211 0.08907809867952614
3600000000.0 -0.044949861723005906 0.08626097192127889
3620000000.0 0.05831417753464837 -0.09512123754155741
3640000000.0 0.1253389049059718 -0.0007957725411999362
3660000000.0 -0.050367607859540024 0.12704331161420862
3680000000.0 0.07883271455121647 0.11759671242685453
3700000000.0 -0.09110751498299378 -0.09700553275248266
3720000000.0 0.10210808760363967 0.06208016831327197
3740000000.0 0.061485904100149015 -0.08035270674032076
3760000000.0 0.009566259951550159 -0.08369837466017416
3780000000.0 -0.05047736810000198 -0.03901104179627023
3800000000.0 -0.005180643862544848 0.03350963660511544
3820000000.0 0.0009124647555146937 -0.0014375339631093264
3840000000.0 -0.03452795667685816 -0.014030085091232367
3860000000.0 -0.017334819489892146 -0.06296413689830674
3880000000.0 0.09045723724913853 -0.019591406827496174
3900000000.0 0.002421294886140372 -0.11347421741161536
3920000000.0 -0.1273501093826839 -0.006565176846172415
3940000000.0 -0.128148011138681 0.04346453453111865
3960000000.0 -0.13348946051069438 -0.037582081984180137
3980000000.0 0.12791493824399602 0.039019107312700245
4000000000.0 0.07223624809536575 -0.08643951691363538
