!Created with skrf (http://scikit-rf.org).
# Hz S RI R 50.0 
!freq ReS11 ImS11
400000000.0 0.7904711682973946 0.3668972605413448
420000000.0 0.2570596222928345 0.7752695773078737
440000000.0 0.3163357797604566 0.6915074817858332
460000000.0 -0.5816776670212852 -0.3668349269383387
480000000.0 -0.3250962785051509 -0.5290809062224859
500000000.0 0.6368868536351786 -0.1089531520648808
520000000.0 -0.4507708932591993 0.49164777720699887
540000000.0 0.6721448424385962 0.09440756268858672
560000000.0 -0.2672577488471008 0.6196240095810416
580000000.0 0.05622670948451543 0.5167029721415718
600000000.0 0.13682225479770743 0.5761026094348076
620000000.0 -0.251423975116279 -0.5552762127044291
640000000.0 -0.5234098780205279 -0.2107197382767011
660000000.0 -0.24808951579496602 0.4645502465462223
680000000.0 -0.229578008167821 0.4421518837449808
700000000.0 0.3497187949044884 -0.2913295603773464
720000000.0 0.028472399413999084 0.4842774462272107
740000000.0 0.4538604794725995 0.11495698349757734
760000000.0 -0.42097294666906254 0.13389882531949704
780000000.0 -0.4233922175228564 -0.1070100910431909
800000000.0 0.040679627455152606 -0.4021339971329364
820000000.0 0.30910119315883594 -0.1742184039306471
840000000.0 0.21396714666810993 0.23635789446953492
860000000.0 0.26664544051510997 -0.12638400384144205
880000000.0 -0.12474716490320703 0.2435267114187284
900000000.0 -0.03725018612686769 0.2664078547441559
920000000.0 0.2582082506438532 -0.02818431953688125
940000000.0 0.15898902431120887 0.15146745155666125
960000000.0 -0.1076305969238917 -0.14449150935751884
980000000.0 -0.14602916655748735 0.004367395591388858
1000000000.0 0.13035305152841925 -0.01472029152259
1020000000.0 -0.09665576005878586 0.02974626061140927
1040000000.0 0.010839993974758367 0.11010292981214229
1060000000.0 0.14225350339455986 -0.008860990705335086
1080000000.0 0.1064624921436492 0.1573924286902671
1100000000.0 -0.09070982562375325 0.22400778588866918
1120000000.0 0.27657972395628133 -0.0433229622086032
1140000000.0 -0.25413449276937544 0.1654373060344861
1160000000.0 -0.20996883217988488 0.2334715364063962
1180000000.0 -0.33578923821668777 -0.028926533825756443
1200000000.0 -0.2883328826826612 -0.20158920109833134
1220000000.0 0.3560108026940282 -0.021682667056926307
1240000000.0 0.14263391134927658 0.35011216090626385
1260000000.0 0.3818081361344786 -0.09140988341191707
1280000000.0 -0.32796083080603267 -0.20620328921397627
1300000000.0 -0.22590277842783932 -0.3039138851917545
1320000000.0 -0.026265546670167762 -0.37771120478334985
1340000000.0 -0.36506760599902155 -0.056395943846833725
1360000000.0 0.14195768709681317 0.36198040967111234
1380000000.0 -0.05495919288315378 0.3975310340530002
1400000000.0 -0.034086879251084105 -0.39364143926425466
1420000000.0 -0.05572913841432918 -0.3879884732642934
1440000000.0 -0.20967078584696253 -0.3336391911566975
1460000000.0 -0.3852119681814328 -0.09109267829203467
1480000000.0 -0.3919029130319108 -0.07474029010851944
1500000000.0 0.07067830800453173 0.39220512364417937
1520000000.0 -0.38758049593327365 -0.003843558417000583
1540000000.0 0.34972071673628335 -0.09580012543655719
1560000000.0 -0.19728195034759058 0.2631162678543418
1580000000.0 -0.18578025134150153 -0.22515576144659905
1600000000.0 0.1502453459724396 -0.20928567489192132
1620000000.0 0.19810874900504716 -0.09424224584279518
1640000000.0 -0.09332796792005767 0.15663864355857512
1660000000.0 -0.11498128259405606 0.09986932324373939
1680000000.0 0.11420526480616237 -0.0053973162326760955
1700000000.0 -0.09797925809555276 0.02554438634110933
1720000000.0 -0.03023278718124393 -0.07188963470686466
1740000000.0 0.07789101495272736 0.010489079090292385
1760000000.0 -0.0899742698939392 -0.0055048757389779615
1780000000.0 0.08278268040006537 -0.08165427438615748
1800000000.0 0.047915564632436854 -0.1309219084411286
1820000000.0 -0.1622586801278791 0.04277086818645103
1840000000.0 0.1878492828231229 -0.05569584529703095
1860000000.0 -0.19175739756249074 0.11002541706474306
1880000000.0 -0.09765949554024861 0.23671094869191672
1900000000.0 0.1424021377635825 0.23458093247279618
1920000000.0 0.2189602631125528 -0.19508953161003695
1940000000.0 -0.3035204775866393 -0.03770472527461595
1960000000.0 0.3089884456536004 -0.009493448406576566
1980000000.0 -0.29222025363833903 -0.1139488416355856
2000000000.0 0.077439044113836 -0.31223166223346255
2020000000.0 0.3080256470686798 -0.08723160918342807
2040000000.0 0.3184470979514879 0.02959808955388775
2060000000.0 0.2775970177193537 0.151265894506233
2080000000.0 0.11462852340611236 0.2952407827920098
2100000000.0 -0.012396944863448224 -0.3130998775783164
2120000000.0 0.2855213208760052 0.1044390049325708
2140000000.0 -0.07245014817095408 -0.2913077006088817
2160000000.0 -0.17922339841933363 0.23704687129097612
2180000000.0 -0.02318493413667382 0.2865778190819507
2200000000.0 -0.16860519805725113 0.2298881640936706
2220000000.0 -0.16171972948546 0.23117126603931096
2240000000.0 -0.2418775306131631 -0.13767091645638613
2260000000.0 0.1380375347293652 -0.23161811655089684
2280000000.0 0.2560917246486775 0.0945230153060208
2300000000.0 0.2177612205969319 0.1406884675347888
2320000000.0 -0.23428446964628552 -0.10217546357234844
2340000000.0 -0.03554540760328899 -0.251663948364248
2360000000.0 0.25082939254060715 -0.04746650105442752
2380000000.0 0.1437002087277081 0.21413595342682804
2400000000.0 0.14576704151305703 0.23701917665396674
2420000000.0 0.02643253912278903 -0.2941824966660618
2440000000.0 -0.21008431874337946 0.23291483751237957
2460000000.0 0.33453626140483994 0.059319119684582186
2480000000.0 0.05229431107062876 -0.36876067182451816
2500000000.0 0.22066772707468146 0.3406973850515162
2520000000.0 -0.41482262552230065 -0.16018454117294242
2540000000.0 0.46354923039523716 -0.11928636889593944
2560000000.0 -0.3460271089540261 0.3760005088292755
2580000000.0 0.24533458814633433 -0.4825393024723592
2600000000.0 -0.08001575848585399 0.5610641772574074
2620000000.0 -0.08983291353805403 -0.5820832666647655
2640000000.0 0.1860803280808689 0.5761757013784858
2660000000.0 -0.5406306166524256 -0.30804167578433794
2680000000.0 0.4316562169615527 -0.46063108511527334
2700000000.0 0.6175960898422351 0.1695455498393861
2720000000.0 0.4364300117837493 0.47440330563230626
2740000000.0 0.28304028006091786 0.5812844109544313
2760000000.0 0.1720977512829645 0.6228149826931223
2780000000.0 -0.636030115958274 -0.06788770375617463
2800000000.0 -0.4475852261162308 -0.44288274922066373
2820000000.0 0.14275199902149643 -0.6005206971825335
2840000000.0 0.4752671209322638 0.3711335908701848
2860000000.0 -0.48484476754268035 -0.33199523114876517
2880000000.0 0.21219728062420137 0.5289712245613301
2900000000.0 0.45663765300613723 -0.30409068685231505
2920000000.0 0.020104131068457497 -0.5260367036797954
2940000000.0 -0.34233191623260795 -0.36769824423008723
2960000000.0 -0.2500478491800547 -0.4069277935411278
2980000000.0 -0.31854353652697837 -0.3246891798808353
3000000000.0 -0.32877701214519506 -0.2898770456767894
3020000000.0 -0.40778622479808596 0.09878207985556971
3040000000.0 0.08771645259821707 0.3894383796965085
3060000000.0 0.3349246440351671 -0.17803332473787617
3080000000.0 -0.3650070190536817 -0.011796038568601628
3100000000.0 0.32559978920166305 0.132809113382328
3120000000.0 0.22608150894933585 -0.26210429339261754
3140000000.0 -0.10426984954728583 0.3243439321444607
3160000000.0 0.1075251719027487 -0.3205419968008897
3180000000.0 -0.03586388276255405 0.3334880528604626
3200000000.0 0.3257204676520272 -0.0539792592796558
3220000000.0 -0.16478819600677463 -0.2801843642368866
3240000000.0 -0.29996241462770445 -0.10046913223852397
3260000000.0 -0.30256058796883983 0.03046561881909348
3280000000.0 -0.28256120183492683 -0.07476697407055512
3300000000.0 -0.2692034141304058 -0.06689378802467698
3320000000.0 -0.18930759421878687 -0.16526169049730502
3340000000.0 0.21972914641584157 0.06073080643615551
3360000000.0 -0.16441346820422975 0.12337847106287744
3380000000.0 0.10246317980213387 -0.15676722113483157
3400000000.0 0.16571866813369712 -0.0120599887026158
3420000000.0 0.13661676170018983 0.03759172720214515
3440000000.0 -0.028909344308237123 0.12207051061479086
3460000000.0 -0.01040655930477464 0.10721016194888809
3480000000.0 -0.009434555713639022 -0.08996133290473925
3500000000.0 -0.04470569181166533 0.06707910721017894
3520000000.0 -0.04985039466082994 -0.06182743059116298
3540000000.0 0.07880652121064403 -0.012838512389131803
3560000000.0 0.0809923127466664 0.03327272942030832
3580000000.0 -0.07330963104809814 -0.059111433956904776
3600000000.0 -0.09444419395535887 0.02476903380202144
3620000000.0 0.11015106250541327 0.013263145869132622
3640000000.0 0.06613073815816681 0.1043193867254548
3660000000.0 -0.0013915148444610633 0.13238883554758926
3680000000.0 -0.052050386874651466 0.1281019968287787
3700000000.0 -0.12553562693880774 -0.041243129932785755
3720000000.0 0.05709535358203169 -0.10288348725497456
3740000000.0 -0.09642975905168363 0.014812294342588527
3760000000.0 -0.08258245808738811 0.008015780102981186
3780000000.0 0.03762200064786073 0.05259360460980416
3800000000.0 -0.016489009327378734 0.031797171549521365
3820000000.0 -0.001600915398485889 -0.0022404712570963242
3840000000.0 -0.0004636663569768297 -0.03383750098869583
3860000000.0 0.04219359278010238 -0.04537733583829795
3880000000.0 0.039918078558488744 -0.07950230372973978
3900000000.0 -0.10217686708583495 0.040383264047372754
3920000000.0 0.0014859118809498826 0.12514698037966948
3940000000.0 0.07553230858367364 0.1101865448578786
3960000000.0 0.059292816177082174 0.12454480872894977
3980000000.0 -0.022076051789380956 -0.1336981981454028
4000000000.0 -0.06662887977179956 -0.09277327158060261
