!Created with skrf (http://scikit-rf.org).
# Hz S RI R 50.0 
!freq ReS11 ImS11
400000000.0 0.819294500042044 -0.3187303624766868
420000000.0 0.7572577800557314 -0.34162893098436303
440000000.0 0.39349779346717995 -0.6644445517261275
460000000.0 0.1982948755920656 0.6671546011615623
480000000.0 0.4658817737652113 -0.3662261374301113
500000000.0 0.5465778822251494 0.3058811814034275
520000000.0 0.3962138173649475 -0.5047340128568024
540000000.0 0.07792543946469545 -0.5988631895036066
560000000.0 0.6067061673345655 0.13281904767616132
580000000.0 0.494556256383226 0.16354283703729577
600000000.0 -0.25598226686653186 0.5407533785693424
620000000.0 -0.2175128921477897 -0.5635899742599788
640000000.0 -0.3423002486196836 -0.44945151534037314
660000000.0 0.06365414875689424 0.5156623994974626
680000000.0 0.23485340039025118 -0.4152341136817321
700000000.0 0.34042626509304685 0.3544346684470649
720000000.0 0.40340813719195895 0.2928732641468926
740000000.0 0.2974274101061348 0.37534279728674036
760000000.0 0.15305314202446488 0.42910591490773153
780000000.0 -0.3675897800106539 -0.2579459152758327
800000000.0 -0.1502011383371741 -0.3738450551808649
820000000.0 0.22453158209880675 0.285370232331083
840000000.0 -0.3157447244262113 -0.10542400621185419
860000000.0 0.3118162783082633 0.007001573305088313
880000000.0 0.28087276903008895 -0.06200299230493255
900000000.0 0.2166899679389985 0.16530567279187292
920000000.0 0.05037189415991779 -0.24972705244723073
940000000.0 0.1769473517968851 -0.1294828868412834
960000000.0 0.16705056323271075 0.02016823720394497
980000000.0 -0.13682134264902304 0.02186776820998577
1000000000.0 -0.07008163209925881 -0.11218410224657588
1020000000.0 -0.04097644920371848 0.10786922160484333
1040000000.0 0.12327336601355729 0.04845392433080393
1060000000.0 0.07921717691346579 -0.13279674757940432
1080000000.0 0.04903012930919568 0.19454359121078524
1100000000.0 -0.09991031779860414 -0.22388056234215203
1120000000.0 -0.0019428786354982446 -0.2815051537269099
1140000000.0 -0.045982040005454146 0.30751706873788714
1160000000.0 0.2963880095623895 0.1458179213462059
1180000000.0 0.09711445450373335 0.32360141078988114
1200000000.0 -0.3205454597325028 -0.14996649292912825
1220000000.0 0.23065158843911143 -0.2891013343431626
1240000000.0 0.30974098797679483 -0.21396113184044713
1260000000.0 0.1123314949682681 -0.3785810813047403
1280000000.0 -0.31607161475726403 0.21117218595582032
1300000000.0 -0.023740364921703398 -0.36443121962908215
1320000000.0 0.31297657020819 -0.20686653788198625
1340000000.0 -0.36741366322878166 0.008486999379230656
1360000000.0 0.2267365472922853 0.31177666091631623
1380000000.0 0.004723580297180006 0.3951949360578301
1400000000.0 -0.061166686842605254 -0.37638217570672705
1420000000.0 0.3604153422608665 -0.1320623214960992
1440000000.0 -0.06012461298389348 -0.38400185100729256
1460000000.0 -0.2804836784507981 -0.26747269774300636
1480000000.0 -0.1492198711725401 -0.36352850277296483
1500000000.0 -0.3586541820738212 0.1582850258809712
1520000000.0 0.0929934395979342 -0.37517389848122573
1540000000.0 0.0004960978771796392 0.36076298481040125
1560000000.0 -0.20204999871708929 -0.26124158183828905
1580000000.0 0.29429887417832107 -0.02177823703555252
1600000000.0 0.2598511943940727 -0.02247708451943225
1620000000.0 0.029598641894668435 0.21151902862154373
1640000000.0 0.00315682474340007 0.18709696605509848
1660000000.0 0.0995416147537183 -0.125474649832089
1680000000.0 -0.10850332803908554 -0.05438453747326678
1700000000.0 0.09385533399757975 0.07030329225907435
1720000000.0 0.06941271774720009 -0.0642575883009133
1740000000.0 0.01469413783811579 -0.08173618345177883
1760000000.0 0.04351130048625357 0.0812284942265881
1780000000.0 -0.10472457996381938 0.026936222108137748
1800000000.0 0.09008341515023152 0.0926143283287796
1820000000.0 0.11991664722050979 0.10528352997781097
1840000000.0 -0.005890397385240488 -0.19247050781293298
1860000000.0 0.027221787307863447 0.21558027296298207
1880000000.0 0.18690944495317946 0.1702986534408559
1900000000.0 0.2681603099438047 -0.04732641502522293
1920000000.0 0.022798001056918142 -0.29084233300496204
1940000000.0 -0.29762340409544114 0.06583612910144375
1960000000.0 0.22850694067624563 -0.20949649377111781
1980000000.0 -0.29140228933893836 0.11314894163177211
2000000000.0 0.13063051011098006 -0.2905899600596147
2020000000.0 0.2569918768765707 -0.19757524533935275
2040000000.0 0.32258033983010087 0.03523138055668826
2060000000.0 0.23750212555021416 0.21790982208120319
2080000000.0 0.00036252178984820695 0.3257781954037168
2100000000.0 -0.03304706141988734 -0.32175457983238087
2120000000.0 0.22591236133453818 0.2245357809592157
2140000000.0 -0.2035942864958936 -0.24749801301701801
2160000000.0 0.15959290141510518 0.2750432546232496
2180000000.0 0.27508581878839455 -0.13959427994292758
2200000000.0 0.25311501412344467 -0.17028457057925694
2220000000.0 0.005039941844889734 -0.29777670472844314
2240000000.0 0.2770483621875801 -0.08044468472712268
2260000000.0 -0.039028813590091554 0.27328435224530156
2280000000.0 -0.16747899001162342 0.2105864765708575
2300000000.0 -0.10622216288032466 -0.22711651875267277
2320000000.0 -0.1714436279225714 0.17289606582496794
2340000000.0 0.10329423599184244 -0.22280452863435068
2360000000.0 0.05597342359124075 0.23792177516620466
2380000000.0 -0.15764134012873499 -0.20209114698978292
2400000000.0 -0.2787314112568295 -0.041135812579337176
2420000000.0 0.2523409824785021 0.1676083247940238
2440000000.0 -0.2241656832246257 -0.23728803893988476
2460000000.0 0.10384989608990432 0.33952599478830114
2480000000.0 0.1920239459486224 -0.3407182026360662
2500000000.0 0.3214131768430189 0.2812466122022322
2520000000.0 -0.43077026683607067 0.16912445937086526
2540000000.0 0.19995329216714505 -0.4525059391862052
2560000000.0 0.053627782833845124 0.5222744486180947
2580000000.0 -0.2379526785912982 -0.4995513236154348
2600000000.0 0.3326888568644865 0.47048390714374605
2620000000.0 -0.35741063621009944 -0.4759841695014982
2640000000.0 0.4460572885350528 0.4172698064504823
2660000000.0 -0.6239347215122584 0.03873769338413639
2680000000.0 0.09579267881098472 -0.6263876602732397
2700000000.0 0.6265029260761116 -0.1439110511174453
2720000000.0 0.617465213556735 0.19223494650168146
2740000000.0 0.5547372385410845 0.3370295417704618
2760000000.0 0.5320171884585452 0.3717710268365086
2780000000.0 -0.5283373556309254 0.3677183911850839
2800000000.0 -0.6185137940079274 0.14232515421071312
2820000000.0 -0.3904527839769749 -0.4862727281438484
2840000000.0 0.5447176868044498 -0.27430746264017636
2860000000.0 -0.3935887303611303 0.44526301819713404
2880000000.0 0.5551933277236574 -0.1425269342047144
2900000000.0 -0.23194785340630789 -0.5006740155752684
2920000000.0 -0.5221802131076884 0.08007648307470824
2940000000.0 -0.3310194694673768 0.3721736973845343
2960000000.0 -0.3335948622093161 0.33468636069469615
2980000000.0 -0.26499600433204085 0.35932070574563035
3000000000.0 -0.10444657978247601 0.41274507787927
3020000000.0 0.0689948583707761 0.39774719906952577
3040000000.0 0.24976007245843176 0.29276573817818485
3060000000.0 0.24793274249557254 -0.27563075283225497
3080000000.0 -0.3461860853691858 -0.08800747587256065
3100000000.0 0.2137216462811355 0.27421386172420126
3120000000.0 0.2965513488148476 -0.17644209252430093
3140000000.0 -0.33617476694490633 0.06579290875955483
3160000000.0 0.3328771571122057 -0.0836235657079263
3180000000.0 -0.33946122227064596 -0.04730595813468719
3200000000.0 0.011905539802346205 0.342917500330586
3220000000.0 0.2667759983733561 -0.2080935094608462
3240000000.0 0.07999842836080784 -0.324631990342209
3260000000.0 -0.22229884644302242 -0.24083358780956549
3280000000.0 -0.3109534015783875 -0.055963116867421794
3300000000.0 -0.21240870921574134 0.21255060601533324
3320000000.0 -0.0271987463652479 0.27100252112197265
3340000000.0 -0.24523223788701262 0.047848126859465094
3360000000.0 -0.22010893297890344 0.029272462373706225
3380000000.0 -0.0037243982198371358 -0.19261957116934145
3400000000.0 0.036675108196973207 -0.16479104311814827
3420000000.0 0.029877708136821782 -0.13794747034621746
3440000000.0 0.05114026800656745 -0.10656221659511007
3460000000.0 0.08082865396320142 -0.04916141241293185
3480000000.0 -0.07203997858964759 -0.028431704077605157
3500000000.0 -0.07177217944900095 -0.01091380812277192
3520000000.0 -0.04555207641481048 -0.054238671757568184
3540000000.0 -0.0419054559591584 0.06575819799502369
3560000000.0 -0.052182720922081795 0.06818465659829856
3580000000.0 0.09585670052588917 -0.010908346760932408
3600000000.0 0.06641305193378036 -0.07999243276356349
3620000000.0 0.09900269386867694 0.06812400706151277
3640000000.0 0.07899938707956188 -0.10777591283112654
3660000000.0 -0.10597038895033682 -0.102280545079966
3680000000.0 0.08615543634505134 0.12417177243145051
3700000000.0 0.09165056364905988 0.11124706871454804
3720000000.0 0.12736640387208367 0.02086259146867127
3740000000.0 0.09587786929941373 -0.03526567256522009
3760000000.0 0.006819759157449966 -0.07990980491944095
3780000000.0 0.05614044262203861 0.018109529504354373
3800000000.0 -0.026246726552622727 -0.004035099036859382
3820000000.0 -0.000646128944276708 0.010867224639314528
3840000000.0 -0.047599656752982535 0.006350317559832506
3860000000.0 -0.02992702917538034 0.07214523180336398
3880000000.0 -0.04357110451320466 -0.09597090369987087
3900000000.0 0.12324019364080718 0.032543420798478044
3920000000.0 -0.09898039298881793 -0.10451483066161202
3940000000.0 -0.015643936798432748 0.152271262432823
3960000000.0 0.03639395424532529 -0.15277905674304404
3980000000.0 0.14451554403133574 0.031901829114466755
4000000000.0 -0.12360487838307707 -0.03137470704034535
