!Created with skrf (http://scikit-rf.org).
# Hz S RI R 50.0 
!freq ReS11 ImS11
400000000.0 0.7853283605219612 0.37758663870366965
420000000.0 0.2762225717932427 0.7686448978790944
440000000.0 0.4110667714868091 0.641640310128292
460000000.0 -0.6617792181484077 -0.1731395390231167
480000000.0 -0.0074609061425819165 -0.6199212083267192
500000000.0 0.6550478573704692 -0.005343076371536427
520000000.0 -0.178627573753234 0.6453615905731076
540000000.0 0.6530178819686056 -0.18035458935472082
560000000.0 -0.44796151324597866 0.4992529264910898
580000000.0 -0.12463444203490816 0.5052521008874263
600000000.0 -0.2017295139250279 0.5575907638678496
620000000.0 -0.3855203842475209 -0.47728961599362724
640000000.0 -0.5124235499222225 -0.24265374837466394
660000000.0 0.039098072969970504 0.5242678769376841
680000000.0 0.23662729975559751 0.4339313088428878
700000000.0 0.4197239437312407 0.16090573355306512
720000000.0 -0.2748749538340809 0.407271544334637
740000000.0 0.3699523289889219 0.2977387576300905
760000000.0 0.15150347119184382 0.4186350915708984
780000000.0 -0.4029959430204287 -0.15270034369318136
800000000.0 0.1613564596055839 -0.36531609187346303
820000000.0 0.34919206690738325 0.06086809278924134
840000000.0 0.19409212443627877 0.25987661904572973
860000000.0 0.26926478816053395 -0.11969104972606864
880000000.0 -0.07688831076773227 0.26213979737137755
900000000.0 -0.11969795393996735 0.24368353663588022
920000000.0 0.2538164618151825 -0.06930355613894677
940000000.0 0.22169141487774205 0.01407577130623182
960000000.0 -0.17423224209048166 -0.023646322704613983
980000000.0 0.023219839128034866 -0.14615346054880013
1000000000.0 -0.02372592335898649 0.13138451684187857
1020000000.0 -0.05777432447530708 0.07988335808226625
1040000000.0 0.007732762783886327 0.11164847647966766
1060000000.0 0.09067950198963358 -0.10675792881577645
1080000000.0 -0.08103161068639494 0.178837525707363
1100000000.0 0.21566691656540302 0.11064712103962478
1120000000.0 0.20862692349697712 -0.17977012984404658
1140000000.0 -0.29585309397857407 0.04119311088707511
1160000000.0 -0.2847000954527422 -0.14287097751091277
1180000000.0 -0.339088277281114 -0.012608862962505914
1200000000.0 -0.3119900372508682 -0.16414999209428882
1220000000.0 0.34786814848526015 -0.06734548596736992
1240000000.0 0.058608180508473745 0.37255629175980604
1260000000.0 0.34594125743843407 -0.1862943409031337
1280000000.0 -0.36105238679776336 -0.13184439843574255
1300000000.0 -0.12337655433210924 -0.358382316340052
1320000000.0 -0.016195316257947297 -0.38182527405101474
1340000000.0 -0.33935128009679144 0.1484427966051452
1360000000.0 0.15679805764929794 0.3563209519635861
1380000000.0 -0.06486888322736042 0.39420583121039604
1400000000.0 0.17414113846405857 -0.3561196965951492
1420000000.0 -0.0914230432964338 -0.38431566438785597
1440000000.0 -0.30607508012571355 -0.24911380964053956
1460000000.0 -0.383684148109628 -0.10017865632458434
1480000000.0 -0.3411566553066593 -0.19815409916646065
1500000000.0 0.08037107863968643 0.3912808511134113
1520000000.0 -0.387086718314873 0.04021573404656694
1540000000.0 0.31678474301554466 -0.17319951040419967
1560000000.0 -0.22951695229820687 0.23473429566547926
1580000000.0 -0.13111865502732023 -0.2629704004639986
1600000000.0 0.031082052164188377 -0.2560463284472598
1620000000.0 0.2044325000662416 -0.07475383143643906
1640000000.0 -0.11183509620875003 0.14818830320650764
1660000000.0 0.012301508368236038 0.1536083860263749
1680000000.0 0.11211759915603085 0.012498962824819515
1700000000.0 0.0011967063097393098 -0.10484874274012193
1720000000.0 -0.032817828641338365 -0.0743319763019368
1740000000.0 -0.01939739609575831 -0.07513995073904575
1760000000.0 0.0357682585662288 0.08181952610105515
1780000000.0 0.008351174056016866 -0.1193076958337035
1800000000.0 0.07292553124613875 -0.11590573178819623
1820000000.0 -0.1665631965167778 -0.026105086060389103
1840000000.0 0.19201654114415895 -0.03522813299433868
1860000000.0 -0.22189788516058379 -0.01795583383660695
1880000000.0 -0.05502593996750301 0.24755493068880186
1900000000.0 0.02817304997009692 0.2743492055835043
1920000000.0 0.12653792301370048 -0.26548439652592465
1940000000.0 -0.2988719128192171 -0.05438210645287016
1960000000.0 0.30310034288896687 -0.05531123440874782
1980000000.0 -0.297294050554694 -0.09782213962378536
2000000000.0 0.11770629522529114 -0.2985303539517653
2020000000.0 0.3158760658350249 -0.06352628363894491
2040000000.0 0.31735206172372116 -0.054934652035498736
2060000000.0 0.29918072769869253 0.10374893879801353
2080000000.0 0.0446606845333499 0.31439466368882774
2100000000.0 0.029297849225407797 -0.3122419686031004
2120000000.0 0.17867630147687133 0.24587978535657196
2140000000.0 0.023647254492498798 -0.3003573955491675
2160000000.0 -0.25521299712470996 0.15224092215091112
2180000000.0 0.04676065432601765 0.28294651796943215
2200000000.0 -0.19972563408136026 0.20063107640176367
2220000000.0 -0.23030997577368392 0.16161484162701992
2240000000.0 -0.17428178765468735 -0.2139704229243407
2260000000.0 0.12168533238345629 -0.2420510076302274
2280000000.0 0.26779626479732216 -0.047945334807058204
2300000000.0 0.2456522989553494 0.08158957505281146
2320000000.0 -0.24123669799001454 -0.07937850085857415
2340000000.0 0.0030081265833901095 -0.2576319723430125
2360000000.0 0.18506794606356614 -0.17796440860444485
2380000000.0 0.12862035600401364 0.22372080823880272
2400000000.0 0.19990667390707811 0.19523228634764264
2420000000.0 0.15541738875688335 -0.25311809227665766
2440000000.0 -0.2944253173292707 0.11881714085191217
2460000000.0 0.327040344654895 0.0950448094867675
2480000000.0 0.09658105514586698 -0.35753514044078666
2500000000.0 0.04507098731151874 0.4032927946432659
2520000000.0 -0.36928300001990527 -0.24610197266751968
2540000000.0 0.47615529580673077 -0.03139274000134082
2560000000.0 -0.3518706054505706 0.37023072921059974
2580000000.0 0.13983998244072288 -0.5221870436259369
2600000000.0 -0.005925561240476679 0.5656519126965941
2620000000.0 -0.05786234080709096 -0.5860076497944273
2640000000.0 0.2909577023541681 0.5327250965224373
2660000000.0 -0.579508881568388 -0.23019440526851753
2680000000.0 0.3986998699658558 -0.4917516581498649
2700000000.0 0.6110955441588118 0.1965924107831217
2720000000.0 0.34391664979982456 0.5474949664207021
2740000000.0 0.12015717672683689 0.636534429645204
2760000000.0 0.1547164887612147 0.6278600196050308
2780000000.0 -0.6185088286390752 -0.16300676174633205
2800000000.0 -0.409975319618667 -0.4769138991326518
2820000000.0 0.15575341234320605 -0.596330622999845
2840000000.0 0.44330971148197784 0.40712345366336117
2860000000.0 -0.4893418155492064 -0.3237555173027866
2880000000.0 0.28077800470187003 0.49520956538967276
2900000000.0 0.41881939507527893 -0.35491365119042484
2920000000.0 -0.03255820731161547 -0.5260855638998668
2940000000.0 -0.34710940851374716 -0.364946278856704
2960000000.0 -0.22456395310802935 -0.4229146619944566
2980000000.0 -0.30955135418734103 -0.33796033731829755
3000000000.0 -0.3545448796073424 -0.2576490140823711
3020000000.0 -0.4165377871766404 0.05972739157249499
3040000000.0 -0.026768823258666398 0.399298032548438
3060000000.0 0.36171729963616145 -0.12043932019120623
3080000000.0 -0.3522062183364032 -0.10002443129948176
3100000000.0 0.2959630924397092 0.18971576644347113
3120000000.0 0.2808895242953944 -0.19893174274296682
3140000000.0 -0.18125132291470655 0.2870798565796686
3160000000.0 0.16711455522591562 -0.29417742159912275
3180000000.0 0.04470403896426507 0.3321641998619707
3200000000.0 0.30814734267033483 -0.11521435836797046
3220000000.0 -0.21806381189045532 -0.24010969221030348
3240000000.0 -0.29929537577841686 -0.10239338457445354
3260000000.0 -0.2920094190707661 0.08928741692400728
3280000000.0 -0.29398801169234584 0.021377591741009935
3300000000.0 -0.2762498144026907 -0.017947838081058123
3320000000.0 -0.13888542669175252 -0.21352201103945195
3340000000.0 0.22791600821210564 0.02077918239479931
3360000000.0 -0.1910778506152455 0.07978640368907594
3380000000.0 0.15512833522610306 -0.1076618625214159
3400000000.0 0.14019603143908563 0.09004200821299058
3420000000.0 0.1076962574877634 0.0939968633652321
3440000000.0 -0.09049901342978155 0.08771991138390794
3460000000.0 -0.0533763865226853 0.09139106181947836
3480000000.0 0.08617361250931438 0.019707915512421997
3500000000.0 -0.028592097909339188 0.07484431093491864
3520000000.0 0.018987254597457853 -0.07549532583392198
3540000000.0 0.07753056992207903 -0.007648434796511781
3560000000.0 0.08365720987755958 -0.024729455071135015
3580000000.0 -0.08961180397912383 0.028122704723870896
3600000000.0 -0.017784158411380577 0.09639435248379516
3620000000.0 0.08767593185053536 -0.06749396106604531
3640000000.0 0.08636470075965343 0.09017336599643079
3660000000.0 0.0036100347506512506 0.1354364826046041
3680000000.0 8.574268313359599e-05 0.14017350500995682
3700000000.0 -0.1044185091330344 -0.08176900728791911
3720000000.0 0.10925986546498366 -0.0476104376693734
3740000000.0 -0.029392110460636042 -0.09584608079380329
3760000000.0 -0.03075092941043843 -0.07817425027510343
3780000000.0 -0.059963016556217726 0.02194504529707457
3800000000.0 0.010803187225681653 -0.032071466926846176
3820000000.0 -0.0025241256128485066 0.0020847933024733777
3840000000.0 -0.0022127609380878607 -0.03584645177647787
3860000000.0 0.016295009080306497 -0.06338250846048368
3880000000.0 0.05567503990734472 -0.07277220384648092
3900000000.0 -0.09972586574840221 -0.04938180191906507
3920000000.0 -0.12630727837203073 0.0073198805957065665
3940000000.0 -0.0734490868449697 0.11475982252171112
3960000000.0 -0.09175622831414605 0.10408370423216827
3980000000.0 0.12957678856152574 -0.0278911117322679
4000000000.0 0.08524542005143516 -0.07410000873481884
