!Created with skrf (http://scikit-rf.org).
# Hz S RI R 50.0 
!freq ReS11 ImS11
400000000.0 0.7810636483498322 0.38659451400912437
420000000.0 0.2552935123321596 0.7751714629307414
440000000.0 0.3723660427440929 0.6628933806415471
460000000.0 -0.560708340736217 -0.39603492215814445
480000000.0 -0.14267287124257771 -0.6070003741535637
500000000.0 0.6305132650361427 -0.15797948428102707
520000000.0 -0.34001771427391886 0.5747276286994921
540000000.0 0.6370171606446446 -0.234188754524217
560000000.0 -0.1980827120164226 0.6355812842128995
580000000.0 -0.504609825806153 0.11408044647377377
600000000.0 -0.12181119913033411 0.5859402962564035
620000000.0 -0.531964366889872 -0.3088259678699844
640000000.0 -0.5661057409580512 0.007174765944515053
660000000.0 0.12709196844666784 0.5066767365248199
680000000.0 -0.2056481080395068 0.443744728449443
700000000.0 0.45302890658121764 -0.0044172932062968625
720000000.0 -0.3730974677117379 0.3136435786193466
740000000.0 0.26303984488023474 0.39278270166393575
760000000.0 -0.27174064384068203 0.3596144161766778
780000000.0 -0.3621719328102972 0.2408897627347994
800000000.0 -0.28166961167027277 -0.2760037742369609
820000000.0 0.2193401492771573 0.2705291544787458
840000000.0 -0.2963701472728965 0.123509932409006
860000000.0 0.3006133853403303 0.060154472938391206
880000000.0 0.2554603690869127 -0.11840926439798322
900000000.0 0.24963626281122275 0.08744802707063311
920000000.0 0.12386289476113513 0.21850169316723722
940000000.0 -0.14128673595218347 0.17668159547176707
960000000.0 0.07213509803364698 0.16969399112882952
980000000.0 -0.13909998550790473 -0.0010000972631780752
1000000000.0 0.12672330107824964 0.00913803757221735
1020000000.0 -0.07970667762494613 0.06315988639468471
1040000000.0 -0.07786569999726585 0.09038135907556978
1060000000.0 -0.005310522069201879 -0.14598721589516547
1080000000.0 0.19190727871936372 -0.013660491492120242
1100000000.0 0.19189499561450937 0.1402238665476895
1120000000.0 0.2733474713313618 0.041513489665070534
1140000000.0 -0.30036630742319775 -0.0018625488124425224
1160000000.0 -0.27640344297459996 0.16357633664060206
1180000000.0 -0.3297274980854974 -0.07175793911123768
1200000000.0 -0.2332202077375561 -0.2625267366144043
1220000000.0 0.35430910240564395 -0.057729491877586456
1240000000.0 0.2620679311590875 0.2685101929757121
1260000000.0 0.3908094289396237 -0.02711513452541931
1280000000.0 -0.36387999479201183 -0.1261027056902433
1300000000.0 -0.0037759792743330134 -0.379915323349851
1320000000.0 -0.20239452207506436 -0.32421285381387316
1340000000.0 -0.363247619629166 0.043901372152562276
1360000000.0 0.27906366288454 0.2724460681639014
1380000000.0 -0.21356001725070975 0.3385377787477093
1400000000.0 -0.0389881525858833 -0.3922566700245724
1420000000.0 0.09452344658491675 -0.3820516499971304
1440000000.0 -0.3255944068906433 -0.22824667983090055
1460000000.0 -0.393091019732872 0.021111348267562856
1480000000.0 -0.3523525435501683 -0.1757321004867305
1500000000.0 0.1278179152276861 0.377256407777597
1520000000.0 -0.3744623211505452 -0.10418179972519441
1540000000.0 0.3297337865959833 -0.1518529392364255
1560000000.0 -0.14135975731793624 0.298293876982136
1580000000.0 -0.21459406608875373 -0.19854196570294516
1600000000.0 0.08718163488067313 -0.24087398687190403
1620000000.0 0.2107832652230019 -0.06464504674051626
1640000000.0 -0.18144472203390435 0.04362222116319307
1660000000.0 0.043456288414066846 0.14785362917721445
1680000000.0 0.1062589401306689 0.035265668294014466
1700000000.0 -0.0805622153021965 -0.06488545721505277
1720000000.0 -0.05597511549466958 -0.05590330866038774
1740000000.0 0.0705608952581179 0.030218145299481837
1760000000.0 0.0018832640554257687 -0.08972594693084775
1780000000.0 -0.024016077241771606 -0.11472450203705356
1800000000.0 0.0378063277381044 -0.1311786063562968
1820000000.0 -0.16864225912950082 0.0008169961635302599
1840000000.0 0.1883549912762265 -0.051394450462625314
1860000000.0 -0.21869058748830625 0.035892407490710904
1880000000.0 -0.13466215943336066 0.21900682266579433
1900000000.0 0.11147374077851137 0.2503141547647976
1920000000.0 0.14637250860133336 -0.2544747241032105
1940000000.0 -0.3038528595278429 -0.014173282134942065
1960000000.0 0.30684393337153715 0.021418773507661644
1980000000.0 -0.2777767509615126 -0.14518250238152391
2000000000.0 0.10602847256891135 -0.3036175967061659
2020000000.0 0.2997347993370541 -0.11949377823848259
2040000000.0 0.32001836712758863 -0.028120984888929296
2060000000.0 0.2795372211666524 0.1503734484173082
2080000000.0 0.0981306129098276 0.3001408256247326
2100000000.0 0.04796767144963457 -0.3079017022888363
2120000000.0 0.21955111711315684 0.21268445005045303
2140000000.0 -0.07749592293548557 -0.29129877516286273
2160000000.0 -0.18445039291286874 0.23330649476270418
2180000000.0 0.12815548930030665 0.25581574521195183
2200000000.0 -0.19771924237580638 0.20254583304441068
2220000000.0 -0.1979288954221998 0.20156157650806567
2240000000.0 -0.21771387053776475 -0.17169512102963616
2260000000.0 0.16664360468483813 -0.215718118536957
2280000000.0 0.26826750925711446 -0.04361147860934098
2300000000.0 0.2454946419450087 0.08407652180254638
2320000000.0 -0.21345760907193922 -0.13757217512227876
2340000000.0 0.02900751779287443 -0.2543404189968107
2360000000.0 0.1893659487666287 -0.17180153373831922
2380000000.0 0.11528616643332643 0.2312380261113196
2400000000.0 0.19513424830698098 0.1977267294734246
2420000000.0 0.11670736870269707 -0.2716102181737371
2440000000.0 -0.22275538687359364 0.22360992180702394
2460000000.0 0.3380094471512812 0.006897894944044437
2480000000.0 0.0893710901711356 -0.36076946905940543
2500000000.0 0.17774314363263277 0.36497784641124076
2520000000.0 -0.3827317434319372 -0.2251290842158202
2540000000.0 0.45934724088806395 -0.13532807397384167
2560000000.0 -0.3174424334613057 0.39889429809284155
2580000000.0 0.20448832378270118 -0.5005345354717025
2600000000.0 -0.03629511653068528 0.5648979148524294
2620000000.0 -0.08898058765418136 -0.5819467602417205
2640000000.0 0.25104420825734425 0.5519859246685604
2660000000.0 -0.5809450397480792 -0.22247173723519514
2680000000.0 0.36044993620681703 -0.5187971712830888
2700000000.0 0.6194715332473935 0.16633362404788857
2720000000.0 0.36602026265574833 0.5324626255092542
2740000000.0 0.28095016883973395 0.5826666754285309
2760000000.0 0.16055840383773698 0.6260576054138328
2780000000.0 -0.623421360354373 -0.13803451480043108
2800000000.0 -0.45626547586994953 -0.43290095415791424
2820000000.0 0.15861381800981456 -0.5958877206287669
2840000000.0 0.470411429373604 0.3760298874290514
2860000000.0 -0.4736537920133845 -0.3470183392988377
2880000000.0 0.24912836444171513 0.5130765523553625
2900000000.0 0.4247714063576628 -0.3474365520135315
2920000000.0 0.012632807844762542 -0.526747979829253
2940000000.0 -0.2949760553167452 -0.40766483117309416
2960000000.0 -0.25453204128087226 -0.40601394378415123
2980000000.0 -0.32407935413874356 -0.3214810526257567
3000000000.0 -0.37642824159102617 -0.22338934195783902
3020000000.0 -0.40574372851953616 0.11014837526123952
3040000000.0 0.03210969087335574 0.39781245748251226
3060000000.0 0.3527237367810306 -0.1419506089063412
3080000000.0 -0.3597189815805783 -0.06453867442277529
3100000000.0 0.339008555374592 0.09383987654335238
3120000000.0 0.28248442264871165 -0.1991885201001189
3140000000.0 -0.15495532794300332 0.30329843327066186
3160000000.0 0.08261770415113238 -0.3279659414265375
3180000000.0 0.06001377185143135 0.32952294438550556
3200000000.0 0.3191887655751424 -0.08156520457150679
3220000000.0 -0.1603321989851181 -0.2830087783652993
3240000000.0 -0.31214752141840785 -0.04863034624204734
3260000000.0 -0.29337142243224285 0.07927492237780999
3280000000.0 -0.2936792791530102 0.009521164863057516
3300000000.0 -0.2691276650286667 -0.06888530585219522
3320000000.0 -0.1900476313927399 -0.16793084764598662
3340000000.0 0.22225314748479494 -0.04984442397175922
3360000000.0 -0.20475777437342027 0.018169811757158386
3380000000.0 0.06813228075026824 -0.17487980186651061
3400000000.0 0.16517859128232645 0.024016785713246117
3420000000.0 0.14012020913279388 0.03065962252895824
3440000000.0 0.017360552360361707 0.12319949140931881
3460000000.0 0.001807469191763836 0.10671585880802967
3480000000.0 0.07811546087355056 -0.04417793767922289
3500000000.0 -0.0011404250938038892 0.08175809155554668
3520000000.0 -0.07002226045006173 -0.03737091472833946
3540000000.0 0.07861936768315465 -0.0069350548226139955
3560000000.0 0.0508671053693772 0.07189301970927556
3580000000.0 -0.08418294732107373 -0.041580745289933344
3600000000.0 -0.09861305936489594 -0.005176419709318053
3620000000.0 0.10696747513932602 0.023917579809610148
3640000000.0 0.07004802197496592 0.10218422674857135
3660000000.0 -0.03479190789044917 0.12889591836808947
3680000000.0 -0.026886574806008617 0.1368619791868668
3700000000.0 -0.10897975799360138 -0.0745433498719213
3720000000.0 0.11040197003123722 -0.04181124879079996
3740000000.0 -0.10020244252462594 -0.0018896485988722424
3760000000.0 -0.08146178072887782 -0.014911503859656724
3780000000.0 -0.03276295452053004 0.055034510752612904
3800000000.0 -0.025891840905081755 0.025255304667594583
3820000000.0 -0.0009733890458394445 0.0004119528371927352
3840000000.0 -0.03437400489231826 0.005330628125177908
3860000000.0 0.05005852880743273 -0.03805877810849941
3880000000.0 0.0844275125419979 -0.03340535859190207
3900000000.0 -0.0792667867972861 -0.07587453715047437
3920000000.0 -0.02194860274699517 0.12577656576730584
3940000000.0 0.04303113972182157 0.12693248899641624
3960000000.0 -0.11972446206360314 0.06765929829608966
3980000000.0 0.12625887465223823 -0.04939259297112936
4000000000.0 -0.04734635575373425 -0.10437810795902913
