!Created with skrf (http://scikit-rf.org).
# Hz S RI R 50.0 
!freq ReS11 ImS11
400000000.0 0.7614935518183413 0.4230599369019375
420000000.0 0.2802431178230852 0.7669920863460146
440000000.0 0.43447705227270617 0.6238730182184107
460000000.0 -0.5410960945301764 -0.4216056873447995
480000000.0 -0.01567205492526747 -0.6181769705091337
500000000.0 0.6410833939339189 -0.129926997028879
520000000.0 -0.19976377317891802 0.6401211651619737
540000000.0 0.6247355111738241 -0.2562510867708254
560000000.0 -0.28968751982330276 0.601060580583415
580000000.0 -0.4659758270022065 0.23589951865783595
600000000.0 -0.02805748893606749 0.5951472805157969
620000000.0 -0.4639465509167142 -0.39820953594248004
640000000.0 -0.4533689250012544 -0.3408153208759112
660000000.0 0.35571756807112564 0.3934451302639069
680000000.0 -0.02109001766603595 0.4832632818253819
700000000.0 0.3103868696347834 0.33596877390633145
720000000.0 -0.37977026109482387 0.31003581269207553
740000000.0 0.4438707784246272 0.17366000061799544
760000000.0 0.2255794350770749 0.38768850452833764
780000000.0 -0.3764966357656512 -0.19808702017839874
800000000.0 0.11551372684884592 -0.38154174964182885
820000000.0 0.17328885317908266 0.305801278674493
840000000.0 0.00832797990013271 0.32738856944567535
860000000.0 -0.10025656895950823 -0.2820846920070798
880000000.0 0.26120374190556006 0.04764194191733919
900000000.0 -0.2342316866031284 0.12862574557348525
920000000.0 -0.0015932146402387163 0.2586566003005668
940000000.0 0.21878980586732416 0.07685915397606051
960000000.0 -0.13273782813073234 0.12190787463447751
980000000.0 -0.005896793087891375 0.14047737031763416
1000000000.0 -0.03511803146730674 0.12454313898444973
1020000000.0 0.04885668386699314 -0.088983268771757
1040000000.0 -0.07154266720440705 -0.08512917751329413
1060000000.0 0.1467640130911903 -0.025574866348518327
1080000000.0 0.1578213302736909 -0.11034850158696227
1100000000.0 0.12164057225618909 0.1989736027434636
1120000000.0 0.2723905438203734 0.06707970080004462
1140000000.0 -0.28833979980533786 0.09090159914743363
1160000000.0 -0.25816542211176036 0.1745954554071069
1180000000.0 -0.28096601327099313 -0.1874761071573395
1200000000.0 -0.349652898155452 -0.04951388756401036
1220000000.0 0.3437154655343831 0.08771217344006932
1240000000.0 0.24466206280856267 0.28724715721207505
1260000000.0 0.33983555339104166 -0.19676223053811118
1280000000.0 -0.3442617141913733 -0.16591122223000054
1300000000.0 0.044614723087278936 -0.37821597128889095
1320000000.0 -0.035175398945181555 -0.3823262786555682
1340000000.0 -0.3320619740848946 0.15866499241808266
1360000000.0 0.15018211669631823 0.3570353490255427
1380000000.0 -0.24606028557673468 0.31636757277516414
1400000000.0 0.03830147589147356 -0.3938882298196066
1420000000.0 0.026038729324128092 -0.3920207144171615
1440000000.0 -0.29793110582750765 -0.26063019414922806
1460000000.0 -0.39076738232173275 -0.05208368752072141
1480000000.0 -0.19096215509549314 -0.34993038527918396
1500000000.0 0.26936521466167235 0.30165874143817145
1520000000.0 -0.37224405864661975 0.10064516334607938
1540000000.0 0.3451939928687033 0.10400119241320266
1560000000.0 -0.020161043820138655 0.3314652514993517
1580000000.0 -0.18457748017920406 -0.22707597331732673
1600000000.0 0.1377218158120743 -0.21647663013456508
1620000000.0 0.19780095544742962 -0.09164133222043548
1640000000.0 -0.1110468105460087 0.14782355484199064
1660000000.0 -0.08507438529694898 0.1270933476543811
1680000000.0 0.05942658892584776 -0.09512518810312312
1700000000.0 -0.10115476376117273 0.02329503190538561
1720000000.0 0.07830271363471869 0.007925521378048441
1740000000.0 0.06700130092946316 0.043761013894036103
1760000000.0 -0.05977375371860454 -0.06498989585016984
1780000000.0 0.11209000421911748 -0.0321609019098328
1800000000.0 0.13841369425256397 -0.01317807273463768
1820000000.0 -0.1664176955317154 0.0288858860815025
1840000000.0 0.1530196609438992 -0.12315683656606413
1860000000.0 -0.2222097692739207 -0.000240728895696908
1880000000.0 -0.015099240177031658 0.2545214243073668
1900000000.0 0.06835654990435054 0.26550696258747375
1920000000.0 0.2565274654566238 -0.14872968423826666
1940000000.0 -0.29559698861389966 0.07348767122384978
1960000000.0 0.30359775099301134 -0.042180873985074176
1980000000.0 -0.2642590801071311 -0.17305547168056842
2000000000.0 -0.017943727188137037 -0.3218536573673832
2020000000.0 0.3099106314716459 -0.07425765995962366
2040000000.0 0.27580822138349664 0.16714818309347462
2060000000.0 0.3187299862811389 0.007592878238897899
2080000000.0 0.174934570694116 0.2615044824847068
2100000000.0 0.15880801185564966 -0.2704611312413667
2120000000.0 0.27765091946536025 0.1324457368735462
2140000000.0 -0.1572853088882818 -0.2538385710449748
2160000000.0 -0.27860709079531365 0.09757072655538898
2180000000.0 -0.07184847239223559 0.2804944695347856
2200000000.0 -0.07416978198928946 0.27477314251069007
2220000000.0 -0.138288583590477 0.24538611399246707
2240000000.0 -0.16493682251824637 -0.22193037738842236
2260000000.0 0.09818133111622293 -0.25292190404534076
2280000000.0 0.2715229721315828 0.003307146062484592
2300000000.0 0.213502440600833 0.1484089230545638
2320000000.0 -0.24468281138563672 -0.07612276719035112
2340000000.0 -0.10355098981650074 -0.23281629142120663
2360000000.0 0.2545705284030401 0.0035482711903053565
2380000000.0 0.14974800141778252 0.21300595816057086
2400000000.0 0.19541284109408324 0.198565451179044
2420000000.0 0.16993642578197346 -0.24359926082765992
2440000000.0 -0.21637065044017342 0.23244402660958638
2460000000.0 0.3358660478793523 0.01795205875883139
2480000000.0 0.22224564612303083 -0.2981479235951117
2500000000.0 0.10514011040162687 0.394369383470508
2520000000.0 -0.42062446843922596 -0.1418121807949501
2540000000.0 0.45010595145003174 -0.1585780114278097
2560000000.0 -0.3873457928482378 0.3329212143728898
2580000000.0 0.1404732488848502 -0.5221676956016094
2600000000.0 -0.029548560448483696 0.5657085920996366
2620000000.0 -0.08735871707196237 -0.5827228502084782
2640000000.0 0.26155029715612443 0.5475186795641944
2660000000.0 -0.5758408276338903 -0.23711431099090483
2680000000.0 0.44035197991175007 -0.4537301240843398
2700000000.0 0.6201311431764279 0.16365006574983107
2720000000.0 0.40450026459361094 0.5040804210553618
2740000000.0 0.21510490871319207 0.609932460696403
2760000000.0 0.11318505897537737 0.6358963703934845
2780000000.0 -0.6111743107667836 -0.18848519819047416
2800000000.0 -0.48723243088614476 -0.39901184604598167
2820000000.0 0.12137708376201137 -0.6041620320724317
2840000000.0 0.43368060440762013 0.4178608561625043
2860000000.0 -0.5220296368480434 -0.26950755093292894
2880000000.0 0.2243866174999189 0.5228992971761779
2900000000.0 0.4681634165201301 -0.2857855807868169
2920000000.0 0.017075159500501345 -0.5279964227731958
2940000000.0 -0.382228701706928 -0.32614369246462555
2960000000.0 -0.19276409445700388 -0.4364145454959255
2980000000.0 -0.27019091631661485 -0.37108752711186804
3000000000.0 -0.3933534850690276 -0.19031549845695364
3020000000.0 -0.41807107645337377 0.03625704158294892
3040000000.0 0.028663880567496837 0.4001222655294989
3060000000.0 0.37046315379591344 -0.08241633934818175
3080000000.0 -0.3513440663844908 -0.1008566075150597
3100000000.0 0.32550990183516737 0.13179545666876716
3120000000.0 0.28803799575856454 -0.19052486091906748
3140000000.0 -0.19613946800737975 0.277434483091818
3160000000.0 0.07602138172308663 -0.32972255709607656
3180000000.0 0.04342277845316695 0.33254432792854927
3200000000.0 0.3251798239170715 -0.051054619804217716
3220000000.0 -0.16003512622035115 -0.28210464210629776
3240000000.0 -0.2870384884771756 -0.13311010765209844
3260000000.0 -0.2935847656789392 0.0846578403689321
3280000000.0 -0.29026276718660576 -0.038151610224401035
3300000000.0 -0.2656938164457291 -0.07547028377003413
3320000000.0 -0.15490003400092245 -0.20138948910560495
3340000000.0 0.22460389809549533 0.038506639125477804
3360000000.0 -0.18984552669503632 0.0832542897964776
3380000000.0 0.1287833702425237 -0.1360889971597171
3400000000.0 0.13974254174659007 0.08954134933364205
3420000000.0 0.09862897637796426 0.10341752605309255
3440000000.0 -0.05303800667154528 0.11397245753836198
3460000000.0 0.042011150928927016 0.09805238644801328
3480000000.0 0.07599439981103523 -0.04323102656437267
3500000000.0 -0.042314078661285635 0.06879981258730443
3520000000.0 -0.004109787687732399 -0.07860397709467924
3540000000.0 0.011022925556797136 -0.07840890421654874
3560000000.0 0.0847905460664537 -0.019562234936284027
3580000000.0 -0.09138533652066796 -0.022735277825423405
3600000000.0 -0.09831429367118448 0.00045414200085419615
3620000000.0 0.0884840726123419 -0.06646518456666745
3640000000.0 0.06840353615704817 0.10327156833534765
3660000000.0 -0.0375016645961891 0.12872101570938377
3680000000.0 0.018529024792157452 0.1380121615509913
3700000000.0 -0.11388728607171258 -0.0674330505195935
3720000000.0 0.09473398724950123 -0.06993715550794635
3740000000.0 -0.07789930171820875 -0.0616112735134431
3760000000.0 -0.012823831798941613 -0.08265988149491227
3780000000.0 -0.017528024450697503 0.06232614099544811
3800000000.0 -0.002583692561849562 0.03417170396550711
3820000000.0 -0.0005369349765066906 -0.0011825383915767334
3840000000.0 -0.0341231674279898 0.0011616686946339092
3860000000.0 -0.005074519183505272 -0.062177593650848975
3880000000.0 0.0916343946501385 -0.0031419147269552182
3900000000.0 -0.10730941575893636 0.032091474038932456
3920000000.0 -0.07593147960571264 0.0985660481288149
3940000000.0 -0.020098097344844478 0.1335422398975133
3960000000.0 -0.04024745249630423 0.13421203156002504
3980000000.0 0.04874458547929427 -0.1253100509096956
4000000000.0 -0.08016830434449916 -0.08075630782567186
