!Created with skrf (http://scikit-rf.org).
# Hz S RI R 50.0 
!freq ReS11 ImS11
400000000.0 0.834982326056556 -0.2714048753631075
420000000.0 0.770689837396363 -0.3111445393171381
440000000.0 0.4871258906515906 -0.5991645140124126
460000000.0 0.2654759207324422 0.6432320398919656
480000000.0 0.23251736840538803 -0.5464952451400344
500000000.0 0.5115223548797416 0.3541954005919826
520000000.0 0.5218426603788551 -0.36987122983496046
540000000.0 0.034874917698557904 -0.6057005371207201
560000000.0 0.5439491860910767 0.30012557794143235
580000000.0 0.46586382341774407 0.24818277583918255
600000000.0 -0.12437697271611708 0.5840446549659093
620000000.0 -0.3150850406521224 -0.5125065898113054
640000000.0 -0.1673771570971658 -0.5361671989231982
660000000.0 -0.06509660031273726 0.5168273260234726
680000000.0 0.37481616324193184 -0.3000591335824659
700000000.0 0.4582558369297092 0.18725417663962626
720000000.0 0.491117697875308 0.07956885111508885
740000000.0 0.3519724848589236 0.3227107522596316
760000000.0 -0.047206345641028595 0.454136712204163
780000000.0 -0.4151834241455962 -0.16735680763469185
800000000.0 -0.10665365782212333 -0.38915831779054083
820000000.0 0.12634876144308746 0.3421099380940491
840000000.0 -0.2539418158837347 0.22189494987729194
860000000.0 0.17888216158535677 -0.25216464168328234
880000000.0 0.21671411839776225 0.1821437981023661
900000000.0 0.16328791114230642 0.2198921687541592
920000000.0 0.19470263011488337 -0.16351885713177075
940000000.0 -0.02972783499139667 -0.22221085353745967
960000000.0 0.13412858374946343 0.1041817366147305
980000000.0 -0.09371941005974989 0.10611283797521592
1000000000.0 -0.05423818515509386 0.11912226207590897
1020000000.0 0.03799892306157149 0.09884941755310565
1040000000.0 0.02660331732233106 -0.12202003011452706
1060000000.0 0.1538277306161144 0.03544695248369044
1080000000.0 0.038206930263935575 0.20153741105043424
1100000000.0 -0.19669113519667691 0.14826876219298385
1120000000.0 -0.24398625567408413 -0.13653447957432854
1140000000.0 -0.24832980239935998 0.1808909071268996
1160000000.0 0.11284723546576828 0.3087948580748872
1180000000.0 0.10550379928508999 0.3253218305742337
1200000000.0 -0.335877604556274 0.11542417276248955
1220000000.0 0.26059897185363334 -0.2603403247577636
1240000000.0 0.3459299391759405 -0.15166244057128014
1260000000.0 0.09773267609422687 -0.38241732555311364
1280000000.0 -0.3103512635772003 0.21520485376844603
1300000000.0 0.042604474100414604 -0.36521211934250924
1320000000.0 0.23432748603122083 -0.2927810105312196
1340000000.0 -0.36734014203357296 -0.015118249220834481
1360000000.0 0.18408148472850244 0.3398646219399835
1380000000.0 0.0892791099775621 0.38224223472446744
1400000000.0 0.0716174865473332 -0.3761514588612863
1420000000.0 0.3331482205978565 -0.1916148514511037
1440000000.0 -0.12572139410372138 -0.36837091453811743
1460000000.0 -0.3206935017280475 -0.21750624583475314
1480000000.0 -0.17614853046441156 -0.3495921396080269
1500000000.0 -0.33559960729068317 0.20051108892622677
1520000000.0 0.15910151025867525 -0.3545790524383168
1540000000.0 0.07096875572585686 0.3534658414249262
1560000000.0 -0.21812243079132157 -0.24663727423914358
1580000000.0 0.29163041035762416 0.043705734784813856
1600000000.0 0.2572819525573621 -0.05262844465628307
1620000000.0 0.001833730155035749 0.21212401412084284
1640000000.0 0.11348547776776077 0.14877631223175078
1660000000.0 0.14423490619332527 -0.07204275090878941
1680000000.0 -0.1194804910866594 -0.024779422608471355
1700000000.0 0.0940510462087373 0.0701529807493872
1720000000.0 0.051948254248462215 -0.07581193632876373
1740000000.0 0.023780949036229144 -0.08062409455251109
1760000000.0 -0.023260310831787905 0.08839264793764257
1780000000.0 -0.10008302144243832 0.04176334698354841
1800000000.0 0.03805540094295981 0.12370171140134609
1820000000.0 0.1556452255073726 0.038940113426823394
1840000000.0 0.04650872422654259 -0.18415002652539436
1860000000.0 0.041785848108877074 0.21527138012302757
1880000000.0 0.21060157878981486 0.14039666590756045
1900000000.0 0.27038967041442474 -0.031305330190567394
1920000000.0 -0.0022002449254907184 -0.29163297611253514
1940000000.0 -0.3037005600359737 0.02879439451835533
1960000000.0 0.20151902543065506 -0.23590068324378308
1980000000.0 -0.2843830214933267 0.128423881815832
2000000000.0 0.20202840791029247 -0.2475563003635156
2020000000.0 0.2739316106200367 -0.17413544216156718
2040000000.0 0.32285526704275597 -0.02890040462118248
2060000000.0 0.24197767802211217 0.20964921902089018
2080000000.0 -0.0015783957427187671 0.3265859862140179
2100000000.0 -0.05844418891186518 -0.3192375990593275
2120000000.0 0.2689173737170537 0.16922950468824088
2140000000.0 -0.21020631649696817 -0.24123737602308773
2160000000.0 0.15211698483165592 0.2799460746314236
2180000000.0 0.23228817032769775 -0.20384284211178116
2200000000.0 0.20144289118670203 -0.22779543419490605
2220000000.0 0.08199037183459605 -0.2864721320766939
2240000000.0 0.2882307849523166 -0.02892802050662679
2260000000.0 0.006032396509284307 0.27480853270908717
2280000000.0 -0.2285100753391638 0.14037610096663522
2300000000.0 -0.07313303639622916 -0.24030958118764917
2320000000.0 -0.047021637778200544 0.23870387186830846
2340000000.0 0.09052306180063122 -0.22624305283698112
2360000000.0 0.07352548617048742 0.2341793956964981
2380000000.0 -0.13450570052743824 -0.21823200385411667
2400000000.0 -0.2820823192477784 0.0023375928767544016
2420000000.0 0.2960217625381685 0.06578738428911804
2440000000.0 -0.131463772545063 -0.29891714854344903
2460000000.0 0.1749905411714487 0.31066117810500454
2480000000.0 0.1857373529947055 -0.3450619659610683
2500000000.0 0.2002781387933763 0.37672834571632946
2520000000.0 -0.45532788587934725 0.08584952717606228
2540000000.0 0.16735471323630433 -0.4657556011053443
2560000000.0 0.07240996403419314 0.519631446212268
2580000000.0 -0.14848545631092006 -0.5318913351070116
2600000000.0 0.2835787774612726 0.5014403635548942
2620000000.0 -0.3327755154267904 -0.4935662315355721
2640000000.0 0.4700460614996383 0.3900828872544375
2660000000.0 -0.6211910009437983 0.07279232488818922
2680000000.0 0.053092279800457595 -0.6316782895337647
2700000000.0 0.6276883508113078 -0.1380259147405442
2720000000.0 0.6215348070447684 0.1818715110605718
2740000000.0 0.5981423343230508 0.2533924432011161
2760000000.0 0.5553362216279103 0.33689176322936487
2780000000.0 -0.48605779442160235 0.42261422257835535
2800000000.0 -0.6286177446206714 0.09033471681373949
2820000000.0 -0.38287178701388946 -0.4919158135846676
2840000000.0 0.5590904636749473 -0.2415373183686013
2860000000.0 -0.45053106421160516 0.38642127643140595
2880000000.0 0.5561947872062982 -0.13962023196013726
2900000000.0 -0.25893231372768394 -0.48724943557174644
2920000000.0 -0.5156323146286474 0.11294224639568634
2940000000.0 -0.304227883078825 0.39508322588359945
2960000000.0 -0.3633782672660686 0.3036131230609687
2980000000.0 -0.2736259495603264 0.35428047298200127
3000000000.0 -0.18807696499054252 0.3822842855091187
3020000000.0 0.06345194363189922 0.399296828774393
3040000000.0 0.2650279453906797 0.27913368556423146
3060000000.0 0.2757794643740442 -0.2465292409787748
3080000000.0 -0.3564898756788609 -0.036196205433879844
3100000000.0 0.19060501928712342 0.29051567115059224
3120000000.0 0.2759656573285019 -0.20865675610303802
3140000000.0 -0.33103751393339453 0.08541077716588708
3160000000.0 0.3422542359410135 0.003036020242435821
3180000000.0 -0.3445020231062033 -0.015779180897478578
3200000000.0 0.029445690028999445 0.3406198663718525
3220000000.0 0.3024224907879892 -0.15082221865419232
3240000000.0 0.06668752530986198 -0.3272864321277499
3260000000.0 -0.22334870411471977 -0.23850790278879905
3280000000.0 -0.31444761951105427 -0.023225567168448803
3300000000.0 -0.20512032183213247 0.21714143098644592
3320000000.0 -0.04838878966248716 0.2672103726783321
3340000000.0 -0.2240828465065627 0.10821079628053071
3360000000.0 -0.1943970335320532 0.1068353999585539
3380000000.0 -0.07849766210363023 -0.17662181337593005
3400000000.0 -0.06407891508536569 -0.15650424330472867
3420000000.0 0.000562046255466402 -0.142056274600091
3440000000.0 0.038777413016886815 -0.11185553818986957
3460000000.0 0.09391835734612133 -0.007317415809221983
3480000000.0 -0.06298459798389966 0.04486862524677296
3500000000.0 -0.04859242128473455 -0.053847924026637885
3520000000.0 -0.06984313836775147 0.01812796795694647
3540000000.0 0.046321116893902246 0.06260860116702548
3560000000.0 -0.08410867497774718 0.007961392333535875
3580000000.0 0.09202869756398821 0.030418255337601997
3600000000.0 -0.05688057652170347 -0.08572350934028919
3620000000.0 0.05598960007216106 0.1062350323924859
3640000000.0 -0.001622132616132932 -0.13596769060626093
3660000000.0 -0.1227553651432035 -0.08053801979496782
3680000000.0 0.10554451543700569 0.10757227053812274
3700000000.0 0.049375821429676905 0.13480512603139952
3720000000.0 0.093450758987013 0.08921988050450293
3740000000.0 0.09389304718203052 -0.0428331434889109
3760000000.0 -0.055910042400509806 -0.05663300592636677
3780000000.0 0.02691473259888922 0.051625505259983544
3800000000.0 0.006463579868075425 -0.027291304031236044
3820000000.0 -0.011277005253839803 0.002027148965457457
3840000000.0 -0.041140909586703925 0.025277002885637265
3860000000.0 -0.02713756721630449 0.07336736188436217
3880000000.0 0.017311200008509352 -0.10375403097276427
3900000000.0 0.12749258911312827 0.02239728514157063
3920000000.0 -0.14300832829223353 -0.01762077201271866
3940000000.0 -0.050769249516072396 0.14330733812161664
3960000000.0 0.10883380439399044 -0.11389326341180649
3980000000.0 0.14772619572959908 0.001859048623681009
4000000000.0 -0.08389555424058574 -0.09241951963482754
