!Created with skrf (http://scikit-rf.org).
# Hz S RI R 50.0 
!freq ReS11 ImS11
400000000.0 0.823326820952391 0.2889620722174801
420000000.0 0.29069775466120196 0.762501856194774
440000000.0 0.4415773071111292 0.613551835754036
460000000.0 -0.5938386363221704 -0.33705901362949736
480000000.0 0.027442207897884385 -0.6269133198374787
500000000.0 0.5657615482985741 -0.3360510648405932
520000000.0 -0.028191701092219246 0.6656661625031418
540000000.0 0.6690530179906263 -0.09531576283045931
560000000.0 -0.4899454127845186 0.4485759907086116
580000000.0 -0.5157209063946127 -0.08560390018296105
600000000.0 -0.16478381660521915 0.5803045335489901
620000000.0 -0.5660643091639189 -0.2468526575492498
640000000.0 -0.5555678644390478 -0.12888938524924776
660000000.0 0.5153338876283681 0.10059961786076843
680000000.0 -0.10306322368757743 0.4697986618137036
700000000.0 0.3239407620324058 0.31714420597496684
720000000.0 -0.46719412423651696 0.16349021710611508
740000000.0 0.33477515889536813 0.3466232410589678
760000000.0 0.2258942666431346 0.3862042873571275
780000000.0 -0.39909921206531035 0.1687741434990653
800000000.0 -0.3488441918376248 0.17246049024918345
820000000.0 0.08933779508366972 0.32644447498935236
840000000.0 -0.20013655925042376 -0.24933691646792996
860000000.0 0.3041587980146842 -0.032017211584012016
880000000.0 0.15190408179429446 0.23718305536559003
900000000.0 0.21576046231462775 -0.17035426567845005
920000000.0 0.20142046689727555 -0.14623388093925865
940000000.0 -0.18005851077163826 -0.13099980817633625
960000000.0 0.05724857257604386 -0.17883976769452145
980000000.0 0.025012583452217924 0.1508619669641403
1000000000.0 -0.1251454153812483 -0.029621149046991684
1020000000.0 -0.0651754428032969 -0.06990201862514869
1040000000.0 -0.1011058099970486 -0.0492442092217706
1060000000.0 -0.13619775747401994 -0.04247634531829354
1080000000.0 0.19280294907055281 -0.025079864432576742
1100000000.0 -0.05946935294286784 0.2289261503175747
1120000000.0 0.19819299690607325 0.19465235777040146
1140000000.0 -0.28458925326049833 -0.09912531844721996
1160000000.0 -0.31444052231585207 0.07779988835427544
1180000000.0 -0.2233893378427539 0.2535347356395792
1200000000.0 -0.3359896944461389 0.07276557809870794
1220000000.0 0.33282835128701593 0.11156145242148129
1240000000.0 -0.08886395631966097 0.36422010950885186
1260000000.0 0.370648990367209 0.1186834586951395
1280000000.0 -0.12547309154949393 -0.3698404833192983
1300000000.0 -0.21697301035081223 -0.3187243795873186
1320000000.0 -0.13648379546278033 -0.35652974342881955
1340000000.0 -0.3535914036982606 0.11087020284088449
1360000000.0 0.11191742961636825 0.3725811353628663
1380000000.0 -0.13741244310442263 0.3826913558771327
1400000000.0 -0.06204198459956283 -0.3937187947505464
1420000000.0 -0.30454531290935466 -0.23919506947756033
1440000000.0 0.09993762436709966 -0.3746808421507315
1460000000.0 0.0004135350790351806 -0.394657835932646
1480000000.0 -0.10049551777775852 -0.3872047361602923
1500000000.0 -0.05643442398375363 0.39667089887070506
1520000000.0 -0.3919493388866073 0.03582975640791589
1540000000.0 0.22635183652954405 -0.28498789087065524
1560000000.0 0.00011911287366720006 0.3233695440698878
1580000000.0 0.001580726888968228 -0.28459862196204944
1600000000.0 0.2579157513035671 0.047610121547353265
1620000000.0 0.20106385427585136 -0.1024337154753279
1640000000.0 0.17801606819082189 -0.06681313341236327
1660000000.0 0.14707797864290048 0.002305944840175631
1680000000.0 0.013426916353982537 0.10861534497432057
1700000000.0 0.10161171370017771 0.009134843771437496
1720000000.0 -0.0756281830828753 -0.03354849890097706
1740000000.0 0.07473336799434346 -0.01901376480230229
1760000000.0 0.0880594841487137 0.024104554854436338
1780000000.0 0.11440297901908812 0.020333363408772186
1800000000.0 0.13379536180014823 0.05427771683351385
1820000000.0 0.1362399358083202 0.10563513805855752
1840000000.0 0.07156212753490145 -0.17655447426302256
1860000000.0 -0.16343653734317887 -0.14147673792951118
1880000000.0 -0.2539134130641769 0.026845130567064668
1900000000.0 0.04845498404310232 0.274506358008718
1920000000.0 0.03255925824202422 -0.2891060384163295
1940000000.0 -0.2957987542945556 -0.059001882240891604
1960000000.0 0.2607272538939007 0.16185016500560775
1980000000.0 -0.238805715727331 -0.20651791310389953
2000000000.0 0.18211634267835344 -0.2663986417553354
2020000000.0 0.3220294893457071 -0.03852043466146664
2040000000.0 0.3141899975113731 -0.08510364200488996
2060000000.0 0.3082312967945009 0.08873338420251134
2080000000.0 0.30918220595360313 0.08132430386553163
2100000000.0 -0.12906691743912674 -0.28163493085661057
2120000000.0 0.20646117618279122 0.21928430816735997
2140000000.0 0.17547646198417066 -0.24105189792893805
2160000000.0 -0.2649596427879304 -0.12578257684613192
2180000000.0 -0.246107901595723 0.14811534607421964
2200000000.0 -0.2731992075901723 0.08172230700698774
2220000000.0 -0.2706885881904566 0.09000554925592835
2240000000.0 -0.27275944773334243 0.05173913270954251
2260000000.0 0.09150899255617259 -0.2515753815632415
2280000000.0 0.2684351305886573 -0.03735474181034984
2300000000.0 0.25630202079333236 0.048206670093800794
2320000000.0 -0.24780608364251136 -0.05002746819533736
2340000000.0 -0.11970615361061443 -0.22741289138922458
2360000000.0 0.2520181972365766 0.03770612373602593
2380000000.0 0.0007365248634454879 0.26344286956047863
2400000000.0 0.2571978774164833 0.11948980973384461
2420000000.0 0.02181340225934754 -0.2961770243608511
2440000000.0 -0.31026659036018 0.05224433468369062
2460000000.0 0.23885347262904694 0.23988193526481924
2480000000.0 0.30586185973259766 -0.21555046201757797
2500000000.0 0.07528085886134057 0.4014429337437898
2520000000.0 -0.40201816222428177 -0.18534753570382762
2540000000.0 0.47133730674925906 0.054508434963260195
2560000000.0 -0.42529065686412404 0.28325683951497527
2580000000.0 0.14412907106972886 -0.5231968904443384
2600000000.0 0.09258263254100964 0.5594888874653632
2620000000.0 -0.24587079032889594 -0.5355507382757586
2640000000.0 0.32096614632971576 0.5145605062033626
2660000000.0 -0.5942581582626253 -0.18880067667453412
2680000000.0 0.38584845869459 -0.5025346187115444
2700000000.0 0.5836782366133457 0.2697530730851536
2720000000.0 0.22850007495637792 0.6055577355834075
2740000000.0 0.17555991183133632 0.6238582652461461
2760000000.0 0.09880024600829618 0.6389408379549655
2780000000.0 -0.5859854902338615 -0.2535576955324451
2800000000.0 -0.3907045658161233 -0.49187735874752814
2820000000.0 0.17684771705768498 -0.5896471618899171
2840000000.0 0.42690657784992947 0.42261459970037224
2860000000.0 -0.4872081416549759 -0.32824388744669836
2880000000.0 0.37285884049940404 0.43011598791195577
2900000000.0 0.3864133915184444 -0.3890440984473352
2920000000.0 -0.08537496681449068 -0.5201486561094728
2940000000.0 -0.4310134110379703 -0.25876662884764684
2960000000.0 -0.10775120886057975 -0.4644769251595917
2980000000.0 -0.21436215022846342 -0.40533942075000257
3000000000.0 -0.3333889710922179 -0.2855440766288139
3020000000.0 -0.4157254272449047 0.06119398197053441
3040000000.0 -0.15500511001672793 0.3685524921959205
3060000000.0 0.36783781415799366 -0.09831184595178218
3080000000.0 -0.2999233849809791 -0.20692451759059405
3100000000.0 0.19439108194083848 0.2922682400984111
3120000000.0 0.2587906492495559 -0.22645198775477365
3140000000.0 -0.28214956033882144 0.1890106112515204
3160000000.0 0.18439448340079184 -0.28402127825959145
3180000000.0 0.18074914268780848 0.28149523873150034
3200000000.0 0.298148027122511 -0.13035444907444677
3220000000.0 -0.06101275170299042 -0.3164968532052356
3240000000.0 -0.2658211241157903 -0.17168631646167787
3260000000.0 -0.2818881873118993 0.12209788117451939
3280000000.0 -0.27842290540039 0.09354962519179413
3300000000.0 -0.26632147535391154 0.06790635516945613
3320000000.0 0.047144640146318924 -0.24773356523079398
3340000000.0 0.2139220586953681 0.08948857204175518
3360000000.0 -0.11229294645760422 0.17434688634529036
3380000000.0 0.10886016938551565 -0.15119821868272712
3400000000.0 -0.05646146493661238 0.15529736929097251
3420000000.0 -0.10897889406140547 0.10075151229252646
3440000000.0 0.060810685205763076 0.11460637845478296
3460000000.0 0.1031436475404001 0.017759839432732405
3480000000.0 0.07443180225597235 -0.0396389528678101
3500000000.0 -0.07818313064187173 0.0008551521992207272
3520000000.0 0.04558511583421943 -0.05868382301644819
3540000000.0 -0.04449087618987599 0.06301714166951579
3560000000.0 0.06211420200992561 0.061220311546506284
3580000000.0 -0.07139953671528884 0.05982192734473109
3600000000.0 -0.08724628893118602 -0.047822688539307455
3620000000.0 0.09005317025899054 -0.07005862737818161
3640000000.0 0.122534175614399 -0.0411838365370215
3660000000.0 0.126547239756248 -0.046424710524214464
3680000000.0 0.10477373090393317 0.0908964978553044
3700000000.0 -0.0591336906102184 -0.11475202090438043
3720000000.0 0.06745535618753565 0.09731585516985321
3740000000.0 0.06927041843224188 -0.07296166076318004
3760000000.0 0.07268073827960445 0.037593119933294
3780000000.0 0.063749633263983 0.012457751899238041
3800000000.0 -0.034622855203837045 0.016503370042446765
3820000000.0 -0.005831637241839577 0.000415381627129752
3840000000.0 -0.01644984233525554 -0.031982529208584715
3860000000.0 -0.06663724741208361 0.01808135111250126
3880000000.0 0.07502305387323031 -0.060930316996910754
3900000000.0 -0.06596098656032262 0.09316817323225927
3920000000.0 -0.12268340815862963 0.035929610335857516
3940000000.0 0.07697197292496144 0.11213505322496323
3960000000.0 0.005119565651895366 0.1355351271107956
3980000000.0 0.10970488696355574 -0.06880213974096724
4000000000.0 0.05652950867085935 0.09486944973607042
