!Created with skrf (http://scikit-rf.org).
# Hz S RI R 50.0 
!freq ReS11 ImS11
400000000.0 0.7670957341671324 0.41276421778622024
420000000.0 0.21150224403663836 0.7884851988467828
440000000.0 0.5181108945649048 0.5567994646059417
460000000.0 -0.6099958550808247 -0.31490905563368116
480000000.0 -0.10708104461179833 -0.611093419370053
500000000.0 0.5942667957630394 -0.2764751848159066
520000000.0 -0.38647258488371933 0.5419013250010887
540000000.0 0.6725196660869274 0.10760618699434449
560000000.0 -0.13690214180941454 0.6603716857403904
580000000.0 -0.10523600971906744 0.5097974692980443
600000000.0 -0.1807325240631561 0.560191686262028
620000000.0 -0.3124590596281262 -0.5283615366281036
640000000.0 -0.4172892538486375 -0.3901821140497341
660000000.0 0.32492864271347655 0.4167618705497506
680000000.0 0.2572468706694012 0.4196135632593944
700000000.0 0.28391961813011474 0.3459383495868503
720000000.0 -0.412934953050554 0.26787206267767993
740000000.0 0.4123457391035898 0.23259284071161446
760000000.0 0.11074573514013379 0.4311617289174308
780000000.0 -0.40593111960459094 -0.14593673501580748
800000000.0 0.0603759851710828 -0.3948226088502664
820000000.0 0.2864799822998062 0.19881891463816329
840000000.0 -0.00445458865032204 0.3204111288079629
860000000.0 0.30084653702595854 -0.014192129731251656
880000000.0 0.26929867105425176 0.0681487641628709
900000000.0 0.10127849669568408 0.2438954372507418
920000000.0 0.25549646662061626 0.010414844670005134
940000000.0 -0.1509730409400546 0.16791823993630106
960000000.0 -0.15966054322082693 -0.0863820079096147
980000000.0 -0.11899826280006162 -0.08209776985830558
1000000000.0 0.12942939610647225 0.02162476094100892
1020000000.0 -0.08805120344175865 0.04563442300643789
1040000000.0 -0.058894084789293616 0.09160217469360889
1060000000.0 0.10961126336535164 0.09800551716195198
1080000000.0 0.1285716224053713 0.1473777403562631
1100000000.0 0.1348875726253054 0.202008987248801
1120000000.0 0.2570443002315143 -0.09940172887679587
1140000000.0 -0.292866037913128 -0.05863640209791847
1160000000.0 -0.31482339167121876 -0.047428294079584925
1180000000.0 -0.33166511904222606 -0.06539196315275198
1200000000.0 -0.31573493855786106 -0.15320562997428958
1220000000.0 0.34841066925966196 0.06279277730816316
1240000000.0 0.17663610997508367 0.33293677600418825
1260000000.0 0.3190436995521643 -0.2296102975148896
1280000000.0 -0.35952195161343414 -0.13182475481608238
1300000000.0 -0.022462186200721095 -0.3795459060690491
1320000000.0 -0.10169173626560199 -0.3679650402095678
1340000000.0 -0.36568719947684153 0.05646570636773063
1360000000.0 0.2184828443067404 0.3233944553167898
1380000000.0 -0.20026546308711513 0.34760973767458503
1400000000.0 -0.01162927078513654 -0.39521418496244803
1420000000.0 0.14881860805811883 -0.36546670248824337
1440000000.0 -0.2374122609554311 -0.3161347958526829
1460000000.0 -0.3569537497268861 -0.16779472163679152
1480000000.0 -0.31909941359794847 -0.23411096652277386
1500000000.0 0.16724838987650134 0.36239426091768173
1520000000.0 -0.3828871678936136 -0.04839259825421527
1540000000.0 0.3593280811455661 -0.04655713526070377
1560000000.0 -0.1888812475397603 0.269253268944402
1580000000.0 -0.14147632063745255 -0.2572827612452745
1600000000.0 0.012934012812518771 -0.25770259177018556
1620000000.0 0.18530680499448143 -0.11290447175950764
1640000000.0 -0.17841655971970227 0.04865883104197977
1660000000.0 -0.012117098775483458 0.154664686993365
1680000000.0 0.08180559231047584 -0.07883840050859225
1700000000.0 -0.03815546513929805 -0.09461582699241246
1720000000.0 0.08186290588839364 0.005498825141434158
1740000000.0 0.06779447249053062 -0.04038501734504952
1760000000.0 0.06614601883276369 -0.06166209865184442
1780000000.0 0.09683878906822532 -0.06778093092562384
1800000000.0 0.13115403117193122 0.04764342919717352
1820000000.0 -0.1678716204004466 -0.001252666056270623
1840000000.0 0.18355386003520374 -0.06576981753652764
1860000000.0 -0.20213460432432348 -0.09165286708429167
1880000000.0 0.0005853728949813384 0.2546200749234723
1900000000.0 -0.028275774246271902 0.2709346855721531
1920000000.0 0.20566450937321984 -0.2111526124023452
1940000000.0 -0.3030699812420312 0.013318298611399913
1960000000.0 0.3035937285247564 -0.050149430352941976
1980000000.0 -0.3048123167236195 -0.07082106931067478
2000000000.0 0.0947339577913284 -0.30657025344672484
2020000000.0 0.31618151076981843 -0.06484920394767223
2040000000.0 0.3177263441736636 -0.048977301935523694
2060000000.0 0.2536225969243192 0.19103910961046458
2080000000.0 -0.06957485156734595 0.3101065540717486
2100000000.0 0.12493353217692302 -0.28873426767066135
2120000000.0 0.20453688131758918 0.22720693684191054
2140000000.0 0.07706150506065128 -0.2893505920334557
2160000000.0 -0.28985836644820817 0.05947926306585472
2180000000.0 -0.13191208867541593 0.25527385395058544
2200000000.0 -0.1603675877291345 0.2334444005828573
2220000000.0 -0.2365822271767713 0.1507763396384877
2240000000.0 -0.20037765853406736 -0.19016292607145296
2260000000.0 0.11079264327864896 -0.24505387912233206
2280000000.0 0.2677959790669719 0.03683170740190353
2300000000.0 0.2607314766956823 0.017119826841446594
2320000000.0 -0.2521527935433523 0.0396070506143763
2340000000.0 -0.07497358438686572 -0.24549854310886332
2360000000.0 0.20219707928204378 -0.15733780987589144
2380000000.0 0.07978633348101066 0.2477747408113767
2400000000.0 0.1843902241261948 0.21376227507134393
2420000000.0 0.10491439888034025 -0.2795210809078338
2440000000.0 -0.2817239492419387 0.1418549851726005
2460000000.0 0.23922762685038132 0.24110372096516744
2480000000.0 0.23173604369232798 -0.29318393270162624
2500000000.0 -0.055966274805789376 0.4021863516679749
2520000000.0 -0.3603821692744852 -0.2570324553897374
2540000000.0 0.4755437168392275 0.03487023492252582
2560000000.0 -0.33284266527096507 0.3868202752380593
2580000000.0 0.1655089950775751 -0.5136022834178978
2600000000.0 -0.05212735626000958 0.5640537492586819
2620000000.0 -0.11953243358841517 -0.5775647376509916
2640000000.0 0.33324650799740124 0.5081258430795536
2660000000.0 -0.5797131336115025 -0.23221082284320904
2680000000.0 0.4251811825739431 -0.470770436178803
2700000000.0 0.6073353786407111 0.21111598240025828
2720000000.0 0.3158798947353589 0.565446776126999
2740000000.0 0.07664246237459421 0.6434404632898444
2760000000.0 -0.0195040206988472 0.6460662011720489
2780000000.0 -0.5501904533555819 -0.32428928171772725
2800000000.0 -0.392375572449305 -0.49091988675544995
2820000000.0 0.21624248823682174 -0.5766773072889094
2840000000.0 0.43837658971479593 0.4111915115764559
2860000000.0 -0.4666204806878999 -0.3554917479964264
2880000000.0 0.27147834871890836 0.5007770144872669
2900000000.0 0.42459499039294823 -0.34832468253198295
2920000000.0 0.031298723377998376 -0.5274390122712477
2940000000.0 -0.3584917316796637 -0.35473840372585436
2960000000.0 -0.22563569537195668 -0.4240945892571101
2980000000.0 -0.23949308062829147 -0.3909921230767984
3000000000.0 -0.30306656501152757 -0.31786240375693214
3020000000.0 -0.4186879418426855 0.04974144049853372
3040000000.0 -0.043012694611198395 0.39751017613089107
3060000000.0 0.37868700778539754 0.03929055589816089
3080000000.0 -0.30456028921021816 -0.2038690175054539
3100000000.0 0.27621276400606876 0.21616209238599643
3120000000.0 0.3120742946108846 -0.14527731215976772
3140000000.0 -0.23611970243726538 0.2445790299333791
3160000000.0 0.10247158356277526 -0.32158254922612955
3180000000.0 0.07494137428472573 0.32519314141005856
3200000000.0 0.32003555666259415 -0.07670988805665657
3220000000.0 -0.19587351719685583 -0.2589131412446852
3240000000.0 -0.3083774825720172 -0.06823665786971575
3260000000.0 -0.2934211762808474 0.08692645759217056
3280000000.0 -0.2929740874497088 0.027626282457893447
3300000000.0 -0.2762637996187008 -0.016801059339167406
3320000000.0 -0.1593290078240297 -0.19813477930838178
3340000000.0 0.22296917057246293 0.05544838266542776
3360000000.0 -0.19713998843870043 0.06574775616953622
3380000000.0 0.13311126873415582 -0.13337706609302308
3400000000.0 0.10559671221278798 0.12939749819563914
3420000000.0 0.0419713730716466 0.13764697253389818
3440000000.0 -0.0896860431384331 0.08858570192328169
3460000000.0 -0.06310589056743325 0.08489919697930572
3480000000.0 0.07213105910269238 0.049115420684330044
3500000000.0 -0.07834229573652324 0.01699622954880945
3520000000.0 -0.039178028745903884 -0.06689860965604436
3540000000.0 0.06087673462996958 -0.04708282034868144
3560000000.0 0.061397103520792806 -0.06147637618470523
3580000000.0 -0.06416668229754889 0.06754011886033444
3600000000.0 -0.04940563603037709 0.08456036335589547
3620000000.0 0.0645988229800364 -0.09069863478874204
3640000000.0 0.11947597140871642 0.03967938481778473
3660000000.0 0.006732196174556167 0.1357558804797837
3680000000.0 -0.00013833628971668 0.14087396662444784
3700000000.0 -0.10647761096286533 -0.0812800595343367
3720000000.0 0.11968464539946153 -0.00025482850507557297
3740000000.0 -0.05532219183507104 -0.08471861098813271
3760000000.0 0.060679992605052475 -0.05717186793894698
3780000000.0 -0.053402444527691655 -0.035388732907113966
3800000000.0 0.034013865843904006 -0.0011275493368226887
3820000000.0 0.0014332678595610458 -0.0014185966812437717
3840000000.0 0.012489821267449856 0.03469865114436125
3860000000.0 0.030882799227416862 -0.05764207233524812
3880000000.0 0.08969211972858034 -0.025997660417925516
3900000000.0 -0.10148212761441558 -0.048190907727287985
3920000000.0 -0.11972844332623277 -0.04273093028998239
3940000000.0 -0.13419694438976293 0.025404755907544617
3960000000.0 -0.13174632482337095 0.04445185352364869
3980000000.0 0.1297375574526334 0.028333517554183393
4000000000.0 0.0998821025560826 -0.05032777479159513
