!Created with skrf (http://scikit-rf.org).
# Hz S RI R 50.0 
!freq ReS11 ImS11
400000000.0 0.8293103678732595 -0.28875105874673934
420000000.0 0.7698335025698022 -0.31397506773275846
440000000.0 0.3589620507622352 -0.6827590083166754
460000000.0 0.13647549933855269 0.6829402477339306
480000000.0 0.4351922723261054 -0.40417960632675076
500000000.0 0.5482280677386792 0.30139771982078134
520000000.0 0.4248638255283667 -0.48132511491673186
540000000.0 0.028178579692464352 -0.6035033139770202
560000000.0 0.6123657242647682 0.10862619593359234
580000000.0 0.45632702992557467 0.25821092182415134
600000000.0 -0.2307222373743254 0.5521582734812094
620000000.0 -0.14663541918457515 -0.5851258099773946
640000000.0 -0.3799017723690266 -0.4202932777636707
660000000.0 0.15232253623695025 0.49649805724699114
680000000.0 0.24956723403772393 -0.40438296115557976
700000000.0 0.2936220273143343 0.39289509316337407
720000000.0 0.38840585829330876 0.31462473147446807
740000000.0 0.3502846661829608 0.3273544939666413
760000000.0 0.18877712898510413 0.41373224416005044
780000000.0 -0.35664400190089796 -0.27162137644474454
800000000.0 -0.11520798540546809 -0.3861132197627755
820000000.0 0.22427078381059928 0.28605170506202054
840000000.0 -0.3208702025668526 -0.08829908944546626
860000000.0 0.3118363765797756 0.0005824698170253542
880000000.0 0.2740152438257339 -0.08608381880184832
900000000.0 0.22528949903363696 0.15247933220208437
920000000.0 0.07899812877176808 -0.2415090563949463
940000000.0 0.19855620237341273 -0.09266332710117285
960000000.0 0.16499996230173114 -0.03201821291182907
980000000.0 -0.10679133823496244 0.08891624961853455
1000000000.0 -0.058542696768492025 -0.11854513804329997
1020000000.0 -0.05821929346995127 0.0989125169417278
1040000000.0 0.11031336290856672 0.072854965341482
1060000000.0 0.07743590056696968 -0.13365888519853128
1080000000.0 0.12130862084525425 0.16025046168627483
1100000000.0 -0.10153057366606259 -0.22329865728681966
1120000000.0 0.013664083006738284 -0.28138806084818907
1140000000.0 -0.08359424599386914 0.2990938367966852
1160000000.0 0.2916139003181182 0.1567668768796002
1180000000.0 0.1208787623869341 0.3152103903823913
1200000000.0 -0.3240649155624294 -0.1417073642444958
1220000000.0 0.2553076663945716 -0.2665444092515555
1240000000.0 0.32511931366614044 -0.19019231267098835
1260000000.0 0.08367584458855928 -0.3864598509204778
1280000000.0 -0.26131800207625244 0.2760420601722148
1300000000.0 0.024720923428932493 -0.362695872250979
1320000000.0 0.32605928898964254 -0.18616644182534123
1340000000.0 -0.3677795081402557 0.019659664561352527
1360000000.0 0.29154094439240075 0.25175891277282253
1380000000.0 0.011358402866135662 0.39431287984060776
1400000000.0 -0.012885070746305722 -0.38179017819043226
1420000000.0 0.35368162059301206 -0.1498669437751227
1440000000.0 -0.05473947637303506 -0.38447348195828795
1460000000.0 -0.2748742599757225 -0.27327351862884214
1480000000.0 -0.166407747017197 -0.3554230652373006
1500000000.0 -0.35961062072281963 0.15563652251862856
1520000000.0 0.06567146418309203 -0.3804585160363671
1540000000.0 -0.0033458863588685757 0.36093398300415847
1560000000.0 -0.213199326000441 -0.2523508257973842
1580000000.0 0.29347036025638135 -0.02906846432193823
1600000000.0 0.260339142759735 -0.01263865760068494
1620000000.0 0.01472337394457647 0.21312149838599248
1640000000.0 0.020298808078164223 0.18627705451429713
1660000000.0 0.07772865131538342 -0.13935878028122534
1680000000.0 -0.10242155612351142 -0.06489938247366471
1700000000.0 0.0714165965050825 0.0930033429914656
1720000000.0 0.0614171267452394 -0.0723685883810031
1740000000.0 0.02310130722782958 -0.0793565909298932
1760000000.0 0.04161359800007945 0.08218814141733391
1780000000.0 -0.1044829726332717 0.030173935131812744
1800000000.0 0.06898385721845561 0.10783768909913524
1820000000.0 0.0916087231086051 0.130460216149634
1840000000.0 -0.03983775409074877 -0.18806867164435093
1860000000.0 0.028046545253927906 0.2152793348674324
1880000000.0 0.2089272401942969 0.14213130643524252
1900000000.0 0.26778135445313445 -0.04873099715331978
1920000000.0 0.02817267330615241 -0.2901043650948945
1940000000.0 -0.2988058829482624 0.06294455522334967
1960000000.0 0.2238692817119722 -0.21500405281470164
1980000000.0 -0.28017462839926005 0.13729294558893235
2000000000.0 0.17503160698655945 -0.26644612857393446
2020000000.0 0.26913000711881724 -0.18066599251864662
2040000000.0 0.3241470619418569 0.025647728477034396
2060000000.0 0.25211558543618273 0.1997746974328418
2080000000.0 0.032167683372221235 0.3240945039951905
2100000000.0 -0.04543714159531282 -0.32012665368693
2120000000.0 0.2623322139380876 0.18103084347168738
2140000000.0 -0.23778354630485915 -0.2154020960673754
2160000000.0 0.17466253121922676 0.2657440983175082
2180000000.0 0.27063592978549644 -0.1489148766648528
2200000000.0 0.24165719699240046 -0.18530965998906748
2220000000.0 -0.002539908901038006 -0.29793427940641853
2240000000.0 0.28186633011994916 -0.06538291923820629
2260000000.0 -0.016401115577338962 0.27619050860165323
2280000000.0 -0.1532079112861554 0.22083359423507803
2300000000.0 -0.05623000467174116 -0.24343367193596133
2320000000.0 -0.18666605341920015 0.15751764927995437
2340000000.0 0.08466032431983737 -0.23032699204589305
2360000000.0 0.08962194023689464 0.22734970428274656
2380000000.0 -0.10665850091191444 -0.23219602536537678
2400000000.0 -0.28034312648941756 -0.02804682931105045
2420000000.0 0.2503286820900063 0.17001998290747342
2440000000.0 -0.233019163302749 -0.2286168236406173
2460000000.0 0.11175524723614876 0.33791050303590275
2480000000.0 0.17990907991309502 -0.3469548121108681
2500000000.0 0.26379040619055316 0.3347766129067273
2520000000.0 -0.4493161598095166 0.11120894764761075
2540000000.0 0.20289245900721412 -0.451472382020272
2560000000.0 0.057103275292846686 0.521747012604571
2580000000.0 -0.1804752770479828 -0.5231332166437153
2600000000.0 0.29436138810668244 0.495091836851775
2620000000.0 -0.37361478314116414 -0.462920295146943
2640000000.0 0.4447863239832522 0.41850563502026994
2660000000.0 -0.6230166258532601 0.05340212461789619
2680000000.0 0.10049424855413691 -0.6253765401580947
2700000000.0 0.6272113133930379 -0.14051448481600368
2720000000.0 0.6161617228132422 0.19866442782316576
2740000000.0 0.604783780561 0.23603730408953816
2760000000.0 0.5852942706967994 0.28224719169128504
2780000000.0 -0.4873448259753393 0.4207828161569378
2800000000.0 -0.6242846334132055 0.11289731303546088
2820000000.0 -0.4004697473421658 -0.4774363244944893
2840000000.0 0.5767723404524856 -0.19770073227674434
2860000000.0 -0.41280947612874813 0.42726404255184897
2880000000.0 0.5526126521261151 -0.1526907290096881
2900000000.0 -0.2536317604536194 -0.48959740061037543
2920000000.0 -0.5238114847619983 0.06470322418388427
2940000000.0 -0.349003317230561 0.3564564376480512
2960000000.0 -0.3099976617334255 0.3575613947057822
2980000000.0 -0.24743877230902875 0.3716724948101203
3000000000.0 -0.10045736680533338 0.413576529294055
3020000000.0 0.08814749591650047 0.39451497156705095
3040000000.0 0.2845751660218944 0.25959161588850754
3060000000.0 0.2376489686747041 -0.28397238223924015
3080000000.0 -0.33887275805070716 -0.11145902106796296
3100000000.0 0.23854767938474125 0.25321838292988086
3120000000.0 0.3054378948031731 -0.15847146967603004
3140000000.0 -0.32845125864029057 0.09784662411463735
3160000000.0 0.32822194216191064 -0.09897828165241619
3180000000.0 -0.340464606471889 -0.04159696671635452
3200000000.0 0.03180184704183225 0.3416555554409698
3220000000.0 0.2494188600899971 -0.2293140804705896
3240000000.0 0.07143879665014799 -0.3264687610408516
3260000000.0 -0.2257946848935259 -0.2372592348099572
3280000000.0 -0.3120486701331562 -0.04804082704427783
3300000000.0 -0.2088711543041147 0.2157712554193878
3320000000.0 -0.02965156106960108 0.27073633135239483
3340000000.0 -0.24430673121301127 0.04912060013908407
3360000000.0 -0.20738594355704962 0.07743372064348208
3380000000.0 -0.027446693266507134 -0.1904537341973194
3400000000.0 0.030459264766419775 -0.16578273957733436
3420000000.0 0.00984952794245707 -0.14017742860998725
3440000000.0 0.07001348085109857 -0.0955155351032815
3460000000.0 0.06223794550300051 -0.07200267033661888
3480000000.0 -0.07644261566497777 0.01307272736702763
3500000000.0 -0.06319238824513557 -0.03506998803954833
3520000000.0 -0.03999690088087041 -0.05961080048337533
3540000000.0 0.009741402500886964 0.07824451705938969
3560000000.0 -0.031337446722560294 0.0796712741512811
3580000000.0 0.09454821393482385 0.017653557637571416
3600000000.0 0.08737223972918666 -0.055875182093824124
3620000000.0 0.06704275169759703 0.10107572326619442
3640000000.0 0.0519881745691895 -0.1230952829103376
3660000000.0 -0.10999945288070412 -0.09683280347525595
3680000000.0 0.07744748792106379 0.1293702872291611
3700000000.0 0.09792578944748416 0.10544862054755867
3720000000.0 0.12476546925684913 0.032529435554776664
3740000000.0 0.06443034455959026 -0.0793172066807579
3760000000.0 -0.04105137957769176 -0.06868847858433533
3780000000.0 0.057821444009737905 0.015113966213600895
3800000000.0 -0.025123279914316714 0.011723187043678645
3820000000.0 -0.009953884885524318 0.00483053083828106
3840000000.0 -0.009502188053150526 0.046484392145986916
3860000000.0 -0.0013139451365801165 0.07732413814979278
3880000000.0 -0.0416303943521568 -0.0966599427235669
3900000000.0 0.12689673131206214 0.016950552324707845
3920000000.0 -0.12028494374566438 -0.08003339359293284
3940000000.0 0.00538858100681018 0.15303832088602876
3960000000.0 0.052487223165673336 -0.14716687371409665
3980000000.0 0.12622856281894915 0.07651901068589372
4000000000.0 -0.11817493790602478 -0.0451221784648507
