!Created with skrf (http://scikit-rf.org).
# Hz S RI R 50.0 
!freq ReS11 ImS11
400000000.0 0.8032461510509572 0.34600648678513907
420000000.0 0.42159217325515663 0.7010217255768599
440000000.0 0.6639836041218836 0.3733554723835642
460000000.0 -0.6685332587690342 0.10618492714998112
480000000.0 0.11658183371723814 -0.6022586298898787
500000000.0 0.6136081554963206 -0.21737628159692923
520000000.0 -0.3682419813370092 0.5521096481855287
540000000.0 0.671953342610637 -0.04177577374044585
560000000.0 -0.5925942559517778 0.28706014415882086
580000000.0 -0.4247918092225982 -0.3103825268298681
600000000.0 -0.41387075919970456 0.4334151544420484
620000000.0 -0.258968084358738 -0.5563875257582421
640000000.0 -0.10906146697013283 -0.5660695966302554
660000000.0 -0.0804013425075053 0.5313365324982192
680000000.0 -0.12315188850921022 0.49326076356884047
700000000.0 0.13202707276076603 -0.44678900905968194
720000000.0 0.4773550849235804 0.1170702952958593
740000000.0 0.42513595118991376 0.19901345516219296
760000000.0 0.3860043660118101 0.2181865793497752
780000000.0 -0.37445080738435643 0.194085569405843
800000000.0 -0.21786621196220324 -0.32327018573349
820000000.0 0.30284210354236685 0.15205923338583033
840000000.0 -0.30389305592458243 0.06584036954299136
860000000.0 -0.10099072477976655 0.2774110086546516
880000000.0 -0.1567985348248363 -0.22790136705852637
900000000.0 -0.2762597622586553 0.03476070874280173
920000000.0 0.14175739404168064 0.22137984022300378
940000000.0 0.045472037822745136 0.2338936645476008
960000000.0 0.010370125571791601 0.18766926530927844
980000000.0 -0.06595280139902068 0.13547087933545765
1000000000.0 -0.07044169723313434 -0.10790400241697486
1020000000.0 0.06978134705297141 0.07437172751666697
1040000000.0 0.060985547589778956 0.08244230325163643
1060000000.0 0.07690018272565811 0.12497524605225914
1080000000.0 -0.04104418561902196 -0.19779732009614057
1100000000.0 0.19929980411045395 -0.12606897367654077
1120000000.0 0.20500468229938223 0.17780166372595668
1140000000.0 -0.2983909500153879 0.03245813562988834
1160000000.0 -0.31217204135737026 0.03539629607015604
1180000000.0 -0.1468357210263838 -0.2987052812061486
1200000000.0 -0.033925078560008946 -0.3493261494335095
1220000000.0 0.3060879339252238 0.19940575703392469
1240000000.0 0.23913223814220577 0.3027368673421392
1260000000.0 -0.11680694158608838 -0.37305589259369387
1280000000.0 -0.37807817613982225 0.034688226681470036
1300000000.0 -0.01909616345765222 -0.3807932147584646
1320000000.0 -0.2994699983668313 -0.23154886735927574
1340000000.0 -0.3076360423676381 0.20074418762619253
1360000000.0 0.13732216435308164 0.35522694272202626
1380000000.0 -0.39799942604154337 0.030033055281306113
1400000000.0 0.34991520177604707 -0.18103347418517182
1420000000.0 0.37672925899311294 -0.12157768158425292
1440000000.0 0.12308209419624562 -0.3816163117224844
1460000000.0 -0.3999186724744123 0.010457447680687784
1480000000.0 -0.31451767951627324 -0.24952005289964613
1500000000.0 0.1397067094632626 0.38222634446293213
1520000000.0 -0.10490645918393711 0.3789741495163513
1540000000.0 -0.13495796504316226 -0.33774430337400047
1560000000.0 0.31845403453585924 0.005273489006732034
1580000000.0 -0.2666542446435594 -0.07841029583155097
1600000000.0 0.2112042918330951 0.12437176867139872
1620000000.0 -0.09298964046713076 0.1943759637619451
1640000000.0 0.10168431783193775 -0.15631516300644605
1660000000.0 -0.10921241502066956 -0.1099441181021729
1680000000.0 -0.11993387780197126 -0.0008199020527340641
1700000000.0 0.009628087404156176 0.11280696239459183
1720000000.0 0.06475092016250338 -0.0648888493027882
1740000000.0 0.010675211513335765 -0.07533823882163919
1760000000.0 -0.05844521227678616 0.05932929763384483
1780000000.0 0.09241454600026595 -0.05240073632872252
1800000000.0 -0.08993367222988384 0.09510532082251677
1820000000.0 0.14732961799424346 0.07625535523952678
1840000000.0 -0.16579011608823813 -0.11290750130484879
1860000000.0 -0.1728584704838609 -0.15672274893005403
1880000000.0 0.07396414305603612 0.2500085829978095
1900000000.0 0.1737707561630767 0.21756039294044868
1920000000.0 -0.004883500894849617 -0.2975781071824108
1940000000.0 -0.031567184831827584 0.3057274039584503
1960000000.0 -0.12583478243423057 -0.2776877799534698
1980000000.0 -0.20585455013179946 0.22453195152903901
2000000000.0 0.08428067463881918 -0.3011794980805693
2020000000.0 0.249347966919377 0.18980795966621603
2040000000.0 0.05991386638467878 0.31636445910131294
2060000000.0 0.22320206197705716 0.2299681565018652
2080000000.0 -0.011264712733701812 0.31339906519717103
2100000000.0 0.2706258098731415 0.15733595502778258
2120000000.0 -0.23246092498018278 0.21010017184185395
2140000000.0 -0.1270319338043679 -0.2839131991414195
2160000000.0 -0.06910474217956046 0.2912296660383748
2180000000.0 0.0394889055933645 0.285105114557301
2200000000.0 -0.030195440848357825 0.28337624847477527
2220000000.0 0.015765544067736042 0.2806801866557869
2240000000.0 -0.18388234438735238 0.19787165783100272
2260000000.0 0.19505232036613054 -0.17444912851223465
2280000000.0 0.18844882837231386 0.1862982884405884
2300000000.0 -0.0968390401982869 0.2404664380621615
2320000000.0 -0.10930137204897632 -0.2370060003907238
2340000000.0 -0.15454109853741618 -0.21073912418279617
2360000000.0 0.2434193476186443 -0.09193778189243991
2380000000.0 0.20535765539154496 0.17124852571413915
2400000000.0 0.22978037092449569 -0.1598208327884016
2420000000.0 0.04134590758245732 -0.2908746554419763
2440000000.0 -0.3131982267882059 0.043872666780926765
2460000000.0 0.33451715732207477 0.039465406660076474
2480000000.0 0.36126842326888675 -0.08257357935017161
2500000000.0 -0.11965356970900082 0.3892489229003864
2520000000.0 -0.3571017689815303 -0.26156191300461157
2540000000.0 0.4747858970086015 -0.029129594089343607
2560000000.0 -0.4059584674841919 0.30979723523504343
2580000000.0 0.11978146845744565 -0.5281662997381641
2600000000.0 0.012183483184770442 0.5654838090197406
2620000000.0 -0.15395381892690863 -0.5684132864343421
2640000000.0 0.29969208147220155 0.5292329938897685
2660000000.0 -0.5981298466193574 -0.1792523500493881
2680000000.0 0.4006017915826276 -0.4924115855513164
2700000000.0 0.5800427561108493 0.2789525478771125
2720000000.0 0.24146015971418033 0.6015191615506807
2740000000.0 0.10419863868126077 0.6403735505194051
2760000000.0 0.09681132219295896 0.639143946309009
2780000000.0 -0.5613398985385001 -0.3043387888758342
2800000000.0 -0.33636819988537764 -0.5304211090293062
2820000000.0 0.1698273763421622 -0.5907429849816674
2840000000.0 0.40143957364479205 0.4465136776940323
2860000000.0 -0.4901300795612668 -0.32321868898025347
2880000000.0 0.2937339974455554 0.4872177604157496
2900000000.0 0.40484637970330717 -0.37008970590450824
2920000000.0 -0.08482794068749551 -0.5222633441543821
2940000000.0 -0.4145232824614149 -0.2835705530619618
2960000000.0 -0.16632461730305345 -0.44760989445148835
2980000000.0 -0.18466900462904026 -0.42010307476084274
3000000000.0 -0.28153072862015405 -0.336096139279309
3020000000.0 -0.36362778279028707 -0.2101401096926326
3040000000.0 -0.09611091583943529 0.39111537468482444
3060000000.0 0.3811677782721273 -0.031557129506164565
3080000000.0 -0.2933365232859576 -0.22110931163097697
3100000000.0 0.2671782313250568 0.22976011863654533
3120000000.0 0.2606816618677971 -0.22968527351954407
3140000000.0 0.01231314167211855 0.3389088544688578
3160000000.0 -0.029181679316814695 -0.33170829905758487
3180000000.0 0.1202689754905703 0.3081092740949593
3200000000.0 0.30906843724782496 -0.09416381463791525
3220000000.0 0.11983306155442042 -0.2969339744725425
3240000000.0 -0.18594911757701235 -0.2576695379635999
3260000000.0 -0.3029293224136425 -0.05091176813521566
3280000000.0 -0.24233079768579918 -0.16837121783477169
3300000000.0 -0.19229834680916277 -0.20594875342570348
3320000000.0 -0.2092436966866305 -0.15566969786992443
3340000000.0 0.08802241666726456 -0.21692307680539097
3360000000.0 0.14000721809233058 0.1530830137258765
3380000000.0 -0.022222111297874606 -0.18136439152527983
3400000000.0 0.13885447908859114 0.0826043878320046
3420000000.0 -0.1082297675161455 0.08722126543834777
3440000000.0 0.06663831872381175 -0.10264048861959459
3460000000.0 0.0649893012100539 -0.08312604594065258
3480000000.0 -0.03430142436632765 -0.08610033421231905
3500000000.0 -0.08535088953740907 -0.00965410811831144
3520000000.0 -0.07873242023405488 -0.01672641807664071
3540000000.0 -0.07222996152913169 -0.0375509041087548
3560000000.0 -0.047700941087350235 0.07543613706868442
3580000000.0 0.09095471271291315 -0.00964921507164647
3600000000.0 0.08660352680557262 0.044200415467190585
3620000000.0 -0.07934079773897317 -0.07284037164621229
3640000000.0 0.08086818013806323 0.09268293072400106
3660000000.0 -0.034942717836164074 0.12925678882975267
3680000000.0 -0.13642380540091079 0.023745617128464565
3700000000.0 0.10858148926189354 -0.0787301359787667
3720000000.0 0.06799854475631213 0.10185543300926148
3740000000.0 -0.04767442576168804 -0.0913218815039976
3760000000.0 0.05917647655832398 -0.05861382983364333
3780000000.0 -0.001858888199909807 -0.0670880017720288
3800000000.0 -0.002756803050941719 0.03642277494185337
3820000000.0 0.00040130227347457786 0.0020963449404725
3840000000.0 -0.01119027964183117 0.036167625264483624
3860000000.0 0.02245334627954782 0.06645042542401067
3880000000.0 -0.07954938793335548 -0.05756663843610459
3900000000.0 -0.012047304164829709 0.10979327125659029
3920000000.0 -0.12135428312494956 -0.02983283649004431
3940000000.0 -0.12715664459361659 0.04742536589522434
3960000000.0 -0.1293822579133549 0.047229651241963065
3980000000.0 0.13263635183077033 -0.012389440104231274
4000000000.0 0.07604825775634483 -0.08014437003673629
