!Created with skrf (http://scikit-rf.org).
# Hz S RI R 50.0 
!freq ReS11 ImS11
400000000.0 -0.26897550244464075 0.42894793205272774
420000000.0 0.32423766068350435 -0.25078853967842424
440000000.0 -0.06782820417857659 0.3385142840165146
460000000.0 0.28738453557027743 -0.06934182408265208
480000000.0 0.1651351010134422 0.1020709365387736
500000000.0 0.12125108405512733 -0.07707510045141142
520000000.0 0.11624596610343045 -0.11280475114298168
540000000.0 0.05669380785997559 -0.20903077586679714
560000000.0 0.24643971629426445 -0.13065026561390713
580000000.0 -0.3101118667856857 -0.06737029213121393
600000000.0 0.3028095307597021 0.033718989766962915
620000000.0 0.2623957668554276 0.11524352797096864
640000000.0 0.2385539937336472 0.13528366946822032
660000000.0 0.08303711773105518 -0.27793165671161607
680000000.0 0.2750282008763007 -0.11030957663717544
700000000.0 -0.25598040161223756 -0.030626201042982453
720000000.0 0.12050324240555635 0.2077437006983736
740000000.0 0.22285418863744383 -0.028366634385257466
760000000.0 0.009075993046062518 -0.2053947998207954
780000000.0 -0.1753547774302493 0.047814582158562616
800000000.0 -0.16393647823690738 0.04469622323408976
820000000.0 -0.15054076379418602 0.04558989525126501
840000000.0 0.043108411519626855 -0.11928535962152961
860000000.0 -0.08848478774235559 0.07105687933029782
880000000.0 0.04147588791457549 0.10728154859606424
900000000.0 0.11566949208643348 -0.04603893794517344
920000000.0 0.07383153528520532 0.0690628163961696
940000000.0 0.010495086181065783 -0.10822220944073856
960000000.0 0.010988142431524569 -0.10021669242170686
980000000.0 0.07939360944378855 -0.06664189981876409
1000000000.0 0.07372172429388177 0.10408747897417338
1020000000.0 -0.12250202670415253 0.03844522999541603
1040000000.0 0.0069157162390087795 0.16627431208345483
1060000000.0 -0.10937064314972038 0.1322833358528346
1080000000.0 0.15967070143184334 0.12463584469184974
1100000000.0 0.20402923504963966 0.11584533590784549
1120000000.0 0.0005937335659916449 0.2482863648161585
1140000000.0 -0.25889057129620785 0.07308335944070593
1160000000.0 -0.12602338567616247 -0.24838282595294847
1180000000.0 0.10351233697849636 -0.2614302273868532
1200000000.0 0.2083062734332797 -0.19464329776549197
1220000000.0 0.03867140370944156 -0.27741444120886444
1240000000.0 -0.07605918092881109 -0.25673494650012335
1260000000.0 -0.25702847627414843 0.004660579099915487
1280000000.0 -0.17102223630889554 -0.16284673788205106
1300000000.0 0.2096160410458248 0.08487633784331301
1320000000.0 0.13424609117778108 0.16770650975966725
1340000000.0 0.20851953987996408 -0.04793145923736543
1360000000.0 0.09243400815083083 -0.19450238508063505
1380000000.0 0.1629577834787154 -0.13878804290546043
1400000000.0 0.10787641794274216 -0.17870582613895478
1420000000.0 -0.1872468397608027 0.06461448620453276
1440000000.0 0.1832470509079807 -0.06024156555195174
1460000000.0 -0.060523202915231014 -0.18095420961997288
1480000000.0 0.15909883963506213 0.091622712112376
1500000000.0 -0.11489846435153943 -0.12057241990914717
1520000000.0 0.15393755208252818 -0.01398832413878731
1540000000.0 0.13973428251556305 -0.04363440348599952
1560000000.0 -0.1338712858616343 0.045108368838752015
1580000000.0 0.05367913988717236 0.13263641216907204
1600000000.0 -0.13961684459799198 0.019166036717571066
1620000000.0 -0.05011316744887373 -0.13134737893641407
1640000000.0 0.08918445726323077 -0.10569417921154847
1660000000.0 0.010931777829075638 -0.14321853427843806
1680000000.0 -0.023538612183112696 0.13985725655597273
1700000000.0 -0.10681768435483704 0.10627983324429774
1720000000.0 0.11884418383105193 0.11225685979521563
1740000000.0 0.0021259585027874977 0.171339289039354
1760000000.0 0.11642525791641334 -0.15182635252721918
1780000000.0 -0.07115795232823605 0.1941597747403811
1800000000.0 0.07453554784781295 -0.20862372779386798
1820000000.0 -0.09873063021700715 0.20543970238420506
1840000000.0 0.21287538879710627 -0.08651718296031802
1860000000.0 0.12916973855469083 -0.18215228393164815
1880000000.0 0.11384629448547974 -0.1828068804983056
1900000000.0 0.10552947785018778 -0.18129816656197464
1920000000.0 -0.19868002564650797 0.025374806856669967
1940000000.0 -0.004773733962002739 0.18505763610859113
1960000000.0 0.11065516002032215 -0.1304223307737778
1980000000.0 -0.04576096311896271 0.14895048158396007
2000000000.0 -0.1393623654327418 0.011096692589793476
2020000000.0 0.056238281324527836 -0.1111316374526535
2040000000.0 0.1051892567550047 0.03914663775225093
2060000000.0 -0.020446804849503057 0.1002459343777382
2080000000.0 0.06881792766263088 0.06430346233396296
2100000000.0 0.09125222947460115 0.016394310281498275
2120000000.0 -0.04391192320700387 -0.07860975790296668
2140000000.0 -0.0423002955588227 -0.07284146605675429
2160000000.0 0.08046075878956042 0.0108819949786082
2180000000.0 -0.05858639971073552 -0.04667645335354108
2200000000.0 0.024487369522073324 -0.06559247053188895
2220000000.0 0.045623502900936135 0.05198584286725994
2240000000.0 0.06754276566247283 -0.005746490576527269
2260000000.0 0.044307519467674215 0.055472504096506545
2280000000.0 -0.009294520328136184 -0.07675252777823265
2300000000.0 0.055425288807865 -0.06455758234531475
2320000000.0 -0.019551184974976116 -0.09211170218176962
2340000000.0 0.1030955795604707 0.00832522216003015
2360000000.0 0.09255962690158838 0.05428713559507676
2380000000.0 0.10447453024893306 -0.03919344646419812
2400000000.0 -0.11469862547473827 -0.0007184365612798328
2420000000.0 -0.0787374476953444 -0.08651808777443717
2440000000.0 -0.11290658949080122 -0.035760962319036256
2460000000.0 0.015106390536755119 0.12463430886316071
2480000000.0 -0.1136871968204758 -0.06649608812211193
2500000000.0 -0.13675109096848295 0.010109235682205545
2520000000.0 -0.12828555283139476 0.07315533851975367
2540000000.0 -0.08633159089742107 0.13669769779206334
2560000000.0 -0.17141692082944718 0.0029094238887440995
2580000000.0 0.15747853194410757 0.09050872783192514
2600000000.0 -0.10602327893285886 -0.15751734313034882
2620000000.0 -0.0755854596550503 0.17602491878800916
2640000000.0 0.042476668544448336 0.18828810709432592
2660000000.0 0.18747939612695497 -0.03388871835578987
2680000000.0 -0.010090444385203196 -0.1832696305133819
2700000000.0 -0.10950641787408058 0.1362594617342356
2720000000.0 0.12910659346545547 -0.09962907281691707
2740000000.0 -0.14752171259446617 0.03386246917854294
2760000000.0 0.07492616177392886 -0.121877434062767
2780000000.0 0.12164254457531842 0.05962343733087486
2800000000.0 0.07766189797009482 0.10398814307061006
2820000000.0 0.09343653318247357 -0.08404555537395325
2840000000.0 -0.12510668741985412 -0.004126511958557749
2860000000.0 -0.12495648761516458 -0.024310518175668885
2880000000.0 0.04890252023606015 -0.12375653994196795
2900000000.0 0.002387660912255609 0.1432820106839697
2920000000.0 0.02753906394390321 -0.1487958166370377
2940000000.0 -0.14222096111233157 0.07714350752260209
2960000000.0 0.13001954393667015 0.11093119845709513
2980000000.0 0.10617886666345198 -0.14357316645927237
3000000000.0 -0.1870512760704154 -0.00966116479350902
3020000000.0 0.19542062292658535 0.012330621996223534
3040000000.0 -0.1892056509368928 0.06506296794630961
3060000000.0 -0.00570801969296936 -0.20344348561752626
3080000000.0 0.16735674260303118 -0.11917068367036578
3100000000.0 0.08553538205333149 -0.1820631930127811
3120000000.0 -0.10445105827696419 -0.1663142541166305
3140000000.0 0.0649800468970953 0.17990837674913493
3160000000.0 0.014293276483626643 -0.18526825162075297
3180000000.0 0.15531357632875054 0.09849466935983944
3200000000.0 -0.11194930288169742 0.14455227425004447
3220000000.0 0.1847099325026301 -0.007155859894899948
3240000000.0 -0.17920499867717427 0.060179586147175286
3260000000.0 0.1176575129204961 0.15567264071937845
3280000000.0 0.20047273294762488 -0.013787986017456533
3300000000.0 0.20451101981635075 0.03134163689510316
3320000000.0 0.15508496921305795 0.14421925097511773
3340000000.0 -0.20216207033781838 0.0745367944503013
3360000000.0 0.09403746029228614 -0.194883745467584
3380000000.0 -0.11190500732754584 0.18514656812147423
3400000000.0 0.14534486776030317 -0.15513287622843522
3420000000.0 -0.1928269946655379 0.07386173756321668
3440000000.0 0.1595124550329071 0.1185613449747184
3460000000.0 0.1451865472882178 -0.12472521701219634
3480000000.0 -0.14574707712163407 -0.11070458879122905
3500000000.0 -0.0769561407707732 0.1584032716378668
3520000000.0 0.1665555508839753 -0.021737907977652605
3540000000.0 -0.1454570927251727 0.06583202291887336
3560000000.0 0.04419330715865323 -0.1452785104881919
3580000000.0 0.13922528575768073 -0.04466045651565774
3600000000.0 0.00968781827719796 -0.14269791068517615
3620000000.0 -0.025623415361210697 -0.14000874047012726
3640000000.0 -0.042520527702403256 0.13921013285402203
3660000000.0 -0.020253201892737518 -0.15294873284890198
3680000000.0 0.026092967547542437 0.16502727996464076
3700000000.0 0.15948155440008366 -0.09247440080305937
3720000000.0 0.05798535284534194 -0.19585939798245333
3740000000.0 0.20678315933292396 -0.08600871644092323
3760000000.0 0.2434606922789975 -0.028460401795937625
3780000000.0 0.10683029747911228 0.24089715430468656
3800000000.0 -0.2550394797151755 -0.10686569054693253
3820000000.0 0.2836490094337173 0.025098630738895726
3840000000.0 -0.28732477452883637 0.001729908906376464
3860000000.0 0.24665781903408937 0.14257010236956383
3880000000.0 -0.19287587519511842 -0.20060821314044983
3900000000.0 0.16428968653661724 0.21109537294139696
3920000000.0 -0.20877807527345313 -0.13568184642243672
3940000000.0 0.19044914869764454 -0.12115971743463147
3960000000.0 0.17948574716046717 0.08382674674930012
3980000000.0 0.1524099607900232 -0.07761163026660595
4000000000.0 0.02418114073527644 0.14156713899433251
