!Created with skrf (http://scikit-rf.org).
# Hz S RI R 50.0 
!freq ReS11 ImS11
400000000.0 -0.7135602318737495 0.09659914568345757
406500000.0 -0.35036601575191995 -0.6076172296522903
413000000.0 0.6724613162008184 0.08064130339313673
419500000.0 -0.6656054498945582 0.04919556080121441
426000000.0 0.2310511935844806 0.6140150239831996
432500000.0 -0.4973032095268626 -0.415884048439406
439000000.0 0.634412096634246 -0.03406410428467765
445500000.0 -0.6255538567411225 0.029042662759804185
452000000.0 0.5130620873572976 -0.3454914348368987
458500000.0 -0.1644551753708138 0.599054740773202
465000000.0 -0.5557880986030798 -0.2798877704634151
471500000.0 -0.33802911586386164 -0.5187666987049058
478000000.0 -0.039480651887302286 -0.6110291687740299
484500000.0 0.27881745807970265 -0.5349304855691868
491000000.0 0.08234788615137931 -0.5844578400636402
497500000.0 -0.2785627695734186 -0.49830188291277855
504000000.0 -0.4198176257754275 0.3385452959492317
510500000.0 0.03360652977098211 0.5011187313482092
517000000.0 0.4246567141360856 0.17071422278243592
523500000.0 0.12223599610233839 0.4106358397262348
530000000.0 -0.07812681819824707 0.38584116786608963
536500000.0 0.2469673184017069 0.2622225757669219
543000000.0 0.291810885108941 0.19007758646184317
549500000.0 0.33171310010622207 0.015363257817932036
556000000.0 -0.054205487740274484 -0.3020836762360098
562500000.0 0.17040608600462426 -0.2349546109232736
569000000.0 -0.1778578364049091 -0.20765332120145208
575500000.0 0.2615046865793864 -0.0007616787558003764
582000000.0 0.0876020409849009 -0.24373914859855939
588500000.0 0.19205589401775314 0.18611035845093576
595000000.0 -0.04087246438228434 -0.2833723859937438
601500000.0 0.09410540295109739 -0.27724227825246606
608000000.0 0.21568956682863638 -0.2020675692035557
614500000.0 0.008661055160747277 -0.30013264213748403
621000000.0 -0.03788815960137721 -0.2967106570267985
627500000.0 0.294879016619925 0.0273358863993966
634000000.0 -0.04578800803096662 0.2981552724489247
640500000.0 -0.2887368377035091 0.03585199138892375
647000000.0 0.298861202948812 0.0021794247190985343
653500000.0 0.20623073165746136 0.2179046138890219
660000000.0 -0.2911047153754501 -0.06814442035511722
666500000.0 0.10222629736436913 -0.2825466021873448
673000000.0 0.14211715226996718 0.25968970349305914
679500000.0 0.2854616627328684 -0.10803636940212732
686000000.0 0.24831670716059948 -0.16445535109947992
692500000.0 -0.28878397213651474 -0.06060097772129376
699000000.0 0.23458129381477819 -0.16997533217805527
705500000.0 -0.2915400176749663 -0.0063098654741794435
712000000.0 0.29310043325381846 0.0012402297262543512
718500000.0 0.16336503599687743 -0.25006552725316283
725000000.0 -0.05457707334208618 0.30779863622113796
731500000.0 0.13362793534426395 -0.2890498243222173
738000000.0 0.16413270940000627 0.2874761511044527
744500000.0 -0.32697450040385395 -0.02117424986787394
751000000.0 0.2441369717705744 0.22310145053457378
757500000.0 -0.16457683872072695 -0.2951343114178607
764000000.0 -0.22281051763904722 0.2672316444426679
770500000.0 -0.22277653744123513 -0.27707153857231676
777000000.0 -0.05784679448166018 0.3571092688769406
783500000.0 -0.14406991342967485 -0.32997935250624855
790000000.0 -0.04797312494701481 0.3636396717462521
796500000.0 2.935595057519412e-05 -0.36979135867210255
803000000.0 -0.34008503973624005 0.12420975587267873
809500000.0 0.28598374193058984 0.2213870602345404
816000000.0 0.15773703287771867 -0.32421213897448753
822500000.0 -0.0974903457078608 -0.35658509921769577
829000000.0 -0.33592905323558575 0.18052656927008792
835500000.0 -0.38049696829080876 0.10246290900754652
842000000.0 0.4115150266647443 0.026667458627920464
848500000.0 -0.27502428746358365 -0.3106657267062678
855000000.0 0.16794634803075897 0.3893256649197752
861500000.0 0.15586543762588106 -0.39850368453948876
868000000.0 -0.23329343868869226 0.3673227637034722
874500000.0 0.3620183184196938 -0.24389284541759587
881000000.0 -0.31793998078442437 0.3105228461764836
887500000.0 0.1175585554010753 -0.430661515492622
894000000.0 0.16063043979833172 0.41552211913256026
900500000.0 -0.39459378002086 0.1913736955487845
907000000.0 -0.2224519415624914 -0.36679084922688415
913500000.0 0.40835323420834013 0.03818722878507993
920000000.0 -0.08630623351353561 0.38911008038547396
926500000.0 -0.3763552055160888 0.07575714232873408
933000000.0 -0.16857251548653635 -0.3320255070864766
939500000.0 -0.12468062441395339 -0.33857276803523345
946000000.0 -0.16384640941034173 -0.2993857114430447
952500000.0 -0.11817872709864033 -0.2975129417355084
959000000.0 -0.14877227133661075 -0.2614995997588259
965500000.0 -0.11709942415156707 -0.2580511887935697
972000000.0 0.16499194667114503 0.2120704010890416
978500000.0 -0.13211975556204456 0.21999995583218748
985000000.0 -0.21023559143499354 0.11666079118801291
991500000.0 -0.21177652912458472 -0.08427350343202086
998000000.0 0.04919830478032584 -0.20900526608184927
1004500000.0 0.19190421587711282 0.06595584181606275
1011000000.0 -0.18418065948000834 0.055829173945949925
1017500000.0 -0.037732330095293615 -0.17746543180529525
1024000000.0 0.15874907407706632 -0.046500923176250736
1030500000.0 0.11515211928623818 0.09874643948414422
1037000000.0 -0.025234247434417417 -0.13612942832074496
1043500000.0 -0.03869603417508602 -0.12254775027902066
1050000000.0 0.10659680704292443 -0.061518561816669946
1056500000.0 -0.11459076745403414 -0.01857874394674645
1063000000.0 0.1078512448909124 0.024340699925575634
1069500000.0 0.07743895340613288 -0.06956627682339248
1076000000.0 -0.017292658692057667 -0.1008270257476012
1082500000.0 0.035372588737534405 -0.0929579692014061
1089000000.0 -0.10084132519061796 0.0023717335970527575
1095500000.0 0.08191064976294636 0.057665446520318506
1102000000.0 -0.1059683725079749 0.01650688779294432
1108500000.0 0.10181184206327541 -0.04658961007299945
1115000000.0 -0.057970747226105235 -0.10497901172550204
1121500000.0 -0.045981127342768255 0.12834961494564548
1128000000.0 0.014456474256472333 -0.1505267840038175
1134500000.0 -0.0440598017926455 0.1601581226100445
1141000000.0 -0.0645700815852334 -0.1718298381819593
1147500000.0 0.1294978551600999 -0.15501413019305055
1154000000.0 0.19914007721991303 0.0732019669779456
1160500000.0 0.010549506103533635 0.2194847074735529
1167000000.0 -0.22330900855585495 -0.03624696545999683
1173500000.0 0.22570151202017885 -0.004438878755624757
1180000000.0 -0.22764300104251634 -0.017875149310709475
1186500000.0 0.12561922703811051 0.1904693661658685
1193000000.0 0.17675980148519446 -0.15552837571778375
1199500000.0 -0.24032712592312958 -0.027925325355621675
1206000000.0 -0.1891395153249401 0.1666301848387029
1212500000.0 0.2555865059937484 -0.07494103634066678
1219000000.0 -0.2759453000760427 0.059653384063492604
1225500000.0 0.2852403459965138 -0.05108063375747777
1232000000.0 -0.22844734218415727 -0.19491372047031144
1238500000.0 -0.23015752470449 0.20816276769366202
1245000000.0 0.21285073349115993 0.2344037241896456
1251500000.0 0.20779231206687418 -0.250178491044496
1258000000.0 -0.22983782269284384 -0.23770369332805968
1264500000.0 -0.3226311926167935 -0.09152694795915602
1271000000.0 -0.16103796415546315 0.3029547144115063
1277500000.0 0.14016535423323542 0.3176943301705778
1284000000.0 0.35243444082404474 0.027008963393622937
1290500000.0 0.23293872288048073 -0.2671023928034023
1297000000.0 -0.15780739096709018 -0.32288618746076625
1303500000.0 -0.35350859847083865 0.05261271687515314
1310000000.0 -0.11510320037188546 0.33834733568648173
1316500000.0 0.35907584028447365 0.0055685020480913065
1323000000.0 -0.007164279875912515 -0.3574490903307805
1329500000.0 -0.044199223338647946 0.35164428691589206
1336000000.0 0.3199783286639588 -0.13210035808621914
1342500000.0 -0.3344298442717632 -0.06781338810505794
1349000000.0 0.19708777944317418 0.26869898343412435
1355500000.0 0.31624672414917676 -0.0921511702364791
1362000000.0 -0.24352852039688663 -0.21402660604105925
1368500000.0 -0.31781147877357313 0.06626429690995805
1375000000.0 0.11783305480594058 0.31060768489643475
1381500000.0 0.2126043887311742 -0.26075053715453017
1388000000.0 -0.34169632502480696 -0.048538959305536526
1394500000.0 0.1784087342681637 0.30400680189791374
1401000000.0 0.17109460336448098 0.3165023897066224
1407500000.0 0.278971324332453 -0.23663198355606585
1414000000.0 -0.19827320733118786 -0.3162681704376475
1420500000.0 -0.22402816619361796 0.3055910252895853
1427000000.0 -0.11961819109338397 0.3601034658483016
1433500000.0 0.12617301535587955 0.3624918040454945
1440000000.0 0.13406930974163384 0.3558096311331651
1446500000.0 0.13237400954444806 0.3617724345652485
1453000000.0 0.23760545200027133 0.30246068127436976
1459500000.0 0.26786728277427935 0.27402745506304726
1466000000.0 0.371318790020384 -0.08683468106186919
1472500000.0 0.30313403492535723 -0.22167733301402942
1479000000.0 0.00046899016194897915 -0.36749372431764116
1485500000.0 -0.24328604006667331 -0.26370174172927624
1492000000.0 -0.3237036660050103 0.1265786389878994
1498500000.0 0.026606631210947435 0.3320777048164694
1505000000.0 0.16909095191146442 0.270839923264487
1511500000.0 0.09321323075561577 -0.2954192293623844
1518000000.0 -0.2448196962778615 -0.1708579578657872
1524500000.0 0.23255222396466196 0.17255592710068005
1531000000.0 0.13944880040743649 -0.2393969856230223
1537500000.0 -0.20987348485046906 0.17526979835428033
1544000000.0 0.25330708917202 -0.07676196452922106
1550500000.0 -0.11630944469910534 0.23825586807447718
1557000000.0 0.03689391721841173 -0.255042654592144
1563500000.0 -0.23227272226877654 0.10489401958328695
1570000000.0 -0.2493877351488937 0.04712234102342123
1576500000.0 0.031947464939976467 0.2542906256122623
1583000000.0 0.2522736569700503 0.06453523179873215
1589500000.0 0.14302526516526967 -0.22098271426576382
1596000000.0 -0.1870442541125888 -0.18332440110863843
1602500000.0 -0.24011604521418595 0.10144875842830142
1609000000.0 -0.24405364041966954 0.07800248355199446
1615500000.0 -0.15934428553266117 0.18940577171478776
1622000000.0 -0.06553110499994742 -0.232312813654218
1628500000.0 0.08558310729821628 -0.22091845876550337
1635000000.0 0.2286929369830921 0.03062715617856805
1641500000.0 0.05496477400812684 0.21690849788841193
1648000000.0 -0.21861887584851827 0.014698288309993203
1654500000.0 -0.06507882945400242 -0.20318073577442117
1661000000.0 -0.12194495674431904 -0.1701581599573195
1667500000.0 -0.1968930962766477 0.04286925405732439
1674000000.0 0.13552317723510712 0.1327086267182361
1680500000.0 0.1438376494375234 -0.09318554918432752
1687000000.0 -0.07948775663205758 -0.13794521640305699
1693500000.0 -0.039772320792172605 0.13576365801819198
1700000000.0 0.08843631809856203 -0.10026589154712175
1706500000.0 -0.052067650237357474 0.10894826515848587
1713000000.0 -0.009760764941488923 -0.1130127746343524
1719500000.0 -0.048176120540798395 0.09914347587367785
1726000000.0 -0.09374382371449244 -0.054271733560530964
1732500000.0 0.02286762547335584 -0.104513382605405
1739000000.0 0.10404972291922837 0.030929151599801998
1745500000.0 -0.08228394529513028 0.06685629915034991
1752000000.0 0.02236284402686863 -0.10634468325315616
1758500000.0 -0.05756971444807972 0.09016471607225948
1765000000.0 0.10657410718895435 0.0010067571757366575
1771500000.0 0.10025632166775938 0.026466289000965332
1778000000.0 0.060986242272708 0.08114997925557937
1784500000.0 -0.0021385336282153376 0.10139007825327047
1791000000.0 -0.05133026310480561 -0.08606122262101766
1797500000.0 -0.09020858312963585 0.04161857463045147
1804000000.0 -0.03900407083346083 -0.09158983245903442
1810500000.0 0.09939716886444877 -0.003108609021661923
1817000000.0 0.0804782581772882 0.052964227865437925
1823500000.0 0.06711511412100377 -0.06159958300429446
1830000000.0 0.016670170757159698 -0.07960029451586763
1836500000.0 0.017641356244905707 -0.06950848527676
1843000000.0 0.02461187127468054 0.050287256020750445
1849500000.0 -0.043183269497584956 0.00046208601974078513
1856000000.0 0.024239357694906837 -0.019605401675740212
1862500000.0 -0.01188110026030999 -0.017965274107672263
1869000000.0 0.00014417152845563238 -0.01944148221684934
1875500000.0 0.005067737477323003 -0.017620437660835358
1882000000.0 0.00758894204096523 0.011412173760419987
1888500000.0 -0.0009666116427920468 0.014285950899764262
1895000000.0 0.010660372390588055 -0.014402291211917839
1901500000.0 0.011094772053723459 -0.018970252475707015
1908000000.0 0.017302616806457095 0.015250549390684901
1914500000.0 -0.02331523267017854 0.009557361651960316
1921000000.0 -0.026512062682448406 0.0018832387956144888
1927500000.0 -0.00941607757264028 0.02190521813568144
1934000000.0 0.01992845371259123 -0.01138675425398029
1940500000.0 0.014248457330881592 -0.01191781636727702
1947000000.0 0.02004479376252446 0.0007708720555865697
1953500000.0 -0.023363368417072716 2.8911650222978255e-05
1960000000.0 -0.022587929960274665 -0.004600813607771647
1966500000.0 0.023782747729911274 0.022827142465326085
1973000000.0 -0.03991011332400412 -0.009601296758180514
1979500000.0 -0.05203440478846358 0.0016621247313816647
1986000000.0 -0.054773399591272344 -0.03765405834550827
1992500000.0 -0.07360283662341432 0.02460253458793688
1999000000.0 -0.08898844656080404 -0.002638227605215049
2005500000.0 -0.09882083506628642 -0.013277395653618273
2012000000.0 -0.06780650253854632 -0.08711918756080018
2018500000.0 0.07017031423422283 -0.0953693062179264
2025000000.0 0.1187970696744114 -0.04992756445212292
2031500000.0 0.10775778369723633 0.07540336118242004
2038000000.0 0.03029560305817788 0.13280644123150642
2044500000.0 -0.13515344559122816 0.028998026938057406
2051000000.0 -0.11702805660786872 -0.08018030425385389
2057500000.0 -0.13214883828375945 -0.04585715484409817
2064000000.0 -0.13764997915793467 -0.024340418489157554
2070500000.0 -0.13450378123272774 0.010609869716654044
2077000000.0 0.09046333296345166 0.09274382121567862
2083500000.0 0.10459674218864268 -0.06196875767649226
2090000000.0 -0.114716733339045 0.016912090297938442
2096500000.0 0.07304432342134161 0.07997960787920318
2103000000.0 -0.053209829077543104 0.09153028422931281
2109500000.0 -0.07165535324403711 -0.07563662909383323
2116000000.0 -0.07157746975120625 0.08092926966647891
2122500000.0 0.06678783874862104 0.08979761670156305
2129000000.0 0.11895281819903508 -0.03274769451514685
2135500000.0 0.032670502581408765 -0.12635633788195105
2142000000.0 0.020835790989061197 0.1412239963417369
2148500000.0 -0.12821063612423939 -0.0854757785625291
2155000000.0 0.13019984653238267 0.10572180415243977
2161500000.0 -0.09889199969030758 -0.1508699137773059
2168000000.0 -0.16388737088624955 0.10666178830230554
2174500000.0 -0.13445853933270335 0.157648877796551
2181000000.0 -0.032556429447724244 0.2167282784386669
2187500000.0 -0.009393076604411618 0.23161298461132843
2194000000.0 -0.013485591508325918 0.24280029123310687
2200500000.0 -0.008393817767777421 0.25332986294649157
2207000000.0 0.24296427968152537 0.0852712965698057
2213500000.0 0.240250942709964 0.09894067933313747
2220000000.0 0.2589006712263622 -0.0025373431969819703
2226500000.0 0.226198810548331 0.11084832229068925
2233000000.0 0.2096071874511778 0.13078071315291326
2239500000.0 -0.08973444370859934 0.22380276557298523
2246000000.0 -0.1562729702486808 0.17287522121911722
2252500000.0 -0.1994807266270952 0.10222964381623066
2259000000.0 -0.21957335496405692 0.008914236795284103
2265500000.0 -0.16823479907099917 0.13146878439056484
2272000000.0 0.019253200392200114 0.20591610895999157
2278500000.0 0.045738129534618546 -0.1959517501069049
2285000000.0 -0.06670465113319961 0.1815117550905662
2291500000.0 -0.018789568302931426 -0.18194042404625552
2298000000.0 0.042619840422862834 0.1669416577689838
2304500000.0 -0.12882218739570556 -0.10849351189777076
2311000000.0 -0.15435567793274704 0.016500698581702004
2317500000.0 0.017444898103596045 0.1540034926367129
2324000000.0 -0.04279826814742527 -0.14570078234329104
2330500000.0 -0.14634300966776753 0.04212940532746102
2337000000.0 0.1149781948939502 0.09933989373537451
2343500000.0 0.05991211307973642 -0.14254243391515894
2350000000.0 -0.15158287008300733 -0.03475096966959233
2356500000.0 -0.15054001572808395 0.05039136001584068
2363000000.0 0.0009816884781638235 0.1611983248012326
2369500000.0 0.14299462090322698 0.07564371977733605
2376000000.0 0.16160094978534836 -0.01051634850906771
2382500000.0 0.14693049588634893 -0.061176948542790516
2389000000.0 0.15226252431653386 0.04392255259816457
2395500000.0 0.02365902915330573 0.15612845568160374
2402000000.0 -0.13721951912581967 0.07714951540832857
2408500000.0 -0.1466849649418272 0.06229078498880203
2415000000.0 -0.1089902613482926 0.11607331834950556
2421500000.0 -0.1090995550923075 0.11343425075821296
2428000000.0 -0.03150179661218927 0.1523598719513127
2434500000.0 0.05954027897826767 0.14048891660982168
2441000000.0 0.05266533639813128 0.14226857895283265
2447500000.0 0.12865906789520618 0.07661350349291786
2454000000.0 0.12230440359128976 -0.08418930548861468
2460500000.0 0.12096069689481678 -0.08466072123561244
2467000000.0 0.1454814776448049 -0.028762288942213877
2473500000.0 0.11160428970047075 -0.09890141258489407
2480000000.0 0.14868469570390344 -0.02314736515118263
2486500000.0 0.15478674931757622 -0.02336369912499385
2493000000.0 -0.014341612939378358 0.15486518074234323
2499500000.0 0.011995936829991553 0.15687451219598952
2506000000.0 0.023306018623016816 0.15792264982156584
2512500000.0 -0.08549871707957996 -0.13454784069705436
2519000000.0 0.16164144986655005 -0.0023211636292891765
2525500000.0 -0.1583896682282458 0.04308289850688287
2532000000.0 0.11639506569961663 -0.12090671526332625
2538500000.0 -0.07785451084197996 0.1483562636870008
2545000000.0 -0.08123682631690712 -0.14920424200560378
2551500000.0 0.09730488200734301 0.13809984081460888
2558000000.0 0.09499231522998476 -0.13958847225817106
2564500000.0 -0.03676802427553295 0.1618320263167283
2571000000.0 0.1490415078914474 -0.0695055448030661
2577500000.0 -0.15033679166207173 -0.0480546916195923
2584000000.0 -0.15659034620058832 -0.001157454564060013
2590500000.0 0.012285737013212934 0.15205218239299945
2597000000.0 0.15155180463569856 0.007770441509045955
2603500000.0 -0.013905971953763547 -0.14857251383983483
2610000000.0 0.02811976936652717 0.14646348026072784
2616500000.0 -0.023782516584890154 -0.1420233347720107
2623000000.0 0.08895336607046789 0.10662912995441222
2629500000.0 -0.12320314840743009 -0.04257453304431167
2636000000.0 0.11227140023203522 -0.048366030393736326
2642500000.0 -0.10299026290757438 0.047333994718228786
2649000000.0 -0.10058197110969687 -0.03292347271386467
2655500000.0 0.09595395697281188 0.002045055600025407
2662000000.0 0.07633548696920196 -0.04944021883449332
2668500000.0 -0.005416239019400706 -0.08622500296601801
2675000000.0 0.010693271865977483 0.08331335982452732
2681500000.0 -0.04796311392418469 0.06772335393178139
2688000000.0 -0.007010447849313847 0.08348652923658913
2694500000.0 0.08591235963779606 0.009659446593776318
2701000000.0 -0.04887775744601334 0.07433382024907537
2707500000.0 -0.097735350291775 -0.0032720325787022066
2714000000.0 0.10261703846991826 0.02188644147327775
2720500000.0 0.02560135520770541 -0.11382774294710266
2727000000.0 -0.1278982469856338 -0.004374638369653033
2733500000.0 -0.052933603617499284 -0.13106437556551445
2740000000.0 -0.11376946173706629 -0.10662187405803172
2746500000.0 0.0661453088235842 -0.1540541815295516
2753000000.0 0.18054564566923428 -0.025765083296316243
2759500000.0 0.15811659818880597 0.1104633209935533
2766000000.0 -0.1707439456324172 0.10919573838365894
2772500000.0 -0.10628853264564918 -0.18224207587528413
2779000000.0 0.1270185956020168 0.17768733424162692
2785500000.0 -0.2127961122436014 -0.0728050200243619
2792000000.0 0.22877728219309013 0.04071331458477646
2798500000.0 -0.20619677999952007 0.12315627955879803
2805000000.0 0.17035054605112768 -0.17718281784823645
