!Created with skrf (http://scikit-rf.org).
# Hz S RI R 50.0 
!freq ReS11 ImS11
400000000.0 -0.6686831478134 0.485701157527602
420000000.0 0.573885590447543 -0.48110278481028745
440000000.0 0.5481079968313286 0.4591485564464071
460000000.0 -0.48975046811515566 0.4703886963193384
480000000.0 0.4549177313086769 0.3653142807298149
500000000.0 -0.13846618903414964 -0.45274359395714997
520000000.0 -0.364312991432874 -0.1498525653560578
540000000.0 0.3579511530927847 0.30947432366498107
560000000.0 -0.07076867112775097 -0.46735086512437524
580000000.0 0.4189490427343154 0.05191930666475627
600000000.0 -0.322532498955898 -0.17689459528235496
620000000.0 -0.1309308146053841 -0.3392937384407498
640000000.0 0.36413327427126785 0.02150541527312873
660000000.0 0.0657233898981117 0.3443237713890778
680000000.0 0.324127568963001 0.10146766003736112
700000000.0 -0.27671704378839657 0.18827452203455097
720000000.0 0.3445551831406469 -0.060309368009916556
740000000.0 0.2756318684965556 0.1536565299320743
760000000.0 -0.3025073172284418 -0.07989904171087513
780000000.0 -0.2832117272983323 0.06964826150181427
800000000.0 0.14779242441033646 -0.19712720830979588
820000000.0 -0.20886200710107686 -0.0633651960764609
840000000.0 -0.0051286349708249855 -0.21247840163611262
860000000.0 -0.17797039064834794 0.02653007410381912
880000000.0 0.08729563123633247 0.16588002864495136
900000000.0 -0.09742360368026226 -0.125837434179715
920000000.0 0.14875425058565345 -0.012831147067155388
940000000.0 0.11888198271008273 0.057697716733364365
960000000.0 0.034265966839575696 0.10417670762010466
980000000.0 -0.014815525239562621 -0.06808020798963595
1000000000.0 -0.038996262718762185 -0.000633458276083253
1020000000.0 -0.010311030892667649 -0.045660485334445035
1040000000.0 0.052940513539716835 -0.05462271467122811
1060000000.0 -0.0014003911729446076 0.11321179398050953
1080000000.0 0.11080369238998622 0.11106227557352012
1100000000.0 0.10068408733307424 -0.14789006368487168
1120000000.0 -0.1686684250665095 0.12557225151767804
1140000000.0 0.09925888601681829 -0.2310702900106495
1160000000.0 0.28427323821735795 -0.0191853000020011
1180000000.0 0.3030273782886452 -0.061113513277241405
1200000000.0 0.30910573905641825 0.09425303758026515
1220000000.0 0.32436201926228303 0.006747629300872266
1240000000.0 -0.27102705863211307 0.1866838415470276
1260000000.0 -0.33496279270116114 0.02716795993517469
1280000000.0 -0.3298193466267466 -0.07614307393637365
1300000000.0 0.2353522264358548 -0.25726519659672376
1320000000.0 0.21109167174623575 -0.28950442429609
1340000000.0 -0.1086654196283716 0.3482190531370041
1360000000.0 -0.3549739388902795 -0.1301084080940774
1380000000.0 0.15460155791662453 -0.3447647899220207
1400000000.0 -0.3228783466838245 0.19188343080243359
1420000000.0 0.34122735437134794 0.14472000697540316
1440000000.0 0.36511997115710565 -0.025540610330833397
1460000000.0 0.250289787043981 -0.258491956838421
1480000000.0 0.07983460884724691 -0.3394064122045676
1500000000.0 -0.11249446404306046 0.3198918233084502
1520000000.0 0.28489399888983147 -0.12782022907511278
1540000000.0 -0.23350856808962814 0.15218161030379942
1560000000.0 -0.017273526242655022 0.24005123274034992
1580000000.0 0.09720203813887149 -0.19048114647729253
1600000000.0 -0.03704035087100624 0.17587824663712723
1620000000.0 0.11638407465072106 -0.10724686677299768
1640000000.0 0.03263398139932707 -0.12799562727047137
1660000000.0 -0.09557146121489085 -0.008000248216414981
1680000000.0 0.006752119699073124 -0.08881794714557617
1700000000.0 0.028916089137374878 0.0716162579709844
1720000000.0 -0.006326399345599751 -0.0515537380778762
1740000000.0 0.016212948515137632 -0.04649207939897649
1760000000.0 -0.03189667171520031 -0.05865739494835151
1780000000.0 -0.09421639675364277 0.02353135176776306
1800000000.0 0.08849572638219226 -0.0919718216474166
1820000000.0 0.15729521709726782 0.019068148768989924
1840000000.0 0.11340751298575409 0.16038504637885231
1860000000.0 0.19249797368043728 -0.11681941313056429
1880000000.0 0.1818754959691741 -0.16061477726489193
1900000000.0 0.22514096032226946 -0.1455047182356858
1920000000.0 -0.2505337247088704 -0.14946993197120179
1940000000.0 0.28593604782013643 0.1075765024215246
1960000000.0 -0.31118446020454765 0.04176592533800575
1980000000.0 -0.16154500718763215 -0.2684908109228882
2000000000.0 0.31315935342266044 0.035013381435952395
2020000000.0 0.24945699810625035 0.18411164559001025
2040000000.0 0.014044378626000859 0.3110286103799676
2060000000.0 -0.05488051794913966 0.3028016752949197
2080000000.0 -0.3009263096796022 -0.014451713931300538
2100000000.0 0.18843709191897787 0.24195288750484115
2120000000.0 -0.26478429585607194 0.15879040533416103
2140000000.0 -0.05879918769842804 -0.29501622837989083
2160000000.0 -0.13656293291777738 0.2647126661771224
2180000000.0 0.21467488757902176 0.19457996823766488
2200000000.0 0.24112153452053736 -0.14638813672905812
2220000000.0 0.1945289355845164 0.19271395866429078
2240000000.0 0.12672427152180696 0.2413505051906353
2260000000.0 -0.16052237136517508 0.19937745219556194
2280000000.0 -0.0303211349512865 -0.24407150072647085
2300000000.0 0.19667327352929095 0.14326775116436943
2320000000.0 -0.03445163687299349 0.22820211877740043
2340000000.0 0.20924680995829617 -0.07895835115714696
2360000000.0 -0.16673975103101574 0.14441224226600977
2380000000.0 0.2055617862177671 -0.10556519936311445
2400000000.0 0.206375048077744 0.14482062219969055
2420000000.0 0.22096823332169185 -0.1683984473244935
2440000000.0 -0.21837590565087497 0.21411688269472587
2460000000.0 0.052995303437884264 -0.33351864453665725
2480000000.0 -0.35026175628418676 0.12203983015975337
2500000000.0 -0.11315075133438669 -0.39447534124841505
2520000000.0 0.44028120915112584 -0.06894588171529743
2540000000.0 -0.05825420650335151 0.4764787231510025
2560000000.0 -0.23346315143152999 -0.45821251470029745
2580000000.0 0.49808892190052634 0.223602312560968
2600000000.0 -0.5532974931795329 0.15091994750272894
2620000000.0 0.4080166125912365 -0.4338857687327949
2640000000.0 0.0571528588104956 0.610117001463245
2660000000.0 -0.5758183821538387 -0.24631110118796268
2680000000.0 0.24809724206921643 -0.5842304974930436
2700000000.0 0.6394192397077935 -0.05007305152079467
2720000000.0 0.6043178266911722 0.22342108937110816
2740000000.0 0.48418448340164183 0.42681264539677627
2760000000.0 0.48324007917143813 0.4245272913978144
2780000000.0 -0.6002009825567536 0.210196134494878
2800000000.0 -0.6123832970591176 -0.13873434953164562
2820000000.0 -0.11902433213955252 -0.6034042067276779
2840000000.0 0.5575303935833253 0.22834167325456112
2860000000.0 -0.5700296535257737 -0.15908902853887993
2880000000.0 0.4985169992694972 0.29020327153923575
2900000000.0 0.11858520450398222 -0.546679980742339
2920000000.0 -0.5132127122294627 -0.16766648707102932
2940000000.0 -0.3590273884565322 0.3704213859218778
2960000000.0 -0.09274115021776182 0.4856206904077682
2980000000.0 0.4031261432873116 0.24971592539191398
3000000000.0 0.2672348831460743 -0.361502930444325
3020000000.0 -0.40056589880196175 -0.13993318958012033
3040000000.0 0.1560638991500097 0.36764923259201737
3060000000.0 -0.0807790413452103 -0.36725766511797325
3080000000.0 -0.007761610318310707 0.3504084999875868
3100000000.0 0.177223549955792 -0.28171301890003914
3120000000.0 -0.12736451470364568 -0.29986434617549196
3140000000.0 0.22765911193389932 0.21777173893303528
3160000000.0 -0.004598779141762298 -0.3136072863920757
3180000000.0 -0.047619158723367305 0.31168543325573
3200000000.0 -0.018740727149611402 -0.3058280921464699
3220000000.0 -0.29218487378110514 0.032350659002555404
3240000000.0 -0.27368752135284924 0.04807679784332427
3260000000.0 -0.13362663650363635 -0.22818306295432947
3280000000.0 0.08909678045189393 -0.23024188275653432
3300000000.0 0.002241186643856073 0.23185816392326256
3320000000.0 -0.2099395861294061 -0.032201897096041016
3340000000.0 0.09351452970338515 -0.16891172091847617
3360000000.0 -0.15241640811139404 0.07299507315865404
3380000000.0 0.09368379583329434 -0.10908309005026175
3400000000.0 0.11952149069140583 -0.02267273376895838
3420000000.0 0.10732615671600963 -0.022643033971939584
3440000000.0 0.06202054743195535 -0.07993100644688425
3460000000.0 -0.08299598587644151 -0.0522969969483588
3480000000.0 -0.006568381822545068 -0.08639436439704809
3500000000.0 -0.028795072674294698 0.06763762907423412
3520000000.0 -0.05111564694326502 -0.04490651757677437
3540000000.0 -0.021920488549150824 0.06025566766356737
3560000000.0 0.01806001909082858 0.06321333394817452
3580000000.0 0.06814922181353916 -0.030562328366550724
3600000000.0 -0.07830679289647434 -0.030791535092088672
3620000000.0 -0.021559877645675345 0.09439777479279847
3640000000.0 0.05933462046346558 0.08604125793750673
3660000000.0 -0.004052381688913298 -0.10334668799416209
3680000000.0 0.016837202051114785 -0.09863358619052971
3700000000.0 -0.03954655249856969 -0.08503174742587376
3720000000.0 0.08554132286060792 0.004694632822811518
3740000000.0 -0.012831288741125104 -0.0744055346058607
3760000000.0 -0.05475212633609315 -0.04383878883191688
3780000000.0 0.057085727982249854 -0.012571672756428615
3800000000.0 0.04379198318038828 -0.013916181975679558
3820000000.0 -0.0360186397889253 -0.0033150453355958436
3840000000.0 -0.053975938847536875 0.0034661573936348067
3860000000.0 -0.05839563885625266 -0.04615217767156449
3880000000.0 -0.09123632764064753 0.03200760132829664
3900000000.0 -0.10209214266392613 -0.01515473525559178
3920000000.0 -0.06770734536223784 0.07998371320391078
3940000000.0 0.10663532519959326 -0.011024629290194316
3960000000.0 -0.09023781694302674 -0.055884327100788514
3980000000.0 0.07658126371514375 0.05706858283884961
4000000000.0 0.08270668171621103 -0.005815890541724488
