!Created with skrf (http://scikit-rf.org).
# Hz S RI R 50.0 
!freq ReS11 ImS11
400000000.0 -0.7143476559879437 0.09827880142584694
406500000.0 -0.4462261544383705 -0.5542508208006177
413000000.0 0.31361876952487 -0.6140156463275411
419500000.0 -0.6755203539897681 0.020388836403627937
426000000.0 0.40289072153552635 -0.5195350787334068
432500000.0 -0.250815620469647 0.598412800991912
439000000.0 -0.3769362056735016 -0.5163008795683174
445500000.0 0.6235906781008772 0.03093986187702292
452000000.0 -0.4399523574593013 0.4130739654428235
458500000.0 0.24178831118897398 -0.5400227795167539
465000000.0 0.0646990608029349 0.5871816184699605
471500000.0 -0.38566360621672163 0.44271381568516355
478000000.0 -0.3527213118244893 -0.46438876640211385
484500000.0 0.34207131631763776 -0.47387577209272136
491000000.0 0.14276231898667294 -0.5623981797120097
497500000.0 -0.4134066879739747 -0.38751135006384574
504000000.0 -0.43397713764566603 0.31885750290003134
510500000.0 0.03664136329643839 0.5063118168555824
517000000.0 0.4643450280458969 0.044585803194774426
523500000.0 0.3753548525928617 0.2274649365670357
530000000.0 0.4064832250881846 0.027220839751316433
536500000.0 0.29956381255040737 -0.21382117064721273
543000000.0 0.35026427265676796 0.03215978155069017
549500000.0 0.21981053384278612 0.24935461823012647
556000000.0 0.3057705079303169 -0.07261904966809184
562500000.0 0.05365991571572323 0.2901449526288547
569000000.0 0.22526336842138814 0.18844210479109247
575500000.0 0.13368185018342982 0.25323849421228045
582000000.0 0.2559321532193347 -0.13005202046277306
588500000.0 0.009821625534586684 -0.29191668088753847
595000000.0 -0.21468411769220183 0.21045380604542677
601500000.0 -0.22714941681022505 0.19722053503250309
608000000.0 -0.15374033449254185 0.2564986271337672
614500000.0 -0.2713012495957074 0.12664069269676476
621000000.0 -0.27030678301795596 -0.10396019192869371
627500000.0 0.018524098128908227 0.29227178304867724
634000000.0 -0.30104718666481645 -0.029216693349972234
640500000.0 -0.14168029004440885 -0.2605754819060638
647000000.0 0.30068949932297906 -0.04445456638769572
653500000.0 0.3069545932352527 0.021214891135079166
660000000.0 -0.055997829434815294 0.2942188664811326
666500000.0 -0.1446130107718034 -0.2569909532507519
673000000.0 0.287760802183452 -0.05089555643464334
679500000.0 0.12343542077387955 -0.26249089020466265
686000000.0 0.06443501476679753 0.2760193686058335
692500000.0 -0.20199418945188977 -0.19913808325827356
699000000.0 0.279770896336269 -0.037778057237093925
705500000.0 -0.2778783076155219 -0.049594013184335456
712000000.0 0.18886960596952806 -0.21538931389407023
718500000.0 -0.25057107806810486 -0.13312941389760882
725000000.0 0.16875630149629922 0.2411340145539906
731500000.0 0.09107105151630746 -0.2821306797955319
738000000.0 -0.24758902419902296 0.1851174930026093
744500000.0 0.019124399198722483 -0.3115935477057134
751000000.0 -0.148677295616371 0.2843262229529546
757500000.0 0.2452330050327434 -0.22073781389689123
764000000.0 -0.3402212433843872 0.01672321634510929
770500000.0 0.1322542507016854 -0.32453091784258864
777000000.0 -0.2472506632221696 0.254921880885163
783500000.0 0.10499731349031642 -0.3410696074093332
790000000.0 -0.34003553523293645 0.12209726602377054
796500000.0 0.33404409259650575 0.1525614051118156
803000000.0 -0.1798110945658498 -0.31884355530095587
809500000.0 -0.13590454301537402 0.34696533947372804
816000000.0 0.1532022229693704 -0.3454611978212992
822500000.0 -0.3760111157948467 -0.07632114804568525
829000000.0 -0.36489415548846876 0.1452754562085147
835500000.0 0.295724622281641 0.26750746428889866
842000000.0 -0.05616645759725776 -0.40882369083400316
848500000.0 -0.38870447123493607 0.13658595913172722
855000000.0 0.4017106808093301 -0.12372484316271824
861500000.0 -0.3414893446615461 -0.24311211027856117
868000000.0 -0.005517818267661866 0.43049476459768254
874500000.0 0.009840666108094415 -0.4307077156799568
881000000.0 -0.18820629922103296 0.3925323263590708
887500000.0 0.17539416034717983 -0.40361213601537105
894000000.0 -0.12374090031157933 0.4225521705725802
900500000.0 -0.37244045023501465 -0.23281747832173547
907000000.0 0.1252381374019075 -0.41507560901496743
913500000.0 0.334304266597742 0.26229993882987784
920000000.0 -0.01871082085259174 0.41392581504346954
926500000.0 0.0959000584840213 0.3928498003078252
933000000.0 -0.1370239232297589 0.35951176948639924
939500000.0 -0.07860879589822492 0.35822545871646444
946000000.0 -0.09983135812780165 0.3280018331613231
952500000.0 -0.09620607183639217 0.30278516895051666
959000000.0 -0.19613048486081547 0.2232622075208562
965500000.0 -0.2584894515620197 0.10962125877793617
972000000.0 0.2688766005249466 0.024397905480693868
978500000.0 0.00555914525422324 0.26053901120889167
985000000.0 -0.19346514244091437 0.15283061105937784
991500000.0 -0.21604689677912695 -0.09094503838446295
998000000.0 0.21726427688997973 0.02272054015841793
1004500000.0 -0.16236304306515326 0.12941317381699025
1011000000.0 0.12295710981698044 -0.15673404531062257
1017500000.0 0.08742354863990505 0.16600163844042973
1024000000.0 -0.16552932514434973 -0.04807720706768419
1030500000.0 0.08772219669826894 -0.1317684338937785
1037000000.0 -0.14181255816910995 -0.031333209193465036
1043500000.0 -0.030348131583643693 -0.13040912333302945
1050000000.0 0.07861362093961169 0.10296045811550283
1056500000.0 0.1172734407904373 -0.041871302291187226
1063000000.0 -0.11954418345462227 -0.001736556807904551
1069500000.0 0.08099409858062998 0.08089014190272588
1076000000.0 0.011287773566013943 -0.1094387094698589
1082500000.0 -0.04061660534466749 -0.09740749168948461
1089000000.0 -0.03172323864570649 -0.09887857566395188
1095500000.0 -0.0976148908656631 -0.02798347744349044
1102000000.0 0.10294814874625996 -0.032244923098895026
1108500000.0 -0.051913551676124506 0.10118932134531389
1115000000.0 0.08703471297348257 -0.08863920278128129
1121500000.0 -0.037775113872428316 0.13225613585503004
1128000000.0 -0.04589445914231035 -0.14730201074337193
1134500000.0 0.08279104774612411 -0.14758639546122385
1141000000.0 0.060473166943727834 0.1734450785567563
1147500000.0 0.059866406938838324 0.18615528761389943
1154000000.0 -0.1969268898996068 0.04970189628329297
1160500000.0 0.07012660339934684 -0.19925573857935824
1167000000.0 0.1748320342685004 0.12680052948705828
1173500000.0 -0.1644884088976652 -0.143068991029548
1180000000.0 0.1813814980467413 0.12752422144656184
1186500000.0 -0.08808396495355747 -0.20549386016365692
1193000000.0 -0.23184003100517914 -0.009286104128286857
1199500000.0 0.23989030350806245 0.014433488288736317
1206000000.0 -0.12759008078294173 -0.21237980276619867
1212500000.0 0.06263997454676826 0.25173623871373424
1219000000.0 0.053203425749772416 -0.2679244902127174
1225500000.0 -0.09962374177614866 0.2625468306884168
1232000000.0 0.16541977346971987 0.24516183726017704
1238500000.0 0.28275063992556865 -0.11515340598401079
1245000000.0 -0.13106407349855748 -0.28217858592763734
1251500000.0 -0.2748568094850939 0.16338068787657953
1258000000.0 0.10978178620715046 0.3055944530546485
1264500000.0 0.149492212223627 0.2880675119356629
1271000000.0 0.3260868805219051 0.026337004194253173
1277500000.0 0.3329567764069954 -0.029179677823648872
1284000000.0 0.3349898866829624 -0.06225082842611231
1290500000.0 0.17337394390431657 -0.2977596958235813
1297000000.0 -0.20429014681029506 -0.2838469504007994
1303500000.0 -0.3477713590329302 -0.03174551066980269
1310000000.0 -0.013685359394204833 0.34981307329011585
1316500000.0 0.34604116647779815 -0.030860913875724632
1323000000.0 -0.15633224486334385 -0.3089308995877111
1329500000.0 -0.004135784510009585 0.34312109759041737
1336000000.0 0.31077502906605275 -0.13586490098214302
1342500000.0 -0.2769603262608903 -0.18819127796266788
1349000000.0 0.0924964912950841 0.3195842231177585
1355500000.0 0.3069565867107793 -0.12631743572715942
1362000000.0 -0.3071315043063382 -0.12601570772761653
1368500000.0 0.1124414610236536 0.31679126210504194
1375000000.0 0.09525791665195485 -0.32878534585654634
1381500000.0 -0.11636905206412525 0.32528831201197317
1388000000.0 0.28242765924718727 -0.2088125405676291
1394500000.0 -0.3498459945567899 -0.045696586200339916
1401000000.0 -0.34484972424931504 -0.08294459548195017
1407500000.0 -0.2415239359932671 0.26578551344041584
1414000000.0 0.02452623954515978 0.36391249433308837
1420500000.0 0.27880511059275676 0.2450989693731524
1427000000.0 0.37391174659425047 0.014769043803230289
1433500000.0 0.3729646614779852 -0.06031332059271239
1440000000.0 0.2758455637529259 -0.25716998118774426
1446500000.0 0.33545986966203284 -0.17571556455839163
1453000000.0 0.297726204468366 -0.23173248457209256
1459500000.0 0.29145420971076214 -0.2365627741600062
1466000000.0 -0.05158954912080446 -0.36775465225035875
1472500000.0 -0.33862590858850666 -0.14318565019070828
1479000000.0 -0.2401739138349452 0.2691613731892679
1485500000.0 -0.030259919846248644 0.3510170907721909
1492000000.0 0.2902318256083581 0.1788499227930798
1498500000.0 0.04965566990742471 -0.32552398174124303
1505000000.0 -0.14608854719003453 -0.28355840714909913
1511500000.0 -0.3054899841487137 0.041131374925011295
1518000000.0 -0.05860011220827945 0.2904734808083726
1524500000.0 0.2692634532308932 -0.10638524743374718
1531000000.0 -0.23839571996133585 -0.1448087663542375
1537500000.0 0.05067516087967518 0.26821375293981387
1544000000.0 0.047074750884075686 -0.2631936945713705
1550500000.0 -0.010015982250521986 0.26765287768953044
1557000000.0 0.14286178541702632 -0.22059067539536034
1563500000.0 -0.26149724120044177 0.029049854902347183
1570000000.0 -0.2218730671779034 0.14089318102598544
1576500000.0 0.09938568168033841 0.2426341424880702
1583000000.0 0.22432230371999792 -0.1400329372955215
1589500000.0 0.037621033423486515 -0.259376151843439
1596000000.0 -0.11644495291892237 -0.23149252400009707
1602500000.0 -0.22059289963499062 -0.13209935847862797
1609000000.0 -0.1002546754265428 -0.2353229913088088
1615500000.0 -0.03981364012707233 -0.2472678476214165
1622000000.0 0.24701759432656523 -0.00012942639140554126
1628500000.0 0.2436421220581287 -0.010185923507410821
1635000000.0 0.16808607002095444 0.1692759178167958
1641500000.0 0.17829977815960785 0.14845567310624197
1648000000.0 0.12308782618316107 0.18743282782222384
1654500000.0 0.04551391692451765 0.20910930828632734
1661000000.0 0.1447250695816613 0.14192923173882
1667500000.0 0.11520107207909785 0.14972988228080772
1674000000.0 0.1672802766689905 -0.048313838022373976
1680500000.0 0.13253622403216614 0.08265695161117612
1687000000.0 0.09022645464346356 0.11259853070515578
1693500000.0 0.1311227136066245 0.021349525833371328
1700000000.0 -0.01437217778932501 -0.12483557934542744
1706500000.0 -0.11688122248847878 -0.030199667930973895
1713000000.0 0.0645564809502878 -0.09743073938654023
1719500000.0 0.015146542415121674 0.11290375216697655
1726000000.0 0.020836968825079728 0.11021829744108122
1732500000.0 -0.016496785096398126 0.10798042853210739
1739000000.0 -0.1007164827249663 -0.034545958544247315
1745500000.0 0.10065053034800292 0.02393134870991585
1752000000.0 -0.10196933952704748 -0.0012294874380953862
1758500000.0 -0.09907509061379528 0.019734900390868403
1765000000.0 -0.04453441494723462 0.0911904488363904
1771500000.0 -0.09444745944624332 -0.03897269938232535
1778000000.0 -0.05352587382676568 -0.08931395352526968
1784500000.0 -0.01017184005546189 -0.10704689983205039
1791000000.0 0.09490550580606912 -0.0556230134126424
1797500000.0 0.06480149849160058 -0.09064141887516433
1804000000.0 -0.07990074631751988 -0.07436648577845828
1810500000.0 -0.07678079116344383 -0.07094742773192955
1817000000.0 -0.08736860341138052 -0.039627478235949316
1823500000.0 -0.07890647100747836 0.02747860558951985
1830000000.0 0.07113530627991459 -0.010578613301395675
1836500000.0 -0.05342836852170419 -0.033469259279577765
1843000000.0 -0.046509093485000694 -0.02461147441371153
1849500000.0 0.04608546341705822 0.0042860111301395885
1856000000.0 0.036993452079651754 0.003320561693677124
1862500000.0 -0.0295096452243217 -0.011377599874430364
1869000000.0 -0.02566814511556005 -0.008885659860022481
1875500000.0 -0.016336121855987023 0.015842986281043085
1882000000.0 -0.00604218754554652 -0.012287840121259068
1888500000.0 0.0013239577461326287 0.011330378187473875
1895000000.0 -0.01077962318318113 -0.0026077458011165007
1901500000.0 -0.014002880864192293 0.008702520144724224
1908000000.0 -0.01050298792657137 -0.01548653497520339
1914500000.0 -0.018078912406677528 -0.01267272396098391
1921000000.0 0.010499292438823556 0.018635621402029134
1927500000.0 -0.012127120811548436 -0.016835889965141987
1934000000.0 0.019174974433035688 -0.0060037045798982305
1940500000.0 -0.020697008608471148 0.007185086529402924
1947000000.0 -0.0254895186563457 0.0075267550626322635
1953500000.0 0.005237228773113263 -0.029589086437585708
1960000000.0 0.005774541154880334 0.03245336541454113
1966500000.0 -0.033454535690893905 0.026617450439025622
1973000000.0 0.017324754665401232 0.05103145041529601
1979500000.0 -0.06337815886107984 -0.006246767380374876
1986000000.0 -0.01726391474540214 0.07617557469740949
1992500000.0 -0.004394010071084893 0.08828413477030414
1999000000.0 0.08227106060627151 0.05657713433053969
2005500000.0 0.1088298393066333 0.008560372584396257
2012000000.0 0.11677237848027494 0.005418723193797302
2018500000.0 -0.04421446727558022 0.11376238466802198
2025000000.0 -0.10455026071841296 -0.07815319536533098
2031500000.0 0.0378048618510403 -0.13052559677186779
2038000000.0 0.0777420540761965 -0.11852252877053453
2044500000.0 0.08089284667279045 0.12051742590387629
2051000000.0 0.1280518047551874 0.06932835247677784
2057500000.0 -0.11018753972183713 0.09464873882272003
2064000000.0 -0.015678028105909275 -0.13378398087420448
2070500000.0 0.08665161901857456 -0.10264255257663785
2077000000.0 -0.08167261235964661 -0.10099076846667197
2083500000.0 -0.12403730541500405 0.026189918780337353
2090000000.0 0.11954040007509899 -0.032538740347359804
2096500000.0 -0.058852721342485724 0.10805579631172028
2103000000.0 -0.0580392924203907 0.10601775102511071
2109500000.0 0.01880807184385004 0.11668614974968684
2116000000.0 0.08084445141392692 -0.08315021884954434
2122500000.0 -0.09942140820736801 -0.06925668547800766
2129000000.0 -0.11335823870334391 0.0600673010203306
2135500000.0 -0.129336314874432 0.03925427451005577
2142000000.0 0.1388615333375281 -0.04365768985912308
2148500000.0 -0.15644538688685328 -0.018196242855162744
2155000000.0 0.1697149226716983 -0.017494079923117193
2161500000.0 -0.16213289628537975 -0.08525750027680708
2168000000.0 -0.07683202577225631 0.18079810580793962
2174500000.0 0.05113162862138143 0.20167240264451622
2181000000.0 0.144971265865276 0.16363050731183976
2187500000.0 0.22203924330553246 0.0574125052732448
2194000000.0 0.22604574768011798 0.0681458169114111
2200500000.0 0.2333454031866904 0.07246357132452864
2207000000.0 0.24487960344119666 0.030306319074384896
2213500000.0 0.1750283397135434 0.17635178014215963
2220000000.0 0.04671083312131615 0.24292220654916763
2226500000.0 -0.15027398350458523 0.19059500266543716
2233000000.0 -0.2226235601794913 -0.08661311844663014
2239500000.0 0.04561580981923366 -0.2304958000718018
2246000000.0 0.06971016127332749 -0.21812305195150708
2252500000.0 0.12985137458653734 -0.1821514718317185
2259000000.0 -0.006330015651998374 -0.21802840504548976
2265500000.0 -0.17500632978098216 -0.11639723748971433
2272000000.0 -0.12653328366605482 0.15685595203582137
2278500000.0 0.1609615980642766 -0.10375340983702737
2285000000.0 -0.1616324062075484 -0.080413568844264
2291500000.0 0.16108792282348183 0.05212850105811023
2298000000.0 -0.03920666039003739 -0.1546940411811481
2304500000.0 -0.06367999540886404 0.14067646432669847
2311000000.0 0.1304285967097354 -0.06822945409449704
2317500000.0 0.13470062180055195 -0.057660380469704654
2324000000.0 -0.14860867780858203 0.013733559138832951
2330500000.0 0.1286067510011113 -0.07755361582254847
2337000000.0 -0.11511582556509675 0.0994769426529061
2343500000.0 0.07615321150747961 -0.13323696347090586
2350000000.0 -0.09679375959689997 0.1203385980178413
2356500000.0 0.09893162001117173 0.11823796253513144
2363000000.0 0.1468078371231897 -0.05283634242441479
2369500000.0 -0.002209299906837886 -0.15305649996647788
2376000000.0 0.12351385718424453 -0.09035028036895544
2382500000.0 0.10229152668167776 -0.11326360169962006
2389000000.0 0.15250145562200454 0.01677431184692573
2395500000.0 0.11236107440590432 0.10328520678616532
2402000000.0 0.06996252564184557 0.1346817515386956
2408500000.0 0.07145729614362456 0.13614765655847377
2415000000.0 0.11334466996790152 0.10246927407985516
2421500000.0 0.11007833320285053 0.10632616782995703
2428000000.0 0.14032782524864917 -0.055485049466739864
2434500000.0 0.09600173583790897 -0.11295299634164543
2441000000.0 0.03027464238398174 -0.14378446303013523
2447500000.0 -0.13060363260588914 -0.06505545996300394
2454000000.0 -0.13592508241746387 0.05200863780008282
2460500000.0 -0.07734727093277512 0.12098532450281285
2467000000.0 -0.04902999083209391 0.1355888664341737
2473500000.0 0.012528243239078663 0.14283735535132627
2480000000.0 -0.09255703709636502 0.1098119562505192
2486500000.0 -0.14314787949686159 0.01318076429410062
2493000000.0 0.03458720282880098 -0.14065960049617904
2499500000.0 0.12907025460408258 -0.06820589605107301
2506000000.0 0.09053810537101184 0.11881935871103347
2512500000.0 -0.13929715982307286 -0.05251911808962248
2519000000.0 0.12556946757331316 -0.08727752582827265
2525500000.0 -0.11031335008483227 0.11044949635377255
2532000000.0 -0.02860798790385047 -0.15688789066215347
2538500000.0 -0.05627816018093241 0.1479614557775151
2545000000.0 -0.026783532334670856 -0.15557751315766855
2551500000.0 -0.1417502385612328 0.05654589425853131
2558000000.0 0.10942005122986498 0.10275631045159649
2564500000.0 0.09723889694029123 -0.11703293543140256
2571000000.0 -0.11169584949739454 -0.09726410883070095
2577500000.0 0.0053036399547386785 0.14829377000515662
2584000000.0 0.12324557196122221 -0.08028987904612826
2590500000.0 -0.12316363581381437 -0.0783644545658871
2597000000.0 -0.03849496671983175 0.13736473536434346
2603500000.0 0.13874384173814874 -0.01403882111188643
2610000000.0 -0.10743094758797565 -0.0778157214067298
2616500000.0 -0.09090173421079269 0.09420248167248699
2623000000.0 0.12213956374309252 0.02583753579583353
2629500000.0 -0.11880319191773707 -0.029276532576489784
2636000000.0 0.11041384892438048 -0.03204579553992844
2642500000.0 -0.09727185957171493 -0.04500431045205269
2649000000.0 0.04598295803371843 -0.09258461451210469
2655500000.0 0.06609501305644597 0.06978446363490189
2662000000.0 0.03902361041789192 -0.08043960477159476
2668500000.0 -0.009067706039366201 0.08549106392741943
2675000000.0 -0.040207928297926736 0.06963986870973557
2681500000.0 -0.04049219567509247 0.06097409765455716
2688000000.0 -0.04064232505246176 0.05816177169280678
2694500000.0 0.07029082045084423 0.010771571799620796
2701000000.0 -0.07242798673022088 0.012658725420170287
2707500000.0 -0.08280759470716223 0.000390821586867263
2714000000.0 0.08425270294644999 -0.03460322870985014
2720500000.0 -0.08058785211462166 -0.06790046724697484
2727000000.0 -0.0990855012700472 0.06335800707423099
2733500000.0 -0.1018451123096879 0.08301642542808142
2740000000.0 -0.11158780542360765 0.0939737496635303
2746500000.0 -0.10742741460039741 0.11656304536242165
2753000000.0 -0.15219810871774525 -0.0769337263938722
2759500000.0 0.026370448069755564 -0.17757714025621102
2766000000.0 0.11794924545521808 0.14894271760327454
2772500000.0 -0.19598788614034776 -0.024520214585104765
2779000000.0 0.1947332842314908 0.0700529865523602
2785500000.0 -0.21308026468451532 -0.025005501777964106
2792000000.0 0.2162608967158223 0.04778688730276565
2798500000.0 -0.18952969338501832 0.12984946978734233
2805000000.0 0.08729961736600805 -0.2169172513707156
2811500000.0 0.19715224875301476 0.13964881230622567
