!Created with skrf (http://scikit-rf.org).
# Hz S RI R 50.0 
!freq ReS11 ImS11
400000000.0 0.24483988436319826 -0.8166065172072191
420000000.0 0.49464743676309275 0.6108325378726693
440000000.0 0.7757246742932191 0.0023957395812713314
460000000.0 0.2767967954374268 0.5872622085204865
480000000.0 -0.48352405165585316 0.42150827644235767
500000000.0 -0.5225769165442575 0.3006537487657555
520000000.0 0.6106138979798623 -0.1354295041053358
540000000.0 0.1648449033436349 -0.5617417850475428
560000000.0 0.3872318188803598 0.42615390894699146
580000000.0 0.5798590166577114 0.0835596716004443
600000000.0 0.6146098429588571 -0.054686782344693645
620000000.0 0.6068920921749756 -0.09778845552275525
640000000.0 0.5531287322059021 -0.16443159070230207
660000000.0 -0.35991104378925076 -0.40753560602173555
680000000.0 0.22331547513196412 -0.46449218818771876
700000000.0 0.27668024634479055 0.43108481891895156
720000000.0 0.49875003106123544 -0.16450634179751022
740000000.0 -0.06302514792547133 -0.47468411673311117
760000000.0 0.10163129231040328 0.44745416421454653
780000000.0 -0.19989162947390865 0.4011257239197552
800000000.0 0.2519052861665679 0.31839447175074603
820000000.0 0.22026953785267925 0.28850145625860113
840000000.0 0.2029926123201522 0.26076921265973635
860000000.0 -0.3205226013751392 -0.008940607290088208
880000000.0 -0.25527058500417 -0.12778037372564424
900000000.0 0.061764546784935634 -0.27059100431984107
920000000.0 0.15790321660504536 0.21140293227941545
940000000.0 0.11354722464931223 0.18607228226692293
960000000.0 0.17501923523650098 0.044674567675816505
980000000.0 -0.1394229286918292 -0.050527988435128346
1000000000.0 0.05470180727895752 0.11558390328766656
1020000000.0 -0.10968211371016624 -0.02493068818770306
1040000000.0 0.002082526016264533 -0.13813797506648634
1060000000.0 0.15827274224107202 0.032167560404478074
1080000000.0 -0.10208942039188933 -0.17798000536674546
1100000000.0 -0.2413190812038002 -0.007340385398819065
1120000000.0 -0.22189406706155138 0.18456045485026365
1140000000.0 0.29614245615898255 0.005589254262054856
1160000000.0 -0.002848072617324879 0.3239415358606625
1180000000.0 0.30432435920648615 0.15890168221934511
1200000000.0 0.05621723886488125 0.33457972389830304
1220000000.0 0.15627635824739988 -0.32043321450484963
1240000000.0 0.01762119222833138 -0.3737468790831183
1260000000.0 -0.37681826935507684 -0.05725302924646995
1280000000.0 -0.14730166964531882 0.3370463728784517
1300000000.0 -0.1694870801929861 -0.32105182540429367
1320000000.0 -0.25964971594180986 -0.25810869086141636
1340000000.0 -0.33012313726924664 0.1330224667043667
1360000000.0 -0.30753019177130514 0.2024779649994847
1380000000.0 -0.3762013844994125 -0.09289777299060926
1400000000.0 -0.16680184977146487 0.33647732334133384
1420000000.0 -0.13397205034921117 0.3607613105687577
1440000000.0 0.3342204964586301 0.198760037017905
1460000000.0 0.35999205620729646 0.15958508657816076
1480000000.0 0.34393544208672566 -0.2136971000769116
1500000000.0 -0.3968900613707663 0.07486505087260588
1520000000.0 0.13237414993893384 -0.36887318645841766
1540000000.0 -0.016778829899020097 0.37041698404282775
1560000000.0 -0.335549248644984 -0.007331103859096127
1580000000.0 0.2860486853347991 0.08583032324612822
1600000000.0 -0.011296383737382463 0.2709382265340132
1620000000.0 -0.03254745486234399 0.2282871760716629
1640000000.0 0.0656582872409992 0.18500985774942755
1660000000.0 0.17545323941077626 0.027275357563447823
1680000000.0 0.03823727203634438 -0.13920283649927848
1700000000.0 0.07335857083146002 -0.09670739242970497
1720000000.0 -0.04239911616977253 0.08004875746369587
1740000000.0 -0.019063758151463026 -0.07532732104158611
1760000000.0 -0.023316065699159016 0.07460101157012514
1780000000.0 0.03827686400572922 0.09078564288780959
1800000000.0 0.031752223006016295 0.11743407871557839
1820000000.0 0.08073560665887444 0.12951364435063753
1840000000.0 -0.007815891053685157 -0.18590487747055193
1860000000.0 0.22057006428918563 0.04082955518845399
1880000000.0 0.212489022645918 -0.141939102084792
1900000000.0 -0.1427541287944531 -0.24330620915459053
1920000000.0 0.29566781794527036 0.08482739392478959
1940000000.0 -0.3138644985878613 -0.028173709347471515
1960000000.0 0.29415714332406034 0.11375943299641003
1980000000.0 -0.2994294728017896 0.12874512601073368
2000000000.0 -0.25194311858350593 -0.20748734824478712
2020000000.0 0.266474112924619 -0.18667224427288368
2040000000.0 0.23922810576773343 -0.22900621574957095
2060000000.0 0.22064496132418582 -0.23816825459397165
2080000000.0 0.25578296292149316 0.19722702650418444
2100000000.0 -0.2447720716470025 -0.19774493315911698
2120000000.0 0.15877915990829186 0.2638096063423019
2140000000.0 -0.01722380470125958 -0.3085501346106281
2160000000.0 -0.15669861279171252 0.25926934918704825
2180000000.0 0.23717287217447464 0.17471933898955572
2200000000.0 0.28751581341988935 0.02457102558461197
2220000000.0 0.22309080435499481 -0.17531433439150598
2240000000.0 0.2566733140919564 0.08800565735877038
2260000000.0 -0.21486770945580413 0.1403259640517167
2280000000.0 -0.20786334925313418 -0.14409676001720506
2300000000.0 0.1269961734176666 -0.20138708855191806
2320000000.0 -0.18566826933095365 -0.13603068997043974
2340000000.0 0.20883098502701877 0.08914841438716421
2360000000.0 -0.04237663950615102 -0.23210560042679235
2380000000.0 0.24471393452093124 -0.03839492967190312
2400000000.0 0.2503300180947974 -0.10583138768362127
2420000000.0 -0.2946282315671267 -0.038110562374457126
2440000000.0 0.17006797720620623 0.26529339546966874
2460000000.0 -0.25405570446681114 -0.2356050628099438
2480000000.0 -0.09182409242154199 0.36308432778453537
2500000000.0 -0.274350852436051 -0.30123008452369526
2520000000.0 0.36734718675633926 -0.2463530941214584
2540000000.0 -0.150339180638748 0.4482250557124687
2560000000.0 -0.2320566487468588 -0.4464957720170421
2580000000.0 0.343640860124043 0.4014444215741958
2600000000.0 -0.2972109557777885 -0.466604939585325
2620000000.0 0.24505691025560125 0.5203448891681097
2640000000.0 -0.1939770619698418 -0.5631516982572933
2660000000.0 0.32805141183950404 0.5198174974790126
2680000000.0 -0.6300967093833996 0.005444646398051902
2700000000.0 0.032274126985083036 -0.6432580009759646
2720000000.0 0.520283369105447 -0.3967241537726898
2740000000.0 0.6570053212688405 -0.08573865072832006
2760000000.0 0.6665988825795706 0.00804464437296897
2780000000.0 0.0216802463903778 0.6653039542274836
2800000000.0 -0.1936534421963717 0.6300284702539388
2820000000.0 -0.565597725175717 0.31850290895404665
2840000000.0 -0.41137104920680667 -0.48774901990988845
2860000000.0 0.6192008678607314 -0.06707096088150169
2880000000.0 -0.6027375646214226 0.04169746593649108
2900000000.0 0.3892658809730562 0.43448440341009215
2920000000.0 0.2946775326491322 -0.47377718072163283
2940000000.0 -0.15050337581142914 -0.5059528302680908
2960000000.0 -0.3312873960328131 -0.37526542995231343
2980000000.0 -0.3791111678555658 -0.2832520098360867
3000000000.0 -0.25828288239050906 -0.37110073867451354
3020000000.0 -0.3745101670130591 -0.20591121890252248
3040000000.0 -0.38271851745853885 0.1447479985332183
3060000000.0 0.13258079238517337 0.37484709820984774
3080000000.0 0.3176872631939219 -0.21523407085155602
3100000000.0 -0.07397214706790474 0.36562894257720635
3120000000.0 0.24299977395234051 0.2705351395686232
3140000000.0 -0.295825094676326 -0.20752353805801843
3160000000.0 0.349307320411594 0.05194557551503757
3180000000.0 -0.0781494640151072 -0.34544772646668764
3200000000.0 -0.019881506290262883 0.3522336491176854
3220000000.0 0.3456949021791204 -0.041453862155713575
3240000000.0 0.09418347130008559 -0.3287669229217314
3260000000.0 -0.24030329677004758 -0.2350264271317144
3280000000.0 -0.20953512487193401 0.24795270002783534
3300000000.0 0.0037473787376996973 0.3052324196440022
3320000000.0 0.06696693397634627 0.27384870507550646
3340000000.0 0.217047589425837 0.12417775427902268
3360000000.0 -0.07842292436604525 0.20483078034493354
3380000000.0 -0.08560893296788251 -0.17384504604349477
3400000000.0 0.0674688701301133 -0.15097032553129142
3420000000.0 0.13323738838552238 -0.033105493756744576
3440000000.0 -0.0819747095207569 -0.0791605343927934
3460000000.0 -0.07609707840809586 0.058504183464017846
3480000000.0 0.06570797746282817 -0.052789619042086275
3500000000.0 -0.080470195146756 -0.006825300684854211
3520000000.0 -0.017711193815432513 0.080415230908236
3540000000.0 -0.09185083901686858 0.0075500336841781155
3560000000.0 0.09821268340204381 0.008722241314430166
3580000000.0 0.08629612408883963 -0.061666482048151394
3600000000.0 0.012593639865134162 0.12090461724093976
3620000000.0 0.055173639450716336 -0.1149478877854712
3640000000.0 0.09598138386645513 -0.1076159586745149
3660000000.0 -0.15067876664965377 -0.011242006225334849
3680000000.0 -0.14633281641265494 -0.052447494362446924
3700000000.0 0.061837408955672794 0.13404717171810757
3720000000.0 0.10917205110701497 0.06338413072171833
3740000000.0 0.009673409847462995 0.10053450316760552
3760000000.0 0.07772178881811706 -0.010960807740226518
3780000000.0 0.03515122996445261 0.040762449065618676
3800000000.0 -0.021268117070537423 0.009885362022633766
3820000000.0 0.009133220045682693 -0.01206390049075692
3840000000.0 0.026491829937334954 -0.04665647140799585
3860000000.0 -0.0775752048022782 -0.03237298634498844
3880000000.0 0.10522539259263208 0.0037014365633625994
3900000000.0 -0.12821653970456912 -0.0073070482666701434
3920000000.0 0.07450005874240347 0.1183965157732744
3940000000.0 0.15381301750703422 -0.009553521266252805
3960000000.0 0.024906223510290912 0.1531699140460938
3980000000.0 -0.1149331613872744 -0.08597290621013584
4000000000.0 -0.058271392052076106 0.09942067702348255
