!Created with skrf (http://scikit-rf.org).
# Hz S RI R 50.0 
!freq ReS11 ImS11
400000000.0 0.24370010572155662 -0.817084415691316
420000000.0 0.501966874929203 0.604336158714141
440000000.0 0.7754995867364334 0.04138978198031483
460000000.0 0.26698927043490994 0.5912152130983056
480000000.0 -0.4586534238391488 0.44914344681126067
500000000.0 -0.5079132982820574 0.32657228513847647
520000000.0 0.6113249195723564 -0.1332023965224555
540000000.0 0.14479391625803817 -0.5680054003289343
560000000.0 0.3584769940091711 0.45016799542858066
580000000.0 0.5784750495752194 0.0904175553227708
600000000.0 0.6120407393324564 -0.07909040435369012
620000000.0 0.6096687147004647 -0.07735098664795073
640000000.0 0.5510219852405505 -0.17175708911229354
660000000.0 -0.37566511927010293 -0.3916900036858146
680000000.0 0.20048546997269998 -0.47545375036082804
700000000.0 0.2637571741595717 0.4402427494227261
720000000.0 0.4912814309935984 -0.18388603796362504
740000000.0 -0.03790050349231251 -0.4777431389186902
760000000.0 0.0953055251786802 0.44901635728982614
780000000.0 -0.16280266112178127 0.41789261263213073
800000000.0 0.21697772164692383 0.34463607466904317
820000000.0 0.23278253875605764 0.2770294082560819
840000000.0 0.17028362422001223 0.2848624468364528
860000000.0 -0.3180590365851903 -0.03369465349763619
880000000.0 -0.24973914430064653 -0.13705954525394368
900000000.0 0.046605256287035116 -0.2732178604439536
920000000.0 0.20992257496082903 0.1593392356449531
940000000.0 0.01909459454609742 0.2171779300299917
960000000.0 0.18049667578159226 -0.004286228306783474
980000000.0 -0.14178157553242737 -0.04355235641727557
1000000000.0 0.06089738709776355 0.11299448809512384
1020000000.0 -0.11379319713456175 -0.010518765297303924
1040000000.0 -0.03506116258971715 -0.1332598863744677
1060000000.0 0.1577204680522211 0.03644828722694915
1080000000.0 -0.04084648745840057 -0.20232849477875428
1100000000.0 -0.24088737137026048 -0.004032144376504305
1120000000.0 -0.17756719253717385 0.22730513527511587
1140000000.0 0.2948648205636759 -0.016837874872331446
1160000000.0 0.012846991051863767 0.3245109589596243
1180000000.0 0.31406716448607314 0.13646532692865326
1200000000.0 0.09632052122638649 0.32582672521023087
1220000000.0 0.14746069878136178 -0.32562778298224926
1240000000.0 0.058705673934034364 -0.3690267185766684
1260000000.0 -0.3803465213372999 -0.025176173874442712
1280000000.0 -0.12694412490927764 0.34544637946487006
1300000000.0 -0.16665899345347415 -0.3226254499012945
1320000000.0 -0.24239180379498207 -0.2738982614013412
1340000000.0 -0.32743142601450725 0.13991789557276652
1360000000.0 -0.27231336525965344 0.2473786723818311
1380000000.0 -0.37483738986773874 -0.0981747502671258
1400000000.0 -0.15704301152700342 0.3413608121069542
1420000000.0 -0.06227218539942892 0.3804184455499456
1440000000.0 0.3403489125108194 0.18690416990628786
1460000000.0 0.33647871890285763 0.20497425362771354
1480000000.0 0.3088874410946345 -0.2625926151288996
1500000000.0 -0.4027467159042531 0.027981450347141893
1520000000.0 0.2191205058514161 -0.32609886294826795
1540000000.0 0.007880579789916138 0.37051153432661316
1560000000.0 -0.3337554781399185 -0.03528010477382108
1580000000.0 0.28581832017520986 0.08690705230445278
1600000000.0 -0.0010372265410109895 0.2701725595529594
1620000000.0 0.04563246923339039 0.22491657542213436
1640000000.0 0.09957998587955733 0.16916988070152195
1660000000.0 0.17705405866754512 0.014718894149944829
1680000000.0 0.03535894722236427 -0.14028059368307388
1700000000.0 0.091574776615939 -0.07835018805896607
1720000000.0 0.0042624455010436425 0.09057737449870248
1740000000.0 -0.02389111132704547 -0.07482436875452388
1760000000.0 0.0020015826374259636 0.07846111246351879
1780000000.0 -0.020956401770068356 0.09600548813470984
1800000000.0 0.08230123191626575 0.09072687135727814
1820000000.0 0.06721238409002396 0.13632364329039626
1840000000.0 -0.007678972166134731 -0.18553774254163802
1860000000.0 0.22434496744617421 0.004664924866370205
1880000000.0 0.20819927033859403 -0.1480843986954075
1900000000.0 -0.14544343286983186 -0.24099156565867844
1920000000.0 0.3052373229612093 0.03861986936353576
1940000000.0 -0.31503883816575634 -0.019689241429537374
1960000000.0 0.29629536936924306 0.10757834060226862
1980000000.0 -0.2962321865608691 0.1358789384096529
2000000000.0 -0.24723180014529317 -0.21288443418203495
2020000000.0 0.26682529647859987 -0.18643253913488245
2040000000.0 0.23505479523332062 -0.2330337711924748
2060000000.0 0.25075767453570813 -0.20709935876573393
2080000000.0 0.268418404482656 0.1792062298880199
2100000000.0 -0.2553946962250188 -0.18370529147751044
2120000000.0 0.18287494053325906 0.2471642517488388
2140000000.0 -0.013253585668225085 -0.3088173348503732
2160000000.0 -0.13486022690384353 0.27124986225096803
2180000000.0 0.26666063666550954 0.12460861031548878
2200000000.0 0.2848804276368219 0.044648962392886356
2220000000.0 0.1958288366677709 -0.2055984906274973
2240000000.0 0.2661324110297047 0.05324354913828345
2260000000.0 -0.21078094580357282 0.14673489807465281
2280000000.0 -0.19645157461534193 -0.15874888282897015
2300000000.0 0.14458640137041723 -0.1901921282447606
2320000000.0 -0.19583927624914754 -0.11974848090892277
2340000000.0 0.20534379634403677 0.09718935655732454
2360000000.0 -0.01783738850220265 -0.23523235257737296
2380000000.0 0.24811597001383537 -0.006047199229693331
2400000000.0 0.23544307294033592 -0.13418566314653954
2420000000.0 -0.27261570551447706 -0.11870480889937436
2440000000.0 0.19318365960670533 0.2481534185967444
2460000000.0 -0.26922292533096115 -0.21822342224187982
2480000000.0 -0.07763848073430568 0.3663041134359504
2500000000.0 -0.29425354138200116 -0.28075026009438403
2520000000.0 0.3614281349152568 -0.2566167228282678
2540000000.0 -0.11835192200428639 0.4582411744366865
2560000000.0 -0.24124402923359164 -0.4413771813641273
2580000000.0 0.33190864908691114 0.4112236032203816
2600000000.0 -0.2934828737381405 -0.46948007704564715
2620000000.0 0.22602999450525374 0.5296315628405368
2640000000.0 -0.1521618871111399 -0.5758785208232448
2660000000.0 0.33758857310420537 0.5131799884104418
2680000000.0 -0.629271042973603 -0.0339985091849358
2700000000.0 0.04117174042163728 -0.6425128630923286
2720000000.0 0.51612011249711 -0.4016883712512811
2740000000.0 0.6463389642889547 -0.1439506023093826
2760000000.0 0.6590569295391294 -0.10318209075634188
2780000000.0 0.01029718295771634 0.6654458823839693
2800000000.0 -0.14878226030276318 0.6424334816544447
2820000000.0 -0.5610479672738145 0.32702271132934
2840000000.0 -0.4547414532061551 -0.447694545644532
2860000000.0 0.6222088475117308 -0.026436908179415845
2880000000.0 -0.6025865953866711 0.037171799784670626
2900000000.0 0.3981242015437578 0.426639114592629
2920000000.0 0.2928826568167997 -0.47524070871365703
2940000000.0 -0.10134839222543716 -0.5178005658859103
2960000000.0 -0.332129164100092 -0.37446562398701544
2980000000.0 -0.3882468163844071 -0.2714798457870995
3000000000.0 -0.2548185996911148 -0.37213003295981517
3020000000.0 -0.3692183131014663 -0.2136499085480674
3040000000.0 -0.40582785255845916 0.05501436562826675
3060000000.0 0.16894672222220192 0.35991035724337583
3080000000.0 0.2806262211564898 -0.26123529638813725
3100000000.0 -0.15829784789032794 0.33716708534158696
3120000000.0 0.1924936211252521 0.3084382847531574
3140000000.0 -0.33294669467365423 -0.14199118081111378
3160000000.0 0.3453588905814406 0.07305813295844847
3180000000.0 -0.1221093589494256 -0.3332351118651492
3200000000.0 -0.010534392023847063 0.352395923201241
3220000000.0 0.34811050681022715 -0.02063321622196882
3240000000.0 0.058251322832369994 -0.3368975420518015
3260000000.0 -0.23769918024330208 -0.2376113173581075
3280000000.0 -0.2471040444832542 0.21210859395296683
3300000000.0 0.014403697666798828 0.3042849080713038
3320000000.0 0.06094967181264949 0.27462954318522004
3340000000.0 0.2230553170073456 0.1150878267068023
3360000000.0 -0.1029717991426423 0.1935047738513987
3380000000.0 -0.07604773238276165 -0.17748804587204076
3400000000.0 0.08515915065660164 -0.14205421123288756
3420000000.0 0.13130834837853145 -0.039752906984505613
3440000000.0 -0.08339301779640568 -0.07694480437962846
3460000000.0 -0.07233303789748746 0.06317022753708842
3480000000.0 0.06383400870740366 -0.05602007384473515
3500000000.0 -0.08046491211967091 -0.0069351444537444525
3520000000.0 -0.017004434387439076 0.08025766832338344
3540000000.0 -0.09060752051053435 0.016529120646387722
3560000000.0 0.09813315401546994 0.0006402196642580467
3580000000.0 0.09822234196306824 -0.04118067773046301
3600000000.0 0.04375902180759114 0.11420595591341133
3620000000.0 0.07201811336258852 -0.10543272480152045
3640000000.0 0.09148038045010026 -0.11085465117234082
3660000000.0 -0.12436448696693225 -0.0859360276885587
3680000000.0 -0.15116085181389083 -0.03742344293244544
3700000000.0 0.06828339906970901 0.1295819755734798
3720000000.0 0.11116469632657243 0.059361620324439535
3740000000.0 0.03428094352194849 0.09516752094182836
3760000000.0 0.07793157824315873 0.0010730935864618916
3780000000.0 0.04981581513140817 0.01933885823247984
3800000000.0 -0.020648716750384658 0.01048877143017164
3820000000.0 0.015722582782610278 0.003545909756751233
3840000000.0 0.026711098478559212 -0.046487210047400446
3860000000.0 -0.06861493970395001 -0.04703275626491481
3880000000.0 0.08073612043781121 0.06774494711942912
3900000000.0 -0.12848381022530264 -0.0023357045110965727
3920000000.0 0.09071081527659942 0.10514632159817179
3940000000.0 0.15327057435895314 0.010458872962457585
3960000000.0 0.036559201322199336 0.15019303152132416
3980000000.0 -0.13693321281853488 -0.04474136348809057
4000000000.0 -0.0007703164963495088 0.11497976295788556
