!Created with skrf (http://scikit-rf.org).
# Hz S RI R 50.0 
!freq ReS11 ImS11
400000000.0 0.8380088361030905 -0.08130697705740356
420000000.0 0.25997114453053743 -0.7935602716381449
440000000.0 -0.5381830070815601 -0.5658821774432323
460000000.0 -0.1888416134775727 -0.7090335884746635
480000000.0 0.6184056667831241 -0.2418693313104613
500000000.0 0.5416595138399998 -0.3416287579305382
520000000.0 0.5350741143620492 -0.20260803130311092
540000000.0 0.47975146382203676 0.15080615438743672
560000000.0 -0.4477859682385045 0.14335089652664298
580000000.0 0.24705344996145862 0.34403348374311976
600000000.0 -0.26756400124410534 -0.2849854912381457
620000000.0 -0.24268742817996058 -0.2816550193419962
640000000.0 -0.3582561318406561 0.17939688708830268
660000000.0 0.35140737374648673 0.25952030888021516
680000000.0 0.21027171349468735 -0.39765108355094586
700000000.0 -0.08694675491828324 0.43294779853823895
720000000.0 0.4318784548781311 -0.02597659396921638
740000000.0 0.2730851921826302 0.30168275057379784
760000000.0 0.11429585788707877 0.36010864145717064
780000000.0 -0.3428481606135088 -0.06091740547792862
800000000.0 -0.05626701465963057 -0.3169055149998395
820000000.0 0.277649021334888 0.07880320202645048
840000000.0 0.20868875575021506 -0.043641529464750126
860000000.0 -0.020474089032229845 -0.17535075018090807
880000000.0 -0.10808618911087364 0.0728692803244024
900000000.0 0.06888687324966411 -0.08959123238197833
920000000.0 0.0685095007745719 0.04300441967487721
940000000.0 -0.03397779818032479 -0.019612794475605603
960000000.0 0.03567403952774204 0.03624778994784559
980000000.0 0.02623414000441062 -0.054596660107791115
1000000000.0 0.0718113367072014 0.01421251690812223
1020000000.0 0.02205246391451814 0.09887015231290955
1040000000.0 0.12128833947953101 -0.006379881064689395
1060000000.0 0.14039655733700532 0.06933469920600827
1080000000.0 -0.11730069488274274 -0.15183169004225178
1100000000.0 -0.19081301339044998 -0.10415678315254309
1120000000.0 0.033696647523991666 -0.25001335806918384
1140000000.0 0.28086348604774747 -0.00810529822679981
1160000000.0 -0.1633008836021013 -0.25434535216966914
1180000000.0 0.15110424770970138 -0.2784077328155835
1200000000.0 -0.33282362778285896 -0.009728968658912254
1220000000.0 -0.3266839216005736 0.15137729843482486
1240000000.0 0.34626190848817456 0.171116679929769
1260000000.0 0.14170845317455685 -0.38103657603156094
1280000000.0 -0.39768454958571525 0.13403249293628888
1300000000.0 -0.11616868253473059 0.4030060662078226
1320000000.0 -0.23173394966790156 0.3542557104598034
1340000000.0 -0.16795208722388105 0.4007098204056011
1360000000.0 0.424519618387774 -0.05828103657198055
1380000000.0 0.3287180279263422 0.24658995082736607
1400000000.0 0.3893269628124182 0.1045516643203348
1420000000.0 0.38629078814512574 0.003662933451795465
1440000000.0 0.2834948612980942 -0.25169748317103896
1460000000.0 -0.15020633783830556 0.3275411215272805
1480000000.0 0.029429540542784495 -0.3225320809398558
1500000000.0 -0.2787250052674359 -0.01912026530969117
1520000000.0 -0.15104624026761565 -0.2044109030361835
1540000000.0 0.16115769073146216 -0.15464715048272495
1560000000.0 -0.16334774629390775 0.07788753721137398
1580000000.0 -0.1314172426241686 0.06697378058477657
1600000000.0 -0.0754470706807316 -0.0991960459982949
1620000000.0 -0.002516027823075063 -0.10983089479728607
1640000000.0 0.07524489590140943 -0.03153042932328757
1660000000.0 0.049897863616899386 -0.010003661017849936
1680000000.0 0.011799465799055628 0.020680682969734205
1700000000.0 -0.008000671107948883 -0.008422260707595103
1720000000.0 0.022472902590754688 -0.021967619667324766
1740000000.0 0.023097295061307307 -0.04316119111277357
1760000000.0 0.05549704699019678 -0.04630184368849623
1780000000.0 -0.022341672236381647 -0.1068471149972628
1800000000.0 -0.1407990794733007 -0.03418719815186458
1820000000.0 0.029428181881893792 -0.17202548436346823
1840000000.0 -0.20594566169905676 0.014793535756527035
1860000000.0 0.04381389344345453 -0.24421810947535505
1880000000.0 0.20488585687180821 0.20052144929363463
1900000000.0 -0.2796071925363683 0.1423871721717359
1920000000.0 0.22904176193622613 0.25554669659425955
1940000000.0 0.0339026569843941 -0.37086796411556927
1960000000.0 -0.33846333289176744 0.20320424258108385
1980000000.0 0.32185025455358884 0.26598154252210826
2000000000.0 -0.14523069555027818 -0.4034242831488797
2020000000.0 -0.3982518874633068 -0.16866923379275572
2040000000.0 -0.4148398758389696 0.13844595108786215
2060000000.0 0.062147589927952065 0.4381673742743416
2080000000.0 0.3816870047610938 -0.21088692007536633
2100000000.0 -0.21506548048390295 -0.35946474243088555
2120000000.0 -0.251870966718132 -0.310582621856538
2140000000.0 -0.33795814873474544 -0.18974125102220735
2160000000.0 -0.1464920905718418 -0.33867740915581646
2180000000.0 -0.31101530558138624 -0.15491098745211546
2200000000.0 -0.32423516118079426 -0.0516507528373797
2220000000.0 -0.28505057087868185 -0.1353717784355577
2240000000.0 -0.253732783987971 0.18255527628246748
2260000000.0 0.07113674956739427 0.2957790556088205
2280000000.0 0.11227302197503393 0.2834503100468645
2300000000.0 0.3019010090429071 -0.08782693584029118
2320000000.0 0.023009626130264763 -0.3301935895684043
2340000000.0 -0.3576692676997863 0.04205078542144537
2360000000.0 0.364217348265572 0.1481549697189862
2380000000.0 -0.18624973414905113 -0.3949478535242911
2400000000.0 0.18971107003176055 0.44744711164778833
2420000000.0 -0.2831653450206788 -0.4564546520783658
2440000000.0 0.467698749706905 0.35986039180060303
2460000000.0 -0.6307766572343889 -0.09326412218315842
2480000000.0 0.6627756139975841 -0.14067382810347423
2500000000.0 -0.7076241664193269 0.05871064802309086
2520000000.0 0.7310695133962669 -0.04890127796116054
2540000000.0 -0.7375538830789087 -0.11620107769097864
2560000000.0 0.5603443766110648 0.5042236707006019
2580000000.0 -0.13359442370484068 -0.7398394051531274
2600000000.0 -0.39655217299027523 0.6264823471405936
2620000000.0 0.6294503930675502 -0.35932195540899536
2640000000.0 -0.04150976107592855 -0.7002652422843046
2660000000.0 -0.141089619757519 0.6560113718279447
2680000000.0 0.10312945574978226 -0.6283247877613864
2700000000.0 0.06199635617518363 0.5962976072316094
2720000000.0 -0.2732133654552919 -0.48807347893958014
2740000000.0 0.35944177837689395 0.3782059177673134
2760000000.0 -0.48523676964071666 -0.025372296572441687
2780000000.0 0.4243828148619346 -0.1647832399199618
2800000000.0 -0.3852269587227304 0.1948696664166379
2820000000.0 0.3752459447556242 -0.17904765811165532
2840000000.0 -0.3864991810930211 0.13176562164976063
2860000000.0 0.381701014126402 -0.13564503353633234
2880000000.0 -0.39897646590194386 0.036798051885599876
2900000000.0 0.16730625850289416 0.361934110350223
2920000000.0 0.38934115446188167 -0.09242693788810773
2940000000.0 -0.03120926161696581 -0.4010102978243727
2960000000.0 -0.2958704530984739 -0.26285470623264606
2980000000.0 -0.06692579326161188 -0.38462504614074017
3000000000.0 0.349875764794487 -0.1724408933583706
3020000000.0 0.1439943147464737 0.3571437524562213
3040000000.0 -0.35478849939544255 0.1391364007018515
3060000000.0 -0.034962287108636955 -0.37034654755294655
3080000000.0 0.17251852482508465 0.3157238670136728
3100000000.0 -0.24463863857135212 -0.24606340818961842
3120000000.0 0.30988969623295587 0.11755767017809149
3140000000.0 -0.3166763868925509 0.01270999268990283
3160000000.0 0.14198821685330706 -0.26026291778446287
3180000000.0 -0.22544023503514066 0.1510035865702043
3200000000.0 0.06331838602521198 -0.23127950472776534
3220000000.0 -0.09953825316711451 0.18265327205841747
3240000000.0 0.022236802526225286 -0.17348400265376485
3260000000.0 -0.1012513101504171 -0.09382346570137229
3280000000.0 0.0864526573633384 0.06355191263678114
3300000000.0 -0.06411708330755245 -0.05552148574486208
3320000000.0 -0.0593757297225494 0.01108359801408925
3340000000.0 -0.0026255351888623715 -0.04457984604843154
3360000000.0 0.03462755286583931 0.01888425798288022
3380000000.0 -0.02943870872440206 -0.02318363035638177
3400000000.0 0.0054551063322752155 0.03527294566563699
3420000000.0 0.012991385549137952 -0.030230775575769638
3440000000.0 -0.011488323346008508 -0.025589731106335927
3460000000.0 -0.008832112247995367 -0.01544923072725482
3480000000.0 -0.0025139706608169783 0.0036137784455879812
3500000000.0 -0.009825957583779693 -0.014418488132417692
3520000000.0 0.025796628276933364 -0.0124152315640411
3540000000.0 -0.03716242885118261 -0.019211482137245134
3560000000.0 0.0312379601226898 0.04734380846651022
3580000000.0 0.06345399144359777 0.02143481508948679
3600000000.0 0.022552807950423973 -0.07450348984825969
3620000000.0 0.07697652343160287 0.048259241427406736
3640000000.0 -0.052742561575065884 0.08620109525592051
3660000000.0 -0.08490208081820473 -0.06649957824096624
3680000000.0 0.11336099978754734 0.010709135901589258
3700000000.0 -0.0221691491881551 0.11520501816662088
3720000000.0 -0.04802991983964928 -0.10599415074076575
3740000000.0 -0.11488527113234391 0.0030304372216240403
3760000000.0 0.09827631258959682 -0.06826328028720954
3780000000.0 0.12775100865869746 0.003054910581402391
3800000000.0 0.13149999069102575 0.026229734609364817
3820000000.0 0.14217365961204365 -0.037514109528410486
3840000000.0 -0.1315005470667847 -0.08704504715237049
3860000000.0 0.04216122983185599 0.16551004096544344
3880000000.0 -0.15257352409262576 -0.10400524412029226
3900000000.0 0.18970814724229512 -0.039702974334301096
3920000000.0 0.021592232417973072 0.20092629459598707
3940000000.0 -0.02479100562555999 0.20644882081595597
3960000000.0 -0.0022158545513640245 0.20550825062681963
3980000000.0 -0.16225055266292185 0.12026168371380344
4000000000.0 -0.18957625507099599 0.0525362274846671
