!Created with skrf (http://scikit-rf.org).
# Hz S RI R 50.0 
!freq ReS11 ImS11
400000000.0 0.8036212743423726 -0.2042704215492242
420000000.0 0.3263343407183164 -0.7592574804808225
440000000.0 -0.16749050184966344 -0.7579353942247429
460000000.0 -0.06689948469265014 -0.7241505325445302
480000000.0 0.6628800130995376 -0.028242962836396386
500000000.0 0.6183728161289881 -0.10722938165738902
520000000.0 0.29795056685947285 0.475517206015423
540000000.0 -0.45204323597523804 0.2134241781732142
560000000.0 -0.06320280002776628 -0.45934025150792057
580000000.0 -0.4238924553361156 6.747961380866889e-05
600000000.0 0.2879880136780713 -0.258090227011017
620000000.0 0.11321432152454937 -0.3546672100427923
640000000.0 -0.2378667010482163 0.329060029208332
660000000.0 0.3247215050433505 -0.28392738387621974
680000000.0 -0.30848160135151637 -0.3257158277307353
700000000.0 0.2251205877257525 -0.3706138507374827
720000000.0 -0.14943532115789046 -0.37882480558389386
740000000.0 0.32281067245129075 0.19466185736309136
760000000.0 -0.2547932963130324 -0.2586586033041571
780000000.0 -0.28201788004197753 -0.2005732758074471
800000000.0 -0.29570262527655994 -0.08163613608566209
820000000.0 -0.167600145951068 -0.2025813903958744
840000000.0 0.18292570512996714 -0.12684835774681638
860000000.0 0.11231319841522043 -0.14496649838346332
880000000.0 0.15005807451611627 0.009880156882893575
900000000.0 0.04980504565055773 0.10503505882777905
920000000.0 -0.07643692711206035 0.02696422723856448
940000000.0 -0.0018166702814698204 0.04889658715228713
960000000.0 -0.04331899497608827 -0.002301466927550078
980000000.0 -0.0018328376305138342 0.056012953976785816
1000000000.0 0.059440917957598836 -0.011747141905516767
1020000000.0 0.03969704503024755 -0.08388214176879719
1040000000.0 -0.04538077756780744 0.11810780789617617
1060000000.0 -0.0850545503438713 -0.13553642197736124
1080000000.0 0.15166396144278488 0.11769739588788229
1100000000.0 0.1997409599956639 -0.05608547616492051
1120000000.0 -0.04655095344972853 -0.23527699586534526
1140000000.0 0.17306291693665612 -0.22007427146501457
1160000000.0 -0.30485103065760155 0.036699885884326613
1180000000.0 0.005684508582143531 0.3305735364961472
1200000000.0 0.15740046466144206 -0.296351547729422
1220000000.0 -0.04049406632057767 -0.36445415020460076
1240000000.0 -0.10230192002774387 0.3804349538853215
1260000000.0 0.333449162735937 -0.23341576236159284
1280000000.0 -0.051445529521444426 -0.413144155727983
1300000000.0 -0.16016864612587423 -0.3931610560182845
1320000000.0 -0.3819751270632731 -0.21084809688584533
1340000000.0 -0.38073642310940026 0.217496028432171
1360000000.0 -0.11993511956080992 0.41942695616837167
1380000000.0 0.20475513389639452 0.3728961654827441
1400000000.0 0.40648250326168756 0.04549714368653982
1420000000.0 0.3841837625856979 -0.07091448833704156
1440000000.0 0.14849645525395697 -0.3465676664629157
1460000000.0 -0.2703956305147937 0.22825376491774382
1480000000.0 0.23334682200960036 -0.22234805723897905
1500000000.0 -0.24467246022288605 0.13658638820403415
1520000000.0 -0.23952954290761225 -0.033429745532540245
1540000000.0 -0.16052515751938706 0.13280870812607132
1560000000.0 -0.17232708022796514 0.05337199021127915
1580000000.0 -0.10393827633790094 -0.11816530547952635
1600000000.0 0.11289612938924151 0.04253663673326233
1620000000.0 0.0787660638415664 0.04888083607870845
1640000000.0 0.06896014211710308 0.013457790348527997
1660000000.0 0.03984544479014375 -0.028385260572476263
1680000000.0 0.01121257696218474 0.024897432509815274
1700000000.0 0.022398542502793883 0.010882800059754557
1720000000.0 -0.02320068881632782 0.022788805549905318
1740000000.0 -0.0005108406145966466 0.053640942650170324
1760000000.0 0.03594369420089786 0.06852994392396039
1780000000.0 -0.08424471251400129 0.0699669243070908
1800000000.0 -0.05994415795371621 0.13229852104313813
1820000000.0 -0.10582883277789747 -0.136735765756192
1840000000.0 -0.11547030771418615 0.16343436812679468
1860000000.0 0.11382201125765669 0.21282489495571857
1880000000.0 -0.1974586819714067 0.21548082460902127
1900000000.0 -0.23025843998562756 0.2277810270778128
1920000000.0 0.21132534994766458 -0.26658901470961127
1940000000.0 -0.040598929525369684 -0.3583959268831377
1960000000.0 -0.3858072946898649 0.03075392257973453
1980000000.0 0.12749824556066236 0.38645701359878754
2000000000.0 0.39475865162778906 -0.15084064845305054
2020000000.0 -0.029122393343017677 -0.42875788631153366
2040000000.0 -0.3071998745997452 -0.3125508918009758
2060000000.0 -0.20865594557614134 0.39010277908712626
2080000000.0 0.43413371901757347 -0.020406870964232254
2100000000.0 -0.03898730982822917 -0.41704429522176234
2120000000.0 -0.261480850870896 -0.3027709737953843
2140000000.0 -0.3656828653087412 -0.10857540726504557
2160000000.0 0.06613737534921282 -0.3502901507954378
2180000000.0 0.3059059065308559 -0.13855920540085553
2200000000.0 0.3228982145444896 -0.05237464623377116
2220000000.0 0.15544266877907503 -0.2770211168388978
2240000000.0 -0.17427224743546982 -0.2598972904040148
2260000000.0 -0.2982604956652569 0.07835309949203083
2280000000.0 -0.0523989720509728 0.30296852640467087
2300000000.0 0.27935301484741576 0.14514546587020685
2320000000.0 0.267052425839131 -0.1960691427262693
2340000000.0 -0.14690153678499596 -0.3278554278672496
2360000000.0 -0.23765306772932804 0.3179679671809279
2380000000.0 0.35164363314729474 -0.27118008894252854
2400000000.0 -0.3083484030001486 0.3870960374831583
2420000000.0 0.20165192309856525 -0.509997841491429
2440000000.0 0.20043654647584924 0.5674905158361929
2460000000.0 -0.5789544822480939 -0.2891506032418814
2480000000.0 0.6838322045709437 0.040388563227628925
2500000000.0 -0.7062583967934497 -0.11834404111459822
2520000000.0 0.7168621247775818 0.17520595279310677
2540000000.0 -0.699950997683075 -0.2743931304776821
2560000000.0 0.4395242155131954 0.6180315082606733
2580000000.0 0.04309771448061375 -0.7548661322076768
2600000000.0 -0.4882433607166024 0.5650150687707161
2620000000.0 0.6784437922295845 -0.2702658217238117
2640000000.0 0.04127287401738565 -0.7065760224643192
2660000000.0 -0.0770121145165529 0.6712980814474819
2680000000.0 0.03680922353716888 -0.6379423443115807
2700000000.0 -0.042049825814171486 0.5985613421668269
2720000000.0 -0.10307682665197347 -0.5511189250717253
2740000000.0 0.20299625468387603 0.48171390688732335
2760000000.0 -0.39565548185064964 -0.282421114098461
2780000000.0 0.4369532114227732 0.12233369126155041
2800000000.0 -0.41235994767157047 -0.11844276426946167
2820000000.0 0.4015833840159721 0.09548938003771067
2840000000.0 -0.40129589759383794 -0.012913938008421865
2860000000.0 0.39203504087566904 -0.029119847400294874
2880000000.0 -0.322177874899614 -0.21096698089807447
2900000000.0 -0.2393344553101848 0.29739581436978063
2920000000.0 0.20398605472054365 0.3223015810649832
2940000000.0 0.38128334618657345 0.04080283947292938
2960000000.0 0.3715237560032469 -0.0915470668136539
2980000000.0 0.36616611846658964 0.11309998376628042
3000000000.0 0.2669820976427491 0.2734026577630184
3020000000.0 -0.056515741127790606 0.3726863756356386
3040000000.0 -0.317822981905424 -0.18516775934977422
3060000000.0 0.3508880655818043 -0.06606063690901742
3080000000.0 -0.34400202711044614 -0.021088312050120423
3100000000.0 0.28298998814234516 0.18032643148993505
3120000000.0 -0.2797251429469664 -0.16712141662441396
3140000000.0 0.3140904224208093 0.021441590288212627
3160000000.0 -0.1470618093618976 0.25913816979392884
3180000000.0 0.23576062032082923 -0.13936125500626367
3200000000.0 0.02874538278448967 0.24140928138691956
3220000000.0 -0.07480479755389115 -0.1934262303799559
3240000000.0 -0.16068759322265916 -0.06222858465583312
3260000000.0 -0.05180892649301127 -0.13386561236408479
3280000000.0 0.007828052273421364 -0.11475958584184381
3300000000.0 -0.08180421107480462 0.03179728544686118
3320000000.0 0.05286022693751062 0.04010546450769252
3340000000.0 -0.02632541298669623 0.05077078370707684
3360000000.0 -0.023907846281308574 -0.04336350418216439
3380000000.0 0.017245309025583962 0.03890061545308007
3400000000.0 0.02925680048479172 -0.0173021257047364
3420000000.0 -0.02820915929510782 0.0026190603722493965
3440000000.0 0.016063877564928997 0.02100871400568915
3460000000.0 -0.006917087124357745 0.02441049452025063
3480000000.0 0.013722946681667835 -0.012057200272170908
3500000000.0 0.004142286183552152 -0.01095774403717376
3520000000.0 0.016249610672733342 -0.020468741497592122
3540000000.0 0.043448018521150926 0.021816775779919362
3560000000.0 -0.0003774349677442867 0.0621726999999116
3580000000.0 0.0646682384720902 0.021026343548494322
3600000000.0 0.015690396035222695 -0.07052637603325976
3620000000.0 0.036695989203695344 -0.07082479055488367
3640000000.0 -0.0875129887083079 0.015015324140325059
3660000000.0 0.027657227130720934 -0.09296150519572856
3680000000.0 -0.025061545086483072 0.09505505154861732
3700000000.0 0.06765823068038987 0.07269760108340514
3720000000.0 0.06670435238344319 -0.0785996885565887
3740000000.0 -0.05042799865284023 0.08928458527067427
3760000000.0 0.09777524343168638 -0.027332159523690096
3780000000.0 0.03778933153769947 -0.10114971635080756
3800000000.0 -0.008405128181683858 0.1220966674923791
3820000000.0 0.13977109174530308 -0.010982184732898482
3840000000.0 -0.1373181237028874 -0.06927354739516069
3860000000.0 0.009499729891662357 0.1693634052272938
3880000000.0 -0.1718875963373445 -0.07922057581729273
3900000000.0 -0.19436741350322512 -0.06149921052811001
3920000000.0 -0.20466295783032482 0.03155647751909234
3940000000.0 -0.1945380099420537 -0.08147313530752943
3960000000.0 -0.20096656687224598 -0.059980116803820524
3980000000.0 -0.10138491823588995 -0.17790949788078128
4000000000.0 0.06936177602763588 -0.18699885332617674
