!Created with skrf (http://scikit-rf.org).
# Hz S RI R 50.0 
!freq ReS11 ImS11
400000000.0 0.2740713659247093 -0.8071306034620779
420000000.0 -0.7217297564889875 -0.4079386875229251
440000000.0 -0.7769542768481749 -0.022248063611676895
460000000.0 -0.6788758804739047 -0.2341345533173829
480000000.0 0.13601067704556663 -0.6394795443421718
500000000.0 -0.4604451381547052 -0.39730374981934274
520000000.0 0.5255001206554374 0.04677719808196381
540000000.0 0.37807751095685155 -0.29022628464665823
560000000.0 0.2813306931148452 0.3525989642399037
580000000.0 0.4149584357703028 -0.0673028479986072
600000000.0 -0.339416764563615 0.19530791945072887
620000000.0 0.2379889185025567 0.3087532958043773
640000000.0 -0.09594829569719054 0.410742843389307
660000000.0 -0.16024357573615017 -0.4133219716525
680000000.0 -0.4154272341462456 0.1558762051921137
700000000.0 0.4309767861943845 -0.042465039941980975
720000000.0 -0.3202096209650995 -0.27319304930054894
740000000.0 -0.3422075622135189 -0.1668216762253505
760000000.0 0.0893246751938208 0.3286300960938348
780000000.0 0.31385652149520765 0.019128624570558635
800000000.0 -0.3022363041954202 0.06175130599674486
820000000.0 0.260261746596637 -0.09848397532740386
840000000.0 0.20905373004001299 0.11206971463489228
860000000.0 -0.10346693390109891 0.17698597386675738
880000000.0 0.004485413021738466 0.15292304375201748
900000000.0 0.09736088663082212 -0.01080768657787877
920000000.0 -0.019169078618072252 -0.04627107748984547
940000000.0 -0.026082081188874527 0.011519513543647091
960000000.0 -0.0145735803137858 0.04250373651054066
980000000.0 -0.020369380547541963 -0.0629881200846553
1000000000.0 0.07046945519621953 -0.04565792439433172
1020000000.0 -0.10330516249749389 0.017006931688505242
1040000000.0 -0.024921123759274983 -0.10735311167016819
1060000000.0 -0.006095556536207354 -0.1373775057920199
1080000000.0 0.11339912163597692 -0.1411660896487762
1100000000.0 -0.16695694721134827 -0.13411678194068327
1120000000.0 -0.1562802117796765 -0.20203675509967428
1140000000.0 -0.2668949923389841 -0.10063406257594613
1160000000.0 0.17320960536003613 0.25240672210233234
1180000000.0 0.14576856434159813 0.2873681974735493
1200000000.0 0.2559643005672662 -0.21191758248528542
1220000000.0 0.1700736131094613 -0.3240074209618283
1240000000.0 -0.25388181982976615 0.30354950676333914
1260000000.0 0.38905027461796177 -0.14301039582626143
1280000000.0 -0.34956303777880987 -0.23731467668330306
1300000000.0 -0.3846155276228105 -0.17526410085088984
1320000000.0 -0.41893590829656174 -0.1147324570177429
1340000000.0 -0.3928073311492482 0.19590934021900586
1360000000.0 0.10935684649230311 0.4245139172124469
1380000000.0 0.36537261142697147 0.21100557362757946
1400000000.0 0.38151591698979287 0.13761972288266686
1420000000.0 0.3928904624652948 -0.020477089056671303
1440000000.0 -0.17577439404677256 -0.3346762016931588
1460000000.0 -0.13616033079670042 0.3198451922314379
1480000000.0 0.30662666374560377 0.0824121999325065
1500000000.0 -0.19167450764636726 -0.207061837704469
1520000000.0 -0.23852987689416158 0.06195300629658571
1540000000.0 0.09427416206242842 0.18292928968744018
1560000000.0 -0.004533352156058872 0.1751919701384772
1580000000.0 0.14843757314987557 -0.022578488567444134
1600000000.0 -0.006251009594380525 -0.12458615361425085
1620000000.0 0.024529602583218978 -0.09972579437563009
1640000000.0 -0.04321104834070422 -0.056910850146220514
1660000000.0 0.04322849120015746 -0.00831272278393719
1680000000.0 0.012241180719550748 -0.020701940349065837
1700000000.0 0.00034467251822045697 -0.025690016838137448
1720000000.0 -0.030409825346929802 0.017594965223736245
1740000000.0 0.05299733831125612 0.02284736299273141
1760000000.0 -0.0799574134078744 0.010008390880225397
1780000000.0 -0.059383892448251284 -0.0902836082477066
1800000000.0 0.13559125032743502 0.03024596428439092
1820000000.0 0.15112567775379182 -0.07449668179857923
1840000000.0 -0.16342626603096339 -0.13286138474726078
1860000000.0 0.020429288371983358 -0.25246644846917027
1880000000.0 0.28723285066129073 -0.025478540762351995
1900000000.0 -0.2282763764388535 0.2192470507864903
1920000000.0 0.34093513003378684 -0.007480709405970555
1940000000.0 -0.12769093768379897 -0.3428973151217723
1960000000.0 -0.3462086915133124 0.1725621448876735
1980000000.0 0.02321346446187423 0.40650051694490025
2000000000.0 0.4212464393637993 -0.06880111094270638
2020000000.0 -0.18808204022294345 -0.39572194084125567
2040000000.0 -0.29444313704144304 0.32873718845352884
2060000000.0 0.3717539844321186 0.2250593982496391
2080000000.0 0.4206053928506307 -0.05014338294455788
2100000000.0 0.2749223320003876 -0.3097659694193433
2120000000.0 -0.06370419735635995 -0.3971906952861284
2140000000.0 -0.37865938019459155 -0.06206001066697653
2160000000.0 -0.07598442847347173 -0.35287101354310796
2180000000.0 0.002326698689405504 -0.3405076792889001
2200000000.0 -0.010790004946444737 -0.325381311556482
2220000000.0 0.036576797092535376 -0.31410043468314575
2240000000.0 -0.2736150196791333 -0.1578308599083908
2260000000.0 -0.10905129070749775 0.28859891453726905
2280000000.0 0.03517751097321022 0.3044146557614208
2300000000.0 0.219923653794603 0.2270381480872993
2320000000.0 0.334105717636884 -0.05830545447853292
2340000000.0 -0.32545097896031555 -0.17687122476735556
2360000000.0 0.19608491105151535 0.3544929614826644
2380000000.0 -0.07358012825237872 -0.44569006925901566
2400000000.0 0.20453387925262798 0.46000369782576134
2420000000.0 -0.5002174102417831 -0.24616241030906577
2440000000.0 0.525622043362063 -0.30409930142480945
2460000000.0 -0.28191790429237346 0.5850949360459162
2480000000.0 0.07972908528351978 -0.6821307557087795
2500000000.0 -0.03221612007311153 0.7162778085534527
2520000000.0 0.09919219289732119 -0.7301249143550811
2540000000.0 -0.15588017416116945 0.7321079797798447
2560000000.0 0.518919116005045 -0.5456640389108104
2580000000.0 -0.7398169160732504 0.11798327867603944
2600000000.0 0.6521606627601156 0.3449526671140804
2620000000.0 -0.4398219908084492 -0.5697463019713124
2640000000.0 -0.6753269394472655 0.16093756226545167
2660000000.0 0.6601749608431695 0.04527714416534814
2680000000.0 -0.6223262279818211 -0.060205674455263626
2700000000.0 0.5870629062542763 -0.02405015689669209
2720000000.0 -0.4801844466644844 0.2598070912308374
2740000000.0 0.4055005304068992 -0.30156708033634555
2760000000.0 -0.36149681022177327 0.2982145755026008
2780000000.0 0.3618596060674117 -0.24994654384839451
2800000000.0 -0.36486020477457737 0.20915892459391616
2820000000.0 0.18831048126687477 -0.3591786814753731
2840000000.0 0.012187294668963369 0.39208031907928104
2860000000.0 0.11552587966911763 -0.3638474098205207
2880000000.0 -0.3765599222217195 0.01309969931335934
2900000000.0 -0.021039365357138167 0.3770888305509956
2920000000.0 0.3807223028619073 0.02728361386484065
2940000000.0 0.06749759198429724 -0.3744555293936562
2960000000.0 0.07340321514563267 -0.3693408109427692
2980000000.0 0.3411221973415614 -0.15984418625109098
3000000000.0 0.3207007345357798 0.20262196857372103
3020000000.0 0.16378724808333342 0.33826264179849025
3040000000.0 -0.3487429748598595 0.10916112396938513
3060000000.0 0.327748013127769 -0.13601177370694298
3080000000.0 -0.32969112482608476 0.10622358367534052
3100000000.0 0.3138937876449721 -0.12113202067929635
3120000000.0 -0.32402417880960527 0.0393493088263362
3140000000.0 0.19471327934399973 -0.2461685236035928
3160000000.0 0.0018584496461139875 0.29603246202786837
3180000000.0 0.1203118706899618 -0.2454186212142358
3200000000.0 0.10838519018352294 0.21677597725768735
3220000000.0 -0.04212986856659054 -0.2032912951572388
3240000000.0 -0.1721977297216013 0.032735507595518694
3260000000.0 -0.1405400100224102 0.018557605089561637
3280000000.0 0.11007170683888316 0.0009833798993194335
3300000000.0 -0.05265848782396517 0.0708828337291425
3320000000.0 0.004717445248213663 -0.07443184338034688
3340000000.0 -0.008183891662255749 -0.06358988733119686
3360000000.0 0.024090523082628636 0.04397117668602456
3380000000.0 0.037547274859945294 -0.021767226246823895
3400000000.0 -0.040724925040791754 -0.01130412327113743
3420000000.0 0.015534278553506963 -0.03276699035057563
3440000000.0 0.020298817208380837 -0.021435834591176407
3460000000.0 0.013187398811422403 0.021344747554176625
3480000000.0 0.013505470341295081 -0.0021344131927746226
3500000000.0 0.002160775003470295 -0.009773231125802643
3520000000.0 -0.023572950485665604 0.011363517078018874
3540000000.0 0.0006613656757646631 0.04035904033497536
3560000000.0 0.02007121282758709 0.044066303961051746
3580000000.0 0.03341316518111492 -0.05013559675265085
3600000000.0 0.06723597721840453 0.024767757343983277
3620000000.0 -0.07236656153858115 0.03402627310023567
3640000000.0 0.08682879726880637 -0.004406087769830281
3660000000.0 -0.03302044029857735 -0.08565288265583541
3680000000.0 0.05981570291493128 -0.07790227139355548
3700000000.0 -0.07530628396547721 0.07438628375860155
3720000000.0 -0.01867135482463998 -0.10992273361134901
3740000000.0 -0.042235801438612 0.10011149950930405
3760000000.0 0.10505891857909971 -0.04249757189432538
3780000000.0 -0.11731637489225098 0.042288738711670555
3800000000.0 -0.12183096878680257 0.07261743192127183
3820000000.0 0.14699801770691992 -0.0610500324829625
3840000000.0 -0.16960914860297935 0.03402040754183188
3860000000.0 0.19209121094164458 0.010449951752500986
3880000000.0 0.10385304951491342 0.1844725185981802
3900000000.0 0.11977321093684033 0.18810368008922831
3920000000.0 0.15521322214726388 0.1677492934533583
3940000000.0 0.1778206449713448 0.14970451831862044
3960000000.0 0.22972691636638246 -0.028231047199939206
3980000000.0 0.22313557045553775 -0.04294207688952299
4000000000.0 0.15916082467348186 -0.15176450899858213
