!Created with skrf (http://scikit-rf.org).
# Hz S RI R 50.0 
!freq ReS11 ImS11
400000000.0 0.1643635129342745 0.7870000867051182
420000000.0 0.7558628280105683 -0.2764045820368177
440000000.0 -0.3404017424855115 -0.6605099924938795
460000000.0 -0.2594949256233355 -0.6411211655651046
480000000.0 0.600453384914802 -0.1992965133331184
500000000.0 -0.08389855768921646 -0.6066969682754524
520000000.0 -0.16249882386024334 -0.5215172375870585
540000000.0 0.39769351259581287 -0.2930360884841032
560000000.0 -0.2893011984783773 0.3870746794435692
580000000.0 0.30966656393192304 -0.3323541911261765
600000000.0 -0.3971821754441214 -0.1366432864561718
620000000.0 0.40768473773771263 -0.012117123390631713
640000000.0 0.4059706587822254 -0.15670794232632734
660000000.0 -0.007553965066182841 -0.47032881071298904
680000000.0 -0.36694838666695584 -0.2954627282443169
700000000.0 0.0238474781927263 0.45482810440539273
720000000.0 0.37065673614983136 0.2362430345128203
740000000.0 -0.371968110685344 0.16428130725354292
760000000.0 0.24940884370381247 -0.2837594120556204
780000000.0 -0.33717195070400197 0.10855022885438312
800000000.0 -0.021410226220032358 -0.33052818737181305
820000000.0 -0.2261641775175931 0.18057152830855222
840000000.0 -0.08083228152357787 0.20473287907805934
860000000.0 0.13062240551786516 0.15170719660292306
880000000.0 -0.1447878863934182 0.06051090658611359
900000000.0 0.09111898596769125 0.08492166497414344
920000000.0 -0.06567821119657387 0.019841347974999448
940000000.0 -0.03246078785881082 -0.020251610639189892
960000000.0 -0.02236746359242873 -0.005886202430187829
980000000.0 -0.02529766533977804 0.016602552453499956
1000000000.0 0.045528803777821404 -0.022383771256172406
1020000000.0 0.013119291810560948 -0.08024687492523992
1040000000.0 0.09283047849711278 -0.054601751820018335
1060000000.0 -0.08383582839088409 -0.11335461035471586
1080000000.0 -0.046475653259492836 0.18243562176269643
1100000000.0 0.06804147256408678 -0.21845860006597456
1120000000.0 0.040424966150169515 0.2685698083176135
1140000000.0 0.09509189518367817 -0.287196852809208
1160000000.0 -0.16791882690167903 -0.279000133737083
1180000000.0 0.33960331560054335 0.025033677592568773
1200000000.0 -0.18482581846727605 -0.30128530831430733
1220000000.0 -0.3443418331730156 -0.1337853948111151
1240000000.0 -0.032849296157177965 0.38499396365351873
1260000000.0 0.38465662570739895 0.08897814418593697
1280000000.0 0.1582678609762505 -0.36397471160342854
1300000000.0 -0.13757495819395044 -0.3664958370091712
1320000000.0 -0.24051236269995155 -0.3022055878544849
1340000000.0 -0.35567296376222274 -0.13821010429248468
1360000000.0 0.08598764993994978 0.3503092741177547
1380000000.0 -0.2832295436175268 0.17111270435843084
1400000000.0 -0.18115166941624924 0.25210437424734955
1420000000.0 -0.06491508388605333 0.27751703933681576
1440000000.0 0.2609269655508598 -0.01381158957933569
1460000000.0 -0.17339101528465753 0.14433780573002897
1480000000.0 0.093838562965311 -0.15299130940433536
1500000000.0 0.09119263298299378 -0.0940340313954709
1520000000.0 0.004718883976853914 -0.0943106724086276
1540000000.0 -0.014357611988423764 -0.04931621747392749
1560000000.0 0.012480307729123959 0.0007048884550923329
1580000000.0 0.01886315013375788 0.0206849325657758
1600000000.0 -0.01725336406959502 -0.041904221248088534
1620000000.0 0.04322761718329788 0.040731989130419304
1640000000.0 0.05243849617308867 -0.07316796444286129
1660000000.0 0.09037829219273164 0.07080316185020158
1680000000.0 -0.03715606109510555 0.1338393344187448
1700000000.0 -0.15987701258291123 0.014984619463760823
1720000000.0 -0.10350830368843426 0.14692731254837701
1740000000.0 0.012781231638456004 0.19358703151445153
1760000000.0 0.04408026510832979 0.21226215170673002
1780000000.0 0.027825174839964353 -0.24382059672551493
1800000000.0 -0.219381895914688 -0.16401399242019762
1820000000.0 -0.031802053099267424 -0.3002495984030185
1840000000.0 0.3150704122326347 -0.11758170106484739
1860000000.0 0.3641655645144047 -0.05060189855652531
1880000000.0 -0.042196780588686096 0.39678266471731444
1900000000.0 -0.32302667725071393 -0.2714842977064589
1920000000.0 0.34605413549768366 0.2867426193031785
1940000000.0 -0.400508525765747 -0.2529550067435692
1960000000.0 0.31968254099944277 0.3702745327983052
1980000000.0 0.041859679148311325 -0.5007174262776888
2000000000.0 -0.4613978544342567 0.2084786398485731
2020000000.0 -0.13744775810308 0.4929859555067699
2040000000.0 0.48276310925305843 0.17959957701625995
2060000000.0 0.005977589310797975 -0.5116971067692176
2080000000.0 -0.499961554704172 0.005044961041841558
2100000000.0 -0.1827768655439893 0.44734980626938925
2120000000.0 0.20508528846274252 0.4217795052845303
2140000000.0 0.12015045930296524 0.4365676484419977
2160000000.0 0.42603739136681923 -0.034221470367711476
2180000000.0 0.2006350569190412 -0.35436976635650835
2200000000.0 -0.3358168450872684 -0.2025917807261573
2220000000.0 -0.09656138205393479 0.3641598948092284
2240000000.0 0.3562791747248547 -0.08480174194020543
2260000000.0 -0.057618350411546476 -0.34857032791796266
2280000000.0 -0.3523797341899698 -0.009933640410498074
2300000000.0 0.26296282201752735 0.24016008286505786
2320000000.0 0.2605243060842534 -0.25321006566312293
2340000000.0 -0.1101763071073628 -0.36421480449611227
2360000000.0 -0.4005136010545418 -0.07054233478478314
2380000000.0 -0.0851156306372037 0.4360487337239912
2400000000.0 0.47722018818057926 -0.0709107721586677
2420000000.0 -0.03300383745081944 -0.5235762073033194
2440000000.0 -0.5239816557577232 0.23650448790005577
2460000000.0 0.6051940085005142 0.1410351628296313
2480000000.0 -0.43323065388183746 -0.5020062088606202
2500000000.0 -0.08307660971776432 0.6929519314779107
2520000000.0 0.4605107937978534 -0.5584315126362956
2540000000.0 -0.7012475021241967 0.24333048489248282
2560000000.0 0.6341003531330675 0.40718470012693003
2580000000.0 -0.1005556408083329 -0.7486194666290622
2600000000.0 -0.5647847444297435 0.4928460058319367
2620000000.0 0.733653629200434 0.07208348102407436
2640000000.0 0.5245392895867815 -0.4930165478296052
2660000000.0 -0.6919522249006433 0.0866188522930681
2680000000.0 0.6591325514571348 0.13538163973296075
2700000000.0 -0.6442926955645946 -0.05477943134183395
2720000000.0 0.566243166704519 -0.25048986268604007
2740000000.0 -0.27804377095653554 0.5226970416840022
2760000000.0 -0.34027414649376253 -0.45165803749270894
2780000000.0 0.4948109334434467 -0.22813854727875454
2800000000.0 0.1857460743924924 0.494765487627123
2820000000.0 -0.4826098357467756 0.1815141732008602
2840000000.0 -0.16133249153573193 -0.479365998817793
2860000000.0 0.49658124806535026 -0.02679588667152813
2880000000.0 -0.3947561053378151 0.2875021590751173
2900000000.0 0.4140505221049597 -0.24580479886643877
2920000000.0 -0.4771645427381683 -0.0013374458543468242
2940000000.0 0.25596290694511736 0.3927626949577773
2960000000.0 0.4172065448030889 -0.18625386606812344
2980000000.0 0.3325175551136087 -0.2960587974305748
3000000000.0 0.3297634842235922 -0.2874404750657904
3020000000.0 0.35444813819028204 -0.23380073402835064
3040000000.0 0.4049367480565925 -0.044651178594614385
3060000000.0 0.30339768058537087 0.23993433904575395
3080000000.0 -0.04733364981215193 0.358920721821138
3100000000.0 -0.29373096791544956 0.16336368473063004
3120000000.0 -0.301600583861381 -0.053145875845649844
3140000000.0 0.11580598760326212 -0.24660858533242866
3160000000.0 0.05398796646924944 -0.22369588968878018
3180000000.0 -0.022594734215654663 -0.18150001660716772
3200000000.0 0.0385364132785654 -0.12650119236620314
3220000000.0 0.04381180060128906 -0.07092214430488529
3240000000.0 -0.024021743474625993 0.022459459185145227
3260000000.0 -0.009724905877239731 -0.01256091954956364
3280000000.0 0.0552699626403364 -0.0008437131726698816
3300000000.0 -0.010010329936532536 -0.08553563647110807
3320000000.0 0.010782409944543013 0.11694036948707712
3340000000.0 0.13120926023862894 0.05434780037235379
3360000000.0 0.054590850461821674 0.14263732131331108
3380000000.0 -0.029859584759843426 0.15811773153558017
3400000000.0 -0.16262071691430294 -0.025435948416345992
3420000000.0 -0.020465450972284065 0.1607333097825153
3440000000.0 0.10906594526059533 -0.10406971272431588
3460000000.0 -0.13128746076421577 0.036348043943669466
3480000000.0 0.005057574917826476 -0.12033712106707276
3500000000.0 -0.02125997597732237 -0.10583946990042453
3520000000.0 0.04213606552552635 -0.08990519460377284
3540000000.0 -0.028312118347088976 0.09073673122650999
3560000000.0 0.08581934939832117 0.05143906407658735
3580000000.0 -0.1133663209753827 -0.008788752965465475
3600000000.0 -0.05037206067944537 0.12546569803541974
3620000000.0 -0.15771813207533952 -0.016219453603177288
3640000000.0 0.09171948400167525 0.15835747593021532
3660000000.0 0.19608958685848762 -0.05773126071261518
3680000000.0 0.13123631499170682 0.17953901680465353
3700000000.0 -0.11589216916406427 0.2082047067098396
3720000000.0 -0.24408044481618205 -0.05086086102748243
3740000000.0 0.1233064183275604 -0.22375433300534073
3760000000.0 -0.21196378257562865 0.15150399348772567
3780000000.0 0.24028908874651866 -0.0989851612822446
3800000000.0 -0.2452425728305549 0.06314061120309622
3820000000.0 0.24403417934062177 0.016477263713716845
3840000000.0 -0.21786423658121648 0.05489163399505952
3860000000.0 0.19283180847321743 0.05582589360715149
3880000000.0 -0.07122371331785826 -0.15622067556659658
3900000000.0 0.13352726061896245 -0.003387746670088855
3920000000.0 -0.04703740732457892 0.08594744743860588
3940000000.0 0.05140545502868591 -0.031031056202280607
3960000000.0 0.0025146726746432136 0.03413300106346248
3980000000.0 -0.0442531405516803 0.026767646084344694
4000000000.0 0.04025716406045738 -0.07237032252335382
