!Created with skrf (http://scikit-rf.org).
# Hz S RI R 50.0 
!freq ReS11 ImS11
400000000.0 0.7906130456508599 0.24287847647525904
420000000.0 0.4795455746853285 -0.6774314968377737
440000000.0 -0.38383410566374376 -0.6664192013080064
460000000.0 0.12920172078702477 -0.7077370904393595
480000000.0 0.47245265411665943 0.45606649907135494
500000000.0 0.6160759512630273 0.15379450222263716
520000000.0 0.25869408096542545 0.4988930903687099
540000000.0 -0.49888482159168235 -0.05569010063274717
560000000.0 -0.15524068589904724 -0.4506884801856325
580000000.0 -0.030692780865503224 0.4353786622520078
600000000.0 -0.36174720478385136 -0.1504972559327152
620000000.0 -0.19876307687357098 -0.31541229440388785
640000000.0 -0.2700433787253029 0.2959837727746504
660000000.0 0.38946231921381785 -0.20083922638842627
680000000.0 -0.27013617524963546 -0.3508324295192034
700000000.0 0.2888146050813448 0.32159214596501084
720000000.0 0.3327910427851054 -0.25976910098949374
740000000.0 0.3050003480288323 0.2436591724817125
760000000.0 -0.2730069231060098 0.24198856314302145
780000000.0 0.04630221762993642 -0.33654219474428004
800000000.0 0.2966008435730083 -0.10614447605197351
820000000.0 -0.25005386495480575 0.1297421577403151
840000000.0 -0.11433239376985303 -0.17731711690993512
860000000.0 -0.16531108216791757 -0.08827847598778209
880000000.0 -0.08723354912401665 -0.11785811830287576
900000000.0 -0.118214163376378 0.02555343799101405
920000000.0 0.06327640206558974 -0.054235125812485976
940000000.0 -0.03540758496155729 -0.01542332358067359
960000000.0 0.042710905543733364 -0.019945456869417337
980000000.0 -0.05516231847536963 -0.014721835224863684
1000000000.0 0.048462126017285355 0.05285872115836118
1020000000.0 0.08747298052590884 -0.03520954128802069
1040000000.0 0.08605017679904585 0.06856177971338301
1060000000.0 -0.10555508216217846 0.09666703883067991
1080000000.0 0.023348979182557072 0.1776138684351876
1100000000.0 -0.024862476737851396 0.20918522277463913
1120000000.0 0.103529773116252 0.22810843737206374
1140000000.0 -0.18442244925719262 0.2082720725102256
1160000000.0 0.2996649720653886 0.007634538257566864
1180000000.0 0.1313052254307619 0.29168727796511473
1200000000.0 -0.03946951100747858 -0.334738085052366
1220000000.0 -0.34389373101530224 -0.11938506345265514
1240000000.0 0.2651102205020625 0.28496394287514815
1260000000.0 0.31675465248142753 -0.2531559556848542
1280000000.0 -0.26839951996817774 -0.3233080959371417
1300000000.0 -0.4254791292859581 -0.004752468253575207
1320000000.0 -0.4078033517894994 0.1444582519395558
1340000000.0 -0.2838204168428385 0.3404625289096535
1360000000.0 0.42682813140694825 -0.09944098313591647
1380000000.0 0.40529686422630806 0.10271139048696672
1400000000.0 0.38183118468958893 -0.14746095900980852
1420000000.0 0.26803891420861203 -0.2861301558605762
1440000000.0 -0.20116494152377523 -0.322624811428268
1460000000.0 0.13688945153473983 0.32899430033355564
1480000000.0 0.07183954918403532 -0.312921086380558
1500000000.0 -0.2535066060813954 0.12301344632124835
1520000000.0 -0.2507506836732663 -0.01459395632960161
1540000000.0 0.14287514051844946 -0.16519886317694674
1560000000.0 -0.12946791200071803 -0.12044014670373657
1580000000.0 -0.028129648549883007 -0.14516873944530045
1600000000.0 0.011241050440093778 -0.12652676182852626
1620000000.0 0.04217528311858867 -0.10052265444058192
1640000000.0 -0.07303896566918729 0.028241600087540928
1660000000.0 -0.013719046594488117 0.05061033945349991
1680000000.0 0.00018151582321148838 0.02871542523401334
1700000000.0 0.01583132881567164 -0.005317235924459978
1720000000.0 -0.03192758322848083 0.0006247534037571444
1740000000.0 -0.03497219584713298 -0.03592704314037091
1760000000.0 -0.05118495341428482 -0.051391213384718096
1780000000.0 0.004829241549446526 -0.10423135481110836
1800000000.0 0.1368089644157984 0.004601116291231271
1820000000.0 -0.16277206950126946 -0.02881267613927622
1840000000.0 -0.13913879534470286 0.14274648263950065
1860000000.0 -0.1812878619966964 -0.1569232910473205
1880000000.0 0.21709851895158286 0.16899836328440027
1900000000.0 -0.28262502171451914 -0.11303515498931274
1920000000.0 -0.010112801864639417 0.33998930544186
1940000000.0 0.11728137769090013 -0.35212413361220435
1960000000.0 -0.30155837208865804 0.25177052045690723
1980000000.0 0.3703175342535202 0.18034304664984063
2000000000.0 -0.05444457535222625 -0.41832968136302645
2020000000.0 -0.25770664214053113 -0.3412515694141944
2040000000.0 -0.4318203949719947 -0.05282205769683325
2060000000.0 -0.04183610214298592 0.43718608509011725
2080000000.0 0.4313085286915486 -0.011639858285309739
2100000000.0 0.14241078070107457 -0.3913515151684499
2120000000.0 -0.042826540432752296 -0.3999358666224876
2140000000.0 -0.35963460432569333 -0.15029801773726345
2160000000.0 -0.2585571668600894 -0.26028978347356024
2180000000.0 -0.2786515821577447 -0.20004812976492595
2200000000.0 -0.26007266248248867 -0.1984052926643739
2220000000.0 -0.2979198151129187 -0.10369168682851385
2240000000.0 -0.19619542054488565 0.23957669127222936
2260000000.0 0.03955905166040426 0.2960153737076475
2280000000.0 -0.029249349362611175 0.29969091592074604
2300000000.0 0.3124404394765784 -0.021453436887259647
2320000000.0 -0.04487268845269584 -0.3238102595182732
2340000000.0 -0.3516077985920853 -0.008028207809090528
2360000000.0 0.0893348820575707 0.37522176049279093
2380000000.0 0.19733557454429693 -0.3858550777759204
2400000000.0 -0.13727807388549318 0.46231428752943504
2420000000.0 0.10830768519916137 -0.5211884316786344
2440000000.0 -0.010906405178460695 0.5863934312816969
2460000000.0 -0.3537263063816756 -0.5273678682522726
2480000000.0 0.5426808053733924 0.40219984854281265
2500000000.0 -0.490212525786385 -0.5111661589726632
2520000000.0 0.44974413749753095 0.5767654297572948
2540000000.0 -0.35741554038580786 -0.6550662956457204
2560000000.0 -0.15961789626616052 0.7371213078064179
2580000000.0 0.6093251322887296 -0.4432135579020962
2600000000.0 -0.7386359493401069 -0.09107564446419178
2620000000.0 0.5811193506702929 0.4405131045693974
2640000000.0 0.64904035131481 -0.28090922150896863
2660000000.0 -0.6535362049604856 0.18079353136402582
2680000000.0 0.6254901153277803 -0.15588147468645153
2700000000.0 -0.5414673865964474 0.2776610549179973
2720000000.0 0.32776611513956233 -0.4656743209916918
2740000000.0 -0.07827379064199423 0.5251770049092324
2760000000.0 -0.26220762138845244 -0.41898202033136495
2780000000.0 0.39555234226267727 0.24101599572987928
2800000000.0 -0.42345448713358447 -0.11555231294236283
2820000000.0 0.4196146293327064 0.026951947642815978
2840000000.0 -0.3895135415626552 -0.12945303847318845
2860000000.0 0.37220855023519694 0.16454699297879577
2880000000.0 -0.326111596203819 -0.23692156023544236
2900000000.0 -0.0692823678226671 0.3946088864390085
2920000000.0 0.39548867621218037 0.06370748901617407
2940000000.0 0.19105050358686756 -0.3529037181669839
2960000000.0 -0.0875448878878673 -0.38548513476989565
2980000000.0 0.11134913524057592 -0.3727686590932738
3000000000.0 0.3812544599723212 0.07361706911039993
3020000000.0 -0.11935644032773889 0.3646826392132858
3040000000.0 -0.3378987400719741 -0.17161964423150625
3060000000.0 0.32113351560530584 -0.18786267990579542
3080000000.0 -0.16026083475000943 0.323984263053463
3100000000.0 0.06716368289985464 -0.34215551718098036
3120000000.0 0.06169714508039836 0.3303049025182547
3140000000.0 -0.22371130936139963 -0.23321858148609087
3160000000.0 0.2750883314941544 -0.1257899575820143
3180000000.0 -0.27188730156737695 -0.05747521877253953
3200000000.0 0.1760345168170266 -0.1744397329914563
3220000000.0 -0.08200460849483683 0.20163455129332133
3240000000.0 -0.05931601267013978 -0.17326322606165492
3260000000.0 -0.11674181340927563 0.08839190221852374
3280000000.0 -0.045485010985283396 -0.10451501848786413
3300000000.0 0.08754180096780918 -0.02098084794943197
3320000000.0 -0.000820207210652558 0.06313007307911826
3340000000.0 0.012922566326863463 0.03994663253349453
3360000000.0 0.03322701152238688 0.009038671714611502
3380000000.0 -0.005311938024874123 0.030490032605553358
3400000000.0 -0.029667647161272317 -0.0007328644168222789
3420000000.0 0.005255285696052419 -0.027063780016822303
3440000000.0 0.017147600632194775 0.015304399196659038
3460000000.0 0.01243140806977539 -0.00655404962762769
3480000000.0 0.008586215869743249 -0.0061192025998035365
3500000000.0 0.01628933719971203 0.018312382775242386
3520000000.0 0.032271885199009934 0.016722301723012447
3540000000.0 0.003852610209722808 0.048995834472101076
3560000000.0 0.06010565911761381 -0.007489689790107335
3580000000.0 0.05574463930986998 0.04334033647413993
3600000000.0 0.05682262642788617 -0.057033819413263256
3620000000.0 0.0610569798830873 0.0692390219601511
3640000000.0 -0.09718686350511076 0.022958593529661658
3660000000.0 0.0585766958473032 -0.0899515761843327
3680000000.0 0.02372044772753566 0.10921654117912362
3700000000.0 -0.11170451900224401 -0.021390535810021132
3720000000.0 0.1052191639562869 -0.03610540761757627
3740000000.0 0.057675998391420145 -0.09127260709037907
3760000000.0 -0.10178097138795204 0.04342168694853088
3780000000.0 -0.06644103845028045 -0.0967402718459647
3800000000.0 0.10859464979676159 -0.058037597624074816
3820000000.0 0.12960455344765812 0.046226562391733644
3840000000.0 -0.09249499639945094 -0.11733119711880252
3860000000.0 -0.1199832991264024 0.10853280854646401
3880000000.0 0.07194450513391534 -0.16173184120825806
3900000000.0 0.05090281004052373 0.18001255987322248
3920000000.0 -0.19343559936652113 0.03387573926765976
3940000000.0 -0.2022308615089678 0.015372066228521305
3960000000.0 -0.19991454451940183 0.01801426568349751
3980000000.0 -0.12301780734256411 -0.1555645378032963
4000000000.0 -0.09507455273862744 -0.16879429024120712
