!Created with skrf (http://scikit-rf.org).
# Hz S RI R 50.0 
!freq ReS11 ImS11
400000000.0 0.655937160582319 0.5212242599946258
420000000.0 0.6120087376746303 -0.5580672531552331
440000000.0 -0.20592805780776058 -0.7435575420787872
460000000.0 0.610838052932995 -0.3609413629575366
480000000.0 -0.24924494697954336 0.5953529860652369
500000000.0 -0.5624037126746312 0.26032498372424023
520000000.0 0.24311407300496854 -0.49466459228467585
540000000.0 -0.39396194749123514 -0.3187820144494645
560000000.0 0.13378853131849122 -0.45825999475727663
580000000.0 -0.022450060793064937 -0.42531324338625837
600000000.0 0.37569024306461707 0.04709749995332197
620000000.0 -0.22066301888834283 0.27658971881881195
640000000.0 -0.38888984304108265 -0.08826683528917231
660000000.0 -0.41016369075023706 0.050542815102583676
680000000.0 0.1433370234215695 0.3800395225744892
700000000.0 -0.36106063388731313 0.15309135403126234
720000000.0 0.28287174790677827 0.2370259015526224
740000000.0 0.0844092495688752 0.32736975576035565
760000000.0 -0.21896079584201644 0.21982275250000974
780000000.0 -0.2117023612927667 0.18637465703884076
800000000.0 0.1569285779984164 0.18503576022456283
820000000.0 0.15059659711983153 -0.1371518289792975
840000000.0 -0.13843119029425024 0.08616322210181841
860000000.0 -0.10009679551916308 -0.08036188870589457
880000000.0 -0.0763998953365404 -0.03935904539642007
900000000.0 -0.06532114205420651 -0.032118128209421996
920000000.0 -0.010768993724119994 0.08376469152885514
940000000.0 0.08507678935263566 -0.06274687126837361
960000000.0 -0.0904755968145482 0.08943520459791837
980000000.0 0.11092708782352813 0.07422407276260594
1000000000.0 0.015059260327934107 -0.1378113312076609
1020000000.0 0.1098420068331653 -0.10268503004460183
1040000000.0 -0.15176517665313027 0.0848627714786033
1060000000.0 -0.15363384807897146 0.12949798851752256
1080000000.0 -0.20613703968717925 -0.10716877632335216
1100000000.0 0.2410928880513831 -0.10539093189827281
1120000000.0 -0.23188312634699068 0.1446614548764852
1140000000.0 -0.2769993403465085 0.01213421853774212
1160000000.0 0.015687564032989345 0.2836257792888295
1180000000.0 -0.2686963592145993 -0.12345376998738651
1200000000.0 0.2550247239248941 0.19027604691735325
1220000000.0 -0.0419566870751321 -0.33655456559467695
1240000000.0 -0.307925354157155 0.19403594092348933
1260000000.0 0.3589418986554336 -0.14552708886916824
1280000000.0 -0.1615655323217362 0.36438090007530916
1300000000.0 0.38178045327439314 0.07186114455899982
1320000000.0 0.3709776652654088 0.0917700081111994
1340000000.0 0.1870995139567121 0.33244825117239385
1360000000.0 0.21240645351151438 0.3151176953785856
1380000000.0 0.33503015791649016 0.14924377291716795
1400000000.0 0.34608489384864055 0.06765422982703669
1420000000.0 0.08856894897937671 -0.31778024281904693
1440000000.0 0.07360381887318472 -0.28861234553146853
1460000000.0 0.18553555380648695 -0.1921534712898575
1480000000.0 0.22894375526917293 -0.054410028373953014
1500000000.0 0.18334542387599514 -0.07418277685834432
1520000000.0 -0.048728943858798196 0.1452978837357682
1540000000.0 0.06358665551573442 -0.09895330747926422
1560000000.0 -0.06864440149013966 0.06591060031455631
1580000000.0 0.0023723239759355125 0.09128104980314777
1600000000.0 -0.008243694264516079 -0.09425678303136394
1620000000.0 -0.017228154305212302 0.10265721853108412
1640000000.0 -0.05863103086622382 0.09399634822112761
1660000000.0 -0.059800877103845615 0.1061388267135411
1680000000.0 -0.020139445139327812 0.1362935294006385
1700000000.0 -0.13447110732669407 0.08164586734608094
1720000000.0 -0.11718630655959665 0.14148418557803286
1740000000.0 -0.19626038485144917 -0.07167784584028561
1760000000.0 0.017693711378297377 -0.23287703328617002
1780000000.0 -0.09572160984399766 -0.24740489226823498
1800000000.0 -0.28450622977137513 -0.075164283344398
1820000000.0 0.06500422972646734 -0.3120442557809665
1840000000.0 0.2679469066761527 0.2246080978397267
1860000000.0 -0.2303311013766288 0.3017447901487522
1880000000.0 -0.307908037731055 -0.26248499127344677
1900000000.0 0.2818172625146507 0.3146970329467231
1920000000.0 0.1665559501564971 -0.4155033770580375
1940000000.0 -0.23784223901607152 0.41017701192843653
1960000000.0 0.2876615598806061 -0.39550190902037907
1980000000.0 -0.4947556886780237 -0.0019906549965227846
2000000000.0 -0.21053389222082597 0.4471277545175509
2020000000.0 -0.24347294874624087 0.43349657340750364
2040000000.0 -0.04276013038990841 0.505498885182708
2060000000.0 0.51188413902665 0.013463095067780782
2080000000.0 -0.1935033660620873 -0.46298769216148977
2100000000.0 -0.47851551500938333 -0.04620443826584944
2120000000.0 -0.4569093315486327 0.043015707636241275
2140000000.0 -0.42856220957569113 -0.08797210030695239
2160000000.0 0.41193229706400086 -0.06359111730239402
2180000000.0 0.17138296848644663 0.36537855033835037
2200000000.0 0.1057414380309128 0.3844603810059247
2220000000.0 0.20508538196675416 0.3388417095453683
2240000000.0 0.37649652889897534 -0.1314779381339462
2260000000.0 -0.22292675687235824 -0.3281057301083913
2280000000.0 -0.25273382283248064 0.3073927482584427
2300000000.0 0.37724746367399975 0.15122642150484664
2320000000.0 0.08481873952250177 -0.41883312862582744
2340000000.0 -0.20351925298298004 0.41553294250069706
2360000000.0 -0.2763024039438926 -0.4207264456076847
2380000000.0 0.4242526215313437 -0.3408163550038193
2400000000.0 0.2881832145335058 0.5041516949539566
2420000000.0 -0.6140577452021914 -0.06240744772443016
2440000000.0 0.562129375662688 -0.334050060424059
2460000000.0 -0.4826810831743454 0.48714591272490004
2480000000.0 0.5040417954546329 -0.5039903968580165
2500000000.0 -0.6532970841191197 0.33316247792638487
2520000000.0 0.7460042292088219 -0.0429896214978238
2540000000.0 -0.7076930359375788 -0.26519369063427484
2560000000.0 0.23787045311510488 0.7196741090567778
2580000000.0 0.3244019425122702 -0.6783414212566212
2600000000.0 -0.6050179649225828 0.4224746549145955
2620000000.0 0.687000780633198 -0.20369025970205237
2640000000.0 -0.03630862253069234 -0.6873272869860595
2660000000.0 0.07247120042602719 0.6462183201925278
2680000000.0 -0.1993839484340551 -0.5721212445162717
2700000000.0 0.2905416222806292 0.4770406429181989
2720000000.0 -0.383269841436301 -0.3360967472968707
2740000000.0 0.36681973844327737 0.28105176174263524
2760000000.0 -0.32929664552240184 -0.25796908424370324
2780000000.0 0.25321375509640787 0.2851026997067893
2800000000.0 -0.1590423801897053 -0.3137119979576087
2820000000.0 0.04176608776363878 0.3280386910730811
2840000000.0 0.09156512590369852 -0.30227660283352914
2860000000.0 -0.15578823898809244 0.26641201431572
2880000000.0 0.184361408744323 -0.2393422909640949
2900000000.0 -0.2869681499275984 -0.07697002638408369
2920000000.0 -0.12762994691586935 0.265550086382502
2940000000.0 0.21810161584980464 0.19249214424191746
2960000000.0 0.2554133479451184 0.11123210983195389
2980000000.0 -0.17827427060114964 0.20059835835882858
3000000000.0 0.1876635155522397 -0.1828464787373229
3020000000.0 -0.2552547158075241 0.03358016216714608
3040000000.0 0.21149916243895805 0.13797145283536671
3060000000.0 -0.006840660482204481 -0.2431502998348289
3080000000.0 0.10351724985224273 -0.20277088751847713
3100000000.0 0.0538510943080682 0.21490788673478645
3120000000.0 -0.17713197156326396 -0.130923302895156
3140000000.0 0.16987916407686182 -0.1432358245510509
3160000000.0 0.05823857450000497 0.21644438714381653
3180000000.0 -0.21263598046063487 0.08056872833729863
3200000000.0 -0.18223193068658147 -0.13887612602934538
3220000000.0 0.08925065047998228 -0.2157105196018715
3240000000.0 0.20914348444572584 -0.12252283976320637
3260000000.0 0.024975256466594983 -0.24944576967516577
3280000000.0 -0.19872393664930407 0.15859324412761527
3300000000.0 -0.1104118442259609 0.22842097359211314
3320000000.0 0.0363360557314307 -0.24902013811122936
3340000000.0 0.2135816146131852 0.11215349016955191
3360000000.0 -0.21666061227651073 0.06345920416380893
3380000000.0 0.11380176097242524 -0.17912885232546405
3400000000.0 0.13779931381672625 0.14778797601270977
3420000000.0 0.17710323534021455 -0.06870818250844316
3440000000.0 -0.12298106129652756 0.1206032276202309
3460000000.0 -0.00665041655690665 -0.15177387919207053
3480000000.0 -0.03949511779055377 0.13265939859279388
3500000000.0 -0.10513420038994269 0.08421401417052041
3520000000.0 0.11387394960334075 0.07715120053590298
3540000000.0 -0.008981564043649783 -0.14052770105322876
3560000000.0 0.13755942450444 -0.04744088545449165
3580000000.0 -0.12926532114637143 -0.08222136316123749
3600000000.0 -0.1566588737005744 0.05528547183180761
3620000000.0 -0.1445413066069293 -0.11069919171579305
3640000000.0 0.1015405262377922 -0.17147453646829894
3660000000.0 0.014972101847260746 0.21386234291035197
3680000000.0 0.1655444443500625 -0.15815982586401925
3700000000.0 -0.2265591605987227 0.08414006804523962
3720000000.0 0.1018171992680469 0.22979305827105595
3740000000.0 0.12312442798506436 -0.2260906114620872
3760000000.0 0.16582264251744727 -0.2084779670022778
3780000000.0 0.07634840816702435 -0.2658719873718832
3800000000.0 -0.19320821287710316 -0.20994541168313474
3820000000.0 -0.18299151685258455 0.22860116255033838
3840000000.0 0.2881193745326621 -0.02727191755265475
3860000000.0 -0.0475952977464144 -0.27806887002156655
3880000000.0 -0.25181139464949226 -0.106364178046766
3900000000.0 -0.24446007233954595 0.10109709462885937
3920000000.0 0.20990892640075257 -0.13336920313399248
3940000000.0 -0.12227376507781448 -0.18716546813112847
3960000000.0 0.1033074367928243 0.1638186520574499
3980000000.0 0.022107729028058156 -0.1614893200709315
4000000000.0 -0.020198309746564787 0.1303982571427128
