!Created with skrf (http://scikit-rf.org).
# Hz S RI R 50.0 
!freq ReS11 ImS11
400000000.0 0.7289630254065147 0.3810351707718513
420000000.0 0.825673318515642 0.07649092870675511
440000000.0 -0.11100045378582445 -0.7624162841515584
460000000.0 0.5883221181330718 -0.41051076400938086
480000000.0 -0.3529135887684357 0.5550781560099145
500000000.0 0.06884451999970756 0.6427540191390463
520000000.0 -0.17213162590411707 0.5459304297244141
540000000.0 -0.5116622208431079 0.026075203052946246
560000000.0 -0.37072085490441703 -0.3054428923174403
580000000.0 -0.09353196732488266 0.42667092283156016
600000000.0 0.13891193004057353 -0.37251923470752046
620000000.0 -0.38482707268782135 0.05558875765499838
640000000.0 0.40724458150337073 0.0013102861684032685
660000000.0 -0.26294252203500496 -0.33341329671051717
680000000.0 -0.40446004520005274 -0.1559466038961208
700000000.0 0.03590788440385797 0.4184261597810992
720000000.0 0.13938244422583274 0.395112171661538
740000000.0 0.24073326945040638 0.3186619984311554
760000000.0 -0.006551562356665545 0.37203020580021484
780000000.0 -0.20360399348596367 0.26551053591607454
800000000.0 0.2944906762817341 -0.046075020018438786
820000000.0 0.27271012725680477 -0.009020944181044693
840000000.0 -0.09385946311992532 0.21238722813905517
860000000.0 0.20715655068244734 0.0020439823424590877
880000000.0 0.1528079690553828 0.03577125013767097
900000000.0 0.10610579383255696 0.006689879689769557
920000000.0 0.04234275535645804 -0.04856457153649479
940000000.0 -0.0007972760952235547 -0.037909881369010114
960000000.0 -0.03521654235419659 0.03692677310278938
980000000.0 -0.008442265692552714 -0.06448892966380565
1000000000.0 -0.027891106370909306 0.06035892984764177
1020000000.0 0.04517353212134996 0.08002613116678722
1040000000.0 -0.01278113810461571 0.11087210050309548
1060000000.0 -0.14444673615308093 0.008823962615792635
1080000000.0 -0.08710722476885534 0.16165307542294738
1100000000.0 -0.04099099401170212 0.20588042981671542
1120000000.0 -0.20075217883871702 -0.14436564577459812
1140000000.0 0.12247315416561723 -0.2536710775946471
1160000000.0 -0.2768580423815059 0.14601318737628097
1180000000.0 0.28607711521360435 0.17440120101140527
1200000000.0 -0.3127508110208356 -0.10566214110764682
1220000000.0 0.1069278803863897 -0.3404699274455859
1240000000.0 -0.37247510019616054 -0.1161248634074426
1260000000.0 0.37894914067440383 0.1757254127358512
1280000000.0 -0.3083467949660924 -0.2938919213958793
1300000000.0 -0.42215000539022135 -0.05437185177670783
1320000000.0 -0.4230004083532728 -0.0869442558948596
1340000000.0 -0.4297415364567985 -0.09133153337441786
1360000000.0 -0.20453131155821072 0.39876190341867573
1380000000.0 0.42893200677422244 -0.05190896856113033
1400000000.0 0.21653986106746645 -0.3538881305739041
1420000000.0 0.16096235010177173 -0.35175139693524343
1440000000.0 0.3669291148933006 -0.0773175019547758
1460000000.0 -0.14123856808525526 -0.3336082267509173
1480000000.0 0.15456028005739705 0.3083141638253481
1500000000.0 0.09327134165930948 0.2913840665934336
1520000000.0 0.24766439398086035 0.047801123736519485
1540000000.0 0.17505425458006907 0.1233899784210621
1560000000.0 0.08610558937665516 0.16485500539565365
1580000000.0 -0.09114505656466257 -0.1380463860979439
1600000000.0 0.09364370047733782 -0.09377516672764775
1620000000.0 -0.09946255156916697 -0.010354142416918951
1640000000.0 -0.06375072381143168 0.04230011363728059
1660000000.0 0.02664633423329043 0.047479470729581405
1680000000.0 0.023198612527501276 -0.020275589254851616
1700000000.0 0.013455173576311198 0.02495131193165224
1720000000.0 -0.006738319601477291 -0.035998237474160505
1740000000.0 0.03693605340178904 0.0002963600755889378
1760000000.0 -0.048159270380628075 -0.029571821498929077
1780000000.0 -0.07885101618804051 0.04941920628757492
1800000000.0 -0.08467194273324041 0.10485894982549449
1820000000.0 -0.10504509729178792 0.12558816936381714
1840000000.0 0.1871179738470158 0.027635348041519864
1860000000.0 0.08637851262280771 -0.20891886633426324
1880000000.0 -0.20499568767482965 0.17732931792657805
1900000000.0 -0.1626006117219875 -0.26739178522690216
1920000000.0 0.3325708492305621 -0.0903875025177612
1940000000.0 -0.3552864708294761 0.08465629679962197
1960000000.0 0.1772541113925507 0.3359831960881503
1980000000.0 0.32617282508333784 0.2265350830518525
2000000000.0 0.3879849981684543 -0.15373161148383874
2020000000.0 -0.20065937721119678 -0.3822673380867546
2040000000.0 -0.27837858687317857 0.3353253868369451
2060000000.0 0.2352515752725993 0.35762217427594434
2080000000.0 0.34451257779809746 0.24452969191534302
2100000000.0 0.4042263395449082 -0.09362163944707103
2120000000.0 0.09124295903636401 -0.3929808902677098
2140000000.0 -0.3137107154947232 -0.2242155106178472
2160000000.0 -0.007742582083062016 -0.3647759283940531
2180000000.0 -0.1952581761102637 -0.28289469551470153
2200000000.0 -0.32161937344078995 -0.043997551559780336
2220000000.0 -0.3047877645474991 -0.012101893804315872
2240000000.0 -0.2614971678308766 -0.14002277475044103
2260000000.0 -0.22023213529771885 -0.19986011131342768
2280000000.0 -0.17723648180271834 0.2485871026791545
2300000000.0 0.2798478594893952 -0.13315195861731013
2320000000.0 0.09175915455801302 -0.30797757508120227
2340000000.0 -0.17293214703195686 -0.3061056317412793
2360000000.0 -0.04435673470014725 0.3886279886335118
2380000000.0 -0.08767050750593704 -0.42791516718932704
2400000000.0 -0.053336431391485396 0.47861896447037944
2420000000.0 0.2108142267594813 -0.49284752494152245
2440000000.0 0.0277074867475129 0.5934452876342621
2460000000.0 -0.4180799589228485 -0.49006796999460245
2480000000.0 0.6274147725372536 0.27360953112348185
2500000000.0 -0.6455454788783114 -0.30981474595244685
2520000000.0 0.5951047857135348 0.4402589180973586
2540000000.0 -0.4756536373397714 -0.5856771245970623
2560000000.0 0.02377264126433789 0.7612871090158653
2580000000.0 0.515626300972863 -0.5590000729853575
2600000000.0 -0.7359181346045169 0.14298815199118237
2620000000.0 0.7003657798397965 0.21840762127229804
2640000000.0 0.5263170257044442 -0.4759652105812543
2660000000.0 -0.576365721960532 0.35818413671543825
2680000000.0 0.5110405417929346 -0.38963380413370535
2700000000.0 -0.4658303430789225 0.38585117351293263
2720000000.0 0.249102368733689 -0.5083862436354625
2740000000.0 0.13795001313949662 0.5089709579322091
2760000000.0 -0.3558927681446664 -0.3360731681441946
2780000000.0 0.4280336058381737 0.1608452170283862
2800000000.0 -0.3569575863345517 -0.24727386553679723
2820000000.0 0.40084007113746617 0.13021773191804506
2840000000.0 -0.39529514049749154 0.1046601212154135
2860000000.0 0.38957261924131736 0.0860119774532374
2880000000.0 -0.05069567234212933 -0.38928003751478346
2900000000.0 -0.3605330136745129 -0.1623266066299849
2920000000.0 -0.09356721989988968 0.3908891802449695
2940000000.0 0.39777517145925073 -0.05350134089905117
2960000000.0 0.32980749158814443 -0.21152142648362485
2980000000.0 0.3424492914883112 0.18584587841250605
3000000000.0 0.033454039133945096 0.3873170939038383
3020000000.0 -0.3347126508898931 0.18363888583805973
3040000000.0 0.0028732621114066527 -0.37217189862829536
3060000000.0 0.11009819840718464 0.3487784661342409
3080000000.0 -0.11477783578793634 -0.33858192595550923
3100000000.0 0.20534417057817103 0.2812524080382158
3120000000.0 -0.2973222583870833 -0.159069692285082
3140000000.0 0.3081656761185441 -0.0977273691716306
3160000000.0 -0.01660152811867136 0.3049807125239444
3180000000.0 -0.026154727824235332 -0.2808749924121459
3200000000.0 0.2361544263392183 0.08021591596880334
3220000000.0 -0.21816424385426367 0.0038885133650270296
3240000000.0 0.15312397533287905 -0.10580895118043801
3260000000.0 -0.05560285960724405 0.13844290285837194
3280000000.0 -0.11081311897763076 -0.0038925041429014456
3300000000.0 -0.03635133016095944 0.07910896378148223
3320000000.0 -0.011194702429221793 -0.0665649768405555
3340000000.0 0.006299782773824707 0.044758007294120876
3360000000.0 -0.011505529689764048 0.02372772431089233
3380000000.0 0.010031165773068933 -0.019803490256749618
3400000000.0 -0.027315818409002282 0.008626174029856775
3420000000.0 -0.026636112082732314 0.0005830472023619165
3440000000.0 -0.01753558889568499 0.004488772908705972
3460000000.0 0.012260362106370623 0.008742155962716689
3480000000.0 -0.02183925196283563 -0.00303364075794616
3500000000.0 0.007102738859344326 -0.02814740707856729
3520000000.0 -0.03762287513609052 -0.01360716182232333
3540000000.0 0.05475373997712195 0.011097528047632614
3560000000.0 -0.03916252224056406 0.05281702458410728
3580000000.0 -0.0332000606970863 0.06381468206663317
3600000000.0 0.06649997647125773 0.0358536127593603
3620000000.0 0.052314437757797 -0.06474565083904706
3640000000.0 -0.08008268618681011 -0.040339031126579404
3660000000.0 0.09593727048590533 -0.010944698386076783
3680000000.0 -0.02095062726109842 0.09514078701497279
3700000000.0 0.07828322101773814 -0.052625505570405295
3720000000.0 -0.006148418071249185 -0.0924630153775967
3740000000.0 0.06832435611333346 -0.05860538436629016
3760000000.0 -0.0605242516683387 -0.07135318612558059
3780000000.0 0.012143266685219735 0.09672126639560387
3800000000.0 0.09695665395842766 -0.03606816102374413
3820000000.0 -0.1042968025866932 0.059839332408834205
3840000000.0 0.11761801486746921 0.07404408671368555
3860000000.0 -0.153721631066155 0.010885453236946252
3880000000.0 0.16370438036623686 0.03876219480197231
3900000000.0 -0.16256409949944187 -0.09181200987837754
3920000000.0 -0.18516125079475834 -0.08547748204372504
3940000000.0 -0.005172680784528717 0.2113338699292537
3960000000.0 0.1726475546092753 0.11738121867600472
3980000000.0 0.10876288683429516 0.17132111437668196
4000000000.0 -0.12608048348875786 0.15079981783677002
