!Created with skrf (http://scikit-rf.org).
# Hz S RI R 50.0 
!freq ReS11 ImS11
400000000.0 0.2885878547512298 -0.7997847911474127
420000000.0 -0.7631630606573072 -0.32533296721095506
440000000.0 -0.7755845200421632 -0.06222223945458586
460000000.0 -0.7029456814245956 -0.15371556345065815
480000000.0 -0.003655253666420469 -0.6506063382857361
500000000.0 -0.26390011197572694 -0.544210081584983
520000000.0 0.4327042641957564 0.31063001976640114
540000000.0 0.13215440405383835 -0.45867828287143253
560000000.0 0.25093040612295797 0.3746587921508926
580000000.0 0.3974639856225836 -0.13785844691104165
600000000.0 -0.3581037888569377 0.15688506776929337
620000000.0 0.1638843219608081 0.3548152654897085
640000000.0 -0.19102329519689998 0.3780292827774524
660000000.0 -0.20833588143942688 -0.3944272630933493
680000000.0 -0.39311101520273684 0.20569600934782495
700000000.0 0.42317696867835664 -0.07708296141551033
720000000.0 -0.23254259510870914 -0.34890881638964677
740000000.0 -0.2874354574048164 -0.24928726597716905
760000000.0 0.1195676570613837 0.3215711583243139
780000000.0 0.30024725106926137 -0.09200714718838073
800000000.0 -0.2806894930208043 0.12870498985181766
820000000.0 0.20151451692651248 -0.18887197953349288
840000000.0 0.2294377590761678 0.04802758508268717
860000000.0 -0.19459277645978176 0.05951875824944819
880000000.0 -0.09490603515755705 0.12235105296247441
900000000.0 0.09994610834067605 -0.014523357023153213
920000000.0 -0.024138823312982265 0.0473877429988817
940000000.0 -0.02797000289092467 0.0009339890424034053
960000000.0 0.04325425434183252 0.009097492844610859
980000000.0 -0.05337992150522169 -0.03720524805514105
1000000000.0 0.0818563272389335 -0.006078406552565603
1020000000.0 -0.0027721988744673102 -0.10457857921682752
1040000000.0 0.049057554688839315 -0.10112787652892143
1060000000.0 -0.08815026952380688 -0.1053163264339852
1080000000.0 0.09906223223691488 -0.14801225841311091
1100000000.0 -0.11426588889853978 -0.1786878151098197
1120000000.0 -0.10807798074665094 -0.23018898439475088
1140000000.0 -0.23837467357855177 -0.15484086447697987
1160000000.0 0.15672528430256863 0.26322825282362405
1180000000.0 0.1699775573336588 0.2748286099561661
1200000000.0 0.13449349222227508 -0.3042771707242857
1220000000.0 0.1403553733769941 -0.33667698632528265
1240000000.0 -0.24605937765201488 0.3087556986250144
1260000000.0 0.4063799135956265 -0.0783037037999094
1280000000.0 -0.3536468681651054 -0.2322885807387103
1300000000.0 -0.417927435989114 -0.05968187356502617
1320000000.0 -0.41869922486658695 -0.10747821464139692
1340000000.0 -0.40033212590898415 0.1757510294304456
1360000000.0 0.04651145849340649 0.4355184618042032
1380000000.0 0.37057935582974855 0.20245734479437455
1400000000.0 0.39424425676851205 0.09623202409957393
1420000000.0 0.38510964819226023 -0.076338124274287
1440000000.0 -0.17261946390199723 -0.33567547167182665
1460000000.0 -0.09315595395444239 0.334391451657223
1480000000.0 0.3150794048201892 0.034342339336458236
1500000000.0 -0.17413071570074704 -0.2241679503734093
1520000000.0 -0.1732731483529458 0.1776060740883306
1540000000.0 0.1862182225768514 0.08811689566173109
1560000000.0 0.04853035131195599 0.16755302042238052
1580000000.0 0.1460995833892245 -0.0392989913889205
1600000000.0 -0.07403935787483597 -0.1008948280800471
1620000000.0 0.02915508446246204 -0.09852434573688668
1640000000.0 0.015893130480036495 -0.06964002920078383
1660000000.0 0.04198116561242598 0.016365248997704175
1680000000.0 -0.009979776138457516 -0.022701869094680534
1700000000.0 -0.02554890851676165 -0.0003223079780533374
1720000000.0 -0.033750226512672794 -0.004752529787063952
1740000000.0 0.002939242636440671 0.058178147613400885
1760000000.0 -0.06828669432824513 0.041578626381395034
1780000000.0 -0.016260438039439797 -0.1060028812566326
1800000000.0 0.12496755568071581 0.06244777098202662
1820000000.0 0.09147006086817411 -0.14106372516553545
1840000000.0 -0.20562144955339842 -0.03848857202846859
1860000000.0 -0.028494215472652677 -0.24899950656359218
1880000000.0 0.2853878876117358 0.0028188031137027164
1900000000.0 -0.27415228054297547 0.15691508871187992
1920000000.0 0.3395053529227643 -0.03637570253465966
1940000000.0 -0.1977242277078021 -0.307608181544253
1960000000.0 -0.31246025412142386 0.22587357705926048
1980000000.0 0.009410946107577851 0.4053319715548697
2000000000.0 0.4251495921231383 0.026597243707950965
2020000000.0 -0.14445652719384489 -0.41391887516209175
2040000000.0 -0.3741963472149355 0.23696511010139315
2060000000.0 0.3596654220023588 0.24633602989052839
2080000000.0 0.4205898298711942 -0.05096936195755257
2100000000.0 0.3262427392081473 -0.2509367959218233
2120000000.0 0.10580983526880501 -0.3864658089928979
2140000000.0 -0.3275473595513927 -0.20109070879896887
2160000000.0 -0.05565627514198211 -0.35694195605471035
2180000000.0 0.0012359527536654651 -0.33807635261401736
2200000000.0 0.05723227565345001 -0.31757443607711916
2220000000.0 0.1924777724793129 -0.24566933093400523
2240000000.0 -0.08814759919630309 -0.30077056455501094
2260000000.0 -0.21015637893706743 0.22532634798336534
2280000000.0 0.03856378335782544 0.30157683860585127
2300000000.0 0.1850109072739602 0.25080606522946963
2320000000.0 0.3029557743957689 0.1406249721033766
2340000000.0 -0.12055315854956485 -0.3468806167326872
2360000000.0 -0.0036022020947472323 0.4025682368959068
2380000000.0 0.11219078848158748 -0.4328010861425268
2400000000.0 -0.015141722779633595 0.49772685340724665
2420000000.0 -0.2303028317018449 -0.5017690764914243
2440000000.0 0.5872781783199167 0.1382793198290134
2460000000.0 -0.5528685935711554 0.3349134356161573
2480000000.0 0.4095464012348957 -0.5473590781520583
2500000000.0 -0.3889490785950578 0.5983617476627903
2520000000.0 0.5069809405037267 -0.5305478154533536
2540000000.0 -0.5658237767594215 0.48717583964984545
2560000000.0 0.7458000842062464 -0.09148436987871374
2580000000.0 -0.6365725034214548 -0.39229421293444694
2600000000.0 0.32063862464402404 0.663059952565287
2620000000.0 -0.038292820385108 -0.7184501220425853
2640000000.0 -0.620264398675433 -0.31347724398685417
2660000000.0 0.5380930384581082 0.38722105495268666
2680000000.0 -0.5257686979668189 -0.3407108446480173
2700000000.0 0.5227002795541582 0.2724141335178166
2720000000.0 -0.5364202091823627 -0.11317003409500634
2740000000.0 0.49926724083818247 -0.0947247397726062
2760000000.0 -0.4501962878041677 0.14184710250985952
2780000000.0 0.39590931096313753 -0.1958521692352972
2800000000.0 -0.383488687174586 0.1719615127883384
2820000000.0 0.2888953496895076 -0.2852818075260781
2840000000.0 -0.12758666288114112 0.3735840503420473
2860000000.0 0.1565574811540282 -0.35197342764733514
2880000000.0 -0.375007488038184 0.05083261381752845
2900000000.0 -0.04349400390803317 0.3760645061733907
2920000000.0 0.36825510838536774 0.10134879686310906
2940000000.0 0.14868577541312933 -0.35346105303606695
2960000000.0 -0.050203977063613875 -0.37637657254607126
2980000000.0 0.24715895673142008 -0.2844026520981256
3000000000.0 0.2984194557841409 0.23129922042579598
3020000000.0 0.018007396720903485 0.3767883159899246
3040000000.0 -0.3626594318499528 0.06191316452640898
3060000000.0 0.1864622820772159 -0.30482079540705703
3080000000.0 -0.2844884304041527 0.19712798218012165
3100000000.0 0.3225363499736342 -0.09623822433564912
3120000000.0 -0.3248156542140531 0.03988946814575804
3140000000.0 0.15331625606933091 -0.2755904435244337
3160000000.0 0.0685495955242976 0.2881833650567563
3180000000.0 0.15932386885462718 -0.22174309664706615
3200000000.0 0.1639243773612608 0.18145364063885594
3220000000.0 -0.1810833532603463 -0.10434777314557903
3240000000.0 -0.08338134917125795 0.15343796138900126
3260000000.0 -0.08518000416414105 0.11331103267738894
3280000000.0 -0.0004821829702535962 -0.11088508332248011
3300000000.0 0.02839273919183766 -0.08364993280766968
3320000000.0 0.0399606937121087 0.05880409804180882
3340000000.0 -0.060447363915759944 0.00912488618865782
3360000000.0 -0.033351103405770244 -0.03517209583826799
3380000000.0 0.03480091115547262 -0.014784501717067113
3400000000.0 -0.01480882487112198 -0.031804633041640565
3420000000.0 -0.02269770714704832 0.022706899375302014
3440000000.0 -0.0021292861661687244 0.025320042987618894
3460000000.0 -0.012258582910689429 -0.01610090079487649
3480000000.0 0.0040712335397647325 -0.010329760200621462
3500000000.0 0.013242274712489394 0.006963848566302667
3520000000.0 -0.023831408513457945 0.020761224504815816
3540000000.0 -0.04699172236268541 -0.0030957165706182012
3560000000.0 0.014966069551055505 -0.05521370287167399
3580000000.0 -0.009988150198405576 0.06617302279673219
3600000000.0 0.020716297560094386 -0.07419438984991074
3620000000.0 0.06067778996518885 0.06172806592262526
3640000000.0 -0.07777674295634902 -0.05074831615577625
3660000000.0 0.07118701573231677 0.06531944713546116
3680000000.0 0.09104728295694588 0.04492445824122648
3700000000.0 -0.06755602899778564 -0.08421543290546603
3720000000.0 0.09903029678786268 0.05264876099273227
3740000000.0 -0.1041674628051378 -0.04068935657358735
3760000000.0 0.10156195413210138 0.04787038090696075
3780000000.0 -0.05814820962259394 -0.10402274541856027
3800000000.0 0.08715031079592021 -0.10120345009982039
3820000000.0 -0.14587610358578298 -0.03634926549857718
3840000000.0 0.15397529474016924 0.051891424073562474
3860000000.0 -0.12098960586104386 -0.13080531472480678
3880000000.0 0.19341882189564386 -0.030024176783578445
3900000000.0 0.2071339239793742 0.0358269126575348
3920000000.0 0.19476408419114813 -0.09431631535672624
3940000000.0 0.20237245076223487 -0.07975897640584133
3960000000.0 0.16758928804128742 -0.13783694136363675
3980000000.0 0.09983013717286779 -0.186273496889139
4000000000.0 0.06895103865197454 -0.18824622604056918
