!Created with skrf (http://scikit-rf.org).
# Hz S RI R 50.0 
!freq ReS11 ImS11
400000000.0 0.8072351995302572 0.14803632860237292
420000000.0 0.6710107365488537 -0.4802718464873513
440000000.0 -0.27030065915823154 -0.7275706632473994
460000000.0 0.13340471529740588 -0.7102191122017399
480000000.0 0.33364007943255136 0.5758610884084404
500000000.0 0.4636733411572513 0.4348553116572612
520000000.0 -0.3480943930235345 0.45411651116672824
540000000.0 -0.5203824142948322 -0.07962524540930471
560000000.0 -0.34006081453074577 0.35653112005767085
580000000.0 0.3713996787375985 -0.21126514661347764
600000000.0 -0.19122748102583922 -0.32594180408675727
620000000.0 0.16912402978182614 -0.32366263927784716
640000000.0 -0.317409325490881 0.2507805654833442
660000000.0 0.1415431308508258 -0.41579421425152807
680000000.0 -0.3467699364218957 0.2699480515332415
700000000.0 0.4161022976947089 -0.06458486743670346
720000000.0 0.40706246676212254 0.03827728693673902
740000000.0 0.21112187139599795 0.33308405185100987
760000000.0 0.1413960305017737 0.3425003082388359
780000000.0 0.06619240314580228 0.32559153784820233
800000000.0 -0.24057800382967295 -0.16445929434167808
820000000.0 0.20848799723279013 -0.15133077500431705
840000000.0 0.10555147255718747 0.1917705629391959
860000000.0 0.07768330752491105 0.16833663399017895
880000000.0 0.10308328622259731 -0.1151578757337442
900000000.0 0.03145328530565877 0.09980284963414635
920000000.0 0.052333419628395356 -0.03768052668466125
940000000.0 -0.0125566622978008 -0.041095753816194854
960000000.0 -0.012344643389459444 0.043429089999687996
980000000.0 0.0633365482520891 0.019895861578646853
1000000000.0 0.07137287801420462 -0.04135182248517761
1020000000.0 0.013528496341169689 -0.10104684619010136
1040000000.0 0.07895019394449154 -0.10508354626141352
1060000000.0 -0.08245470787159594 0.13842995217499765
1080000000.0 -0.15502346876934822 0.12161928671361151
1100000000.0 0.1203851605229873 -0.1920758169302378
1120000000.0 0.24468197304578415 0.0488081741437766
1140000000.0 -0.2560679283198331 0.09545797750223478
1160000000.0 -0.2660281885168563 0.1424809730416132
1180000000.0 -0.24337218209377467 0.22320420279331607
1200000000.0 -0.04654208259891445 -0.3379047546943758
1220000000.0 -0.17182637093814068 -0.32002955118086385
1240000000.0 -0.06037867377557929 0.3843814505508237
1260000000.0 0.1398222165714898 0.3795237370351787
1280000000.0 0.3323726733891977 -0.2665347737138461
1300000000.0 -0.175445126811385 -0.3933178594417696
1320000000.0 -0.19876627431689003 -0.3924975316707052
1340000000.0 -0.41849532706168524 0.16792592925266814
1360000000.0 0.2073181616101052 0.3933298816328802
1380000000.0 0.4070313331653745 -0.12696403592672775
1400000000.0 0.4020997304408755 -0.059382096757858834
1420000000.0 0.2728059580628016 -0.27874477258125796
1440000000.0 -0.10871863210656921 -0.35303107900644654
1460000000.0 -0.31829585220397216 -0.12513237937218621
1480000000.0 -0.29497531971724855 0.12554161435533442
1500000000.0 0.21545006935559252 -0.20057477191282572
1520000000.0 -0.2583061994466553 -0.009049087848406837
1540000000.0 0.2157799174009255 0.03435320993836123
1560000000.0 0.01952440017936218 -0.18001345526399282
1580000000.0 -0.1035536084285713 -0.10925375174873161
1600000000.0 0.10714420471112802 0.06114048396479419
1620000000.0 0.04333781430482188 -0.0790374733763542
1640000000.0 -0.02795759071333075 -0.06611090874730877
1660000000.0 -0.018475481176572266 -0.03703404612334734
1680000000.0 0.008322349250700464 0.02319096262114928
1700000000.0 0.03457592784240913 -0.012538934919457059
1720000000.0 -0.006800765472417215 -0.044819172914850956
1740000000.0 -0.019408749213998346 -0.04843544345755404
1760000000.0 -0.019176975860876997 0.06772391944005926
1780000000.0 0.10261064814106088 -0.00499766516119543
1800000000.0 0.015091170098401819 0.1368663961817708
1820000000.0 0.16495548978329677 -0.013406953309226671
1840000000.0 -0.020256474288614903 -0.20491706028834414
1860000000.0 0.2506782873505128 0.03507144275871151
1880000000.0 0.27696034957289467 0.09623549102483965
1900000000.0 -0.1402705233910943 0.2887089085015404
1920000000.0 0.12662281996003438 -0.3171482729273704
1940000000.0 -0.2058654877249792 -0.3001677259742619
1960000000.0 -0.20035152504724987 0.33607437301389526
1980000000.0 0.40614758195498213 0.010016316583986997
2000000000.0 0.16182861492992245 -0.3874268479032622
2020000000.0 -0.3255007336670191 -0.27825860327352114
2040000000.0 -0.42700671482131053 0.057049631406347855
2060000000.0 -0.2696668165570924 0.3390732197921507
2080000000.0 0.2257368349718054 0.3698011267418966
2100000000.0 0.07869846109292304 -0.4198318967261704
2120000000.0 -0.3316161086870769 0.23171882401309044
2140000000.0 -0.3206412701988331 -0.19226978153042373
2160000000.0 -0.10630086036702886 -0.33205682702263706
2180000000.0 0.2319111451027925 -0.23796779302188215
2200000000.0 0.18683592588410391 -0.2627199319913993
2220000000.0 -0.12847907012340098 -0.2836235883636012
2240000000.0 -0.20155262659417486 -0.22723395840880756
2260000000.0 -0.2517481255343019 -0.16843998358975962
2280000000.0 -0.23968155283670678 0.19855616141688573
2300000000.0 0.2740219672782225 -0.162437621122412
2320000000.0 -0.004884806994220334 -0.33033219943342296
2340000000.0 -0.30021989488013623 -0.19583668277109093
2360000000.0 -0.028717894195821082 0.3937856749977838
2380000000.0 0.27724460974148835 -0.3448244411894973
2400000000.0 -0.3414220876865711 0.35915726803672093
2420000000.0 0.15572313692441148 -0.5269611421703406
2440000000.0 0.27212819574763725 0.5382077321863974
2460000000.0 -0.6434265534738934 -0.09908154799452548
2480000000.0 0.5689854716541624 -0.39040131832156844
2500000000.0 -0.5478901760112215 0.4667937879162837
2520000000.0 0.5133278330348274 -0.5335884179637677
2540000000.0 -0.6146371623456132 0.43552106555623954
2560000000.0 0.6789593824995857 0.3393082544070201
2580000000.0 -0.15580411111847683 -0.7407989906133846
2600000000.0 -0.39023596651361736 0.6373196700356449
2620000000.0 0.39571755344199677 -0.6137935645902927
2640000000.0 -0.3906562346452484 -0.5874944322157446
2660000000.0 0.2745677791040196 0.6146071333067346
2680000000.0 -0.3765806421521527 -0.5141362691412953
2700000000.0 0.5419063639616923 0.25383053923766374
2720000000.0 -0.5555030653016312 -0.05368811240048063
2740000000.0 0.5152892651671624 0.07051794788079234
2760000000.0 -0.4587919746412471 -0.16227811288316585
2780000000.0 0.45211083326586615 0.07271150508153999
2800000000.0 -0.4314071475437833 0.016915241042765376
2820000000.0 0.39704995982564417 -0.11178304534645744
2840000000.0 -0.3749305357025874 0.13991750313573137
2860000000.0 0.34350814284692033 -0.19059632468650511
2880000000.0 -0.3879827652191736 0.0047770614260359695
2900000000.0 -0.021709355150465518 0.3852240815511592
2920000000.0 0.336568938936153 0.19363161084424588
2940000000.0 0.25831816460637735 -0.2914042009985308
2960000000.0 -0.043183334268592236 -0.3804141479592218
2980000000.0 0.12967746934317373 -0.3588106618287849
3000000000.0 0.3751884707295693 -0.044667023762630646
3020000000.0 0.06987071685410258 0.3642547329596322
3040000000.0 -0.35673995756563076 -0.0644989983861746
3060000000.0 0.3523324947851265 -0.013667514409287866
3080000000.0 -0.3044411997076717 -0.1606062598399773
3100000000.0 0.2849906301440159 0.18315610541716493
3120000000.0 -0.27817483754955075 0.17989470016734357
3140000000.0 0.11163927852388708 -0.291528595478177
3160000000.0 -0.06225259789031138 0.28399279781294406
3180000000.0 0.2178692535685657 -0.16005180813102673
3200000000.0 0.13548444121645128 0.19833055738531596
3220000000.0 -0.20336839059094142 -0.011946462744580291
3240000000.0 -0.037127896652712704 0.16181889213044995
3260000000.0 -0.03255856220502345 -0.12924255771312218
3280000000.0 -0.09351442942813726 0.05630085221928369
3300000000.0 -0.05636652048552014 0.07025515440250384
3320000000.0 -0.005611137362727017 0.06737114562571123
3340000000.0 0.04792456770044387 0.019236393745624646
3360000000.0 0.03556490346009608 0.017263164097307753
3380000000.0 -0.01825744577290627 0.037620324991729105
3400000000.0 -0.04367305398598976 -0.004199107072726625
3420000000.0 0.03409545312318188 0.02322320940731271
3440000000.0 0.03380973860330831 -0.0020085363398711694
3460000000.0 -0.01736642650927859 0.01927803912438948
3480000000.0 0.017502631047370716 -0.00826858569269125
3500000000.0 -0.0072651185748061915 -0.014547429291580457
3520000000.0 0.02418673076441921 0.00822221714208939
3540000000.0 0.013852719767787021 -0.04427088921204963
3560000000.0 -0.05416611542480726 0.021641136121186698
3580000000.0 -0.06101711647697696 0.01071861308468704
3600000000.0 -0.02513052858059214 -0.0604543487776791
3620000000.0 -0.04559166023665038 -0.056752981311171104
3640000000.0 -0.029041387231173783 0.07320749048199421
3660000000.0 0.014712757807268759 0.08197809393511556
3680000000.0 0.08559674625715177 -0.027958183420390716
3700000000.0 0.07428743160675544 -0.05696800746628212
3720000000.0 -0.005385792091737922 0.09931233597044564
3740000000.0 0.0489112037963332 0.08928830714189322
3760000000.0 -0.10358759796456771 0.01237350027908759
3780000000.0 -0.007554233346824669 0.10799344475682601
3800000000.0 0.12534320497523274 0.01899091248003552
3820000000.0 -0.13741042071892282 -0.05388010621423111
3840000000.0 0.0658121867102529 -0.14753640593522674
3860000000.0 -0.16716168135257586 0.06999712790134446
3880000000.0 -0.057018233707939285 -0.19209475319474487
3900000000.0 -0.11010541508248178 -0.1833910521105162
3920000000.0 -0.18784173648614225 0.13046737446555445
3940000000.0 -0.07729106042687785 0.21599712027179432
3960000000.0 -0.21407945552956936 0.07790958779724218
3980000000.0 -0.09892833272145905 -0.19408954575437037
4000000000.0 0.12277049844256623 -0.1662775425323097
