!Created with skrf (http://scikit-rf.org).
# Hz S RI R 50.0 
!freq ReS11 ImS11
400000000.0 -0.018611349845730506 0.8042374358404986
420000000.0 0.8037348106732446 -0.048278439838637416
440000000.0 -0.15800282850481193 -0.7266583049611528
460000000.0 -0.09623750673798484 -0.6861811993612001
480000000.0 0.6324284901631837 -0.024269395368963508
500000000.0 0.1452539514591359 -0.5949012787150014
520000000.0 0.02861104800839295 -0.5462055610198482
540000000.0 0.47349427326360455 -0.14127247007308372
560000000.0 -0.39283481574009177 0.28019902769032956
580000000.0 0.39358391337235926 -0.2249774006989015
600000000.0 -0.35024067297426065 -0.23037819337365398
620000000.0 0.4033743412257021 0.05288246303177582
640000000.0 0.416584653613864 -0.1207441513092808
660000000.0 0.03759244927148015 -0.46764311145878545
680000000.0 -0.30412484313347765 -0.3592563712170094
700000000.0 0.057568547501554636 0.45152088862846573
720000000.0 0.3743106208066341 0.22988509316012073
740000000.0 -0.3534859636299946 0.19856283456192486
760000000.0 0.22978697210268711 -0.29914590108294453
780000000.0 -0.3143728463264051 0.16125217006973167
800000000.0 -0.09000595246226721 -0.3179637567996023
820000000.0 -0.1829967775517012 0.2233098873062907
840000000.0 -0.028486279260384946 0.218059831632122
860000000.0 0.17409703079536845 0.09880871683119735
880000000.0 -0.06762016751677177 0.14114354599593681
900000000.0 0.1218939882840635 -0.021456883075184573
920000000.0 -0.001976125855865714 0.0676623846768918
940000000.0 -0.014295988420358311 0.03411185957435776
960000000.0 0.014633191194621583 -0.015461861433550756
980000000.0 0.02718570175038402 -0.008507458584371186
1000000000.0 -0.0300887647631979 0.03963816489910249
1020000000.0 0.07361086675653523 0.03276801051335386
1040000000.0 0.06986472453810105 0.08059648440086747
1060000000.0 0.08382803442884704 -0.11227057882186195
1080000000.0 -0.18725757249419944 0.01240555431269888
1100000000.0 0.21821127446785196 -0.06517456869202944
1120000000.0 -0.1807294864055872 0.20089506390185907
1140000000.0 0.2821763388717745 -0.1044560749363752
1160000000.0 0.051949788109079485 -0.3205424913519115
1180000000.0 0.22648005462155035 0.25324467385067073
1200000000.0 0.0646001186676609 -0.34667191720098856
1220000000.0 -0.1531939994473886 -0.33508298758229804
1240000000.0 -0.27585988428644653 0.26968329965840754
1260000000.0 0.22651166539543335 0.32299118294275586
1280000000.0 0.3502158640413638 -0.1874117706813766
1300000000.0 0.14682867517952672 -0.36338531316139094
1320000000.0 0.012162500180716669 -0.38760479906302414
1340000000.0 -0.20721497839743 -0.32301769040960276
1360000000.0 -0.14705852655368465 0.33256821120655644
1380000000.0 -0.33161653371116645 -0.03986862881496559
1400000000.0 -0.2993428445195916 0.0961547496049901
1420000000.0 -0.2288726540122621 0.17669836322767069
1440000000.0 0.20254744939654376 0.17338887018655352
1460000000.0 -0.22954923720931328 -0.02408325261262739
1480000000.0 0.16627533707160097 -0.08097130805767976
1500000000.0 0.13101291719384373 0.038187450131749075
1520000000.0 0.09420384986270446 -0.035043668269784674
1540000000.0 0.05723458496781517 0.001048773535746637
1560000000.0 0.013036121791362064 -0.011439228916858033
1580000000.0 -0.024897513854320725 0.003472074530223298
1600000000.0 0.039118811327562536 0.012926582248928998
1620000000.0 0.05067244077544984 -0.01931060555591121
1640000000.0 0.04271733952174305 -0.07330693276782554
1660000000.0 0.07235582851695825 0.08280228299573972
1680000000.0 -0.05821240454640369 0.1202706070234154
1700000000.0 -0.14832386772880055 -0.046209912361614265
1720000000.0 -0.1245774395274352 0.12323315871990663
1740000000.0 -0.02885320523771358 0.18747092852653335
1760000000.0 0.050730617592992 0.20648018694054093
1780000000.0 0.04418412136261514 -0.23685661544114642
1800000000.0 -0.2054466763182885 -0.17470004987208393
1820000000.0 -0.01781787633253791 -0.2972872794567522
1840000000.0 0.32005927475828305 -0.09003593874218249
1860000000.0 0.3626958438792044 -0.03198954339228043
1880000000.0 -0.060992099868245726 0.3910494145774452
1900000000.0 -0.29757144924346574 -0.29498572327782974
1920000000.0 0.3280246804077637 0.30355487473372444
1940000000.0 -0.38270838615504543 -0.2754150654166154
1960000000.0 0.29813363334952314 0.3857056938332698
1980000000.0 0.056887128228851766 -0.4975592433647528
2000000000.0 -0.4709219363439563 0.18242829686373868
2020000000.0 -0.162535892962873 0.4839920353406427
2040000000.0 0.4605514898767799 0.22921444945585798
2060000000.0 0.03225178575426945 -0.5101325586932861
2080000000.0 -0.4992441903016765 -0.018245755994256714
2100000000.0 -0.2036049360415661 0.4381012218038461
2120000000.0 0.16240694361863092 0.439999810182098
2140000000.0 0.11243304659843753 0.43862462578367567
2160000000.0 0.4266915859423463 -0.017846184749455183
2180000000.0 0.2415933474740891 -0.3271851432565081
2200000000.0 -0.30350258775823613 -0.2474892771792474
2220000000.0 -0.17009097260340314 0.33510233314380344
2240000000.0 0.35414340813632744 -0.08846318678184907
2260000000.0 -0.027725851229842183 -0.35065827948193157
2280000000.0 -0.3453649645550212 -0.06171303820721876
2300000000.0 0.22817837132541693 0.2714481518778112
2320000000.0 0.29249518976624284 -0.21267606137983433
2340000000.0 -0.07330061855310634 -0.37176696111049035
2360000000.0 -0.38427128230808505 -0.12764474316382982
2380000000.0 -0.1716903141185141 0.4079849750889089
2400000000.0 0.48111584329122176 -0.010571173472713243
2420000000.0 0.030415645561584204 -0.5231385243641687
2440000000.0 -0.5401748724431154 0.1963941080492794
2460000000.0 0.5959479083954956 0.17677907982698945
2480000000.0 -0.43488216415492137 -0.5011326385847966
2500000000.0 -0.0888665095428 0.6929850323222531
2520000000.0 0.44415335591700855 -0.5723562471723
2540000000.0 -0.6887621826361298 0.2785978002103202
2560000000.0 0.6596557861013036 0.36514539373663407
2580000000.0 -0.13620962469650896 -0.743277588973337
2600000000.0 -0.5258233910362662 0.5341092982418452
2620000000.0 0.7365793909714262 0.0073361718412980545
2640000000.0 0.47891338339245976 -0.5360768600693039
2660000000.0 -0.6818194265942907 0.13886037724894762
2680000000.0 0.6707004624890557 0.0225713170787572
2700000000.0 -0.6442753080650457 0.01525396956847368
2720000000.0 0.5405744421615063 -0.29632045852102484
2740000000.0 -0.22771739602668473 0.5434930278505722
2760000000.0 -0.37126685034570045 -0.4228107409367627
2780000000.0 0.4677047788847699 -0.2738950101014195
2800000000.0 0.21515027925633057 0.47974139319622683
2820000000.0 -0.4675095013141343 0.2113005363117761
2840000000.0 -0.17655390339459937 -0.47144119888511654
2860000000.0 0.4947914604658216 -0.027368262297583674
2880000000.0 -0.38762448763624124 0.2942538728196027
2900000000.0 0.40941611090459545 -0.2509563889110642
2920000000.0 -0.4755483518491734 -0.015889214397616248
2940000000.0 0.22237114371737238 0.4116599824600419
2960000000.0 0.4425309057735261 -0.10983080361277886
2980000000.0 0.3927930505595976 -0.2066386677516968
3000000000.0 0.39197026846195243 -0.19102019580216573
3020000000.0 0.404112867860746 -0.12648951330024627
3040000000.0 0.39644440415246524 0.08876933756059498
3060000000.0 0.20759789548722524 0.3254278722005517
3080000000.0 -0.18873784089979825 0.3075481438173438
3100000000.0 -0.33275912355267867 -0.035669548218917754
3120000000.0 -0.21675280799643012 -0.21473922557440583
3140000000.0 0.25067281358920807 -0.10405312723820016
3160000000.0 0.20411783042462903 -0.10474192637680713
3180000000.0 0.15315253005012824 -0.09956441786105177
3200000000.0 0.13088419032766727 0.020205304524015193
3220000000.0 0.04031736231735346 0.07335630780496467
3240000000.0 0.01194232366448134 0.03197862023940229
3260000000.0 0.016456188272471473 0.0009413841735692994
3280000000.0 -0.026033783413148947 -0.04748562329224769
3300000000.0 -0.05726001670725673 0.06311629249956421
3320000000.0 0.11007275173961449 0.03493779595363066
3340000000.0 0.1285087896282044 -0.05496732305483748
3360000000.0 0.11841167353422725 0.09173171513277649
3380000000.0 0.07628494386521006 0.13836576943352288
3400000000.0 -0.14950759347784218 0.06022367106502
3420000000.0 0.06035323690223462 0.14662315330374226
3440000000.0 0.043577900533288 -0.1410367229585957
3460000000.0 -0.06817102267166038 0.11374789758901144
3480000000.0 -0.07851026407576106 -0.08633263086284286
3500000000.0 -0.09171764927622876 -0.04921378655208022
3520000000.0 -0.07193271548979244 -0.06345293847063677
3540000000.0 0.09051715136777343 0.01866762002091351
3560000000.0 0.014652943067725832 -0.09631443843869887
3580000000.0 0.011589071536864984 0.11068612729179306
3600000000.0 0.12522204940935647 0.043538664275205335
3620000000.0 -0.1392752113816941 0.07056554318606617
3640000000.0 0.15759220987149283 0.08765606811924793
3660000000.0 0.13364731048558717 -0.15150135602111106
3680000000.0 0.18053652652509497 0.12450896993223871
3700000000.0 -0.10331502175554057 0.21086870758030804
3720000000.0 -0.2385515080786678 -0.05927920045719591
3740000000.0 0.15344848713794806 -0.1992918264000684
3760000000.0 -0.251743696539108 0.046952770187925943
3780000000.0 0.25573444738631534 0.01170167347624705
3800000000.0 -0.23141451810208502 -0.09292518663875003
3820000000.0 0.15678898981328696 0.18320138670131275
3840000000.0 -0.17126430951397448 -0.1405545250079275
3860000000.0 0.032797689599281726 0.19538461442008667
3880000000.0 0.12127980897948928 -0.1182789260416755
3900000000.0 0.05575357641344022 0.11930715140008794
3920000000.0 -0.09449313106242585 0.017457667894118567
3940000000.0 0.01187282744459862 0.0572504795466664
3960000000.0 -0.020983164722690333 -0.025386100506361375
3980000000.0 0.01024771185620465 -0.050952642461506735
4000000000.0 0.07954426983117374 0.024712493367270258
