!Created with skrf (http://scikit-rf.org).
# Hz S RI R 50.0 
!freq ReS11 ImS11
400000000.0 -0.7961663853512166 0.1709397686983655
420000000.0 -0.3580432540925943 0.7368108971608875
440000000.0 0.13747565596430059 0.7568554604772795
460000000.0 -0.17775647932334412 0.6968720974206793
480000000.0 -0.3852253959718185 -0.5328954534036299
500000000.0 -0.042313894260223854 -0.636099321710051
520000000.0 0.3183365133758068 -0.47420708557989827
540000000.0 -0.4499436590261246 0.22395814802020908
560000000.0 -0.2199392469528683 -0.43249021900539486
580000000.0 -0.339410747547265 0.2642139398311284
600000000.0 0.15078188679992974 -0.3496302920288015
620000000.0 0.0907699802298372 -0.34787911953115414
640000000.0 -0.3714878975941481 -0.09400425415546401
660000000.0 0.36270077997182804 -0.20902479244518582
680000000.0 -0.3805073926044111 0.1866777394464403
700000000.0 -0.35014176229965727 -0.21109572586614905
720000000.0 0.03934353620057557 0.3824243541474489
740000000.0 -0.34499928287469483 -0.0355458623198913
760000000.0 0.14918025140825222 -0.29230480202148035
780000000.0 0.0692209412372376 -0.28538291965793217
800000000.0 0.17845340941120424 0.19390563407647046
820000000.0 -0.22844440157834417 -0.04876110635780205
840000000.0 0.11162187233097973 0.14392760943277547
860000000.0 0.1338250064852904 0.03161882386329437
880000000.0 0.09312888944698575 0.012279346106147601
900000000.0 0.08429779432900393 -0.0034609459665921384
920000000.0 -0.05667379379333483 -0.02790306561990336
940000000.0 -0.06604475859326078 0.030200529701024603
960000000.0 0.037055625601004345 -0.08727967401342714
980000000.0 0.1053152880856986 0.018958962303228986
1000000000.0 -0.05520700939093875 -0.11185283736483123
1020000000.0 -0.10093611760277135 0.1027767458864812
1040000000.0 -0.1408775278387255 0.06752645111650982
1060000000.0 0.007817931887083171 -0.17793970598319872
1080000000.0 0.20261857714258638 -0.07937135277413317
1100000000.0 -0.15771000382673336 0.1869612200871722
1120000000.0 0.11937817490501994 0.23482051255493758
1140000000.0 -0.20219430704915753 0.18839024647954614
1160000000.0 0.2631343095094656 0.13237321737331376
1180000000.0 -0.0034321900561127814 0.31276608833182595
1200000000.0 -0.3331285879736824 0.014130549374660122
1220000000.0 0.23652237347432145 0.2501671253869336
1240000000.0 0.36333275445088603 0.024918453517090582
1260000000.0 0.00828887956270006 -0.39039298196358546
1280000000.0 0.011550514995150583 0.40815488305558967
1300000000.0 0.3980224694117685 -0.0779088130797953
1320000000.0 0.287561192188692 -0.28893101777224794
1340000000.0 0.08394470813508363 -0.39365851725335
1360000000.0 0.08386751877445521 -0.38886192124259883
1380000000.0 -0.09192725551268506 -0.3757330246248027
1400000000.0 -0.23536873687767762 -0.285312896941774
1420000000.0 -0.31605005934258223 -0.14806048819252426
1440000000.0 -0.3259859348760929 0.03850759475634435
1460000000.0 -0.05617260369105845 0.2966550774843493
1480000000.0 0.2260761178600546 0.1475931709455658
1500000000.0 -0.19243351468141887 -0.13023235364931893
1520000000.0 -0.1640353815996294 -0.07336014632975901
1540000000.0 -0.087756367539833 -0.09969098060609427
1560000000.0 0.06196284221355014 0.09108194468161387
1580000000.0 0.08077578692756836 -0.04126599451349984
1600000000.0 0.0685345724198215 -0.045164313380925775
1620000000.0 -0.06982803344948775 0.002672036626247659
1640000000.0 -0.028023464757412225 -0.05529293131096163
1660000000.0 -0.07078593747443161 0.0007405865960594354
1680000000.0 0.08035330192704301 -0.04366313378833844
1700000000.0 0.07472196614409898 -0.082815351454322
1720000000.0 0.10423011884846446 -0.06955510813241249
1740000000.0 -0.057293576834654206 -0.13719428674597978
1760000000.0 0.16723016733588042 -0.06058425323634508
1780000000.0 -0.022588799308509204 -0.20792404583885957
1800000000.0 -0.14349783485410184 -0.1950598903376916
1820000000.0 0.09772609031867441 -0.2538914272437485
1840000000.0 0.29945345281697255 0.0590275497003588
1860000000.0 0.06646606763951564 0.32741770360775935
1880000000.0 -0.30395312624959636 -0.19655301342355413
1900000000.0 0.3770624646337284 0.08168556145361398
1920000000.0 -0.2756755802977709 -0.3052865917822665
1940000000.0 0.18940636775786968 0.3933730005113352
1960000000.0 -0.005008811678112121 -0.44982111722463475
1980000000.0 -0.392242614168569 -0.23756098692241956
2000000000.0 -0.4325565135979828 0.19651792954390698
2020000000.0 0.2522658957970637 0.4165287322429566
2040000000.0 0.26552891544254126 -0.4095349308799904
2060000000.0 -0.3137848548038019 -0.3599670122779607
2080000000.0 -0.39912022874431974 -0.24262584157555878
2100000000.0 -0.4484827074582482 0.09209112899222907
2120000000.0 -0.05983048749361039 0.4376522138794909
2140000000.0 0.035501373634561954 0.41420046785205344
2160000000.0 -0.0642934203068126 -0.38906752524777416
2180000000.0 0.20579481262895866 -0.3266124126972747
2200000000.0 -0.1453473492293326 -0.3447339921137088
2220000000.0 -0.15349276397796818 -0.32836805951627535
2240000000.0 -0.2428065027579845 -0.2632436764063694
2260000000.0 -0.3561730894897337 -0.04174807989304244
2280000000.0 -0.11342883346953406 0.34690195385285216
2300000000.0 0.352664104976915 -0.12895884186200982
2320000000.0 -0.28102717671221134 -0.2772656751763265
2340000000.0 0.10668532539024693 0.4111848100367883
2360000000.0 -0.21354831761273566 -0.4088722397503682
2380000000.0 0.4818508184640237 0.14573012210548641
2400000000.0 -0.45048547858943405 0.3086844638374371
2420000000.0 0.1783657078180707 -0.5633781048971307
2440000000.0 0.2527438281942859 0.5804324602111719
2460000000.0 -0.45631921991249774 -0.490982936416416
2480000000.0 0.5774372819887992 0.4016944579097933
2500000000.0 -0.4926602876944342 -0.5365040553026865
2520000000.0 0.2830033723305352 0.688803817069584
2540000000.0 0.02842653923983121 -0.7552935587170233
2560000000.0 -0.5929249019462535 0.4770658308876584
2580000000.0 0.7576679105142716 0.029127611659308328
2600000000.0 -0.5161696773523857 -0.5409754033444388
2620000000.0 0.2619550603924108 0.6819270973998229
2640000000.0 0.6946743843851161 -0.12471163974111792
2660000000.0 -0.6610010589870914 0.11424769969111873
2680000000.0 0.5855068505088334 -0.23414930761292604
2700000000.0 -0.45992466014317746 0.36545830314024014
2720000000.0 0.1642965247740965 -0.5169637023628778
2740000000.0 0.15235329037208628 0.4717375828049624
2760000000.0 -0.27738438527474407 -0.3565962528108772
2780000000.0 0.28706316562892015 0.2987972896060751
2800000000.0 -0.20058073721927402 -0.33099141313126723
2820000000.0 0.2252322643521813 0.2898053755743063
2840000000.0 -0.11395992937426415 -0.33258029284483404
2860000000.0 0.048840763060431794 0.33955136442541417
2880000000.0 0.1263243895110342 -0.31212297969148944
2900000000.0 -0.3343598485349526 0.018835424964392077
2920000000.0 0.11089662576885777 0.313343418804439
2940000000.0 0.3268517899841976 0.039419819747620294
2960000000.0 0.288528185694844 -0.14944798506798776
2980000000.0 0.3160162687204696 0.028365043373186623
3000000000.0 0.0008813361088039831 0.311130062011281
3020000000.0 -0.19337704677610684 -0.2291453254114937
3040000000.0 -0.016921929511788624 0.28901218612435
3060000000.0 0.18890917050778144 -0.20869133837729464
3080000000.0 -0.178075439055878 -0.20691006284549984
3100000000.0 -0.06332994834836715 0.2536298565292932
3120000000.0 0.0007518213131290849 0.24445065977173516
3140000000.0 -0.16743518614342562 0.1635260774094078
3160000000.0 -0.22532979671433978 0.004079058474789977
3180000000.0 -0.18624428021205797 -0.10485458221710081
3200000000.0 0.11370255020241883 -0.1646701648835985
3220000000.0 -0.15826709256787266 0.10245755569271325
3240000000.0 0.18667008770229257 0.0038673687515574143
3260000000.0 -0.10031780372218142 0.15813565938516685
3280000000.0 -0.17822075059128853 -0.05042288683143242
3300000000.0 0.17099789993027784 -0.07090939510910624
3320000000.0 0.04459227420984934 -0.17493867158449689
3340000000.0 -0.11394694000918347 -0.13140055470099846
3360000000.0 0.00670350923403806 0.16782823564341684
3380000000.0 -0.04459401309305786 -0.1496984295896191
3400000000.0 0.08646744555192497 0.11557070779222682
3420000000.0 -0.06393521781322523 0.11553096213552734
3440000000.0 0.06115110270332128 0.10108071807869401
3460000000.0 -0.07258642135534905 0.07607819408799532
3480000000.0 0.012931506034367754 0.0911697789361917
3500000000.0 -0.07044232355253605 -0.04460055345509004
3520000000.0 -0.05707825876670824 -0.060447226954460614
3540000000.0 -0.0279110900680249 -0.08405695454696775
3560000000.0 -0.09622307464880561 -0.011513215273879747
3580000000.0 0.0990585099717261 0.03922867761275033
3600000000.0 0.10458055189122306 0.05942594485550664
3620000000.0 -0.13205662041692998 0.032648159493964726
3640000000.0 0.10057146100420458 -0.11739780535968511
3660000000.0 0.01602559154301608 0.1669440028841493
3680000000.0 0.12108028127942312 0.12834717957791633
3700000000.0 0.18654110615236366 -0.00714850297160695
3720000000.0 0.10934389942324654 -0.16176802558611977
3740000000.0 0.033539081539259046 -0.1964517840316355
3760000000.0 0.09750104065207083 0.18484945091792085
3780000000.0 -0.17124075577326792 0.1396316523217162
3800000000.0 -0.22221768538046652 0.06539606920681426
3820000000.0 -0.12096190672877544 0.2083684541677955
3840000000.0 0.03770251733087674 0.23947369803666527
3860000000.0 0.19347235880499455 0.14605290185517228
3880000000.0 0.2310275292031395 -0.059165649259963246
3900000000.0 0.14005500715783697 -0.18218758826744583
3920000000.0 -0.11999728204264501 -0.18232604559092622
3940000000.0 -0.1906424561530849 0.06711592319437719
3960000000.0 -0.17996542402693871 -0.022922117771189753
3980000000.0 -0.11238261453533087 0.1103407722091685
4000000000.0 0.06105065057579077 0.11416133357200074
