!Created with skrf (http://scikit-rf.org).
# Hz S RI R 50.0 
!freq ReS11 ImS11
400000000.0 -0.7952207113136902 0.06393800695383209
420000000.0 0.3826816184202807 0.690921299822499
440000000.0 0.7228011720584375 -0.16630553963132055
460000000.0 0.3139343332672209 -0.6164857572204319
480000000.0 0.46305809182623897 -0.42430040744567254
500000000.0 -0.21859458267759263 -0.5650629490999616
520000000.0 -0.5387185831128182 0.07126173356390661
540000000.0 0.2335549963422005 -0.4195699010075903
560000000.0 -0.3217580046460108 -0.3527100869199019
580000000.0 -0.39818175675575 -0.2197132367692177
600000000.0 -0.13028396921632737 -0.4224440952468879
620000000.0 0.44218361460000005 0.06558730187762678
640000000.0 0.08624031005233625 -0.4635776268741104
660000000.0 -0.4925354377036535 -0.019817944276789495
680000000.0 -0.3695704489330891 0.31623748612024594
700000000.0 0.34607573159016747 -0.286533643721032
720000000.0 -0.13742097362715383 0.3890353752390429
740000000.0 0.31448331920541617 0.2427896717680573
760000000.0 -0.3738949638388169 0.11257004270975994
780000000.0 -0.35999689489321196 -0.006511566496554215
800000000.0 -0.09425766198272384 -0.3024978981779114
820000000.0 0.15824196933428028 0.2155772876922633
840000000.0 0.19225427694344885 0.08876063758371835
860000000.0 -0.11623545282217551 0.1248803041160729
880000000.0 0.13123957631467037 0.061548848068382095
900000000.0 -0.06753299227627962 -0.10912473947025829
920000000.0 -0.08512399065856498 -0.016842563577237152
940000000.0 0.001986010628047014 0.03298769385369703
960000000.0 -0.054333491988661706 0.012189428669359018
980000000.0 0.05893896403638932 -0.08064703913302028
1000000000.0 -0.0793420812622088 -0.08230132312567502
1020000000.0 0.09055378396621815 -0.08712271549212892
1040000000.0 -0.028801306298027064 0.12729995611460626
1060000000.0 0.16482878248108715 -0.05301461164610572
1080000000.0 0.2106601056094805 0.07316701870972778
1100000000.0 -0.136806552747384 -0.24293556966567467
1120000000.0 0.059413946320154495 -0.3137222901821521
1140000000.0 -0.22156479018510156 0.24137553964050087
1160000000.0 0.10795840839652204 -0.33090868709516597
1180000000.0 0.21262521031772535 0.3053650318242073
1200000000.0 -0.2826744590340426 -0.2573668565114179
1220000000.0 -0.18380411822005177 0.3374162127834359
1240000000.0 0.18130138857886155 0.3428196810107212
1260000000.0 0.08850019171146438 0.3798303159587311
1280000000.0 0.40015766313155643 -0.04117782908971188
1300000000.0 -0.3929044251596276 -0.029605018014834943
1320000000.0 0.0205499231137482 0.373035320553188
1340000000.0 0.19530569711480256 0.2820635174736626
1360000000.0 -0.29348864766260974 0.10269355776759852
1380000000.0 0.18629915967186925 -0.22514621865848264
1400000000.0 -0.2015288625976081 -0.1897377764152518
1420000000.0 0.09389459027911895 0.2207764445426819
1440000000.0 0.17296100914857557 0.0944742962190503
1460000000.0 0.08257833707251375 0.1300571445423692
1480000000.0 -0.10249432210566471 0.047399351872966594
1500000000.0 0.03834073000941133 -0.05310789725963798
1520000000.0 0.011262859829288593 -0.021298037113711508
1540000000.0 0.04980838525666647 -0.004601253116138761
1560000000.0 -0.0006358213178785416 0.08158400353058784
1580000000.0 -0.0987144994209992 -0.00554268499186271
1600000000.0 -0.012262050769605116 -0.11822084901974815
1620000000.0 0.11966812744124115 0.08860030589412184
1640000000.0 -0.1294944624308188 -0.12483434531209277
1660000000.0 -0.17237960720061893 -0.10461046505000951
1680000000.0 0.028947945886747806 0.21031286620506004
1700000000.0 -0.08659798821460127 -0.21200806573507716
1720000000.0 0.16818567096661272 0.18425838969382757
1740000000.0 0.2096428496242061 0.17889574120841215
1760000000.0 0.2259311210187804 -0.19609139154462135
1780000000.0 -0.10901614549651048 -0.30591377219033145
1800000000.0 -0.1873738331576903 -0.3045249913685572
1820000000.0 -0.1171821006355522 -0.3641064558827488
1840000000.0 0.4009868406480248 -0.05176765692990465
1860000000.0 -0.09391484938058778 0.4235879960910644
1880000000.0 -0.40468824834514694 -0.22001816721332426
1900000000.0 0.4818745640995802 0.012249221858300382
1920000000.0 -0.49906426622146227 -0.02452359569204693
1940000000.0 0.41470253317166533 0.3079353853484836
1960000000.0 -0.19084344467835646 -0.49142749541999603
1980000000.0 -0.48156610433495045 0.22895699667548233
2000000000.0 0.27423803160370785 0.4635658430856359
2020000000.0 0.5117857656530531 -0.16915530070947402
2040000000.0 -0.09592215226421663 -0.5266830243529041
2060000000.0 -0.5206459707491934 0.06883776134372016
2080000000.0 -0.1422699755983533 0.4910522688158329
2100000000.0 0.4366584885166329 0.2303689663411905
2120000000.0 0.4120183666813654 -0.23086910238083955
2140000000.0 0.19527609751201663 0.4050659441660082
2160000000.0 0.40630547685751667 0.15848820440251254
2180000000.0 0.16541144826406953 -0.38413404954600516
2200000000.0 -0.3412850460236536 -0.2150340857384049
2220000000.0 -0.22592989496854954 0.3193436450532862
2240000000.0 0.3614404126332103 0.136489975695891
2260000000.0 0.010187334094385997 -0.38355653389089317
2280000000.0 -0.3850941476090917 -0.011848526086028337
2300000000.0 0.12138381296098484 0.37883885111758614
2320000000.0 0.32274249226679663 -0.267686699673465
2340000000.0 -0.43701562576548364 -0.11066368264490156
2360000000.0 0.4007097390187959 0.2758660084647146
2380000000.0 -0.24939790557666958 -0.4651286716428999
2400000000.0 0.10924284331698027 0.5604020334953358
2420000000.0 0.050477365696247355 -0.6138187627900803
2440000000.0 -0.07127044907218714 0.6528453010365016
2460000000.0 0.11488581873040786 -0.6799595262036671
2480000000.0 -0.28593248059933524 0.653564106691545
2500000000.0 0.6349111019116271 -0.35647145274558506
2520000000.0 -0.7192614601706379 -0.15130418567548648
2540000000.0 0.2982242516589655 0.6692565918922293
2560000000.0 0.661220336695968 -0.29912707330525984
2580000000.0 -0.2123734794173416 -0.6797325683363445
2600000000.0 -0.6906260271966721 0.07287667153108895
2620000000.0 -0.6605374643624451 -0.1453993674866047
2640000000.0 0.10844868709609061 0.6475112185701623
2660000000.0 0.5118012034080863 -0.3709954445548658
2680000000.0 -0.5891357089628255 0.15078380878256112
2700000000.0 0.5447917534577279 -0.2017546543947395
2720000000.0 -0.41723296817210515 0.3643294430514116
2740000000.0 0.11013011935142296 -0.5203651862361821
2760000000.0 0.4241248595533577 0.2866860730425171
2780000000.0 -0.2857339472943992 0.4046024324964017
2800000000.0 -0.3903184971118229 -0.2850407445667735
2820000000.0 0.08404925755397799 -0.4665372951530867
2840000000.0 0.461089834979734 -0.0030404672187927416
2860000000.0 -0.3751213934423873 0.2531959885982623
2880000000.0 0.3607136190198623 -0.26571410875636303
2900000000.0 -0.44127572257621617 0.05724023105187018
2920000000.0 0.37094846935946757 0.2384642864847218
2940000000.0 0.1375549475988303 -0.4087369063768742
2960000000.0 -0.14907249635938194 -0.39137259356300746
2980000000.0 -0.03222641392729387 -0.407475243059624
3000000000.0 0.11786751279721559 -0.38374016845972103
3020000000.0 -0.0375568612825586 -0.38683694647812583
3040000000.0 0.16666375377969048 -0.32672125836444577
3060000000.0 0.29704931823726044 -0.17421908307833694
3080000000.0 0.28187881952131255 0.14900886010664405
3100000000.0 0.27281875457344196 0.11027799974220791
3120000000.0 0.22332908202082077 0.13396847953033625
3140000000.0 0.16038059509503522 -0.14344812610312352
3160000000.0 -0.07253337398771685 -0.15404330297307456
3180000000.0 0.12448712295801773 -0.011266918783105784
3200000000.0 -0.04114942710920115 0.062440881437217315
3220000000.0 0.011778553717706492 0.025349271331778993
3240000000.0 -0.035730118889219044 -0.012274525911029833
3260000000.0 0.018972209958440893 -0.07331440526435282
3280000000.0 0.08438916363903362 0.074082805328011
3300000000.0 0.07671641341663948 -0.12007559469831779
3320000000.0 0.08001362280724818 -0.14805445447475557
3340000000.0 -0.006018332078937777 -0.18648099206891347
3360000000.0 0.06036869599593719 -0.1867508078538284
3380000000.0 0.17216597702749473 -0.10979869983889065
3400000000.0 -0.07138105986369146 -0.19577052065666697
3420000000.0 0.05868506616067174 -0.19039762466173787
3440000000.0 0.018913876963879445 -0.186944753859334
3460000000.0 -0.16865103275543059 0.05072263163206567
3480000000.0 0.13848010381732184 -0.0820286116720449
3500000000.0 0.145210313877913 0.008216843205545237
3520000000.0 -0.12757086174676502 -0.019453015782852585
3540000000.0 -0.0031902957099596225 -0.11883746567301436
3560000000.0 -0.01617695681215109 -0.11947694054779458
3580000000.0 -0.013836475673714446 -0.12848300576174354
3600000000.0 0.13472183239748506 0.05454669177339324
3620000000.0 0.16766772167255012 0.004499933271526854
3640000000.0 0.17685272002136898 0.07353281646473472
3660000000.0 -0.10656762323840151 -0.17997571289780548
3680000000.0 -0.22444685550136526 -0.02149122543843963
3700000000.0 -0.1626206737640363 0.17426441855697894
3720000000.0 -0.2229344528284683 0.0985699650400744
3740000000.0 -0.08287286831732846 -0.23184646269100462
3760000000.0 0.19590005221768178 0.14772441530337685
3780000000.0 -0.21784095200757678 0.09757298772085729
3800000000.0 0.0905572436869489 -0.20616061162525728
3820000000.0 0.11979148106401126 0.16887190007627884
3840000000.0 -0.1437297311771467 0.10559301142845423
3860000000.0 0.13884644388045175 -0.03505345649063221
3880000000.0 -0.08747799929199367 0.05671534620358126
3900000000.0 -0.04529503491612604 -0.044393435523907204
3920000000.0 -0.03159784172366486 -0.00882867825268955
3940000000.0 0.05201849783712001 0.00023045276461481991
3960000000.0 0.07982608625713644 0.04759873188586385
3980000000.0 -0.10426799275066724 0.08419110280328979
4000000000.0 -0.030335304274751444 0.17096001924541152
