!Created with skrf (http://scikit-rf.org).
# Hz S RI R 50.0 
!freq ReS11 ImS11
400000000.0 0.7280658089335769 0.38406931738055133
420000000.0 0.8263451707535853 0.06345460223046577
440000000.0 -0.1359881790927262 -0.7587946398892733
460000000.0 0.5951176172822766 -0.4006687062849466
480000000.0 -0.43059935219066675 0.4964426716713282
500000000.0 0.19308244067809927 0.6159813734218088
520000000.0 -0.21533421315050863 0.5277028423720468
540000000.0 -0.4697682334983559 0.20538132269130077
560000000.0 -0.33965486345907364 -0.3394467546365022
580000000.0 -0.09739237547969692 0.42572356205606016
600000000.0 0.19378254064089093 -0.3469816334035685
620000000.0 -0.36743619343887324 0.12824468810236905
640000000.0 0.40701069123129646 0.004983422943996256
660000000.0 -0.274104395598535 -0.3239948482104119
680000000.0 -0.4038039247911801 -0.15840160494427125
700000000.0 0.014275432055769458 0.4194553899443015
720000000.0 0.1499572073434435 0.3909677000648802
740000000.0 0.21894587115496603 0.3339801145181602
760000000.0 -0.037374790021569855 0.3703971141066767
780000000.0 -0.20722642738933864 0.2630023523743775
800000000.0 0.2933754127007938 -0.05581808149893234
820000000.0 0.27171143048271923 0.02413561350564349
840000000.0 -0.11514753712360959 0.2020929694998089
860000000.0 0.20630865775443427 -0.02270830536776214
880000000.0 0.1564755124693252 0.009546765933384297
900000000.0 0.10580455886276306 0.0024681697313386104
920000000.0 0.04604708582769314 -0.04597444234071336
940000000.0 -0.011699721055396154 -0.03669940599808991
960000000.0 -0.046111101538580834 0.021260716493458252
980000000.0 -0.014865518584998568 -0.06287547789543423
1000000000.0 -0.03643185735829721 0.05599355041833044
1020000000.0 0.03557251562634305 0.08497644680047571
1040000000.0 -0.027635899947345124 0.10812513824220098
1060000000.0 -0.14469665317162686 -0.011746836891506405
1080000000.0 -0.09262986027129876 0.15839690027130018
1100000000.0 -0.03911439847400726 0.20632483244779384
1120000000.0 -0.2145862370877538 -0.1231010997060626
1140000000.0 0.11319344380080287 -0.2577912954895457
1160000000.0 -0.26292073423066736 0.17010207424998638
1180000000.0 0.2888907847491304 0.168732597673746
1200000000.0 -0.310084270454971 -0.11297488004716404
1220000000.0 0.09400161624091886 -0.34426666122158445
1240000000.0 -0.37655841189601275 -0.10187404202312539
1260000000.0 0.38275105159101414 0.16776208020364444
1280000000.0 -0.3093539405856521 -0.2925744397897621
1300000000.0 -0.4221448433154422 -0.052806115231636974
1320000000.0 -0.42245034776404045 -0.08800108410006521
1340000000.0 -0.4310112571659887 -0.08773350603557832
1360000000.0 -0.19585545186684264 0.4028100264530595
1380000000.0 0.4303751631857477 -0.04036682794739995
1400000000.0 0.20962607377321038 -0.35813953791893594
1420000000.0 0.1542658781136787 -0.35476896397706287
1440000000.0 0.36803536670371756 -0.07132458552947588
1460000000.0 -0.16421284565389282 -0.3232074482045449
1480000000.0 0.17177619801503985 0.2989132841101824
1500000000.0 0.08977888208692578 0.2925454565350562
1520000000.0 0.2426816961495425 0.07059820971539335
1540000000.0 0.18295764870883424 0.11196623053482198
1560000000.0 0.08130596629628413 0.167311512821549
1580000000.0 -0.0663650028642687 -0.1517089992384535
1600000000.0 0.07018770938427274 -0.11242138192568676
1620000000.0 -0.09831137041923217 -0.01621201869624211
1640000000.0 -0.06639655497081073 0.03768787289909822
1660000000.0 0.024574749895094738 0.04872955181338973
1680000000.0 -0.011426870415248872 -0.028452075529584245
1700000000.0 0.019304462095068392 0.01909171458534907
1720000000.0 -0.0022065404474659396 -0.0362159054694017
1740000000.0 0.036869784765038036 -0.0019957142817727037
1760000000.0 -0.038362649066550576 -0.04136172150586733
1780000000.0 -0.07797763916231418 0.05046127597421984
1800000000.0 -0.09098819419808593 0.09843280635783834
1820000000.0 -0.11891621017688463 0.11173441107568517
1840000000.0 0.18400495808767905 0.03974119980899163
1860000000.0 0.10195164740928513 -0.20108291013244006
1880000000.0 -0.2028664248099403 0.17892945824118883
1900000000.0 -0.15449383019952143 -0.27151086736612534
1920000000.0 0.33117630338320075 -0.09371883963952773
1940000000.0 -0.35741935557956206 0.07207594587304683
1960000000.0 0.17344349064689005 0.33759356157327003
1980000000.0 0.33216301672002735 0.21741438159514676
2000000000.0 0.38581372885560317 -0.15883101883584377
2020000000.0 -0.21409610238582288 -0.3749907217353341
2040000000.0 -0.24851061832772997 0.3577742690776064
2060000000.0 0.21315549482417434 0.37159575849654325
2080000000.0 0.3699071194613848 0.20429606993867303
2100000000.0 0.4070882229942613 -0.08202016139640528
2120000000.0 0.07110720470784597 -0.3972727619539252
2140000000.0 -0.3276307929125428 -0.20327078362927026
2160000000.0 0.009178351957951506 -0.36508298648811593
2180000000.0 -0.21766284646606804 -0.2665906142863277
2200000000.0 -0.3241040042730264 -0.02840198639498269
2220000000.0 -0.3032493484143141 0.03881296830390159
2240000000.0 -0.2637362315851511 -0.13829444778304856
2260000000.0 -0.22842594644727143 -0.1913022306420786
2280000000.0 -0.15642143461015412 0.26338580439003334
2300000000.0 0.25746621248930285 -0.17513620740964514
2320000000.0 0.05071039493799817 -0.31924733521617066
2340000000.0 -0.19856228811060625 -0.291815553578423
2360000000.0 0.030607770699624864 0.39222440899440353
2380000000.0 -0.16424202772195548 -0.407425331666656
2400000000.0 0.11116764960535472 0.4715747917831004
2420000000.0 0.0612819814024354 -0.535621497376331
2440000000.0 0.2226093870210724 0.5537485551884438
2460000000.0 -0.5776290103758346 -0.2898455453232465
2480000000.0 0.6864769895596421 0.009657573032674761
2500000000.0 -0.717634851185167 -0.004616667247000596
2520000000.0 0.7294069159916833 0.13157000000524682
2540000000.0 -0.6909620478958312 -0.3046685491143834
2560000000.0 0.38280735749298983 0.658780236425114
2580000000.0 0.19716073176298354 -0.7336494887362864
2600000000.0 -0.5594812240455638 0.49739810836764914
2620000000.0 0.7012418740226336 -0.2080635996233607
2640000000.0 0.12198662659746977 -0.6962249591889423
2660000000.0 -0.31498140396776303 0.5967746738256764
2680000000.0 0.26513701862843486 -0.5804748873620282
2700000000.0 -0.21823725493704216 0.5592313091881812
2720000000.0 -0.014370211484863562 -0.5612752347921051
2740000000.0 0.33065475135648315 0.4047319683713909
2760000000.0 -0.45852418210790286 -0.15837361936207203
2780000000.0 0.45314681993983397 -0.0013117481497199007
2800000000.0 -0.41300614955021053 -0.12137415664135587
2820000000.0 0.4182459879846215 -0.002561967890839563
2840000000.0 -0.3518579977993596 0.2026683172655462
2860000000.0 0.3947511012557326 -0.03339647753952824
2880000000.0 -0.14535573251267903 -0.36228892567963744
2900000000.0 -0.38133805266528426 -0.09609224184648782
2920000000.0 -0.022149809713522383 0.3993999114784214
2940000000.0 0.3890843206568282 -0.09088923028172498
2960000000.0 0.2971564964896542 -0.25261959936820727
2980000000.0 0.35482379220189225 0.15739000496941913
3000000000.0 0.05627210624900317 0.38312814455958766
3020000000.0 -0.3415542996947297 0.16784670783481065
3040000000.0 0.028462985902354302 -0.36961425337496184
3060000000.0 0.10625830257921749 0.348273205925219
3080000000.0 -0.0993945130076407 -0.3417665421450327
3100000000.0 0.16839520380613457 0.3035973787743868
3120000000.0 -0.3132074508395279 -0.12287188302441117
3140000000.0 0.30234413643678193 -0.11222849488032975
3160000000.0 6.887720181181709e-05 0.3045948295914913
3180000000.0 0.0042728226610830354 -0.28067215286758823
3200000000.0 0.2281747819531275 0.09805820703655058
3220000000.0 -0.21510697439764034 -0.02904010438656695
3240000000.0 0.16005734611192082 -0.09404591229453897
3260000000.0 -0.05898679343853199 0.13628636470412595
3280000000.0 -0.1101741162178395 -0.0053499042500350135
3300000000.0 -0.05838898076416744 0.06442057828667325
3320000000.0 -0.010980948862554787 -0.06668913800290818
3340000000.0 -0.003168156204550985 0.04512318351005973
3360000000.0 0.009065390849440242 0.024660962797900223
3380000000.0 0.004748527755770885 -0.02199135089080007
3400000000.0 -0.023567401489113286 -0.016147505585991137
3420000000.0 -0.007006930412339854 0.025508122503794802
3440000000.0 -0.004247414438971752 0.017241914981464823
3460000000.0 0.012749797354553323 -0.007275692974638658
3480000000.0 -0.015917071895294125 0.014758787162670083
3500000000.0 0.015595023429778074 -0.023706950606441922
3520000000.0 -0.036577388759076075 -0.016056723199012832
3540000000.0 0.05367242470307247 0.01359446831078251
3560000000.0 -0.03485127010857953 0.0552378541619351
3580000000.0 -0.035541041104550405 0.062275532469271
3600000000.0 0.05489220168022922 0.05045006540810186
3620000000.0 0.07627740723151714 -0.03105890144733505
3640000000.0 -0.030291187443297694 -0.08380726097219926
3660000000.0 0.0895035423649295 0.03523992264056956
3680000000.0 -0.05813069311425713 0.07773280500919891
3700000000.0 0.09240935688486954 0.018460056117663447
3720000000.0 0.07885509913888085 -0.04849161890524185
3740000000.0 0.07329508565768261 0.05269828304532131
3760000000.0 0.051183380568728364 -0.07909035927214138
3780000000.0 -0.0937200748247547 0.031925451751118744
3800000000.0 0.0626954586909019 0.08490752634548131
3820000000.0 -0.1173268002089471 -0.03876450706152131
3840000000.0 0.0458297606438015 0.13564403791972543
3860000000.0 -0.14202487584160653 -0.07166779742174201
3880000000.0 0.14883126711248082 0.08943240542981633
3900000000.0 -0.16566497320863952 -0.097678082595696
3920000000.0 -0.18931803137637856 -0.08951178006671262
3940000000.0 0.01384572158408096 0.21670382464259738
3960000000.0 0.1898830475003109 0.09965401901156469
3980000000.0 0.1715728215550013 0.11947056372918301
4000000000.0 0.014453755751615808 0.20250544943533016
