!Created with skrf (http://scikit-rf.org).
# Hz S RI R 50.0 
!freq ReS11 ImS11
400000000.0 0.779024595874941 -0.28348845949636303
420000000.0 0.1472653004633872 -0.8125314135466037
440000000.0 0.02413379273223838 -0.7727494604868573
460000000.0 0.20028571048354002 -0.7003252729220211
480000000.0 0.6529494239131268 0.14077640019390716
500000000.0 0.6273788555607449 0.12640711028917104
520000000.0 0.547490036483411 -0.1611446862199599
540000000.0 -0.13652084938971693 0.4742165902650844
560000000.0 -0.25497693790160175 -0.3822214818724108
580000000.0 -0.28064755616776416 -0.29580492718851403
600000000.0 -0.35007034334015574 0.16134210407127442
620000000.0 0.31001361801769306 0.2386206448062964
640000000.0 -0.26619521095193255 0.32632280972267436
660000000.0 0.03749687254165393 -0.45191282251306725
680000000.0 -0.4548088350601346 0.08156156340962348
700000000.0 -0.2647310009614307 -0.36736285303492655
720000000.0 0.39965853256633194 0.15121768130826974
740000000.0 0.2649060285368424 0.2565412525694435
760000000.0 0.17792353601025696 -0.2754407619071112
780000000.0 0.12118221158546609 -0.2698205371092204
800000000.0 -0.27118499106991223 0.05575400747917455
820000000.0 0.17785756151404405 0.17496897577519693
840000000.0 -0.1421046009517175 -0.18218239233277445
860000000.0 0.20025661160715744 0.09026814359842934
880000000.0 -0.024564625121389315 0.19039668002682592
900000000.0 0.1370960443056566 0.04420539959234348
920000000.0 -0.06963800613205676 -0.04429371425514476
940000000.0 0.020439519475992502 -0.05090147267835454
960000000.0 -0.03717990681410493 -0.05587893433663809
980000000.0 0.0050355998653726355 -0.0815286060806805
1000000000.0 0.09184552632873218 0.01825251348681463
1020000000.0 -0.10285161776905137 0.023332821137731077
1040000000.0 -0.11577680912771815 0.04690680749935802
1060000000.0 0.07664522602241439 0.1398739832663964
1080000000.0 0.16442919808565698 0.09040473505990199
1100000000.0 0.17687245265704232 0.12989699131890095
1120000000.0 0.2115876811852573 0.13283583656520076
1140000000.0 -0.2696379203290005 0.040150689254025276
1160000000.0 -0.13070093222978144 0.2689520893824644
1180000000.0 -0.31979772120952316 0.034335069479440095
1200000000.0 0.3319352812997433 0.08322118623225663
1220000000.0 0.08169900018552954 -0.36086273017385073
1240000000.0 -0.3562142359094097 0.18421119384656748
1260000000.0 0.37636529612773767 -0.19100555175326983
1280000000.0 -0.4157615410496247 0.10319305655453738
1300000000.0 -0.1130958655837816 0.402683238098791
1320000000.0 -0.2921943310639372 -0.30379615937571564
1340000000.0 -0.3553053268258969 -0.25468957151070937
1360000000.0 -0.291723857639895 0.3263311434699756
1380000000.0 0.13114727853999814 0.4015202184406347
1400000000.0 0.20854983938602747 0.3528489809948415
1420000000.0 0.3890239228464143 0.06648524995931013
1440000000.0 0.24024724111752035 -0.29061208582689413
1460000000.0 -0.3189227537084383 0.15342778275141514
1480000000.0 0.2840850637967426 0.1539804514835303
1500000000.0 -0.2880568442385791 0.009616623221756
1520000000.0 -0.11000157920777003 0.22015689533743707
1540000000.0 0.14139420020034577 -0.15081094622948646
1560000000.0 0.11094281458454658 -0.125231975213467
1580000000.0 0.11566247966262774 -0.08300305296344428
1600000000.0 0.03699100699582939 -0.10912823619352588
1620000000.0 -0.08991189277887687 -0.03728447932405221
1640000000.0 -0.006221148779882891 -0.07379113695747244
1660000000.0 -0.021303133058709994 0.04736790550031541
1680000000.0 0.028664080216325397 0.0018461389101012827
1700000000.0 0.002496453400335994 0.016613370101557372
1720000000.0 -0.004818585531920111 -0.030458630750243885
1740000000.0 -0.005446502109285889 -0.05116305357144539
1760000000.0 0.031232195394123155 -0.06797188761100836
1780000000.0 0.08418281442591243 -0.07499553845199301
1800000000.0 -0.012745021223135911 -0.152277834277984
1820000000.0 0.011515136839787568 -0.1870898246489314
1840000000.0 0.2029571429588345 -0.07931360947337288
1860000000.0 -0.03752105841193743 0.24849907919590414
1880000000.0 -0.13689241649033063 -0.24389883279976116
1900000000.0 -0.020281358389430088 0.3025955600895431
1920000000.0 0.2721414205482173 0.18197426195955463
1940000000.0 0.3564340984172367 -0.026079591597483114
1960000000.0 -0.07992482214324267 -0.37909597661392935
1980000000.0 -0.3420435239838288 0.23225921437927577
2000000000.0 0.43335424583014354 -0.008462160468049979
2020000000.0 -0.3233772490601415 -0.29945782997474346
2040000000.0 -0.2496157400093408 0.36195764736190017
2060000000.0 0.2991482963853805 0.3167026012200931
2080000000.0 0.30286396726012826 -0.30167873456913846
2100000000.0 -0.2623245137662128 -0.3135317897342384
2120000000.0 -0.1823442851111702 -0.3417520032047376
2140000000.0 0.20004089462783678 -0.31209425594914
2160000000.0 0.12648649750804503 0.3430504278443775
2180000000.0 0.25339915372856625 -0.2538655602439946
2200000000.0 -0.3234620159289072 0.10502198331630672
2220000000.0 -0.09743381685029688 0.30127126556507294
2240000000.0 -0.22381639285476604 0.20978890419203597
2260000000.0 -0.11854911026631156 0.2794712143553263
2280000000.0 -0.041169114714581644 0.3009216998441502
2300000000.0 0.03194078205302672 0.311694050118781
2320000000.0 0.19686753976669855 0.27488361728990585
2340000000.0 0.19377865706100497 -0.3191494632745896
2360000000.0 -0.2141310081761598 0.35579599502263864
2380000000.0 -0.027297828308948644 -0.4611349360770272
2400000000.0 0.3072534989315154 0.4047749210621215
2420000000.0 -0.4762501135930143 -0.2878763057606761
2440000000.0 0.5972382139787953 0.10412203789153524
2460000000.0 -0.6176108579717068 0.21405992048950975
2480000000.0 0.47415733317701975 -0.5061930036897886
2500000000.0 -0.39801081346296957 0.6061597830950768
2520000000.0 0.3186292155561961 -0.6733211029680362
2540000000.0 -0.48377516796696113 0.5815168644752389
2560000000.0 0.730084777057761 -0.21519944123616994
2580000000.0 -0.7260274256011845 -0.21948205594551592
2600000000.0 0.38265223732364695 0.6418711049426895
2620000000.0 -0.06601824239644784 -0.7263182377893663
2640000000.0 -0.6758296672349577 -0.1995981642349104
2660000000.0 0.5869475921503856 0.3308115275524751
2680000000.0 -0.6040534701340545 -0.20490737458648375
2700000000.0 0.5930077748620857 0.0768823659307069
2720000000.0 -0.5388926605578311 0.13215233190542142
2740000000.0 0.47984885987028353 -0.1811497467272641
2760000000.0 -0.4054190535266434 0.24649788352593693
2780000000.0 0.42797154740471105 -0.11408023850710516
2800000000.0 -0.4178505773037068 -0.051012992510661576
2820000000.0 0.3925992139354554 0.10766481609873327
2840000000.0 -0.3992740319530648 0.015032562295061771
2860000000.0 0.3834220340165821 -0.07719209842160998
2880000000.0 -0.36241452175796923 -0.1320878491256614
2900000000.0 0.025286509781292734 0.3825758482001645
2920000000.0 0.3787306199507465 -0.056446032404183256
2940000000.0 0.04437467662328791 -0.3796097043182079
2960000000.0 -0.12139983616895335 -0.3561346089123206
2980000000.0 0.22455644775320208 -0.29535506067006667
3000000000.0 0.30027339170531564 0.21983360549413572
3020000000.0 -0.27494027619888084 0.2472591443713189
3040000000.0 -0.13626795177422332 -0.3420465987526995
3060000000.0 0.3510713384701733 -0.07795493008730539
3080000000.0 -0.31434820441943984 0.1493499423771014
3100000000.0 0.28148005175199886 -0.1834438721898572
3120000000.0 -0.291852833402069 0.14062090105181754
3140000000.0 0.19876046047828735 -0.240656644473327
3160000000.0 0.013985624232939661 0.2930490237063957
3180000000.0 0.16417665524629702 -0.21603007457557308
3200000000.0 0.09591331805316604 0.22031505428972786
3220000000.0 -0.1149173637942279 -0.16851813731677165
3240000000.0 -0.1240367083419641 -0.11494645637122007
3260000000.0 0.028823164173110753 -0.13885449281192014
3280000000.0 0.05996595078365566 -0.09713792363646273
3300000000.0 -0.0790271051734482 0.03355991867142646
3320000000.0 0.03474391151562432 0.05177190990144573
3340000000.0 0.031292354286567674 0.04095750557956913
3360000000.0 0.01863920669549899 -0.043514063351811266
3380000000.0 -0.006211389507980463 -0.047059175522161496
3400000000.0 0.016737119076911604 -0.04436573621458204
3420000000.0 -0.031609224154396286 -0.02727362965148398
3440000000.0 -0.006557594391033818 -0.031345897159227205
3460000000.0 -0.009222999160034072 0.017699892741000787
3480000000.0 -0.017202552933920184 -0.006084727568843124
3500000000.0 0.014408505790683283 -0.02275387988314295
3520000000.0 -0.00966911422406366 -0.030908210644764334
3540000000.0 -0.04118827728071081 -0.0020445605452208944
3560000000.0 0.041760160026561154 -0.024952761045051914
3580000000.0 0.05910375716866126 0.004035514609163941
3600000000.0 -0.03807898868205033 -0.05736058211267563
3620000000.0 -0.06122628840925363 0.04766884097833915
3640000000.0 0.053569684558821024 -0.06541737965855272
3660000000.0 -0.08892322535479263 0.015409388341187664
3680000000.0 0.052784693594277045 0.07577099598687326
3700000000.0 -0.02006446558050658 -0.09166220533923132
3720000000.0 -0.057954251997381745 -0.07233213845722332
3740000000.0 0.061269938135651965 -0.06797552295127628
3760000000.0 0.00030453920889616127 -0.0990406297157166
3780000000.0 -0.02305836200730292 0.10535010926354257
3800000000.0 -0.08723065046319778 -0.08374339588067276
3820000000.0 -0.12113433608572677 0.06820506193390533
3840000000.0 0.07156876157259098 0.13539117982034113
3860000000.0 0.16616016508799886 -0.04423393473099859
3880000000.0 0.0733837818943842 0.18090195596394915
3900000000.0 0.19642457228203508 0.07678755673100485
3920000000.0 0.1701262048406862 -0.13012774826703752
3940000000.0 0.20280698831420393 -0.07764963249668208
3960000000.0 0.19211333758778937 -0.10047505947391822
3980000000.0 0.19225622991361818 -0.08953582206291145
4000000000.0 0.0900199964044767 0.18185056370391292
