!Created with skrf (http://scikit-rf.org).
# Hz S RI R 50.0 
!freq ReS11 ImS11
400000000.0 0.24435759562154896 -0.8148264276834999
420000000.0 -0.7575414797306984 -0.3384122403092447
440000000.0 -0.7756798983415062 -0.058159942496351286
460000000.0 -0.6841910093786018 -0.22296916296657576
480000000.0 -0.05425681793985104 -0.6496324171209749
500000000.0 -0.21507577377104656 -0.5667796946224916
520000000.0 0.4278732017552193 0.3136570226098848
540000000.0 0.08742397102276524 -0.46907795859663143
560000000.0 0.16508192075721795 0.4202568173516512
580000000.0 0.38396745442553615 -0.17268787697244803
600000000.0 -0.36060770585185326 0.14774567542337572
620000000.0 0.09127442777275542 0.3790057072094355
640000000.0 -0.13290896819684414 0.4035748241121076
660000000.0 -0.26715324742992197 -0.35592766885751587
680000000.0 -0.3776947232185555 0.23241015488515002
700000000.0 0.42644810636691566 -0.05993226036087797
720000000.0 -0.23618603206987218 -0.34559259044020113
740000000.0 -0.24689697175770137 -0.2899972092181141
760000000.0 0.07961827623749747 0.3347188879659561
780000000.0 0.26062056034398146 -0.17593896591410033
800000000.0 -0.2975356042264978 0.08326314115628893
820000000.0 0.2083138778099093 -0.18243237922084096
840000000.0 0.2318076996395667 0.033021523047651546
860000000.0 -0.1977541038621683 0.04713829798787251
880000000.0 -0.11117291467294137 0.10763227016302891
900000000.0 0.09889624840119898 -0.023501712688149733
920000000.0 -0.015225851367450286 0.05042828104123786
940000000.0 -0.024988598532984393 -0.014100663505140179
960000000.0 0.03360710386786148 0.02850660460372079
980000000.0 -0.05769279480409182 -0.029244738797249772
1000000000.0 0.06687635964286828 0.04581851223452096
1020000000.0 0.058499326325696814 -0.08673473748308241
1040000000.0 0.05587100471957578 -0.09868476884592096
1060000000.0 -0.09125844460883732 -0.10257233814445262
1080000000.0 0.0996437743730057 -0.14775136084408602
1100000000.0 -0.08294636969109498 -0.19536338846403384
1120000000.0 -0.13610068040027146 -0.21419828320707732
1140000000.0 -0.24288290449366864 -0.14723805928383651
1160000000.0 0.14763514576640066 0.2686099140094215
1180000000.0 0.1581891292400782 0.28166444385514905
1200000000.0 0.11674481406013008 -0.311524957571825
1220000000.0 0.14633496104899413 -0.33350049148706945
1240000000.0 -0.2265121138593334 0.3225924381519516
1260000000.0 0.407773551436948 -0.0693607659252768
1280000000.0 -0.37468145807915354 -0.19850614848734344
1300000000.0 -0.42108657388484566 -0.03260308251198215
1320000000.0 -0.40948613116038135 -0.1368812309543503
1340000000.0 -0.4054598553284921 0.164864514424207
1360000000.0 0.029355339736163926 0.4371941397540734
1380000000.0 0.36661139659067393 0.2108805971267616
1400000000.0 0.3904578266447453 0.11077180163931506
1420000000.0 0.3889711449119192 -0.057444658907907765
1440000000.0 -0.2005764873392236 -0.320027498687426
1460000000.0 -0.12833687225275334 0.32212655448897015
1480000000.0 0.28037672494917115 0.14855948006581177
1500000000.0 -0.1835700785712586 -0.21589212191640192
1520000000.0 -0.22220885294460932 0.11013934498745925
1540000000.0 0.17561100979037716 0.10732480550704922
1560000000.0 -0.0006928897181883982 0.17427866284682084
1580000000.0 0.1509040349347151 -0.001291606596654617
1600000000.0 -0.05422634031611377 -0.11310000587322115
1620000000.0 0.04056050623607018 -0.09440754657750884
1640000000.0 -0.02648605457851688 -0.06708116193282714
1660000000.0 0.04487596913324592 -0.0012375909949747814
1680000000.0 -0.01815413314054353 -0.0172615287523186
1700000000.0 0.012564839527747952 0.02057714793188373
1720000000.0 -0.03273319747599994 -0.005803718124646584
1740000000.0 0.028326432885416856 0.050206911802581015
1760000000.0 -0.05350261044867177 0.05972049861942293
1780000000.0 -0.02514824963377765 -0.10369355332094742
1800000000.0 0.11252967231086504 0.08213460688976826
1820000000.0 0.055037690715613805 -0.1590649060565565
1840000000.0 -0.20647138127024284 -0.029150509627533686
1860000000.0 -0.025169329982567212 -0.24968862838498612
1880000000.0 0.2857283555185745 0.006337064055292173
1900000000.0 -0.2761219727020788 0.1537505971945818
1920000000.0 0.34198564832736233 -0.0035722798126542094
1940000000.0 -0.22360910072541004 -0.29076176291613204
1960000000.0 -0.2967628832183861 0.24558008824581976
1980000000.0 -0.008028989256660082 0.40474973216770577
2000000000.0 0.42005873509962344 0.07091000599458908
2020000000.0 -0.09762204021714604 -0.42812018503571836
2040000000.0 -0.3554844205264949 0.2635308840220516
2060000000.0 0.3830054198266592 0.20875734881090216
2080000000.0 0.40130891629914006 -0.1322117763217559
2100000000.0 0.2837145276699077 -0.2970832868985557
2120000000.0 0.1459665431763286 -0.3725406696864661
2140000000.0 -0.27643691369074364 -0.2672128565356653
2160000000.0 -0.0728104918447065 -0.35416921194760626
2180000000.0 -0.03564610098726526 -0.3365004633030137
2200000000.0 0.025866538878974017 -0.3224012070760975
2220000000.0 0.09918500262748646 -0.29699888207976416
2240000000.0 -0.10912713174772544 -0.29445940793240694
2260000000.0 -0.18261289241933626 0.2499410667940618
2280000000.0 0.08351739872143228 0.29386423680471657
2300000000.0 0.24141184256494302 0.19846819813777564
2320000000.0 0.30656192610229605 0.13297246265599766
2340000000.0 -0.12673477549421422 -0.3457044886043632
2360000000.0 -0.006226140811068261 0.4036684085834057
2380000000.0 0.06013863306512247 -0.44447349277226045
2400000000.0 0.04325682109404581 0.49681150989372536
2420000000.0 -0.2502612939249781 -0.4927007229892217
2440000000.0 0.6014876783414846 0.05747574545337134
2460000000.0 -0.5304015575598021 0.3715433555959481
2480000000.0 0.32158036077289837 -0.6040827912754279
2500000000.0 -0.2930820112007724 0.6510213435305792
2520000000.0 0.38647679291464054 -0.6243113458511365
2540000000.0 -0.5109500139035841 0.5441227394330186
2560000000.0 0.7158455297363664 -0.2299870394263466
2580000000.0 -0.7050706383737289 -0.2504388223290726
2600000000.0 0.4601498588746259 0.5761502627837677
2620000000.0 -0.21572714024480147 -0.6865842416987895
2640000000.0 -0.6771230425883475 -0.15458261287147887
2660000000.0 0.6093940329199016 0.2599817053273743
2680000000.0 -0.5811070892946126 -0.2324063018576359
2700000000.0 0.5468039138032802 0.2156037628456772
2720000000.0 -0.5433769251501862 0.06700695820985629
2740000000.0 0.4770718184612252 -0.1720468376006675
2760000000.0 -0.4143217061584062 0.22490204468915115
2780000000.0 0.3541766430877212 -0.26335400701672834
2800000000.0 -0.3504179631384953 0.23068031118505086
2820000000.0 0.27114403696578415 -0.3010493211675463
2840000000.0 -0.13524679373515408 0.3708495434197325
2860000000.0 0.12214775422674601 -0.365240166241069
2880000000.0 -0.3682792535084878 0.0828090967041637
2900000000.0 -0.04626562306747991 0.37442462834584206
2920000000.0 0.36837338728430163 0.09643779708363072
2940000000.0 0.18245633843162828 -0.3366212628358681
2960000000.0 -0.05681057142443478 -0.3748500221689393
2980000000.0 0.20084342415781603 -0.3176224932065644
3000000000.0 0.3283186620581759 0.1846660461328131
3020000000.0 0.03355688414517511 0.3752127319934168
3040000000.0 -0.3327905239659645 0.1586289018461729
3060000000.0 0.11471330485917798 -0.33773152471212203
3080000000.0 -0.26219408288248003 0.22521325091681352
3100000000.0 0.3265561529064314 -0.08137469859531041
3120000000.0 -0.3226212923262445 0.06075557084034682
3140000000.0 0.1469855126718558 -0.27988025751352075
3160000000.0 0.11921487785860892 0.27186847218144705
3180000000.0 0.1363037630842165 -0.23706672151798952
3200000000.0 0.15525686007867506 0.18954203410306886
3220000000.0 -0.17294913480372773 -0.1168913298683542
3240000000.0 -0.09423958020885373 0.1472883963928132
3260000000.0 -0.0982328191528321 0.10303639263319614
3280000000.0 0.026021912025271567 -0.10931731371548518
3300000000.0 -0.00745000700265174 -0.08889570414881129
3320000000.0 -0.0008909825508027068 0.07190988616182592
3340000000.0 -0.022322357483252266 -0.05762614925638134
3360000000.0 -0.020901270202634638 -0.04562786977113595
3380000000.0 0.018349009510073244 -0.0343888519252622
3400000000.0 0.00020971814076713632 -0.03544326934735985
3420000000.0 0.0015062570270297536 0.033623101641608914
3440000000.0 0.0203393819787123 -0.017225311586460547
3460000000.0 0.019508276817906255 0.005767110121363645
3480000000.0 0.010090234762544576 -0.004779940754996895
3500000000.0 0.011462294289604493 -0.007469925372810666
3520000000.0 0.01053191556356731 -0.027795842566332617
3540000000.0 -0.0023113404685481246 -0.045957310464000076
3560000000.0 0.034697301090283135 -0.04432881381167151
3580000000.0 -0.05342066768071055 0.03837759218284453
3600000000.0 0.0697892744840925 -0.029073946333421145
3620000000.0 -0.021528026758350232 0.08258928415625379
3640000000.0 -0.05996018895032652 -0.07004168489989007
3660000000.0 0.004842502636010288 0.09690123884937335
3680000000.0 0.043293739661607135 0.09304038999115828
3700000000.0 0.003117461300595905 -0.1081317889706423
3720000000.0 0.016328990213527843 0.11146040457268466
3740000000.0 -0.004524715043257178 -0.1125712691767748
3760000000.0 0.03528040947387496 0.10854064432514166
3780000000.0 -0.019485302153957523 -0.12028785319990731
3800000000.0 0.11242462946982557 -0.07536489970710798
3820000000.0 -0.117178756055409 -0.09858582136357652
3840000000.0 0.09167312993522395 0.13984167672532347
3860000000.0 -0.08886321653862002 -0.1588892508010937
3880000000.0 0.1993198643045943 0.001565122030598353
3900000000.0 0.18667048117205864 0.10145411014008261
3920000000.0 0.2167661251550824 -0.03035597364620906
3940000000.0 0.20739606369306668 -0.07339509022132401
3960000000.0 0.1723974962586856 -0.13715703296224466
3980000000.0 0.0676068742812739 -0.2034675965358512
4000000000.0 0.02097567839646646 -0.20283558869997667
