!Created with skrf (http://scikit-rf.org).
# Hz S RI R 50.0 
!freq ReS11 ImS11
400000000.0 0.7225606584525365 0.3862778065518573
420000000.0 0.8243717865339477 -0.08707783211140843
440000000.0 -0.19822824008426845 -0.7433279305467051
460000000.0 0.5640178721817553 -0.4434957757519128
480000000.0 -0.21546051561085514 0.6228164792054113
500000000.0 -0.012522672404074203 0.6463441769320164
520000000.0 0.009667638175267374 0.5761104255133193
540000000.0 -0.5122971910494195 0.02948208529501771
560000000.0 -0.405658615889043 -0.2583828135871696
580000000.0 -0.11538384681113566 0.4191965014641044
600000000.0 0.11746805875023074 -0.3762595012956197
620000000.0 -0.3861225577567493 0.006356538912643719
640000000.0 0.40441614734806225 -0.009318286899823324
660000000.0 -0.28765975487363227 -0.31248793428460825
680000000.0 -0.42903419386040975 -0.07118566765355498
700000000.0 0.14207600233102294 0.39676376506410593
720000000.0 0.252185861138076 0.3350522989942963
740000000.0 0.2682244948517011 0.29461420012362927
760000000.0 -0.0862353162537112 0.36298224599834794
780000000.0 -0.26994208211085735 0.20144756524814647
800000000.0 0.29753442507319117 0.03631915591514388
820000000.0 0.26716849148861943 0.056658679168623306
840000000.0 -0.19894214652494713 0.11909881680445933
860000000.0 0.20619623103500773 -0.02571623869867924
880000000.0 0.13805527081530572 0.07193205290920394
900000000.0 0.08259231079010262 -0.06501197621969526
920000000.0 -0.01516318445055879 -0.06183897311941726
940000000.0 0.01318778068421136 0.03407038849741584
960000000.0 0.046659866711861536 -0.01779280901982433
980000000.0 -0.06316901238323007 -0.013988431172171658
1000000000.0 -0.06410447374211704 -0.014979508485516591
1020000000.0 -0.08619495526062498 -0.02985682645910234
1040000000.0 -0.09216564381963233 -0.06475316663968284
1060000000.0 -0.10267217339280649 -0.10382840332451178
1080000000.0 -0.05863824093401251 0.17339921313147366
1100000000.0 0.027819227978194902 0.20608674416558292
1120000000.0 -0.2287648482654827 -0.08631741571027059
1140000000.0 0.05518846739842198 -0.2745688802870773
1160000000.0 -0.18836956880297331 0.2500721858988008
1180000000.0 0.3267690520026212 0.07560194753643987
1200000000.0 -0.3294767922027534 0.0328335675228795
1220000000.0 -0.10634065076418481 -0.3414625588461918
1240000000.0 -0.3871692621324544 0.05000814060456716
1260000000.0 0.38503586034427073 0.15980927842397813
1280000000.0 -0.2316722806787284 -0.3583613096414562
1300000000.0 -0.4038076005084334 -0.14397740912005288
1320000000.0 -0.4334339005302898 -0.03447124589888802
1340000000.0 -0.43861827777845064 -0.025138878985309684
1360000000.0 -0.26613723629781527 0.35932736704540386
1380000000.0 0.41762083251728194 0.11319875147733562
1400000000.0 0.25691992642507827 -0.3270922109770006
1420000000.0 0.13306633538568874 -0.36282012746362297
1440000000.0 0.36316207521448657 -0.08033856023280979
1460000000.0 -0.06725057157898719 -0.3532737113009823
1480000000.0 0.1256760492304991 0.31927042797971417
1500000000.0 0.11534854899564133 0.2813256816781679
1520000000.0 0.2506031133315542 0.005680099477790306
1540000000.0 0.18730204951925128 0.09881210591737784
1560000000.0 0.11130321328954366 0.14768769152159467
1580000000.0 -0.14993521542117655 -0.06802677384780223
1600000000.0 -0.04145837631985265 -0.12479590909300009
1620000000.0 -0.08548489896806122 0.05236547424839823
1640000000.0 0.04498217441652222 0.06367169571190254
1660000000.0 -0.0023575021087888764 -0.05554339442045196
1680000000.0 -0.016340997678168483 0.02620402319513858
1700000000.0 0.019230985403374354 -0.021424017101686316
1720000000.0 0.03171813445032993 0.021171530456559604
1740000000.0 0.02418877717344497 0.03053281420433442
1760000000.0 -0.021904725035072743 0.0522296457616224
1780000000.0 -0.05628459843790431 0.07553493642926092
1800000000.0 -0.00733265880343275 0.13731893693854613
1820000000.0 0.01125383640796249 0.1652178785481387
1840000000.0 0.18911775206239081 -0.019222807606140927
1860000000.0 0.15178298086987277 -0.16951171783448687
1880000000.0 -0.24313461967279845 0.12357804380157583
1900000000.0 -0.11071082344930745 -0.2944532564119431
1920000000.0 0.34351935421819046 -0.02194784968269793
1940000000.0 -0.3617034401782616 -0.0479682910540671
1960000000.0 0.07720768314363972 0.3716161292810774
1980000000.0 0.28348619803230934 0.2784752648989783
2000000000.0 0.36995849565592376 -0.19230800467333226
2020000000.0 -0.2349994301732826 -0.3596141180541662
2040000000.0 -0.3312208859708308 0.2799677080881641
2060000000.0 0.24099441026718388 0.3530860753241962
2080000000.0 0.40780076813967764 0.1061434593699379
2100000000.0 0.34734560863819447 -0.22273216836338128
2120000000.0 -0.0216531890333767 -0.40101336930375747
2140000000.0 -0.36132962209777325 -0.1335593820752344
2160000000.0 -0.18128116944751962 -0.3166956336821342
2180000000.0 -0.3270121869662653 -0.10606771538848499
2200000000.0 -0.31489595899966316 0.08227170539571806
2220000000.0 -0.2873745433415203 0.11241341980178132
2240000000.0 -0.3002665058353223 0.024692430557820562
2260000000.0 -0.2992676234856754 -0.033916067897725596
2280000000.0 -0.0786737972289631 0.29920250859058994
2300000000.0 0.2455728217697184 -0.19778464191563275
2320000000.0 0.020843485140795252 -0.32659358396009336
2340000000.0 -0.2296062911767023 -0.27265316337425916
2360000000.0 -0.03027344505276438 0.3957154919639639
2380000000.0 -0.08588617258964125 -0.43466559637368424
2400000000.0 0.10700357054839353 0.4765848630815339
2420000000.0 -0.037048496301717325 -0.5400534378439888
2440000000.0 0.3140638530650281 0.5080115411822999
2460000000.0 -0.6270121260489763 -0.15463344626554887
2480000000.0 0.6639091695526088 -0.17202536194930954
2500000000.0 -0.679570941612279 0.22539365187129723
2520000000.0 0.7165165994655509 -0.17866443511445138
2540000000.0 -0.7510936576532855 0.04192239918915817
2560000000.0 0.6885011123401029 0.31798474643822106
2580000000.0 -0.30385772586303766 -0.6931228717626441
2600000000.0 -0.10039117687799441 0.7392132091702135
2620000000.0 0.4070758742122604 -0.6054302210412007
2640000000.0 -0.3810237417230382 -0.5938036869234264
2660000000.0 0.2238312798899445 0.6353744100132722
2680000000.0 -0.2206375920748648 -0.5976627300668684
2700000000.0 0.21732662127539468 0.5591370339200272
2720000000.0 -0.34841880704984246 -0.440487662483845
2740000000.0 0.4834393816374972 0.1959817348695708
2760000000.0 -0.48186702510288515 0.027035031462393798
2780000000.0 0.43573767761320364 -0.11230114160805273
2800000000.0 -0.4210100906174694 -0.07188870828697697
2820000000.0 0.4138972817046001 -0.025895931029861725
2840000000.0 -0.3374069297542267 0.21798133401531555
2860000000.0 0.390910220233253 -0.01961969153898924
2880000000.0 -0.14516614912084305 -0.3565916517810367
2900000000.0 -0.3848088739416216 -0.052405346867897266
2920000000.0 0.09908827566771544 0.3829691155100764
2940000000.0 0.2589253131859383 -0.2972354670403219
2960000000.0 0.14402418228254735 -0.358595807022072
2980000000.0 0.37882326924500026 -0.062444016474033526
3000000000.0 0.2995952897318449 0.2400114904206263
3020000000.0 -0.1855342154661154 0.3291542967266975
3040000000.0 -0.052646103598452176 -0.36564289311822484
3060000000.0 0.2230601505959872 0.28749697436249033
3080000000.0 -0.25059372485660364 -0.2529522299940904
3100000000.0 0.3227970574906338 0.12978301153774602
3120000000.0 -0.33670919954607714 -0.023026258032845297
3140000000.0 0.19424030465841116 -0.2598955742834156
3160000000.0 0.13769953209100744 0.2735449637910828
3180000000.0 -0.12804599244918724 -0.25265573814256514
3200000000.0 0.24962240461494883 0.003739573838782644
3220000000.0 -0.21372949055623125 -0.0422360685090135
3240000000.0 0.16981147971991736 0.07971033587182909
3260000000.0 -0.1441920412804232 -0.05119622847102279
3280000000.0 -0.07896159383250212 -0.08445897958753955
3300000000.0 -0.07713836954524095 0.04550037941338743
3320000000.0 0.010732789277683667 0.06770591335855852
3340000000.0 -0.03907136270018654 0.029601629133219703
3360000000.0 0.03212026359578058 -0.0008755772809326427
3380000000.0 -0.017394824176149327 -0.019830842956855315
3400000000.0 -0.03400303645642241 0.004897846240295017
3420000000.0 0.0006932572870885344 -0.03417861636755612
3440000000.0 0.006213070737415861 -0.022567131371049973
3460000000.0 -0.004314678050701637 0.015025317875068703
3480000000.0 0.011610316399444178 0.018811970484470874
3500000000.0 -0.013198015601021485 -0.02572765670200709
3520000000.0 -0.011444229248306369 -0.03635857700743222
3540000000.0 -0.03620919915473718 -0.03791523098327278
3560000000.0 0.03760307966572252 0.05123843256480841
3580000000.0 -0.013299570517625533 0.06916088426973926
3600000000.0 0.0044338328139786965 0.07403165671646694
3620000000.0 0.07917614442284529 -0.024664837851612106
3640000000.0 -0.06952254678813499 -0.054881250940171114
3660000000.0 0.0209066255572851 0.09273884527639698
3680000000.0 -0.00730335224135763 -0.0971462854698312
3700000000.0 -0.027459400912428853 0.09268097469562953
3720000000.0 0.0071762736376493955 0.09355066093094284
3740000000.0 -0.07604967794762069 -0.05269316451693793
3760000000.0 -0.07884273880314512 0.05983569857331785
3780000000.0 -0.008429916260819278 -0.10591530013645802
3800000000.0 -0.009080381546283293 0.11324079383083957
3820000000.0 -0.05398819887984672 -0.12004150932512374
3840000000.0 -0.07514694127511799 0.13314778397623808
3860000000.0 -0.11409910744957799 -0.12629743714031477
3880000000.0 0.16732169605498967 0.07642308207240955
3900000000.0 -0.20002433732509844 0.023758435254784792
3920000000.0 -0.21600017566341953 0.02614621030689559
3940000000.0 0.05318035344412278 0.21898704996433876
3960000000.0 0.2039992161662947 0.09399035451513475
3980000000.0 0.17937538995460267 0.1281602009876734
4000000000.0 0.027525016517558246 0.21209197120901233
