!Created with skrf (http://scikit-rf.org).
# Hz S RI R 50.0 
!freq ReS11 ImS11
400000000.0 0.3527232402683282 -0.7120860820595242
420000000.0 -0.7495624682104941 -0.27906628352836255
440000000.0 0.4551412367516842 0.577161007564604
460000000.0 0.40957125496669633 0.5407378160616668
480000000.0 -0.5642245025576504 0.2420950729355677
500000000.0 -0.344861429687392 0.4844003508340077
520000000.0 -0.06192083992636858 0.5282715053954017
540000000.0 0.06353126321953143 -0.4801705274083504
560000000.0 0.040121784111578004 0.4845817315428303
580000000.0 0.2381061410005565 0.401049587221677
600000000.0 0.24745884693662015 0.38262775802027543
620000000.0 -0.18638097685796792 0.4212529704409838
640000000.0 0.4179548145647649 -0.2560313174594824
660000000.0 -0.21553033477467493 -0.4664953650793711
680000000.0 -0.4975009124340416 -0.14325532715690045
700000000.0 0.3566017301038592 -0.3503147852305874
720000000.0 -0.41607009290584046 -0.21377694850104884
740000000.0 0.2154959202375762 -0.34567944240977266
760000000.0 -0.11533445864755704 -0.3600289190707553
780000000.0 -0.017554736751966775 -0.34881588294195365
800000000.0 -0.23952559492511902 0.1443851667269479
820000000.0 -0.14325259573140925 0.19433042802844855
840000000.0 0.19853178716602793 -0.10652593713540982
860000000.0 0.17352309537468416 -0.1264285274544978
880000000.0 -0.12828883586631842 0.15758502461179788
900000000.0 -0.13116760563002863 -0.130107067128757
920000000.0 0.00885234443064814 0.13213745065280458
940000000.0 0.059171818517508246 -0.05691898128302936
960000000.0 -0.01259164515709544 0.03458362474774021
980000000.0 0.01898737427002381 -0.014727302421653394
1000000000.0 -0.07009343372420064 0.0036463334645599112
1020000000.0 -0.09847164080252803 -0.040885201752455115
1040000000.0 -0.1320296763569115 0.0004542229452357601
1060000000.0 0.08081888396613197 -0.15699548007348849
1080000000.0 -0.22505078895673064 -0.006053880260733219
1100000000.0 0.08543156611657841 0.25722320831110806
1120000000.0 -0.21584643762906447 -0.223481563868612
1140000000.0 -0.1606403940308424 0.3021902369214192
1160000000.0 0.36247759044083194 0.07233551821911766
1180000000.0 0.12707204114645487 0.3480342987027535
1200000000.0 0.26497379060265985 -0.2597556192037134
1220000000.0 0.2555715599976656 -0.2671923390002697
1240000000.0 0.26092415117834195 -0.2745138985061132
1260000000.0 0.04139346998830774 -0.3809933532066182
1280000000.0 -0.08603654271020983 -0.37379982349003
1300000000.0 -0.3100817271422643 -0.22330520489436917
1320000000.0 -0.37478843950265145 -0.0074572312285495716
1340000000.0 -0.07483967098707693 0.35394353922155997
1360000000.0 -0.020995459296165343 0.3371099154590319
1380000000.0 0.03534942954123353 0.31275671241879094
1400000000.0 0.2785354067106848 -0.1072089750000012
1420000000.0 0.15718453559996662 0.2150191937072672
1440000000.0 -0.21259870533855324 0.06443818397753485
1460000000.0 -0.15532788031067957 -0.08454704427249882
1480000000.0 0.017248492825174086 0.1235215887409005
1500000000.0 -0.026112032220688797 0.06425147223514692
1520000000.0 -0.021879452912381657 0.014209707291656049
1540000000.0 -0.00412715658657243 -0.03740126994485162
1560000000.0 0.045992129387004976 0.05329573707787122
1580000000.0 0.0759613713697566 -0.044571569605559254
1600000000.0 -0.06311445864513171 -0.08453505177936718
1620000000.0 -0.11484190274005376 0.011109808004208759
1640000000.0 0.09655911870328997 0.08227205399540873
1660000000.0 0.05954990696057614 0.14006064798064038
1680000000.0 -0.08239320217790119 -0.15509934565158695
1700000000.0 0.17335754991306923 -0.10011724366371103
1720000000.0 -0.08234312819492845 0.21002449885128793
1740000000.0 0.09510476607213814 0.23209986178421263
1760000000.0 0.04630879886207485 -0.2707126738770442
1780000000.0 -0.08963616017699172 0.29173155519041094
1800000000.0 0.14245587379100305 -0.3074681936321514
1820000000.0 -0.23390391773401778 -0.2787529561258861
1840000000.0 -0.2752925609405837 -0.26869946595075145
1860000000.0 0.11992972240597963 -0.3932344154461699
1880000000.0 0.35554115689294685 -0.2526919297796562
1900000000.0 0.07260140590950473 0.44352082185472785
1920000000.0 0.1297721462096018 -0.4449904240268122
1940000000.0 -0.4259598234762068 0.22244453148427815
1960000000.0 0.3999322442392826 0.28727269399959243
1980000000.0 0.3596391362718685 -0.3522450260257852
2000000000.0 -0.1394718949294381 -0.4959049551952157
2020000000.0 -0.5140511825403254 -0.12141776731690948
2040000000.0 0.1723280824862045 0.5094186086626458
2060000000.0 0.13715061023709052 -0.5164494442837082
2080000000.0 -0.5008363552623754 0.1417604603350364
2100000000.0 0.22627583795487594 0.4467150257226766
2120000000.0 0.46356523684737583 -0.12419402288960958
2140000000.0 0.39607623674016446 0.22971208575344235
2160000000.0 0.3813166689297435 -0.20995639255928747
2180000000.0 -0.05865799750389103 -0.409836359525851
2200000000.0 -0.3670712885102677 -0.14152945566846095
2220000000.0 -0.3452199547559891 0.15657678898333172
2240000000.0 0.0007576989658503653 0.3752280379060622
2260000000.0 0.25360042022509677 -0.27323437271305423
2280000000.0 -0.36763169871565615 0.03644946063121688
2300000000.0 0.1460540247212595 0.3417059581982809
2320000000.0 0.3112034732219032 -0.22844213398648527
2340000000.0 -0.39936421680292905 -0.06681211723306284
2360000000.0 0.21102288162325364 0.3711743210412926
2380000000.0 0.33171803250970566 -0.31078769268596046
2400000000.0 -0.23157212204211555 -0.42859599440684876
2420000000.0 -0.5198952145586562 0.07520231746369525
2440000000.0 0.06461594886536756 0.56431575410925
2460000000.0 0.5991321432399501 -0.12430377537568604
2480000000.0 -0.351826514461253 -0.5518356849050917
2500000000.0 -0.31091162102106684 0.619602509464885
2520000000.0 0.7067243414211452 -0.15347689885252458
2540000000.0 -0.6197223254119189 -0.4118372651377181
2560000000.0 -0.03205185133203774 0.7585931656815874
2580000000.0 0.6879263380472597 -0.3349117623936129
2600000000.0 -0.6760587092519595 -0.35121861106991087
2620000000.0 0.26162347329571967 0.7058233424147956
2640000000.0 0.6419164303289706 0.36534925114921146
2660000000.0 -0.4215796887940461 -0.5812831976178522
2680000000.0 0.33798669679608256 0.6085908036850368
2700000000.0 -0.40980800119522665 -0.5329582993678831
2720000000.0 0.6214698602183878 0.1765203778448467
2740000000.0 -0.3930036813527122 0.477648689561479
2760000000.0 -0.3291260988189509 -0.4916529714905863
2780000000.0 0.5121994613199166 -0.24605413190305409
2800000000.0 0.1729046637688423 0.5229049914502696
2820000000.0 -0.3924805802788362 0.3651188301988447
2840000000.0 -0.3900206256478943 -0.34567754212382795
2860000000.0 0.5089547593582978 -0.03205697081780433
2880000000.0 -0.4956681478486565 0.07796493767804935
2900000000.0 0.4880179102695442 0.10394094013357262
2920000000.0 -0.46278169015380616 -0.1824705478052242
2940000000.0 0.2809132262309618 0.4032148953425163
2960000000.0 0.24930276936738907 -0.41072057562185715
2980000000.0 -0.2978129689570232 -0.35903737979514616
3000000000.0 -0.4353312541592682 -0.11750397193840569
3020000000.0 -0.42931457882940866 -0.02050461807264173
3040000000.0 -0.33563909221897914 -0.23291867202305624
3060000000.0 -0.21426349651029122 -0.3208513490709479
3080000000.0 0.13790884789612598 -0.3294347227324505
3100000000.0 0.296923637980383 -0.13313332356653446
3120000000.0 -0.1916372315501031 0.21930852469144752
3140000000.0 -0.25537288442117256 -0.0025595013450384636
3160000000.0 -0.18050699788716845 -0.12324087296635056
3180000000.0 -0.10246888845679178 0.14738245220828136
3200000000.0 0.019254579501686554 -0.13129596073964733
3220000000.0 0.017377680337962272 0.07944150401797295
3240000000.0 -0.03429502044862977 -0.0012824258742554226
3260000000.0 -0.018563251764747154 -0.04086416598130449
3280000000.0 0.08709448455739956 0.030504697300336513
3300000000.0 -0.11231501316968406 -0.07205556732265932
3320000000.0 -0.10445034249387741 -0.1266551843137883
3340000000.0 0.15177183711602532 0.09552819329869484
3360000000.0 0.17472146847952794 -0.06039766184200662
3380000000.0 0.17093645260154824 -0.07493510466275267
3400000000.0 -0.16232313052833952 0.08301427071842103
3420000000.0 0.0857000111317274 -0.15577373229732722
3440000000.0 0.16938811537764148 -0.04565900074047366
3460000000.0 -0.1529103465103851 -0.06991495553238941
3480000000.0 0.12027293256816539 -0.10200924160361553
3500000000.0 0.059160581705566685 -0.13541894960542833
3520000000.0 0.13073778243612055 -0.04565943893053654
3540000000.0 0.06298375731344373 -0.11460295211861735
3560000000.0 -0.057666547102978916 -0.12029307700822828
3580000000.0 0.03418604299530606 -0.1409414374843249
3600000000.0 0.13554239536304175 0.08983898823465036
3620000000.0 0.11731068458273856 0.13733529871470646
3640000000.0 -0.14879821719984646 0.13954830442868454
3660000000.0 0.21868161822603438 0.047239993226128874
3680000000.0 0.15718300628102144 -0.17933871943754762
3700000000.0 0.2381477431931226 0.07129064225504053
3720000000.0 -0.040599501476314616 0.2539764693862538
3740000000.0 -0.2585747311649495 0.05468300818874446
3760000000.0 0.09275406486755554 -0.25099570797698323
3780000000.0 0.19970326233988328 0.1736735047211749
3800000000.0 -0.16576031416230555 0.19350495275539487
3820000000.0 -0.22507609431651412 -0.07570158907618763
3840000000.0 0.03567708274090579 -0.2047212087901853
3860000000.0 -0.1688755507507932 0.02065351464484352
3880000000.0 -0.020065972469733778 -0.12694198777628873
3900000000.0 -0.061681494071857725 -0.057355507735506565
3920000000.0 -0.029956015345310595 -0.019226121726622497
3940000000.0 -0.007720888289817495 -0.025410782532862938
3960000000.0 0.026532431038557378 -0.06770968762820692
3980000000.0 -0.10222223316654898 -0.061716155720688566
4000000000.0 0.03733713313801229 -0.15401105176463029
