!Created with skrf (http://scikit-rf.org).
# Hz S RI R 50.0 
!freq ReS11 ImS11
400000000.0 0.26547767463262956 -0.8095866034410515
420000000.0 -0.7676866959621067 -0.3144313228734706
440000000.0 -0.7774661218641197 -0.02312504351098139
460000000.0 -0.6960631943191868 -0.18276205592531594
480000000.0 -0.019729996435210694 -0.6506421694084018
500000000.0 -0.28712630512542225 -0.5319872684848369
520000000.0 0.4238344877164613 0.322573507779048
540000000.0 0.08364735653384624 -0.4698071648801055
560000000.0 0.2466441437169246 0.3766612623822515
580000000.0 0.40474471522232486 -0.11342801176046173
600000000.0 -0.36090626254302755 0.15018890379480554
620000000.0 0.13601201542420263 0.36634283131311973
640000000.0 -0.184081802056459 0.3815387606252742
660000000.0 -0.2305110477350377 -0.38157951461709544
680000000.0 -0.39542323235415155 0.20162250845669907
700000000.0 0.4252310907323777 -0.0633765870334816
720000000.0 -0.23017463776766642 -0.3502578763206092
740000000.0 -0.2545229547950507 -0.2835728748309768
760000000.0 0.11473431753921734 0.323307466100582
780000000.0 0.29378403177659507 -0.11069593131405378
800000000.0 -0.2864124609517752 0.11462359194766515
820000000.0 0.19538826851828434 -0.1955950107141636
840000000.0 0.22962462731667496 0.04803951839928177
860000000.0 -0.19636300088543138 0.052394593066478576
880000000.0 -0.09533856376052077 0.12158451835762188
900000000.0 0.10017509555181663 -0.010395925256614992
920000000.0 -0.02587412349263046 0.04650810403068009
940000000.0 -0.02688307023221426 -0.00797719210581789
960000000.0 0.02338113136500245 0.03751752051436637
980000000.0 -0.04925791640894441 -0.04240500465010746
1000000000.0 0.0809771294035968 0.011511234007033282
1020000000.0 -0.011736076698141563 -0.10374864568462354
1040000000.0 0.057464418433381306 -0.09649988178628192
1060000000.0 -0.09630369029816756 -0.09797272212737089
1080000000.0 0.08053268581993758 -0.15893583263630806
1100000000.0 -0.11630120767592202 -0.17763260496571306
1120000000.0 -0.08904083861828405 -0.23833840750782223
1140000000.0 -0.23929726660356254 -0.15289559605243583
1160000000.0 0.1574957469396912 0.2627530735002462
1180000000.0 0.17077278446824273 0.2743439326152917
1200000000.0 0.14893101040592716 -0.29748433312980344
1220000000.0 0.14378731625013894 -0.3353851516833768
1240000000.0 -0.26086600605118043 0.2967008453001166
1260000000.0 0.4024542267586317 -0.09750630338578486
1280000000.0 -0.35718495120604254 -0.22695620573674338
1300000000.0 -0.4153392002293791 -0.07516680880754385
1320000000.0 -0.41883657200858 -0.10673209432870784
1340000000.0 -0.4005247039522654 0.17561137422409115
1360000000.0 0.05440939403053108 0.43484591692438584
1380000000.0 0.371607481942748 0.20073788727918035
1400000000.0 0.39591760890911876 0.08925109104115142
1420000000.0 0.38427195649797624 -0.0809917907061112
1440000000.0 -0.18497612644862388 -0.3290350140904707
1460000000.0 -0.08902797549141482 0.33555882225671557
1480000000.0 0.3163084347888855 0.019796601073210476
1500000000.0 -0.17893995443107275 -0.2206827172304569
1520000000.0 -0.1627784313174684 0.18724212995300685
1540000000.0 0.19149161277281937 0.07477734718503237
1560000000.0 -0.00478713528468429 0.174967505662171
1580000000.0 0.15092631561570335 -0.015107926581665652
1600000000.0 -0.0616771240855655 -0.10924988734270903
1620000000.0 -0.006317795818562454 -0.102640907439591
1640000000.0 -0.013535913115604549 -0.07008704619801744
1660000000.0 0.04377901816097412 0.010751309426287164
1680000000.0 -0.00026484667578634437 -0.024969324286756623
1700000000.0 -0.015608458220014837 0.019766106469761985
1720000000.0 -0.03134293035502141 0.013033096752566852
1740000000.0 0.0011277015228311556 0.05822364910524039
1760000000.0 -0.06262784351174899 0.04968784361583047
1780000000.0 -0.03015725776950271 -0.10305312598901686
1800000000.0 0.13208399776820515 0.045659790008858225
1820000000.0 0.07751385882100596 -0.14943206553101396
1840000000.0 -0.2067073079823221 -0.033335350009984756
1860000000.0 -0.030165252728671516 -0.2490661814888149
1880000000.0 0.2858554456863305 0.003914509243951188
1900000000.0 -0.2783507294297151 0.15058812556332646
1920000000.0 0.34034887709940254 -0.03587694509319318
1940000000.0 -0.20501626376744267 -0.3035249297363336
1960000000.0 -0.3103798695631449 0.22931354889059968
1980000000.0 -0.000344870696540384 0.4057266191636658
2000000000.0 0.42524569198612167 0.03219947054737078
2020000000.0 -0.14107733010650816 -0.4156878342852339
2040000000.0 -0.36711800770524544 0.24853054635257077
2060000000.0 0.37510257244456285 0.2226701580753483
2080000000.0 0.39469549670933246 -0.15326272004740737
2100000000.0 0.31799928393243765 -0.26144553949026267
2120000000.0 0.10794183300966796 -0.3862694179109839
2140000000.0 -0.324661000956517 -0.20661323566905732
2160000000.0 -0.06847766017163362 -0.35522614011819453
2180000000.0 -0.018208408691963513 -0.3382128905104018
2200000000.0 0.02427671220512615 -0.3222923084963575
2220000000.0 0.13101206330134482 -0.2842293819055561
2240000000.0 -0.11512840329192654 -0.292118657719714
2260000000.0 -0.19369169384194657 0.24084717535849498
2280000000.0 0.05674059937492944 0.2997281690732685
2300000000.0 0.1946032231655158 0.24467505010759957
2320000000.0 0.31295789490276626 0.12026409259284149
2340000000.0 -0.14906514010830973 -0.3370359670239833
2360000000.0 0.03288888005698343 0.40252651194554717
2380000000.0 0.042463108600696894 -0.44660911360397076
2400000000.0 0.08091287127347727 0.4928743204812031
2420000000.0 -0.3387035917973323 -0.43826393527189234
2440000000.0 0.6035875779378435 -0.039979290231721545
2460000000.0 -0.43439566306460986 0.48068768572458226
2480000000.0 0.2125524359148099 -0.6509954717246305
2500000000.0 -0.2473992000392464 0.6711738227299485
2520000000.0 0.2690000634853574 -0.6834917062657074
2540000000.0 -0.3467958795315212 0.6616116469564166
2560000000.0 0.6575821567514624 -0.36359002003544927
2580000000.0 -0.7449871265476424 -0.058402735836064264
2600000000.0 0.5487351615883428 0.4899570638766877
2620000000.0 -0.27157159704986306 -0.6642321910650433
2640000000.0 -0.6909884190908524 -0.05149696845466355
2660000000.0 0.6370540768660957 0.17283326107163346
2680000000.0 -0.6108346083774917 -0.12604918027469816
2700000000.0 0.5687133225034473 0.1421136505245959
2720000000.0 -0.5348028834187072 0.10823841659645507
2740000000.0 0.4469039730236529 -0.23590780962906377
2760000000.0 -0.4079349921339718 0.2318998332347067
2780000000.0 0.3292768398518391 -0.291108115431145
2800000000.0 -0.33540842217609673 0.25007751196980366
2820000000.0 0.23293382396336967 -0.3306465523907107
2840000000.0 -0.06645157943461384 0.38782703755549125
2860000000.0 0.08301854862196034 -0.3750120666017715
2880000000.0 -0.3598876203064669 0.11400906721603521
2900000000.0 0.01469097440229367 0.3773767198836165
2920000000.0 0.37689563658895237 0.05792210066037179
2940000000.0 0.13383826403326296 -0.35897010226743026
2960000000.0 -0.08845152488688914 -0.36862486850768517
2980000000.0 0.22190676759774924 -0.3030779588152032
3000000000.0 0.3081755485137356 0.2175877567980406
3020000000.0 0.02580100696120532 0.3761322634404586
3040000000.0 -0.3516890815710882 0.10737170334112683
3060000000.0 0.19248550233550507 -0.30004672247260505
3080000000.0 -0.2836981232967937 0.1968556473563252
3100000000.0 0.3198702917131365 -0.10259944401927026
3120000000.0 -0.32432694346417146 0.03902379251214416
3140000000.0 0.13906391827321005 -0.282608033446989
3160000000.0 0.07922267436581316 0.2850030267473363
3180000000.0 0.12330626602395085 -0.24366344155750774
3200000000.0 0.16235474560328192 0.1822608461927415
3220000000.0 -0.1718878635526458 -0.11813734099065999
3240000000.0 -0.10390615273537966 0.1403170803195185
3260000000.0 -0.1171187969682003 0.07984094935804302
3280000000.0 0.03464567115510567 -0.10563004797901755
3300000000.0 0.05676033384542654 -0.06848830325110776
3320000000.0 0.00469648286449862 0.07177365444326783
3340000000.0 -0.058838009252733324 -0.019598550137703428
3360000000.0 -0.021391109989890602 -0.04490088478013109
3380000000.0 0.03286923136503145 -0.021124281117807554
3400000000.0 -0.02525380037725251 -0.026170477113238142
3420000000.0 0.014706995687383522 0.029771026198828328
3440000000.0 0.026093436234727256 -0.0033225180488083003
3460000000.0 -0.02053612721532278 0.0040425633748052475
3480000000.0 -0.0029102675046434857 -0.010321303889110674
3500000000.0 0.007925142538590682 0.01126193459623163
3520000000.0 -0.022473861310824367 -0.02039243017472337
3540000000.0 -0.01320602836533897 -0.04383601169164308
3560000000.0 0.050072183625787504 -0.025341457232528022
3580000000.0 -0.06036133896021609 0.026171227524734567
3600000000.0 0.06585057862365737 -0.038543349952620265
3620000000.0 -0.031222659356167987 0.07998455032439433
3640000000.0 0.004964049928597907 -0.09235062318621748
3660000000.0 -0.04750947036243336 0.08391102832878344
3680000000.0 -0.0311205399310853 0.0967352703100078
3700000000.0 0.06568482257708472 -0.0861155121349851
3720000000.0 -0.022233507907727698 0.1104402737063055
3740000000.0 0.02239221144895359 -0.11057695442374252
3760000000.0 -0.00037921352061232006 0.1138277211028122
3780000000.0 0.05618784404948448 -0.10733525161230638
3800000000.0 0.1355119632698636 -0.013812528332503892
3820000000.0 -0.09410702281275947 -0.12056923071289774
3840000000.0 0.1171067790729604 0.11787946760516253
3860000000.0 -0.09604424175146473 -0.15494163846647865
3880000000.0 0.19843192078889715 -0.019915632713080056
3900000000.0 0.20998304946967028 0.04109176899653794
3920000000.0 0.19170597514298426 -0.10884827272294956
3940000000.0 0.19025162496629397 -0.11340164731922102
3960000000.0 0.13036512802055233 -0.1791659983854846
3980000000.0 0.02425711100726035 -0.21464378218096056
4000000000.0 -0.03144247019405416 -0.2030942460241072
