!Created with skrf (http://scikit-rf.org).
# Hz S RI R 50.0 
!freq ReS11 ImS11
400000000.0 0.7374720829387841 0.38933474566356135
420000000.0 0.6650000191492629 -0.4947369587804925
440000000.0 0.1477528199867947 -0.7556467321760322
460000000.0 0.3463164487714805 -0.6368495267879757
480000000.0 0.02527261109561629 0.6600419034438164
500000000.0 0.5696328050785167 0.27309576609249664
520000000.0 -0.2271056600795916 0.5190989010898599
540000000.0 0.2084673058915582 0.4623900270602501
560000000.0 0.008834586147589326 -0.46602249756412456
580000000.0 -0.3984509504633518 0.15593995760860133
600000000.0 0.09006173383503191 -0.3829550708562326
620000000.0 -0.29644491601826983 -0.2188340851910201
640000000.0 -0.3419931802277877 0.2081204938216511
660000000.0 0.4254614083128943 -0.08889281188946158
680000000.0 0.12510794577949627 -0.4256382068896332
700000000.0 0.2763268875527566 0.3450084557767573
720000000.0 0.04836629022552307 -0.4223377077714112
740000000.0 0.3480033346970393 -0.17392855092516873
760000000.0 -0.24966737073962725 0.26303831506005687
780000000.0 -0.2608311735938851 -0.2152091433351997
800000000.0 0.02423825614854171 -0.30103839311166614
820000000.0 0.14216738034310672 0.2277474764940945
840000000.0 -0.04042761829560452 0.23168295085439947
860000000.0 0.13458119725679799 0.14557694102907975
880000000.0 0.018716412931848756 -0.16176842749953307
900000000.0 -0.05198969604220765 -0.10401568600635613
920000000.0 0.03935951015137922 0.06261754167325805
940000000.0 0.01873010059988301 0.0321538522238353
960000000.0 -0.01108414944792385 0.03373693659471162
980000000.0 -0.047499179567368356 -0.0027384377328070007
1000000000.0 0.05762588988216386 0.0033668735513319387
1020000000.0 -0.08631245315707468 -0.02731582717236286
1040000000.0 0.10461423943259743 0.05292913080680688
1060000000.0 0.06870308879622643 -0.13479978560567693
1080000000.0 -0.10720543362349841 0.15650157944436213
1100000000.0 0.04664517164989503 0.21012359133766859
1120000000.0 0.05960428838046124 0.24769799432530404
1140000000.0 -0.21575851686315145 0.1668140842667631
1160000000.0 -0.19012637386832043 0.2314973697687141
1180000000.0 -0.3133821245445651 0.09489474418449942
1200000000.0 -0.0008058791443577593 -0.34260939821877945
1220000000.0 -0.3188167913098112 -0.18327926690539714
1240000000.0 0.19161209915062224 0.3371330421556187
1260000000.0 0.38890785000880973 -0.10492721785907289
1280000000.0 0.22275560753598322 -0.35307153993865864
1300000000.0 -0.020480387207433958 -0.42814692043072333
1320000000.0 -0.36542307920171735 -0.24572734084379128
1340000000.0 -0.3508986996326902 0.2745355500684796
1360000000.0 -0.1289704732715889 0.4235564830280179
1380000000.0 0.4164763198669372 0.12441700206270943
1400000000.0 0.3454710465919518 -0.233376540546631
1420000000.0 -0.05047875838009282 -0.3923287559005968
1440000000.0 -0.16514512669558545 -0.33553998142013686
1460000000.0 -0.35461940309893286 -0.010772096096479847
1480000000.0 0.2777974275368363 0.1715209608833153
1500000000.0 -0.015501031211564731 -0.2947619577094086
1520000000.0 -0.2532074003966987 0.06183958010630214
1540000000.0 0.14096189243478147 0.17222217008297905
1560000000.0 0.16359530613998313 -0.09858911547245132
1580000000.0 -0.11019318709919214 -0.1200144814223309
1600000000.0 0.1341147910147095 -0.021786252991290684
1620000000.0 0.05889150567445191 0.0868430684397097
1640000000.0 0.06289274195287707 -0.04173228065384772
1660000000.0 -0.01890715083639416 0.049902320691968614
1680000000.0 0.02508754368735556 0.023772776812892984
1700000000.0 0.02055548176161253 0.01932549169256743
1720000000.0 0.02460513223029641 0.006505159589177482
1740000000.0 -0.033540346842971754 -0.028420781242981006
1760000000.0 0.05829699126669056 -0.036094151618168445
1780000000.0 0.022214376440775986 0.09267318478231164
1800000000.0 0.11810952385672178 -0.0390178938622771
1820000000.0 0.1269952779099844 -0.09374883310251227
1840000000.0 -0.16853198022539345 0.10029134753076113
1860000000.0 0.012833543877585691 -0.2351693508490852
1880000000.0 0.25068922302202407 0.11218407046464096
1900000000.0 -0.290029038792125 0.0984490735737489
1920000000.0 0.33116538626909936 0.044781445687614926
1940000000.0 -0.07685667077839421 -0.35518435844397034
1960000000.0 -0.12021400103516137 0.3672709054515032
1980000000.0 0.39632597998581715 -0.0651368538975738
2000000000.0 0.2099376837623459 -0.35436154927799235
2020000000.0 -0.004321671661047205 -0.42507579780832
2040000000.0 -0.42840358361084996 -0.07363103896221972
2060000000.0 -0.09359723916338399 0.42585480699490186
2080000000.0 0.40901970660698156 0.13800589674884517
2100000000.0 0.16220494794750315 -0.3858826329098891
2120000000.0 -0.23207143240830497 -0.3303444527052192
2140000000.0 -0.3830727781012665 0.03001487685333922
2160000000.0 -0.19372263930047054 -0.3061473808999463
2180000000.0 -0.21511642116615698 -0.2616992420047517
2200000000.0 -0.10995904875707267 -0.30308282837288447
2220000000.0 -0.13719066320438192 -0.2789442976496033
2240000000.0 -0.2290528535446127 -0.20413997868335657
2260000000.0 -0.24548403605066985 0.18164274257198637
2280000000.0 0.1366550147486421 0.272567553462628
2300000000.0 0.3002401017926941 -0.07746602209757583
2320000000.0 0.037637689137725465 -0.32572997670184356
2340000000.0 -0.3546702924212223 -0.016093805665124795
2360000000.0 0.17986121211109163 0.34499657523391936
2380000000.0 0.12401868690485278 -0.41717781215908295
2400000000.0 -0.134404273669146 0.4690935494454652
2420000000.0 -0.07425926215125525 -0.537481145363565
2440000000.0 0.4963445691437733 0.3312197504155342
2460000000.0 -0.6196997919938454 -0.17455767622743512
2480000000.0 0.6780413965896097 0.08848682293030088
2500000000.0 -0.7115864059168833 -0.07783305672533425
2520000000.0 0.7381116390229054 0.04142891371048119
2540000000.0 -0.7023835924930578 -0.27230994675876824
2560000000.0 0.4848357379388021 0.5845211979215913
2580000000.0 -0.13432859976341166 -0.7445017934303237
2600000000.0 -0.21375022182971057 0.7130570233594684
2620000000.0 0.5500770768706361 -0.4769558584106056
2640000000.0 0.03064353156113847 -0.7042285600684687
2660000000.0 -0.28070662129336027 0.613091866299613
2680000000.0 0.18645361086355614 -0.6114124306223566
2700000000.0 0.004198145119515615 0.6012064043573953
2720000000.0 -0.24354207248895718 -0.5057031921061733
2740000000.0 0.4672073546624662 0.22931064086319927
2760000000.0 -0.46311833251676865 0.12758088230060896
2780000000.0 0.3737937228728358 -0.24582290272989998
2800000000.0 -0.4155045854641974 0.09374534661235917
2820000000.0 0.411940050935215 -0.024002908604812148
2840000000.0 -0.403735995921423 0.002763673360525701
2860000000.0 0.3968979407676102 0.01614011838766345
2880000000.0 -0.27675034255494946 -0.27806697498349414
2900000000.0 -0.2801842252819542 0.27101903005981764
2920000000.0 0.2447065049994312 0.3056644180366315
2940000000.0 0.3819145523672341 -0.09313615269729643
2960000000.0 0.3507390830627837 -0.16898337917803494
2980000000.0 0.38721772180851954 -0.004350249709608425
3000000000.0 0.14125672413419138 0.35965375429231194
3020000000.0 -0.3204665796152552 0.20672416502157545
3040000000.0 -0.08214849653667423 -0.36469690434558394
3060000000.0 0.27825149260347615 0.2379918317685069
3080000000.0 -0.24497108730620493 -0.2577559445343572
3100000000.0 0.19163788962619277 0.2898263172750559
3120000000.0 -0.2448273217138294 -0.2332679116635661
3140000000.0 0.30179800825559056 -0.12395263186843798
3160000000.0 -0.029738043150409593 0.30628912614614195
3180000000.0 0.07319925069092158 -0.2747626878711262
3200000000.0 0.20942920185260303 0.1398335575975841
3220000000.0 -0.20975542883389714 0.05930305479611975
3240000000.0 0.17732540560753762 0.03944948545242856
3260000000.0 0.10885609033381694 -0.10358245880929096
3280000000.0 0.06794050819313875 -0.09865151691345493
3300000000.0 0.08718804964057275 -0.03134147023031774
3320000000.0 0.027310859238039234 -0.06137279138049193
3340000000.0 -0.023620866707468106 -0.040837999574188225
3360000000.0 0.03180156268096456 0.011681422665872614
3380000000.0 0.007998711772832012 -0.024028430274581885
3400000000.0 -0.023822017917777338 -0.005002038636954699
3420000000.0 0.017619949393558147 -0.015038981363597824
3440000000.0 -0.016923501683447802 -0.01696352431615452
3460000000.0 -0.016664333500947676 -0.005172440908605846
3480000000.0 -0.014726733392915728 -0.0036840659700719024
3500000000.0 -0.017826151762521725 0.013784849506636623
3520000000.0 0.03681312020225094 -0.011435668222338994
3540000000.0 -0.031583169661472225 0.043982534826247595
3560000000.0 -0.041390108474022344 0.050204846693284004
3580000000.0 -0.05920664078646711 -0.036898135826979275
3600000000.0 -0.07549112286307645 0.008401266126329897
3620000000.0 -0.035913660194736026 0.0732144727204737
3640000000.0 -0.01556769914026568 0.08739995294232379
3660000000.0 0.0669803206129402 -0.06757970761554433
3680000000.0 0.09730779677996268 -0.0034336145752099545
3700000000.0 -0.09266414507929913 -0.03141245721235911
3720000000.0 0.09363177842651567 0.0228917627629961
3740000000.0 0.04450271185587209 0.08132773322034195
3760000000.0 0.028892609762167162 0.08886991644521319
3780000000.0 -0.053421600980235386 0.08841640009699991
3800000000.0 0.11965960231346848 -0.026021209186558075
3820000000.0 -0.01151454385304888 -0.14021649683989756
3840000000.0 0.00012061401094894829 0.15373407178982865
3860000000.0 -0.12450713473896795 -0.11327021805823828
3880000000.0 0.1735367830927096 -0.061028026945750234
3900000000.0 0.09493233425839752 0.17028345294830927
3920000000.0 -0.0860690001335799 0.18738151992461174
3940000000.0 -0.11242762523314186 0.1859372818089362
3960000000.0 0.06340307976853865 0.21751181328535277
3980000000.0 0.22628885703330612 -0.0459727418626199
4000000000.0 0.1976401765258334 -0.09162915454418653
