!Created with skrf (http://scikit-rf.org).
# Hz S RI R 50.0 
!freq ReS11 ImS11
400000000.0 0.7438911952232724 0.3361752160623177
420000000.0 0.8030646653837775 -0.20126132199158306
440000000.0 -0.31408013284143027 -0.7001406630747922
460000000.0 0.5284719991228318 -0.48170944933828164
480000000.0 -0.1907479904843228 0.6298369976083656
500000000.0 0.07278002971584917 0.6425256427293441
520000000.0 0.05168265220694702 0.5757871317590847
540000000.0 -0.4712538551679827 0.2092107838759255
560000000.0 -0.4805826449447099 -0.04274278909630197
580000000.0 0.0854979340795362 0.42602028008868964
600000000.0 0.0731711092603088 -0.38603052372267777
620000000.0 -0.3774900826927444 -0.08211912002544568
640000000.0 0.3983593472044642 0.06517447606135432
660000000.0 -0.23500215212180645 -0.3513500739307226
680000000.0 -0.40452176832759956 -0.15201462839728266
700000000.0 0.0335823258744306 0.4170851641744165
720000000.0 0.08593409743665117 0.4088052723870217
740000000.0 0.1727994056790923 0.3604555384945754
760000000.0 0.04550286412545395 0.37005626229982064
780000000.0 -0.09780046196305568 0.3212816341459481
800000000.0 0.22861026380173277 -0.19046562488840266
820000000.0 0.13044570069856784 -0.2361681162960264
840000000.0 -0.057372892885830425 0.21841742209355988
860000000.0 0.20162458184301607 0.010108400161722453
880000000.0 0.01991126653394016 0.15237893844545394
900000000.0 0.1038738976613571 -0.02888832148715837
920000000.0 -0.050630095279220584 -0.04486265123312634
940000000.0 0.006688255712080646 -0.03772676864581602
960000000.0 -0.047879616059174096 0.016190134364320326
980000000.0 0.04496194280264189 0.04636364368405641
1000000000.0 0.06468327709904599 0.005151175806157611
1020000000.0 0.08518775329522028 -0.02830386106017196
1040000000.0 0.056546844556009376 -0.09574993729496238
1060000000.0 0.007231617325336985 -0.1441342222166474
1080000000.0 -0.12063765787576593 0.1363369831207114
1100000000.0 0.055470779623159945 0.19859361001606304
1120000000.0 -0.23259298987885804 -0.06620505002682328
1140000000.0 0.0004947653708948412 -0.27791540694831457
1160000000.0 -0.1286514246562991 0.2825859377247136
1180000000.0 0.30138086767880795 -0.14375424156507896
1200000000.0 -0.10541609803260006 0.309311982974661
1220000000.0 -0.2757506137948681 -0.21523855870863876
1240000000.0 -0.3810327092158541 0.02175693320063437
1260000000.0 0.24537788838176355 0.3297115713748631
1280000000.0 -0.11904392876830629 -0.41009156517822026
1300000000.0 -0.4304562563921905 -0.0008944842431654395
1320000000.0 -0.3814421728792149 0.20698508454222778
1340000000.0 -0.3954577470798464 0.18704132362504625
1360000000.0 -0.07149709911739796 0.4390613297221239
1380000000.0 0.4113401266171568 -0.12387380484802261
1400000000.0 0.1299168704031759 -0.3910287533590365
1420000000.0 0.03901979636614692 -0.38155064712782144
1440000000.0 0.3514831728929681 -0.11294406717726879
1460000000.0 0.0016315828661147224 -0.35751716773126374
1480000000.0 -0.0639799391516823 0.3378805633854936
1500000000.0 0.010585877011160654 0.3091520325185852
1520000000.0 0.20449061392134532 -0.15590935599478078
1540000000.0 0.07682280566795821 -0.20162962195351342
1560000000.0 0.09328298343222852 -0.1589223461596327
1580000000.0 -0.15587133840187425 0.04719849211796548
1600000000.0 -0.07078579778792597 -0.11121504195259495
1620000000.0 -0.026869422650598933 0.09648999334916238
1640000000.0 0.023040224140463413 0.0739539023798314
1660000000.0 0.0033528166566552903 0.05662286859535509
1680000000.0 -0.004747105854705933 -0.036280278407387394
1700000000.0 0.010115207697457305 0.029557970981582565
1720000000.0 0.03633563894668222 0.006024538533413563
1740000000.0 -0.027248024938324903 -0.02327802872151281
1760000000.0 0.031068416497786237 0.04371061896409548
1780000000.0 -0.04570255909371487 0.07985639159184531
1800000000.0 -0.05216015739642951 0.12761713645551015
1820000000.0 0.09101376617189628 0.1425653021263552
1840000000.0 -0.0028016351928659175 -0.19123259842345933
1860000000.0 -0.11824828266657894 -0.1917080950371026
1880000000.0 -0.13346898628810014 0.23462336951648655
1900000000.0 -0.16400888602173977 -0.266352165364702
1920000000.0 0.3284388060135964 -0.10012211684485753
1940000000.0 -0.36274920432066393 -0.0016616555053022466
1960000000.0 -0.03536884933589968 0.37684483360950194
1980000000.0 0.14947368082862514 0.36906786459158164
2000000000.0 0.4116990472400042 -0.08233617143592827
2020000000.0 -0.25505023865262494 -0.3494689212956748
2040000000.0 -0.1470816670655433 0.40846184368722777
2060000000.0 0.31425787473628686 0.28500492842524944
2080000000.0 0.32939080212837407 0.2531704399307785
2100000000.0 0.4004548369590631 0.08071069738370446
2120000000.0 0.26972859459644816 -0.29325256233854946
2140000000.0 -0.12925089184053914 -0.36149457642687755
2160000000.0 0.03879644158858579 -0.3613250715396763
2180000000.0 -0.20533886578675628 -0.27347059234660676
2200000000.0 -0.3179357580444217 -0.05486381456562559
2220000000.0 -0.30381388908593127 0.012883910711063856
2240000000.0 -0.28825630649100775 -0.058924228768077964
2260000000.0 -0.24468584958294645 -0.15788339261977286
2280000000.0 -0.2766255502805267 0.10840905817619703
2300000000.0 0.24987127345821228 0.1711852237918093
2320000000.0 0.31523385756510464 0.009577167148283819
2340000000.0 0.24683664363011856 -0.2417903014431582
2360000000.0 -0.36700027072564345 0.11612771675117134
2380000000.0 0.31337789425440427 -0.29203767287349264
2400000000.0 -0.3977299151158586 0.2516287831748638
2420000000.0 0.5103680543120425 -0.11159255054950852
2440000000.0 -0.5106380988401061 0.2720704499186182
2460000000.0 0.2324932606607458 -0.5828839795464378
2480000000.0 0.11258997472504058 0.6578584098980592
2500000000.0 -0.05687285391750884 -0.6967279232843492
2520000000.0 -0.041766881618981046 0.7215252707662487
2540000000.0 0.108859021224388 -0.7301316546089969
2560000000.0 -0.4808626087740005 0.5699600770454626
2580000000.0 0.7214452591281534 -0.18491248679201935
2600000000.0 -0.6843013938613568 -0.2709935585978843
2620000000.0 0.5258536766124835 0.4945674162411848
2640000000.0 0.6378909597272704 -0.2882566047694038
2660000000.0 -0.6421126320756567 0.19201208649319612
2680000000.0 0.6075048605122462 -0.19006610892797274
2700000000.0 -0.5392208347797879 0.2649942329813261
2720000000.0 0.3128122007639554 -0.4690960790199511
2740000000.0 0.0953153897291015 0.5159534659255932
2760000000.0 -0.3486204214860041 -0.3387417358545046
2780000000.0 0.40673144821647395 0.20040478044048407
2800000000.0 -0.31010606881149577 -0.2987246364386551
2820000000.0 0.3664584204435401 0.20149921860181197
2840000000.0 -0.39783305809346126 0.08020343902468301
2860000000.0 0.395440348215711 -0.011169461009444106
2880000000.0 -0.19389847462763474 -0.3369036420541052
2900000000.0 -0.3901429051298798 -0.03057197071782627
2920000000.0 0.08207880550179739 0.39094609084385407
2940000000.0 0.24236034558071753 -0.3168521065340795
2960000000.0 -0.002875459107315132 -0.39042449870735635
2980000000.0 0.3105025555753699 -0.23213932009601873
3000000000.0 0.3523898640938592 0.16267465868218478
3020000000.0 -0.06588864142896449 0.37696620144691323
3040000000.0 -0.27630784419527954 -0.2537647494382116
3060000000.0 0.35654903371786945 0.09845168052342505
3080000000.0 -0.36027425500779514 0.04522551049610875
3100000000.0 0.29578047579116573 -0.19530194630618536
3120000000.0 -0.241043946092195 0.24563613479902355
3140000000.0 -0.017473972708107414 -0.3311629479382335
3160000000.0 0.30440660549753734 0.07955823821164626
3180000000.0 -0.2866884953472808 -0.05451774753613065
3200000000.0 0.14623471264166885 -0.21447465074474617
3220000000.0 -0.10443461368848617 0.20263304177389754
3240000000.0 0.10092400782392656 -0.17055166947292308
3260000000.0 0.010513279944356866 0.16370062685479414
3280000000.0 0.11678921454339733 0.04752586728618291
3300000000.0 -0.09636327315894312 -0.013986499969904975
3320000000.0 0.07383836264792822 -0.01681518992538637
3340000000.0 -0.031399617258905554 0.04493455586769779
3360000000.0 -0.032748312867610714 -0.010700832336615352
3380000000.0 0.00659113202926169 -0.018787020513352758
3400000000.0 -0.021139405888921367 -0.006498358143577888
3420000000.0 0.019637946331946498 -0.008787533279315649
3440000000.0 0.0038931671086887987 0.008854797109971363
3460000000.0 -0.0018293075054561423 0.008889434271928492
3480000000.0 -0.020496687117947138 0.012431379605216288
3500000000.0 0.028159622476738304 -0.018206443153213785
3520000000.0 -0.03826017514021751 0.023349314903762092
3540000000.0 -0.04649993371963021 -0.03912473172738026
3560000000.0 0.008438485742687029 -0.0729383810198553
3580000000.0 -0.05183631941782617 -0.06459242310158554
3600000000.0 0.08830728308907466 0.004252900276121293
3620000000.0 -0.09194509795146628 -0.031692362464786246
3640000000.0 0.09733819758865804 0.03469537225054564
3660000000.0 -0.11134901213538483 -0.00534185151425497
3680000000.0 0.037122074106817816 -0.10921205956205725
3700000000.0 0.09775141593877142 0.06065141528874336
3720000000.0 -0.0648122921010234 -0.0912783023605349
3740000000.0 -0.0816510700127116 -0.07441405968644514
3760000000.0 0.07291996986337218 0.08894196684114104
3780000000.0 0.06691988399045043 0.1013135556402929
3800000000.0 -0.023713611212763115 0.12042762167148069
3820000000.0 -0.032733346719627236 -0.12849462737093048
3840000000.0 -0.07712633328761899 -0.12885009626428312
3860000000.0 0.1655128993472059 0.020539491985908504
3880000000.0 -0.1665017906813709 0.06083855490897204
3900000000.0 0.18041740141647714 0.06031599200250204
3920000000.0 0.029908390358720404 0.20268099303931672
3940000000.0 0.2142003807679565 -0.0024645969303754424
3960000000.0 0.06002985993664468 -0.20272170885459853
3980000000.0 -0.047070747171096876 -0.19992795730059396
4000000000.0 -0.04184027357786722 -0.1910145510956268
