!Created with skrf (http://scikit-rf.org).
# Hz S RI R 50.0 
!freq ReS11 ImS11
400000000.0 -0.6747203312375124 0.43761736744856117
420000000.0 0.49493751503659844 0.6378664287390559
440000000.0 0.624740766804645 -0.4092624400350481
460000000.0 0.6419955804840997 -0.2726747540080119
480000000.0 0.22700627952677183 0.5938238190168867
500000000.0 0.613630241942608 -0.030787611319169333
520000000.0 0.5409491185826882 0.07625939084934674
540000000.0 -0.05431948362307389 0.4899372671911467
560000000.0 -0.12716670315572798 -0.4622094255637436
580000000.0 0.1469479934294272 0.4239548738971742
600000000.0 0.07359679994854948 -0.40855794028706227
620000000.0 0.33348429398407814 0.22202857636210316
640000000.0 0.42757766038920164 -0.02846083366248233
660000000.0 -0.043308314120965016 -0.46035474011323024
680000000.0 -0.36004468763809194 -0.2917852433864522
700000000.0 0.1187267461823066 0.43482307792342717
720000000.0 0.4102165164076757 0.14798756735233354
740000000.0 -0.2782736224415863 0.2928455428248536
760000000.0 0.06490160610739969 -0.37092074928545377
780000000.0 -0.11238333107758697 0.33297228858939093
800000000.0 -0.27574016147715674 -0.17774195391980185
820000000.0 0.08107416244903913 0.27632577422739507
840000000.0 0.2166086603305399 0.016575501791004338
860000000.0 0.053716282503596356 -0.18986550950340628
880000000.0 0.12194741372063278 -0.09230427387455135
900000000.0 -0.10137834904148958 0.06825184044352184
920000000.0 0.06274542011159334 -0.024417037285265706
940000000.0 -0.028173034980212616 0.006006454959971443
960000000.0 0.011173836491365104 0.0014051754391524384
980000000.0 -0.023171357244292725 -0.003315077994145446
1000000000.0 0.04639984991808504 -0.0011464824993900253
1020000000.0 0.04481995625926852 -0.0626398225145155
1040000000.0 -0.09798890488398525 -0.030703296087644667
1060000000.0 0.09832047050149964 -0.0943340166284332
1080000000.0 -0.04061705262813261 0.17707723553872884
1100000000.0 -0.10020765126940123 -0.19799420800713335
1120000000.0 0.25861038554313226 -0.05446104960936809
1140000000.0 -0.2925706754348088 0.037286421279988005
1160000000.0 -0.07910089544961088 0.3085302597438915
1180000000.0 -0.25077807039030897 -0.22167539089958016
1200000000.0 -0.007052249608144725 0.3493682128737236
1220000000.0 0.21612395753846714 0.2969560261537995
1240000000.0 0.2534498495998614 -0.2912135412287084
1260000000.0 -0.2753404807077591 -0.2856266925300978
1280000000.0 -0.33223319715446914 0.22514464112629032
1300000000.0 -0.15858310019245275 0.36501607307463946
1320000000.0 -0.03324816992050734 0.3944920273690183
1340000000.0 0.12598062767045243 0.37344858731380376
1360000000.0 0.22017138056696298 -0.3051330308195337
1380000000.0 0.3383572884349066 0.08432816211744243
1400000000.0 0.32373722469529626 -0.0666493360688002
1420000000.0 0.27148649491080673 -0.14233778288172835
1440000000.0 -0.16179254273452787 -0.23580496917857077
1460000000.0 0.23025197079203213 0.10144984992553566
1480000000.0 -0.20301084429592128 -0.04082693766934501
1500000000.0 -0.12923052867378151 -0.09550249860392723
1520000000.0 -0.12146505892005892 0.0325827460829569
1540000000.0 -0.03805841258409753 -0.07521511693715456
1560000000.0 -0.04223935207624678 -0.0027490269694712293
1580000000.0 0.002955597705458254 -0.024133142207833122
1600000000.0 -0.025882341553650757 0.005053279032804685
1620000000.0 0.012807189692787636 -0.027256096088788158
1640000000.0 -8.914119210394503e-05 -0.0579707210464468
1660000000.0 0.047786067264169306 0.0680222806637168
1680000000.0 -0.06780568382595513 0.08463092912875092
1700000000.0 -0.12231134707236432 -0.047813662793151704
1720000000.0 -0.10681070506527801 0.10828225423107216
1740000000.0 -0.04480873599860804 0.16182745688185873
1760000000.0 0.07655783608350696 0.1752648447260855
1780000000.0 -0.004745547926082704 -0.22011581604232128
1800000000.0 -0.22139074651350865 -0.11635197696855094
1820000000.0 -0.04445484183620329 -0.2753699905681138
1840000000.0 0.31422130864699654 -0.004397949773944728
1860000000.0 0.3346602567217994 0.09322895105379059
1880000000.0 -0.21270424497649484 0.31468074668175083
1900000000.0 -0.11944652196697977 -0.3863453302066355
1920000000.0 0.11674453790036918 0.41730715682134834
1940000000.0 -0.16494263714789215 -0.4282814020399341
1960000000.0 0.05411620414191993 0.4724480439722497
1980000000.0 0.2864159926655784 -0.39714043613306715
2000000000.0 -0.4944341067393229 0.006623422031532238
2020000000.0 -0.3005575821783013 0.39997559521975523
2040000000.0 0.32175372521055334 0.3896076733735316
2060000000.0 0.19043474234987223 -0.46618588486765555
2080000000.0 -0.4859938828203632 -0.07645635189707474
2100000000.0 -0.2632604433009607 0.39666574304998115
2120000000.0 0.13259154020435934 0.44296364098339086
2140000000.0 0.10999619852054775 0.43301097268920913
2160000000.0 0.40960289561063995 -0.09847502157143802
2180000000.0 0.2072228171433836 -0.3426699816659918
2200000000.0 -0.29057622357092905 -0.25284200375534976
2220000000.0 -0.21144565653180414 0.30357860940988923
2240000000.0 0.3591528111439254 -0.00038223583063984285
2260000000.0 0.03698559899612759 -0.3437142885065639
2280000000.0 -0.2536729765681607 -0.23284490567755267
2300000000.0 -0.04711971623738431 0.34553291143686254
2320000000.0 0.3441804045835874 0.09173444176264933
2340000000.0 0.2965575202739826 -0.2264524187277639
2360000000.0 -0.032976663640574826 -0.3984774493883098
2380000000.0 -0.4394104035175943 0.008027329060511984
2400000000.0 0.22742672574410458 0.4218729739193682
2420000000.0 0.4432760312088227 -0.2784437605537031
2440000000.0 -0.5252388767638453 -0.2333902238947542
2460000000.0 0.3806764796988543 0.4920109225691568
2480000000.0 -0.15854312179222518 -0.6449007602558433
2500000000.0 -0.19464091005098205 0.6706801604515178
2520000000.0 0.5316708544789904 -0.4925938488105391
2540000000.0 -0.7233368212771417 0.16886137479361088
2560000000.0 0.632667820055006 0.40802473616055757
2580000000.0 -0.032674483975218084 -0.7529078284661619
2600000000.0 -0.5034182746513439 0.5521328593785778
2620000000.0 0.728766088310584 -0.09678820020040962
2640000000.0 0.49227259895014946 -0.5217638870104964
2660000000.0 -0.6514790839722386 0.23982408121922666
2680000000.0 0.6607841662506966 -0.10199625923777669
2700000000.0 -0.6375375133750257 0.06948238230716769
2720000000.0 0.5259673528201542 -0.31315919398568676
2740000000.0 -0.16523585516412354 0.5606050552142976
2760000000.0 -0.36839273986522086 -0.41707698335090837
2780000000.0 0.5086281608195495 -0.1638572162814403
2800000000.0 0.030832161992074895 0.5157677415284774
2820000000.0 -0.5024919529437375 -0.010288989176517107
2840000000.0 0.0997895774472869 -0.48250455461032726
2860000000.0 0.39251813778864586 0.28459577587781704
2880000000.0 -0.47570471252264207 0.01560551339566218
2900000000.0 0.46407045648494183 0.07104485195581026
2920000000.0 -0.3342349968531351 -0.3232305233692725
2940000000.0 -0.06506237800055878 0.45270812628954754
2960000000.0 0.4251907397617312 0.13747993096308928
2980000000.0 0.43267165583318895 0.05199157916289118
3000000000.0 0.40677742489538415 0.1340363521681894
3020000000.0 0.30563989972032474 0.2813528327830708
3040000000.0 0.08348186916315474 0.3903488815613159
3060000000.0 -0.2542929288879596 0.2835764645983186
3080000000.0 -0.2862347364017288 -0.21467295270972414
3100000000.0 0.18000302352925282 -0.27962072725104115
3120000000.0 0.2892551011850886 0.0947248971441067
3140000000.0 -0.2659438474266306 0.06315736644296872
3160000000.0 -0.20056721748049963 -0.1197960454625258
3180000000.0 -0.0017498779511679946 -0.18972865851479873
3200000000.0 0.1006052429923101 0.09997986571648587
3220000000.0 0.05405744023482423 -0.07945413402106197
3240000000.0 0.02352764952255322 -0.04470603205583643
3260000000.0 0.014660859301099345 -0.020291312099345503
3280000000.0 -0.04454192212727072 0.019264805455133895
3300000000.0 -0.07580491573970644 -0.0008883098508270256
3320000000.0 0.07622733413938444 -0.06834180791105503
3340000000.0 0.09266665020415794 0.08560425188340895
3360000000.0 -0.07048127656085502 0.11623100201411304
3380000000.0 -0.12395735669953808 -0.07239794466374938
3400000000.0 0.14581227456696827 -0.0051547724197672975
3420000000.0 0.10449194762593639 -0.09787954791006141
3440000000.0 -0.13105360071685526 -0.005280705741851883
3460000000.0 0.11363022075263675 0.01782350166975152
3480000000.0 -0.03412440599993769 0.09189729408402786
3500000000.0 0.019350406793778346 0.0816948056385547
3520000000.0 0.06861659115888423 -0.03142206772245026
3540000000.0 0.05304508526650043 -0.050696072035601114
3560000000.0 -0.04319784509342938 0.06692003076150276
3580000000.0 0.061038953748345906 -0.07131628235456204
3600000000.0 0.04722825271301464 -0.10507968378386562
3620000000.0 -0.12096980758265043 0.06743889078162774
3640000000.0 -0.02471121669975502 0.1596295565017795
3660000000.0 0.008649158096602777 0.1828197940111148
3680000000.0 -0.14263997234457182 -0.13818211713562337
3700000000.0 0.21337610883628153 -0.010042638603652686
3720000000.0 -0.1565805265113061 0.16117259290100822
3740000000.0 0.10546674414437839 -0.20473795620985263
3760000000.0 -0.18236477764035283 -0.14900309757099275
3780000000.0 -0.1170916590147586 0.20491027367213263
3800000000.0 0.23121442169129372 0.01727949514479249
3820000000.0 -0.061908840103938614 -0.21779643180830216
3840000000.0 -0.07953959284558698 0.19655964586578395
3860000000.0 0.14936901523044352 0.12006745598598109
3880000000.0 0.1683088116520077 0.0007553996986050271
3900000000.0 -0.06714223450224906 0.11887488688741077
3920000000.0 0.09406333309417553 0.05084272864668419
3940000000.0 -0.005379385359334568 -0.07671310800167837
3960000000.0 0.056113918554924626 0.004962356425428768
3980000000.0 -0.012011137548177847 -0.06163292221792425
4000000000.0 -0.004381101933266241 -0.0831773536361771
