!Created with skrf (http://scikit-rf.org).
# Hz S RI R 50.0 
!freq ReS11 ImS11
400000000.0 0.8137675953351389 0.0032736977663915343
420000000.0 0.8197913448833717 -0.09846573396513789
440000000.0 0.03031542675885712 -0.7701073760746995
460000000.0 0.5570848792500505 -0.45651293296582457
480000000.0 -0.31465915296904473 0.5931794022256638
500000000.0 0.4324273618362024 0.48098092233100265
520000000.0 -0.13749546579835104 0.5627576780404285
540000000.0 -0.26435926259560916 0.45097274792274517
560000000.0 -0.4691033817236234 0.11815063672643729
580000000.0 0.2469225456214443 0.35504880120167975
600000000.0 -0.3856609106290175 -0.07170857685309026
620000000.0 -0.33572158795847357 0.14431137197735708
640000000.0 -0.053773827504309646 0.3956279345611487
660000000.0 0.24037682106432096 -0.35085438268526037
680000000.0 -0.2429017748775334 -0.36524477952525003
700000000.0 0.3309231705868042 0.2715797175689063
720000000.0 0.40155793666783546 -0.11864722593906742
740000000.0 0.39030574056114103 0.03263363524814863
760000000.0 -0.1135671920649376 0.34924945036029736
780000000.0 -0.2801170051763916 0.19251501142283992
800000000.0 -0.24511054617017783 0.18031061447679586
820000000.0 -0.2035127902590054 -0.15610713322304015
840000000.0 -0.10524729977583172 -0.1838370967611714
860000000.0 0.035075150382514214 0.17106262924647356
880000000.0 -0.1426646970556823 -0.002226830404486214
900000000.0 0.09404764334114475 0.04074632975384374
920000000.0 0.07730328667286694 -0.010097450916314919
940000000.0 0.0034368608731567165 0.05419897785927766
960000000.0 -0.06211098779101955 0.0021681733261278264
980000000.0 0.02783723620675721 0.0808741834710778
1000000000.0 0.07952452531848997 0.02790202199908319
1020000000.0 0.08396359884921778 0.06803370238981743
1040000000.0 -0.07373214997915968 -0.10014821116492283
1060000000.0 -0.0697840811244921 0.13049996375112838
1080000000.0 -0.16352677479300096 0.08910939989398749
1100000000.0 -0.06429693246922893 0.20693111419187674
1120000000.0 -0.22604059800132834 -0.11170068173820856
1140000000.0 -0.15769868560325417 -0.2355390724423392
1160000000.0 -0.26278754885808 0.16184281497921554
1180000000.0 -0.12184458449444735 0.3100380915877316
1200000000.0 -0.2851648107101581 -0.1881935485656708
1220000000.0 -0.3065849687623329 -0.18591593530212505
1240000000.0 -0.1712903006444831 0.33875320440188467
1260000000.0 -0.20627445293727445 0.3443436901867855
1280000000.0 0.4285109208231526 0.024945409981225086
1300000000.0 -0.3071034356718319 -0.30527520189492563
1320000000.0 -0.37033884938164946 -0.23897455181626584
1340000000.0 -0.31207867129386513 0.31035461917429386
1360000000.0 -0.18812913332763687 0.3956106119387106
1380000000.0 0.28104605169548286 0.32328777079100357
1400000000.0 0.4137718801403633 -0.02061882377931096
1420000000.0 0.030791247904720317 -0.3915556703874743
1440000000.0 -0.1504816711598432 -0.3368403491145342
1460000000.0 -0.34019630829246317 0.05633725716243119
1480000000.0 -0.08185855958408816 0.3082407545854094
1500000000.0 0.0966155970173724 -0.26942951987869684
1520000000.0 -0.03975382597872694 -0.2508959659744817
1540000000.0 0.0879965970075398 0.19798645822205904
1560000000.0 0.1652927535249176 0.08296177653686758
1580000000.0 -0.07247103257622127 0.13933647995171522
1600000000.0 0.0062650169978376675 -0.11974647128085047
1620000000.0 -0.06854827336606693 0.05528152258381903
1640000000.0 -0.015402202187849899 0.059064063815728055
1660000000.0 0.00538048031587086 0.037970945678982536
1680000000.0 -0.021177335697293357 -0.018099933074356808
1700000000.0 -0.007779282563741815 0.031144765922794193
1720000000.0 0.0017026740542788069 -0.03988442259237818
1740000000.0 -0.014263440544107827 -0.05136446465053225
1760000000.0 0.05972705118939966 0.03682702756440505
1780000000.0 0.086124321921783 0.03763220863739676
1800000000.0 0.11231689278097705 0.07038007783150516
1820000000.0 -0.14478375060763551 0.09531567655376023
1840000000.0 -0.13659383580070183 -0.16098671652438298
1860000000.0 0.012105995756478681 -0.25062531115322445
1880000000.0 0.2829668675482812 -0.010040713403236605
1900000000.0 -0.30061811469806726 0.07854785260565231
1920000000.0 0.243206777097495 0.23165904797155049
1940000000.0 0.2958842087476267 -0.2170963193387812
1960000000.0 -0.3917548021487301 0.05631319144686353
1980000000.0 0.41163097113271885 0.025509683124912096
2000000000.0 0.018350286957104285 -0.4203759816988388
2020000000.0 -0.3722639713432745 -0.2088730975050003
2040000000.0 -0.4151383129758285 0.10899748070964835
2060000000.0 -0.2567799638617188 0.3440965168463527
2080000000.0 0.1359944842700767 0.4039989799251151
2100000000.0 0.4176429107761341 0.04591465285781207
2120000000.0 -0.017585485929581163 -0.40724083054077215
2140000000.0 -0.38368933747163886 -0.06191774991795768
2160000000.0 -0.2761015229065765 -0.23839252127738741
2180000000.0 -0.3272409374306678 -0.0828832282055413
2200000000.0 -0.2703752061209492 -0.16304047973882965
2220000000.0 0.09709425009077384 -0.28396341048486534
2240000000.0 0.30023969899591874 -0.040944878521385154
2260000000.0 0.01450215511291486 -0.30725198409975196
2280000000.0 -0.230035804380575 0.21292478443707843
2300000000.0 0.31157413144560886 -0.06802868450180846
2320000000.0 0.04833180566989764 -0.3268477571423486
2340000000.0 -0.290930454018419 -0.19991027984317036
2360000000.0 -0.2891299446029603 0.2590094237801959
2380000000.0 0.43689084491462704 0.01715475896187258
2400000000.0 -0.49054189720720387 0.019611463175330524
2420000000.0 0.486510599401434 -0.24695255604788427
2440000000.0 -0.2520589071644123 0.5431050520978721
2460000000.0 -0.06017160484374233 -0.6421019521108885
2480000000.0 0.31745171619723134 0.6081085172422938
2500000000.0 -0.3515676241091435 -0.6269832224723128
2520000000.0 0.2602386560892678 0.6945419819072218
2540000000.0 -0.1102976611223107 -0.7483993361478782
2560000000.0 -0.3382706338543281 0.6848908047451637
2580000000.0 0.7029490527651712 -0.298321105272392
2600000000.0 -0.7310438373116324 -0.18600070598685609
2620000000.0 0.5677663197170715 0.4735288249242897
2640000000.0 0.6517395747366519 -0.3004731898500733
2660000000.0 -0.6646861163875147 0.17612780410173162
2680000000.0 0.6051922060125521 -0.24153244493194095
2700000000.0 -0.5335864347589276 0.3047077443415075
2720000000.0 0.27458345355534863 -0.5042185762451284
2740000000.0 0.012714948471774928 0.5340522040738754
2760000000.0 -0.29507805966409684 -0.3963025207165553
2780000000.0 0.40365695134217755 0.22329136405737177
2800000000.0 -0.4145606569874447 -0.12505430217629815
2820000000.0 0.36423656897901413 0.1932195881476355
2840000000.0 -0.23087386273824076 -0.3283434622548165
2860000000.0 0.10383555653700273 0.38310654047763515
2880000000.0 0.032996131213710624 -0.39270789705925474
2900000000.0 -0.33976917824440794 0.19409379309914576
2920000000.0 0.24220646143847557 0.30764794499004783
2940000000.0 0.2898719018910021 -0.25949338005847106
2960000000.0 0.3060942929380163 -0.2276229609349741
2980000000.0 0.35527433202541153 0.13382062757458937
3000000000.0 0.049956012396259866 0.3783196883790182
3020000000.0 -0.22820615067299402 0.30104581674358777
3040000000.0 -0.1930485027819871 -0.3134853661826234
3060000000.0 0.35315886070025476 0.05442963126955776
3080000000.0 -0.33655225781359466 -0.07720532848769633
3100000000.0 0.2542667295605935 0.21694143322785742
3120000000.0 -0.08030621516958819 -0.31547090608587286
3140000000.0 0.2166508529447099 0.22924730024882004
3160000000.0 -0.295277636266845 0.05557883270066449
3180000000.0 0.24421263616792507 -0.13636932757217196
3200000000.0 0.24458929411177577 0.046090341926466896
3220000000.0 0.03125191902370786 0.20517238882693745
3240000000.0 0.15690306769549975 0.044701538058405585
3260000000.0 0.00823604736659989 -0.12929749430986962
3280000000.0 -0.06075374697829689 -0.08934088626172272
3300000000.0 0.030472119659619178 0.08668488979235985
3320000000.0 -0.0722335692288195 0.004876048547583883
3340000000.0 -0.04947757802021231 0.01344791580266228
3360000000.0 -0.029614050245635085 -0.01618081144662722
3380000000.0 0.01858049300382602 -0.026698107707898523
3400000000.0 0.03096247067746542 -0.026059406691582576
3420000000.0 -0.038238175130545 0.01569880661019292
3440000000.0 -0.01826738560177458 -0.02989006488226001
3460000000.0 0.021212735722018306 0.003958952592361752
3480000000.0 -0.011076628908678523 -0.004910851721120201
3500000000.0 -0.02088988322671929 -0.011975854986890844
3520000000.0 0.03811583453173924 -0.00018187047347729984
3540000000.0 -0.029985359632909447 0.039303906787316475
3560000000.0 0.013028088735627502 0.05469551129948419
3580000000.0 0.027174745091323567 -0.0626097432350235
3600000000.0 0.06345289496161602 0.03935375296317957
3620000000.0 -0.011137048863668713 -0.0809566289708924
3640000000.0 0.0188877972408969 0.08383624855695818
3660000000.0 0.08200084995110843 -0.03172063278185623
3680000000.0 0.09005354724623527 0.005322846195337607
3700000000.0 0.0012559944645909968 -0.09485154881255962
3720000000.0 -0.013474161444082632 0.09650731701489994
3740000000.0 0.08172697969773172 -0.053188482204860055
3760000000.0 -0.06021642964904908 0.07530341447564197
3780000000.0 0.09756514732612652 -0.014017613910203423
3800000000.0 0.0671519691116181 -0.07955568377985457
3820000000.0 -0.08579693592208339 0.08651340264975933
3840000000.0 0.04294930542803813 0.1368594615695935
3860000000.0 -0.15696106742584684 -0.04025034812156327
3880000000.0 -0.01596656941662165 -0.17836667943186538
3900000000.0 0.031720454701940765 -0.1887942261922055
3920000000.0 0.05845853591103513 -0.18701071186845455
3940000000.0 0.11800523090060057 -0.15576195129722686
3960000000.0 0.14442592285769548 0.12778906070041654
3980000000.0 0.007564109084345592 0.19286804142420944
4000000000.0 -0.13393537923262117 0.13014290708846396
