!Created with skrf (http://scikit-rf.org).
# Hz S RI R 50.0 
!freq ReS11 ImS11
400000000.0 0.7828469754154077 -0.27873468468467594
420000000.0 0.4012104309935581 -0.7236854398300278
440000000.0 -0.12405198949803402 -0.766686487784284
460000000.0 -0.008913015949158491 -0.7270955844060145
480000000.0 0.6633951646052713 0.03484774038200469
500000000.0 0.6263019873857996 -0.06369872071741227
520000000.0 0.19809872497853442 0.5239040621914385
540000000.0 -0.4575353444068571 0.20247572554283474
560000000.0 -0.11984645129967987 -0.4489784821555854
580000000.0 -0.41787794076267454 0.07261430304064433
600000000.0 0.2614427183561676 -0.28604923268378346
620000000.0 0.10758699296376198 -0.3573259628995862
640000000.0 -0.26313566246963865 0.31085642980451855
660000000.0 0.36995549309768994 -0.2240795970662394
680000000.0 -0.2952620114412029 -0.3383676083190601
700000000.0 0.2387096305385399 -0.3625327476288993
720000000.0 -0.10969373740547876 -0.3920270213103593
740000000.0 0.3048137878933188 0.22106047342362167
760000000.0 -0.2584516701953581 -0.25543492373773585
780000000.0 -0.28900712574309984 -0.19006037241508356
800000000.0 -0.29709025746874973 -0.07558945307260855
820000000.0 -0.19762632750779105 -0.17301646860894362
840000000.0 0.14967750063841007 -0.16490532494249532
860000000.0 0.07919959029592227 -0.16595122925902048
880000000.0 0.14983174855204254 0.013666403784758837
900000000.0 0.06937692981317893 0.09427625783577066
920000000.0 -0.0761385334570562 0.02925438383108218
940000000.0 -0.030158110952649152 0.03930100725754324
960000000.0 -0.017233673291922755 -0.04008950663940348
980000000.0 -0.039654080891711796 0.03900902136831405
1000000000.0 0.053210127502972306 -0.02755781108185485
1020000000.0 0.01200208971723043 -0.09117773779116159
1040000000.0 0.010126182903101584 0.12546425750004003
1060000000.0 -0.1351223318982354 -0.08583888814826468
1080000000.0 0.17406579878486128 0.08158041471301368
1100000000.0 0.17686503372272913 -0.10877035275967543
1120000000.0 -0.06728965518461805 -0.23089529100957337
1140000000.0 0.19366026424948693 -0.2037175820341349
1160000000.0 -0.30394685789642595 -0.04579372904637424
1180000000.0 -0.07959221427484921 0.3214281713867749
1200000000.0 0.22319067575101406 -0.25112094985772127
1220000000.0 0.08329364399900817 -0.3570588953688342
1240000000.0 -0.17087949321863294 0.3548342952031858
1260000000.0 0.3644535982217232 -0.1801743282482963
1280000000.0 0.012659822736280026 -0.41559127615368174
1300000000.0 -0.15823692485077104 -0.39331995524809515
1320000000.0 -0.39087073825414703 -0.19232446204532228
1340000000.0 -0.3643683998115266 0.2429005175616959
1360000000.0 -0.09836559907523014 0.42454784217134683
1380000000.0 0.2267422779728533 0.3599577107280422
1400000000.0 0.4089887484665089 -0.0034926137791033342
1420000000.0 0.3762669549987279 -0.10590211981141616
1440000000.0 0.11555278257756924 -0.36004437251858457
1460000000.0 -0.2581676970779129 0.2446479279148892
1480000000.0 0.2861649288095418 -0.15312099247047772
1500000000.0 -0.24141771598486123 0.14514976517127448
1520000000.0 -0.23315296788132672 -0.06861908043075904
1540000000.0 -0.17604404472427992 0.11302019915859804
1560000000.0 -0.17497376981115734 0.046614081968746
1580000000.0 -0.02658049593288516 -0.15560119753155668
1600000000.0 0.06039003749873719 0.10475380920737438
1620000000.0 -0.022724127560382657 0.09008917031929227
1640000000.0 0.03565772376497981 0.06078930416307189
1660000000.0 0.048052766370771674 -0.010965478227581931
1680000000.0 0.006350543643453097 0.02642525402047167
1700000000.0 -0.016345768826508976 0.01752804470294224
1720000000.0 -0.0016519503552822332 -0.03194825209750152
1740000000.0 -0.04932406200036198 -0.019179211678998335
1760000000.0 -0.07393473819319588 0.01781518089185655
1780000000.0 -0.10604055357023319 -0.022060786247028036
1800000000.0 -0.13371392138929786 0.05240335481293748
1820000000.0 -0.07248659243797409 -0.15568892154351663
1840000000.0 -0.14928537179050796 0.13093459445040653
1860000000.0 0.05312969869869421 0.23414005596342993
1880000000.0 -0.22211697339827396 0.18789656910492286
1900000000.0 -0.22428804437586644 0.23167077365371658
1920000000.0 0.17533028469705245 -0.29007547565675273
1940000000.0 -0.08724357177390121 -0.3489655450086605
1960000000.0 -0.38313899296055365 0.04904903312683409
1980000000.0 0.15594951437272678 0.3754923711940876
2000000000.0 0.38618246574818277 -0.1725105410203305
2020000000.0 -0.010517445148209759 -0.4302602586317674
2040000000.0 -0.33075437649096473 -0.28915008093672234
2060000000.0 -0.23534884713258677 0.3774169464701568
2080000000.0 0.43438253874008875 0.04533734599225626
2100000000.0 0.05561016749903332 -0.41681739645994287
2120000000.0 -0.19669305665879777 -0.3500054057909725
2140000000.0 -0.323005051520399 -0.20543020399805942
2160000000.0 0.15316890164738792 -0.3236654935102475
2180000000.0 0.333643933900498 -0.04582202512292853
2200000000.0 0.32473256297958475 0.04444191721895412
2220000000.0 0.24676421653763395 -0.20092128975155749
2240000000.0 -0.0823383398412017 -0.3015180304664042
2260000000.0 -0.30754486558990596 -0.0030667903190015316
2280000000.0 -0.1258218829830401 0.2789985933808736
2300000000.0 0.23549173950657426 0.20427096099480013
2320000000.0 0.2977377016180071 -0.13593426174527307
2340000000.0 -0.06774174268420873 -0.3487212905530678
2360000000.0 -0.3141322583155857 0.2339205241053983
2380000000.0 0.42139409705557634 -0.12046539876723666
2400000000.0 -0.43982488983861157 0.21377770606457397
2420000000.0 0.4245317579418343 -0.33732630547913506
2440000000.0 -0.14700140085166943 0.577833797192669
2460000000.0 -0.25668300920918274 -0.5893957927294545
2480000000.0 0.39753354647444233 0.5539116384715975
2500000000.0 -0.34673282963799695 -0.6229181734219372
2520000000.0 0.21030017842834886 0.7060148696250858
2540000000.0 -0.0007681320828088681 -0.7520509173212965
2560000000.0 -0.43536870234488984 0.6233728131048356
2580000000.0 0.7391145835622733 -0.17533758789900972
2600000000.0 -0.6592696032885814 -0.3592752834488351
2620000000.0 0.4437586089574952 0.5869916686863567
2640000000.0 0.694024094783637 -0.16539573760543663
2660000000.0 -0.6710554815592805 0.12249757517228207
2680000000.0 0.6136717606874017 -0.20100198261299124
2700000000.0 -0.5245122322536325 0.30442165096963014
2720000000.0 0.3347377028144603 -0.45732410300735576
2740000000.0 -0.04989188246538699 0.525336407178264
2760000000.0 -0.2528655217111983 -0.4200284529250043
2780000000.0 0.41030440888960495 0.20136746761337765
2800000000.0 -0.41385447355249416 -0.12228314505231175
2820000000.0 0.41134262308269404 0.05106240366017742
2840000000.0 -0.40124368400123817 0.04743387325491015
2860000000.0 0.3796514219080512 -0.11017096656929144
2880000000.0 -0.34966548011597953 -0.1681611242174906
2900000000.0 -0.20909104898184072 0.3223371554612962
2920000000.0 0.2210796086234551 0.3145101101230038
2940000000.0 0.38068753121097787 0.06587217450858354
2960000000.0 0.3856079609578099 0.017815296085039765
2980000000.0 0.3324260438219317 0.1960965972752821
3000000000.0 0.21168912002706616 0.323598548255535
3020000000.0 -0.14506205617726878 0.35186441685368086
3040000000.0 -0.2755076702420876 -0.24915577620571688
3060000000.0 0.35548748128266083 0.05685131191414228
3080000000.0 -0.2911915444356868 -0.19003890542692903
3100000000.0 0.17559023024209783 0.28931922714523794
3120000000.0 -0.1259663309728963 -0.30318670216941196
3140000000.0 0.2728738835709862 0.1617389914544889
3160000000.0 -0.2601968382989456 0.14995640715439118
3180000000.0 0.2622060353680484 -0.08831047146194672
3200000000.0 -0.039327783266435566 0.242572836191438
3220000000.0 -0.06072002422364604 -0.2008471907907133
3240000000.0 -0.16991963611483815 -0.03513244560105575
3260000000.0 -0.10967892241103255 -0.09449570937063517
3280000000.0 -0.07648623891651647 -0.08762220670829149
3300000000.0 -0.00938825591460398 0.08745156290680801
3320000000.0 0.05401716030169038 -0.03800444478923266
3340000000.0 0.03604900443441786 0.042495931605183605
3360000000.0 -0.046488998247181966 0.012299709218175192
3380000000.0 0.04073399871233201 0.0027094383897068135
3400000000.0 0.007661531048258176 -0.03162860777850501
3420000000.0 -0.025455763763743654 0.004693049362380952
3440000000.0 0.010911297575295596 0.02200974420837221
3460000000.0 -0.020085260072599125 -0.012331779872609182
3480000000.0 -0.01169053286314744 -0.011638901287475285
3500000000.0 -0.009063624571783615 0.007928946869399494
3520000000.0 -0.02775823600461742 0.0012156166743460448
3540000000.0 -0.04449513443386449 -0.023909713148089547
3560000000.0 -0.012943910095041162 -0.063059287565611
3580000000.0 -0.06927912967163968 -0.0029636384477906563
3600000000.0 -0.022910343958338436 0.06974608974444159
3620000000.0 0.053957582110841396 0.061392666985572185
3640000000.0 -0.004167747771059876 -0.09025926050453083
3660000000.0 0.08763023029488956 0.04333892177467167
3680000000.0 -0.09776352051398582 -0.018237517063414668
3700000000.0 -0.08650497742826127 0.050313189704485166
3720000000.0 0.08406409553083793 0.062196408321685936
3740000000.0 -0.06738095972965592 -0.07910269980105125
3760000000.0 0.04829654662496791 0.0905236562343806
3780000000.0 0.10938419640390831 0.004102853057984381
3800000000.0 -0.10760871830607355 0.0583973088302367
3820000000.0 0.10444786642876008 0.09368807765250284
3840000000.0 -0.06100057908979297 -0.1401038646715674
3860000000.0 -0.06053436510089304 0.15661210411326223
3880000000.0 -0.15488422162843665 -0.10692160388222174
3900000000.0 -0.17598502602622212 -0.09799691302599566
3920000000.0 -0.20378774079921239 -0.019865657575148098
3940000000.0 -0.1968745236763893 -0.06610064688480408
3960000000.0 -0.2026638583369528 -0.03457871324820919
3980000000.0 -0.13227388858592648 -0.14933161197557404
4000000000.0 0.020952013906107382 -0.19199371257428813
