!Created with skrf (http://scikit-rf.org).
# Hz S RI R 50.0 
!freq ReS11 ImS11
400000000.0 0.7850105247875382 -0.2656928859298996
420000000.0 0.37871901889799636 -0.7352743599635196
440000000.0 -0.11886197125427647 -0.767471226806883
460000000.0 -0.03601852909115888 -0.7262505585811277
480000000.0 0.66371164852424 0.0191565175097459
500000000.0 0.6262465149663204 -0.055966889833109185
520000000.0 0.22507512693584492 0.513197892169478
540000000.0 -0.4465679020977619 0.22599651007735366
560000000.0 -0.12038631117843891 -0.4487375661670526
580000000.0 -0.42214166049748114 0.042889522758094704
600000000.0 0.2682540980487789 -0.27970731774384433
620000000.0 0.09897036986118755 -0.359691354102302
640000000.0 -0.25875397132546585 0.3142823742620543
660000000.0 0.37121007522309674 -0.22155694658922975
680000000.0 -0.2978745016267742 -0.33572793006743373
700000000.0 0.229228622230267 -0.36840595274572957
720000000.0 -0.09937109980930779 -0.3948129540265428
740000000.0 0.2941020269905398 0.23596837632848278
760000000.0 -0.258703943828056 -0.2553093588145628
780000000.0 -0.28472790685161353 -0.19643937026303998
800000000.0 -0.29502982963971197 -0.08326804631292022
820000000.0 -0.18994275087851326 -0.18139206528463597
840000000.0 0.15513805209696604 -0.15958548412524606
860000000.0 0.08840181082423217 -0.16092849080556643
880000000.0 0.15011895118435076 0.008849521361436803
900000000.0 0.07156995534798712 0.09228887990156051
920000000.0 -0.07610405685323879 0.028837417775181673
940000000.0 -0.017367767000194736 0.046283193086908606
960000000.0 -0.035026290342807014 -0.02638183175795585
980000000.0 -0.032983492731140665 0.04530819973259678
1000000000.0 0.05361116969250724 -0.02767908240206672
1020000000.0 0.011015224250217243 -0.0914619409825175
1040000000.0 0.006160795963914608 0.1258860971208915
1060000000.0 -0.1284249259770262 -0.09526519847807986
1080000000.0 0.17454948742862844 0.07997403371859689
1100000000.0 0.17302425461406432 -0.11444913099843748
1120000000.0 -0.06181963695521966 -0.2323389168372159
1140000000.0 0.1906750960910666 -0.20629953082749042
1160000000.0 -0.3054975357316964 -0.03454267386317182
1180000000.0 -0.07280884673242474 0.3230743865487776
1200000000.0 0.21541059246873834 -0.25796517999202084
1220000000.0 0.06722863387130083 -0.3605374700774652
1240000000.0 -0.18029782594585447 0.35025529532303973
1260000000.0 0.3618661112102088 -0.18571394308876638
1280000000.0 0.016121993156691203 -0.41563747245977783
1300000000.0 -0.13218979801701072 -0.4027720810179382
1320000000.0 -0.3779611543086862 -0.21618423110736115
1340000000.0 -0.3716365748507501 0.23178377006079423
1360000000.0 -0.10241713446398285 0.42349029599814
1380000000.0 0.21811129258513917 0.36492279251178
1400000000.0 0.40856351112957356 0.00962865205681757
1420000000.0 0.37857107816094826 -0.09637001357773868
1440000000.0 0.11782297752827836 -0.35901100996392593
1460000000.0 -0.26172603311971165 0.24041159903801074
1480000000.0 0.27771795586018255 -0.1671124485131391
1500000000.0 -0.23456628293831253 0.15546957888421514
1520000000.0 -0.23252223516703474 -0.07009020437311878
1540000000.0 -0.1766841433364188 0.11150932884549984
1560000000.0 -0.17034766005476115 0.060461764194380666
1580000000.0 -0.034752439235415065 -0.15371602918851365
1600000000.0 0.06841069974937301 0.09945950293360226
1620000000.0 -0.006154526115706289 0.09250932277182915
1640000000.0 0.04903495921952013 0.050690622395750444
1660000000.0 0.04815057788045056 -0.009935210237868048
1680000000.0 -0.01840562182217278 0.019748682572702604
1700000000.0 -0.015230008252529856 0.018673804981489583
1720000000.0 -0.008734865561116424 -0.030890854024759565
1740000000.0 -0.05309458659938768 0.0009142705259590798
1760000000.0 -0.0757078022229754 0.007456476946163308
1780000000.0 -0.10321025417973116 -0.03263492716079931
1800000000.0 -0.12467810517073977 0.07222710751338521
1820000000.0 -0.0631280128686383 -0.1594741604832166
1840000000.0 -0.14175806240136662 0.13949006020057808
1860000000.0 0.08054924146605166 0.22630028693412857
1880000000.0 -0.2094108084504688 0.2020404599422724
1900000000.0 -0.21052973547976284 0.2445871284620656
1920000000.0 0.1697144334550947 -0.2936571957578263
1940000000.0 -0.09000200374402445 -0.34852489627327066
1960000000.0 -0.38432853200518613 0.040954930283154015
1980000000.0 0.15406329063039612 0.37640814062849803
2000000000.0 0.3873471245029461 -0.17006060165814957
2020000000.0 -0.00947566248480891 -0.4301460418643611
2040000000.0 -0.35402365050522805 -0.2597952313391321
2060000000.0 -0.22878987147182828 0.3811536598229858
2080000000.0 0.4337988548497557 -0.04553245739668708
2100000000.0 0.0711283699420809 -0.41407997913062544
2120000000.0 -0.21895917583899557 -0.3357020491952268
2140000000.0 -0.336782551423044 -0.18070633809058667
2160000000.0 0.14261735806858808 -0.32789954304947144
2180000000.0 0.33156426039211345 -0.05674363034216245
2200000000.0 0.3253321652295533 0.03624343996616589
2220000000.0 0.2351874382897161 -0.21373725577378952
2240000000.0 -0.09052934678891815 -0.29886399111803946
2260000000.0 -0.3074137663395433 0.01015539661978683
2280000000.0 -0.11424105919904905 0.28429399872447675
2300000000.0 0.2544590699162939 0.18187179363158695
2320000000.0 0.2891679720880959 -0.15531491811665823
2340000000.0 -0.06674939560596807 -0.34994232699134514
2360000000.0 -0.2932961867183684 0.2622760147720251
2380000000.0 0.39938213707409853 -0.18727455408649563
2400000000.0 -0.39387858492452443 0.2951209882119914
2420000000.0 0.327393795588146 -0.43689698094319224
2440000000.0 0.048145656905795024 0.5980318350084796
2460000000.0 -0.4680964800587994 -0.4461508254632821
2480000000.0 0.6290860700560819 0.2713444509103557
2500000000.0 -0.6354289415305976 -0.32913081443794107
2520000000.0 0.6067881361071825 0.42133908854410884
2540000000.0 -0.4803932649652953 -0.5798958541063354
2560000000.0 0.13339427689006633 0.7483486555416877
2580000000.0 0.4542341299434293 -0.6076097731247977
2600000000.0 -0.7071883311267939 0.24540098309386152
2620000000.0 0.7319187524465715 0.038810969986599796
2640000000.0 0.34459462728373674 -0.6201832377973564
2660000000.0 -0.3868987548590062 0.5559520914289898
2680000000.0 0.307589795473357 -0.5613064170559253
2700000000.0 -0.2821819268827189 0.5299474395460951
2720000000.0 0.11883012911356729 -0.5481236963711323
2740000000.0 0.1268031286414344 0.5067676422744799
2760000000.0 -0.3776750004131018 -0.30537428948907136
2780000000.0 0.4374269884894531 0.11790496375546917
2800000000.0 -0.41999554262885097 -0.08564060384414456
2820000000.0 0.4112156080597673 0.029355731479992785
2840000000.0 -0.3958113688598688 0.07071118493014124
2860000000.0 0.3764239276062562 -0.11547896208479506
2880000000.0 -0.3565595279826297 -0.14909969770326414
2900000000.0 -0.19330816002564094 0.3311263793111584
2920000000.0 0.23568779429673148 0.302753680793029
2940000000.0 0.3795634309399052 0.07000460152994127
2960000000.0 0.3856545730534539 -0.011585561883686693
2980000000.0 0.3534310828024464 0.15527853792288548
3000000000.0 0.21637512677081877 0.3199572509043106
3020000000.0 -0.13443029324317884 0.35514771242863086
3040000000.0 -0.31407253167237337 -0.19668773155096383
3060000000.0 0.3355583279425082 0.12717218567505129
3080000000.0 -0.29128373437918764 -0.18792570493221486
3100000000.0 0.1955073702100208 0.2752471523637861
3120000000.0 -0.13402391671665995 -0.29885884444769645
3140000000.0 0.27818656470035996 0.15024698690023242
3160000000.0 -0.25360768397340777 0.15846299631729627
3180000000.0 0.2658481776072544 -0.06988493724579783
3200000000.0 -0.005172279190558806 0.24407787157712477
3220000000.0 -0.08107201037724472 -0.19149653110745274
3240000000.0 -0.17158900121616666 -0.01029117462887762
3260000000.0 -0.12206926538655279 -0.07478332815903727
3280000000.0 -0.091356322671361 -0.06942488161500157
3300000000.0 0.006417918194177506 0.08634767530765952
3320000000.0 0.043578542260109016 -0.04780449599892293
3340000000.0 0.029577916475387593 0.04567186409991388
3360000000.0 -0.0460825811404256 -0.008690299213490573
3380000000.0 0.030660756563135123 0.025120734682412254
3400000000.0 0.031240357749221938 -0.00018190334657781337
3420000000.0 0.01339960635505824 -0.021154582825408046
3440000000.0 -0.016066103697208216 -0.017993517940050337
3460000000.0 0.021758387161701802 0.009294659810783463
3480000000.0 -0.00043006470406817244 0.01697683646589687
3500000000.0 -0.009557215036651866 0.008974258194065766
3520000000.0 -0.0045947810078006196 0.02843247604362729
3540000000.0 -0.05096011567452162 0.004300755658241935
3560000000.0 -0.06521864948728276 0.005215686266613961
3580000000.0 -0.020299610194605824 0.06721476953324576
3600000000.0 0.06401355741638935 0.03709925314248302
3620000000.0 0.07515899896052333 -0.03349370001497361
3640000000.0 -0.07723169743477111 -0.04662737153715385
3660000000.0 0.054870484854650466 -0.08146487834037441
3680000000.0 -0.03614737692881754 0.0927894285492408
3700000000.0 0.041215983203765655 0.09122171569963511
3720000000.0 0.07157149512911487 -0.07580815661394887
3740000000.0 -0.09388019906341709 0.042960326950168055
3760000000.0 0.10246011774225848 -0.004081380671377119
3780000000.0 0.07956040972557732 -0.07341433850721786
3800000000.0 -0.05968005229099284 0.1065525809639381
3820000000.0 0.13194701247907123 0.045045245643257195
3840000000.0 -0.106931893546947 -0.10782553959869944
3860000000.0 -0.021513438449767202 0.16560814956805672
3880000000.0 -0.17051733375821584 -0.07882453671394685
3900000000.0 -0.18326674607651713 -0.083400291241432
3920000000.0 -0.20541917884748825 -0.0009452229972048474
3940000000.0 -0.19583256110042382 -0.07237852806160132
3960000000.0 -0.2064301013772306 -0.026146282429822934
3980000000.0 -0.14838306299890966 -0.13718823954260745
4000000000.0 -0.019569206892087142 -0.1949393514174187
