!Created with skrf (http://scikit-rf.org).
# Hz S RI R 50.0 
!freq ReS11 ImS11
400000000.0 0.7142884281100518 -0.5711460215455345
420000000.0 0.8567659831610049 -0.1529774109149022
440000000.0 0.46017342477921264 0.6923952570690826
460000000.0 -0.3689600519708379 -0.7038056705025026
480000000.0 0.012853640849057891 -0.7796534990562946
500000000.0 -0.5038019007740854 0.589537944566299
520000000.0 0.649898392975943 0.3098945511589898
540000000.0 0.10010296284712313 -0.6833319820362319
560000000.0 -0.33563959860612536 0.5581975412365198
580000000.0 -0.3645315944537195 0.42379693309007593
600000000.0 -0.33119111489597397 0.47219861857524936
620000000.0 -0.022598224990502944 0.5604531121116558
640000000.0 0.06244115878388314 -0.5425016260114949
660000000.0 -0.3807823281939359 -0.3578675290219194
680000000.0 -0.486358350254594 -0.005648639055930691
700000000.0 0.3087329333168876 -0.36010646427392506
720000000.0 0.4262220078381107 0.21864199277314628
740000000.0 -0.41764118540426415 -0.1831034431633002
760000000.0 -0.3734898619229655 -0.2578744367460456
780000000.0 -0.41634579567244434 -0.13287685047393338
800000000.0 -0.289934620010187 0.2625009475162022
820000000.0 0.0020655730940775108 0.33660532564873297
840000000.0 0.275413508152779 -0.15255257073365527
860000000.0 0.2604982401081825 0.10399786652618107
880000000.0 -0.21687966725219915 -0.15246510795523058
900000000.0 -0.2195735705219198 -0.1082259053826801
920000000.0 0.016089135600314806 0.21701309186927184
940000000.0 0.1557354283421432 0.12076139426678638
960000000.0 0.07782527559036206 -0.13231070802361192
980000000.0 -0.11196137753798749 0.007787236753778767
1000000000.0 -0.07550809530915893 -0.029542323388236997
1020000000.0 0.05192508222654926 -0.054507239533039785
1040000000.0 -0.007537408563677121 -0.09425130256806279
1060000000.0 -0.06255041733565385 -0.11694350567072812
1080000000.0 0.004089660095766253 -0.1884141465517686
1100000000.0 0.1395578317860714 0.1757030298745633
1120000000.0 0.07263009176504469 -0.256769651309154
1140000000.0 -0.2746893064737919 -0.044005441125702614
1160000000.0 0.216042048367694 0.2108647832335418
1180000000.0 0.21666345247024713 0.2544638479235143
1200000000.0 -0.00895172893331182 0.35355410313304697
1220000000.0 -0.23250496957832417 0.2628259679872764
1240000000.0 -0.13369161404440277 -0.33078281030600953
1260000000.0 -0.1819120213829495 -0.30716825888116256
1280000000.0 0.3673304367053764 -0.003484712891103743
1300000000.0 -0.12655507451194425 -0.3611488260198071
1320000000.0 0.3163845806855711 -0.18742769662672382
1340000000.0 -0.3486556664333321 -0.14637958570560677
1360000000.0 -0.014430584650249881 -0.3833307358980286
1380000000.0 0.013937844850232816 0.38388599555062547
1400000000.0 0.22033429993253495 -0.32112970387738315
1420000000.0 -0.35501613199960835 -0.14933762837854836
1440000000.0 -0.07116285735745938 -0.37003909077768177
1460000000.0 -0.19213417909134542 -0.32518499854141086
1480000000.0 -0.3698258009324344 0.06941725214114551
1500000000.0 -0.3778077086445378 0.009773446336308203
1520000000.0 0.36121682778935427 -0.10581815194107241
1540000000.0 -0.043410776720107264 0.3602701624627445
1560000000.0 -0.3258896717270349 0.07119590307670731
1580000000.0 -0.23620246712451431 0.17992726764327602
1600000000.0 -0.2436074806554577 0.07800434918141241
1620000000.0 -0.21203548580913434 -0.026744946210771392
1640000000.0 0.13747994805705366 0.11712979739975933
1660000000.0 0.07631621219203909 0.12987713361562414
1680000000.0 0.11661478865920545 0.0029163608950918546
1700000000.0 -0.09212764418530932 -0.021553976595102543
1720000000.0 0.01663530679094232 -0.08383021962587975
1740000000.0 -0.012572038791607912 0.06504235751681686
1760000000.0 -0.01580911813071618 0.09073259006252277
1780000000.0 -0.005611434294257348 0.10198213244116297
1800000000.0 0.11468383068261324 0.055983524287989334
1820000000.0 0.1457787243168364 0.059882593221207786
1840000000.0 0.16921485513320017 0.07766422994992003
1860000000.0 0.175496183130345 -0.11918427878515475
1880000000.0 -0.15385766227066006 -0.1945796391635414
1900000000.0 -0.2648853815294736 0.021110494014068067
1920000000.0 0.2194831341272156 0.19340079640368946
1940000000.0 -0.1690789590702837 -0.2509144820085476
1960000000.0 0.30761597646832434 0.04479350487377749
1980000000.0 -0.31208888371657356 0.04743801217319533
2000000000.0 -0.14211152494393559 -0.2924859238847662
2020000000.0 -0.1481409396325018 -0.2853881041549434
2040000000.0 0.2874745269751736 -0.1414830799944119
2060000000.0 0.27248753002017406 0.175463645244037
2080000000.0 0.2986455637735043 0.12001153480218184
2100000000.0 0.041810948265683275 -0.3131817784946433
2120000000.0 -0.24751519253774285 0.18958490725393823
2140000000.0 0.23920195032240146 -0.19865865506719743
2160000000.0 -0.3019800042184687 -0.07297616104338407
2180000000.0 -0.03264556634105725 0.30376345023478746
2200000000.0 0.22858461461102875 0.1857339157511514
2220000000.0 0.016330541522761744 0.2839628430475713
2240000000.0 -0.24894530842653392 -0.12273616856648381
2260000000.0 0.09395462503209004 0.25717372866505944
2280000000.0 0.010346685360140717 0.27267293409944504
2300000000.0 -0.2735647305786274 -0.03177660038701173
2320000000.0 -0.2552330734375464 0.09522384944590073
2340000000.0 -0.2220399272063708 -0.13315817820500842
2360000000.0 0.1920424175541123 -0.1698621951573972
2380000000.0 0.13095122362839137 0.225119169585968
2400000000.0 0.09118416910205321 0.2506672044969696
2420000000.0 -0.26103419730746724 0.12145971312039588
2440000000.0 0.3094553232647608 0.040871820024451964
2460000000.0 -0.11296923096041021 -0.3219664554665416
2480000000.0 -0.20693072604266666 0.3068646378040646
2500000000.0 0.2706560871638501 -0.2994305471051016
2520000000.0 -0.039080814301755314 0.44363051210768556
2540000000.0 -0.25506545163307753 -0.40531865438180714
2560000000.0 0.4921217091628675 0.15445820071138952
2580000000.0 -0.5440768963487961 0.0655093388632544
2600000000.0 0.4630755366051596 -0.3423554440649917
2620000000.0 -0.42821290243696175 0.41595108536470815
2640000000.0 0.28387182961703017 -0.5504035856956
2660000000.0 0.26522477025153984 0.5781281124395506
2680000000.0 -0.6390217683752736 0.09546121385672034
2700000000.0 -0.18794447312176202 -0.6291622663507214
2720000000.0 0.2931796400749364 -0.5961596689744121
2740000000.0 0.3332695794080173 -0.578117725496053
2760000000.0 0.460561107619667 -0.48470851173447477
2780000000.0 0.3289721618541143 0.5787355908164077
2800000000.0 0.19797691556351288 0.6277189066620216
2820000000.0 -0.2172860446073837 0.6096878615588296
2840000000.0 -0.6174872777092949 -0.13384655772538492
2860000000.0 0.5762366577240633 -0.22028256701638094
2880000000.0 -0.5238093257740452 0.28980618399324576
2900000000.0 0.45276323294086035 0.3563803510637196
2920000000.0 0.3500027182895987 -0.43021527880270594
2940000000.0 -0.21315016931590994 -0.4820835447627632
2960000000.0 -0.1833637952840036 -0.4650521459489728
2980000000.0 -0.30414325121854774 -0.36741424183837645
3000000000.0 -0.34644777533190874 -0.29801789355460095
3020000000.0 -0.4315651983542955 -0.017152131147149984
3040000000.0 -0.29860851166887586 0.2981252945676555
3060000000.0 0.3884858393843303 -0.101979430702462
3080000000.0 -0.17800739026261578 -0.34445244483341103
3100000000.0 -0.010405340227416248 0.3762324113543839
3120000000.0 0.26734396250308223 -0.2617401539070483
3140000000.0 -0.11383477047456896 0.3462052338657072
3160000000.0 0.14629075526009974 -0.33486892158513737
3180000000.0 0.15086044104370816 0.3285438896265263
3200000000.0 0.024305579702630895 -0.35477713476736317
3220000000.0 -0.23531906543098546 0.2552598007941901
3240000000.0 -0.15504158954756678 0.3005125492568086
3260000000.0 0.31995251639481 0.04818678404741469
3280000000.0 0.02653241791382648 0.3044456981136261
3300000000.0 0.21950260018372672 0.1905993108723028
3320000000.0 -0.06491383643031513 0.2547585620507812
3340000000.0 -0.00870373526469219 -0.23585749670910747
3360000000.0 0.04737006785626091 0.20708591006439847
3380000000.0 -0.17288997374682002 -0.084048335995649
3400000000.0 0.08607002656977525 0.1464155642412468
3420000000.0 -0.01413715957977593 0.1556327645785618
3440000000.0 0.07405556697623683 0.11735942313698412
3460000000.0 -0.08552021418076877 0.06850663069223455
3480000000.0 0.038503030536276524 0.09591621816234701
3500000000.0 -0.0998611432347569 -0.028799292104632186
3520000000.0 0.07975419484065799 0.04307445591572063
3540000000.0 0.05145993322533239 -0.0842844952592845
3560000000.0 -0.06106738109630399 0.08297117652093035
3580000000.0 0.10683062197771796 -0.006515271137479044
3600000000.0 0.08095282259654872 -0.0766660322202573
3620000000.0 -0.019586305545728325 0.1250036122594108
3640000000.0 0.12863852792442937 -0.029872048334148225
3660000000.0 -0.0463782251140003 0.13349690115590776
3680000000.0 0.09244625163835736 0.11407388916967233
3700000000.0 -0.10119130278164688 0.08772186485922728
3720000000.0 0.11863569601614143 -0.017802907971346822
3740000000.0 -0.09182627191550308 -0.04053279102576306
3760000000.0 -0.04518859029539744 -0.06678763422934399
3780000000.0 0.05792468338276732 -0.026954660312335076
3800000000.0 0.0094268514247472 -0.03316910435194057
3820000000.0 -0.0011449267646171854 0.0058279310447638165
3840000000.0 -0.0025736669154241883 -0.03947702062643293
3860000000.0 -0.05865964303735253 0.04199722783722482
3880000000.0 0.043555178630483166 -0.08273866043559443
3900000000.0 0.0016909511153527445 -0.11168496163562498
3920000000.0 0.03787069779450039 -0.1191556598483259
3940000000.0 -0.024909149178206212 -0.13117303783238476
3960000000.0 -0.12208666782124337 -0.05516697125461623
3980000000.0 -0.0503360054603205 0.12007440303281737
4000000000.0 0.040929310773737564 0.09765538285518587
