!Created with skrf (http://scikit-rf.org).
# Hz S RI R 50.0 
!freq ReS11 ImS11
400000000.0 -0.38580693851735665 -0.7246961789062152
420000000.0 0.47155418770898816 0.6146957527899309
440000000.0 0.26857295788193386 -0.6819256798539913
460000000.0 -0.6033656080731841 0.22654710503890055
480000000.0 -0.5139883259365545 -0.2730592867363116
500000000.0 -0.140952965837049 0.4576116739305787
520000000.0 0.47968260000754154 0.1283534487902036
540000000.0 -0.41327841332328435 0.3434547051155513
560000000.0 -0.5383973603661486 0.11228505638984446
580000000.0 0.5098655840710283 0.09918229210202469
600000000.0 0.4987595777221958 -0.09819232951851266
620000000.0 0.44954230023384323 -0.06933077031119085
640000000.0 0.24057157974045618 0.34158012747395206
660000000.0 0.26070611032174873 0.3300145741956513
680000000.0 -0.16568482773191798 -0.41679914562776027
700000000.0 0.2468355887219804 0.38752934868404243
720000000.0 -0.40885735618193264 -0.16764334052261656
740000000.0 0.2600530121474737 -0.28116080235389956
760000000.0 -0.08389735216597184 0.3517842591916231
780000000.0 -0.35781330658323895 0.09634601446251467
800000000.0 -0.037159624224590064 -0.34515033702084646
820000000.0 0.0020099919353589054 -0.30980587683941974
840000000.0 -0.042414449372038324 -0.27644027734579657
860000000.0 0.23755461922465265 0.08272578352395914
880000000.0 -0.21907783871487205 0.10814840312143123
900000000.0 -0.19467780331317855 -0.11090058095138282
920000000.0 0.04564178484064059 -0.19166309333146733
940000000.0 0.16575961562315386 -0.05720992392864261
960000000.0 0.14278649025369547 0.02980982125493483
980000000.0 0.0789787730645289 0.052587344946383514
1000000000.0 0.03331451932279191 -0.04642184125950185
1020000000.0 -0.04074472182260095 -0.003487782544341376
1040000000.0 0.03700616835279578 -0.02130066061310021
1060000000.0 0.027238094124081538 0.043689298494306174
1080000000.0 -0.06619632999233117 -0.02023344437266256
1100000000.0 -0.04271298998218093 -0.06535571517815555
1120000000.0 0.073924068148342 0.09252301791566601
1140000000.0 0.16481180930607026 0.026269618051785622
1160000000.0 -0.18024363317471312 0.04824249044674926
1180000000.0 -0.19001957753450197 -0.05791213779371561
1200000000.0 -0.0024572867949631304 0.21270206365798394
1220000000.0 0.13410568829806832 -0.1644285827600093
1240000000.0 -0.1039189911428732 0.19889379144558636
1260000000.0 -0.13911240639488587 0.2177495200095267
1280000000.0 -0.17232325984649727 0.20377764381907998
1300000000.0 -0.2453632666706675 -0.14092629473634358
1320000000.0 0.19338404271368023 -0.24683175513392475
1340000000.0 -0.27702495434627555 -0.1683975663971214
1360000000.0 0.3179560726035241 0.13927217507383716
1380000000.0 -0.3178430225579662 0.13675765353198122
1400000000.0 0.08608970098724286 0.34521401161366944
1420000000.0 -0.02115916109990703 -0.3590317406363249
1440000000.0 -0.17346657751863373 -0.3135092972121377
1460000000.0 -0.2019758744882666 -0.3072745462948248
1480000000.0 -0.13094379617857677 0.34852259223803206
1500000000.0 -0.27747499953787996 -0.24731954089262467
1520000000.0 0.28638809547168437 0.20065885785534893
1540000000.0 -0.29603968730884495 0.1447452340149258
1560000000.0 -0.2185958321258818 -0.19198287401893552
1580000000.0 0.1295432574689753 -0.21155088977144634
1600000000.0 0.04189781367110938 -0.21206884527044098
1620000000.0 -0.04325441756053892 -0.19063305058934132
1640000000.0 0.13008483824194744 -0.09251897860492644
1660000000.0 0.06494599889403374 0.1255376648548203
1680000000.0 0.08785390898216612 -0.07479995838126871
1700000000.0 0.09984744928089713 -0.004809824904174083
1720000000.0 -0.03782770844468927 0.05397208832719695
1740000000.0 0.019008596231530128 -0.05255746858782739
1760000000.0 -0.047618064818925374 0.020282383656627875
1780000000.0 0.07055013986315571 0.036840336068982286
1800000000.0 0.07534128723664943 -0.08188705185703396
1820000000.0 -0.11404066367071143 0.08890789558135416
1840000000.0 -0.16681932847480108 0.07967407868245442
1860000000.0 -0.04430389061793521 0.20309102960660733
1880000000.0 -0.23071043219968032 -0.016830490710906885
1900000000.0 0.06864268180151638 0.25310458882159215
1920000000.0 0.06641381891508498 -0.2766671328399651
1940000000.0 -0.231899903944703 0.19041012401369933
1960000000.0 -0.2960585984953466 -0.08853528750891265
1980000000.0 0.18192202622395126 -0.2511604890177598
2000000000.0 0.19479305570788097 0.2423517061893274
2020000000.0 -0.09660687655158598 0.3015753496153095
2040000000.0 -0.00559901730599713 0.31207420990736817
2060000000.0 -0.2885342649293966 0.1023546164390471
2080000000.0 -0.13286657114858988 -0.2767753112784992
2100000000.0 0.19104684204565184 0.24046825414979275
2120000000.0 -0.2817706627886668 -0.1226827576801528
2140000000.0 0.049778940926792935 -0.29547036790417236
2160000000.0 -0.2156922411087439 0.19543492004193508
2180000000.0 0.10205891206151363 0.26517689251017773
2200000000.0 0.20711674504852717 0.1885533205980573
2220000000.0 0.2688277641795022 0.022992324890229572
2240000000.0 0.0872082465224013 0.2505537281535465
2260000000.0 -0.057018029987783055 0.24546967658400765
2280000000.0 -0.17496863048246372 -0.1651100849284858
2300000000.0 0.1906621469799731 0.12802586239669766
2320000000.0 -0.21990899936434008 0.03681004976844892
2340000000.0 0.1882983820919927 0.10430479767496612
2360000000.0 -0.15562682897132046 -0.15393508076527845
2380000000.0 0.193994361461833 0.11598841936322314
2400000000.0 -0.23410489750852068 -0.06119095478289796
2420000000.0 -0.03300946916807359 0.2660283031959537
2440000000.0 0.2591128725333721 -0.14241413018938764
2460000000.0 -0.3312828199625378 -0.005300915764158143
2480000000.0 0.3658686049597052 -0.0011372979061312772
2500000000.0 -0.06937996218976239 0.39593867811567757
2520000000.0 -0.35477224850938727 -0.2550050806044885
2540000000.0 0.2607816781113876 -0.40114788014839925
2560000000.0 0.22305172158848793 0.46032055049366394
2580000000.0 -0.499347564252189 -0.21595783344189784
2600000000.0 0.5439779644937357 -0.18540776438261108
2620000000.0 -0.302762396696243 0.5169420141657859
2640000000.0 -0.08958116377307276 -0.6113706298597316
2660000000.0 0.577350262043854 0.26338036720836794
2680000000.0 -0.39678067646600224 0.5113224902992082
2700000000.0 -0.6386068401500682 -0.15198366619526069
2720000000.0 -0.3998689321199399 -0.5279199737570716
2740000000.0 -0.1882294321152514 -0.6386216116881958
2760000000.0 -0.1574604183402245 -0.6467045211160801
2780000000.0 0.6612682561283159 0.022208902129921937
2800000000.0 0.6232083787516831 0.19407887274413782
2820000000.0 0.26329334787215053 0.5837211122182656
2840000000.0 -0.5737878021574202 0.253623122293738
2860000000.0 0.364658304482167 -0.4942568524380767
2880000000.0 -0.41281853704066984 0.43396652184155887
2900000000.0 0.5674971429720579 0.13028808209252266
2920000000.0 -0.14295545902425022 -0.5453379284238506
2940000000.0 -0.5216125881981682 -0.13600568951034803
2960000000.0 -0.48782413824313214 0.1793371295059045
2980000000.0 0.08255256565278624 0.4897234644287668
3000000000.0 0.47266968793110203 0.04407502703107361
3020000000.0 0.03964050420634539 -0.4500634014925042
3040000000.0 -0.2344738782704454 0.35611782139518083
3060000000.0 0.3760463334486994 -0.1267365466186723
3080000000.0 -0.3607925754098434 -0.10808633665742681
3100000000.0 0.33187785205927633 -0.1270453207788788
3120000000.0 0.1663792063713841 -0.2976146540291355
3140000000.0 -0.28322420703018475 0.17944683757819838
3160000000.0 0.1731362057086212 -0.28020073890101027
3180000000.0 -0.13934263288994175 0.29270654543093283
3200000000.0 0.2570090260879797 -0.1914936958719687
3220000000.0 -0.2843715098420955 -0.12358123494546097
3240000000.0 -0.29093575379149794 0.05756772777026427
3260000000.0 -0.2601908981595055 0.10778346079956817
3280000000.0 0.03621712350868857 -0.2619276553617385
3300000000.0 0.23831957439725118 0.08560891553455763
3320000000.0 -0.16344725486852613 0.16554341879386966
3340000000.0 -0.19919136319498296 -0.08114951599792813
3360000000.0 0.12465298050564816 -0.13994041894964626
3380000000.0 -0.09715354335458719 -0.12719193715102514
3400000000.0 -0.007957840398631061 0.13619833633873457
3420000000.0 -0.04976376642936653 0.11070715467007473
3440000000.0 0.01802123384354833 -0.1093776505191944
3460000000.0 -0.008128467997269033 -0.09938984549846536
3480000000.0 -0.0625133408265913 0.05883269780934765
3500000000.0 0.07828793267854031 -0.00048261296729464016
3520000000.0 -0.017781550193101476 0.06625373388167587
3540000000.0 -0.06240031780056778 -0.00752005532951424
3560000000.0 -0.004387285447471571 0.06552843129034865
3580000000.0 0.04885418268230396 0.055454218462678534
3600000000.0 0.05112735970666433 -0.06987608056649235
3620000000.0 -0.09623611800898986 0.02280502671267446
3640000000.0 -0.046021406827677136 -0.09221170552594087
3660000000.0 0.07588971415690314 -0.07631595097764118
3680000000.0 -0.09724094878890302 -0.049578754262550165
3700000000.0 -0.08483238486370467 0.049944999801596654
3720000000.0 0.03992732142032264 -0.07979838829159795
3740000000.0 0.07726908300236653 0.015011810138547778
3760000000.0 0.07438764998411779 -0.003580103014047603
3780000000.0 -0.009430227258940094 -0.06431264004818003
3800000000.0 0.039883076869329064 0.018357312471113628
3820000000.0 -0.041716948004342336 -0.005483383307905561
3840000000.0 -0.023824922874224625 -0.04464645956985843
3860000000.0 -0.06526874461014948 -0.0346620648728432
3880000000.0 0.028759404799944883 0.08496988857506885
3900000000.0 -0.10345405413781189 0.02085307255836021
3920000000.0 0.0380084280466669 -0.10148263130295217
3940000000.0 -0.05566071653903614 0.09416021333018874
3960000000.0 0.09949343359121739 0.039172559130476056
3980000000.0 -0.07186756622869668 -0.07100413675199296
4000000000.0 0.06115007740311703 0.06268770087129447
