!Created with skrf (http://scikit-rf.org).
# Hz S RI R 50.0 
!freq ReS11 ImS11
400000000.0 -0.41696350475847643 -0.7166244923578649
420000000.0 -0.2928801879655131 0.7275810255028338
440000000.0 -0.3997951810428353 0.6531480038602734
460000000.0 -0.6257385426336526 -0.3165462624186573
480000000.0 -0.6152751711502965 0.004923463717309029
500000000.0 0.49551767165209853 0.2106203501990676
520000000.0 -0.4024286240691756 0.08058937909336786
540000000.0 0.45038829655845475 0.030181937560197276
560000000.0 -0.10852768268656594 -0.4600849806745997
580000000.0 0.43088761048813046 0.031004344474533083
600000000.0 -0.020157044607185134 0.39722273748956516
620000000.0 0.1782078455222892 -0.31991907017955434
640000000.0 -0.34135211114310554 0.11825205458591334
660000000.0 0.23516121135077572 0.25713664047257334
680000000.0 0.33767255007232766 0.07778798259738848
700000000.0 0.34723094696531237 -0.07142348423219337
720000000.0 0.13047671103906092 -0.31676854676634525
740000000.0 -0.18363677791012237 -0.2647138929256648
760000000.0 0.30507507444213106 0.0417234460252219
780000000.0 -0.24417218887141173 -0.12010725723712964
800000000.0 0.06861579863961591 0.23713375850007126
820000000.0 -0.21633347658977448 -0.01636787360987513
840000000.0 0.09361085595490982 0.17432712339878617
860000000.0 0.0019291524050676406 0.18022911986526793
880000000.0 0.172682848627829 0.0529265722434056
900000000.0 -0.13780102310353298 0.07621961083879035
920000000.0 -0.07159461279560524 0.12080631475060406
940000000.0 -0.029024439207585684 -0.13800868250820403
960000000.0 -0.10026409791474968 -0.032311780692951104
980000000.0 -0.009152586051759221 0.060323998069481674
1000000000.0 -0.0194213062325488 -0.030887413960066445
1020000000.0 0.012978560889887502 -0.030434663742805006
1040000000.0 -0.05406136079835129 -0.0461997690832888
1060000000.0 0.03998508175473164 0.11404885206204221
1080000000.0 0.151946858428281 0.017531742414852676
1100000000.0 -0.18758904261910073 0.01989052389062131
1120000000.0 0.22198788419159893 -0.022386734184946383
1140000000.0 0.25445120222899503 -0.08273404579682443
1160000000.0 0.25386200577232243 -0.14246952530687584
1180000000.0 -0.09208275775236614 0.3040826397342335
1200000000.0 0.1923481463662074 0.2795792837776347
1220000000.0 0.17509543840193534 0.29413879840754076
1240000000.0 -0.2050644237083336 0.2695176884906117
1260000000.0 -0.19076573613895398 0.2804376468361871
1280000000.0 -0.2382116499670174 -0.24950160410660396
1300000000.0 0.3194249099556418 -0.14649705802699317
1320000000.0 0.36119830478692533 0.021359478920363842
1340000000.0 0.12121463209300637 0.3519545713533583
1360000000.0 -0.1775507793242626 -0.3343474687317631
1380000000.0 0.17723141513086038 -0.33837367689032966
1400000000.0 -0.29002592526273524 0.24004247659647068
1420000000.0 0.11039282339119307 0.350134476875583
1440000000.0 0.3581813114128154 -0.032812735981982276
1460000000.0 0.3251278419171049 -0.1399211756722979
1480000000.0 -0.017074280253276796 -0.3447083127220421
1500000000.0 -0.1074023010035068 0.31714640449099174
1520000000.0 0.06499712807381741 -0.30188682330781297
1540000000.0 -0.2517280573402896 -0.11340483428227822
1560000000.0 0.17828767323198969 0.16858430587003786
1580000000.0 -0.18145959386692595 0.10455947167181641
1600000000.0 -0.04822723032554019 0.16477743915411316
1620000000.0 0.06915069871246857 -0.13505411852402532
1640000000.0 0.003234773285831744 0.13259209260232296
1660000000.0 -0.09879011920898675 0.04586248900241321
1680000000.0 0.07816264302399183 0.0392170902088483
1700000000.0 0.02956564371133792 0.06489806567609074
1720000000.0 0.05190955850244241 0.009137617918270599
1740000000.0 -0.04607914890259565 -0.0196468143151761
1760000000.0 -0.03914395611989837 0.0411061675462021
1780000000.0 -0.02437008720121723 0.08190458866320799
1800000000.0 0.1211316696755648 0.010963434722395807
1820000000.0 0.08965277114715044 0.12801401829792605
1840000000.0 0.020192945801014047 0.18507357145038061
1860000000.0 0.08316220261937265 0.2054406978034548
1880000000.0 0.23593427221810048 0.06282559864050628
1900000000.0 0.07228764408883144 -0.2553730030483976
1920000000.0 -0.28689250806626215 0.003839377808822112
1940000000.0 0.1039180346049533 0.2816174543787499
1960000000.0 -0.2618696462489612 -0.17131470816041527
1980000000.0 -0.04045114239266643 -0.3171786407470958
2000000000.0 0.05905321205352108 -0.313022592498708
2020000000.0 0.3114129573365376 0.04297786683467209
2040000000.0 0.3019933899358762 0.07696353559913555
2060000000.0 0.14071313744496325 0.2748595742689507
2080000000.0 -0.30535478871080773 0.041877458066052614
2100000000.0 0.24441517481623778 -0.1958617054551559
2120000000.0 -0.000617004518663867 0.3112419845124046
2140000000.0 -0.18918718246154675 -0.24262266136435187
2160000000.0 0.0568969422233838 0.2953162576559284
2180000000.0 0.28777168854434093 0.060906253218854914
2200000000.0 0.28605427331931305 0.02108968517299798
2220000000.0 0.08972852178322645 0.26602972283239906
2240000000.0 -0.074900293983141 0.26631243712711955
2260000000.0 -0.2603721432732283 -0.0516717185835464
2280000000.0 0.09419426319538428 -0.23602616323616543
2300000000.0 0.22325775364777678 0.09661061640218309
2320000000.0 -0.23507544805948216 0.024470906341192093
2340000000.0 0.2259340632830348 -0.022401364133725076
2360000000.0 -0.22754017875343124 0.01350388371178309
2380000000.0 0.21419399137585587 0.09960201273418684
2400000000.0 0.13604565640996336 0.21271051950877368
2420000000.0 0.10375831767569488 0.2587277213734714
2440000000.0 -0.10757196525485865 -0.293556564322349
2460000000.0 0.24765551537565528 0.23795555055657913
2480000000.0 0.07144348334533131 -0.36876739227896976
2500000000.0 0.3923939715044975 0.1344736070048814
2520000000.0 -0.28957594962990174 0.3465447410982304
2540000000.0 -0.06785447236892377 -0.4835085450751879
2560000000.0 0.4472933077946099 0.2706732519298568
2580000000.0 -0.5555312288462466 0.0074768757688341795
2600000000.0 0.4625170841201465 -0.3580066733162376
2620000000.0 -0.1536274235145848 0.588190591385761
2640000000.0 -0.3314532446562741 -0.5302313499988724
2660000000.0 0.6386822023862229 0.0398022761815637
2680000000.0 -0.16019330403309742 0.6298277300727596
2700000000.0 -0.6154175876593242 0.23447534442832946
2720000000.0 -0.6614160526951242 0.051552346503483684
2740000000.0 -0.6649866005807478 -0.03391416348016483
2760000000.0 -0.6671416370819908 0.010698492250310726
2780000000.0 0.09116964808332854 -0.6540879568940022
2800000000.0 0.3287192511765754 -0.5618523195268387
2820000000.0 0.6339267782815983 -0.0956569010277994
2840000000.0 0.06700146743890789 0.6248580567718277
2860000000.0 -0.3014642890810947 -0.5350992488088684
2880000000.0 0.1991212504354854 0.5661980391172913
2900000000.0 0.31933787140853576 -0.48618952646343544
2920000000.0 -0.44312075210940943 -0.342635925577338
2940000000.0 -0.3900653614153126 0.36827784162326016
2960000000.0 -0.044829036209326004 0.5104517000105554
2980000000.0 0.45748033418133266 0.18079420470056207
3000000000.0 0.10802440896515454 -0.4543019431636037
3020000000.0 -0.42632723914958187 0.11326742841698657
3040000000.0 0.32272449503698836 0.26077196314590595
3060000000.0 -0.2971488823657851 -0.25034877280496476
3080000000.0 0.03429396080234651 0.3675649432138856
3100000000.0 -0.16321746904719486 -0.31292253741965964
3120000000.0 -0.3394335513424769 -0.008012389357303015
3140000000.0 0.3332161325207759 -0.0111686780445921
3160000000.0 -0.29674040541662683 -0.14402099771621543
3180000000.0 0.23836988948995116 0.22612083412302675
3200000000.0 0.07042859483797113 -0.3126738006238454
3220000000.0 -0.28884690919199896 0.12420484887660045
3240000000.0 -0.12324273237825113 0.26919184574990423
3260000000.0 -0.2657856852675169 0.07596573652562974
3280000000.0 0.06926864876149047 -0.24865431783059677
3300000000.0 0.10005340083949067 0.2234908263526713
3320000000.0 -0.22401337950100736 0.019694194480342188
3340000000.0 0.08443542482639138 -0.1873221741159587
3360000000.0 0.1804001911001532 0.012773760304828668
3380000000.0 -0.024507043384962804 -0.14771378979511707
3400000000.0 0.025776147680840432 -0.1267912659560315
3420000000.0 -0.08312235526161303 -0.08315396222266387
3440000000.0 0.10457175779801149 0.023346008773280615
3460000000.0 -0.028779409153841456 -0.09830996850606336
3480000000.0 0.002863865108431607 0.0935883645719202
3500000000.0 0.022160051550253974 -0.075390303719667
3520000000.0 0.061832363238700803 -0.038433156388640755
3540000000.0 0.0667797524482646 -0.00573049276106986
3560000000.0 0.059116522487834645 0.04166266810098737
3580000000.0 -0.0774910754399331 0.022312382953045537
3600000000.0 -0.08377383302264424 -0.03508600515067557
3620000000.0 0.04964256033445638 0.08915958975309403
3640000000.0 0.10614592819724257 0.03151217043622486
3660000000.0 0.10776748913409664 -0.032689601218926854
3680000000.0 -0.004916102794729509 -0.11012540186183847
3700000000.0 -0.06000779069945043 -0.0824978835893359
3720000000.0 -0.07942296052737897 0.04645236409700754
3740000000.0 -0.07629078231052551 -0.04582888771456971
3760000000.0 0.011961921133523503 0.07606746146132892
3780000000.0 -0.0648678103728268 -0.024431724130950808
3800000000.0 -0.045283812081965455 0.022879563362727937
3820000000.0 -0.03776476245723369 -0.014594595273514279
3840000000.0 0.013925714233954428 -0.05045755862590164
3860000000.0 0.051635640582826166 -0.0493659126251706
3880000000.0 -0.03052520580364411 0.08577155304649524
3900000000.0 -0.016481864372249376 0.10320272085759215
3920000000.0 0.09368118200737824 -0.04953145962428835
3940000000.0 -0.10622690038413596 0.01422064421649035
3960000000.0 0.0165502718086801 0.1033387638820537
3980000000.0 0.058991543985269505 -0.08149037810728717
4000000000.0 -0.046731993155354146 0.07331480916513342
