!Created with skrf (http://scikit-rf.org).
# Hz S RI R 50.0 
!freq ReS11 ImS11
400000000.0 0.7277685405572644 -0.39696090194732964
420000000.0 -0.023832191467792342 -0.8314596809705842
440000000.0 -0.6018426927305991 -0.4910191879912674
460000000.0 -0.6082006633613041 -0.3859266321816823
480000000.0 0.5713789862979427 0.31074419260782776
500000000.0 0.5930455489202486 0.20620794495546424
520000000.0 -0.20047179685434355 0.5232636321118714
540000000.0 -0.12731858048071437 -0.4877803035480094
560000000.0 0.20767826137465759 -0.43572097712243724
580000000.0 0.07316786348315914 0.4168728620496752
600000000.0 0.19014460217890716 -0.322481732054797
620000000.0 0.18927930934716197 0.31051815319084625
640000000.0 -0.14974202774212034 -0.38765528261583787
660000000.0 0.44853229624199437 0.015314201920906751
680000000.0 -0.15801401540858676 -0.429973689318738
700000000.0 0.45501533708244835 -0.02243507861053033
720000000.0 -0.3791582302863441 0.21148699526746598
740000000.0 -0.24312636891644387 0.305513729746747
760000000.0 0.269031420334012 -0.22076322896175377
780000000.0 -0.12765952095583324 0.2937699892754068
800000000.0 -0.12193678934632247 -0.2594825475557171
820000000.0 -0.08263051434366951 -0.23520968321199984
840000000.0 -0.20534707347056308 -0.029532807825687478
860000000.0 -0.16143098270218548 0.08079648005064491
880000000.0 0.14537594656096012 0.010304498038378861
900000000.0 0.0966497929496995 -0.07032441073347204
920000000.0 -0.03622592140776107 -0.07891949450161018
940000000.0 0.06142761671884644 0.007371787079892644
960000000.0 -0.043507843272864666 0.04013251295063552
980000000.0 -0.0449076177444502 0.049103853804945814
1000000000.0 -0.03218616464285716 -0.06921784151869675
1020000000.0 0.10627070293021036 0.0014056367455431097
1040000000.0 0.009630080983992442 -0.12603604445746022
1060000000.0 -0.10849875363109264 -0.11593131918848534
1080000000.0 -0.11629072036200133 0.15462801496735326
1100000000.0 0.19329689644592604 0.101188710561753
1120000000.0 -0.18561821156675065 0.1702941396295379
1140000000.0 -0.2762367146126345 0.05562393053067695
1160000000.0 -0.07783852257647245 0.2967464117578854
1180000000.0 0.1580967776531297 0.2916838263876467
1200000000.0 -0.23666276089084212 -0.24473146644228555
1220000000.0 -0.36174577495182214 0.010898468736136594
1240000000.0 -0.10323050354488336 0.37045346202660184
1260000000.0 0.3940147447069625 0.10722502656198511
1280000000.0 -0.13610103058446624 -0.3994299926860855
1300000000.0 -0.3285767490694953 -0.26687579402240075
1320000000.0 -0.35697545093822947 -0.24101989006210245
1340000000.0 -0.435343300412654 -0.05442604606015917
1360000000.0 -0.24668507896958222 0.3609987372822002
1380000000.0 -0.07593795278243819 0.42102596742517495
1400000000.0 0.4170731839013362 0.03564772415327373
1420000000.0 -0.022377696853806268 -0.39447426648205897
1440000000.0 -0.37009749980892165 -0.05471195557303026
1460000000.0 0.1864603131995476 0.2843672141227924
1480000000.0 0.3002085263633857 -0.0851421716441182
1500000000.0 -0.2178760902095196 0.16586244603068026
1520000000.0 -0.2259444379983827 0.06256834942387471
1540000000.0 -0.045963916642375466 0.19214874990348174
1560000000.0 -0.16909290583816022 0.00537557374040194
1580000000.0 0.09234590066010381 0.1206368962935709
1600000000.0 0.09432304553472298 0.08282180298243488
1620000000.0 0.08800550201376905 0.03781686726904304
1640000000.0 7.209453474271921e-05 0.060019482286074656
1660000000.0 -0.007041842381509122 -0.039661093972852
1680000000.0 -0.012692301130888328 -0.021876741922960102
1700000000.0 -0.018887006573274537 0.00019630897206235698
1720000000.0 0.029493762150300338 0.005156542152379182
1740000000.0 0.035325960798603624 0.04336874339203563
1760000000.0 -0.0633125429925552 0.04769447391447053
1780000000.0 0.06428785273401724 -0.07427218776119969
1800000000.0 0.11901833873753291 -0.06447231159673383
1820000000.0 -0.14107545381192127 0.1035557140416803
1840000000.0 -0.15082714507871345 -0.15205707188087303
1860000000.0 0.033355928179941416 -0.24909583735577612
1880000000.0 0.18882041838673186 0.2168861676951587
1900000000.0 -0.25960327598088534 0.18348682136724184
1920000000.0 0.336730002672159 0.0018540102455331167
1940000000.0 0.21213161575501233 -0.29806107094356954
1960000000.0 -0.371827511014723 0.12636688516934427
1980000000.0 0.40722262716524865 0.00829584073917947
2000000000.0 0.14106947897901356 -0.38822491294923756
2020000000.0 0.09102116224058002 -0.40796755340861046
2040000000.0 -0.12506297487537715 -0.4106599095633181
2060000000.0 -0.4090290398342168 0.1438528384973631
2080000000.0 0.29457725862741796 0.31435477507993975
2100000000.0 0.13358751342458025 -0.3947274668074232
2120000000.0 -0.3523777241019021 -0.17426925112402283
2140000000.0 -0.28164830805698565 -0.24544420758437926
2160000000.0 0.09139678933309962 -0.3454048884832982
2180000000.0 -0.12174966289742212 -0.31117322607946823
2200000000.0 -0.01557427868074589 -0.31593945698928255
2220000000.0 0.08610191248368232 -0.29448097674221346
2240000000.0 -0.10339843640452484 -0.2859719457664333
2260000000.0 -0.223523072331263 -0.20252631214210484
2280000000.0 -0.3057093466782351 0.037533189367256775
2300000000.0 -0.03329526939348149 0.31629098146396234
2320000000.0 0.3046427518251835 0.14795466882583375
2340000000.0 0.0018457180594736063 -0.36912667991547093
2360000000.0 -0.3001496592684991 0.28091249047301975
2380000000.0 0.21511622383783943 -0.4038782701357092
2400000000.0 -0.16781447803211053 0.4782882963516432
2420000000.0 -0.1411816327328524 -0.5412874763620039
2440000000.0 0.5075760788407025 0.33747191275695965
2460000000.0 -0.6486079626011276 0.0953440437157945
2480000000.0 0.4538171131618436 -0.526497795486924
2500000000.0 -0.37241297423614195 0.620782322347695
2520000000.0 0.36541813390650996 -0.648728770750215
2540000000.0 -0.49964226524301975 0.5677416376950879
2560000000.0 0.7071871409801272 -0.28247332389503205
2580000000.0 -0.7218449103933801 -0.23287586123248377
2600000000.0 0.4780051960637527 0.5737249920164854
2620000000.0 -0.21691489104993664 -0.6971434755355074
2640000000.0 -0.6999705446522189 -0.07613324476858402
2660000000.0 0.6578136447651686 0.13395071449358223
2680000000.0 -0.5937720082366581 -0.22934074936709004
2700000000.0 0.5682637695786242 0.1897620130335046
2720000000.0 -0.5559545492844595 -0.05828250583017739
2740000000.0 0.5195410285360921 0.005744642962745466
2760000000.0 -0.4658969184423422 0.13538794444730465
2780000000.0 0.3996592944618507 -0.21351248944980716
2800000000.0 -0.35738788386359777 0.24097435264747663
2820000000.0 0.16825444341882353 -0.37738987540590513
2840000000.0 -0.1453793425280106 0.3704838646227107
2860000000.0 0.37952437278589796 -0.07494841624601409
2880000000.0 -0.1231655095973979 -0.36342288445386006
2900000000.0 -0.3819544462453691 0.0402827989412396
2920000000.0 0.04921213914779818 0.3866234492218223
2940000000.0 0.39159062645376025 -0.0059877815198532075
2960000000.0 0.1364729147434694 -0.3647866583386933
2980000000.0 0.08475039822489755 -0.37320881035983633
3000000000.0 0.3774620965390871 -0.03733910047580477
3020000000.0 0.05041591370423971 0.3694376078100109
3040000000.0 -0.3319088664399843 -0.15584060219131382
3060000000.0 0.354795085170506 -0.046462953056625005
3080000000.0 -0.34738459126904847 -0.04165131795910041
3100000000.0 0.3207838025948488 -0.12376765360068087
3120000000.0 -0.11673747439642121 0.3095768962251736
3140000000.0 -0.09105918647342928 -0.3018892467931516
3160000000.0 0.2815867421912755 0.0923723979461615
3180000000.0 -0.08787965633806565 -0.25578337808205487
3200000000.0 0.18520598131361085 0.15309914864011262
3220000000.0 -0.12473201245568157 -0.1685121726087473
3240000000.0 0.1300075748699992 0.12111671956920456
3260000000.0 0.13243145106414186 -0.05163048587308937
3280000000.0 0.10662269370756805 0.010095338223855811
3300000000.0 -0.05224969640359 0.05879442124657117
3320000000.0 -0.062415360788614746 0.003955577432063466
3340000000.0 -0.00861191170063335 0.04979143356950427
3360000000.0 -0.03861543790098249 0.022033294619157012
3380000000.0 0.03281025479324851 -0.03107260507658084
3400000000.0 0.03950918112508382 0.002224221800756975
3420000000.0 0.0007048429172025689 0.026633358426608196
3440000000.0 -0.019511740727807043 0.014987146091206638
3460000000.0 0.01584720758332518 -0.011812438145921056
3480000000.0 -0.006850984367569537 0.013640289704648877
3500000000.0 0.02493097034418115 0.006892440572949874
3520000000.0 -0.030910442501971284 0.013559089014814812
3540000000.0 0.025559326481414294 -0.03494962955977492
3560000000.0 0.05337732192393262 -0.015533745256640303
3580000000.0 0.04834065999561413 0.04191377323145958
3600000000.0 0.07139573335000209 0.010382450420225902
3620000000.0 -0.07800634592043497 -0.027193372370438368
3640000000.0 0.08882155989412296 -0.003306651084955084
3660000000.0 -0.09139990992720318 -0.025115871900728774
3680000000.0 0.06094085036610329 0.07616120609579426
3700000000.0 -0.037092080376105944 -0.08851009348377714
3720000000.0 -0.040546528347718554 0.08565514928151498
3740000000.0 0.03107095733290885 0.08487416029759123
3760000000.0 -0.0577426688051867 -0.0713715306655939
3780000000.0 -0.06393128853280872 -0.08213744788929445
3800000000.0 0.11925192545567138 0.025457193388639564
3820000000.0 0.045051959481241174 -0.13572453451848432
3840000000.0 -0.028658545482546517 0.1579601875146954
3860000000.0 -0.17244315461751575 0.005382927640063331
3880000000.0 0.10712287250354269 -0.14913488077436632
3900000000.0 0.18064067524523716 0.06842407223696334
3920000000.0 0.09158015094020201 0.17558227086580971
3940000000.0 -0.04789642112006287 0.19803590404588736
3960000000.0 -0.1938160909562026 0.07270210092808227
3980000000.0 -0.167811388952171 0.12749406489544057
4000000000.0 -0.06838818526184155 0.19338954011670464
