!Created with skrf (http://scikit-rf.org).
# Hz S RI R 50.0 
!freq ReS11 ImS11
400000000.0 0.6948522983875424 -0.4291865715692775
420000000.0 0.49049959666500437 -0.6630926998448534
440000000.0 -0.5938990063126441 -0.4914123278308903
460000000.0 0.23153564939279242 -0.668981660013951
480000000.0 -0.5950441723480718 0.28263547635172664
500000000.0 0.1207735400999794 0.6422316048626021
520000000.0 0.14253746009017276 0.5699374518482697
540000000.0 -0.09161500242294465 0.5168071425040139
560000000.0 -0.4845135035608928 0.0013682705499762449
580000000.0 0.22895712328965237 -0.3417323598378595
600000000.0 -0.28690630292829505 -0.21898530327366747
620000000.0 0.32764564492148435 0.14541701081805553
640000000.0 -0.2957605005148517 -0.2657088308502129
660000000.0 0.045216613387344715 0.4296606515081377
680000000.0 0.33011211084797704 0.30730214507086534
700000000.0 -0.41433837245751043 0.21059375762740515
720000000.0 -0.44494915143324054 0.11377713233727312
740000000.0 0.12840027396873185 0.3739430108175714
760000000.0 -0.3159462036380712 -0.16725829816063992
780000000.0 0.3123303568079551 -0.0450592200570716
800000000.0 -0.21920814388391388 0.17197588768452962
820000000.0 0.12142757700645246 -0.20226482199296494
840000000.0 0.1764851953023797 0.09534213400844867
860000000.0 0.19209399153691653 0.02134022256591542
880000000.0 -0.1575386509865336 0.051618148453533054
900000000.0 0.12508757561727868 -0.012115298164588197
920000000.0 0.012740272761752219 0.07798453709154171
940000000.0 0.013189355291917608 0.045172922854263005
960000000.0 0.04706913119526634 0.01487443238724463
980000000.0 0.048048108358990115 0.030120904283763402
1000000000.0 0.06500680035072225 0.0035581656617675404
1020000000.0 0.06948006955117371 0.05178687535945301
1040000000.0 0.09792738830124585 0.07776251291587939
1060000000.0 -0.037084135715573736 0.15785439399890513
1080000000.0 0.1787527800565314 -0.09323242997750114
1100000000.0 -0.06950799751925209 0.22461095885441493
1120000000.0 0.14986068410548017 0.2187537013836249
1140000000.0 0.22905070404778874 0.1813707004874185
1160000000.0 0.07628238693208944 -0.2919979340825477
1180000000.0 0.08910244576079122 0.305922673972242
1200000000.0 0.19115327722637762 -0.2770785447105645
1220000000.0 -0.060686760075240175 -0.3616327470914938
1240000000.0 -0.18610050944962792 0.34854268011633394
1260000000.0 0.15183428410444597 -0.3837100454834367
1280000000.0 -0.35192184547381067 -0.2188083482150211
1300000000.0 -0.35588136174147633 -0.21272329713480168
1320000000.0 0.04715680668416933 -0.4215375153552091
1340000000.0 -0.08549399773484737 -0.43345320795092346
1360000000.0 -0.3891225202130892 0.21036276241319962
1380000000.0 0.12825048264554165 0.4152898104529494
1400000000.0 0.3291657476205432 -0.25855416206469894
1420000000.0 -0.16546444882499767 -0.3540626882979164
1440000000.0 -0.27388448230060985 -0.24921107540241144
1460000000.0 0.0773634737549181 0.3334525225210481
1480000000.0 0.23557315577933213 -0.20059584648166845
1500000000.0 -0.19180198639420476 -0.1964680296276802
1520000000.0 -0.2031760530771819 -0.1318573682366956
1540000000.0 0.21034268650204851 0.010836276397762443
1560000000.0 -0.0817230646177057 -0.1459294613435433
1580000000.0 0.1210922254127604 -0.06974167697594594
1600000000.0 -0.10241042032478062 0.0598331731690282
1620000000.0 -0.051475307005008665 -0.06992795685143534
1640000000.0 0.053854277840541136 -0.034473081126333766
1660000000.0 -0.01604976294145836 0.043265267907941315
1680000000.0 0.026940695383326156 -0.007951261953343265
1700000000.0 0.004048863315360581 -0.01425411136658474
1720000000.0 0.018176849194220246 0.02715368168740811
1740000000.0 -0.056344526372929624 -0.009344564278431475
1760000000.0 0.07468281507567354 0.0435136515883128
1780000000.0 -0.1107417295355746 -0.003138113387830723
1800000000.0 0.11992513152334214 0.06738123373464713
1820000000.0 -0.12386219528832586 -0.10636088793275529
1840000000.0 -0.03251560005783776 -0.18817499983229688
1860000000.0 -0.2398580976590352 0.012215519297819681
1880000000.0 -0.2240363945098693 -0.18468925518133744
1900000000.0 -0.0417504618351439 -0.32437731398429115
1920000000.0 0.34494051628570027 0.07719026360926749
1940000000.0 -0.3345968009319831 -0.16746242137502787
1960000000.0 0.1903930133075227 0.3419088238719292
1980000000.0 0.30289961906165075 -0.26177670835745775
2000000000.0 0.28565310705624763 -0.28968443515357856
2020000000.0 0.29774178509945654 -0.2982457344479781
2040000000.0 -0.22007079603281188 -0.37312333865913333
2060000000.0 -0.1735942794200095 0.39932084326966905
2080000000.0 0.42416256956148574 -0.015282473655290367
2100000000.0 0.20003883285522672 -0.35338249199248395
2120000000.0 0.19931371769968198 -0.3311005649407718
2140000000.0 0.35399095580335793 -0.13046394148820245
2160000000.0 0.36461010805298455 0.06121149299890016
2180000000.0 -0.20732148520253615 -0.2838082227755301
2200000000.0 -0.15662348605558993 0.28307466001938747
2220000000.0 -0.26535952567370996 0.13632706502090303
2240000000.0 -0.018478318761340675 -0.28970434984841353
2260000000.0 0.07145978269390814 -0.285325147876964
2280000000.0 -0.0371758152977525 -0.2995595265366642
2300000000.0 -0.30770382970815646 -0.08330926227207212
2320000000.0 0.14185848033191298 0.31139285900565417
2340000000.0 -0.0895924756088566 -0.35897774102953406
2360000000.0 -0.06569396639830825 0.3978658633735386
2380000000.0 0.35765533460625437 -0.26422981134819207
2400000000.0 -0.48507475553988194 0.09751247763987757
2420000000.0 0.4957424740726238 -0.2435372050747323
2440000000.0 -0.10498308611347895 0.5984155695816508
2460000000.0 -0.4758619154290129 -0.44901171439376947
2480000000.0 0.6761855747345311 0.14433200576727456
2500000000.0 -0.7115162984599084 -0.1135785169780022
2520000000.0 0.7415984952539563 0.049265489910668904
2540000000.0 -0.7159365675766006 -0.24278435449781122
2560000000.0 0.5524664368468735 0.5257775842324385
2580000000.0 -0.15695814143848588 -0.7441483439224351
2600000000.0 -0.16129738699668425 0.7326390487002109
2620000000.0 0.391364562366209 -0.6214498334296377
2640000000.0 -0.3000975548245981 -0.643670848827966
2660000000.0 0.11571162472590643 0.6700941084283721
2680000000.0 -0.08511807678478013 -0.6400397684213155
2700000000.0 0.22522397465811023 0.5644960364472957
2720000000.0 -0.4512117388788092 -0.3446047840677873
2740000000.0 0.4973332571928575 0.1674977165397169
2760000000.0 -0.4671472238276903 -0.13242725956661608
2780000000.0 0.4451633404856136 0.09878877806482332
2800000000.0 -0.4305377288635471 0.0330859486955761
2820000000.0 0.4146969928512961 -0.03708453317335932
2840000000.0 -0.36823382883701267 0.16622431222745737
2860000000.0 0.35836121748681266 -0.16568149113048095
2880000000.0 -0.3710899025585333 -0.1058398888119423
2900000000.0 -0.30309445780270283 0.23170119483189947
2920000000.0 0.1454416100299649 0.3584698663454645
2940000000.0 0.37656905175976013 -0.09707981292404042
2960000000.0 0.3504478234299168 -0.1665674536665384
2980000000.0 0.34134231699346207 -0.18277348207937197
3000000000.0 0.38305283514405175 -0.019313961524568293
3020000000.0 0.17742315288756286 0.3324012637937764
3040000000.0 -0.36087206127315435 -0.06853033204178201
3060000000.0 0.3405754469463446 -0.1114606282423236
3080000000.0 -0.3308086244578551 -0.10581223603329895
3100000000.0 0.27869770878996536 0.19925590497676088
3120000000.0 -0.3228895953107061 0.08500952014251212
3140000000.0 0.09913106711875797 -0.30367146644263765
3160000000.0 0.2289474192870032 0.19613192499944598
3180000000.0 -0.13293851895609116 -0.24015242470191278
3200000000.0 0.23778803793112843 0.05000548245777713
3220000000.0 -0.20884886397391894 0.019606275795755895
3240000000.0 0.16734458595294377 0.047294384266637575
3260000000.0 0.11639836187627284 -0.0748512510474586
3280000000.0 -0.10190770593528893 0.021927393738438546
3300000000.0 -0.06054602871647908 -0.05628788293308723
3320000000.0 0.06599074501542922 -0.012610926152470855
3340000000.0 -0.042525231042875505 -0.025890659950595325
3360000000.0 -0.032989875249098896 -0.021425094485156202
3380000000.0 -0.020983813785051403 -0.03153676218397225
3400000000.0 0.016341043800903832 0.033353925208042236
3420000000.0 -0.032356948431857616 0.006636248300330725
3440000000.0 0.014073308364358 0.02210428042074646
3460000000.0 0.016043357998897393 0.006936380941011047
3480000000.0 -0.012270934215660763 0.004551246949776221
3500000000.0 0.00809952443742379 -0.023656496477214583
3520000000.0 -0.02507253525299219 -0.02992535943805398
3540000000.0 0.038711054605657706 -0.034725525168807614
3560000000.0 0.05823859124004631 0.01424790913167761
3580000000.0 -0.04804083135201445 -0.0458285794334349
3600000000.0 -0.056461568923517905 -0.04662534048229749
3620000000.0 0.07447124312188563 -0.03576541094199864
3640000000.0 -0.05530641749692009 0.06899192262902887
3660000000.0 0.04431275083843758 0.07828178364319584
3680000000.0 -0.008305298132538039 0.09156670365389183
3700000000.0 0.0944881158436 -0.005348509658064778
3720000000.0 -0.08319842680232431 -0.053843479327815524
3740000000.0 0.07256561549821555 0.060782542876479766
3760000000.0 0.04922944824488879 0.0772105044313664
3780000000.0 -0.0930699616473245 0.04209057662741941
3800000000.0 0.11474002578877124 -0.03397891939974538
3820000000.0 0.13751203029068435 0.01905790039871986
3840000000.0 -0.14127565507424186 -0.06617399028935085
3860000000.0 0.15668319232246053 -0.07014023625257854
3880000000.0 0.10212317700291576 0.15630623855128092
3900000000.0 0.08883163395912733 0.1760599704708913
3920000000.0 0.17283696561967202 0.10455421085945654
3940000000.0 0.0680743615420622 0.19279060031099138
3960000000.0 -0.02066422279767668 0.20322956701083988
3980000000.0 -0.17791132016939928 0.10324597188645976
4000000000.0 -0.12085069246234093 -0.15480073011114656
