!Created with skrf (http://scikit-rf.org).
# Hz S RI R 50.0 
!freq ReS11 ImS11
400000000.0 0.5599077181033264 -0.6308795148506398
420000000.0 -0.5987664971697578 -0.5775059417470731
440000000.0 -0.7474342445964357 -0.19834777204916668
460000000.0 -0.5444174787172645 -0.47857473294010255
480000000.0 0.2293052120762498 -0.6159713935385183
500000000.0 0.08954024941805308 -0.6014306079898578
520000000.0 -0.2445006877129302 0.4891954294986987
540000000.0 -0.3686675752451992 -0.32386545579855447
560000000.0 0.4569366734635795 -0.05880343058878599
580000000.0 -0.16014093454157274 -0.38716712080285615
600000000.0 0.0628360882989881 0.3780061188563994
620000000.0 0.3134549071345682 0.2232993592924546
640000000.0 -0.05734256469843559 0.4110904356618426
660000000.0 0.17580948558923035 -0.4009496740218259
680000000.0 -0.3217130648749964 -0.31737920593673474
700000000.0 0.16555024503947288 -0.4072666716069663
720000000.0 -0.4176677294593547 -0.018304449360970552
740000000.0 -0.332337201520252 -0.1760025737363952
760000000.0 -0.18391201584414815 0.28808184870072
780000000.0 0.31887840622795893 -0.08742032313694904
800000000.0 0.27389859720330495 -0.128366780435632
820000000.0 0.2615766361985333 -0.06701397447522
840000000.0 -0.019993596034692498 -0.22887390110795808
860000000.0 -0.03808191761660775 -0.17891068574161717
880000000.0 0.06523725719844584 -0.13099412985944103
900000000.0 -0.10925010685142322 -0.04304949505172554
920000000.0 -0.07766915304578906 0.04456587492182101
940000000.0 0.06262262034589322 -0.0061896663154898
960000000.0 -0.03819231407301328 0.04523749859987519
980000000.0 -0.06080465525522207 0.011924136140622339
1000000000.0 0.024883786986322973 -0.06783611331458647
1020000000.0 0.008721070837243203 0.08908806455002885
1040000000.0 0.10748881528866419 -0.03636330862243516
1060000000.0 0.1403607533602229 -0.05552966207085338
1080000000.0 -0.18930946006884727 -0.014421703066187931
1100000000.0 0.15800658141123727 0.14603144347969152
1120000000.0 -0.16923167423526053 0.17796173556429895
1140000000.0 -0.270920591706776 -0.03906733426948285
1160000000.0 -0.28359866615180307 0.09132331767490509
1180000000.0 -0.27954844443219584 0.16504894748121762
1200000000.0 0.2771612840156469 -0.19384905866358423
1220000000.0 0.14147018401833197 -0.3368982749974431
1240000000.0 -0.3088141351487338 0.24993184220992426
1260000000.0 0.41445220761529367 -0.048043680311195165
1280000000.0 -0.4182413692943675 -0.09156699702518828
1300000000.0 -0.24921429093159836 0.3416835914471492
1320000000.0 -0.3696012722796713 0.20270133216474212
1340000000.0 -0.3730825365999882 -0.2161449192441311
1360000000.0 -0.3516015053982144 0.25913196695143936
1380000000.0 0.19769623287284546 0.38097103572516555
1400000000.0 0.39753136167207515 -0.11684571632978227
1420000000.0 -0.1422627833749427 -0.3639692074008841
1440000000.0 -0.3643412603750122 -0.04525987981309132
1460000000.0 -0.18108235574195555 0.28145527914422136
1480000000.0 -0.025135984459544732 0.30968814611494544
1500000000.0 0.05154545547928932 -0.2797645893581564
1520000000.0 -0.21729295138583096 0.12696905411714796
1540000000.0 -0.06533204932313098 -0.19547770002700338
1560000000.0 0.16513386916648487 -0.011365657227645766
1580000000.0 0.1069899099977845 0.10283228861015896
1600000000.0 0.11278427598646176 0.05941364054258569
1620000000.0 0.07196105381844056 -0.06146298166416936
1640000000.0 0.059733804163737546 -0.016930750851685827
1660000000.0 -0.011828368337090582 -0.03312438527642303
1680000000.0 0.00930015015277218 -0.02365847856526619
1700000000.0 0.020741854184986554 0.002419932539601089
1720000000.0 -0.027550540571672697 -0.02509195032067652
1740000000.0 0.05813779997595093 0.013768480471650477
1760000000.0 -0.02783477419252117 0.07364898017276297
1780000000.0 -0.023399909633833916 -0.10214450373763158
1800000000.0 0.08066566373055904 0.10764844768889012
1820000000.0 0.13099674260352415 0.09694231912541099
1840000000.0 0.04209554338536382 -0.19861612420518868
1860000000.0 0.15831643491834174 0.18983690437734477
1880000000.0 -0.1678415636937081 0.2352879259050947
1900000000.0 -0.296848713980765 -0.12040638894054541
1920000000.0 0.34265575812530447 0.03548294700094232
1940000000.0 -0.1440089299405314 -0.33739125592592834
1960000000.0 -0.22335568353311178 0.3169325388564864
1980000000.0 0.35049573743352835 0.19278981285349084
2000000000.0 0.41240261751793683 -0.01747271519181484
2020000000.0 0.2592352522005244 -0.34017323095011154
2040000000.0 -0.3351620183005728 -0.280271599692643
2060000000.0 0.013339083723942794 0.43916361020839373
2080000000.0 0.37490458434994256 -0.20568642396178355
2100000000.0 0.02092811505311864 -0.40970911890440276
2120000000.0 -0.16423164795138087 -0.3544493480494197
2140000000.0 -0.03691833568343565 -0.3718358472214024
2160000000.0 0.32036810238851576 -0.1604539589673126
2180000000.0 0.23996529562880128 -0.24045814364971582
2200000000.0 0.16934916245748513 -0.27919546788491134
2220000000.0 -0.03310141723793466 -0.31281037710897136
2240000000.0 -0.2937861426254044 -0.08412499678083861
2260000000.0 -0.2871823110993097 0.07712955252631382
2280000000.0 -0.27731880398263886 -0.10608639519302665
2300000000.0 -0.3104150951331258 -0.03325233664240819
2320000000.0 -0.05969782900861752 0.3324392843089055
2340000000.0 0.273703257396105 -0.2507323873504386
2360000000.0 -0.23664972023799782 0.33264777752412533
2380000000.0 0.20048517353620057 -0.4026327896149878
2400000000.0 -0.2949063271384398 0.4010123070102475
2420000000.0 0.1495639128566535 -0.5304123766275612
2440000000.0 0.26400946431401695 0.5433816766947358
2460000000.0 -0.5790105920941552 -0.2960325012851013
2480000000.0 0.6851211321212729 -0.08670103792768404
2500000000.0 -0.6665310388097816 0.27396710397294843
2520000000.0 0.673858402071615 -0.3094636754407867
2540000000.0 -0.746106680234257 0.11013026616230254
2560000000.0 0.7397004761279373 0.17504110605897147
2580000000.0 -0.4979705211516318 -0.5704127416882989
2600000000.0 0.1506962194882212 0.7308554337867418
2620000000.0 0.12096566006315726 -0.7196748124842324
2640000000.0 -0.5646586309876837 -0.4230739756667894
2660000000.0 0.5557267216586411 0.3806910445959768
2680000000.0 -0.5343393754988763 -0.3454909602126642
2700000000.0 0.5008184000511441 0.3256103943692162
2720000000.0 -0.554754445843595 -0.051177774007875244
2740000000.0 0.5075147682088235 -0.09351410994893626
2760000000.0 -0.43984395053541225 0.18766360904783458
2780000000.0 0.44101178598051777 -0.0748468888831337
2800000000.0 -0.4216960462944171 -0.06380587803677458
2820000000.0 0.4134484428888164 -0.024917384431960052
2840000000.0 -0.3221331426252986 0.24383761406711355
2860000000.0 0.3252396100933119 -0.22648575006348062
2880000000.0 -0.3901359153388518 -0.0012807341017519968
2900000000.0 0.20764939534245075 0.3266119898039438
2920000000.0 0.35121046691601066 -0.1561185646779244
2940000000.0 0.20548545107906274 -0.32270652255916565
2960000000.0 0.21750358262087155 -0.31320812347487054
2980000000.0 0.34476218205886433 -0.1564907442085672
3000000000.0 0.15807722498634505 0.34792319206305955
3020000000.0 -0.17885388842218064 0.3372038018864492
3040000000.0 -0.3326237393285917 -0.17109918495926527
3060000000.0 0.2626299500720189 -0.2502939564715496
3080000000.0 -0.17662353505634437 0.3017816759404938
3100000000.0 0.30349037780000204 -0.15008115920766438
3120000000.0 -0.21789849326480748 0.24881567933655394
3140000000.0 -0.15749431742637998 -0.27587174522957014
3160000000.0 0.2653039543370015 -0.12995203545462847
3180000000.0 -0.1857245595192148 -0.19138709425889475
3200000000.0 0.05625412175425915 0.2317443533377113
3220000000.0 -0.0014163731449049672 -0.20941790203361804
3240000000.0 -0.13582138954113152 0.11482070044937932
3260000000.0 -0.056143048326504394 0.13716241267185314
3280000000.0 0.019212311193590136 0.1165484005528065
3300000000.0 -0.0830277590126444 0.03244502790773763
3320000000.0 -0.021130463579892216 -0.05793679968284818
3340000000.0 0.011919547565500654 -0.04365569866584344
3360000000.0 -0.031133222476713525 0.02793812669471211
3380000000.0 0.04316098491935934 -0.013689408220165102
3400000000.0 0.041821645701409 0.010763975978228688
3420000000.0 0.013310637089598204 -0.02630827093521363
3440000000.0 0.013172655148966532 -0.005349837885704284
3460000000.0 -0.018187264629344675 -0.004452043838950035
3480000000.0 -0.020945449823579314 -0.012562468898251007
3500000000.0 0.024807855980953517 0.01302793965463307
3520000000.0 0.020682096923724348 -0.02514054057937371
3540000000.0 0.032612924123279735 0.03148530699332249
3560000000.0 -0.05629452516659753 -0.020393864007301962
3580000000.0 0.0059075780796757245 -0.06643490336282312
3600000000.0 -0.010577251370288226 0.07494353663516046
3620000000.0 0.05058280273311423 -0.06532816979983723
3640000000.0 -0.08104728741235645 0.03106687436602941
3660000000.0 -0.03295787357655479 0.08536722443187796
3680000000.0 0.09788135166342568 0.010118016914821771
3700000000.0 -0.028559454225135294 0.09608285126647087
3720000000.0 -0.03415326696944314 -0.09158921093066347
3740000000.0 -0.0019430104870890158 -0.08923599767156948
3760000000.0 -0.04849873111224114 0.0776190161592929
3780000000.0 0.04276522360986909 0.09547336988665113
3800000000.0 -0.09059063422156989 0.07718774022443306
3820000000.0 -0.041899233841737514 0.13041640399923854
3840000000.0 0.14549335074091224 -0.04923778334470466
3860000000.0 -0.022726165752885486 0.1719656574126947
3880000000.0 -0.16102311492019122 0.09313833039398679
3900000000.0 -0.03457634379248115 -0.19047108533643728
3920000000.0 0.1966200271459627 -0.04061886224995465
3940000000.0 0.018350461179743465 0.20679546566202542
3960000000.0 0.035476783579764776 0.2125410304483712
3980000000.0 0.20625630028941067 -0.06428514120770407
4000000000.0 -0.030962852262311425 -0.20123053364175927
