!Created with skrf (http://scikit-rf.org).
# Hz S RI R 50.0 
!freq ReS11 ImS11
400000000.0 0.6498571273857601 -0.4938233574829978
420000000.0 0.6986629288256281 -0.433839269988226
440000000.0 -0.39137054394121906 -0.6702603271072878
460000000.0 0.32706249493280753 -0.6388686824621392
480000000.0 0.1047146994519058 0.6629025333618858
500000000.0 0.6118185175143708 0.20410449475585807
520000000.0 0.5495162380774344 0.15726313639653908
540000000.0 -0.4839077916765733 0.1165338820678221
560000000.0 -0.26053743290212444 -0.3926269268461478
580000000.0 -0.237934292787131 0.34733196752223516
600000000.0 0.2670327299380463 0.2632893114376145
620000000.0 0.38178188248237027 -0.03402880648295492
640000000.0 -0.4121882267247853 0.04629528909899926
660000000.0 0.32385570310414713 -0.30366955198885737
680000000.0 -0.43353416127317873 -0.11043322719007741
700000000.0 0.32301869003293027 0.29312971519027725
720000000.0 0.26260154792031704 -0.3402849220486619
740000000.0 0.14444083966613772 -0.3747568762519396
760000000.0 0.1139003188153826 -0.3548227544096982
780000000.0 0.28002875552506457 -0.16696113352747594
800000000.0 -0.11333575430536867 0.2664141144718856
820000000.0 -0.031023819597579685 0.2377276136864515
840000000.0 -0.1602269310031489 -0.11347491148060446
860000000.0 -0.11175784783122322 0.13706582443268192
880000000.0 0.13152824355829795 -0.058095929300677814
900000000.0 0.050817992148354016 0.1043519641396571
920000000.0 0.051871600882884006 0.05296711149747372
940000000.0 -0.048805119521156085 -0.013348197418604088
960000000.0 -0.06681332162109048 -0.0006163273397187258
980000000.0 0.04482023800953943 -0.05767564336134927
1000000000.0 -0.05152338695349886 0.06507608264251316
1020000000.0 0.039917987766184805 0.09603300436653865
1040000000.0 0.05423830289691502 -0.10386947272036262
1060000000.0 0.15053706221500743 -0.038887763514834923
1080000000.0 -0.17964697453585404 -0.06542803982207072
1100000000.0 -0.20305327338248716 0.08849348243415499
1120000000.0 -0.20157518721573361 0.16130839238458355
1140000000.0 -0.20446474833401973 -0.19888301589443705
1160000000.0 -0.021207464974549985 0.3165431779916716
1180000000.0 0.3323942280898493 -0.01890522668353047
1200000000.0 -0.23749455015165938 -0.24510352510507363
1220000000.0 -0.2768464349491959 0.2335276536547945
1240000000.0 -0.08995335057509148 0.3710430397267537
1260000000.0 0.4031772847447204 -0.015530853155625829
1280000000.0 0.2641071515045733 -0.3213135489464046
1300000000.0 -0.2786717091254695 -0.32397219671686023
1320000000.0 -0.3466391456684433 -0.253076776342386
1340000000.0 -0.39684723949621203 -0.18633859916190842
1360000000.0 -0.3151910856542452 0.30139545597039347
1380000000.0 -0.16276358142031608 0.39786080431557147
1400000000.0 0.4095960846867886 0.09949422665561848
1420000000.0 -0.1541953896656633 -0.3685004371060896
1440000000.0 -0.27102013248084916 0.25209245784909273
1460000000.0 0.05741458151522525 0.3307711390383796
1480000000.0 0.25497014358721376 0.16815972916083072
1500000000.0 0.18395275053654994 -0.20975381901467804
1520000000.0 -0.2473582983083121 -0.05082445475022563
1540000000.0 -0.16891115044815097 -0.12673127441055596
1560000000.0 -0.14844223751631574 0.068865830479631
1580000000.0 0.08126004852241185 -0.10538705965335132
1600000000.0 0.100491648331896 -0.05067033399974336
1620000000.0 -0.021486719792812175 -0.091027067409569
1640000000.0 -0.06608930779211432 0.03656294928943241
1660000000.0 0.006152319767360787 0.04744670091982494
1680000000.0 0.019892620657532518 -0.006204151676646485
1700000000.0 -0.004961532897460404 -0.01624869834079317
1720000000.0 -0.02195602912089743 -0.035599696954381276
1740000000.0 0.0258731032299234 -0.060715904846588974
1760000000.0 -0.0596102703921695 0.05219826492922658
1780000000.0 -0.09419469114419737 0.010428061245232469
1800000000.0 0.1159907575305101 -0.05582325613347393
1820000000.0 -0.1638107783780852 0.04490095759185569
1840000000.0 0.0676937812551718 -0.1975670967643164
1860000000.0 0.2390543910896007 -0.07489909466335948
1880000000.0 0.10901057726847652 0.2613395669285935
1900000000.0 -0.17958653761968285 -0.25728758101051186
1920000000.0 0.11794415222225872 0.3220165996876327
1940000000.0 0.3011443610630676 -0.21839858534126164
1960000000.0 -0.2919763202722295 0.2735763984449909
1980000000.0 0.3284643062215075 -0.2478747659358262
2000000000.0 -0.24462029516415806 -0.33760693795367075
2020000000.0 -0.41761049639854886 -0.020164113339417047
2040000000.0 -0.4115276016973051 -0.06675782140283301
2060000000.0 -0.406450557183538 -0.10410161336289003
2080000000.0 -0.3702143673161853 0.20938701517440217
2100000000.0 0.4214556071493776 0.024973718479268638
2120000000.0 -0.15460878206757345 -0.37166274470650146
2140000000.0 -0.3652448585419025 -0.10631819930308711
2160000000.0 -0.01033818792406167 -0.35775316424522347
2180000000.0 -0.04653836816787383 -0.33463702613889373
2200000000.0 -0.1593932793004286 -0.27849340939917183
2220000000.0 -0.08927554983511243 -0.2923283224587504
2240000000.0 -0.08137034316659633 -0.28958059098093275
2260000000.0 -0.24183070346813065 -0.17598955769834498
2280000000.0 -0.3028825062781412 0.002308465187170649
2300000000.0 -0.20909581098232807 0.23200658705711474
2320000000.0 0.03207339563635317 0.333232844304449
2340000000.0 0.2736340535931878 -0.24923425163183774
2360000000.0 -0.2737626400893262 0.3027679106152477
2380000000.0 0.3063986709071209 -0.33108979822610063
2400000000.0 -0.3616985604464485 0.34557938176654124
2420000000.0 0.25612467361098884 -0.49189450830251397
2440000000.0 0.18484763092343795 0.5777742987114833
2460000000.0 -0.5600674833255568 -0.3355735339123736
2480000000.0 0.6909274598555164 -0.051221761731272124
2500000000.0 -0.6991438498659818 0.1840277315527685
2520000000.0 0.677054835302827 -0.31038040727971294
2540000000.0 -0.7395908135320998 0.16562462011342188
2560000000.0 0.7189850970047768 0.25943592154925255
2580000000.0 -0.5186981849756201 -0.5575341426038137
2600000000.0 0.057001636489929855 0.748569062812687
2620000000.0 0.27391084503843566 -0.6803517277150083
2640000000.0 -0.4389534724361231 -0.5577378504277731
2660000000.0 0.3825280656549399 0.5595699723697888
2680000000.0 -0.383892768705191 -0.5137700458326723
2700000000.0 0.384845433637217 0.46379137920220737
2720000000.0 -0.4991722951609143 -0.2597768308096171
2740000000.0 0.515028827310439 0.08604117612010322
2760000000.0 -0.485074891726475 0.010678957942310347
2780000000.0 0.42958518552676017 -0.1472954981131422
2800000000.0 -0.411610447349347 0.12538251651963941
2820000000.0 0.37283850634531673 -0.18003740291778508
2840000000.0 -0.3508961825485574 0.1981236947657129
2860000000.0 0.3299313680688339 -0.2164927773496658
2880000000.0 -0.36635866324454786 -0.11945345248722988
2900000000.0 -0.2747004858259816 0.265728774039489
2920000000.0 0.09278505131617967 0.3754918303247936
2940000000.0 0.3899500305330774 -0.009727176924040855
2960000000.0 0.30395682104216004 -0.2406779148366555
2980000000.0 0.33476273853486227 -0.19356352972555133
3000000000.0 0.38022962456719467 -0.043368759312867954
3020000000.0 0.14154107931152501 0.34757044832227274
3040000000.0 -0.34395151923243567 -0.1274558048209266
3060000000.0 0.35814017419864114 0.02945160342672051
3080000000.0 -0.3506858641870841 -0.004965946878883673
3100000000.0 0.32821639873765274 0.09301233777939519
3120000000.0 -0.3125167575347003 0.11499337591952388
3140000000.0 -0.03760234433161778 -0.31502670741810956
3160000000.0 0.14404170888445889 0.2581912784907211
3180000000.0 0.126636453254547 -0.24295319298826293
3200000000.0 0.21084151303292492 0.12557967155685484
3220000000.0 -0.17188283784496303 0.1211048609342441
3240000000.0 0.17034326144845108 -0.03493480898730484
3260000000.0 0.050983930410804595 -0.12736683020614417
3280000000.0 -0.04788752598595168 0.09106278451447956
3300000000.0 -0.07690636496447922 -0.0236355215055997
3320000000.0 0.03462902659356264 0.053763681072493
3340000000.0 -0.028020799711685713 -0.04215735018608
3360000000.0 0.026186923127874635 0.028902072078891682
3380000000.0 -0.025743956324432597 0.023458909668801667
3400000000.0 -0.02511519417160219 0.02404982608428371
3420000000.0 0.03110569140320361 0.01099399117229229
3440000000.0 0.027172317601006215 0.00033428874178240223
3460000000.0 0.012354862941630181 -0.010489658542919467
3480000000.0 0.0100880024447766 0.007186843879846909
3500000000.0 -0.010467423508046175 0.02565040253619825
3520000000.0 -0.014438128740135522 -0.037954050302294665
3540000000.0 0.03610329331312553 -0.04026979081203547
3560000000.0 0.0492460457086346 0.03315017519840509
3580000000.0 0.05892881417915595 0.0314284400023128
3600000000.0 -0.05887366824374176 -0.049654875072159946
3620000000.0 0.06711713565589833 -0.04983698938767745
3640000000.0 -0.06907524156464993 -0.05025775125591499
3660000000.0 -0.09072990512240821 -0.010194412322150745
3680000000.0 0.036732501433925674 0.08737125912712422
3700000000.0 0.09532390220211916 -0.010412845258634545
3720000000.0 0.06754869992593274 -0.07251588529808695
3740000000.0 -0.058989325612771974 0.07956250855074662
3760000000.0 0.09391627190918726 -0.019257122409284032
3780000000.0 -0.06503273563657089 0.0759875864965835
3800000000.0 0.017782556446889187 0.11642769900795778
3820000000.0 0.03442288568171631 0.13687764934438185
3840000000.0 -0.15382825712095732 0.03810156785386944
3860000000.0 -0.009232628147854454 -0.171428153301647
3880000000.0 0.15761735399071744 0.09402678933999958
3900000000.0 -0.09005009896134457 0.1745232050798729
3920000000.0 -0.08869301514406945 0.1850126529840091
3940000000.0 -0.06975585606349843 0.197473475238147
3960000000.0 -0.08404773989030648 0.19129798585854701
3980000000.0 -0.0910018371839686 0.1801448865417754
4000000000.0 -0.11989509317764623 -0.14695014083643007
