!Created with skrf (http://scikit-rf.org).
# Hz S RI R 50.0 
!freq ReS11 ImS11
400000000.0 0.7400848196203001 -0.3492972975745027
420000000.0 0.578205863540543 -0.5941309985510473
440000000.0 -0.5114508176141227 -0.5821759053285953
460000000.0 -0.06625435644199595 -0.7126035144130316
480000000.0 -0.13258162406012636 0.6473144033284759
500000000.0 0.3900351218074541 0.5129507165587611
520000000.0 0.2219220993851757 0.5372151575488736
540000000.0 -0.0128097982058191 0.5093704940785054
560000000.0 -0.35820068950387896 0.29923336451149085
580000000.0 -0.35884113125786954 0.18841826366572895
600000000.0 -0.010951835961973395 0.37503480477478407
620000000.0 -0.09393472410617176 0.367461758808827
640000000.0 -0.4153073110794633 0.07984261951212786
660000000.0 0.30310599547717815 -0.3331015627143969
680000000.0 -0.4022524471675382 0.2137567469568424
700000000.0 0.3941691958448446 -0.18168345534175304
720000000.0 -0.11964514809734754 -0.4069954056455815
740000000.0 0.1548902545561437 -0.36254950443626244
760000000.0 0.35178932271596475 -0.09915900989063073
780000000.0 0.3327082729363361 0.013125191256156818
800000000.0 0.18981979662237397 0.2021669359177703
820000000.0 0.23177503417606207 0.07435798219567438
840000000.0 -0.19238794481810004 0.07827323411636346
860000000.0 -0.1229957761859906 -0.13768104185633837
880000000.0 0.059472431412945566 0.13109733780278024
900000000.0 0.03940884454310175 -0.10023348084720969
920000000.0 -0.06950699018585645 0.0057599120766110914
940000000.0 0.016711216157752857 0.05302372191530322
960000000.0 -0.058337681295183255 0.022224407831787737
980000000.0 0.08513177398365232 -0.023576250109765357
1000000000.0 0.019640226767548414 0.09155607844471572
1020000000.0 -0.09893330983164651 0.024024980140108246
1040000000.0 -0.11135003701458619 0.025649710767549447
1060000000.0 -0.03653937412950453 0.14241173548267994
1080000000.0 0.15003815776101853 0.1269774291518976
1100000000.0 -0.06372954002955822 0.2288707565339912
1120000000.0 0.2634718020810827 -0.016442116217169688
1140000000.0 0.246394196197463 0.13134338157579004
1160000000.0 0.008457152608963132 0.2969842535089843
1180000000.0 -0.21912537330949206 0.24329208722025528
1200000000.0 0.27074616194559337 -0.21318200616091626
1220000000.0 -0.3638517212896672 0.09565493461382289
1240000000.0 0.3305611417111839 -0.1925554568938463
1260000000.0 0.39157644063921304 -0.02787518639939587
1280000000.0 0.4096082410157501 -0.04685989154238676
1300000000.0 0.3375416171248343 -0.2686387096204209
1320000000.0 -0.4406598759491195 -0.031791211700068316
1340000000.0 -0.4045405672088822 0.16011721462759224
1360000000.0 -0.3458627371454117 0.2669793383151301
1380000000.0 -0.09161770188709806 0.4193064527165721
1400000000.0 0.4221965897960699 -0.029836576236302183
1420000000.0 -0.36102841752634873 -0.16072328131998234
1440000000.0 -0.3281791619918758 0.1572939839385979
1460000000.0 -0.17551255383468717 0.28435531556774246
1480000000.0 0.05769296197717087 0.30387755480671735
1500000000.0 -0.12253945050240894 -0.257659246258728
1520000000.0 -0.0983061138572271 0.22459976657384664
1540000000.0 -0.07518558149078594 -0.1914773279412138
1560000000.0 0.03831716542545129 -0.15421192540879675
1580000000.0 -0.11274902255288495 0.0789913848313374
1600000000.0 0.11473147042703044 -0.042933468008345216
1620000000.0 0.08773595719297188 -0.04554707442261808
1640000000.0 0.04576645204811595 0.05474933756714169
1660000000.0 0.030851355104671224 -0.020498686454980864
1680000000.0 -0.0016158653470728505 -0.02453724566372499
1700000000.0 0.016905809334840986 0.004167131955353776
1720000000.0 -0.0024261571728947905 0.0313702175437689
1740000000.0 -0.04387542205356465 -0.033301055946667046
1760000000.0 0.020127465377314184 0.08346617491072707
1780000000.0 -0.02480656987276142 -0.10950324621154793
1800000000.0 0.13917879895341442 0.016710106024035783
1820000000.0 -0.08007127839537127 -0.14596862970908445
1840000000.0 -0.0654546881269744 -0.18833821056269662
1860000000.0 0.1373085579274801 0.20389668024199462
1880000000.0 -0.20722435586379725 0.1976992900233414
1900000000.0 -0.0767689745076239 -0.3128683250153852
1920000000.0 0.33718762157328996 0.09238560139148676
1940000000.0 -0.09775828218330866 -0.3585726889310355
1960000000.0 -0.13888179613001456 0.3663739124037379
1980000000.0 0.4030792546173863 0.05267411008483406
2000000000.0 0.06430111215038166 -0.41105817280331164
2020000000.0 -0.2289194484528748 -0.3506598344793452
2040000000.0 -0.29376517212539577 -0.3063552104395773
2060000000.0 -0.3912929408144882 0.17951038547270934
2080000000.0 0.23769405415675743 0.35473851395071954
2100000000.0 0.3186246414237547 -0.2662738976163417
2120000000.0 -0.06237944983920346 -0.3918952024988567
2140000000.0 -0.25183699636670226 -0.28513940850112174
2160000000.0 0.055087522321241644 -0.3580047337582456
2180000000.0 -0.2791628205533448 -0.19393302902364148
2200000000.0 -0.28333309987852057 -0.14400435366191522
2220000000.0 -0.03139847243882599 -0.30276407770831704
2240000000.0 0.051715156955192444 -0.29780806317634334
2260000000.0 -0.04684466845659348 -0.3001568413433478
2280000000.0 -0.30540454275032397 -0.0604085893724545
2300000000.0 -0.05736237478994602 0.31660208170815757
2320000000.0 0.31180569491780696 0.13568583533873502
2340000000.0 0.021440265587243924 -0.3704099430209233
2360000000.0 -0.2611640676448553 0.3148540844115594
2380000000.0 0.3218281754265623 -0.3233040948800652
2400000000.0 -0.23485304454520614 0.4499680653632466
2420000000.0 -0.13892209392141078 -0.5440978939930375
2440000000.0 0.5399592458017802 0.2884234296323528
2460000000.0 -0.6412473982929113 0.14817255068759444
2480000000.0 0.4444336299263389 -0.5362447792375703
2500000000.0 -0.37290444382078314 0.6216193824460045
2520000000.0 0.4969546247173723 -0.5563275742317454
2540000000.0 -0.6674721410826514 0.35817884358952784
2560000000.0 0.7372339249513858 -0.19974955734775374
2580000000.0 -0.7371772071588231 -0.18580894201973752
2600000000.0 0.5843384902607948 0.4667791075479565
2620000000.0 -0.37687617111685023 -0.6252734640258004
2640000000.0 -0.7049742471362944 0.013543106698484821
2660000000.0 0.6527683385250999 0.16356226213317837
2680000000.0 -0.5575407983598072 -0.3088273602698306
2700000000.0 0.4816009510091099 0.36016991118612796
2720000000.0 -0.5406295137652144 -0.15358675410005332
2740000000.0 0.495170946426988 -0.15887359277362614
2760000000.0 -0.4216597572664185 0.23236509890571141
2780000000.0 0.3493761235966548 -0.28214126175098503
2800000000.0 -0.2931933288639032 0.30622613530038306
2820000000.0 0.2641657461973224 -0.3108169003753071
2840000000.0 -0.3008064273518565 0.2563786251378917
2860000000.0 0.3879013475809596 -0.002399005797088343
2880000000.0 -0.24003917901888458 -0.2985074092786404
2900000000.0 -0.3406504977425571 0.17501888237438845
2920000000.0 0.2600992682577308 0.29021082491150557
2940000000.0 0.1953049517162439 -0.3363947769078977
2960000000.0 0.07403057374783077 -0.37910057871899566
2980000000.0 0.22238408793388262 -0.31007091390468017
3000000000.0 0.3678170474689718 -0.09184514912919148
3020000000.0 0.1184487401123628 0.3548269230978349
3040000000.0 -0.3588464864092615 -0.07860451204683283
3060000000.0 0.34908969426451025 -0.07079442829108365
3080000000.0 -0.3292570331012684 -0.11458296142010468
3100000000.0 0.32855300540653515 0.09571246824432157
3120000000.0 -0.316965123241621 0.10521346538036207
3140000000.0 0.008357264954478087 -0.3195698355641556
3160000000.0 0.29440042044971604 0.05533471290103948
3180000000.0 -0.23537035618358915 -0.13625930366087335
3200000000.0 0.23897514592123556 -0.004344628926934871
3220000000.0 -0.20409270917960623 -0.009641600628852439
3240000000.0 0.0776553860217314 0.15174825145214063
3260000000.0 0.11872798556397338 0.06861605038828043
3280000000.0 -0.05412250925012062 0.09135826475744936
3300000000.0 -0.0451676316569995 0.0651933530103504
3320000000.0 -0.05811699989984826 0.022266975776300414
3340000000.0 -0.042234441108429284 0.03152989969312439
3360000000.0 0.016218761485839596 0.04119973669366277
3380000000.0 0.02214670329127453 -0.02570438034715576
3400000000.0 -0.03407614497457196 -0.0062037948141505615
3420000000.0 0.007669359161915998 0.03247681019215397
3440000000.0 0.005895644093674025 0.02857064312533696
3460000000.0 0.014924457849047482 0.013231881233812377
3480000000.0 0.0012242451762112597 -0.01073089378248735
3500000000.0 0.020389069381398717 0.007944681784493073
3520000000.0 -0.029455032367503933 -0.02253676665901103
3540000000.0 -0.05010407155458791 0.001979388032287786
3560000000.0 -0.006642096565539826 -0.055077284234458984
3580000000.0 0.051248779546800564 0.03606276670884311
3600000000.0 0.01950869622607049 -0.07272642828913152
3620000000.0 0.05976735337681123 -0.06294423149627691
3640000000.0 -0.038451256869744994 0.07713675186601916
3660000000.0 -0.01789976068016816 0.0855525937254781
3680000000.0 -0.08098874816016424 0.04102850118868108
3700000000.0 0.06737655191340972 0.06619089309491752
3720000000.0 -0.08655303744091851 0.04597537968251474
3740000000.0 0.05898196830811495 0.07241191186549759
3760000000.0 0.09094742012092721 0.025023144210255706
3780000000.0 -0.03553300252975112 0.09808419221347536
3800000000.0 0.06637683542124805 -0.10121286668550053
3820000000.0 0.13499129955895237 -0.043382540669153244
3840000000.0 -0.12975804475665215 0.09535139431705895
3860000000.0 0.05291577750264754 -0.1635574157327594
3880000000.0 0.017307974547817923 0.18397948009817622
3900000000.0 -0.16582145794569278 0.1090433183613159
3920000000.0 -0.05106223843312075 0.1981055258699415
3940000000.0 -0.10476033377161934 0.1787043175571267
3960000000.0 -0.18266320440433922 0.10405498798618841
3980000000.0 -0.18924973015755076 0.08848503801967775
4000000000.0 -0.1802044590894657 -0.086509479865898
