!Created with skrf (http://scikit-rf.org).
# Hz S RI R 50.0 
!freq ReS11 ImS11
400000000.0 0.794284002087296 -0.22737067196905833
420000000.0 0.3246994001207399 -0.7662116976976313
440000000.0 -0.5467101158698502 -0.5506235352259458
460000000.0 -0.3464535972646314 -0.6334738974928729
480000000.0 0.5111995316953813 0.40828301880751394
500000000.0 0.5106338131650058 0.37989396308078693
520000000.0 0.34303296306788844 0.45001322876273236
540000000.0 -0.4678640969685233 -0.16285402869591517
560000000.0 0.08267069345769765 -0.4617821736664078
580000000.0 -0.28706961859127017 -0.30287177281198285
600000000.0 -0.13358948702177584 0.3579524346396099
620000000.0 0.38461419565257593 0.03030604012609137
640000000.0 -0.35407365412814273 0.21644940210419053
660000000.0 0.39584867631836257 -0.197919562548145
680000000.0 -0.13095274838634544 -0.435977111249516
700000000.0 0.44760572166391477 0.02437941917197788
720000000.0 -0.407136573046992 -0.15126423738071978
740000000.0 -0.3221360918645708 0.22449468942227205
760000000.0 0.14277746841787295 -0.3232812554593608
780000000.0 -0.19212011578330976 0.25271248888929765
800000000.0 -0.185508719054057 -0.22850656388079033
820000000.0 -0.24380927579844688 -0.03618890071183435
840000000.0 -0.05570224051668428 0.19530132917215695
860000000.0 -0.12438971790888378 0.12019878115113015
880000000.0 -0.05949739480776496 0.13444686442488896
900000000.0 -0.07358947389640699 0.09980236334870013
920000000.0 -0.06846212770395214 0.0568464737296124
940000000.0 -0.036513914721633005 0.05380794233469699
960000000.0 0.01914791371330838 -0.0609992262183159
980000000.0 0.07978438386990037 -0.012178005573370393
1000000000.0 -0.04896139119881195 0.06471602911583596
1020000000.0 -0.025581372695129306 -0.08515547761381309
1040000000.0 0.10889061684271059 0.010500670373884321
1060000000.0 -0.1479978468402542 0.02132488273326129
1080000000.0 0.1944248518496025 0.025415457459965703
1100000000.0 -0.18176109008931232 0.13333271584132278
1120000000.0 -0.2515855488196009 0.055190085265398627
1140000000.0 -0.038834539338845744 -0.28856700678914937
1160000000.0 0.2972674079752817 0.12347848136256381
1180000000.0 0.08228024246366937 -0.3231672610729174
1200000000.0 0.02125494359697446 0.3291263387830348
1220000000.0 -0.10234648429073587 -0.32701643277148096
1240000000.0 -0.13129511054794676 -0.3617488068907521
1260000000.0 0.09484298357934383 0.40949532426030844
1280000000.0 -0.37012717674062334 -0.22879659277173617
1300000000.0 0.06449895344247565 0.4143590884820558
1320000000.0 -0.31476882884657365 -0.2723554032968786
1340000000.0 0.16122095360312602 -0.4037941013400774
1360000000.0 -0.4477161121517074 -0.00679249080136081
1380000000.0 0.26507593567400806 0.34758215786253516
1400000000.0 0.27566851955247024 -0.3138829272644343
1420000000.0 -0.2280512258385527 -0.32003358404385385
1440000000.0 -0.34699768161912586 0.11296695519423869
1460000000.0 -0.21218070345167342 0.2550987192749291
1480000000.0 -0.14682039357933754 0.27475504411961604
1500000000.0 -0.07021901843634645 -0.27727140110095966
1520000000.0 -0.008167041688407494 0.2483029163595123
1540000000.0 -0.09820613407254211 -0.1792990773900655
1560000000.0 -0.10817256429741366 -0.12071902239267995
1580000000.0 0.07304659588416887 -0.11659699973227254
1600000000.0 -0.056127229492479086 -0.0921269385858879
1620000000.0 0.011857578882999716 0.089885629230117
1640000000.0 0.00748365333083218 0.07669201061391447
1660000000.0 0.0017300426281902377 -0.055867335261608926
1680000000.0 -0.019323195049397335 0.019311263351656286
1700000000.0 -0.010005929187497369 -0.004249100752905061
1720000000.0 0.029910993440240063 0.004442835490201133
1740000000.0 0.057553450477295945 -0.013664069313937816
1760000000.0 0.08613637253461816 -0.01776818043732377
1780000000.0 -0.044689967931224595 0.0989455324923551
1800000000.0 0.11697973175739808 -0.06360235815993344
1820000000.0 0.0492136184156895 0.15176570754318658
1840000000.0 0.13617651995213523 0.15744499747031146
1860000000.0 0.21168600885209413 0.14829411409127494
1880000000.0 0.2712583459813662 0.11397374292111563
1900000000.0 -0.0846662190672794 0.30403620469558035
1920000000.0 0.3293335612357138 0.06919340932410575
1940000000.0 0.23223620897463554 -0.2801588249287723
1960000000.0 -0.3800220323486375 -0.10439039983040878
1980000000.0 0.4082505507561215 0.05476884527392599
2000000000.0 -0.08731070226373296 -0.40810263704885197
2020000000.0 -0.3379918277111617 -0.24038766986407584
2040000000.0 -0.1837346467258029 -0.3775332415262961
2060000000.0 -0.39474448813863355 -0.16779426761739266
2080000000.0 -0.068694251363193 0.42486495676129726
2100000000.0 0.30592936813143945 -0.2922707915697448
2120000000.0 -0.3967090467505886 -0.04862467073132802
2140000000.0 -0.3210966116679873 0.19141246438959605
2160000000.0 -0.0101187053033571 -0.35050372515048706
2180000000.0 0.18789719394231938 -0.27777231528816504
2200000000.0 0.019305020201616327 -0.32289296935010153
2220000000.0 -0.11989393087950398 -0.28771416782686365
2240000000.0 -0.23914138038336802 -0.18691233932260984
2260000000.0 -0.27841802164847157 -0.11037057411370645
2280000000.0 -0.29225356371045036 -0.07880246312564758
2300000000.0 -0.2708001360405181 0.1641080910922682
2320000000.0 0.09039382384398252 0.33082983274963546
2340000000.0 -0.03951090974023302 -0.37263387079047394
2360000000.0 -0.08294089194935254 0.3981085621039344
2380000000.0 0.2712260551970687 -0.36049799076752465
2400000000.0 -0.37552227423850154 0.33220520554826954
2420000000.0 0.26712017180420944 -0.4862346440896314
2440000000.0 0.14691176387679533 0.5900808665728642
2460000000.0 -0.5780578734410682 -0.30633061331081934
2480000000.0 0.6874277982511617 -0.08976220972578287
2500000000.0 -0.6500858922540055 0.3164950217485254
2520000000.0 0.68386593818914 -0.29505543317181976
2540000000.0 -0.7573392274964719 -0.031299859498894966
2560000000.0 0.7205471693532386 0.25378831886661996
2580000000.0 -0.3101725137300786 -0.6954972013847579
2600000000.0 -0.1604030709462345 0.7332884430542798
2620000000.0 0.4346395512455618 -0.5905367665319361
2640000000.0 -0.4018808954876318 -0.5846025296970918
2660000000.0 0.3783341958753759 0.5611131835873652
2680000000.0 -0.3675053661051564 -0.523399846372431
2700000000.0 0.2669663414999185 0.5398843635514715
2720000000.0 -0.272168484388314 -0.49567441831405223
2740000000.0 0.4660971781729623 0.24672008159549336
2760000000.0 -0.477164808932697 0.11000894332858321
2780000000.0 0.3217970035697769 -0.32404396299678084
2800000000.0 -0.31914784513499883 0.2858546442453027
2820000000.0 0.3520904171524244 -0.20949170534162262
2840000000.0 -0.38084237368669643 0.11304820803411336
2860000000.0 0.3611057318307829 0.15217051195022868
2880000000.0 -0.06788083400592712 -0.38522783099651914
2900000000.0 -0.26332628170298156 0.28676240863905383
2920000000.0 0.3205362782960784 0.2204893553249669
2940000000.0 0.3274884340003882 -0.20807244137660225
2960000000.0 0.12654021924223263 -0.36024840008797465
2980000000.0 0.35470078405495287 -0.129005981198801
3000000000.0 0.20466022770408723 0.320943917911804
3020000000.0 -0.11715453649254261 0.3608862905547735
3040000000.0 -0.37051816564852913 -0.004975199064168833
3060000000.0 0.22147277101531165 -0.2807938851139346
3080000000.0 -0.22488375437852087 0.26257153326480315
3100000000.0 0.3330967304735458 -0.03689112724727225
3120000000.0 -0.3223631159948096 0.05644336600142254
3140000000.0 0.2175378144583479 -0.22909002803122447
3160000000.0 0.24014397941655571 0.1803991690466679
3180000000.0 -0.2205828720966742 -0.1629790260364805
3200000000.0 0.18722752068737425 -0.15612360723699792
3220000000.0 -0.04120998947383424 0.2025384522768696
3240000000.0 0.13071394684717286 0.1097092764474224
3260000000.0 0.11188974336960819 0.08573870551822307
3280000000.0 0.01670410973532119 0.1087273279921304
3300000000.0 0.0792781793457972 0.025514671729264485
3320000000.0 -0.045572571327454965 0.04057670432343127
3340000000.0 0.0027233993991377407 0.047073065232612496
3360000000.0 0.040792815497751905 0.005804300546537554
3380000000.0 0.004957697989875385 0.04006062391075179
3400000000.0 -0.019572988549020943 -0.03192028458035756
3420000000.0 0.03325530392853481 0.0028944183973967533
3440000000.0 -0.01246529819182524 0.021231288227079946
3460000000.0 -0.011462371038822118 0.004749398535342441
3480000000.0 0.01020330366224848 -0.01577821350730747
3500000000.0 -0.025830547120670976 -0.015469081510165312
3520000000.0 0.0368248552110404 -0.011834801950930228
3540000000.0 -0.04321475861288068 -0.030804697504472112
3560000000.0 -0.03192557255011337 -0.05056466880234923
3580000000.0 -0.04745482952959899 0.043833990318645495
3600000000.0 -0.028306864372209896 0.06756769010835947
3620000000.0 0.04531734414503353 0.06816322576860408
3640000000.0 0.08597419164565517 -0.034106031703758775
3660000000.0 0.06805404569066073 0.07626868058497134
3680000000.0 0.055066620586920814 0.08443233711184983
3700000000.0 0.07374052157145794 0.05674409863794476
3720000000.0 -0.04962049979254268 0.08044809687240656
3740000000.0 -0.017357410204916057 0.09022797524922047
3760000000.0 -0.03932017394419592 0.08652666441463418
3780000000.0 -0.030612895808512567 0.09988270663888946
3800000000.0 -0.0831167317844915 -0.0838519593493919
3820000000.0 0.06871516892895724 -0.11712467720651738
3840000000.0 -0.11412267330131183 0.10263325556419109
3860000000.0 0.10154743466558722 -0.1382749854278941
3880000000.0 0.17452785294670678 0.07179802243201631
3900000000.0 0.19617212075794052 0.02458762215367891
3920000000.0 0.13995583638401246 0.13790881539376001
3940000000.0 -0.1818944232013821 0.0804894936900581
3960000000.0 -0.16880504559509554 -0.11392255306727021
3980000000.0 -0.20137158433348207 -0.04626541713425237
4000000000.0 -0.18470645916983716 -0.07207254748234176
