!Created with skrf (http://scikit-rf.org).
# Hz S RI R 50.0 
!freq ReS11 ImS11
400000000.0 0.7922323428715186 -0.22194365773126412
420000000.0 0.29924252745105395 -0.7743388471818848
440000000.0 -0.4270384886144298 -0.6491787652104142
460000000.0 0.05021698463193309 -0.719774407460008
480000000.0 0.665150566650566 0.005394291073292195
500000000.0 0.6108003401315006 0.16650299005698976
520000000.0 0.3138252944873691 0.46710992740819846
540000000.0 -0.42903468227501856 -0.24505586651544806
560000000.0 0.11739188753038457 -0.45977876111806526
580000000.0 -0.21846955790857686 0.35893885099333867
600000000.0 0.3507179910512394 0.1366312738605992
620000000.0 0.367707244596951 -0.05932995657323626
640000000.0 -0.14322926176740322 -0.3816280192064328
660000000.0 0.4034389490913111 0.20267683218542262
680000000.0 -0.20498742555821745 -0.4091923350946188
700000000.0 0.4177060285770914 0.17567221729039953
720000000.0 -0.275631745492754 0.3358883733569786
740000000.0 -0.30981807504738207 -0.22997762179923653
760000000.0 0.27994186767530255 -0.2315783646533096
780000000.0 0.18766836711829527 0.2611994291498377
800000000.0 -0.2460620686884537 0.15144828919414502
820000000.0 -0.026156541627741087 -0.23731117632188428
840000000.0 -0.1623349590830662 -0.13176240692837726
860000000.0 -0.17054749869096117 0.0675432481688103
880000000.0 -0.14596845041078133 -0.002432868400452338
900000000.0 -0.06364068981186469 -0.09153818715850012
920000000.0 0.02129502313202915 0.06742355856546749
940000000.0 -0.034953821958326164 -0.034200085985231304
960000000.0 -0.03866377369491898 -0.04120356601050203
980000000.0 -0.06144147797183935 0.03123143392373824
1000000000.0 0.08990653122872566 -0.01898754817039512
1020000000.0 -0.08502048538270679 0.07270854559318926
1040000000.0 -0.12807398010842638 -0.035933935224410726
1060000000.0 0.11484610934404768 -0.10178431084371717
1080000000.0 -0.1817485719346497 -0.0016598581648592777
1100000000.0 -0.20169278097199164 -0.08690303067157762
1120000000.0 -0.2540606004633701 0.040075137933811844
1140000000.0 -0.28894685066065395 -0.03518204547733872
1160000000.0 0.30601296766394426 -0.05476173983467683
1180000000.0 0.29638019194139953 0.13564243527336645
1200000000.0 -0.28081158883114243 -0.18567078211334107
1220000000.0 -0.2898793186841596 -0.20477568269520904
1240000000.0 -0.37444906954509877 0.09626364575614749
1260000000.0 0.36011209573571046 0.20151293937575782
1280000000.0 -0.1956004783304462 -0.3762100401229321
1300000000.0 -0.4231837258041826 -0.0434243748671702
1320000000.0 -0.4234971156062489 -0.06909190411279155
1340000000.0 -0.43553223409402253 -0.016953070554437802
1360000000.0 -0.2908317183665279 0.3262990084615007
1380000000.0 -0.06285251488607155 0.42074885002052287
1400000000.0 0.36325903698331496 0.20139485027239062
1420000000.0 0.28710815274788704 -0.2743192396475245
1440000000.0 -0.3445375528544757 -0.15309458160538322
1460000000.0 0.15823991953685104 0.3079723186457223
1480000000.0 0.13784024860285762 -0.27972185280289164
1500000000.0 -0.08200607213111097 0.26053328332703557
1520000000.0 -0.09391693058884455 0.20949170808589473
1540000000.0 -0.1432909930934563 0.12849365904219767
1560000000.0 -0.08053113031356968 -0.1483836982877129
1580000000.0 0.03251046650580432 0.15042915431891868
1600000000.0 0.1043045354684602 0.06891997030377196
1620000000.0 -0.01461307073848466 0.09380494694545985
1640000000.0 0.052866145566368455 0.0404325104156366
1660000000.0 -0.03292420390214362 -0.019812217287073806
1680000000.0 -0.016532206591280452 0.008310604502387688
1700000000.0 0.016649994125407405 0.018875253118088048
1720000000.0 -0.016199352620807086 0.031266988186210765
1740000000.0 0.007795774523557864 0.050623760396778204
1760000000.0 0.06718119767258282 0.03015794651751132
1780000000.0 -0.026140505842519295 0.1013504537061108
1800000000.0 -0.1336804840051483 -0.042104686063075596
1820000000.0 0.15470747792966807 -0.07581447546392442
1840000000.0 -0.19963290899915917 -0.04042665952964631
1860000000.0 0.2333133610014249 0.07811292641216637
1880000000.0 -0.17687456257794912 0.2247233699736012
1900000000.0 -0.021633990534767094 -0.3187667582512949
1920000000.0 0.214947151679589 0.2788902939508394
1940000000.0 -0.2913183547496785 -0.23745927088544444
1960000000.0 0.2731083478764102 0.2796416003110045
1980000000.0 0.3286732875757572 -0.21990894959213192
2000000000.0 0.3978096368288586 -0.07772037832993225
2020000000.0 0.29343380100577093 -0.3015159999559264
2040000000.0 -0.20560531175305866 -0.3785471693422635
2060000000.0 -0.2877492856347023 0.3222076272538676
2080000000.0 0.35462504794002025 0.23310221686099278
2100000000.0 0.3520144861907923 -0.2139878118878576
2120000000.0 0.060493983562890215 -0.39143937738724377
2140000000.0 -0.2972684672450362 -0.23828867847129323
2160000000.0 -0.1976445201493995 -0.30175024329499084
2180000000.0 -0.3221221192992464 -0.0945628030709316
2200000000.0 -0.27737806024049577 -0.15296888902947872
2220000000.0 -0.039196874754234626 -0.29875934696525613
2240000000.0 0.19934082566441663 -0.22352138126967172
2260000000.0 0.011577595616391547 -0.30202102733709946
2280000000.0 -0.2949226182134394 -0.08625323120819466
2300000000.0 -0.13750052479459077 0.2878193365771448
2320000000.0 0.29664838240246894 0.1641456800882627
2340000000.0 -0.08194624121210722 -0.36038537304661944
2360000000.0 -0.13956270837646675 0.3793644094126517
2380000000.0 0.36966660767337917 -0.25546333436369273
2400000000.0 -0.4161044858181222 0.28213783033370954
2420000000.0 0.23103027816825217 -0.5077881456885904
2440000000.0 0.193232884767633 0.5772536311834099
2460000000.0 -0.5130134591283136 -0.4030635131832105
2480000000.0 0.6727242133255 0.1580387575225222
2500000000.0 -0.720592294421806 0.01683391537341139
2520000000.0 0.7432297820791377 -0.02424180598269449
2540000000.0 -0.7513319263365593 -0.0955302466131155
2560000000.0 0.7351705308855478 0.20495877315944053
2580000000.0 -0.48847322170715135 -0.5825768718348365
2600000000.0 0.13408556052880982 0.7370108819473391
2620000000.0 0.24213533616355395 -0.6906050867707344
2640000000.0 -0.512575619567163 -0.48946959925478734
2660000000.0 0.21926255013932372 0.6418992620576397
2680000000.0 -0.13696217486077616 -0.6284374027884261
2700000000.0 0.17974607971533388 0.5781360169770318
2720000000.0 -0.34984332884622776 -0.4445125035464622
2740000000.0 0.4823938064102149 0.21032184291412345
2760000000.0 -0.4793110366192631 0.08792598823896189
2780000000.0 0.3010284061953767 -0.3405848704928873
2800000000.0 -0.21214717540648945 0.37144655266219784
2820000000.0 0.29647142644639474 -0.2833432530813421
2840000000.0 -0.3696602758089146 0.15094892466082657
2860000000.0 0.3902641537288583 0.05314006425906685
2880000000.0 -0.30772310079547166 -0.236802661224464
2900000000.0 -0.28586040863451995 0.2581226186383316
2920000000.0 0.17220258198424027 0.3469980946055547
2940000000.0 0.38352742219386454 -0.059098117294783904
2960000000.0 0.23714931515521978 -0.30550268633636407
2980000000.0 0.30724514167075684 -0.22949873392796286
3000000000.0 0.37221507902676265 0.0851652487245005
3020000000.0 -0.008627511565978234 0.3749029326026126
3040000000.0 -0.33838860608196936 -0.14346994032565843
3060000000.0 0.35560562961284586 -0.04149797304894599
3080000000.0 -0.3373847944444331 0.09926240494689313
3100000000.0 0.33488104718470324 -0.06822673993327277
3120000000.0 -0.2623732250152167 0.2045065924956998
3140000000.0 -0.03369764390074746 -0.3178189331459345
3160000000.0 0.28495378309442587 0.08833471717896879
3180000000.0 -0.13927490013364993 -0.23539647967515598
3200000000.0 0.24135440456968718 0.033050582440093096
3220000000.0 -0.18824337759127643 0.0911819619775057
3240000000.0 0.12803650340626116 0.11996618095791566
3260000000.0 0.1439641974331939 -0.011578057247076768
3280000000.0 0.10998546026514432 -0.016070818363387772
3300000000.0 -0.011225078000158218 -0.08099235495254285
3320000000.0 -0.05838883199587774 -0.0009476495082979757
3340000000.0 0.007327164256894155 -0.04541937352665301
3360000000.0 -0.038171954303156196 0.024999206213338048
3380000000.0 -0.035687021492043336 -0.025870213413741877
3400000000.0 -0.0376472522329669 -0.009759626901288832
3420000000.0 0.004627031616724334 0.02884704652510952
3440000000.0 -0.02136672132608143 0.005157685846857522
3460000000.0 0.004061559379670754 0.018148303345732964
3480000000.0 -0.011310902114737103 0.016342609502549215
3500000000.0 -0.02127694131534795 0.012531775499541396
3520000000.0 0.03384650303801819 0.004548981314202325
3540000000.0 -0.04768660296786602 0.013205840270087418
3560000000.0 -0.05311650333921726 -0.03269011958285015
3580000000.0 -0.025179622012756333 -0.06427202333696863
3600000000.0 0.07369841545330283 0.01450992510154284
3620000000.0 -0.01163985897097162 -0.07858818598492605
3640000000.0 0.027484975953827255 -0.07936245620856451
3660000000.0 0.03251696215397899 -0.08470181155373609
3680000000.0 -0.0036004027665861474 0.09722423757397017
3700000000.0 -0.07008023092699388 -0.07217419571907968
3720000000.0 0.07429472551917181 -0.06678982794921935
3740000000.0 0.012115488681112528 -0.09045298325795674
3760000000.0 -0.09089071931964235 0.0008762929397739485
3780000000.0 0.0930223552487046 -0.04638460026554321
3800000000.0 -0.0015496622043461728 0.12434547021356705
3820000000.0 0.14443101516301152 -0.0005312748065451658
3840000000.0 -0.1305400469499279 0.0862584215784519
3860000000.0 0.16053251521259496 -0.05761689729954454
3880000000.0 0.09910535255007563 0.15757911377403824
3900000000.0 0.15506353410240564 0.11808198439220258
3920000000.0 0.13501546831001218 0.14335834422142354
3940000000.0 -0.11059827665512421 0.16610616906021017
3960000000.0 -0.20027912313342425 -0.029566906139525072
3980000000.0 -0.18593934191714798 -0.08774012030767439
4000000000.0 -0.006486817677714746 -0.2003638667831186
