!Created with skrf (http://scikit-rf.org).
# Hz S RI R 50.0 
!freq ReS11 ImS11
400000000.0 0.5774601540407586 -0.595815523504808
420000000.0 -0.15401416270044055 -0.8169167792768794
440000000.0 -0.768165114400169 -0.09958010160898724
460000000.0 -0.4007934117475566 -0.5970213915819532
480000000.0 0.6416762487992493 0.15753692962082955
500000000.0 0.5583684536057648 -0.2997700186965978
520000000.0 0.31622359643594417 0.4564623829658971
540000000.0 -0.2836295860471856 -0.4064203864358215
560000000.0 0.14495622808882816 -0.4414991740231804
580000000.0 -0.21567709643486732 -0.3589673005629546
600000000.0 0.3276050503456942 0.19293537875013483
620000000.0 -0.24458917400514138 0.2801804791824697
640000000.0 -0.04513746547980253 -0.41718651673953133
660000000.0 0.4435500040174423 0.10850723323404098
680000000.0 -0.3377241026898053 -0.3268664771573039
700000000.0 -0.22336479760790062 -0.4048235271485908
720000000.0 0.39165938961149466 -0.19101593635833422
740000000.0 0.05257903344765652 -0.36506180815747097
760000000.0 0.2901901156366932 0.14087058387840629
780000000.0 -0.15664645475859695 -0.27050533385291115
800000000.0 0.2831496027465783 -0.05139051170242999
820000000.0 0.21452016642658944 -0.1430136606433704
840000000.0 0.15825103164601095 -0.15332924025512468
860000000.0 0.10893331176768113 -0.14153375332582016
880000000.0 -0.06865133174196625 -0.12843322743457827
900000000.0 0.03746783405872258 -0.09970916171659011
920000000.0 -0.054333881720148136 0.03292103523450662
940000000.0 -0.03710792502234511 0.029044582483506807
960000000.0 -0.03354670457812718 -0.0428090344762161
980000000.0 -0.06876245164373039 0.007280179883607254
1000000000.0 0.004025999299300529 -0.09302943730674207
1020000000.0 0.0993265479926316 0.038371257922795984
1040000000.0 0.10352905941676867 -0.0704968820130658
1060000000.0 -0.15216250505462525 0.026094079248996756
1080000000.0 0.18303788342621316 -0.040105783222560955
1100000000.0 -0.2306194005969241 0.006728536977175374
1120000000.0 -0.17703646916690838 0.19195837638782237
1140000000.0 -0.2551783469089827 -0.14720024671330884
1160000000.0 0.3118059927163252 -0.07880261593017089
1180000000.0 0.13624502699031701 -0.30660196902193887
1200000000.0 0.2126663153950096 0.2620201790905927
1220000000.0 -0.08106766942838213 0.33626254904540487
1240000000.0 0.08082860054116157 0.3606330827994875
1260000000.0 0.09309433608641951 0.3783858883181197
1280000000.0 0.31125324420657374 0.2712986978372102
1300000000.0 0.43331255896089704 0.0028856619872928663
1320000000.0 -0.2771048506866139 -0.3565960278733928
1340000000.0 0.04203035677217519 0.454371463756056
1360000000.0 0.2722236124509593 -0.35307971622922
1380000000.0 -0.1831780673093832 -0.3774878018636743
1400000000.0 -0.31499395683192316 -0.24233648513153197
1420000000.0 -0.08758107345682566 -0.35916359090518984
1440000000.0 0.21490271191063637 -0.2850213056506477
1460000000.0 -0.3066250197014957 -0.1477992186461434
1480000000.0 0.19136537434934767 0.25378789110546507
1500000000.0 -0.2862960580415813 -0.0005536505356900008
1520000000.0 0.09607902585019529 0.22502550135964355
1540000000.0 -0.0322453467153233 -0.20245762326819952
1560000000.0 -0.07878537154916151 0.14689459113190625
1580000000.0 0.03279542487516963 0.12556929968573038
1600000000.0 -0.09575654586567679 -0.032583885078760665
1620000000.0 0.07997679789452138 -0.013382037279490184
1640000000.0 0.047912165009168346 -0.048931040341315
1660000000.0 0.017315572374299024 0.042795381126954024
1680000000.0 0.018931759316680053 0.022711223036636887
1700000000.0 0.02072207500036114 -0.003942797116894365
1720000000.0 -0.02651279505438876 0.0145920094466357
1740000000.0 0.01888190956897443 0.03933682179067857
1760000000.0 -0.049560533108081985 -0.05732940442482657
1780000000.0 0.0236246485271735 0.11146561888527057
1800000000.0 0.1563620128879468 -0.03176857787553178
1820000000.0 -0.19383761980361264 -0.023190469654798526
1840000000.0 0.01891540149624085 -0.2202416474367176
1860000000.0 0.24202210793521622 0.07449750865566057
1880000000.0 -0.2568931499276281 -0.10705410174230796
1900000000.0 0.00029648560715228963 0.30661375446391487
1920000000.0 0.33447539634232365 -0.02688482531014201
1940000000.0 0.09479054678170672 -0.3553685751750984
1960000000.0 -0.29694909379883644 0.26628358576434574
1980000000.0 0.3984696347117942 -0.1270325276520806
2000000000.0 -0.325879214813906 -0.2847415826532341
2020000000.0 0.01483793161136693 0.4402033633304149
2040000000.0 0.4249286835296123 -0.1007159957406507
2060000000.0 -0.007827418713233163 -0.4272249475120047
2080000000.0 -0.12443913486694788 -0.3942818109883927
2100000000.0 0.03356881135781198 -0.4005374191647427
2120000000.0 -0.0026932431203560603 -0.3971269557036307
2140000000.0 -0.3473406816521035 -0.1780013513237979
2160000000.0 -0.37534378274672725 -0.027996178601597112
2180000000.0 0.14584154784092745 0.3216383853617226
2200000000.0 0.2961229552686349 0.14727204713027064
2220000000.0 0.2781130945296429 0.14447259449947827
2240000000.0 0.12975303795720108 0.27705743032482105
2260000000.0 0.17848907031053798 0.2506976380851812
2280000000.0 0.2819887564550118 0.1435983101592181
2300000000.0 0.23011143177369334 -0.2438741314343016
2320000000.0 -0.35627547107714574 -0.06252180893361842
2340000000.0 0.37436005424124646 0.13150718203017545
2360000000.0 -0.43354694406089545 -0.027061041289971464
2380000000.0 0.4748630237697598 -0.0650139276381673
2400000000.0 -0.4737861647053337 0.23744868170076616
2420000000.0 0.2954056129522732 -0.5009124175263605
2440000000.0 0.10976494345066468 0.6212773690723095
2460000000.0 -0.5668918377048243 -0.3627027941312028
2480000000.0 0.7035748758002428 0.062417246949070145
2500000000.0 -0.7296718245913308 -0.032298562081122015
2520000000.0 0.7410002853568786 0.09842846450431687
2540000000.0 -0.6761703148050838 -0.33512512246408704
2560000000.0 0.44476868721674595 0.6103851132476511
2580000000.0 -0.05335729153736085 -0.7444351021575881
2600000000.0 -0.3186690161131691 0.6551227750718257
2620000000.0 0.5293316770151473 -0.46555861934439574
2640000000.0 -0.1275262622065142 -0.6633219227130485
2660000000.0 -0.1977836533857811 0.6074060308066208
2680000000.0 0.469264537577559 -0.3741270859444971
2700000000.0 -0.48099570784386364 0.2875836165453361
2720000000.0 0.48764837801017485 -0.1845807203137598
2740000000.0 -0.45699629559023935 0.16113494330407852
2760000000.0 0.41763412947550216 -0.16554669564843338
2780000000.0 -0.3962155079824453 0.14884761968539653
2800000000.0 0.3892525313071675 -0.10756128347359441
2820000000.0 -0.3477720661685597 0.18100860003748065
2840000000.0 0.3117169651501494 -0.22081415215243416
2860000000.0 -0.36694623994365 0.06416756430441035
2880000000.0 0.05362990822679746 0.3650855809011609
2900000000.0 0.304770291598431 0.2095017551171183
2920000000.0 0.34371951407243895 -0.1554692425897288
2940000000.0 -0.16697720025241689 -0.34208982874344623
2960000000.0 -0.31511549848320153 -0.20931922639616315
2980000000.0 -0.06806115037026748 -0.3706368602817064
3000000000.0 0.23399129517831252 -0.29768112354612464
3020000000.0 0.3694530195211653 0.04701072805381507
3040000000.0 -0.11837312398993013 0.342330787757899
3060000000.0 0.10679420834898898 -0.3335112312288795
3080000000.0 -0.22893431534453607 0.25595212131438916
3100000000.0 0.30707467479553857 -0.12978684356323703
3120000000.0 -0.29423450219070885 0.14342647855699933
3140000000.0 -7.581192699544965e-05 -0.3159857936547628
3160000000.0 0.2925586405333155 -0.05269642660154162
3180000000.0 -0.26913869799586543 0.023021839562866023
3200000000.0 0.0959672783461481 -0.21591980574847608
3220000000.0 -0.12170606818454888 0.15713669422144727
3240000000.0 -0.14000121179216166 0.08634944782067899
3260000000.0 0.02539777331648634 -0.13423831322591195
3280000000.0 0.10104628328396364 0.05854266600832773
3300000000.0 -0.018910476899957653 -0.09498844718860906
3320000000.0 -0.05258857215916236 -0.0379597350976965
3340000000.0 -0.01664835412829657 0.03598048972360477
3360000000.0 -0.0032546880396963616 -0.032848502196334776
3380000000.0 -0.04023836211072342 0.00862883581626877
3400000000.0 -0.0025110722590667035 0.044169271380378176
3420000000.0 -0.030783660546553515 0.015232755682394664
3440000000.0 -0.0009016810211309522 -0.016760456976153654
3460000000.0 -0.0011783200489885984 0.006610293621214134
3480000000.0 -0.028671828369884463 -0.0007782611355987779
3500000000.0 -0.014393386846407926 0.03803848656841378
3520000000.0 -0.02151985166712827 -0.041835625415502724
3540000000.0 -0.03632468694425052 -0.039910124624134596
3560000000.0 -0.06224278644315172 -0.002884487826031393
3580000000.0 0.021163855277653562 0.0681954265186374
3600000000.0 0.05541336323824427 -0.06135400679488932
3620000000.0 0.08934556223796947 -0.025395271083859063
3640000000.0 0.05756182558875657 0.07962769575844847
3660000000.0 -0.03712928852731608 0.09236994078438118
3680000000.0 0.09337537142294844 0.02002183600049657
3700000000.0 0.09296515717935591 -0.00015888783274539047
3720000000.0 0.04254366732087566 0.08092403475173907
3740000000.0 -0.09187648841705362 -0.0003896338355783712
3760000000.0 0.08562857937314126 0.04129122700782405
3780000000.0 0.08113849995281167 -0.05836009825139935
3800000000.0 -0.09288587203627986 0.06133610110509705
3820000000.0 -0.047572757378015786 -0.11464157257837995
3840000000.0 -0.05017932954240035 -0.13158020324180433
3860000000.0 -0.1007376676483859 0.12681382973292055
3880000000.0 -0.17070326597024868 -0.06762817781361909
3900000000.0 -0.1476645890906427 0.13155493769224205
3920000000.0 0.042079101433551626 0.1944077172354307
3940000000.0 -0.12245278597108712 0.1477157048230419
3960000000.0 0.1572249195615412 -0.10528180218146181
3980000000.0 -0.0658213549385996 0.176582164886113
4000000000.0 -0.18343509001321417 -0.02681005733910909
