!Created with skrf (http://scikit-rf.org).
# Hz S RI R 50.0 
!freq ReS11 ImS11
400000000.0 0.7270950550863627 -0.3853829638055665
420000000.0 0.3215557642782036 -0.7611727741538942
440000000.0 -0.6273471608990219 -0.4600769918465918
460000000.0 -0.12343082040048574 -0.7039250624790303
480000000.0 0.10280879522318963 0.6504851517145736
500000000.0 0.6280272318069091 0.13457635007840926
520000000.0 0.28172426322347016 0.485231220957105
540000000.0 -0.3790973668961571 -0.3346774957456295
560000000.0 -0.17383319737803848 -0.4426317679564115
580000000.0 -0.22144825386706196 0.35370969152820386
600000000.0 0.24223617484954457 0.28311992522792434
620000000.0 0.1470260902822922 0.3477754005226528
640000000.0 -0.36571519112103035 -0.19823651371170176
660000000.0 0.4363609618540794 0.10713030247535706
680000000.0 -0.3262722666108434 -0.3320077945595305
700000000.0 0.2885963237448233 -0.34449046366995684
720000000.0 -0.39766473738410096 0.17028675429564336
740000000.0 -0.3334140185118589 0.19270281615511206
760000000.0 0.29143024047071187 -0.20133814839174252
780000000.0 -0.03350868136047343 0.3140366363770206
800000000.0 -0.13648769083862716 -0.2530044077520853
820000000.0 0.2137118108395551 -0.12860955329943824
840000000.0 -0.07766277675082593 0.19725825121980564
860000000.0 -0.11786499363172911 0.13419471468728206
880000000.0 -0.09176757874957923 -0.11608024447563388
900000000.0 0.0988079491828212 -0.043095348901436153
920000000.0 -0.060970334920590154 -0.05510280261887924
940000000.0 -0.04967881306404084 -0.044201520323513606
960000000.0 -0.03438613596130482 0.058417897233969236
980000000.0 0.029679319688355448 0.08842640131431131
1000000000.0 -0.022937947609132887 -0.09446517818023895
1020000000.0 0.07691730580173772 -0.07125313483302474
1040000000.0 -0.012277161266366953 0.11595786655068767
1060000000.0 0.09191074758637763 0.09451787910825575
1080000000.0 0.1008890490104794 0.1376210112459554
1100000000.0 0.1638488764214073 0.13759142945921296
1120000000.0 0.1988887890900752 0.17118899391822182
1140000000.0 0.043437517617280236 -0.2980119661052796
1160000000.0 0.29822046168948907 0.1351158009521881
1180000000.0 0.24018668081416586 -0.241196171441497
1200000000.0 0.11814667849133637 0.318047071621687
1220000000.0 -0.14736733278751957 0.3194025096073017
1240000000.0 0.13298084575105557 0.346884378866535
1260000000.0 -0.17654916029629394 0.35228765892188896
1280000000.0 0.39374408829230184 0.15431211570651104
1300000000.0 0.12812364037033414 -0.4150203402050916
1320000000.0 -0.4109225705089415 -0.16810267382595467
1340000000.0 -0.18251964799130976 0.40575378771257004
1360000000.0 0.2619079791780477 0.3491467222084328
1380000000.0 0.3594678390444387 0.21613299985465798
1400000000.0 0.3653415408352164 0.17989528279656128
1420000000.0 0.37274907405702296 -0.11087363206355709
1440000000.0 0.21416309717069293 -0.3101242459085207
1460000000.0 -0.020235838717741844 0.35335929952929085
1480000000.0 0.23061852564513888 -0.2218099178633415
1500000000.0 0.22090510430084875 0.17186544008248733
1520000000.0 0.13925044336670955 0.18386865573822048
1540000000.0 0.15951196824129082 0.10714811926157104
1560000000.0 -0.12594071271063606 -0.1007248531203236
1580000000.0 -0.09316032783654533 -0.11465423667812412
1600000000.0 0.05436319925327281 -0.11494830630313618
1620000000.0 0.09749851231808637 -0.03997159929317949
1640000000.0 -0.05710605168615761 0.05135118104144656
1660000000.0 -0.016752697748397685 0.02931361114740354
1680000000.0 -0.008063272420334576 -0.009454938614153686
1700000000.0 0.031245251248668723 0.0009810516416455038
1720000000.0 0.013103439131253855 -0.03649863966320021
1740000000.0 -0.030284224715607187 -0.035586075721152695
1760000000.0 0.057870007513936 0.04222326577781071
1780000000.0 0.025823974377858563 0.09792331750737931
1800000000.0 0.11723215920794917 -0.06873374748052302
1820000000.0 -0.04727807573351696 0.16822364095862744
1840000000.0 -0.1970105076164524 -0.07217886646457497
1860000000.0 0.1821701465706411 -0.16967100941406635
1880000000.0 0.11975509027670381 0.258582436989473
1900000000.0 -0.2653364724929169 -0.17667289233068062
1920000000.0 0.32680888046255363 0.11483717572612125
1940000000.0 -0.2396694844977468 -0.284061814692092
1960000000.0 0.10921788129349148 0.3727604498659019
1980000000.0 0.39202471706496306 0.06391819708922311
2000000000.0 0.39899015896091977 -0.09797981417535342
2020000000.0 0.24996191321397024 -0.338862482215884
2040000000.0 0.055617607446010166 -0.42820948356344984
2060000000.0 -0.4107537318591656 0.14956332050031707
2080000000.0 0.2915708801250687 0.3182795162313503
2100000000.0 0.10839906223180773 -0.4050181998475938
2120000000.0 -0.3936948599630888 -0.03200307191868798
2140000000.0 -0.37116581469061705 0.0009919325448807662
2160000000.0 0.15205811904528635 -0.3132682522315903
2180000000.0 0.2418680634327243 -0.22907467629790285
2200000000.0 0.18032342308404792 -0.2635488605866496
2220000000.0 0.17826299880353758 -0.2543343436473828
2240000000.0 -0.18241923202285681 -0.2503877605221938
2260000000.0 -0.2180153788013226 0.21037669723550032
2280000000.0 -0.18117669810350934 0.24184667863239745
2300000000.0 -0.08457906608548663 0.300075451559692
2320000000.0 0.1353306286755671 0.30802349855330347
2340000000.0 0.18570562346407488 -0.32244371509313974
2360000000.0 -0.22734133709844487 0.34202792026096596
2380000000.0 0.259182646550461 -0.3768863561506232
2400000000.0 -0.08749099828466772 0.49808943176840403
2420000000.0 -0.08662599788826246 -0.5492794638127391
2440000000.0 0.36971278534117175 0.4818457894718921
2460000000.0 -0.6182554394451522 -0.21808837366785372
2480000000.0 0.638680569068527 -0.27254968123269074
2500000000.0 -0.5618439229364838 0.45535249826545676
2520000000.0 0.5805019381932732 -0.4651790723264614
2540000000.0 -0.6968554479945505 0.2948512930250071
2560000000.0 0.762371956513077 -0.0005683232586183323
2580000000.0 -0.6059260723731843 -0.45792694194797584
2600000000.0 0.27293734161341787 0.696460021145428
2620000000.0 0.09590279802732563 -0.7245963660897271
2640000000.0 -0.6116514503663937 -0.352442044388457
2660000000.0 0.45311018273703163 0.4988024747405277
2680000000.0 -0.3752699784204915 -0.5179016668725114
2700000000.0 0.47562289255432477 0.3721463786977842
2720000000.0 -0.559184790502605 -0.07261473699088868
2740000000.0 0.46558175713890104 -0.2359078983408121
2760000000.0 -0.3593619015422702 0.3204420195716934
2780000000.0 0.3299202449448237 -0.30442897547037767
2800000000.0 -0.4035052484132548 0.1329271127254542
2820000000.0 0.41019338457103066 -0.011556023741671412
2840000000.0 -0.4018701026473484 -0.017037397328218167
2860000000.0 0.39427103199100705 0.039582917661656176
2880000000.0 -0.36742232097116817 -0.1339633460915149
2900000000.0 -0.03254621828053959 0.3824692589762485
2920000000.0 0.32665404367738876 0.20337301086647608
2940000000.0 0.32901654776872563 -0.19653777650309487
2960000000.0 0.35828784825804255 -0.12885203401756407
2980000000.0 0.3747220738726537 0.0718346197933618
3000000000.0 0.24956654097346487 0.2924513969600316
3020000000.0 0.08565470356299469 0.3714486154400956
3040000000.0 -0.2972864209321211 0.21883577175951868
3060000000.0 0.20297091487649432 -0.2929852149875163
3080000000.0 -0.2444539240541619 0.2427645038961364
3100000000.0 0.3313926039271626 -0.03789584960262868
3120000000.0 -0.3247913058855279 0.0009881431252276446
3140000000.0 0.30990282181228285 -0.05761940154712786
3160000000.0 -0.1219029514189125 0.27539952351223235
3180000000.0 0.022556309176081132 -0.28107414891957805
3200000000.0 0.04736660070669297 -0.24633422650558312
3220000000.0 0.20264588684336732 -0.054405164858729135
3240000000.0 -0.1539164220151096 -0.06132877984612581
3260000000.0 0.08581806226795682 0.09471524854124873
3280000000.0 0.03340995849487988 0.09676982266213996
3300000000.0 0.046943356339567296 0.0762483511560879
3320000000.0 -0.06627928403257344 -0.02629241584614074
3340000000.0 0.015261272239643424 -0.04942309502053453
3360000000.0 0.03658968922780984 -0.004858624919775984
3380000000.0 0.0011607076753484319 -0.030887669797621614
3400000000.0 -0.03005515912015702 0.02178052181800513
3420000000.0 0.035606750220895836 0.01857056787339533
3440000000.0 -0.03028400912324811 -0.013507126138949093
3460000000.0 0.014783977556367785 -0.009799455221736126
3480000000.0 0.007588241605908946 0.0013992309355104905
3500000000.0 0.01780181942619612 -0.019658169218182822
3520000000.0 0.03192784632983746 0.030823759532225287
3540000000.0 0.03502564173817395 0.047810588094329004
3560000000.0 -0.05738576612179527 -0.014752684387459995
3580000000.0 -0.03210491074126126 -0.04571903953075739
3600000000.0 0.03143745781161218 0.05188966804204327
3620000000.0 -0.002122778959552648 -0.07746096524106146
3640000000.0 0.013861178915739236 -0.09436871962209117
3660000000.0 -0.07672836959004035 0.07227583418628877
3680000000.0 0.10076355200376919 0.009533580675990753
3700000000.0 -0.018315706592432313 -0.08913176845609061
3720000000.0 0.08271903720272289 -0.023991307519021537
3740000000.0 0.06574231263070564 -0.051077658088470194
3760000000.0 -0.09004181158007128 0.024702829742465498
3780000000.0 0.1058790900274278 0.035986885192921064
3800000000.0 -0.03798038491039097 -0.12673604455023785
3820000000.0 0.1420855456163734 0.013143383348060178
3840000000.0 0.10298512538291703 -0.10437375274388473
3860000000.0 0.16030543576860343 -0.010663322943925826
3880000000.0 -0.17468991698187664 -0.05907273892433143
3900000000.0 -0.14818211575270748 0.14128998801244944
3920000000.0 0.2107798695590362 0.02462150831980321
3940000000.0 0.18638350904043957 -0.100108261433124
3960000000.0 0.1606870693077262 0.13015067127599772
3980000000.0 -0.18723187005567113 0.07901740641676847
4000000000.0 0.03154234794581509 -0.19537420744135336
