!Created with skrf (http://scikit-rf.org).
# Hz S RI R 50.0 
!freq ReS11 ImS11
400000000.0 0.7552270184462604 -0.32284079155435874
420000000.0 0.5243373736482922 -0.6389535660251091
440000000.0 -0.5091919352039602 -0.5814721881220897
460000000.0 0.029963976451718513 -0.7171185894105458
480000000.0 -0.10125690294290514 0.6524683320408758
500000000.0 0.4322542533319294 0.47477416951264934
520000000.0 -0.1531962734544395 0.5598318172887906
540000000.0 0.29255608485360135 0.4273586016184081
560000000.0 -0.3404152709827259 0.32015836522666674
580000000.0 -0.061372359631620334 0.408087172553069
600000000.0 0.27567719764118737 -0.24813210617067405
620000000.0 0.2095340973881787 0.29863533403365455
640000000.0 -0.012023729536280168 -0.40482157423184617
660000000.0 -0.11863050486430883 0.43363167588926266
680000000.0 0.0623277231598256 -0.46246966581643945
700000000.0 0.34793638066201826 -0.2977969684799333
720000000.0 -0.30329850651560736 0.31356308320655074
740000000.0 -0.34455610253614743 0.17367190116893216
760000000.0 0.26919440375441717 -0.2361984311930982
780000000.0 0.2962334471873609 -0.11049574238930485
800000000.0 -0.2758976540594793 0.0003948734509545656
820000000.0 0.1636663095832893 0.17701015314512433
840000000.0 0.2131104161533959 0.0024546899115865132
860000000.0 -0.12256640238411909 -0.14939549352714546
880000000.0 -0.07714467578989495 0.13651909790686534
900000000.0 0.11596166402751855 -0.04216912751115122
920000000.0 -0.07262688834123161 0.0029643154100680545
940000000.0 0.03935800832903296 -0.0010862495967097867
960000000.0 -0.022371077337751236 -0.034901198485433195
980000000.0 0.05026529390148754 0.027436166072340715
1000000000.0 -0.058468765956684904 -0.04341961191105945
1020000000.0 0.05030187377752622 0.1038973820389377
1040000000.0 0.0918301755505126 0.10766948687436041
1060000000.0 -0.16524425386411798 -0.041544598526630006
1080000000.0 0.07865455499216406 0.1902642440554449
1100000000.0 -0.04380887927160427 -0.2215422228236171
1120000000.0 0.19323499276092107 0.16512614824427038
1140000000.0 -0.14139818808388133 0.24165522778165008
1160000000.0 0.08494884789033331 0.2924894809075209
1180000000.0 0.22302584202586007 0.23968173812499852
1200000000.0 -0.041140216731947614 -0.33040943691866664
1220000000.0 -0.18546645112210294 -0.31198114631744944
1240000000.0 -0.1172858420486114 0.36543251592021053
1260000000.0 0.29210830872797267 0.2800427126604288
1280000000.0 0.23921027905709327 -0.3479773693658516
1300000000.0 -0.28166095969728644 -0.3188800728117319
1320000000.0 -0.21877508822481156 -0.3733200844856041
1340000000.0 -0.4109559515617878 -0.16481266560554828
1360000000.0 -0.17775055697869258 0.4078137998004346
1380000000.0 0.4299094695008488 0.02136679390647825
1400000000.0 0.3141379110440412 -0.2639966199466049
1420000000.0 0.0869331418343265 -0.37869204022568026
1440000000.0 -0.2183594940001195 -0.2988646503929505
1460000000.0 -0.17817500794508653 0.2976399537760671
1480000000.0 0.23371041509879517 -0.21130631676759862
1500000000.0 -0.2236733228988199 0.15816755320487205
1520000000.0 -0.23435852502091784 0.022273584519861955
1540000000.0 -0.1605563995990429 0.12136354257711383
1560000000.0 -0.07169681691974154 0.15805369616406242
1580000000.0 0.14761198877777434 0.010286707416931657
1600000000.0 -0.10361100123657749 -0.06795222554186926
1620000000.0 -0.07765244152615065 0.059626186524580745
1640000000.0 -0.06358999805999498 -0.01727629643839731
1660000000.0 -0.03503497286625686 -0.021918390318934257
1680000000.0 0.015600146478094493 0.0010698453939742092
1700000000.0 0.02297028452253897 -0.005416961458849212
1720000000.0 0.038070588109794176 0.0018922756441729785
1740000000.0 0.020149176988640962 0.05151871182518637
1760000000.0 0.05352276812968412 0.051260109823172424
1780000000.0 -0.10214208051142047 0.026170009881044773
1800000000.0 0.08683268850581012 -0.10990162781538991
1820000000.0 0.13207977346106034 0.11800545345707278
1840000000.0 -0.19371134395850717 0.08124491164859242
1860000000.0 -0.0065707726272257886 -0.24838725592152358
1880000000.0 0.2790613527446262 -0.04256282221254473
1900000000.0 -0.2864114323206626 0.10915331463933335
1920000000.0 0.030515466704609823 0.3317207771711482
1940000000.0 0.3562677171419003 0.09202685475187977
1960000000.0 -0.3982664724923773 -0.02678234015899057
1980000000.0 0.41412273782227343 -0.0009870189665419729
2000000000.0 -0.01185244791282789 -0.4197091517055599
2020000000.0 -0.32750842118879214 -0.2723034382482198
2040000000.0 -0.3968192508516707 0.1588330817615191
2060000000.0 -0.20404796408828094 0.3733106128768423
2080000000.0 0.13277559396380056 0.39920835367067414
2100000000.0 0.361587942504217 0.2045504264402859
2120000000.0 0.14094386359357133 -0.37889360471074457
2140000000.0 -0.3700515486219594 -0.10971751770822233
2160000000.0 -0.2111038893819251 -0.2916552464015505
2180000000.0 -0.25555666068091193 -0.211911991897723
2200000000.0 0.09461115529021531 -0.29708954300254764
2220000000.0 0.3028924401951564 0.02580579387262898
2240000000.0 0.2987922618220268 -0.07630699488687047
2260000000.0 -0.20023614010287136 -0.23635016366854816
2280000000.0 -0.2078580988333859 0.22976899020999833
2300000000.0 0.10955487095810179 0.2969234521883605
2320000000.0 0.3093289216940746 0.12729094772893754
2340000000.0 0.16935474783783427 -0.3254538088659614
2360000000.0 -0.33172542781968306 0.23790127381436627
2380000000.0 0.3648952559922871 -0.2721202981633074
2400000000.0 -0.30296442495115045 0.40485651987777616
2420000000.0 0.08379236536827929 -0.5536167342097287
2440000000.0 0.38521019773059706 0.4740822088494502
2460000000.0 -0.6435211189420253 -0.13128565667188374
2480000000.0 0.6477392807951495 -0.2516746574181935
2500000000.0 -0.6428536226603611 0.33489877700761467
2520000000.0 0.6406767531307453 -0.38358706719713614
2540000000.0 -0.7306040291809491 0.20572975197374868
2560000000.0 0.7602870796199425 0.08374764654858859
2580000000.0 -0.4730899173849797 -0.5976277398916797
2600000000.0 0.16624384672209044 0.7324701689052178
2620000000.0 0.08961118139139884 -0.7280823212098714
2640000000.0 -0.5549084262192736 -0.440281201191958
2660000000.0 0.46300955009219336 0.4927315361789559
2680000000.0 -0.4835560025339473 -0.4193810886385586
2700000000.0 0.4990754812396877 0.33470047817217635
2720000000.0 -0.5543638763033135 -0.08090539928162135
2740000000.0 0.4931966062074806 -0.1563194034793625
2760000000.0 -0.4693904650905757 0.10201664627183611
2780000000.0 0.428126275091197 -0.143153433057591
2800000000.0 -0.3687375321429291 0.21916295837536467
2820000000.0 0.22259029479315387 -0.34786231941527734
2840000000.0 -0.07598829061093366 0.3907654619015956
2860000000.0 0.292378928034105 -0.25356554050698066
2880000000.0 -0.30447424076770774 -0.2300108165652064
2900000000.0 -0.3551862103662388 0.14190703387251885
2920000000.0 0.11922592887958343 0.3714728806150885
2940000000.0 0.365555239771796 -0.1399640922569693
2960000000.0 0.20217989419287777 -0.33337500545972953
2980000000.0 0.16870622105204475 -0.34630120714983986
3000000000.0 0.367641826622324 -0.10300404761172434
3020000000.0 0.13354232287326298 0.34804212421629405
3040000000.0 -0.2778073556360782 -0.23587657961381228
3060000000.0 0.26021326050623445 0.24572926475718387
3080000000.0 -0.2956074908125018 -0.18958404720110794
3100000000.0 0.3272772241799211 0.10678461078281051
3120000000.0 -0.24891075244790414 0.22158535813876645
3140000000.0 -0.029521943868550157 -0.3151997895561358
3160000000.0 0.2385003356928531 0.17432010223195013
3180000000.0 -0.037423931198253456 -0.2681597167027228
3200000000.0 0.14822329166055176 0.1893935480030159
3220000000.0 -0.18442745452580558 -0.09535539978296274
3240000000.0 0.1382696437169337 0.1050735347541813
3260000000.0 0.13294137014831955 -0.03468495913440056
3280000000.0 0.012802491998165152 0.1044627187069232
3300000000.0 0.05243773582079784 0.057321819925536435
3320000000.0 -0.056700445177350935 0.003285372820428964
3340000000.0 0.022159919507460303 0.046564857149145586
3360000000.0 -0.012899500317112053 0.045130371834316466
3380000000.0 0.010882308753538326 -0.035128978163449134
3400000000.0 -0.0018284872878681488 0.030848501929360967
3420000000.0 -0.028815354386906543 0.0014798155882527078
3440000000.0 0.02368120751347428 -0.01419967840528376
3460000000.0 -0.01602954648409453 -0.014006987132662059
3480000000.0 -0.005799065274758209 -0.01029107411117479
3500000000.0 -0.012083746171150881 -0.018076776753153265
3520000000.0 -0.014179640053407123 0.03498214928586638
3540000000.0 -0.015302584497823169 0.050944841081588296
3560000000.0 0.05805165422818882 0.011940745897614244
3580000000.0 -0.012147813734074928 -0.06171541849796539
3600000000.0 -0.06885792048380046 -0.003920313419151635
3620000000.0 -0.07669848055735791 0.009301307611370626
3640000000.0 -0.036771994824402895 0.07688660623902306
3660000000.0 -0.08575568239812904 -0.04005808039319317
3680000000.0 0.010899661133583038 -0.09576661151348548
3700000000.0 -0.05135224034752987 0.07443194683268547
3720000000.0 -0.08589779775246484 -0.023781595716941457
3740000000.0 0.08524888069962842 0.013382227934397566
3760000000.0 0.0036136533020666092 0.09499736157612403
3780000000.0 -0.03265136831689212 -0.10456883218685131
3800000000.0 0.027826938052104764 -0.11831872436325429
3820000000.0 0.07871316384929117 -0.11325006726268952
3840000000.0 -0.13972433370656404 -0.060420158626739565
3860000000.0 0.10609579858696792 0.13223401993585698
3880000000.0 -0.17262474829069455 0.07493374785257759
3900000000.0 -0.1629916252325943 0.12060564783744236
3920000000.0 0.0576529721203334 0.1999223200726014
3940000000.0 -0.020855535378252348 0.20528906010496797
3960000000.0 -0.1981666031987822 -0.057345655169285324
3980000000.0 -0.0025192034282018718 -0.20695935579102145
4000000000.0 0.059348831490004035 -0.19310374859300103
