!Created with skrf (http://scikit-rf.org).
# Hz S RI R 50.0 
!freq ReS11 ImS11
400000000.0 0.7459055707158825 -0.3945416297407346
420000000.0 -0.577038718466875 -0.6033512920656894
440000000.0 -0.7728048120122162 -0.008454865765187194
460000000.0 -0.24875963539276444 -0.6715209204625756
480000000.0 0.6386766483546985 -0.15644219661645226
500000000.0 0.4046684747811009 -0.4715248647855158
520000000.0 0.2954969883920476 0.4571136408127315
540000000.0 0.4303418627936702 -0.23697050075989856
560000000.0 0.4729914329766834 -0.03784083088900957
580000000.0 -0.037567171981084974 -0.42304719516411615
600000000.0 0.0985677922351814 0.3809910068023153
620000000.0 0.14501560961035434 0.365294918694005
640000000.0 0.19099627967588861 0.38306410582591893
660000000.0 -0.25126112931209077 -0.37308464454699575
680000000.0 -0.21072125420087384 0.40003450355046216
700000000.0 -0.31456420111842137 -0.3035037117931038
720000000.0 -0.2773618460114873 0.2960716729413575
740000000.0 -0.0752533746327709 -0.35408354146398385
760000000.0 0.07099436182454442 -0.3349656533203813
780000000.0 0.30625761678094077 0.13572532734915513
800000000.0 0.2969164786524021 -0.10203139463924661
820000000.0 -0.07029128029179234 -0.2641934702016471
840000000.0 -0.05936568545642142 -0.21966838223761082
860000000.0 -0.18720866106910317 -0.035282593887749986
880000000.0 -0.015711902095464338 -0.14594054715463586
900000000.0 0.0842723409099761 0.03843073571436083
920000000.0 0.025550036014824962 0.05246135114452118
940000000.0 0.02404648693241923 0.018070602253110524
960000000.0 -0.03662051919884116 0.002706235307381128
980000000.0 -0.0027390747022515683 0.05557586512194271
1000000000.0 0.059610571711879196 0.054380356874760845
1020000000.0 -0.11294005221001902 0.002098493614992419
1040000000.0 0.1074690273128306 0.08120240840586576
1060000000.0 -0.1291743845152122 -0.11233479482198731
1080000000.0 0.18424868661939264 0.09585332641383539
1100000000.0 -0.22871048533480132 0.030575495580631808
1120000000.0 -0.24621374014807076 -0.020278660598272883
1140000000.0 0.1238031662903853 0.23563146136407867
1160000000.0 0.10745038201217569 0.2683996117712171
1180000000.0 -0.29407702489798404 0.12016270520836204
1200000000.0 0.3039024788915957 -0.13321154207298352
1220000000.0 0.35180066207464195 -0.08509395753827267
1240000000.0 -0.39194484540452085 -0.06407786148828665
1260000000.0 0.3429365235311678 0.24463665411698118
1280000000.0 -0.38402846047561706 -0.20002908867612412
1300000000.0 -0.3531657261913359 0.24749604464472766
1320000000.0 -0.03649161647385352 0.42981149788746437
1340000000.0 -0.33192377731222295 0.2732984902647133
1360000000.0 -0.06246905973345446 0.4285361056258737
1380000000.0 0.19106100367027767 0.3738855804723982
1400000000.0 0.33585282755223544 0.23542759223291185
1420000000.0 0.28567099932989504 -0.2715017221271359
1440000000.0 -0.2568089041083603 -0.27193739816822105
1460000000.0 -0.031436940894130704 0.3434786510355559
1480000000.0 0.28200439726455967 -0.13566223836073568
1500000000.0 -0.2595258389747908 0.10339810311083299
1520000000.0 0.04644920737953142 0.2306461422282434
1540000000.0 0.06074765581116119 0.18403602980714714
1560000000.0 -0.13935785940036646 -0.09208972825071608
1580000000.0 -0.008886825299488756 0.15114787934202267
1600000000.0 -0.10765127262528518 -0.06005017984923961
1620000000.0 0.08615936505063643 -0.05913657903178482
1640000000.0 -0.07631588645887388 -0.026579327998864033
1660000000.0 0.026232552965189535 0.03844190067858735
1680000000.0 0.0009192289445410976 0.010009227595689988
1700000000.0 -0.003242751036716286 0.022667733448069435
1720000000.0 0.03839407735308023 -0.03229676379457297
1740000000.0 -0.025817463064801996 0.07122201035863425
1760000000.0 -0.08655894847502425 0.030486473690122036
1780000000.0 -0.10542850809940252 0.011984975148843552
1800000000.0 -0.12865799118865667 0.015557697698813107
1820000000.0 0.05157287832229815 -0.14521608081305457
1840000000.0 0.16896955183353482 -0.09454061577586217
1860000000.0 -0.21727768138522324 0.10726108071181822
1880000000.0 -0.28101866197659636 -0.06978527224880224
1900000000.0 0.12143691585090755 -0.3013130265405688
1920000000.0 0.3027892001401686 0.1885502446460943
1940000000.0 -0.3757529151856441 -0.015126665895677547
1960000000.0 0.32090385353729517 0.2182073383505607
1980000000.0 0.3851693355983923 -0.08123107137575894
2000000000.0 0.35181431765543913 0.20215807617016057
2020000000.0 0.4165620254053026 0.0937223961952941
2040000000.0 -0.03551015985908434 -0.44125926680728833
2060000000.0 -0.11018317449457524 0.4329892391252311
2080000000.0 0.2086624467408466 -0.3793735992790919
2100000000.0 -0.28429008250590354 -0.29581912627989615
2120000000.0 -0.35414875586103234 -0.15483623549468759
2140000000.0 -0.15356031192521497 -0.3322210865251619
2160000000.0 0.3157625320722887 0.15407659885790823
2180000000.0 0.32708214841135835 0.08966575648235259
2200000000.0 0.27287245423290163 -0.18413986517528103
2220000000.0 0.015172655646640202 -0.31868930691483804
2240000000.0 -0.2713456773876644 -0.1520319096005837
2260000000.0 -0.24909866987763155 0.17805092648956714
2280000000.0 -0.038364383781170006 0.30182419855781256
2300000000.0 -0.013120624280414118 0.31113855731327006
2320000000.0 0.07628492574541064 0.3245933917314444
2340000000.0 0.35013689769166173 -0.12236097840946138
2360000000.0 -0.37730940780581623 0.17238247537726295
2380000000.0 0.1991289379206003 -0.41729915972920073
2400000000.0 -0.038540888707362594 0.5084560756790276
2420000000.0 -0.20615683181940925 -0.5200732215578628
2440000000.0 0.4961802404976513 0.3547645571421026
2460000000.0 -0.6551021726547566 -0.008195589277793734
2480000000.0 0.640699517417272 -0.26748142962043464
2500000000.0 -0.5904178079310943 0.42010918171427314
2520000000.0 0.6019083987592826 -0.44033490445606865
2540000000.0 -0.6895868366962548 0.31335614584578136
2560000000.0 0.7414107959044645 -0.17509311247850068
2580000000.0 -0.6370513660397598 -0.41169259904350036
2600000000.0 0.3572482870769849 0.6554255248508984
2620000000.0 -0.15949533705022728 -0.7107953829227291
2640000000.0 -0.6823847353671315 -0.17197698881268372
2660000000.0 0.6298687173803388 0.234037512760325
2680000000.0 -0.6247957785792091 -0.10937677659771232
2700000000.0 0.5921327777523476 0.04893034751579333
2720000000.0 -0.5061066568992882 0.22235065606016052
2740000000.0 0.4162570767503671 -0.29255270500497277
2760000000.0 -0.4454447530884152 0.15886196791745752
2780000000.0 0.44246912622787526 -0.048820794102113686
2800000000.0 -0.4246907697901657 0.018710426202410764
2820000000.0 0.36991305316023376 -0.17653868918876403
2840000000.0 -0.3503243178589312 0.18954388934789174
2860000000.0 0.3764007616634285 -0.11108343708866533
2880000000.0 -0.3671751799800573 -0.12130928804547189
2900000000.0 0.005035392658555572 0.38577308756514567
2920000000.0 0.37491737216355925 -0.08939007053718138
2940000000.0 0.07038580497800698 -0.37634999372096595
2960000000.0 -0.0369796269140752 -0.37357355632555145
2980000000.0 0.36936380714757533 -0.04725134017581802
3000000000.0 0.025498864495378304 0.375562376977377
3020000000.0 -0.35975198465114927 0.11307805477970136
3040000000.0 -0.19942632075840655 -0.3162712397867504
3060000000.0 0.311455222160062 -0.19041385938492067
3080000000.0 -0.13864913895915737 0.32372285227505004
3100000000.0 0.1652925075748164 -0.2951643966148936
3120000000.0 -0.12793485430525675 0.3015675929696982
3140000000.0 -0.08274896089365943 -0.30270905474805426
3160000000.0 0.24844159974279817 0.1591971565139396
3180000000.0 -0.20542157936387093 -0.17809665729252006
3200000000.0 0.19221031430949087 -0.14174434970019947
3220000000.0 -0.1857079231518412 0.08054468952442034
3240000000.0 -0.0838380659086273 0.14741691652031308
3260000000.0 -0.0923378432150158 0.10711153611270995
3280000000.0 -0.08788731725586828 0.06927558892912572
3300000000.0 0.06311833100235971 0.05587255203680776
3320000000.0 -0.06060943227731866 -0.022489529833166533
3340000000.0 0.03482392063005042 0.03452867769062359
3360000000.0 0.016656471854888468 -0.03189943124531624
3380000000.0 -0.03133405538914445 0.008481076574753667
3400000000.0 -0.02896786046281838 0.02339179839001405
3420000000.0 0.03512193112991521 0.010392929286701273
3440000000.0 0.022913128319039702 -0.01631963908975512
3460000000.0 -0.016170697082499744 6.737639855096022e-05
3480000000.0 0.010818282030950194 -0.011256055005861796
3500000000.0 -0.03089753501178864 -0.00861996241378682
3520000000.0 0.0123781047996001 0.044714024489195724
3540000000.0 0.047653571184763564 0.029176325642078945
3560000000.0 -0.05599903405244663 -0.007227077035590243
3580000000.0 -0.041886531766836786 0.04332188533265208
3600000000.0 0.07003645855023866 -0.01179398437758934
3620000000.0 -0.059596277258128445 0.06104029006620337
3640000000.0 -0.051525114215593 0.07863375653079924
3660000000.0 -0.0646261740380843 0.07123401741436537
3680000000.0 0.09004717480626298 -0.02298929597626954
3700000000.0 0.06576505198540836 -0.06146625363048296
3720000000.0 0.08305416958074638 -0.03338353089606938
3740000000.0 -0.0855982320216539 -0.02892349342077527
3760000000.0 -0.09335032280272346 -0.027146071942758466
3780000000.0 0.06247791893980942 -0.0868347985206001
3800000000.0 0.06813913151784995 0.0931395429289647
3820000000.0 -0.13000865166558798 -0.005334235932555237
3840000000.0 -0.14664303663283593 0.004882379176180372
3860000000.0 0.15193858557873705 0.07406235865559546
3880000000.0 0.0860317183041563 0.17125058602519658
3900000000.0 0.20055152844405133 -0.040646032560488814
3920000000.0 0.08947253524467791 -0.18897572533439885
3940000000.0 0.1571300093969654 -0.13667240123619284
3960000000.0 0.14958512779914276 0.14319983638013112
3980000000.0 -0.028530787833414412 0.2035405905051158
4000000000.0 -0.1283342311088977 0.15247892372983307
