!Created with skrf (http://scikit-rf.org).
# Hz S RI R 50.0 
!freq ReS11 ImS11
400000000.0 0.7564476861515134 -0.3275365841472131
420000000.0 0.43477916712889436 -0.7056188762970973
440000000.0 -0.5470300263538056 -0.5488932722847231
460000000.0 -0.06426950196377376 -0.7109898242313619
480000000.0 -0.10856426867072683 0.6520680678954239
500000000.0 0.43574935238011664 0.47243316239042604
520000000.0 0.005830896065388414 0.5760998822843947
540000000.0 -0.2790315814086884 0.43046226979312097
560000000.0 -0.45956113092169526 -0.0873663352265126
580000000.0 -0.34106174212613355 0.242955678894556
600000000.0 0.34275227850592077 -0.1519417088066746
620000000.0 0.3206631789996169 0.19502874467436396
640000000.0 -0.22437062741076216 -0.3398672768350437
660000000.0 0.4268827178980219 0.12663427575824324
680000000.0 0.11750464851127805 -0.442306625482291
700000000.0 0.4560182469526099 -0.02382300432414996
720000000.0 -0.43546181481432655 0.06562061826832032
740000000.0 0.005680928051873522 0.39494561848258664
760000000.0 -0.008929587623609146 -0.3494498126919608
780000000.0 0.2885921654931544 0.1389345667412209
800000000.0 -0.2528951061846317 -0.11165049544154028
820000000.0 0.12937675345580152 -0.20702574740532467
840000000.0 -0.04476699307259763 -0.19975124932236343
860000000.0 -0.18164291499270707 0.03363893710064682
880000000.0 -0.06750933791548983 -0.12767425657178708
900000000.0 -0.04221332011963149 0.1102293496676149
920000000.0 0.02544120267915048 0.07299661083730843
940000000.0 -0.013387049070188983 0.049548810141733055
960000000.0 -0.04101949846531786 0.04579172823587936
980000000.0 -0.02210843968765158 0.06795553489506075
1000000000.0 0.051313134871498176 -0.0583953312144412
1020000000.0 -0.05036747805285502 0.09730035901808479
1040000000.0 0.018494244570847865 0.12488950092072879
1060000000.0 0.05902945165209539 0.15418872330196587
1080000000.0 -0.1721823076489954 -0.11484689650489938
1100000000.0 0.23412042144809125 0.023487821945354936
1120000000.0 0.1299794764154402 -0.22818987328116197
1140000000.0 0.24452755684135422 0.13104324049087354
1160000000.0 0.16812940841562002 0.2474135316382152
1180000000.0 -0.005599909559264784 0.3276226558593042
1200000000.0 -0.00586750524703535 -0.34129270160536546
1220000000.0 -0.3170727374278989 0.18851142503452695
1240000000.0 0.3792540884500433 0.01427934123859137
1260000000.0 0.3733444778615788 0.11073933324645173
1280000000.0 0.3646455619502376 0.19326948847003725
1300000000.0 0.4131993134467334 -0.11755613859199604
1320000000.0 -0.030931333647854442 -0.4477598415574658
1340000000.0 -0.4024715703919878 0.19973943031566127
1360000000.0 0.3422612512940828 0.288849260561905
1380000000.0 0.36211236625944265 -0.21739759411577084
1400000000.0 0.39715421319055255 -0.08268816570081135
1420000000.0 0.12676987857481606 -0.36583618266647017
1440000000.0 -1.1381033687187271e-05 -0.3663765873117277
1460000000.0 -0.2939227420331772 0.18298459276759654
1480000000.0 0.2801276344184842 -0.14658640023488187
1500000000.0 -0.26440283837202927 0.0884957174199609
1520000000.0 -0.06463078681741806 0.22963014488440206
1540000000.0 0.17574578099245422 -0.09725640390907996
1560000000.0 0.15763676777456678 -0.03573324809298034
1580000000.0 -0.06787468374986746 0.11833476772901048
1600000000.0 -0.07463517038137493 0.0927080788353112
1620000000.0 -0.054916877278416945 -0.08814891878332723
1640000000.0 -0.03322099202194565 -0.07710014896222418
1660000000.0 -0.0063540714763196775 0.04929118941239165
1680000000.0 0.003715165144714434 0.016090037966259487
1700000000.0 -0.0152932905461115 -0.00577041711119857
1720000000.0 -0.02294741895744034 -0.030645920284640953
1740000000.0 -0.01204442831626905 0.059364500555841915
1760000000.0 0.08116427680754976 -0.027244869484814013
1780000000.0 0.09109183858903971 -0.06528568145396911
1800000000.0 0.06333561128433095 0.12709988398524835
1820000000.0 -0.11159021381531235 -0.13092523529729605
1840000000.0 -0.14783015418955747 0.1334588078239468
1860000000.0 0.2333222868312509 0.06483956155527289
1880000000.0 -0.13575090046030647 0.2484396117751999
1900000000.0 -0.10595905768957195 -0.29936436240454134
1920000000.0 0.27685810796569826 0.20723135145512636
1940000000.0 -0.0031643799477734345 -0.3690213971536026
1960000000.0 -0.24006163529266109 0.30736762927885614
1980000000.0 0.3523075977775702 0.19471394675884923
2000000000.0 0.36675472957780564 -0.19661150309200534
2020000000.0 -0.06181559729541894 -0.4206361455619977
2040000000.0 -0.38631639791187933 -0.18758511089212496
2060000000.0 -0.25646991920792866 0.3453344348026883
2080000000.0 0.3270163964880939 0.27110551025367907
2100000000.0 0.23913729892119426 -0.33800474467327735
2120000000.0 -0.251696715888242 -0.30192211526672647
2140000000.0 -0.29497390792308026 -0.2310161189296149
2160000000.0 0.10161490504332615 -0.33979120609067087
2180000000.0 0.04230014500700082 -0.33259609570874327
2200000000.0 -0.05640925152259179 -0.3122309100543941
2220000000.0 0.14621881142394635 -0.2686192202110944
2240000000.0 0.04392045683475151 -0.3031902339392433
2260000000.0 -0.29988546305245534 -0.0576514363087064
2280000000.0 -0.13765712876142963 0.27259291561794347
2300000000.0 0.028155975710876878 0.3089373968831681
2320000000.0 -0.012740547687083567 0.3329654828854091
2340000000.0 0.3260690868295672 -0.17586274748494207
2360000000.0 -0.3548763482565983 0.20873991778242038
2380000000.0 0.22764744915531188 -0.3937911311919381
2400000000.0 -0.31023466719758536 0.392394119775066
2420000000.0 0.276493778303216 -0.4788907680313548
2440000000.0 0.03466573317142094 0.6041094390185497
2460000000.0 -0.45201195108545994 -0.4713009827141261
2480000000.0 0.6913712988527227 0.03199687467391295
2500000000.0 -0.7133413383742725 0.11391387323130749
2520000000.0 0.7245960642709336 -0.17126142941189923
2540000000.0 -0.7555969113536792 -0.04485700979905516
2560000000.0 0.6861623632290166 0.3347836821004336
2580000000.0 -0.2638788566831488 -0.7146703394595689
2600000000.0 -0.14621062370603044 0.7372176291300142
2620000000.0 0.46531130871740345 -0.5698833438556192
2640000000.0 -0.3966700254943299 -0.5908539000389815
2660000000.0 0.19903200791464623 0.6500669521622735
2680000000.0 -0.09721730100301418 -0.6361139372711148
2700000000.0 0.12839056433357135 0.5925484730016206
2720000000.0 -0.2737210341892392 -0.497866585770726
2740000000.0 0.4592264608682254 0.2653790504441079
2760000000.0 -0.48633563083498366 0.0744251525492119
2780000000.0 0.3644215693865128 -0.27756779764967454
2800000000.0 -0.3602394864035985 0.23336186936239842
2820000000.0 0.4059488508186247 -0.05337250560343385
2840000000.0 -0.36757723032858214 -0.15550811725149377
2860000000.0 0.3009649766901283 0.25645640686089133
2880000000.0 -0.21001251322033895 -0.3295348826215167
2900000000.0 -0.2661820900400621 0.28217655293372046
2920000000.0 0.31686292069468236 0.22762640615782437
2940000000.0 0.23823988673358412 -0.3058705462715876
2960000000.0 0.19066733691898438 -0.3312455067399171
2980000000.0 0.3682390163761955 -0.09372073633056781
3000000000.0 0.325210811431138 0.20215107932785636
3020000000.0 0.0828367520138616 0.36956657605928805
3040000000.0 -0.3638224101537249 0.06885686055685875
3060000000.0 0.29102974844466806 -0.20966181934413763
3080000000.0 -0.3090153850223896 0.1601792603700891
3100000000.0 0.32608244705795136 -0.08778661463850138
3120000000.0 -0.3179700278446848 0.08330247496017233
3140000000.0 0.22692377635756636 -0.22126568999586113
3160000000.0 0.07546813908497493 0.2914520825298095
3180000000.0 -0.13260255319263117 -0.24725104005477946
3200000000.0 0.08372789049011571 -0.2333862482223029
3220000000.0 0.12990919364130307 0.15986433518287146
3240000000.0 0.16329967303938342 -0.031792845814656516
3260000000.0 -0.047585261986816826 0.1258554260344543
3280000000.0 0.02802909695900775 -0.10583974256841094
3300000000.0 0.031001554019570665 0.08322949061425372
3320000000.0 0.018063674868630825 -0.062158435069349705
3340000000.0 0.02916976037529277 0.030763341097828134
3360000000.0 0.03559983418602073 -0.01153261554137008
3380000000.0 0.041471208491913 0.0029144494035122487
3400000000.0 0.039535237166396925 0.014412698659679242
3420000000.0 0.023097646858986267 -0.02221975354768901
3440000000.0 -0.019340365728583213 0.0061850296865675475
3460000000.0 0.011897161387894647 -0.010240258048649933
3480000000.0 -0.019995453948531642 0.002421966186893833
3500000000.0 -0.025792091227636663 -0.013988355652971206
3520000000.0 0.03140699200917089 0.013161078028745771
3540000000.0 0.03981319323359937 -0.02319830428245715
3560000000.0 -0.055679479911351214 0.008986665306497886
3580000000.0 -0.03236421749581462 0.05837952752682417
3600000000.0 -0.0634083682324286 0.04822620252301764
3620000000.0 -0.04286310320054593 0.07278857357110745
3640000000.0 0.015655702776610568 0.08359992632004888
3660000000.0 0.08693577425144865 -0.02501457723348777
3680000000.0 0.01800491779932079 -0.09110602687290156
3700000000.0 -0.044685333072744374 -0.08290490787240082
3720000000.0 -0.006395442640090904 0.09792410344006919
3740000000.0 0.08930959907333484 0.020983435652103036
3760000000.0 0.03319798052288531 0.08560462464551839
3780000000.0 -0.09533614779644055 0.03246380818209432
3800000000.0 0.11942351861962609 -0.0030703036481945704
3820000000.0 0.03967834823991616 -0.1360271659885086
3840000000.0 0.02331145422978085 0.15461906245322088
3860000000.0 -0.11431234507876616 -0.12371258330208855
3880000000.0 0.15510910916409132 0.09371895287134226
3900000000.0 -0.15828406638029108 0.1136400620603388
3920000000.0 -0.1758957419198924 0.10400398463678603
3940000000.0 -0.16738133468845953 0.12546979131220964
3960000000.0 -0.18440618818630666 0.09890129430245774
3980000000.0 -0.20103534146387822 0.041553206351848344
4000000000.0 -0.14754262714682972 -0.1267384758921966
