!Created with skrf (http://scikit-rf.org).
# Hz S RI R 50.0 
!freq ReS11 ImS11
400000000.0 0.7211608759752305 -0.39644741753518103
420000000.0 0.37191158366594024 -0.7409658701089981
440000000.0 -0.611905728715277 -0.47121016618429107
460000000.0 -0.0075423800120867236 -0.7145223704381138
480000000.0 0.14145951793153447 0.6461705576231039
500000000.0 0.5724353654966072 0.2937455068464071
520000000.0 0.10447616409640186 0.5631772031065119
540000000.0 -0.29456922793965984 0.41954169106715045
560000000.0 -0.46634321406729684 -0.0149142527866312
580000000.0 -0.29492740757561126 0.2910720398434153
600000000.0 0.3711519674398482 -0.01978168179032391
620000000.0 0.22620223452720797 0.3023374534056621
640000000.0 -0.32446182822823666 -0.248524488258746
660000000.0 0.4448351284517762 -0.01969719609427599
680000000.0 0.04949870515546964 -0.4521898066939788
700000000.0 0.44971775499580907 0.06506634408255672
720000000.0 -0.43614328491159915 0.04534772109048941
740000000.0 -0.2541989464173173 0.30052732894937856
760000000.0 0.10886675769786103 -0.33561197715331714
780000000.0 0.30184167775220094 0.10460375992999585
800000000.0 -0.0778713443194053 -0.26549102810442515
820000000.0 0.2186904801092907 -0.11853728005901881
840000000.0 -0.19710936297172676 -0.06909559587517534
860000000.0 -0.17808256788396076 -0.04765583611046238
880000000.0 -0.1401446946388407 -0.02596791602892172
900000000.0 0.009432415555835443 0.1175084393047453
920000000.0 0.07388856823557224 -0.02076413388034939
940000000.0 0.03173575284296039 0.03872793577201392
960000000.0 0.059641065345415294 0.014714738917202541
980000000.0 0.005763361123626037 0.07097347339396856
1000000000.0 0.03540178573695601 -0.07173173111037222
1020000000.0 0.10857321284695981 0.02675694960236264
1040000000.0 0.12162283316287419 -0.03516473936614536
1060000000.0 0.15872378575139143 -0.041430188144848334
1080000000.0 -0.18784717649295862 0.08233724303587396
1100000000.0 0.22580959201520961 -0.04587684487451502
1120000000.0 0.20469875188717346 -0.15830074326518154
1140000000.0 0.19316908907934013 0.19534789336319777
1160000000.0 -0.009674553062031337 0.2962859531568579
1180000000.0 -0.21634898934966545 0.24549869753101472
1200000000.0 0.2164092846733521 -0.2655196549522712
1220000000.0 -0.3619778368912139 0.0910586131919711
1240000000.0 0.37992001722399 -0.04916396116683997
1260000000.0 0.39088883024205384 0.022169054197124453
1280000000.0 0.4127015049543668 0.002143358049880354
1300000000.0 0.36310263068935766 -0.2255160846626604
1320000000.0 -0.06178945985702506 -0.4423235433544928
1340000000.0 -0.4068930216719385 0.1849553971099066
1360000000.0 0.28628850619103235 0.34287607915968776
1380000000.0 0.4059464157447548 -0.11679248082545018
1400000000.0 0.4001201782746667 -0.07435916988226184
1420000000.0 0.08917632359432541 -0.37680043453254886
1440000000.0 -0.04692732182411825 -0.3628174665020045
1460000000.0 -0.3179562624221967 0.13331491832419287
1480000000.0 0.30601624779346803 -0.07759095401931175
1500000000.0 -0.2773091711494703 0.032982735615786365
1520000000.0 -0.09882679736314735 0.21736344679916064
1540000000.0 0.2000922097638508 -0.0006263291827252962
1560000000.0 0.1554194504069834 0.05110183592214889
1580000000.0 0.06464359434478721 0.122628121997311
1600000000.0 0.08557890943957426 0.08083221340244115
1620000000.0 -0.0986884708821098 0.01813563129854393
1640000000.0 0.002451067567769962 -0.07933667430095102
1660000000.0 -0.02762272843653952 -0.037885803991207466
1680000000.0 -0.00750232723808091 0.014045693153201165
1700000000.0 0.003997593242016411 -0.017785096314301023
1720000000.0 -0.008045123045570035 0.0375075029540165
1740000000.0 0.04787010717113674 -0.036500980602260466
1760000000.0 0.020693398823848835 -0.08102775259925796
1780000000.0 0.09482366436631828 -0.05625460223004471
1800000000.0 0.031989108017243514 0.13768562512218865
1820000000.0 -0.09324749477892874 -0.14507464389523392
1840000000.0 -0.17047578567248606 0.1037918686961567
1860000000.0 0.23729678869812615 0.05546817663794236
1880000000.0 -0.1425097258677433 0.24571233808628673
1900000000.0 -0.09322488615635018 -0.3049054226330825
1920000000.0 0.27679914312527093 0.20999049154234517
1940000000.0 -0.022332273943150134 -0.37060507662492115
1960000000.0 -0.1864878780663518 0.3445930047375962
1980000000.0 0.38919761730821006 0.10523748025688026
2000000000.0 0.35101193021558036 -0.22394871633393165
2020000000.0 -0.09240729708957117 -0.41502815900525913
2040000000.0 -0.37603536569211166 -0.20789595322093898
2060000000.0 -0.25055198430474634 0.35034975693826875
2080000000.0 0.3240220975381796 0.27562085512865575
2100000000.0 0.24900690638855139 -0.33133534343032595
2120000000.0 -0.2262883911601561 -0.3217115460113963
2140000000.0 -0.2658518992986174 -0.2654845793069491
2160000000.0 0.0977526715928858 -0.3425337464723383
2180000000.0 0.03484207656518844 -0.33449663486986775
2200000000.0 -0.041420606902620054 -0.3164547936725332
2220000000.0 0.1423502924274032 -0.27326937190012845
2240000000.0 0.01005423990628412 -0.308277401066338
2260000000.0 -0.30590504203131297 -0.027891315244609218
2280000000.0 -0.13128692276468215 0.27739518245535877
2300000000.0 0.0002680314487021849 0.3120000717745422
2320000000.0 -0.01360975454457922 0.3355622169862495
2340000000.0 0.30411570019579487 -0.2178820681182429
2360000000.0 -0.3069913488414944 0.2795453735236448
2380000000.0 0.13270124391203042 -0.43857713655666564
2400000000.0 -0.14926815417102662 0.4811596740482874
2420000000.0 0.05712794263122585 -0.5533794106101635
2440000000.0 0.3046438248811081 0.5261697472987737
2460000000.0 -0.6321151389290534 -0.17399472498771074
2480000000.0 0.6194480751484301 -0.31435733861511445
2500000000.0 -0.5485418946642605 0.4729449580351593
2520000000.0 0.48624027664490455 -0.5651054952007026
2540000000.0 -0.6149883121806254 0.4421260545865192
2560000000.0 0.7570711827280551 -0.09802507636595424
2580000000.0 -0.6814978325949388 -0.33697445283823696
2600000000.0 0.35296545585439 0.6604205532382282
2620000000.0 0.003010468474406001 -0.7314782105721231
2640000000.0 -0.6355110832961943 -0.3079233300924236
2660000000.0 0.566197061792594 0.3645845122222932
2680000000.0 -0.4959082589544933 -0.398828318996582
2700000000.0 0.47559303923067325 0.3634526452405263
2720000000.0 -0.5079968348836118 -0.23561719675347056
2740000000.0 0.5194569576109164 -0.05366182863311792
2760000000.0 -0.3871863276206692 0.29123014973944594
2780000000.0 0.23808474112312727 -0.38338346280645236
2800000000.0 -0.26524869508360593 0.33084699695575354
2820000000.0 0.36595221188054466 -0.17446810600835924
2840000000.0 -0.39412562896174236 -0.03963345069993943
2860000000.0 0.3624229905971111 0.149095948334995
2880000000.0 -0.27270739787116444 -0.27649505059494095
2900000000.0 -0.17932442137694252 0.34132202423927555
2920000000.0 0.36790500190996517 0.12236559765399446
2940000000.0 0.20435741577646657 -0.3268336357398882
2960000000.0 0.14654126127997655 -0.35152314838500653
2980000000.0 0.36240229775978156 -0.10974038811359327
3000000000.0 0.3211089286074512 0.20552944391543823
3020000000.0 0.12425038020983382 0.35586360759838837
3040000000.0 -0.3679330111998055 0.01558148495711535
3060000000.0 0.28461911076482976 -0.21458435175186255
3080000000.0 -0.3153231984263746 0.14382203680412525
3100000000.0 0.3253321508508569 -0.08419767836784797
3120000000.0 -0.31856158724076167 0.07215752183820712
3140000000.0 0.23703339084019298 -0.20827807415388644
3160000000.0 0.1184058158391935 0.2754112990994664
3180000000.0 -0.15466986891434856 -0.23145011924954098
3200000000.0 0.036938880326254704 -0.2427960653430224
3220000000.0 0.1300085401818839 0.15599452751504317
3240000000.0 0.16155983774050908 0.027108746197001498
3260000000.0 -0.13027807497997868 0.026864183379840565
3280000000.0 0.10820860544797842 -0.011795965596844864
3300000000.0 -0.08666956051632656 0.021950774745993395
3320000000.0 0.06634207858500842 0.0037272604612739496
3340000000.0 0.022681418872045014 0.037309939845002575
3360000000.0 0.03756030950406729 0.0008050460371315565
3380000000.0 -0.015325987235746909 0.04030644560797996
3400000000.0 0.011876514640548251 0.04183656738504681
3420000000.0 0.008998046181741895 -0.03314742458543457
3440000000.0 -0.004215291351798234 -0.02193543137829629
3460000000.0 -0.014621686271062544 0.0018537144214929983
3480000000.0 -0.0007044047236592388 0.018931325711743958
3500000000.0 -0.00818275021052339 0.027631335378519008
3520000000.0 0.020479534344871236 -0.02574719748425199
3540000000.0 0.029490329209312497 -0.033008461706042345
3560000000.0 -0.05445168486827046 0.006712432063680234
3580000000.0 -0.061753815760355664 0.020590177173847528
3600000000.0 -0.07807052830113252 0.00123219566122837
3620000000.0 -0.06970109209388996 0.046067186756213366
3640000000.0 -0.026407381320912037 0.08001586833917301
3660000000.0 0.07632654461422657 0.04637746376977463
3680000000.0 0.07654045959087916 -0.05045922930321353
3700000000.0 0.05060119493811729 -0.07866751805107884
3720000000.0 -0.08901117011635092 0.040848869531554845
3740000000.0 0.008135036606017427 0.09138881301777196
3760000000.0 -0.054056772822841465 0.07470918517200119
3780000000.0 -0.08865920200261344 -0.05079505028891913
3800000000.0 0.07865398709301953 0.09215699820928976
3820000000.0 0.09862096878763263 -0.10543381119745679
3840000000.0 -0.0060574214682201895 0.15908700283285118
3860000000.0 -0.12604990831814045 -0.11601190521215651
3880000000.0 0.1724843884790168 0.06503817863984836
3900000000.0 -0.1055219379153245 0.16629985762301136
3920000000.0 -0.14832738108516336 0.1430961317945983
3940000000.0 -0.16403256969107943 0.13421859640023853
3960000000.0 -0.18455259191182824 0.10562316243094513
3980000000.0 -0.20013071542669744 0.06003755074534928
4000000000.0 -0.1766754260563193 -0.09012469497634482
