!Created with skrf (http://scikit-rf.org).
# Hz S RI R 50.0 
!freq ReS11 ImS11
400000000.0 0.798050743199572 -0.20071303940624963
420000000.0 0.5044758462274572 -0.6558367253604372
440000000.0 -0.39977652354183457 -0.6589009346917781
460000000.0 0.2996995092407306 -0.6525669858274888
480000000.0 0.03559467513219796 0.6672383779678733
500000000.0 0.6225832341805175 -0.15024520858266763
520000000.0 -0.07931267701296568 0.5609573968909928
540000000.0 -0.49708118112434785 0.12547453056497976
560000000.0 -0.46174476821127475 0.0966197092984208
580000000.0 -0.24354633383637764 0.33837007901510047
600000000.0 0.34889787414603146 0.13820160305067974
620000000.0 0.34974341767857775 0.1386050405346887
640000000.0 -0.3396344978222023 -0.2345212787833739
660000000.0 0.39972142485671186 -0.19060904962278016
680000000.0 -0.020155996119340047 -0.45398715421227687
700000000.0 0.4479727164273789 0.03239536505500637
720000000.0 -0.3934637835097197 -0.17891689345962003
740000000.0 -0.3690271896270587 -0.1335834764967729
760000000.0 0.21661336594824251 -0.2899675123916992
780000000.0 0.32057772061428447 -0.03278003358472678
800000000.0 -0.2826191208022391 0.02298109868225228
820000000.0 -0.08750079861426385 -0.2269088947085127
840000000.0 -0.20539258065516885 -0.034138524250110956
860000000.0 -0.1786088425564924 0.016378760678021582
880000000.0 -0.0900123497008665 -0.11179436070043673
900000000.0 0.10488502214810021 -0.027283426584232898
920000000.0 -0.030119040638364823 0.06835995646242353
940000000.0 -0.05018667699966104 -0.001211328686342874
960000000.0 0.011188691029935501 -0.06013861521645399
980000000.0 0.06878901596534222 0.007370623532624066
1000000000.0 -0.08407323739596474 -0.020633947152095176
1020000000.0 0.021076743873590938 -0.11520457381872705
1040000000.0 -0.11229271801583815 0.06300846951758965
1060000000.0 -0.09598464164237859 -0.12821686277138244
1080000000.0 -0.18363672763998415 0.07040833418315305
1100000000.0 0.223010807727485 -0.03214056940237943
1120000000.0 -0.07568236363220307 0.24187831895174822
1140000000.0 -0.2806052295446434 -0.04127144100036922
1160000000.0 -0.17337773776421853 0.2562895069191618
1180000000.0 0.18583838611154138 0.2814137061818844
1200000000.0 -0.3391269041365581 0.043791540425763116
1220000000.0 -0.29106339926156677 0.21182028934949032
1240000000.0 0.17654901143667268 0.33064361622115923
1260000000.0 0.110603859292366 0.3802117060175535
1280000000.0 0.41484147283902156 -0.04481561201617733
1300000000.0 0.2685193384354927 -0.33776119309616603
1320000000.0 -0.3462721745049295 -0.2737889097559342
1340000000.0 -0.3651578983945023 0.2523558248600806
1360000000.0 0.04085842803167726 0.4368686168181791
1380000000.0 0.2503345523786155 0.34309277481477696
1400000000.0 0.4019699350063366 0.09916911234987585
1420000000.0 -0.009194792847988648 -0.39405496363995135
1440000000.0 -0.284270818053126 -0.23947367365961356
1460000000.0 0.03978762021026658 0.34356471588892085
1480000000.0 0.11513822926064977 -0.28945842258477733
1500000000.0 -0.26918502382215054 0.05362559010354629
1520000000.0 -0.23418467715717925 -0.003095469906756621
1540000000.0 -0.1805246699009871 0.09155222948373583
1560000000.0 -0.0031748224066514 0.17444750392843555
1580000000.0 0.06710423434625104 -0.13356247682742797
1600000000.0 0.04130119194666997 0.11114788506880247
1620000000.0 0.08894883991394939 -0.011291707431564903
1640000000.0 -0.05554825453470506 0.041306387218972486
1660000000.0 0.02657999058314773 0.03547098088826704
1680000000.0 0.01477648783922943 0.0180363007294887
1700000000.0 0.016442135652691495 0.0065356010651698125
1720000000.0 -0.029475990983286626 -0.012146880263231876
1740000000.0 -0.05060914526649109 0.014268873494974847
1760000000.0 0.07495513468333032 0.029728001010915762
1780000000.0 -0.09991388256163404 0.05776109501220886
1800000000.0 -0.0342233768248536 0.1436262345085237
1820000000.0 -0.1659901140299439 0.05499130923883335
1840000000.0 0.005678732268726481 0.19721536146268137
1860000000.0 0.23801161970926477 0.006443028398837883
1880000000.0 -0.2543641822494026 0.11634172695485238
1900000000.0 0.0664367726249439 -0.3118543636453876
1920000000.0 0.26761526678626807 0.2244718589751606
1940000000.0 -0.19507298612516383 -0.31641471210896693
1960000000.0 -0.03727179351192124 0.38902543695749153
1980000000.0 0.3951251989235964 0.0659092122685532
2000000000.0 0.3930165428116055 -0.13340605282171655
2020000000.0 0.07197539789808155 -0.42150835355257793
2040000000.0 -0.4198702485819011 -0.11082038671977994
2060000000.0 0.023934544827716266 0.4317307738702361
2080000000.0 0.3830822710147632 0.1777249520124941
2100000000.0 0.37716634362303875 -0.1632632821645844
2120000000.0 0.18451200310601842 -0.34942634967247954
2140000000.0 -0.09348800732523739 -0.3711700910014305
2160000000.0 0.02952475491234663 -0.36125170011668084
2180000000.0 -0.18410830392051233 -0.28423447187006623
2200000000.0 -0.19231713885129453 -0.2514211378407251
2220000000.0 0.19087161874957256 -0.23547078486176895
2240000000.0 0.2590392897812388 -0.15753997463412733
2260000000.0 0.024329110261732775 -0.3052043312655003
2280000000.0 -0.3127050893370571 -0.012158853352582473
2300000000.0 0.18833698213842748 0.25916085203130895
2320000000.0 0.32195010455717143 -0.09382868747336987
2340000000.0 0.12009579945065381 -0.34263906826153634
2360000000.0 -0.39511956110480906 0.09720473486609048
2380000000.0 0.3969882931255251 -0.2287029979638626
2400000000.0 -0.2449499038507425 0.44673361491751734
2420000000.0 -0.012980289822422112 -0.5600394250420067
2440000000.0 0.3901861483055326 0.4683948336642962
2460000000.0 -0.5962420461664131 -0.27058929821574346
2480000000.0 0.6905909133729425 0.06958128190904087
2500000000.0 -0.7157574659069955 0.11242244084672925
2520000000.0 0.7190016917504165 -0.20180566360487587
2540000000.0 -0.7590528948018316 0.0031804775073002354
2560000000.0 0.7587086594727338 0.09738079528451565
2580000000.0 -0.43581577084165973 -0.6256407666433368
2600000000.0 0.002140527517881886 0.7514292492852446
2620000000.0 0.3245969927978065 -0.6588726313864052
2640000000.0 -0.3419864142969555 -0.6224922277886864
2660000000.0 0.2109051173163048 0.6447249921523227
2680000000.0 -0.2447182967911015 -0.593239180155981
2700000000.0 0.30379310129654646 0.5226449285619446
2720000000.0 -0.5188324096652559 -0.21870537501156986
2740000000.0 0.5074808053124924 -0.11484307294709066
2760000000.0 -0.41910881872086503 0.23572160722402796
2780000000.0 0.4144079272728458 -0.17426416580774037
2800000000.0 -0.40756323373347597 0.12926109085069679
2820000000.0 0.3575058398837448 -0.20759895515359106
2840000000.0 -0.24369009593547092 0.31670325121164034
2860000000.0 0.335353874950633 -0.20002796279862203
2880000000.0 -0.35523283552180696 -0.14170986537950478
2900000000.0 -0.30258224551874063 0.23003709530857563
2920000000.0 0.09438224010831309 0.37493046770863164
2940000000.0 0.3837107348458241 -0.0798223434424229
2960000000.0 0.07847578425347486 -0.3825490864878283
2980000000.0 0.09085797115713125 -0.3709518829391978
3000000000.0 0.3790819814265155 0.0033699710825915003
3020000000.0 -0.017978538511552712 0.3722265834520582
3040000000.0 -0.19175507920898618 -0.3145970398424875
3060000000.0 0.35909305379608136 0.042055097280583355
3080000000.0 -0.3510086058019552 0.02402914227070158
3100000000.0 0.33768506291919675 -0.040069491519982146
3120000000.0 -0.3236917160686935 0.05570739076012647
3140000000.0 0.17819898601542714 -0.2610360283706945
3160000000.0 0.09303148142359785 0.28397823548622625
3180000000.0 -0.07661102668956764 -0.26572800035082256
3200000000.0 0.19353580754222113 -0.14887434645635364
3220000000.0 0.018872934262207295 0.20351996553368656
3240000000.0 0.15389865426643615 0.06361063227142817
3260000000.0 -0.06644530224363841 0.1160835161582738
3280000000.0 0.01081300897295562 -0.1072729493701078
3300000000.0 0.052359095082700334 0.06752482653979398
3320000000.0 0.044626199782784946 0.040336359960871024
3340000000.0 0.037809089267459815 0.02099999716329023
3360000000.0 -0.025225446704472132 -0.030993249627616036
3380000000.0 -0.02312840239227755 0.03272595209961843
3400000000.0 -0.012818977093644157 0.0354307153639248
3420000000.0 -0.0026493979063029562 -0.030727779079046443
3440000000.0 -0.021018187297066022 0.006499818259362221
3460000000.0 -0.01278710259942141 -0.013245466234085835
3480000000.0 -0.01602805304231015 -0.000559045794255528
3500000000.0 -0.023676892153572344 -1.1553551647016632e-05
3520000000.0 0.024483857741597434 -0.02700832979872015
3540000000.0 -0.049888514970068534 0.01260506758747142
3560000000.0 -0.06024149120290698 -0.005605177973255351
3580000000.0 0.014596675442074377 -0.06390319697576802
3600000000.0 -0.06965908624857016 0.019632981527184245
3620000000.0 0.07865075266333936 0.008053718660689374
3640000000.0 0.050572483205797436 -0.06886639281045974
3660000000.0 0.003660177395579775 0.09287278094971213
3680000000.0 0.020569837839228694 -0.09289442922518965
3700000000.0 -0.08366582666253229 0.04024461538780778
3720000000.0 -0.08839907495541784 -0.029439341592008714
3740000000.0 -0.07976174539834985 -0.04317088682370433
3760000000.0 -0.07932787830703052 -0.0510718824908968
3780000000.0 -0.0795275264696255 0.06523961770145108
3800000000.0 -0.01981531531113176 -0.11553579044973813
3820000000.0 0.02147586548719901 -0.1327447387523224
3840000000.0 -0.14651583400880047 0.03679350856538802
3860000000.0 0.156644275719516 -0.05665091124904771
3880000000.0 -0.0044467741728278385 0.18327436724071675
3900000000.0 -0.072543453305103 0.18314554806994052
3920000000.0 0.032974591262022394 0.19962304540589004
3940000000.0 -0.11394000163642932 0.16946229022641293
3960000000.0 -0.20184311854576556 0.0164168905349453
3980000000.0 -0.18412281024497928 -0.08326839505039149
4000000000.0 -0.09816651682840272 -0.16782272810956533
