!Created with skrf (http://scikit-rf.org).
# Hz S RI R 50.0 
!freq ReS11 ImS11
400000000.0 0.7637755105118036 -0.277953922010101
420000000.0 0.7937596740947493 -0.24198210563822362
440000000.0 -0.21098504980098445 -0.7504419457764051
460000000.0 -0.20045237444600994 -0.6982147423981708
480000000.0 0.40869109430245043 0.5160031863883523
500000000.0 0.5008585950354786 0.39744313144445226
520000000.0 -0.27868667223480376 0.4950533429144192
540000000.0 -0.5171058195284497 0.005270862814034869
560000000.0 -0.4730016513378432 -0.04045572601396044
580000000.0 -0.21722573592390923 0.360137326319401
600000000.0 0.363244852106219 0.11317179854670315
620000000.0 0.33756244021898174 -0.16920332426013165
640000000.0 -0.40608462629567493 0.07638671185386373
660000000.0 0.13516409469337717 -0.42242474420577925
680000000.0 -0.27068679511302685 -0.35455819546083034
700000000.0 0.4037259646622722 0.17567493504983359
720000000.0 0.07158292286053859 -0.4241560263106259
740000000.0 -0.11501468200754295 -0.3804557944518427
760000000.0 0.30317447904010575 -0.20696778647538994
780000000.0 0.3249955838792973 0.05421118992963991
800000000.0 0.15921157139281533 0.23463181090474314
820000000.0 0.16844625976910316 -0.1705226198060511
840000000.0 -0.1958261739257006 0.06872443258832503
860000000.0 -0.1536984921848518 0.09579114346310978
880000000.0 -0.13912717259070878 0.03104363435701448
900000000.0 0.0370814738942832 0.10333690359239801
920000000.0 -0.07596915835668513 0.00560458799676684
940000000.0 0.04417029966149677 -0.03189991334764305
960000000.0 0.04836113834619042 0.032916944149729906
980000000.0 0.063876331229979 0.04554875753132548
1000000000.0 0.08265916083113252 0.02385662621875878
1020000000.0 0.06416813714918117 -0.08496547909852356
1040000000.0 -0.12638690016388537 -0.03633434982837006
1060000000.0 -0.017514270016650093 0.1546853660714054
1080000000.0 -0.16761484982915903 0.08722155324592709
1100000000.0 0.018579586853473943 0.21933658641458173
1120000000.0 -0.2354555470984838 0.09321194934391794
1140000000.0 -0.2773376223330812 -0.07397988955926345
1160000000.0 0.09559987878961766 0.2913005729584581
1180000000.0 -0.05809829237384732 0.3298713217770141
1200000000.0 -0.3396348577891256 -0.04021215485590335
1220000000.0 -0.30925727870847 -0.1799198886907311
1240000000.0 -0.15753322950545953 0.35666370113112694
1260000000.0 0.37394619700060794 -0.1620184172632574
1280000000.0 -0.3279574444967613 -0.25586332578523224
1300000000.0 -0.16800255745672343 -0.3775604001768047
1320000000.0 0.057125176610500324 -0.4224574194228346
1340000000.0 0.009629340085606317 -0.4406059495376825
1360000000.0 -0.44855115056160005 -0.02555531369900481
1380000000.0 0.2709007919682076 0.350222228743216
1400000000.0 -0.24202209350563852 -0.34757505926873933
1420000000.0 -0.29402006658518576 0.250181444956695
1440000000.0 -0.34586116502104264 -0.06892437702865599
1460000000.0 -0.1565846186630088 -0.2947254150487971
1480000000.0 -0.17934668509380916 0.26359461258059186
1500000000.0 -0.2092471924109491 -0.1993356559516397
1520000000.0 -0.07222276307720905 0.23829082949416083
1540000000.0 -0.2065854184017323 0.037626592631886044
1560000000.0 -0.1307284778594148 0.08781003572720594
1580000000.0 -0.025820512515512897 0.12878514887412168
1600000000.0 0.012715786114895567 0.11526708600984531
1620000000.0 -0.08569338750922563 -0.04844845666184235
1640000000.0 0.0010574480590924277 0.07700919753163862
1660000000.0 0.03677839150084198 0.033475226712978215
1680000000.0 0.011547428471273954 0.015830778890005177
1700000000.0 -0.0035218180089195594 0.017921753342260087
1720000000.0 -0.03894478302545158 0.007212342885691766
1740000000.0 -0.024314897129311164 -0.04990796821159236
1760000000.0 0.0799892091275063 -0.015385996232808933
1780000000.0 0.05435216185701868 -0.09204219090645006
1800000000.0 -0.012168725894578885 0.1381524607188315
1820000000.0 0.12342756690806046 -0.11293718090109738
1840000000.0 -0.1917767086578421 -0.06600296702302139
1860000000.0 0.22778324347382362 -0.09007302146610568
1880000000.0 -0.10226021272259045 0.26060854441049663
1900000000.0 0.06759096872634901 -0.30640329426516927
1920000000.0 -0.07606118006286615 0.33759024567548707
1940000000.0 0.3459864954939666 -0.14615557317304723
1960000000.0 -0.24189090109617792 0.3274669407687009
1980000000.0 -0.1371175491606913 -0.391260930081078
2000000000.0 -0.4007789133239846 0.070425135567141
2020000000.0 -0.16308182183860437 -0.36901885762162495
2040000000.0 0.3310645560006888 -0.2541598515840419
2060000000.0 -0.20930168273643382 -0.3812339001080464
2080000000.0 0.07773243982729296 0.42925384091946045
2100000000.0 0.13408202221202645 -0.4005300284257708
2120000000.0 -0.39264160629257755 -0.053552700745448885
2140000000.0 -0.35020944104621854 -0.12275665933856707
2160000000.0 0.21978180383464901 -0.2753132545988843
2180000000.0 0.24160254317712127 -0.23681415923529966
2200000000.0 -0.10245828807583418 -0.30896316640832816
2220000000.0 -0.2843567265253052 -0.1213485096465068
2240000000.0 -0.27984136963591505 -0.11142911813597092
2260000000.0 -0.25758902810308887 -0.14267683490090305
2280000000.0 -0.19730435273969338 -0.22784265737321613
2300000000.0 -0.300866156217693 0.10150644764550892
2320000000.0 0.13965665116446416 0.3100425064444698
2340000000.0 0.03848500326235016 -0.3703610850039067
2360000000.0 -0.04476228170198983 0.40339176623566314
2380000000.0 0.3064826257568707 -0.32436477680681275
2400000000.0 -0.4626841294928332 0.1818418470697287
2420000000.0 0.45517964686830675 -0.3182400348340258
2440000000.0 0.1321039774129404 0.5950315067885008
2460000000.0 -0.5825973698517579 -0.2949340011724633
2480000000.0 0.6917170039232378 -0.004880473455261661
2500000000.0 -0.7131038306991624 0.11308020999221882
2520000000.0 0.7298205643400394 -0.145846458626233
2540000000.0 -0.7574973973230883 0.015250781059902558
2560000000.0 0.7038544797670383 0.29674720070310556
2580000000.0 -0.34007327684154764 -0.6816987448334586
2600000000.0 -0.0362438147901327 0.7503704074834537
2620000000.0 0.32084425143720646 -0.6604072791742076
2640000000.0 -0.4103961175191539 -0.5801841953031199
2660000000.0 0.3870884986594552 0.5592279653488399
2680000000.0 -0.4474762198486397 -0.46260793758839824
2700000000.0 0.47658959056529815 0.37009578227031026
2720000000.0 -0.5060745736384049 -0.2422612454857245
2740000000.0 0.48605615481612835 0.19012680020718217
2760000000.0 -0.48377211610839654 -0.05618595315257387
2780000000.0 0.44806694466440183 -0.09412124274241848
2800000000.0 -0.3500959696902365 0.2555200830053353
2820000000.0 0.218218901421313 -0.3517473808750046
2840000000.0 -0.28260105851312634 0.27782141624049256
2860000000.0 0.3600391695334773 0.1475413896419461
2880000000.0 -0.0389254418568981 -0.3855685264101811
2900000000.0 -0.34121852986767365 0.18511732205337186
2920000000.0 0.1660628735873604 0.3531820592216622
2940000000.0 0.35629870831419813 -0.16862822289161475
2960000000.0 0.017381298127131913 -0.3873314667375495
2980000000.0 0.1779126010551656 -0.33870115440845855
3000000000.0 0.37434156290220694 0.06045229895259485
3020000000.0 -0.004607425515805291 0.3742912528424338
3040000000.0 -0.2689163435716988 -0.25042592359744603
3060000000.0 0.35993808909856767 0.003768465861847039
3080000000.0 -0.3460434132114825 0.04469153803542933
3100000000.0 0.33572145159097766 0.05692444760604154
3120000000.0 -0.3193370498688959 0.09800550338046644
3140000000.0 -0.03917236640293778 -0.31698252012485806
3160000000.0 0.24793348976328194 0.16647902904481537
3180000000.0 -0.06813609207989499 -0.2661529617390508
3200000000.0 0.2440070248437729 -0.033970410082854674
3220000000.0 -0.03934989669054486 0.2059676722490477
3240000000.0 0.1530581690542694 -0.07333739699508017
3260000000.0 0.019248945086674928 0.13470946577143655
3280000000.0 -0.0446795800720573 -0.09873070559065028
3300000000.0 -0.08535404158544013 0.005612033124459847
3320000000.0 -0.03874264522116532 -0.05253435935809878
3340000000.0 0.011124910337215502 -0.046127571282801205
3360000000.0 -0.0022869433621162893 0.04093178680510392
3380000000.0 0.0025598136888550518 0.040246686855801864
3400000000.0 -0.022048875592698396 -0.03168671266917601
3420000000.0 0.03309928170474785 0.01346358002663975
3440000000.0 -0.012836053447258975 -0.023172372638764066
3460000000.0 0.0013789618623525242 0.014635460934015049
3480000000.0 -0.016238620621896405 -0.0032442734325450234
3500000000.0 -0.02544118841719801 0.005555224370199234
3520000000.0 -0.03210903471937377 -0.015497556152487843
3540000000.0 0.034374283696159975 0.031424724905600596
3560000000.0 -0.00906147098963016 -0.0578128009274308
3580000000.0 0.049783460609121664 -0.04755558786200588
3600000000.0 0.07322091350053363 -0.012817570253925197
3620000000.0 -0.01857713114694959 -0.07570478531320005
3640000000.0 0.004957357857449154 -0.08425720556500402
3660000000.0 -0.018690739451590714 0.0883714998713838
3680000000.0 0.03639777455572318 0.08540217974716433
3700000000.0 0.09560948440034382 -0.006808009343896867
3720000000.0 -0.08988170044974525 0.03945773836676162
3740000000.0 0.009618884445902646 0.09076980944645527
3760000000.0 -0.047582570050224426 -0.07827556891305412
3780000000.0 0.0058149915061905255 -0.10404931666822625
3800000000.0 0.10983700573961903 0.05245493718262543
3820000000.0 0.13821583523394682 0.014257578566142898
3840000000.0 -0.15557137329554144 -0.01698629211689482
3860000000.0 0.08945883623085944 -0.14703115577047174
3880000000.0 0.11995893515253349 0.13980678797557564
3900000000.0 -0.14491907257250794 0.13174035902148076
3920000000.0 -0.20525987205706123 -0.015753884352084968
3940000000.0 -0.2134781022498733 -0.00047574441762669945
3960000000.0 -0.11560602038619316 0.17905438739097868
3980000000.0 -0.15939073211687957 0.1322474068358615
4000000000.0 -0.09607638723096984 -0.17312943756720303
