!Created with skrf (http://scikit-rf.org).
# Hz S RI R 50.0 
!freq ReS11 ImS11
400000000.0 0.38098822098041923 -0.7249946834958882
420000000.0 -0.03834430311458811 -0.8230283221105529
440000000.0 -0.6035897890557447 -0.46716658382349063
460000000.0 0.20060827182113178 -0.6780466806575965
480000000.0 -0.36718069850976087 0.5511460943631492
500000000.0 0.03737702994935452 0.648619069794504
520000000.0 0.07004212223358709 0.5859298273245663
540000000.0 -0.4348390823053136 0.2787373022672471
560000000.0 -0.292035735846761 -0.38597237189346756
580000000.0 -0.2976466818488504 0.314487035845804
600000000.0 0.28686883210546 -0.2757041736074967
620000000.0 -0.26979362659144124 -0.2754452977979306
640000000.0 0.11801056555678012 0.40288632254341006
660000000.0 -0.26725543359817505 0.3658989284887204
680000000.0 0.4188991716450789 0.12263621571905697
700000000.0 -0.06005600346774845 -0.4161998678583373
720000000.0 -0.40651454990204583 -0.009638812907282043
740000000.0 0.09961806781932382 -0.3596711698314244
760000000.0 0.10814971374388098 0.3293875867424922
780000000.0 -0.2259813283528272 -0.2338611721780882
800000000.0 -0.13294216950633794 -0.26536766139150225
820000000.0 -0.07187974931482242 -0.24410730626287308
840000000.0 0.02349861960799436 0.2167812263193304
860000000.0 0.1863416086893441 -0.013818823683615807
880000000.0 -0.059025778911709875 -0.14544233737569273
900000000.0 0.09088638332183133 -0.0650754416182817
920000000.0 0.06724330451914184 0.023373700848859043
940000000.0 0.013230862074786407 -0.05437002479152589
960000000.0 -0.060809625700252126 0.01942027841396974
980000000.0 -0.06607417697768313 0.04145411205356035
1000000000.0 0.08877514708780485 -0.0037401660919614416
1020000000.0 -0.08854296949318473 -0.05438955656496635
1040000000.0 -0.09074178248107977 0.07672331548964446
1060000000.0 -0.14470561329142576 0.04761748483176174
1080000000.0 -0.09433696214674912 0.16213051341594173
1100000000.0 0.19353573374855457 0.09666653682480615
1120000000.0 0.11348433807081933 0.21672390931156862
1140000000.0 -0.13778358537301 -0.23658023983930887
1160000000.0 -0.15687842280102904 0.2609238272295626
1180000000.0 -0.13591981806080328 0.29439319260450303
1200000000.0 0.1893805495312277 -0.28649268906235104
1220000000.0 -0.29157855841574565 -0.22122316157977306
1240000000.0 -0.10479066521712527 0.3815675335057972
1260000000.0 0.1437356500873032 -0.3887300563532501
1280000000.0 -0.37004442000156157 -0.19959170448537292
1300000000.0 -0.2728951124382096 0.3273246192243412
1320000000.0 -0.23732248791540475 0.3525532460601745
1340000000.0 -0.24386500802747207 0.35301239355547354
1360000000.0 -0.063289527537299 0.4259074903149112
1380000000.0 0.3528855298307419 0.22404306815524938
1400000000.0 0.39519775825455156 0.067484916624785
1420000000.0 0.36821587363737407 0.11628814942699686
1440000000.0 0.23268653441754394 -0.2935888830831962
1460000000.0 -0.19558942527545434 0.299086601579986
1480000000.0 -0.24122455772994128 -0.21426313763119256
1500000000.0 0.2716537619751012 0.06942737872457917
1520000000.0 0.10535758285603566 -0.2088185239266048
1540000000.0 -0.18217991239405565 -0.06966156416555358
1560000000.0 -0.03838030790428786 0.15177210014736178
1580000000.0 -0.09588227577090794 -0.07868104647565412
1600000000.0 0.040673535416132604 -0.08909553348588861
1620000000.0 -0.06023993212914101 -0.05166434688003376
1640000000.0 0.0023276892906177044 -0.06867068426963949
1660000000.0 0.03763845722846866 0.03880994096591939
1680000000.0 0.03487915561480504 -0.011877346115887909
1700000000.0 0.013184602507631002 0.021403142276005514
1720000000.0 -0.023379864360632826 0.0004438222291465727
1740000000.0 0.021868969675498184 -0.033177652235977316
1760000000.0 0.034954506761099347 0.055709050248072406
1780000000.0 -0.019730507527154596 -0.10175268285994131
1800000000.0 -0.1490253021357128 -0.03308472979828303
1820000000.0 0.08972177820829379 0.17212674252354312
1840000000.0 0.02760198977576348 0.22637911892356205
1860000000.0 -0.24073271341370603 0.11098916885289219
1880000000.0 -0.27803358010156126 -0.11147569639022878
1900000000.0 0.2835168690865804 -0.15052145136202746
1920000000.0 -0.3363323493217573 -0.05886409626499991
1940000000.0 -0.258253936969229 0.252042049317293
1960000000.0 0.19941414957819203 0.3288759299489638
1980000000.0 0.36566274271408006 -0.16223882298045425
2000000000.0 0.22176789651299944 -0.3512358872132541
2020000000.0 -0.2743086802941871 -0.3312138923013478
2040000000.0 -0.35122205816000185 0.2626304061248237
2060000000.0 0.39295377250666075 0.19637211929684012
2080000000.0 0.12684671769360803 -0.4129277461672699
2100000000.0 -0.3975101605713048 -0.13154639996965828
2120000000.0 -0.24783380056534465 0.3164783634043516
2140000000.0 -0.3810846147710514 0.030774193889579367
2160000000.0 -0.1890376089599805 0.3092604496645763
2180000000.0 0.1970385579458682 0.2759425913493968
2200000000.0 -0.002234012963325087 0.31801164024589507
2220000000.0 -0.3010234227140917 0.063882224995498
2240000000.0 -0.3102510919300689 -0.0028712981913325995
2260000000.0 -0.1136479393760355 0.2944676490132494
2280000000.0 0.29250731701911636 0.13906827904820082
2300000000.0 0.12802253050054804 -0.3146642430104536
2320000000.0 -0.35813330083505945 0.06612181254787577
2340000000.0 0.3852758454803638 0.09491382787127155
2360000000.0 -0.4285341830572572 -0.07584516186858821
2380000000.0 0.47216706896422533 0.0800307244233608
2400000000.0 -0.5280224809589796 0.027291685405368128
2420000000.0 0.5096939150116359 -0.27696658772879645
2440000000.0 -0.2591723977227371 0.5742470402962766
2460000000.0 -0.23030493710043448 -0.6329100632628776
2480000000.0 0.6011787519527758 0.37671638913348765
2500000000.0 -0.711065201132699 -0.18379577240299447
2520000000.0 0.7438273931618322 0.1018830775811597
2540000000.0 -0.6777976121375104 -0.3383435421979991
2560000000.0 0.48354776501021207 0.5829000865715388
2580000000.0 0.02134386215771309 -0.7481474983403468
2600000000.0 -0.4150640063777265 0.6028100415364732
2620000000.0 0.568080257943478 -0.42652920263168864
2640000000.0 -0.017456592214223122 -0.6808715611036417
2660000000.0 -0.07400322858562491 0.6414515557256296
2680000000.0 0.1601884517506484 -0.5854429000161656
2700000000.0 -0.15268098260434035 0.5451264651644562
2720000000.0 0.01270667663080178 -0.5236857349215004
2740000000.0 -0.1035865464774012 0.4688473661412988
2760000000.0 0.3855386640563469 -0.22067865179801188
2780000000.0 -0.3701822173401299 -0.19826342301114558
2800000000.0 0.1843912721600604 0.3622414338076219
2820000000.0 -0.2969164116277235 -0.2644685077138002
2840000000.0 0.37366442947322887 0.10695715524537765
2860000000.0 -0.3366146720097179 -0.18372298407458432
2880000000.0 0.2457270196506962 0.2891076309593168
2900000000.0 0.20829898009501757 -0.3129757344709305
2920000000.0 -0.2614857141216361 -0.26923829951753797
2940000000.0 -0.35973833351553314 0.09844866696176065
2960000000.0 -0.36763031984420286 0.0028614249276145425
2980000000.0 -0.0457811934426309 -0.3633871002510889
3000000000.0 0.37058850241657526 -0.0016126805992470602
3020000000.0 0.042620302103700644 0.36842263557601174
3040000000.0 -0.3635587947436337 0.04781820666643441
3060000000.0 0.15751377883867662 -0.3233849410810207
3080000000.0 0.036055544688761175 0.3492793434160105
3100000000.0 -0.21358453839188843 -0.2646178766131476
3120000000.0 0.29974431940318863 0.13143386355505665
3140000000.0 -0.22820687034618825 0.20895441333730008
3160000000.0 0.08080413225154065 -0.27365059476188175
3180000000.0 -0.19999206244043788 -0.16511251567246668
3200000000.0 0.1099829023893404 0.20397222371056573
3220000000.0 0.054043348834303735 -0.19666991258224306
3240000000.0 -0.17206250419279445 -0.03630076252623733
3260000000.0 -0.06285824393171373 0.1352846437614314
3280000000.0 0.10042140781697872 0.0639280583421318
3300000000.0 0.06292930249607713 0.06345308025669413
3320000000.0 0.03516518951336102 -0.04919366208126436
3340000000.0 0.01149195432977247 -0.03717307225570136
3360000000.0 0.022216686683548915 0.02598133710807525
3380000000.0 0.0013599769370563016 -0.040480334240158254
3400000000.0 0.04137839944868036 -0.013212830718539294
3420000000.0 -0.027945941859073103 -0.02479236375508559
3440000000.0 -8.461071497341063e-05 -0.022952789236942335
3460000000.0 0.0028022642129222294 0.0008409831785881137
3480000000.0 -0.013687016663220804 0.015479696292785975
3500000000.0 -0.042182537060072335 -0.0007494873470086798
3520000000.0 0.009407379461708974 -0.05654274987170336
3540000000.0 0.05521849124837805 0.04052763908689214
3560000000.0 0.06170556666906551 -0.03616199928366302
3580000000.0 0.02425674217216101 0.06747018041029378
3600000000.0 -0.057695906128813056 -0.04519505906975055
3620000000.0 0.07474685902868776 0.031930833985266756
3640000000.0 0.07515686412944018 -0.056399100850249406
3660000000.0 0.10038837187941546 -0.02737322256719644
3680000000.0 0.01759015656150456 0.10338386308588664
3700000000.0 -0.0891566223721594 -0.054402366794448875
3720000000.0 0.09758631971313315 0.02502938688480633
3740000000.0 0.04152777481003953 -0.08302151259196199
3760000000.0 0.04958104428512103 0.07041996783958572
3780000000.0 0.0854303358064297 0.028149152614017247
3800000000.0 0.05526133731082109 0.09494803134798621
3820000000.0 0.13099059307203087 0.02621832677882452
3840000000.0 -0.13647727944985819 0.06716285377363719
3860000000.0 -0.09278973777554642 -0.13914169099673357
3880000000.0 0.034862955989033155 -0.17665106651411644
3900000000.0 0.16744463058117168 -0.08198210410643939
3920000000.0 0.12140291620489917 0.14195833531576205
3940000000.0 -0.15065901741548632 -0.11108698311088834
3960000000.0 0.1430613195309059 0.12749748303943503
3980000000.0 -0.06700507368222045 0.18522020552855584
4000000000.0 -0.09683443297878776 0.16922334390133809
