!Created with skrf (http://scikit-rf.org).
# Hz S RI R 50.0 
!freq ReS11 ImS11
400000000.0 0.794866645949016 -0.21686696936435884
420000000.0 0.47041213654215475 -0.6803573383199961
440000000.0 -0.3960039569288297 -0.6646490546908181
460000000.0 0.12314101314400556 -0.7101603581973855
480000000.0 0.46162526388472186 0.4845548297600151
500000000.0 0.6200795446254185 -0.13612573793902166
520000000.0 -0.07201146988461314 0.5624015807913504
540000000.0 -0.42809623583278444 0.26457818502765534
560000000.0 -0.25400687611973954 -0.39184429618382605
580000000.0 -0.2868251462006567 -0.3064973133320595
600000000.0 0.3831892604547755 0.04944111306739889
620000000.0 0.3619089036588831 0.09279446658973473
640000000.0 -0.3287776090683806 -0.2476514565018105
660000000.0 0.44663602355142934 -0.02157061283387323
680000000.0 -0.20056653573983557 -0.41042738112445426
700000000.0 0.43524661388278374 -0.11673417343814511
720000000.0 -0.39624070342037154 0.18097082386572483
740000000.0 -0.37812123010765947 0.050863550634957816
760000000.0 0.3527687185898032 0.05930820653790839
780000000.0 -0.012764855841948078 0.3268567186939835
800000000.0 -0.22141436783012577 0.18949555767790047
820000000.0 -0.23314032557283648 -0.08141755328126148
840000000.0 0.13753172763291877 0.15121852355429044
860000000.0 -0.16735130738409212 -0.02332216998421363
880000000.0 0.016013969011968957 0.13740850110659783
900000000.0 0.11368428999201653 -0.025317492499379975
920000000.0 0.04213889662034852 -0.07057262287889493
940000000.0 0.027408912876626786 -0.04856142596345228
960000000.0 -0.015452206562012611 -0.06224866126145527
980000000.0 -0.0045721384731752185 -0.07805376353599158
1000000000.0 -0.0051497867284771215 0.08859740847365724
1020000000.0 -0.0016343314834108928 0.10792686345968468
1040000000.0 -0.11833137215509892 -0.033512553624947
1060000000.0 0.15095493828973525 -0.04418261430767601
1080000000.0 -0.19661999292583854 0.03144692323759989
1100000000.0 0.08328467317011887 0.20487082940432033
1120000000.0 -0.24961728474458553 0.0735537606520919
1140000000.0 -0.27075294643093856 0.10272259887150538
1160000000.0 0.2683614406104163 0.16406484029723822
1180000000.0 0.21947245081861586 -0.24816760716436004
1200000000.0 -0.2770789391451038 -0.17746612553289123
1220000000.0 -0.3527848926528645 -0.05619816903197764
1240000000.0 -0.36400874747192796 0.108154360275097
1260000000.0 0.22175912461437777 0.3438570730412959
1280000000.0 0.02014983156842838 -0.4184138026337304
1300000000.0 -0.007297634134386 -0.4249888297335394
1320000000.0 -0.3039531381963519 -0.3159107083854322
1340000000.0 -0.43488987494106246 0.06440252940716626
1360000000.0 -0.22006474472689555 0.38399487518676584
1380000000.0 0.2659996874293274 0.33764917397608196
1400000000.0 0.36486182095765485 -0.19987795629444444
1420000000.0 -0.18494055423061173 -0.3439504431023174
1440000000.0 -0.23619169198963058 -0.280471684092508
1460000000.0 -0.12528241115190664 0.32273372025230157
1480000000.0 0.17173517149280804 -0.259818061601649
1500000000.0 -0.27221711167633844 -0.021313820283086878
1520000000.0 -0.20987660738049854 -0.10853004962389318
1540000000.0 -0.03365918500617161 0.20287639107439592
1560000000.0 0.16024509405965165 0.06001702282901214
1580000000.0 0.1205102026450187 -0.07871582955225709
1600000000.0 -0.10362484327983125 -0.05783311403336269
1620000000.0 0.09060655516824764 0.028060034287166243
1640000000.0 0.04159848133307066 -0.05964522809957635
1660000000.0 0.03921758521571696 0.017009656154895157
1680000000.0 0.014815826326909292 0.013094553278389123
1700000000.0 -0.014303696658781425 -0.011417353728589218
1720000000.0 0.007466653072311979 -0.03446959088486476
1740000000.0 -0.054477844207522066 -0.007852309487124103
1760000000.0 -0.0069015464832330176 0.07793115361457895
1780000000.0 -0.05379746439852912 0.09290427686376383
1800000000.0 -0.06414482605855285 -0.12906370227813954
1820000000.0 -0.00958434201421848 -0.17925616208825534
1840000000.0 0.10334464315442002 0.17538231007536573
1860000000.0 0.19402290435648462 -0.14126017019497486
1880000000.0 -0.10090367993951409 0.2621257189800307
1900000000.0 -0.1027477565280756 -0.2986872090648688
1920000000.0 0.1881081162828095 0.2889566641586371
1940000000.0 0.08309952939109144 -0.3609179519367149
1960000000.0 -0.2742792485131784 0.28186779608917906
1980000000.0 0.38875272112664067 0.11648346093944459
2000000000.0 0.26316359669381245 -0.3254060037185001
2020000000.0 -0.20404532196222847 -0.37258504764999995
2040000000.0 -0.42258462345163783 -0.07721169844228974
2060000000.0 -0.10810759732568687 0.4137568490358564
2080000000.0 0.2318386429383912 0.3515015293526487
2100000000.0 0.40756506726097735 -0.07677263375002931
2120000000.0 -0.017447432866931657 -0.3985824250396127
2140000000.0 -0.3364095680296293 -0.17883401039898061
2160000000.0 -0.08517412195171108 -0.3464469344853051
2180000000.0 -0.04546892872753239 -0.33217311222707463
2200000000.0 -0.03954175770308393 -0.316667450811758
2220000000.0 0.03958064254024109 -0.30339338715491565
2240000000.0 0.11149636063721806 -0.2825358845772459
2260000000.0 -0.17107472771857626 -0.25154845372501716
2280000000.0 -0.29481544313355507 0.09520026242976247
2300000000.0 0.10564325844241092 0.3002645773928798
2320000000.0 0.295419256908255 0.16008827303222417
2340000000.0 0.13493316029271502 -0.3414432877584219
2360000000.0 -0.3639654929279877 0.1831061011803638
2380000000.0 0.4131557371907874 -0.19208725157695003
2400000000.0 -0.36414653112830436 0.34967073723578906
2420000000.0 0.16864650584486784 -0.5311929244664425
2440000000.0 0.24541478553154084 0.5574876718323799
2460000000.0 -0.6335853437841886 -0.1690347036602991
2480000000.0 0.616751161420189 -0.32077259272057257
2500000000.0 -0.5659752965944208 0.4520946627457154
2520000000.0 0.6518824638102736 -0.3611514299815981
2540000000.0 -0.7415174123541726 0.15785277244198592
2560000000.0 0.7468049267758732 0.1637241553194043
2580000000.0 -0.4588925312145021 -0.6081853963026213
2600000000.0 0.2348805172587179 0.7127018694548403
2620000000.0 -0.048007166241947716 -0.7311226193718463
2640000000.0 -0.665695874900734 -0.2384145045791106
2660000000.0 0.6379935146400242 0.216884610831616
2680000000.0 -0.6037031947435064 -0.20682259083325222
2700000000.0 0.5391431889302924 0.26439585501186197
2720000000.0 -0.5287427224787438 -0.1841719136647346
2740000000.0 0.5196388703217656 0.055200605159884966
2760000000.0 -0.4806225615505566 0.07619388731255572
2780000000.0 0.4297853677624515 -0.1482884301525542
2800000000.0 -0.3581355202667891 0.236476026118694
2820000000.0 0.2792369246070602 -0.3004484511629575
2840000000.0 -0.25208485105581085 0.3081010924884152
2860000000.0 0.33979704001617217 -0.18802441554237462
2880000000.0 -0.27889571766625715 -0.2636096357852423
2900000000.0 -0.2874461806721076 0.253642532992237
2920000000.0 0.23308754078504518 0.31071784832779664
2940000000.0 0.304131202124203 -0.24405552588257992
2960000000.0 0.16189890375228252 -0.3504370774928223
2980000000.0 0.24951714213170115 -0.2897105983803914
3000000000.0 0.37968083961851207 0.0026313037754220818
3020000000.0 0.03010141103359716 0.3744251976329717
3040000000.0 -0.3672594446299774 -0.01827554149507971
3060000000.0 0.3510921329254496 -0.06781662922553341
3080000000.0 -0.34836667994088205 0.00628505745047316
3100000000.0 0.32648706921694687 0.09701543220987457
3120000000.0 -0.299487845473141 0.14376121119597557
3140000000.0 -0.05182604574031677 -0.31390071369090256
3160000000.0 0.25961920786017073 0.14302447785773575
3180000000.0 -0.041885039688627196 -0.27000818001166826
3200000000.0 0.22346214718225174 0.09660382929112935
3220000000.0 -0.16026467337543857 0.13361429872313269
3240000000.0 0.16963687704424987 -0.019482867764003615
3260000000.0 0.10034255672065676 0.08987672398925518
3280000000.0 -0.09559084430115806 -0.04733421153543398
3300000000.0 -0.07055543224057713 0.044410830416292284
3320000000.0 0.02599256439319315 -0.05837660183109535
3340000000.0 0.03835287315577182 -0.030381327891383772
3360000000.0 0.03974752794761266 0.012944372843087347
3380000000.0 0.03477174207853627 0.01823172026078607
3400000000.0 -0.03588717101573446 -0.008140428860068683
3420000000.0 -0.026533604876858456 -0.018418742775513502
3440000000.0 0.022812887970709506 0.013035273564029401
3460000000.0 0.01720255209369811 0.004738935695676561
3480000000.0 0.014044295647935053 -0.003994001917129921
3500000000.0 -0.020707101361013742 -0.007277984036258656
3520000000.0 -0.035324407247651804 0.0010183586434992008
3540000000.0 0.02537302389865364 -0.040692388113216876
3560000000.0 0.027407149645713273 0.04990721882261116
3580000000.0 0.01952576239819995 -0.05956125944666263
3600000000.0 -0.07177547252522232 -0.0010395167702931766
3620000000.0 0.0433205267415703 0.06855267888806886
3640000000.0 0.003735867314959203 -0.08840313195260115
3660000000.0 0.08717299194227292 0.03086479874019682
3680000000.0 0.06801022718250266 0.059637945043241145
3700000000.0 0.08530367932931673 0.026403008597579436
3720000000.0 0.08193860687409348 0.04201562703049992
3740000000.0 0.004591477041399507 -0.09238683396080889
3760000000.0 -0.09334359264383753 -0.023210194791606163
3780000000.0 -0.047178709552553606 0.0948945185065063
3800000000.0 0.08487449281961854 -0.0826724218357813
3820000000.0 0.10901047849537783 0.08841285867665212
3840000000.0 0.036239902358732076 -0.15895691692938332
3860000000.0 0.17938714260751815 -0.0012335342538763092
3880000000.0 0.06113953383733513 0.18309818592368732
3900000000.0 -0.048627842815276184 0.19587191366179846
3920000000.0 -0.06690019763992945 0.1905408070673685
3940000000.0 -0.19664831892702966 0.06500667458874371
3960000000.0 -0.1719786346357878 -0.12111648959342945
3980000000.0 -0.19435443768535157 -0.08908647318252715
4000000000.0 -0.21040768260781104 -0.003317366050907424
