!Created with skrf (http://scikit-rf.org).
# Hz S RI R 50.0 
!freq ReS11 ImS11
400000000.0 0.5943841163497123 0.5550423051275314
420000000.0 0.7450333044867118 0.3306706693211032
440000000.0 0.7535731132528752 -0.14579271853382714
460000000.0 0.5569302764935171 0.4521241580043718
480000000.0 -0.6549257304007413 -0.07021613027833074
500000000.0 -0.5101383153314203 -0.37652919004734037
520000000.0 0.49061187666676603 -0.3032664978736474
540000000.0 0.023979800090173944 0.5181006211735489
560000000.0 -0.4783729279806364 -0.011613847514651846
580000000.0 -0.31323561316420223 -0.2874749374298339
600000000.0 0.3381498643356663 0.17676661099017188
620000000.0 0.32598629304200794 0.17840302708169514
640000000.0 -0.3939252327852761 0.03140013530535889
660000000.0 0.05932890257812188 -0.4237609637822143
680000000.0 0.3278188557344908 0.2831845410987431
700000000.0 -0.09657170020829164 0.3972591527934778
720000000.0 0.24414015708988482 -0.3022677179743513
740000000.0 -0.05538304499787573 -0.3360930422689569
760000000.0 -0.14295418981863295 0.26903882845601257
780000000.0 -0.2510856128474587 0.12443354975435383
800000000.0 -0.20128101517606065 0.1402445663220238
820000000.0 0.06320339120938395 0.18511471258910783
840000000.0 -0.14468745347667508 -0.04313029970522862
860000000.0 0.05876123479189632 0.11371155868810867
880000000.0 -0.028045044231721074 -0.09015983355417395
900000000.0 -0.05600614145682419 0.04002874376755401
920000000.0 0.028658036203052104 -0.048078305768876596
940000000.0 0.04147909970602503 0.05520634269472305
960000000.0 0.05849851732530445 0.07013754551239582
980000000.0 -0.10151926998894033 -0.03416826064743795
1000000000.0 -0.013321159701004677 0.1339190314899533
1020000000.0 -0.029072018540183934 0.14764836561312825
1040000000.0 0.02714482719158399 -0.17803887817867295
1060000000.0 -0.20227854863445063 -0.026107557177400154
1080000000.0 -0.20063371539394742 -0.12593177804781966
1100000000.0 0.23871067516876332 0.11291427207523437
1120000000.0 0.2683122616378743 -0.07729336211659218
1140000000.0 0.17375578483574752 0.23832012986285778
1160000000.0 0.2867078943317074 -0.0987239476944521
1180000000.0 -0.117515805391302 0.29629282760260883
1200000000.0 0.273864100116021 -0.18342216611603704
1220000000.0 0.2596919945956648 -0.24381254242807235
1240000000.0 -0.3833802257504889 0.017381118671614303
1260000000.0 0.2990212371217955 0.2738938684501293
1280000000.0 -0.03368894662915902 -0.4176599120594735
1300000000.0 -0.419467063925708 -0.042976894723730716
1320000000.0 0.06335860685820666 0.41839347792743015
1340000000.0 0.1130194312694264 0.4025862771242053
1360000000.0 0.2797607484707211 0.30146299285659883
1380000000.0 0.3202089185364524 0.23483312745281004
1400000000.0 0.36747670619855255 0.11103430652497753
1420000000.0 0.25323067752381995 -0.2593168340142489
1440000000.0 -0.035576388884876464 -0.3424478828928825
1460000000.0 -0.006691099316511187 0.31496139223347214
1480000000.0 0.2724735646936401 -0.0267549930788742
1500000000.0 -0.1096514279256306 -0.201100958346849
1520000000.0 -0.15555166738517223 0.09526137694354997
1540000000.0 -0.12405935421590203 0.09512777997352907
1560000000.0 -0.020183373494791903 0.1357361540300421
1580000000.0 -0.057764211175272064 -0.1132249510927802
1600000000.0 -0.10331162377749106 0.01659971977852487
1620000000.0 -0.07267447605288706 0.03267505692666493
1640000000.0 0.04315637053992891 -0.038146675274538494
1660000000.0 -0.02917695799234405 -0.04721168391030079
1680000000.0 0.07764189533919429 -0.011825849591453639
1700000000.0 0.07687064293570857 -0.07876534713617935
1720000000.0 -0.02581711801076069 -0.13119040881674807
1740000000.0 0.07017010744519844 -0.13014170368639258
1760000000.0 -0.11903741636201566 0.11975527810256432
1780000000.0 0.01491985387263404 -0.1962193689072859
1800000000.0 0.00879312890655789 0.23671389470416077
1820000000.0 -0.2695872884466913 -0.029510176146110585
1840000000.0 0.247829590313362 0.16895972737907516
1860000000.0 -0.1888254769905721 -0.2865882997258925
1880000000.0 0.37356743824108324 -0.08726907038997249
1900000000.0 -0.14212460660015877 0.3892626403470035
1920000000.0 -0.0268956751950012 -0.4342715519449462
1940000000.0 -0.4225129863648374 0.15410134303348183
1960000000.0 0.3132665550608634 0.34851415595838664
1980000000.0 0.2889598132175432 -0.38040390424166043
2000000000.0 -0.13459562786159981 -0.468348649191636
2020000000.0 -0.4926769604334332 -0.019189161591368242
2040000000.0 -0.18258534311919622 0.46202178263606
2060000000.0 0.47637614294308656 0.13882821079760133
2080000000.0 -0.10763622359289089 -0.47635576962169324
2100000000.0 -0.47296318686927674 0.03798705509722528
2120000000.0 -0.4546725005533679 -0.06965985804283611
2140000000.0 -0.15686231642239057 0.4158931189613973
2160000000.0 0.3674051047083319 0.2222371074099343
2180000000.0 0.2518022733954686 -0.3330310476918771
2200000000.0 -0.3744070502099531 -0.1702995502104732
2220000000.0 -0.06325358987786943 0.40521955661964326
2240000000.0 0.39455880330828197 -0.14567176676778212
2260000000.0 -0.394918840969473 0.18814867612747696
2280000000.0 0.277706274244612 -0.3599731492893144
2300000000.0 0.05403541404589038 0.4775029944165977
2320000000.0 -0.4572469319156429 -0.22955770563086317
2340000000.0 0.4725095380940782 -0.2763051845125917
2360000000.0 0.11834955724761093 0.5722919043013179
2380000000.0 -0.61773275235956 -0.025642572570355574
2400000000.0 0.3466563204738882 -0.5447331211407607
2420000000.0 0.08427946313533406 0.6598911089322833
2440000000.0 -0.23210013049480013 -0.6346988086786519
2460000000.0 0.05994133872307555 0.677182470202421
2480000000.0 0.4130016387421738 -0.5351525779655399
2500000000.0 -0.6134773898701589 -0.25436864667192227
2520000000.0 -0.116025990973178 0.6361427144779473
2540000000.0 0.551103832103068 0.28436206065945696
2560000000.0 0.5398592348613896 -0.234756592576546
2580000000.0 0.45709574791328655 -0.3091527629074765
2600000000.0 -0.0860379785304044 0.5070132084217227
2620000000.0 -0.4203439046455266 0.2380975835799209
2640000000.0 -0.4513553755366423 -0.043918781575085726
2660000000.0 -0.28719078161602074 -0.31807305982093953
2680000000.0 -0.29184616575274397 -0.2846960131922409
2700000000.0 -0.38316654660504523 -0.05541178823129258
2720000000.0 -0.16050049886409856 0.3299803515530325
2740000000.0 0.25608802604996567 0.23577327391285283
2760000000.0 0.3131825342353499 -0.11899096511281956
2780000000.0 -0.17870059603073432 -0.27793718644090665
2800000000.0 -0.020705757753103904 0.33159845659453313
2820000000.0 -0.14365248927377663 -0.30660000052908987
2840000000.0 0.3373282638885078 0.04900658312422182
2860000000.0 -0.3400085569937727 -0.04574829106616323
2880000000.0 0.19172113266400476 0.2846804605488436
2900000000.0 0.33187496442720765 0.0977967255811986
2920000000.0 0.3492209333876 -0.07602357340656792
2940000000.0 0.21497223809161717 -0.2960441225247599
2960000000.0 0.1975864634100383 -0.313539645680423
2980000000.0 0.30513269955599953 -0.2147771584446467
3000000000.0 0.3535727474191462 0.12400003125233065
3020000000.0 -0.06442150512955903 0.3651985125396449
3040000000.0 -0.2040620565520527 -0.3000872748581775
3060000000.0 -0.05573950434934173 0.3489003830524237
3080000000.0 0.33051001177495803 0.12044108168028818
3100000000.0 -0.1663855468449473 -0.31246663546533804
3120000000.0 0.21290257836624635 0.2839160182373539
3140000000.0 -0.3455523392979993 0.06226906626313021
3160000000.0 -0.0794418987280219 -0.3303604522040211
3180000000.0 -0.07636747728223311 0.30963020092249005
3200000000.0 -0.030546318625394597 -0.2925088247896701
3220000000.0 0.021269255582086897 0.2698393835120074
3240000000.0 0.047623577818382765 -0.24327509590589194
3260000000.0 -0.09551210358705453 0.2089597634549893
3280000000.0 -0.21195890117973873 -0.014208992261154057
3300000000.0 -0.07284843636706821 0.1769929531157546
3320000000.0 0.15617800647337687 -0.045869051683514024
3340000000.0 -0.07363235928635853 -0.11363909323444879
3360000000.0 -0.0806669751229079 0.08256115134364622
3380000000.0 0.0037054430234671957 -0.10436437438211502
3400000000.0 0.008601530610789923 -0.10372924246078337
3420000000.0 0.10306380973971223 -0.03557963244491977
3440000000.0 -0.08929292411926157 0.07899609938207734
3460000000.0 0.10541020609696863 0.08005459606805264
3480000000.0 -0.062294466641541084 0.13424476905732388
3500000000.0 0.0921883236946624 -0.1318195561956007
3520000000.0 0.07320271526652775 -0.1583259729881566
3540000000.0 0.18329449586749805 -0.025583710797879106
3560000000.0 0.028371111604445443 0.19194572920903355
3580000000.0 -0.11313968481900996 -0.16432939776155212
3600000000.0 0.08033785501846419 0.18917758879837515
3620000000.0 -0.020903845987659635 -0.20810356535670352
3640000000.0 -0.10135624908974383 0.18370827436138953
3660000000.0 0.02847515888597001 -0.20338796180005494
3680000000.0 -0.05750305398773891 0.1847208637387527
3700000000.0 0.15868592290286399 -0.07786245025097688
3720000000.0 0.003016794483755602 -0.161356142680846
3740000000.0 -0.08898020603923343 -0.1130856070488995
3760000000.0 -0.11901218192965556 -0.014866111215247535
3780000000.0 -0.09240942195793646 0.007604895677753709
3800000000.0 -0.04107159779378333 -0.04883482102152188
3820000000.0 0.035193924448496325 0.0033760201601740116
3840000000.0 -0.0019109655770734124 -0.009217082714867288
3860000000.0 0.023383910772142816 -0.016521711361468988
3880000000.0 0.011350728841702807 -0.05412423370408337
3900000000.0 0.05266548973464502 0.055686071890638594
3920000000.0 0.08673725759799415 0.031691901572202835
3940000000.0 0.11824989006729508 0.004666664001692938
3960000000.0 0.07414593773022157 0.12927714953910321
3980000000.0 0.13978447372641317 0.10913233356533764
4000000000.0 0.1689180081220837 -0.10499750070420612
