!Created with skrf (http://scikit-rf.org).
# Hz S RI R 50.0 
!freq ReS11 ImS11
400000000.0 0.7606540124171911 -0.2853459202735751
420000000.0 0.7867139073846744 -0.2641045845245197
440000000.0 -0.23526570190749854 -0.7431840902908007
460000000.0 -0.21812185170170512 -0.6927139410764435
480000000.0 0.4254635401064346 0.5014757235793554
500000000.0 0.47630730994078313 0.42616335604692657
520000000.0 -0.27497500181257856 0.4972444005350802
540000000.0 -0.5170611265723453 -0.0062665506386394305
560000000.0 -0.47411895895408024 -0.028340941187246685
580000000.0 -0.20961062761740212 0.3640940627822905
600000000.0 0.36713925517735696 0.09869217875781677
620000000.0 0.32517102382871904 -0.19210799399052406
640000000.0 -0.4076977361814449 0.06719908791758263
660000000.0 0.11955892935758519 -0.42699688618194154
680000000.0 -0.2732575696434809 -0.35286754004337345
700000000.0 0.4118614336920855 0.15614812425599392
720000000.0 0.06619473148313106 -0.424771803003503
740000000.0 -0.12479234653021305 -0.3774501629076714
760000000.0 0.3100939524640392 -0.1963505031184043
780000000.0 0.32518265799458174 0.05318253462597462
800000000.0 0.13599312230370333 0.24902878272572587
820000000.0 0.16839557499641333 -0.17094418134908287
840000000.0 -0.18593696442543564 0.0918131629855196
860000000.0 -0.1448390660333262 0.108028268695912
880000000.0 -0.13995772743181323 0.021716198174591677
900000000.0 0.023253357741469305 0.10674621256028492
920000000.0 -0.07574293512466086 -0.0092472633195613
940000000.0 0.05376888860660614 -0.01132398170239855
960000000.0 0.05872261598550459 0.005907193629104006
980000000.0 0.06372236745879511 0.04710309632540531
1000000000.0 0.08511713178302033 -0.015318893057398126
1020000000.0 0.06162324553195368 -0.08686273675938294
1040000000.0 -0.1306066687483767 -0.01376244320847937
1060000000.0 0.0012104593037769542 0.155720283424569
1080000000.0 -0.1696337682532272 0.08234796627514848
1100000000.0 -0.030134111763838015 0.21758867209069535
1120000000.0 -0.2449327646286259 0.06552881461784647
1140000000.0 -0.2685498758607645 -0.10357668315285258
1160000000.0 0.12226867884671615 0.2821613801117641
1180000000.0 -0.011407120800201738 0.33466812395672185
1200000000.0 -0.3404354260092419 -0.027516307193702523
1220000000.0 -0.2954973129922722 -0.2008835555168916
1240000000.0 -0.188492014140504 0.34142167544925567
1260000000.0 0.36997526426036725 -0.17224996621090963
1280000000.0 -0.3474665836592645 -0.2293928489049147
1300000000.0 -0.2077906551355458 -0.356795258757837
1320000000.0 0.061186693209252074 -0.4208348275652559
1340000000.0 0.032917817181074525 -0.438957515637305
1360000000.0 -0.4470733726642875 -0.044192980367833146
1380000000.0 0.26394222785274457 0.35585710651645325
1400000000.0 -0.2614906927260641 -0.3337137970315463
1420000000.0 -0.26757654268276293 0.27775549495794766
1440000000.0 -0.3471585748818523 -0.05824698613588792
1460000000.0 -0.13848269184639278 -0.30294582542835746
1480000000.0 -0.17928912235291572 0.2635198044996035
1500000000.0 -0.2057659986149164 -0.20382029757236303
1520000000.0 -0.0519466920625528 0.24421982248549712
1540000000.0 -0.20117419958891805 0.05901641183249621
1560000000.0 -0.11183230586891363 0.10947579770041796
1580000000.0 -0.0790870237540769 0.10449002283968661
1600000000.0 -0.01916186604735151 0.1143136835756788
1620000000.0 -0.08260685408377733 -0.05416553369939362
1640000000.0 0.022000406027686204 0.07400979113094928
1660000000.0 0.046771153559401334 0.016451878790417068
1680000000.0 -0.01845342255429569 0.003875003402207751
1700000000.0 -0.017332496716561882 0.009197634261878472
1720000000.0 -0.039039598453973944 -0.010798821627154759
1740000000.0 -0.04088520561722436 -0.038028986662508334
1760000000.0 0.07143248472560017 -0.0394733348671057
1780000000.0 0.06920130476890156 -0.08136458215522539
1800000000.0 -0.0541112941014801 0.12745760970203102
1820000000.0 0.1430145068429486 -0.08740359774959382
1840000000.0 -0.1867108972236766 -0.07994350849413755
1860000000.0 0.22782613866361245 -0.09032159122563464
1880000000.0 -0.06710021873963727 0.27142662775183085
1900000000.0 0.054630812419504626 -0.3082365862377839
1920000000.0 -0.08666245690019385 0.33462841225419776
1940000000.0 0.3526249618654451 -0.12792491644585718
1960000000.0 -0.249491384377207 0.3210513059335045
1980000000.0 -0.139023373693668 -0.3905212347309613
2000000000.0 -0.3981812610315276 0.08478259909947407
2020000000.0 -0.1972815557654415 -0.351692873099438
2040000000.0 0.3053471405992021 -0.2830826128790844
2060000000.0 -0.17556962088788472 -0.3972332250424816
2080000000.0 0.06651302366032102 0.4306612959618069
2100000000.0 0.15089780035922515 -0.39409620317655353
2120000000.0 -0.3944509053407463 -0.03128111947676002
2140000000.0 -0.34297046469246384 -0.14149450966804109
2160000000.0 0.2175416416951819 -0.2769746764060408
2180000000.0 0.2454103873274118 -0.2326746384847563
2200000000.0 -0.07766609408063377 -0.31599027618620645
2220000000.0 -0.2621914535453917 -0.1617973292044029
2240000000.0 -0.2708775131170807 -0.1292621495735707
2260000000.0 -0.23642420114346385 -0.17453992574000649
2280000000.0 -0.1446895243144829 -0.26380296326846925
2300000000.0 -0.30090955960634486 0.10130032058924295
2320000000.0 0.15844543214105616 0.30066898642161466
2340000000.0 0.05575058842363227 -0.3673512450092639
2360000000.0 -0.07205376994320951 0.3993471262235539
2380000000.0 0.3167522325473136 -0.31521238540905094
2400000000.0 -0.45761874819783716 0.19624741917603156
2420000000.0 0.44184937925356804 -0.3370552844749739
2440000000.0 0.13297090667974434 0.5947056468061701
2460000000.0 -0.5734552954157279 -0.3116999398015571
2480000000.0 0.6906957404271485 0.022458673270397165
2500000000.0 -0.7170722303350864 0.08261392767907512
2520000000.0 0.7276101251777969 -0.15577915416514182
2540000000.0 -0.7574208774180905 0.02181698880724682
2560000000.0 0.6691291349002881 0.36945280434248556
2580000000.0 -0.3395208182180389 -0.6824063957360051
2600000000.0 -0.0982797795356094 0.7452544267022924
2620000000.0 0.4974154244366652 -0.5410778080041404
2640000000.0 -0.3052556074012925 -0.6428826968564139
2660000000.0 0.2585983052797172 0.6305237787341273
2680000000.0 -0.3130670448625658 -0.5637533425694932
2700000000.0 0.3827392703475351 0.46841338028974766
2720000000.0 -0.43616856184990743 -0.35550890879015756
2740000000.0 0.43902547709948686 0.28572959423338773
2760000000.0 -0.4584032773927871 -0.16988683126173634
2780000000.0 0.459247568421395 -0.017380745437439487
2800000000.0 -0.38988287085935736 0.19350221182061203
2820000000.0 0.2749981434001835 -0.311479940172371
2840000000.0 -0.30533777304501325 0.2542547922311985
2860000000.0 0.3243442759833069 0.2167405546937941
2880000000.0 -0.023141561331819306 -0.38762334736239223
2900000000.0 -0.3470193583709415 0.17659535184792963
2920000000.0 0.12348343455378984 0.3714623605291385
2940000000.0 0.3520862015811012 -0.179244296641448
2960000000.0 -0.027369432008940316 -0.38745660697189305
2980000000.0 0.16479029743897783 -0.3450538997143016
3000000000.0 0.3620520164685255 0.1161008186455893
3020000000.0 -0.008435378080253455 0.3752380969667163
3040000000.0 -0.285294925988955 -0.23380612465893366
3060000000.0 0.3602681025470181 -0.029475579519412
3080000000.0 -0.3485562957245384 0.03214880764229883
3100000000.0 0.3114815250404197 0.13737097870347492
3120000000.0 -0.332867552721511 -0.020046881365658013
3140000000.0 -0.016520862681932584 -0.31944193626547623
3160000000.0 0.2243003999936814 0.19703265759617475
3180000000.0 -0.021627862239889616 -0.27362423930601015
3200000000.0 0.24614779927445607 -0.009251926384042814
3220000000.0 -0.04392857009831557 0.20488237347153543
3240000000.0 0.12685274678759084 -0.11178140949755727
3260000000.0 0.04403071942274072 0.12758095469520944
3280000000.0 -0.02230529539525136 -0.10486714384742758
3300000000.0 -0.07632671715600568 -0.04030309808333249
3320000000.0 -0.0661831091613337 -0.003953509918740027
3340000000.0 -0.02279470333341084 0.04016895088903898
3360000000.0 -0.002793000721048168 0.038019032306352264
3380000000.0 -0.004160817806837957 -0.03965011865317178
3400000000.0 0.004155919872163313 -0.03893773423760227
3420000000.0 -0.004620095250204802 -0.03507944462265273
3440000000.0 -0.015699217651097504 0.01924513039454177
3460000000.0 -0.011698467478241409 -0.005080869543722276
3480000000.0 -0.0031397119191170766 0.01873348071386132
3500000000.0 0.025640643569235858 0.010406701959569727
3520000000.0 -0.03365416113345827 0.0075102275088971045
3540000000.0 -0.003085135377781947 0.0463330828094662
3560000000.0 0.05761921265692236 0.017592223857695242
3580000000.0 0.05087596903143018 -0.051253289967778275
3600000000.0 0.04246803162915985 -0.0637749862794107
3620000000.0 -0.07759342041063184 -0.009451939252272189
3640000000.0 0.008778144695889837 -0.08301303384164026
3660000000.0 -0.08865386443497396 0.01985991325078685
3680000000.0 -0.008114238994974375 0.09428891752086126
3700000000.0 0.08422793377004623 -0.04990633338344228
3720000000.0 -0.0183140373970905 0.09771750327477637
3740000000.0 0.05631251147134045 0.07152399477099476
3760000000.0 -0.019707599615543733 -0.0895567446304346
3780000000.0 0.0939494452613003 -0.046859887899835626
3800000000.0 0.10098744575576095 0.07119492128409388
3820000000.0 0.12863197453610625 -0.05549016925435766
3840000000.0 -0.15604723925947667 0.006557180901185031
3860000000.0 0.12602260313775643 -0.11492269550323629
3880000000.0 0.021141783292209147 0.18227831323215268
3900000000.0 -0.18803288490690662 0.05740601663185411
3920000000.0 -0.2006012730213072 -0.0477559552652171
3940000000.0 -0.21225128865417847 0.014213986927898657
3960000000.0 -0.12606269524990016 0.16943413983161149
3980000000.0 -0.19303837020114856 0.06556112875166491
4000000000.0 0.027100219726204723 -0.1930873955137087
