!Created with skrf (http://scikit-rf.org).
# Hz S RI R 50.0 
!freq ReS11 ImS11
400000000.0 0.6946946945994221 -0.44103174800993605
420000000.0 -0.012100671591193372 -0.8301884896858598
440000000.0 -0.5821358999326234 -0.500066766199965
460000000.0 0.2005121789417199 -0.6905430714838807
480000000.0 0.6415327427397747 0.14035647227741813
500000000.0 0.07157434889960095 0.6246410717750264
520000000.0 0.011954803618896965 0.578693722716692
540000000.0 -0.49364410479297094 0.07913691152752468
560000000.0 -0.12877181122086082 -0.4611820043916835
580000000.0 -0.2455378896667163 0.34345732602060486
600000000.0 0.35748387039760093 0.15221152421442774
620000000.0 0.29147252126531115 -0.249596275767368
640000000.0 -0.40665465656114946 0.08656769378472143
660000000.0 0.2686670466283411 -0.36450595520386575
680000000.0 -0.44942114054258797 0.05259455584772268
700000000.0 0.1645831400518634 -0.4130986413880726
720000000.0 -0.08335377520554034 0.40843844745450386
740000000.0 -0.13881972229235318 -0.3395277806376134
760000000.0 -0.17160017404845226 0.29911580388716813
780000000.0 -0.07927050257336296 -0.31698917438747715
800000000.0 0.0008407943674093814 -0.2929197175645645
820000000.0 0.24881956954931878 0.06179057161939689
840000000.0 -0.0925873092193641 0.2014666906433191
860000000.0 -0.020268815425930373 0.1889341412310894
880000000.0 -0.08719520860684975 0.13013095352929038
900000000.0 0.11557893103575156 0.05014607023261399
920000000.0 0.0112647318704506 -0.08379056268511083
940000000.0 -0.018488061127378535 0.05827723924836822
960000000.0 -0.04494785634863395 0.04243144691661503
980000000.0 0.06016549302720808 -0.042157287873104445
1000000000.0 0.05080041518162074 -0.06798673141267164
1020000000.0 -0.07791199303665858 0.055889703678120316
1040000000.0 -0.090424014005835 -0.07154800447948478
1060000000.0 -0.0662175458588076 -0.13540628311645647
1080000000.0 -0.17706441213451873 -0.06830316455464333
1100000000.0 0.03242366327279237 0.21703029617619385
1120000000.0 -0.12439059735189123 0.21890413506148335
1140000000.0 -0.2673378227990601 0.08396280524920005
1160000000.0 0.2117197363367049 0.2130586511237952
1180000000.0 -0.05224317808668488 0.3147749756987781
1200000000.0 0.30236673718294177 -0.13872541409950276
1220000000.0 0.0076792546807615755 -0.367446598622103
1240000000.0 0.019119774147403085 0.3887493649600774
1260000000.0 0.4063052646120596 0.013517171010703346
1280000000.0 -0.024892298908314868 -0.41723613703388146
1300000000.0 -0.016072120737660657 -0.4264201978179702
1320000000.0 -0.39963161770562267 -0.18333044906787974
1340000000.0 -0.343589557155052 0.2815202979028876
1360000000.0 0.3184245570221542 0.3038764283776665
1380000000.0 0.42199565815140716 0.02027680787987674
1400000000.0 0.3464883854392676 -0.21007314988083628
1420000000.0 0.30707545220156984 -0.23573867632404935
1440000000.0 -0.21025926697924252 -0.3073263092961929
1460000000.0 -0.03598040959552991 0.3390930985689931
1480000000.0 0.29555155960862217 0.09397014598985234
1500000000.0 -0.06759480027504851 -0.267458876187696
1520000000.0 -0.1254308332583746 -0.20801985968763925
1540000000.0 -0.09425242925200822 0.18524592656218408
1560000000.0 0.04402473865049446 0.17232912358184452
1580000000.0 -0.13683224034699856 -0.0694532914319323
1600000000.0 0.1078625665884049 -0.052158421960676035
1620000000.0 -0.07004782696057305 0.06211594959203127
1640000000.0 0.030293285249793106 0.060374953329578825
1660000000.0 -0.038697221087280374 -0.009776123726485153
1680000000.0 0.01099452313870562 0.0043003213755045825
1700000000.0 -0.023324335109320228 0.010104219822599028
1720000000.0 0.02713839217939594 0.03221172842414817
1740000000.0 -0.010289039222762308 -0.05827740376385866
1760000000.0 -0.0575858503331171 -0.04997861549854464
1780000000.0 0.08550559265202758 0.061818515739281835
1800000000.0 -0.040857918777066626 0.13745871965105091
1820000000.0 -0.16894455868492694 -0.015089849173136704
1840000000.0 -0.16861536182506875 0.10504442835223748
1860000000.0 0.22860393402365745 -0.06951650408577763
1880000000.0 -0.15605753118083082 0.23168657973941842
1900000000.0 -0.03283316452302027 -0.3108048238694272
1920000000.0 -0.013179761122729675 0.3434646774296068
1940000000.0 0.1530571787439167 -0.3395762982095564
1960000000.0 -0.24419779944978415 0.30756992645335646
1980000000.0 0.37409407183446775 0.15810885510106473
2000000000.0 0.3342483883144637 -0.2502724822439091
2020000000.0 0.037334401529752814 -0.4273349834622468
2040000000.0 -0.42715204686897007 0.09245216410872811
2060000000.0 0.14982980498339551 0.405225240424858
2080000000.0 0.42251062866634065 0.012916012220535506
2100000000.0 0.32338748757259994 -0.2511581920145979
2120000000.0 0.02311952816005613 -0.39541382749837733
2140000000.0 -0.2192514297967391 -0.30567063123373583
2160000000.0 0.31032160258534297 -0.17961762399151393
2180000000.0 0.1378800621277775 -0.31047137635519045
2200000000.0 0.04797850104843174 -0.3192102744268753
2220000000.0 0.11170016969724278 -0.28863890825278776
2240000000.0 0.07011119784185801 -0.29997713885931654
2260000000.0 -0.2980874213293651 -0.06557834817144129
2280000000.0 -0.26126799255920424 0.1577251695336827
2300000000.0 0.019279456037973847 0.31491639710782054
2320000000.0 0.31436879998440687 0.11569051297068729
2340000000.0 0.13355545337990926 -0.33932083538183194
2360000000.0 -0.3749746180246942 0.1550421086647596
2380000000.0 0.3500030836840163 -0.2893078256016706
2400000000.0 -0.20879926136026164 0.4581947689068177
2420000000.0 -0.04830828624896201 -0.5541671590053524
2440000000.0 0.4424157578804467 0.41783076164598293
2460000000.0 -0.6543061086890676 -0.03199282991960805
2480000000.0 0.6069843699521823 -0.33784446081567465
2500000000.0 -0.517453811642588 0.5067782647017071
2520000000.0 0.5213337653537481 -0.5317725133869939
2540000000.0 -0.6706851423380715 0.3500062403866742
2560000000.0 0.755651190603226 -0.09279369501138489
2580000000.0 -0.6154304467025308 -0.44295170660993044
2600000000.0 0.3312663243693415 0.6691201137239509
2620000000.0 0.03254639942369746 -0.72770738761709
2640000000.0 -0.6240833401464376 -0.32506522482192973
2660000000.0 0.5325590669992614 0.40981163766423184
2680000000.0 -0.5316188812335385 -0.34810976555627465
2700000000.0 0.5481411692221168 0.23563115090902303
2720000000.0 -0.5550824685210668 0.012167676878324206
2740000000.0 0.506535757795998 -0.09508869585400952
2760000000.0 -0.3989510052248144 0.26666474781791294
2780000000.0 0.25410785345601405 -0.3692003757015059
2800000000.0 -0.3160364505627258 0.2818818331696055
2820000000.0 0.37476840441501724 -0.15972378438732993
2840000000.0 -0.3915958837967722 0.07804406763277454
2860000000.0 0.3934288436945865 0.04184318143069506
2880000000.0 -0.353186079044141 -0.16996415311604807
2900000000.0 -0.017944884595983403 0.38852058171562304
2920000000.0 0.386633063908121 -0.04688224316107229
2940000000.0 0.12570760056996372 -0.3658551528484398
2960000000.0 0.0017433250859601125 -0.3826331386777803
2980000000.0 0.25334495824362113 -0.2815290697890336
3000000000.0 0.3278085772975502 0.18927564011314899
3020000000.0 0.04250596812496048 0.37206849662994784
3040000000.0 -0.30336547326490165 -0.2044828443074316
3060000000.0 0.3583770987493348 0.02780299354883593
3080000000.0 -0.3454328054290759 -0.059077102738931846
3100000000.0 0.3091514864379877 -0.1503500718269679
3120000000.0 -0.1574698652024071 0.2897000450354269
3140000000.0 -0.1411680985130354 -0.2814832257272017
3160000000.0 0.2919224894592237 0.023644699796849123
3180000000.0 -0.10962824058909103 -0.24447632751335094
3200000000.0 0.18893830449256171 0.1451943551151926
3220000000.0 -0.19256693175465855 -0.07004891920976074
3240000000.0 -0.07508174626495354 0.15421989608609799
3260000000.0 -0.05674102554895104 0.1284760409835138
3280000000.0 -0.045188046317659616 -0.10220352217992582
3300000000.0 -0.003080399021403311 0.08930333187982398
3320000000.0 0.04763708366079496 -0.047810151473790946
3340000000.0 -0.008300635045134192 -0.04663197266226186
3360000000.0 0.007825238235177605 0.036102475059960774
3380000000.0 -0.03369855119370047 0.008607431593155555
3400000000.0 -0.006235491667335007 0.035135975234345064
3420000000.0 0.024848745729873636 -0.022409934110927524
3440000000.0 -0.003731950100170413 0.02609496996345216
3460000000.0 0.0007584565505004913 0.017684705679533893
3480000000.0 0.016312221787665525 -0.006981199378116531
3500000000.0 -0.016613834247846744 -0.015983601381676843
3520000000.0 -0.028112997492181855 0.01922381909984903
3540000000.0 0.021027600177333836 0.04585120086281532
3560000000.0 -0.04059128891964667 0.04523398742483796
3580000000.0 -0.03967487770812209 -0.05655533406734227
3600000000.0 0.07139991926065839 0.02052974317073015
3620000000.0 0.06105647341638789 -0.05230485209352768
3640000000.0 -0.07857642212654564 -0.03604707364897008
3660000000.0 0.08914238798742052 0.021431905663638146
3680000000.0 -0.03308897868408402 -0.08630573207776747
3700000000.0 -0.08943347052896142 -0.025539550259323716
3720000000.0 -0.05493375145708927 0.07667426569890634
3740000000.0 0.04111086768845464 0.08289698064232053
3760000000.0 0.022801268702132154 0.08913333883276561
3780000000.0 0.0055661811675339 0.1022071162509287
3800000000.0 -0.0981397902111237 -0.06105505322486769
3820000000.0 -0.13137449899808806 0.01834281040888594
3840000000.0 -0.018478440922630516 0.1469551833288416
3860000000.0 0.043869181740593545 -0.163005091984403
3880000000.0 0.13313120876771564 -0.12938506881605996
3900000000.0 0.1914343645063916 -0.04813695100885612
3920000000.0 0.20274440840457872 0.0007395469410871699
3940000000.0 0.17064299413969114 0.11642842307730969
3960000000.0 0.20477311440795176 0.03987105690934672
3980000000.0 0.2007356213559624 -0.03805958152068181
4000000000.0 0.19459523942561915 -0.02093091502982393
