!Created with skrf (http://scikit-rf.org).
# Hz S RI R 50.0 
!freq ReS11 ImS11
400000000.0 0.7553136750018119 -0.35432117988449396
420000000.0 -0.05169720497214108 -0.8335253236563512
440000000.0 -0.7512527131936496 -0.20672692540592533
460000000.0 -0.5956975518885399 -0.4000783484100637
480000000.0 0.6506401156490638 -0.08883798115074312
500000000.0 0.5998188333126682 -0.16474166642522353
520000000.0 0.13733608704922923 0.540336863434596
540000000.0 -0.3659463859289983 -0.3298241169150417
560000000.0 0.20240425722020303 -0.41485137248731635
580000000.0 -0.2841670541427235 -0.2977510267483807
600000000.0 -0.2667985208877499 0.26598997649084055
620000000.0 0.0980532940343898 0.36662625497830126
640000000.0 -0.30830717000422664 -0.2745013951811895
660000000.0 0.4123696030148792 0.18122033872839236
680000000.0 -0.07621813740140711 -0.45439566528551534
700000000.0 0.45411586936543213 0.04531824599775381
720000000.0 -0.33920753973162676 0.28425384922848557
740000000.0 0.10734260224650703 0.37121453619620187
760000000.0 0.1356323518369148 -0.3166311502110278
780000000.0 -0.31625077521953837 -2.9394233538505436e-05
800000000.0 0.044643176580754826 -0.29095664330793036
820000000.0 -0.13685756135115776 -0.21257156650072248
840000000.0 0.0001779890734468745 0.20985451447554607
860000000.0 0.11627629183829427 0.13540507226448711
880000000.0 -0.12578252911076 -0.05092588287243965
900000000.0 -0.1117425382990383 -0.016352307628705914
920000000.0 -0.04640139190854919 0.05919495394851895
940000000.0 0.024506966430986574 -0.047286106537944426
960000000.0 -0.06506646688442724 -0.007412465986891648
980000000.0 0.03695661435713205 0.060268608058431074
1000000000.0 -0.0823274992451492 0.02976815710980441
1020000000.0 0.07941328425014267 -0.067409389132045
1040000000.0 0.10927751243716367 -0.048300733109542325
1060000000.0 -0.08580110054374025 -0.1346415302770667
1080000000.0 -0.15626650448489787 0.10410400479837335
1100000000.0 -0.18325817516301743 0.12220096514405585
1120000000.0 -0.1879530995798507 0.17214084765918797
1140000000.0 -0.20994615270344935 -0.19281853951751415
1160000000.0 0.14303235468573103 0.2791489165434872
1180000000.0 0.3074212634736312 0.11492372756448677
1200000000.0 -0.07703383537100525 -0.33170024210126325
1220000000.0 -0.359894150263051 0.03848441057828412
1240000000.0 -0.12999103365945133 0.3640320100252302
1260000000.0 0.40043427879582993 -0.07480562086789198
1280000000.0 -0.015445111852623313 -0.41819641276551306
1300000000.0 -0.2722285265235595 -0.3258113942372998
1320000000.0 -0.30890179350596075 -0.3009810813653004
1340000000.0 -0.4378929391248781 -0.04277791763486035
1360000000.0 -0.28200002990392875 0.3369632900012187
1380000000.0 0.17954347711950336 0.392555750039806
1400000000.0 0.36896345541559505 -0.18841410355887936
1420000000.0 0.023723306443472664 -0.39039553313406805
1440000000.0 -0.28973584733644386 -0.22536071006145664
1460000000.0 -0.2828149613488092 0.1924089716445142
1480000000.0 0.30956159702321656 -0.07220023727187942
1500000000.0 -0.19359921361976604 0.20217800133682434
1520000000.0 0.052853158160485955 0.23212655005714755
1540000000.0 0.18467474425779384 -0.05866558213494197
1560000000.0 -0.10104971678859156 0.12980926239054513
1580000000.0 0.06784367011622362 0.12772089550475152
1600000000.0 -0.0034276328266838025 -0.12100189671830051
1620000000.0 0.08633973049339674 -0.04859299143667057
1640000000.0 -0.05099380502002584 0.05119699836002622
1660000000.0 0.04004217422571944 0.005449037251476557
1680000000.0 0.012928428580352817 -0.011030600793106025
1700000000.0 0.004119281287320744 -0.023498697381445662
1720000000.0 0.034023627627805204 0.008827250442825677
1740000000.0 -0.0042382390516300895 -0.05164654490340844
1760000000.0 0.062164570710678234 -0.034416739267905845
1780000000.0 -0.09302945922382826 0.0410606235147744
1800000000.0 0.026489329615951646 -0.13616909733126548
1820000000.0 0.043144091429393724 0.1668717709894616
1840000000.0 -0.0881916814495928 -0.19150540763562168
1860000000.0 0.20758612088981124 -0.14342976338697414
1880000000.0 0.22980447398581996 0.17519420438205918
1900000000.0 -0.29549021987525514 0.11356772266249657
1920000000.0 0.32233711688474825 0.11338783925619535
1940000000.0 0.03485329287735379 -0.3651849513920452
1960000000.0 -0.29767690963211096 0.2530043008874842
1980000000.0 0.3775003176254452 0.14778659439949038
2000000000.0 0.28076653827763215 -0.30697903173579805
2020000000.0 -0.2434214738554688 -0.3444629127324349
2040000000.0 -0.35139930731569635 -0.23603331705190905
2060000000.0 -0.4086227466239507 0.12210988807030454
2080000000.0 0.013514033753594576 0.424659000017249
2100000000.0 0.39663145990304877 -0.12914779880157023
2120000000.0 -0.14466705533871085 -0.3734077981115087
2140000000.0 -0.38071316216116785 0.0046444698814180315
2160000000.0 -0.2606928200235948 -0.24084382615357025
2180000000.0 -0.1715587378880024 -0.280461118251443
2200000000.0 0.06697656132614274 -0.3057755621033848
2220000000.0 0.20638264748415797 -0.22474169890988796
2240000000.0 0.005534877104496394 -0.30732733161833625
2260000000.0 -0.29882484605494836 -0.05801488080665496
2280000000.0 -0.25060734620162384 0.17311700216250672
2300000000.0 -0.14633699329679958 0.2775789241078046
2320000000.0 0.08546343252812764 0.3257558811680258
2340000000.0 0.26821140161628787 -0.25792920796933955
2360000000.0 -0.31377320875335313 0.2642447558138699
2380000000.0 0.34971052549757475 -0.28999789078064775
2400000000.0 -0.3574596758036913 0.35606969382504894
2420000000.0 0.09865643241148252 -0.5508486843583541
2440000000.0 0.4566961306515641 0.40706945953280904
2460000000.0 -0.6516133281221341 0.08514885459674777
2480000000.0 0.5544971957282804 -0.419457802320254
2500000000.0 -0.4736827700233824 0.5473335425359773
2520000000.0 0.44578908625587504 -0.5967209175643673
2540000000.0 -0.6500630458006312 0.3872316778070914
2560000000.0 0.7545549907301716 0.10967055705835478
2580000000.0 -0.5469775670752111 -0.5275104185652526
2600000000.0 0.3285303962226791 0.6727718579492171
2620000000.0 -0.129387254942468 -0.7187805464488387
2640000000.0 -0.6926188701406008 -0.13078896706905388
2660000000.0 0.5921415881176479 0.32205858254298014
2680000000.0 -0.4875415607185539 -0.41294358647268775
2700000000.0 0.5052822241755107 0.32686061666039273
2720000000.0 -0.5060444170402246 -0.24910519353826144
2740000000.0 0.4940160118938971 0.18239869149692844
2760000000.0 -0.4898300640252346 -0.018248450941183207
2780000000.0 0.42163030249720074 -0.17953504862273353
2800000000.0 -0.3354517589839729 0.26943250241346056
2820000000.0 0.309752765721946 -0.2707626708452398
2840000000.0 -0.2903211294785721 0.2735071495483401
2860000000.0 0.37077405590813867 -0.12331186607001662
2880000000.0 -0.30901654620404084 -0.23277920699340623
2900000000.0 -0.25549004451091234 0.2866589670555866
2920000000.0 0.1934527716373287 0.33452173526488044
2940000000.0 0.3836795838308048 -0.04900553911043717
2960000000.0 0.3070178766255849 -0.23125238019729183
2980000000.0 0.34194364385640713 -0.1706417582223734
3000000000.0 0.34942095844593724 0.15362874856182684
3020000000.0 0.052210338435790905 0.37391148458233453
3040000000.0 -0.3702179535157746 0.0004685109301500715
3060000000.0 0.27684177898922563 -0.22860331569244247
3080000000.0 -0.2553954686444313 0.23764954012232506
3100000000.0 0.31411928576469444 -0.12715578852322088
3120000000.0 -0.2801780997233509 0.17647877733373446
3140000000.0 0.012453893175089511 -0.3192701230398418
3160000000.0 0.270149951239186 0.12985887230560156
3180000000.0 -0.16204274388898388 -0.22317597405142714
3200000000.0 0.2283187317783704 -0.08863312142438631
3220000000.0 -0.1489854993969905 0.14449776674254508
3240000000.0 0.06264912683805113 0.16071166054093708
3260000000.0 0.04189034448212192 0.13676563849784726
3280000000.0 0.06550652605864558 0.09128150628433994
3300000000.0 -0.012659870365291225 -0.08167111410559243
3320000000.0 -0.05504126501367345 0.019658607395276806
3340000000.0 -0.045909126205962526 -0.0002760321733456146
3360000000.0 0.041411493371212374 -0.012053823998453277
3380000000.0 -0.039710914116182994 -0.011109247837486319
3400000000.0 0.02646000204650887 -0.02537747693697424
3420000000.0 0.006648591177959039 -0.029500344643453292
3440000000.0 -0.019497107565324058 0.014065194153096719
3460000000.0 -0.006920666853661183 0.016303402171004067
3480000000.0 -0.012314174556624717 0.011110515937786338
3500000000.0 0.026070422004879926 -0.006952315484593199
3520000000.0 0.03732551135334073 0.014065161808090424
3540000000.0 0.03676062753052973 0.03617609328035829
3560000000.0 -0.03992219068635135 -0.03844674051556631
3580000000.0 0.015954740554467255 -0.05573840472245245
3600000000.0 -0.006667680484994601 0.06471933355279329
3620000000.0 0.07191074719540999 0.02575703102514462
3640000000.0 -0.075749268077126 0.04542003688741081
3660000000.0 -0.09386698688178169 0.021822132434724174
3680000000.0 -0.02253239035127512 -0.09454313037386226
3700000000.0 -0.052399929583035486 0.07916747755642012
3720000000.0 -0.04996095756027889 0.07580684581178684
3740000000.0 0.046627570954819605 -0.07422544194538273
3760000000.0 -0.005454078898221238 0.09151510404921652
3780000000.0 0.1035316015539098 -0.001850142145375873
3800000000.0 0.11198086518080852 0.046524168441292604
3820000000.0 0.02990945775810851 -0.13513970378342002
3840000000.0 0.011409029005744182 0.15129137682150984
3860000000.0 -0.05966470949043497 -0.15555148398282237
3880000000.0 0.14147412981631255 -0.11529196519605497
3900000000.0 0.18969146560080016 0.03640166500797271
3920000000.0 0.12423389714640984 0.1543648490463803
3940000000.0 -0.09507903060783121 0.1793264992109614
3960000000.0 -0.15189986107092135 0.13505125075606397
3980000000.0 -0.13049754410323697 0.14950420136439452
4000000000.0 -0.18618420964741464 0.024328046254875127
