!Created with skrf (http://scikit-rf.org).
# Hz S RI R 50.0 
!freq ReS11 ImS11
400000000.0 0.7596289061234152 -0.3224228687028962
420000000.0 0.27660577489792565 -0.7791785550821627
440000000.0 -0.7223104229404653 -0.2874033010336964
460000000.0 -0.4016287196079974 -0.5877337299002352
480000000.0 -0.0869753122585101 0.6479484433707821
500000000.0 0.589523341751002 0.24996780554213538
520000000.0 0.2629662975020567 0.4933723505439865
540000000.0 -0.30382867570669797 -0.39996941152006205
560000000.0 0.06215435580028425 -0.46762446240418293
580000000.0 -0.4035718637677352 0.11137914423925266
600000000.0 0.18023238401022026 0.329242841698789
620000000.0 0.19183403081935674 0.3253915326296669
640000000.0 -0.35086726642036153 -0.22075617685291346
660000000.0 0.4201086019567649 0.15721970115305545
680000000.0 -0.30995337269617784 -0.34664334817797005
700000000.0 0.29714654976626703 -0.33242152128965996
720000000.0 -0.3735917037580639 -0.2100463650269259
740000000.0 -0.3200091391340058 -0.22098865385957098
760000000.0 0.34632895670513697 -0.0972404301452252
780000000.0 -0.022194202701263845 0.3195982228564872
800000000.0 -0.26522490717265035 -0.12439655367004349
820000000.0 -0.144825788992235 -0.20429270715987904
840000000.0 0.10940704381213612 0.17610332862338393
860000000.0 -0.15308948029751307 0.0838985146753537
880000000.0 0.027222323556171286 -0.14405097710510606
900000000.0 0.0725513237429527 0.08308331819826745
920000000.0 -0.06258165786958073 0.05737039395909875
940000000.0 -0.00748268565584572 0.06796742525670676
960000000.0 0.025433261966062055 0.06865552111402612
980000000.0 0.09455256642095328 -0.03511370099700951
1000000000.0 0.09952565979707649 -0.026726859381438695
1020000000.0 -0.05938054834472033 0.08800690209437514
1040000000.0 -0.0884370057326965 -0.07808768044889854
1060000000.0 -0.09374082443372839 -0.08653554138732455
1080000000.0 0.1639900289755879 0.0031731017489304786
1100000000.0 0.10511804389366525 0.18016901747558603
1120000000.0 0.08232005070408184 0.2482033909289122
1140000000.0 0.0033740368273206737 -0.2991577984124746
1160000000.0 0.28089242219760724 0.16057551390315858
1180000000.0 0.33052281177380716 -0.07408619564503381
1200000000.0 -0.027083761572496777 0.3392084113761714
1220000000.0 -0.1624816634277389 0.31339080350468945
1240000000.0 0.140715724482101 0.34320836637777574
1260000000.0 -0.280742418459814 0.2739310267982789
1280000000.0 0.2887351994777734 0.31076520456034573
1300000000.0 0.21449119442589537 -0.38153138063968345
1320000000.0 -0.4384861157966868 -0.08833980991063334
1340000000.0 -0.07951143508845385 0.43850376609279773
1360000000.0 0.3206636993578653 0.29572007791249466
1380000000.0 0.3724102718190592 0.1951991425552954
1400000000.0 0.40717660921008664 -0.026233042243414512
1420000000.0 0.2921736983165018 -0.25332846718832813
1440000000.0 0.11420444879532071 -0.3562135095693607
1460000000.0 0.0523172082566369 0.34608581479309347
1480000000.0 0.26801207817478734 -0.16675004621423034
1500000000.0 0.07339832567825276 0.266301684023818
1520000000.0 -0.05708801088012208 0.2220492232469689
1540000000.0 -0.021277101658697836 0.19117256996160475
1560000000.0 0.0035547140232581372 -0.16342200058592127
1580000000.0 -0.0470916065095301 -0.14453128351730593
1600000000.0 -0.024750829264687253 -0.12913205084341933
1620000000.0 -0.07428735277799091 -0.0771963424294318
1640000000.0 0.07224991835261077 -0.027307881183435325
1660000000.0 -0.0114796410273637 -0.030078017250846842
1680000000.0 -0.006708682436033317 -0.007830108508347628
1700000000.0 -0.025328022214495743 0.021840071111045137
1720000000.0 0.012022892355075561 -0.03869745249511417
1740000000.0 -0.0057531077208362175 -0.04757615962162525
1760000000.0 0.0620665297724393 0.038006363908205124
1780000000.0 0.004190988269586207 0.10182193226316606
1800000000.0 0.1371427199467788 -0.0017453405318975767
1820000000.0 -0.0824609405104711 0.15630372368312703
1840000000.0 -0.19835471805851437 -0.07489017125936201
1860000000.0 0.14696113862507196 -0.20335980218926586
1880000000.0 0.1717803024138839 0.22901633096735846
1900000000.0 -0.3136902208706627 -0.0593548144857873
1920000000.0 0.344428420353942 0.021167651590786013
1940000000.0 -0.2693492942762079 -0.25428975569697404
1960000000.0 0.09048506837093363 0.37688353279563097
1980000000.0 0.3934587330267071 0.04717336038727315
2000000000.0 0.40727921064503064 -0.047117641039134094
2020000000.0 0.2989935294894569 -0.29665658993751676
2040000000.0 0.06178812348598595 -0.4287074667534597
2060000000.0 -0.4019201722987293 0.17684468295453817
2080000000.0 0.3490097553801748 0.25596313980311103
2100000000.0 0.05846453023285305 -0.41665273343870457
2120000000.0 -0.39577513177342594 0.02771377979573559
2140000000.0 -0.3292412639132627 0.1740543234442604
2160000000.0 0.07159330832100419 -0.3401774859432527
2180000000.0 0.2730220019293856 -0.18804454196136752
2200000000.0 0.269695340659028 -0.17105132517482582
2220000000.0 0.286828869446684 -0.12287309842143528
2240000000.0 -0.1429682500886293 -0.2783269719570482
2260000000.0 -0.18927149479025443 0.2395447736914012
2280000000.0 -0.11327822626858694 0.2814095179675937
2300000000.0 -0.07271639352515324 0.3029783624253328
2320000000.0 0.10386189491957828 0.31995216656158376
2340000000.0 0.18963081837332757 -0.3211109870219911
2360000000.0 -0.2281681474944108 0.3427479240014077
2380000000.0 0.22718124445589394 -0.3980606142175494
2400000000.0 0.0006572808840910452 0.507022473248763
2420000000.0 -0.18713050238368398 -0.525052110567827
2440000000.0 0.4595054962795107 0.3989752894358875
2460000000.0 -0.6548140992489321 -0.04138395893670557
2480000000.0 0.5584499543053562 -0.414127994822813
2500000000.0 -0.4845151578163989 0.5373097707570821
2520000000.0 0.4592834191338365 -0.5856282846560649
2540000000.0 -0.5963088049009359 0.46581994969728935
2560000000.0 0.7497539150018492 -0.1358133238041715
2580000000.0 -0.6476878760407665 -0.3959252722554743
2600000000.0 0.37472628245019834 0.6469449870041999
2620000000.0 -0.0469089102194662 -0.7282567739822764
2640000000.0 -0.657701033342597 -0.25215338580869096
2660000000.0 0.540553031784072 0.3989241966730379
2680000000.0 -0.4696738546064572 -0.43119770091825516
2700000000.0 0.5336612682642498 0.2780718590778151
2720000000.0 -0.5576657773921201 0.06476449108964934
2740000000.0 0.40406455592484514 -0.32614909165849565
2760000000.0 -0.2853309903701457 0.38440587079503064
2780000000.0 0.29183970636758416 -0.3377579654857023
2800000000.0 -0.38315729942124677 0.17852475604932672
2820000000.0 0.405102586134658 -0.05434178855642632
2840000000.0 -0.39726709955971495 0.05308482354703232
2860000000.0 0.3941981598985188 -0.02497276287818639
2880000000.0 -0.38030327040408 -0.08718794911321032
2900000000.0 0.0014414989019745075 0.3840500604584931
2920000000.0 0.3742962395718362 0.09049785974416251
2940000000.0 0.23384925356043046 -0.302946560817695
2960000000.0 0.29325173364259927 -0.2411006142535612
2980000000.0 0.37958429702068114 -0.01489207047276567
3000000000.0 0.2547064531075582 0.28702128991347076
3020000000.0 -0.02811902335704958 0.3801530292865423
3040000000.0 -0.3342887541906839 0.15902798985658706
3060000000.0 0.2355217899293342 -0.26828302821441835
3080000000.0 -0.2612087080696488 0.22567299182354383
3100000000.0 0.32943389839345494 -0.0592662712226862
3120000000.0 -0.3230471083144511 -0.03451512394076914
3140000000.0 0.3118661685248873 -0.04731880266044024
3160000000.0 -0.10490305768581923 0.2822178063723946
3180000000.0 0.06718737821877963 -0.2737238898843795
3200000000.0 0.07565952326212452 -0.23939303214412572
3220000000.0 0.19634534227879347 -0.07229478659031514
3240000000.0 -0.1496695017176122 -0.066699813221417
3260000000.0 0.04970989736925003 0.11598527924799855
3280000000.0 -0.046130053721209506 0.08979256285363678
3300000000.0 -0.056116636843600236 0.06881318882644179
3320000000.0 0.02735635084829688 -0.06556651746665795
3340000000.0 0.05045908621634407 0.01438145503636342
3360000000.0 0.029804621647569876 0.023560702977882774
3380000000.0 -0.03100901936861871 -0.004945072388148384
3400000000.0 -0.029535492671236327 0.020406532296106387
3420000000.0 -0.008678727697900146 0.03870872370889054
3440000000.0 0.016654540695714527 -0.028627631996922184
3460000000.0 -0.015557190631937102 0.009081493710695873
3480000000.0 -0.007110688900156306 0.0029163680979107476
3500000000.0 0.024161732162948646 -0.009608951975161659
3520000000.0 0.04130851452139458 0.018525211258692328
3540000000.0 0.02450984987166718 0.05374283850133313
3560000000.0 -0.040754312334856796 -0.042914014901230355
3580000000.0 0.020567022142077906 -0.05153492785981016
3600000000.0 0.013255017038277113 0.059692115319339975
3620000000.0 0.07485616112471713 -0.017246079441418805
3640000000.0 0.06370233508284104 0.07078150861988668
3660000000.0 -0.08710190174473675 -0.06177212824218596
3680000000.0 0.0331694016831645 0.0965765724920351
3700000000.0 0.07348947372034026 -0.05381390140954688
3720000000.0 -0.030220104755409618 0.08069537374455686
3740000000.0 0.034092155498536766 0.07728305967525191
3760000000.0 -0.045415534135023854 -0.08396249072880621
3780000000.0 0.020823964074816247 0.11268086146787085
3800000000.0 0.11362334642346092 -0.07243162317047526
3820000000.0 0.05801662412313571 0.13470284761518828
3840000000.0 0.14855851454942165 -0.022046778970825492
3860000000.0 0.1632815856515479 0.015284848027875775
3880000000.0 -0.17395061066381257 -0.06702057391933149
3900000000.0 -0.18379887750193977 0.0936838590594343
3920000000.0 0.17141022063429523 0.12788939710769776
3940000000.0 0.21051890235520523 -0.03491486976183786
3960000000.0 0.12392584897612262 0.16748232067160246
3980000000.0 -0.184424767337078 0.08835476871286822
4000000000.0 -0.0013909771847763245 -0.19866030828349823
