!Created with skrf (http://scikit-rf.org).
# Hz S RI R 50.0 
!freq ReS11 ImS11
400000000.0 0.7099183917281946 -0.3994606909982281
420000000.0 0.546130254800114 -0.6213144853420451
440000000.0 -0.2796596305379713 -0.7160927178789676
460000000.0 0.5366146159298829 -0.4818658737158673
480000000.0 -0.1286163254547273 0.6556764715847997
500000000.0 0.608782548799005 0.23597458327653545
520000000.0 0.5705387436339037 0.05830425932507539
540000000.0 -0.431278988991187 0.2624610348865518
560000000.0 -0.4579011441274874 0.11865061603594781
580000000.0 -0.39562085964776894 0.11963079138538092
600000000.0 0.29080195920244023 0.2583313318662093
620000000.0 0.08128776599376018 -0.36468374289197464
640000000.0 -0.4001854729894948 0.08326426571574512
660000000.0 0.25359669861310735 -0.35808143399576314
680000000.0 -0.0027309144776218952 -0.4483250437383572
700000000.0 0.4247009067801463 0.13358776658289204
720000000.0 -0.021950834676482362 -0.42760547661346354
740000000.0 -0.1106292433952097 -0.38490792699395443
760000000.0 0.09861178094528511 -0.35140790979983744
780000000.0 0.2653092397183629 0.1862486650558242
800000000.0 -0.23583632903719393 0.1649351866885336
820000000.0 -0.17690446613462896 -0.16698062052726725
840000000.0 -0.0888974520541748 0.18563877897797307
860000000.0 -0.17034191178023658 0.03660691439374507
880000000.0 -0.0570752202440746 -0.1310133232301471
900000000.0 0.009843771811450203 0.10815196243350696
920000000.0 -0.053931209106490526 0.05515056356533163
940000000.0 0.017315489675663296 -0.05247067708884528
960000000.0 -0.013885628037011048 -0.05511524642510362
980000000.0 0.04917239257092683 -0.06237208664442002
1000000000.0 0.0839017087238215 0.006626732240299839
1020000000.0 0.04283070936003686 -0.09873863574216611
1040000000.0 -0.0888688026110987 0.09074972717696522
1060000000.0 0.033356704341800006 -0.14874787737650988
1080000000.0 -0.1932646201980761 -0.027446400285014348
1100000000.0 0.12790009043246983 0.18044045884215534
1120000000.0 -0.18904484665342186 0.16938529847382078
1140000000.0 -0.24246035061292392 -0.14699302589184626
1160000000.0 -0.16065112427214695 0.2675484680984575
1180000000.0 0.24453761733021165 0.23259124294761319
1200000000.0 -0.34158863086557173 -0.01122838642567967
1220000000.0 -0.29840615726070036 0.20090085283838924
1240000000.0 -0.11181197781934024 0.3646471486850172
1260000000.0 0.3967063448006331 0.08050004286035195
1280000000.0 0.052685552869759816 -0.41237579269586094
1300000000.0 -0.01901905268833604 -0.419856725794056
1320000000.0 -0.08362274075089682 -0.42480080014531124
1340000000.0 -0.35937197541689836 -0.25843495577120446
1360000000.0 -0.19277485831239682 0.39897693756171726
1380000000.0 0.25159384337372304 0.3494459634455081
1400000000.0 0.37655165460755347 -0.17371149071498732
1420000000.0 0.01775733248252401 -0.392747275747706
1440000000.0 -0.3551207314890549 -0.10570421298390162
1460000000.0 0.01080343884616856 0.3416248558001601
1480000000.0 0.3104861570131208 0.0017055958667477502
1500000000.0 -0.2792294226060246 -0.03345373392987919
1520000000.0 -0.12166062225333434 0.20587990964738215
1540000000.0 0.19429072043684156 0.052932547255157406
1560000000.0 0.15917315469628537 0.04823538801440282
1580000000.0 0.12224280319752273 0.07699707501792481
1600000000.0 -0.0941244017829404 0.0734302531029828
1620000000.0 0.0827579198871477 -0.039361540275774584
1640000000.0 -0.03288909208031723 0.06054825495308543
1660000000.0 -0.0072099127064621975 -0.043411744553120114
1680000000.0 -0.0167899839480281 0.014167541201982235
1700000000.0 -0.010283275845768063 -0.015174301591673118
1720000000.0 -0.036690065868099156 -0.00668247075623898
1740000000.0 -0.045952544836549494 -0.03302249294069046
1760000000.0 0.040268060007141074 -0.06924453408909519
1780000000.0 0.10187240519091915 0.027574900818817197
1800000000.0 -0.14024851065731136 0.007057415686046996
1820000000.0 -0.012042260262844613 -0.17178484326261073
1840000000.0 -0.15035479626847312 0.13240504356775984
1860000000.0 0.23473406723441356 0.055910424914294835
1880000000.0 -0.21821924375987511 0.1780340358754204
1900000000.0 0.08703861906742644 -0.3065676292466977
1920000000.0 0.16578179356682082 0.30903747268037624
1940000000.0 -0.0926776736347057 -0.3634876527954983
1960000000.0 -0.00022468755553889884 0.395007839757314
1980000000.0 0.39228298992350913 -0.10354999708092287
2000000000.0 0.1295434501589211 -0.3952913515533844
2020000000.0 -0.28133136041041873 -0.3143437199158302
2040000000.0 -0.4199600188837558 -0.058314229951988567
2060000000.0 -0.38082684721672 0.18686513042722536
2080000000.0 -0.09735716500266106 0.411393012543284
2100000000.0 0.4077004198926352 0.093082886072475
2120000000.0 0.002931379124985749 -0.4020869074069207
2140000000.0 -0.3494239804563844 -0.15451483985386122
2160000000.0 -0.06282886765697342 -0.3533886533248107
2180000000.0 -0.15381492631501756 -0.30077224751131215
2200000000.0 -0.20521329300369923 -0.24567699000747173
2220000000.0 -0.10333425299964222 -0.2874405026580373
2240000000.0 -0.020023130802448122 -0.3013536431739098
2260000000.0 -0.13181797343671262 -0.27090107502164484
2280000000.0 -0.2738258009493931 -0.1414808011692596
2300000000.0 -0.10799677378633928 0.3026066055361017
2320000000.0 0.3015267133714404 0.15999154316579026
2340000000.0 -0.030362186860209812 -0.3697862283605399
2360000000.0 -0.21275922498648728 0.34928443437261353
2380000000.0 0.3104391085293653 -0.33268495753570604
2400000000.0 -0.2862242680115385 0.4188120721588596
2420000000.0 -0.015968634660582192 -0.560830010812609
2440000000.0 0.4514064336128574 0.41264472034966865
2460000000.0 -0.6557237082262257 0.01984821561299682
2480000000.0 0.613520782151811 -0.32784818773018626
2500000000.0 -0.5263934491272249 0.49797868785636373
2520000000.0 0.5021121637815332 -0.5514723986548937
2540000000.0 -0.6322238005631633 0.4186565337719214
2560000000.0 0.7479011563199807 -0.15248726519744996
2580000000.0 -0.660723307390601 -0.3770150721802421
2600000000.0 0.35497482449302786 0.6599216925488173
2620000000.0 -0.045709050771418576 -0.7301901997279847
2640000000.0 -0.6529061785554858 -0.2698339750946357
2660000000.0 0.5850639575460239 0.33631969872398476
2680000000.0 -0.5172048005516808 -0.3742634842344987
2700000000.0 0.5310060855464563 0.2806932374283987
2720000000.0 -0.5559356026248361 -0.06834263940287251
2740000000.0 0.5059948242453062 -0.11931492482411134
2760000000.0 -0.42872575522744355 0.22010029480990273
2780000000.0 0.38627698221037987 -0.23319705679457095
2800000000.0 -0.3449932168045085 0.25193476739352405
2820000000.0 0.28324371959189626 -0.29566349017832005
2840000000.0 -0.31980881265132377 0.23274037045976634
2860000000.0 0.3837254622896066 0.0573415645237694
2880000000.0 -0.22063672761942324 -0.3155146047293334
2900000000.0 -0.30745526770993004 0.23164661361658037
2920000000.0 0.23361888743720818 0.3127132740439808
2940000000.0 0.2088918874445353 -0.3313751037826206
2960000000.0 -0.05380788473069842 -0.38092205648912825
2980000000.0 0.1802719094140378 -0.33536600595019905
3000000000.0 0.37973519202594325 -0.0029123361447200265
3020000000.0 0.14111516590309742 0.34826186550141247
3040000000.0 -0.36557775671533965 -0.016435790091573692
3060000000.0 0.352966749671073 -0.03052727261501266
3080000000.0 -0.2855764487811323 -0.19647717193757175
3100000000.0 0.2629911130673306 0.21782403921757257
3120000000.0 -0.33447888541590215 -0.025207976888809488
3140000000.0 -0.07904410958167578 -0.3102313598397023
3160000000.0 0.2901616534051105 0.06186592189775273
3180000000.0 -0.050575601610934225 -0.2664987792262865
3200000000.0 0.23249243392432506 0.07100305610733774
3220000000.0 -0.12862622827268028 0.16409516879371108
3240000000.0 0.1299043926665036 -0.10875272373534627
3260000000.0 0.12397627296331751 0.04748387642117531
3280000000.0 0.06979596319319731 -0.07601238249070034
3300000000.0 0.06983865174776008 -0.0503422458822262
3320000000.0 -0.031149449964854654 -0.05926938830046882
3340000000.0 -0.029524494116836778 0.03643386253802845
3360000000.0 -0.015026823055853502 0.035194625628360295
3380000000.0 -0.014655066038436578 -0.03825782876096704
3400000000.0 0.018026746801224503 0.035823684493447965
3420000000.0 0.021627482297226604 0.022931059845031625
3440000000.0 -0.018071323184662258 0.013545508661660604
3460000000.0 0.010245047043760025 -0.015522243765958602
3480000000.0 -0.004785779834979657 0.014176359153274245
3500000000.0 0.007575368959257067 -0.02016688320784513
3520000000.0 -0.008072172570118111 0.03567645921779749
3540000000.0 -0.0046225570916795244 0.05207647607011341
3560000000.0 0.030311635960075196 0.05176735882659266
3580000000.0 -0.028203189843238368 -0.058080657573117485
3600000000.0 -0.06934022988662958 -0.01771068790015472
3620000000.0 0.013914224651283405 0.07926714908402147
3640000000.0 0.02931035236085808 -0.08094256739330974
3660000000.0 -0.07740349296356637 0.048659283192345505
3680000000.0 0.047315403540864616 0.08184361157984028
3700000000.0 0.08321418712981542 -0.04630285716845419
3720000000.0 -0.02794951092376762 -0.09178762020865439
3740000000.0 0.016976126563195255 -0.09302890634940787
3760000000.0 0.019598619734279617 -0.09515028195739722
3780000000.0 -0.09444353138274317 -0.05105639452562176
3800000000.0 0.12262662556717994 0.007782411720521181
3820000000.0 0.1405270870107869 -0.008384969810986147
3840000000.0 -0.15199904525505167 0.04121955323050556
3860000000.0 0.12615003375252037 -0.1167391967135868
3880000000.0 0.03837718863328839 0.18194721140476583
3900000000.0 -0.18425741328413373 0.07868357097451377
3920000000.0 -0.164723106162652 0.128784549161596
3940000000.0 -0.11032498166098338 0.18254735595831525
3960000000.0 -0.11532977141149635 0.17645712450845238
3980000000.0 -0.19582221382892648 0.06781031216230173
4000000000.0 -0.12962264765393097 -0.15050276877241683
