!Created with skrf (http://scikit-rf.org).
# Hz S RI R 50.0 
!freq ReS11 ImS11
400000000.0 0.7931828119060664 -0.2133318621175553
420000000.0 0.21518601381642108 -0.800626782206835
440000000.0 -0.6266485974662613 -0.45892756422067194
460000000.0 -0.13558120873090723 -0.7021642353877174
480000000.0 0.4663185369008589 0.46705397599709186
500000000.0 0.4820729559677317 0.41434993380290114
520000000.0 0.318951082279561 0.4756300614428032
540000000.0 -0.4737592886302004 0.16029096116990257
560000000.0 -0.20716035957725665 -0.4203881521418282
580000000.0 -0.4123395147918711 0.015326650939522466
600000000.0 0.14753973237916726 0.3520990825469183
620000000.0 0.3717030492675608 -0.07589380251650515
640000000.0 -0.41118135403433265 0.023919410111181934
660000000.0 0.4337478345588596 -0.0923086010814367
680000000.0 0.07906399190479547 -0.4461178900777855
700000000.0 0.42893765463786 0.1556213798094993
720000000.0 -0.4082079236235689 0.14770931096781573
740000000.0 -0.3693773479876636 -0.12045375841804366
760000000.0 0.3239913385785427 -0.15749424979033075
780000000.0 0.16045439740658662 0.281296541673483
800000000.0 -0.24582870588018346 0.1503299401027875
820000000.0 -0.24029882362085822 -0.038364250261951276
840000000.0 -0.12977350906573343 0.15179908665584968
860000000.0 -0.11875902211080003 0.12860220430175584
880000000.0 0.11494544537741096 0.08323471785816747
900000000.0 -0.02060978057987746 -0.1197115371646717
920000000.0 0.08560948478699039 -0.016805501778069273
940000000.0 0.04633318608364111 0.031483537869005845
960000000.0 0.028329652463603326 -0.055165212916778686
980000000.0 -0.06362815716672239 0.021756991773482715
1000000000.0 -0.047585992935245326 0.062125610749233555
1020000000.0 -0.013100821899462326 -0.1020213255357647
1040000000.0 0.11288839111496178 -0.05045920144702909
1060000000.0 -0.13544466918795053 -0.08039244143748665
1080000000.0 -0.1623950675667522 -0.09597142627841218
1100000000.0 -0.08064873225526342 0.2108469352549548
1120000000.0 0.033147097193528235 0.24965723944487678
1140000000.0 -0.26464635678053283 -0.0929358519934699
1160000000.0 -0.2297025731495543 0.2054433372294991
1180000000.0 -0.03496678114219689 0.3345897110330243
1200000000.0 -0.34187253946752677 -0.057138064345498174
1220000000.0 -0.1970013299133606 0.3034594799528232
1240000000.0 -0.051539828166033 0.3789731179093285
1260000000.0 0.4045418238325542 -0.02390118718289955
1280000000.0 -0.11036861553083453 -0.4039210000486213
1300000000.0 -0.3643352766517729 -0.2090896683446908
1320000000.0 -0.2254417993006152 -0.3613876584728654
1340000000.0 -0.2686840752575893 -0.3463339433767127
1360000000.0 -0.41267470634050446 0.16316741080435876
1380000000.0 0.2497551820389116 0.3519042476488429
1400000000.0 0.40136283671907647 -0.10815561582881138
1420000000.0 0.039974340141252375 -0.3898285037978772
1440000000.0 -0.2893037955803071 -0.2334250999698202
1460000000.0 -0.05723339787304109 0.33907909712718975
1480000000.0 0.30639812671001987 -0.06936636145263489
1500000000.0 -0.26230430112404307 0.08998882014809206
1520000000.0 -0.06533448200729301 0.2305319168248203
1540000000.0 0.1925001749251097 -0.04550814128189214
1560000000.0 0.107606513119065 0.12565854735381893
1580000000.0 0.1208594561730232 -0.0762290154387692
1600000000.0 -0.10961791129120627 -0.027938498933136133
1620000000.0 -0.0869119541308691 0.033342554781067374
1640000000.0 -0.04153470568559745 0.05850390590717954
1660000000.0 0.007083378006833084 -0.04399839418658917
1680000000.0 -0.0178183662582134 0.008802082381013326
1700000000.0 0.018125151308677843 0.011702362021856845
1720000000.0 -0.022377467600961806 -0.02493611147445639
1740000000.0 -0.04857974548078211 0.005569130083570745
1760000000.0 -0.045858258692105545 0.05907551766164351
1780000000.0 -0.05487345621356235 0.09047080560795691
1800000000.0 -0.1408832414473043 -0.0185497406316795
1820000000.0 0.12030963827984976 -0.12135804628176652
1840000000.0 -0.15008335416474045 -0.13354912871349314
1860000000.0 0.16338296305067684 0.18528297960069112
1880000000.0 -0.1410713587133108 0.2523195469342954
1900000000.0 -0.29344900210934893 -0.13217525011248102
1920000000.0 0.3420981138372898 -0.0489748466737943
1940000000.0 -0.08754555001363944 -0.3587686303082162
1960000000.0 -0.1609714988968471 0.35689845584167185
1980000000.0 0.3968078431257093 0.08204865110364688
2000000000.0 0.09773272846660656 -0.404042038492683
2020000000.0 -0.20396586589400836 -0.36591993177172794
2040000000.0 -0.25076646164317695 -0.34079031675081173
2060000000.0 -0.42744135024552765 -0.033114346442232795
2080000000.0 0.0923607022013161 0.4182618691219142
2100000000.0 0.2884326617222318 -0.300981854234658
2120000000.0 -0.19832086148607442 -0.3430469422151217
2140000000.0 -0.26353493063961597 -0.26765221046908855
2160000000.0 0.1796299710071928 -0.3103496655123844
2180000000.0 -0.19287563566034605 -0.2794211643230024
2200000000.0 -0.28805858965173087 -0.12961843108849186
2220000000.0 0.03554289530887616 -0.29766069250717103
2240000000.0 0.18750271143103303 -0.236943287492778
2260000000.0 -0.17960296365581246 -0.24335758336390942
2280000000.0 -0.30137367383058844 0.04741115840908612
2300000000.0 -0.06369528576370559 0.3102112171746903
2320000000.0 0.24760879794971713 0.22728639996838954
2340000000.0 0.0760575767388575 -0.35927907036215334
2360000000.0 -0.36897980561208327 0.1595036344485653
2380000000.0 0.42411334463476014 -0.15254102274913262
2400000000.0 -0.429209931074529 0.26163932679517615
2420000000.0 0.29327442945184223 -0.470651553715251
2440000000.0 -0.011257096585654951 0.6038917364626496
2460000000.0 -0.48394787211358264 -0.4349111938784051
2480000000.0 0.6835967268785408 -0.10449295385104099
2500000000.0 -0.697732185952708 0.17965644252743204
2520000000.0 0.7408415894717311 0.013911668500861913
2540000000.0 -0.7133867083252714 -0.24576157130524215
2560000000.0 0.6542760389787836 0.39015315431362046
2580000000.0 -0.17732573182302225 -0.7383180334188371
2600000000.0 -0.4464767419219352 0.6030291320900166
2620000000.0 0.541326438450101 -0.49489530194637876
2640000000.0 -0.4125431055394854 -0.5749507940324826
2660000000.0 0.3528673527310018 0.576256409604669
2680000000.0 -0.1553612731986378 -0.6219012797617569
2700000000.0 0.15201985881722918 0.5842029022870147
2720000000.0 -0.42550577293242337 -0.3674188621143275
2740000000.0 0.5002980254445233 0.1539615410128319
2760000000.0 -0.4890702570488131 0.0053034550674368975
2780000000.0 0.4444558150160684 -0.11708118401122074
2800000000.0 -0.3288239655412501 0.27431258792973184
2820000000.0 0.38078266884692874 -0.15771698902626904
2840000000.0 -0.3929767916793627 0.08720136647281639
2860000000.0 0.3770319757858783 -0.10363832571574033
2880000000.0 -0.258191968859754 -0.2837293783945727
2900000000.0 -0.3392842267407666 0.1773131361725067
2920000000.0 0.029966887389892508 0.38813572386862705
2940000000.0 0.38214362345578934 -0.08752495529464772
2960000000.0 0.17782353366893433 -0.3427403522557564
2980000000.0 0.32173159924532124 -0.20961853323149268
3000000000.0 0.3645617669120552 0.11584524355323203
3020000000.0 0.022904793139348276 0.37791123656353964
3040000000.0 -0.3704182656930973 -0.005864000137380958
3060000000.0 0.3090499522571726 -0.18359570115084406
3080000000.0 -0.33916728408138835 0.07656848504751838
3100000000.0 0.33082999801156926 -0.07854556274722511
3120000000.0 -0.29683379210992705 0.14803262287812533
3140000000.0 0.05782105589802389 -0.3129019304088988
3160000000.0 0.20678111633804774 0.21405033942567664
3180000000.0 -0.06300193722473386 -0.26789046227115687
3200000000.0 0.24465765889411334 -0.03598693261892163
3220000000.0 -0.08391901896407132 0.1936830063387687
3240000000.0 0.14358418452671529 -0.09626563724881902
3260000000.0 0.13357363624305257 0.03481510949667213
3280000000.0 -0.07784976521551033 0.07822676862408054
3300000000.0 0.08463643049391327 0.005049158746744644
3320000000.0 -0.020002347257876165 0.05835067436530952
3340000000.0 -0.011355919824642199 -0.04284601051012733
3360000000.0 0.03788790427721622 0.010922249106494497
3380000000.0 -0.026142629638842764 0.029828651011702866
3400000000.0 -0.01702904353991057 0.034342103509336516
3420000000.0 -0.02556430643721372 0.015076483002280712
3440000000.0 -0.013221333134228942 -0.01696131633842931
3460000000.0 -0.017726656166614407 -0.004260902429522792
3480000000.0 0.0013598966303878537 0.015850658899737396
3500000000.0 0.013213472373687314 0.02244515720794477
3520000000.0 -0.01759544106977916 0.0362025277092931
3540000000.0 0.038731727748030714 0.04015175087073623
3560000000.0 0.05842038525572734 -0.024948600928857787
3580000000.0 -0.055612589422839025 0.038779580009850975
3600000000.0 -0.05221176576781599 0.05276736482120381
3620000000.0 -0.0069831636177378874 0.08065398272489162
3640000000.0 0.07800983332242113 -0.04396212114218797
3660000000.0 -0.08827434461931213 0.04176113307255462
3680000000.0 0.026739206183700185 -0.09725044354255011
3700000000.0 -0.01850229984174664 0.09612312342759245
3720000000.0 0.06555080325143883 0.07067669853785484
3740000000.0 0.038753748010764394 0.08452766425161472
3760000000.0 -0.04451479355487271 0.08625380079250529
3780000000.0 0.09917482582973638 -0.035219757811715775
3800000000.0 -0.10612809822899569 0.053029892481445295
3820000000.0 -0.13381108189219904 -0.018456736385796278
3840000000.0 -0.02879666277500606 0.15174751268282377
3860000000.0 -0.12748094061160897 -0.11176429701962329
3880000000.0 0.13939108127257852 -0.12113199755870674
3900000000.0 0.1899131079968638 -0.04948532914793364
3920000000.0 0.1928941777044579 -0.06924745339451147
3940000000.0 0.2071305639649815 -0.002926979711395529
3960000000.0 0.12783714130260374 0.15941251865723155
3980000000.0 -0.02381438659798115 0.19786942230674615
4000000000.0 -0.18068588680650666 0.06371916753313378
