!Created with skrf (http://scikit-rf.org).
# Hz S RI R 50.0 
!freq ReS11 ImS11
400000000.0 0.7007965350535724 -0.4170510795610085
420000000.0 0.5865460450028822 -0.5746028300156357
440000000.0 -0.48754556452870756 -0.5988292882942302
460000000.0 0.19321131603060893 -0.6841822779228751
480000000.0 -0.38050855529822336 0.5415363116581977
500000000.0 0.204050067179468 0.6133260029418075
520000000.0 0.3265065247153856 0.4722980737780392
540000000.0 -0.5014917053134039 0.02644705533633964
560000000.0 -0.25354173340906644 -0.39962433030938943
580000000.0 -0.21326657627677745 0.3676753218198351
600000000.0 0.3799481419686875 0.01842455790102903
620000000.0 0.3316509468481804 -0.1823705112404954
640000000.0 -0.3224689229815971 -0.2592255817116519
660000000.0 0.4421817764050476 -0.04152708855060791
680000000.0 -0.25206409200552565 -0.3707118370930167
700000000.0 0.17610489385350053 0.4023053489279984
720000000.0 0.35377551781665745 -0.24470180279885242
740000000.0 0.3223732944972504 -0.24526328954364385
760000000.0 0.2215229493737159 -0.304080621128262
780000000.0 0.21933163691387572 -0.24700838924513435
800000000.0 0.026464189852991954 0.28923200403865773
820000000.0 0.15716748978900436 0.1841057306051672
840000000.0 -0.18409300923081004 0.06654555712490279
860000000.0 -0.13609312598771603 -0.11189752950816521
880000000.0 0.052309153651730646 -0.13611021446489782
900000000.0 0.08404931270154327 -0.0803260012317995
920000000.0 -0.023648184979730442 0.07199169062010682
940000000.0 0.032763860713829446 -0.032793714003322184
960000000.0 -0.05081687519782505 0.03670782888464859
980000000.0 0.05735946706943013 -0.03941077629332238
1000000000.0 0.06503217695859805 -0.04439190097905577
1020000000.0 0.09292362372272606 -0.03629739529665004
1040000000.0 0.023748578402653108 -0.11017229952629058
1060000000.0 0.15312464703324635 0.009755283812551379
1080000000.0 -0.14995458618858776 -0.11439040746470129
1100000000.0 -0.21820980598731513 0.027786023990669276
1120000000.0 -0.1952258373166609 0.16594125857351683
1140000000.0 -0.17723673928567868 -0.22090964819159503
1160000000.0 0.004577529971577922 0.315736380666069
1180000000.0 0.3074484763681687 -0.12146216917787288
1200000000.0 -0.27904603998268557 -0.188024455736604
1220000000.0 -0.34792273600209306 0.0819801539720482
1240000000.0 -0.31054022010264726 0.22143717508356284
1260000000.0 0.39344368723337625 0.09666418785858927
1280000000.0 0.38832597420497283 -0.15518857648279763
1300000000.0 -0.16872738401195814 -0.4001445683566606
1320000000.0 -0.42129071396630013 -0.11384200592022035
1340000000.0 -0.4060899313044763 0.17569868308419603
1360000000.0 0.04431173801477617 0.4333146461708356
1380000000.0 0.09577945359035858 0.4160567262696204
1400000000.0 0.4148579484490174 -0.04396504237567532
1420000000.0 -0.09754141705240874 -0.38366586838818595
1440000000.0 -0.2816627480849092 0.23668592063738905
1460000000.0 -0.053559436685211126 0.3282895658310738
1480000000.0 0.12574021193174545 0.2756662100107998
1500000000.0 0.27943108265562283 0.01702321936379843
1520000000.0 -0.17589057668472094 -0.18359957887979314
1540000000.0 -0.0662940704083191 -0.20290780558057586
1560000000.0 -0.15317070598877325 0.06601195007622458
1580000000.0 0.05135543288376082 -0.12486658301694871
1600000000.0 0.029819047759217888 -0.10972955601614413
1620000000.0 -0.07460675816403542 -0.05378858521986658
1640000000.0 -0.05532420356690911 -0.04918326399892554
1660000000.0 -0.047920708154904915 -0.007062908041540042
1680000000.0 0.017051735240494394 0.0158093198056164
1700000000.0 0.009129357142859638 0.009384389295903706
1720000000.0 -0.0005359176003205554 0.038429306019645795
1740000000.0 -0.052754969478961966 0.03658989009804569
1760000000.0 0.036675733693194386 -0.07079268951251295
1780000000.0 -0.044142973018935876 -0.08582134654991042
1800000000.0 0.12836036640306814 0.0273712611089099
1820000000.0 -0.16802205724362979 0.0457642967990702
1840000000.0 -0.10666251023687205 -0.18451572615734804
1860000000.0 0.08405668631758392 -0.23738193381883668
1880000000.0 0.2534473351094562 0.1279677512408373
1900000000.0 -0.292404134558927 -0.112032438361422
1920000000.0 0.23156606431319904 0.24972463580897755
1940000000.0 0.3188430335171623 -0.18724800531000826
1960000000.0 -0.34066805983478726 0.20914166636941064
1980000000.0 0.3683734218943418 -0.18422734047428488
2000000000.0 -0.18078993354044276 -0.3766631186716353
2020000000.0 -0.40952078066096814 -0.08722001424200765
2040000000.0 -0.40484075193037905 -0.10894761908731633
2060000000.0 -0.4202790720600481 -0.015222866097973015
2080000000.0 -0.33306023031123405 0.26337814233323076
2100000000.0 0.4193849395157849 0.030891462723756997
2120000000.0 -0.04385259149664387 -0.39953715752937274
2140000000.0 -0.3335935781524249 -0.18516629242795365
2160000000.0 0.027098172007162333 -0.3587626943798529
2180000000.0 -0.09912313102217148 -0.3252006480046047
2200000000.0 -0.2461366634520893 -0.20806298947189478
2220000000.0 -0.22115146504731334 -0.2120480701873973
2240000000.0 -0.19196621727771523 -0.23226631104365048
2260000000.0 -0.28997707132355643 -0.07085168912193966
2280000000.0 -0.3000100796083635 -0.03274926764936431
2300000000.0 -0.25514192766923144 0.18361377233392726
2320000000.0 0.053107016094693565 0.3340344888672183
2340000000.0 0.16876242503825414 -0.33257730703333904
2360000000.0 -0.21589756666692492 0.3490891861881234
2380000000.0 0.2220415226868475 -0.3964564709332833
2400000000.0 -0.25733291866774327 0.43334723633111727
2420000000.0 0.044070092928863144 -0.5565701217193627
2440000000.0 0.37994647180297586 0.47657894860750327
2460000000.0 -0.646032070946864 -0.11005931497485416
2480000000.0 0.6437013608699171 -0.26088568084356856
2500000000.0 -0.5742086580185372 0.44055384850073925
2520000000.0 0.5370342596750506 -0.51664734625131
2540000000.0 -0.6780859662345435 0.33809740761188206
2560000000.0 0.7619671499883269 -0.049056428100330444
2580000000.0 -0.602771288152421 -0.46378287627204523
2600000000.0 0.2702569875729596 0.6986570283787056
2620000000.0 0.05503364691978533 -0.729434249314209
2640000000.0 -0.5882935505199256 -0.3931230510383997
2660000000.0 0.5357173853003389 0.41108623768785574
2680000000.0 -0.4921874292965857 -0.406564927540508
2700000000.0 0.4832695661264302 0.35521150229411413
2720000000.0 -0.5426988684407537 -0.13775366044163379
2740000000.0 0.5194775944607629 -0.008456362158774388
2760000000.0 -0.46874909108636575 0.11710524146128695
2780000000.0 0.38511513877901404 -0.23595545150027902
2800000000.0 -0.3937259660589485 0.16796726381304874
2820000000.0 0.37177174595449586 -0.17944804689332586
2840000000.0 -0.33013725836731345 0.23067284345666209
2860000000.0 0.24652173885924333 -0.30764838914318
2880000000.0 -0.3847037098926268 -0.012774271635951172
2900000000.0 -0.20286810819605938 0.32278568521066353
2920000000.0 0.18511877863801893 0.3379982436866986
2940000000.0 0.386418274243504 -0.039585243739234686
2960000000.0 0.3219843089655237 -0.21290975261176748
2980000000.0 0.34484065116118134 -0.17278680749952027
3000000000.0 0.376868043911298 -0.06313902001791773
3020000000.0 0.15444883725347683 0.3402449241119474
3040000000.0 -0.35077269771723707 -0.09952412294156883
3060000000.0 0.3420319130030562 0.10164478512685451
3080000000.0 -0.34013609922672783 -0.07757542239532968
3100000000.0 0.28301029350904255 0.18885090943698682
3120000000.0 -0.318051313536231 0.10018989055411735
3140000000.0 -0.09414495578638407 -0.3032773460729329
3160000000.0 0.24474521567086974 0.16629840816853303
3180000000.0 -0.004841706341207633 -0.2731848802475061
3200000000.0 0.2432905475564337 0.0024687252172297582
3220000000.0 -0.1308909217847733 0.16146510399185462
3240000000.0 0.16942183890963314 -0.028390845627478057
3260000000.0 0.09063983350053746 -0.10162457173258946
3280000000.0 -0.07160550334909531 0.0731447848353484
3300000000.0 -0.0409395016772978 -0.0693980513862566
3320000000.0 -0.02873988294033099 0.058783173755383396
3340000000.0 -0.04059032748052172 -0.0336312786241553
3360000000.0 0.015149655088970853 -0.03767189504043713
3380000000.0 0.0336689926525828 -0.010634459499870701
3400000000.0 0.021344867005471585 0.02779095464951958
3420000000.0 -0.017533389363684593 -0.02913565009088492
3440000000.0 -0.0023180222046606637 0.027585978781038658
3460000000.0 0.01127419068611199 0.011822983012866032
3480000000.0 0.009579356253391362 -0.0032559088925730394
3500000000.0 -0.007098759390075874 0.02528650169374376
3520000000.0 0.018285384237718062 0.03440899464731793
3540000000.0 -0.04442006548727563 -0.022613629449641275
3560000000.0 0.036673718964087026 0.04071491873662066
3580000000.0 -0.03173324221818967 0.05461396125225724
3600000000.0 0.051792844492750276 -0.053749256126301874
3620000000.0 0.07864384107801624 0.023707660526346878
3640000000.0 -0.04038285553493211 -0.07395682689338709
3660000000.0 -0.07276941845869693 -0.05251316201612158
3680000000.0 -0.04210185304171431 0.0827709487393958
3700000000.0 0.07039057756108837 0.06329011752938973
3720000000.0 0.09782310009240071 -0.003233380846062195
3740000000.0 -0.09796014014727084 -0.005948437149800676
3760000000.0 0.051403884414491396 0.08002419012247489
3780000000.0 -0.10169797219974186 -0.004243117719964979
3800000000.0 -0.07193237464098243 0.09546953301498057
3820000000.0 0.012289886051186428 0.1435304233112367
3840000000.0 -0.16056562333162624 0.009958346614054687
3860000000.0 0.005214483670406581 -0.17402292985624215
3880000000.0 0.16813112874271524 0.0819050494632428
3900000000.0 -0.06748620727650573 0.18745453813113433
3920000000.0 -0.05902581821110284 0.19968762646667748
3940000000.0 0.009084018708562252 0.21253885200117195
3960000000.0 -0.03711660420597459 0.20859381777821115
3980000000.0 -0.06863520156262161 0.1924037712048659
4000000000.0 -0.1582919440450107 -0.1105830209100439
