!Created with skrf (http://scikit-rf.org).
# Hz S RI R 50.0 
!freq ReS11 ImS11
400000000.0 0.26364736332644934 -0.8042327016794477
420000000.0 -0.8091183716607474 -0.19136943319012448
440000000.0 -0.6991199330398418 0.33615622877804996
460000000.0 -0.7147320937167948 -0.013138275027603404
480000000.0 0.12141130564283145 -0.6412658016065965
500000000.0 -0.07704673905151715 -0.5955356808654886
520000000.0 0.009958848795420477 0.531517428225308
540000000.0 0.36011132395639933 -0.3212415902285275
560000000.0 0.4123663680457053 0.19803857229705735
580000000.0 0.06028927809167888 -0.4144042960295863
600000000.0 -0.22921051303712536 0.29880582405125666
620000000.0 -0.2714783744737584 -0.27675742837178147
640000000.0 -0.3800369871630652 -0.19996421270281656
660000000.0 0.30960039777032083 -0.3330779030197724
680000000.0 -0.42192094803204017 -0.1776106193324064
700000000.0 0.28920111947647226 -0.34123717792211306
720000000.0 -0.32517417510713253 0.2649858659082728
740000000.0 -0.3578396248260958 -0.13192300164238013
760000000.0 0.27902969534628647 -0.1918881696994005
780000000.0 0.3117030791320963 -0.019558679341584985
800000000.0 0.297474441238452 0.07947591227214311
820000000.0 -0.2604652077036341 0.029916176597800374
840000000.0 0.17173997810592675 0.12646083928782875
860000000.0 -0.1388498852606404 0.12101239199274344
880000000.0 0.0780252698877839 0.1319224499376242
900000000.0 0.11951319213998642 0.035471041720026214
920000000.0 -0.07191189859561684 -0.035221744281941955
940000000.0 0.04075566962548285 0.03930632937389807
960000000.0 0.05564501740769389 0.029283427846205117
980000000.0 0.00939658925228976 0.06521070722783201
1000000000.0 0.02246621584653983 0.07563483704896191
1020000000.0 -0.08959042525997334 -0.01358281600736789
1040000000.0 0.05271857672420112 0.0965599562724565
1060000000.0 0.11995379042178858 -0.09578743889628644
1080000000.0 0.14375436840441325 -0.12700871103407368
1100000000.0 0.01580020978297999 0.23002225667277243
1120000000.0 0.2422588676743265 0.08305285137594856
1140000000.0 -0.23595111633363847 0.14047739128616699
1160000000.0 -0.24287321711426407 0.1789320648622486
1180000000.0 -0.05458226871826995 0.32302554717488285
1200000000.0 -0.014761604360396426 -0.33828244741346625
1220000000.0 -0.3175657281055394 -0.1651541161149277
1240000000.0 -0.22709053432291898 0.3119310720720713
1260000000.0 0.35772309382113204 0.17915861587470588
1280000000.0 0.4155277539298944 -0.0432737027067046
1300000000.0 0.08730685750597289 -0.4281488043451315
1320000000.0 -0.31459800142729094 0.3140411341309466
1340000000.0 -0.03587128541845324 0.4392180562986097
1360000000.0 0.4230109635288424 0.09771785037226074
1380000000.0 0.4007147363296961 0.11433930846951064
1400000000.0 0.4028844416347969 0.042364413985708435
1420000000.0 0.35546756708868443 -0.16228169095142575
1440000000.0 -0.36608361992199984 -0.0923096822922434
1460000000.0 0.3257537681329116 0.09722535106186542
1480000000.0 0.28211125324443476 -0.11093417314652906
1500000000.0 0.19362785870492571 -0.19070432911745977
1520000000.0 0.18620733546710092 -0.15967672014122106
1540000000.0 -0.1895345890619504 0.09282439454494582
1560000000.0 -0.0715465207094964 0.16728533584088784
1580000000.0 -0.15726627731038212 0.020600846274897586
1600000000.0 -0.05896518074325802 -0.1051077195219116
1620000000.0 0.022814484047509007 0.08908485571347098
1640000000.0 0.027353273610116413 0.05532693844383956
1660000000.0 -0.01476852481922461 -0.029813089375249294
1680000000.0 0.004808098914877123 0.019824356960211974
1700000000.0 0.023408865474482152 0.014885651830506778
1720000000.0 -0.00045393863660746605 -0.037927912694278726
1740000000.0 0.03790212735612816 0.035754590402196786
1760000000.0 -0.07463594577654514 0.00919333977713727
1780000000.0 -0.10577915051618852 -0.028660124750885013
1800000000.0 -0.1431479050717898 -0.02551023370537729
1820000000.0 -0.024034191577527605 -0.17520001916147335
1840000000.0 0.02160386077717451 0.20534477850785102
1860000000.0 -0.0930250466462993 -0.22631054211215348
1880000000.0 0.2697679042560464 0.07150959607136152
1900000000.0 -0.21907097230702785 -0.21538150552082277
1920000000.0 -0.11568248903781098 0.3189090970035494
1940000000.0 0.28003365868132335 -0.245787940730384
1960000000.0 -0.24281239475825545 0.3126161659883875
1980000000.0 0.3852648308617053 0.1312269628873946
2000000000.0 0.28211880552374063 -0.31159251824984396
2020000000.0 -0.20829537033712783 -0.3745284640275701
2040000000.0 -0.4328382843607181 -0.02602441115901899
2060000000.0 -0.16142986364781156 0.40286489613737025
2080000000.0 0.36282265294093086 0.2320257260708308
2100000000.0 0.044505351652813205 -0.41836922517501934
2120000000.0 -0.39656867455639633 -0.01372981016700355
2140000000.0 -0.36844988508508425 -0.05503603716825356
2160000000.0 0.31340511677206556 -0.15807476805059067
2180000000.0 0.33488123760541466 0.04139775732998856
2200000000.0 0.3266969249851194 -0.011670114335861327
2220000000.0 0.2709153532466421 -0.1706365525566977
2240000000.0 -0.3099759270836838 -0.048033504670558495
2260000000.0 -0.1716854006836234 0.24603337075016368
2280000000.0 -0.27125121729736046 0.12676800891170828
2300000000.0 -0.1715029968235661 0.26031907458847103
2320000000.0 0.09623463651405142 0.3225019226820151
2340000000.0 0.15758761371100496 -0.3339543929028686
2360000000.0 -0.20037123786989286 0.35272619424437174
2380000000.0 0.1318134163290581 -0.43127298667467756
2400000000.0 -0.13510971344704154 0.4798359712548068
2420000000.0 0.024032250237118816 -0.5546844113789136
2440000000.0 0.4836981219316698 0.36889310339110387
2460000000.0 -0.6333044723839487 0.16646792174294514
2480000000.0 0.4011875446234698 -0.5658737638788681
2500000000.0 -0.36063266719177595 0.6255075204941745
2520000000.0 0.46810411048096845 -0.5762764337025146
2540000000.0 -0.675419686028144 0.3366279128336783
2560000000.0 0.759637523433439 -0.017504583778526005
2580000000.0 -0.5771688421049317 -0.4903335308567715
2600000000.0 0.2644889343029841 0.6965121262348714
2620000000.0 -0.031480123282881516 -0.7259475042998761
2640000000.0 -0.6467273114744072 -0.2701166753866187
2660000000.0 0.6080113670869225 0.2764070292208657
2680000000.0 -0.5664972331863141 -0.28195063121193426
2700000000.0 0.5465177726373243 0.23698057825311247
2720000000.0 -0.554781800713698 0.012521047281073307
2740000000.0 0.4756940691908746 -0.1926357320953685
2760000000.0 -0.42723539029016555 0.20885300369005153
2780000000.0 0.4334359040573368 -0.1011246362499422
2800000000.0 -0.42362892771074534 -0.033941026740526306
2820000000.0 0.39350854930275664 -0.13561707561218705
2840000000.0 -0.028452220058399466 0.40646073241757635
2860000000.0 -0.10833270686051882 -0.3798945658205942
2880000000.0 -0.25994162924696956 0.28094216944967476
2900000000.0 -0.12638210930419255 0.3577908204963568
2920000000.0 0.17082796867905534 0.34800734217824936
2940000000.0 0.33946226147840813 -0.19737810377572362
2960000000.0 -0.00914464739889994 -0.3892211803669626
2980000000.0 0.14254517579972453 -0.3558362966662469
3000000000.0 0.3495908427181182 0.14962741584968955
3020000000.0 -0.1929834237175013 0.32300085662277134
3040000000.0 -0.24660275380531538 -0.27576206984471024
3060000000.0 0.35363089825677385 0.08439114078247961
3080000000.0 -0.3294056307611829 0.13215203970189923
3100000000.0 0.18303660155293044 -0.2908351866798022
3120000000.0 0.029338263586429113 0.32613104812448673
3140000000.0 -0.26818026240261433 -0.15638041417092208
3160000000.0 0.1997737137810105 0.2074442950195036
3180000000.0 0.23913067554004322 -0.11774624291286379
3200000000.0 -0.17425114594961982 0.1734406553233977
3220000000.0 -0.16356734910552342 -0.1410693344498331
3240000000.0 0.17814767135829843 0.015152749125314616
3260000000.0 0.047642758411686595 -0.13228397121067287
3280000000.0 -0.05604612596358636 0.08929650321901994
3300000000.0 0.050739686362331136 -0.06784195751778971
3320000000.0 0.06750315001606616 -0.029786931129256993
3340000000.0 -0.05507361127652007 0.018352868847408676
3360000000.0 0.002308129627924454 0.04096591877666408
3380000000.0 0.008914552700435419 0.03536913373818267
3400000000.0 -0.03347408077315405 0.017880116602265395
3420000000.0 0.016771620654214985 0.030792361755774628
3440000000.0 -0.01197741482804545 -0.02025302870048336
3460000000.0 0.007051901459115962 0.007038483366534714
3480000000.0 0.01597681722527997 -0.008427081438112547
3500000000.0 -0.024008643198814034 -0.015848296561493933
3520000000.0 0.0016838527263497158 0.03513086471373477
3540000000.0 -0.03758079191686184 -0.016833686248243142
3560000000.0 0.02133858244239251 0.045193706796581794
3580000000.0 0.06204216147511953 0.00201823754316105
3600000000.0 -0.03839655247468435 0.0650537403388523
3620000000.0 0.01853976625735363 0.0852938158475866
3640000000.0 -0.08370910154993944 0.03815829550468399
3660000000.0 0.009588949991495467 -0.09396458556538481
3680000000.0 0.0923004801876856 0.006803181933776736
3700000000.0 -0.018242728814558594 0.09383395069652385
3720000000.0 0.08501882816943132 0.050773857330866846
3740000000.0 -0.09756812771148043 0.012140280819166533
3760000000.0 0.0694889967322134 -0.0644611053118846
3780000000.0 0.08912255396290078 0.044254847061346324
3800000000.0 -0.11449892455327991 -0.023157511672125722
3820000000.0 -0.05321154481111715 0.12637605530965634
3840000000.0 0.018037917558710453 -0.15408876732321475
3860000000.0 0.03749162760198176 0.17031234158967987
3880000000.0 -0.1918319280835469 0.009220860138019798
3900000000.0 0.06500052797416613 -0.19275004274331134
3920000000.0 0.20599397174472087 0.048112513538505326
3940000000.0 0.2141616864662641 0.021341642298060237
3960000000.0 0.02612452981898036 -0.2137118158230595
3980000000.0 -0.15658370366440733 -0.13515351930481295
4000000000.0 0.030325915562907254 -0.19107384491757023
