!Created with skrf (http://scikit-rf.org).
# Hz S RI R 50.0 
!freq ReS11 ImS11
400000000.0 0.005868069171222372 -0.8185467648943394
420000000.0 -0.26113593965583903 -0.7835968379242924
440000000.0 -0.7666447276113545 -0.11298659256639458
460000000.0 -0.5017465604423177 -0.5190874839131231
480000000.0 0.665246088798174 -0.0400222028734474
500000000.0 0.49478486439856195 -0.4058875544865582
520000000.0 0.5630382227795961 0.09972104707866858
540000000.0 0.16448117148812477 0.4882259484653195
560000000.0 -0.4616900527216923 0.06814762104246863
580000000.0 0.32932082498298193 -0.22510035492557356
600000000.0 -0.10444209077581203 -0.33495483850010516
620000000.0 -0.08455071670697792 0.34860585809318817
640000000.0 -0.39134498515176847 -0.09002667547518298
660000000.0 0.4141114079989554 -0.14582248807483153
680000000.0 -0.435744151308765 -0.09191480006684459
700000000.0 0.4411492910836971 0.0069714762014150885
720000000.0 -0.41055422644329337 -0.14068753575475595
740000000.0 0.07405974940419321 0.3903927395096684
760000000.0 -0.3441820600711909 0.09309493355016084
780000000.0 0.3036166542352147 0.1250863222491992
800000000.0 0.09752715488643181 -0.28426500666464044
820000000.0 -0.23180297832084507 0.07029956631143508
840000000.0 0.16558325928945264 -0.08687552304848443
860000000.0 -0.10368768099587047 -0.10747446528271283
880000000.0 0.10440976848303395 -0.06221477826293252
900000000.0 -0.01662950177071486 -0.09001361312222989
920000000.0 0.03479035131718287 0.05364436021874951
940000000.0 -0.048735233056003774 0.0064567313350704855
960000000.0 -0.047242618388707615 0.0019473301370784685
980000000.0 0.005875370296771396 0.06607634183862982
1000000000.0 0.07740923688269656 -0.05069286050398704
1020000000.0 0.059182066298833394 -0.10034626768983652
1040000000.0 0.042621395623785786 0.13589015334985546
1060000000.0 -0.04002489894687927 0.17194387044268947
1080000000.0 0.12138987931437825 -0.1772089728905129
1100000000.0 0.18965185319333733 0.16483745856815266
1120000000.0 0.13685935519964793 -0.24025985328348617
1140000000.0 0.25048060268470507 -0.1489566154838758
1160000000.0 0.06901320260841592 -0.2966873655962943
1180000000.0 0.273861460086994 0.15971084372753128
1200000000.0 0.3202586868858629 -0.04216533764756391
1220000000.0 0.28385965547239306 0.2046823303851377
1240000000.0 0.3579009732463102 0.1333719379156291
1260000000.0 -0.07532247158145489 -0.40495613070609016
1280000000.0 -0.2998365531773351 0.3057962846246327
1300000000.0 0.25579368316736545 0.35759832048343954
1320000000.0 0.4171131763418929 -0.16313724789969722
1340000000.0 -0.2250841367441901 -0.3911711524106668
1360000000.0 -0.34314271866771556 0.27737636828471224
1380000000.0 0.10722639560589042 0.40545728339090287
1400000000.0 0.027306901653940924 0.39683731461448873
1420000000.0 0.13396548451433055 0.3564824456099996
1440000000.0 0.3591005858020641 -0.005089887213589409
1460000000.0 0.19743704217420194 -0.2679927122093094
1480000000.0 -0.20193371750213543 -0.22989477607940786
1500000000.0 -0.13425706523506928 0.24378441665872638
1520000000.0 0.11651737124184809 0.21913338923564393
1540000000.0 -0.08530096407481984 -0.19833300866663464
1560000000.0 0.1114651255913685 0.14089945980791027
1580000000.0 0.09726466094780196 0.1021959616033993
1600000000.0 -0.0359619512399055 -0.10655325725822573
1620000000.0 -0.02130583309120997 0.08958908549177606
1640000000.0 -0.0686375115179777 0.019740675441227026
1660000000.0 -0.033631811930208484 0.05390840001148579
1680000000.0 0.06725517022334258 -0.029082575692546478
1700000000.0 0.023291485560726667 -0.08735549147235505
1720000000.0 0.10380216872297053 0.02091856597581695
1740000000.0 0.062488952498123335 0.1087486291666365
1760000000.0 -0.08869481933473121 0.12028685445892535
1780000000.0 -0.12264072946167742 0.14038386582837314
1800000000.0 0.00848773131020741 0.23382932005849638
1820000000.0 -0.057326427342769104 -0.2772845759195782
1840000000.0 0.1405429367862829 0.29572825387031
1860000000.0 -0.24966673389919752 -0.28122727906048434
1880000000.0 0.42548887769816546 -0.0067337525432574485
1900000000.0 -0.06086105436032753 0.460993387074332
1920000000.0 -0.2512526664927849 -0.42718888705491886
1940000000.0 0.36267243167489766 0.3721693407181214
1960000000.0 -0.305475605134498 -0.44313517519600787
1980000000.0 -0.021419264777750538 0.5530360084532037
2000000000.0 0.4573614635239722 -0.33620962318245745
2020000000.0 -0.5686084236333893 0.11966043012570543
2040000000.0 0.5304319271431136 -0.2597713199153965
2060000000.0 -0.11257537080559009 0.5842088976823828
2080000000.0 -0.5706538432255733 -0.16215185329735507
2100000000.0 0.5774442410413042 0.09145283341419637
2120000000.0 0.39700360722523154 0.41019586663332847
2140000000.0 0.3448551519443682 0.4318914693684155
2160000000.0 0.35468980428169944 0.39526334505209626
2180000000.0 0.4698852929593159 0.20125296168930162
2200000000.0 0.48775461063189385 0.06897016264680443
2220000000.0 0.44824964974643444 0.15998703974413803
2240000000.0 0.047036710044404816 0.4601611196989111
2260000000.0 -0.43870491958069074 -0.11255831043019501
2280000000.0 0.4383825462489715 -0.09388181183891259
2300000000.0 -0.4454545820957945 0.07416240340919793
2320000000.0 0.4455702547613385 0.09303887360448938
2340000000.0 -0.2426272312207032 -0.39013702571002346
2360000000.0 -0.294244169139414 0.35366966176510256
2380000000.0 0.26188644907475467 0.37863776713832564
2400000000.0 0.4230175674718058 -0.16811572340285566
2420000000.0 0.18617626825309697 -0.40426186879823683
2440000000.0 0.10006162884716484 -0.41732258235026953
2460000000.0 0.3201565697725018 -0.26091045091480775
2480000000.0 0.3947413234788439 0.011234663687291658
2500000000.0 0.23372805709287067 0.2881610627607921
2520000000.0 -0.16099058970123625 0.305082885127952
2540000000.0 -0.294144228050653 -0.11426547345538908
2560000000.0 0.1358984194203906 0.2512166030296761
2580000000.0 -0.13108703354940995 -0.2161288660034739
2600000000.0 -0.04072957558845781 0.22069702649919612
2620000000.0 0.1850283050506978 -0.0795300107537745
2640000000.0 -0.1742246926327616 -0.03834126045917208
2660000000.0 -0.11413152336295614 0.10932917921639342
2680000000.0 -0.10203958003755541 0.10329215846820727
2700000000.0 0.09509900720985431 0.10659456516564686
2720000000.0 0.04173020540487777 0.1383936523338166
2740000000.0 -0.050039575356086184 -0.13781606565022003
2760000000.0 0.08139712492838813 -0.12135227023497581
2780000000.0 0.05336369854884433 -0.13862008639882392
2800000000.0 -0.08098803337019497 -0.12863992256087345
2820000000.0 -0.15010838142726235 -0.04920544887159781
2840000000.0 -0.04019906586052467 -0.1576131037573712
2860000000.0 -0.011500998196788513 0.1684205785774295
2880000000.0 0.006308719177121731 0.17726877719305026
2900000000.0 -0.1746584547667976 0.08220703132393627
2920000000.0 -0.1385957355361719 0.16207804951889504
2940000000.0 -2.3997355228730973e-05 0.22902132665309793
2960000000.0 0.01848819914392156 0.23756697389629072
2980000000.0 -0.15725939675230957 0.18881603413122078
3000000000.0 -0.23339044363584607 0.09272796329531037
3020000000.0 -0.1526125531852725 -0.19432537598209182
3040000000.0 0.18519178633199296 0.1484408247366385
3060000000.0 0.09484392980416298 -0.2025906804332542
3080000000.0 0.20129820806392865 -0.07234045193830739
3100000000.0 0.2067707887878976 0.0356139016615398
3120000000.0 0.20926585058865246 -0.017941832485439676
3140000000.0 -0.1600952403421548 -0.13150290866487463
3160000000.0 0.19603974609036162 0.04012890546617325
3180000000.0 -0.14043271149478292 0.11791873877995579
3200000000.0 -0.1429560346766273 0.04327963796567401
3220000000.0 -0.05183610846408393 0.0902468189110799
3240000000.0 0.060237389370406 0.03430946124964927
3260000000.0 -0.06777620048751341 0.010574742157461289
3280000000.0 -0.06036904381208688 -0.058420484712186346
3300000000.0 -0.02668374771908197 -0.09341486629768116
3320000000.0 -0.0737148427075013 -0.05910261447713743
3340000000.0 0.07878212759888795 -0.02980743250916284
3360000000.0 -0.010014742639145416 0.07299768115104523
3380000000.0 0.022314503619294986 0.06696107748847474
3400000000.0 -0.07499482207954496 -0.0194301186831122
3420000000.0 0.038440722094758906 -0.07565399573090728
3440000000.0 -0.03149742592110504 0.07942738905950625
3460000000.0 0.07357556164176897 0.007242929814102944
3480000000.0 -0.025740290964973555 -0.044496786676860973
3500000000.0 -0.021207296683241554 -0.009053654488273775
3520000000.0 -0.007073163175582572 0.009459529376656506
3540000000.0 -0.03005572833535463 -0.01996838675790271
3560000000.0 0.04638510720340605 0.017906590528804486
3580000000.0 0.03241464541385642 0.03780737906348313
3600000000.0 -0.03841528945519784 0.011668977747032919
3620000000.0 -0.029910697120556634 -0.01388606288721648
3640000000.0 -0.01297533726284604 -0.038801302214736544
3660000000.0 -0.016162345102580657 0.05664351594940594
3680000000.0 0.06705398405205432 -0.035512717542446115
3700000000.0 0.06717283287377292 -0.05688106462418987
3720000000.0 -0.04039765387612842 -0.08526584433846278
3740000000.0 0.045088852512451295 0.07590234768218253
3760000000.0 -0.05049196537257027 -0.07403271495869278
3780000000.0 0.07503088323018484 0.08202888425446776
3800000000.0 0.14174329677632422 -0.006080302117698594
3820000000.0 0.15704635951191134 0.07000353489528258
3840000000.0 0.17134174902837612 -0.0878907148418011
3860000000.0 -0.1594074587071897 -0.1323372497620598
3880000000.0 -0.044398105032214676 0.2107014195395332
3900000000.0 0.20288288601607163 0.0679416423750575
3920000000.0 0.17365180857187829 0.10984469832052679
3940000000.0 -0.20085899283599573 0.010413721710083106
3960000000.0 0.20050348605559776 -0.021603656710346007
3980000000.0 0.06912199940375864 0.188046897223292
4000000000.0 0.031843482179479174 0.1904353888820242
