!Created with skrf (http://scikit-rf.org).
# Hz S RI R 50.0 
!freq ReS11 ImS11
400000000.0 0.6267756264900349 -0.5641199893695625
420000000.0 -0.544690518497293 -0.6296282194829105
440000000.0 -0.7627049834711289 -0.16191788624912146
460000000.0 -0.638026744758446 -0.33513865817873645
480000000.0 0.07620024902653075 -0.6478814907550511
500000000.0 0.5757559048831856 -0.201200189440888
520000000.0 0.11443880751715237 0.538700375528601
540000000.0 -0.0052742367234200095 -0.48548229440676366
560000000.0 0.46339401967779215 -0.06895357637834494
580000000.0 -0.12162222729189472 -0.4081608530082311
600000000.0 0.3787861467725124 0.07800784929362749
620000000.0 0.37847150617641234 -0.022358210922767262
640000000.0 -0.4023197879928493 -0.08852037692927119
660000000.0 0.24343369669737108 -0.3791945759726227
680000000.0 -0.4489750790998995 0.020364059303141783
700000000.0 0.4424299871100868 -0.01941778619715944
720000000.0 -0.36617149464097726 0.21981468389728953
740000000.0 -0.378389509530471 0.004971687327315677
760000000.0 0.192943759174876 0.2849085650275053
780000000.0 0.2626375663073293 -0.1875303009140278
800000000.0 -0.12929762324877803 -0.2779887334001037
820000000.0 -0.1918386327895782 -0.16713333034824088
840000000.0 0.05561468155929873 0.2073352202463522
860000000.0 -0.06399088198629366 0.1700127785929964
880000000.0 0.0996829246844939 -0.11240664740948178
900000000.0 -0.008601192510877055 -0.1276030885365199
920000000.0 0.03431828023135625 -0.08286457617209382
940000000.0 -0.06472464133037868 -0.0018728006966159806
960000000.0 0.04747941661209671 -0.04983163471507017
980000000.0 -0.0665104176131371 0.03197630684560403
1000000000.0 0.0839928595012326 -0.005547237220671722
1020000000.0 0.01224688627474804 0.097267174589527
1040000000.0 -0.08805335621913463 0.07545385566718164
1060000000.0 -0.01730916342488388 0.14540783577928246
1080000000.0 -0.10865772300010677 -0.1401232902337637
1100000000.0 -0.17681509685983468 -0.1280303551656334
1120000000.0 -0.0020445068973528337 0.25789509897206353
1140000000.0 -0.03643814299261345 0.27562670203376577
1160000000.0 0.10813688166088632 0.2769162876693313
1180000000.0 -0.14044430106645464 0.2870833171556583
1200000000.0 0.32916730293471963 -0.06717677017086572
1220000000.0 0.1013298173205793 -0.3510944166183132
1240000000.0 -0.3790390329587335 0.096496067709798
1260000000.0 0.30302930654575194 0.28986032189351285
1280000000.0 -0.3409408550746956 -0.2639165276611217
1300000000.0 -0.33319031477383615 0.2743382024370609
1320000000.0 -0.15002561692772404 0.3991589529393315
1340000000.0 -0.39132002594935406 0.17409892419898876
1360000000.0 -0.35624550605057553 0.23780742724121326
1380000000.0 -0.3487872530683377 0.24676737524097536
1400000000.0 0.42180787432124717 0.03618703795558254
1420000000.0 -0.35983422405564885 -0.16660309365442436
1440000000.0 -0.1430403252582807 0.33258723371596044
1460000000.0 -0.3121334648017272 0.09999449333016822
1480000000.0 -0.17735299835019458 0.2525725032269763
1500000000.0 0.22547490033293624 -0.17173563902112074
1520000000.0 -0.25235350871380585 -0.02828444055664449
1540000000.0 -0.0024641206709510154 -0.2107016311131544
1560000000.0 -0.15472601312608297 -0.06310869297900909
1580000000.0 0.037622107802704634 -0.13114285129038605
1600000000.0 0.1133658960871716 0.024317965916387536
1620000000.0 0.06253182562909256 0.07957251276775783
1640000000.0 7.298664278704762e-05 -0.0762307009394656
1660000000.0 0.010014159842379765 -0.04769517868588357
1680000000.0 -0.010083544549689696 -0.007193576474103055
1700000000.0 -0.021867643944808675 0.004302074280427331
1720000000.0 0.03846737343887642 0.01989574052464289
1740000000.0 0.046460055510056095 -0.04286417190554484
1760000000.0 0.00020854245586010898 0.0809746578981605
1780000000.0 -0.10249152302634248 -0.017310244068434386
1800000000.0 -0.0916841646358582 0.0974710865750449
1820000000.0 0.13726589209022247 0.09621505367133056
1840000000.0 -0.014410979964405124 -0.20867788065395038
1860000000.0 0.1195470110033587 -0.22346357037268508
1880000000.0 0.24767266995261278 -0.14206890408711123
1900000000.0 -0.27789568642903745 0.1280188739252582
1920000000.0 -0.09776540393369162 0.3199460505633587
1940000000.0 0.3513067698046719 -0.11763930915634642
1960000000.0 -0.350708199544734 0.1769721328452019
1980000000.0 0.24614841493891546 0.3243007351031698
2000000000.0 0.33863633631695966 -0.24969806606185357
2020000000.0 -0.1347119082474615 -0.4081917693422255
2040000000.0 -0.394004010758489 0.1815036993532024
2060000000.0 0.0008335923435681009 0.42883926054740024
2080000000.0 0.36717055787026287 0.2126815097666451
2100000000.0 0.2778921212402869 -0.30776586833202957
2120000000.0 -0.34606409596692495 -0.19155083709142856
2140000000.0 -0.3238246306505301 -0.1829458798162739
2160000000.0 0.3396309674937558 -0.10201778993073589
2180000000.0 0.29112227218181075 -0.17743692146616746
2200000000.0 0.05758074336880848 -0.3201234963829883
2220000000.0 -0.0007477949793440265 -0.3117198559446165
2240000000.0 -0.13290076019545685 -0.2774653699104913
2260000000.0 -0.30085765088338573 -0.049476947443689835
2280000000.0 -0.2597166706523133 0.1601873095724294
2300000000.0 -0.12777638235049196 0.2925168750387072
2320000000.0 0.3239887660968117 0.10069868383531173
2340000000.0 -0.09109699299401006 -0.357675976962613
2360000000.0 -0.244433728823694 0.3228199847717122
2380000000.0 0.39152777656116616 -0.2288937755746402
2400000000.0 -0.36581551374346183 0.34929682976387155
2420000000.0 0.03016535617928655 -0.5596848960728458
2440000000.0 0.48140370013445977 0.3761486530932657
2460000000.0 -0.6321320199363657 0.1727849106101446
2480000000.0 0.4010781945787241 -0.5661969768596665
2500000000.0 -0.3619751003424408 0.625418037353874
2520000000.0 0.4780613255763081 -0.5687885911961137
2540000000.0 -0.6438394101028612 0.39459417898537613
2560000000.0 0.751429836024375 -0.11757850807897138
2580000000.0 -0.6490721013325987 -0.3905342098233882
2600000000.0 0.4383472713377914 0.6029965258540759
2620000000.0 -0.1764903020980348 -0.705586983357738
2640000000.0 -0.6972329886852465 -0.07773927128951813
2660000000.0 0.646763658921803 0.17755055899883324
2680000000.0 -0.5950740305865151 -0.2221711788461556
2700000000.0 0.5528553521929567 0.22780017310377254
2720000000.0 -0.5556484221618033 0.022897170078453398
2740000000.0 0.5071564524802675 -0.08794139239032776
2760000000.0 -0.4340063246853481 0.19980333655464338
2780000000.0 0.4012629042559565 -0.19832584259997346
2800000000.0 -0.3086551242028468 0.293651357160889
2820000000.0 0.23715637134973513 -0.3312340303031423
2840000000.0 -0.30631598843094554 0.2514402447747768
2860000000.0 0.3903458456649822 -0.002878315923012616
2880000000.0 -0.29853878140237644 -0.24775273165324935
2900000000.0 -0.006686627093190123 0.38582901262490155
2920000000.0 0.38145682813936993 -0.06097531045786084
2940000000.0 -0.05593771928364164 -0.378740970114127
2960000000.0 -0.07568346313120998 -0.3696424691946768
2980000000.0 0.33303017303081395 -0.1708702181250756
3000000000.0 0.19167574721817993 0.3259184903086688
3020000000.0 -0.2842672132102398 0.2472433465721455
3040000000.0 -0.22367399615620373 -0.29682655025549526
3060000000.0 0.351055812983013 -0.09686876885424858
3080000000.0 -0.33439520660324373 0.12378093686021033
3100000000.0 0.23431377082253593 -0.256725001728782
3120000000.0 0.09201525267667662 0.3220472021758688
3140000000.0 -0.319046130543461 -0.013984254439719322
3160000000.0 0.13388584224029787 -0.26180463414277183
3180000000.0 -0.23965608084611323 -0.115554196008872
3200000000.0 0.1318155706132254 0.19810220615230084
3220000000.0 -0.16939843039714828 -0.11919030700820037
3240000000.0 -0.061782814762312926 0.162928039171221
3260000000.0 0.01127121570260704 0.14176569829050129
3280000000.0 -0.05768327812996042 0.09483278297514264
3300000000.0 0.08340691142163613 0.010023197754003229
3320000000.0 -0.019027213338380096 -0.05814841368331786
3340000000.0 0.03231935270146886 -0.0357733219425935
3360000000.0 -0.03253307493488568 0.02091960859507398
3380000000.0 0.00520854432744099 0.04132964513066131
3400000000.0 0.027321111149194215 0.03311578089610119
3420000000.0 -0.03618577378061553 0.00850338298910302
3440000000.0 0.01755502035947822 0.01445278399521281
3460000000.0 0.0001998587803788383 0.016740737272858255
3480000000.0 -0.018384055439049383 -0.013024892714382771
3500000000.0 0.0020991747931655854 -0.02831615672402366
3520000000.0 0.027191510653336283 -0.02031874372614134
3540000000.0 0.013174338377512427 0.04323860237590007
3560000000.0 -0.05357768755384823 0.013883371017989527
3580000000.0 -0.04417345986841787 -0.048329261534478155
3600000000.0 0.005080534347146475 0.07277625208632853
3620000000.0 0.05971076542487507 -0.05335675005573815
3640000000.0 -0.04343042042192787 -0.07502760710320343
3660000000.0 0.026391045523447915 0.09072599616549058
3680000000.0 0.09371200004139082 0.025650961151991468
3700000000.0 -0.07810653632005812 0.0578691660356629
3720000000.0 0.0829711479840706 0.04073147954601581
3740000000.0 0.0780805155236248 0.03897062580296529
3760000000.0 -0.07612777892991204 0.05074609397400424
3780000000.0 0.048599355122031486 0.09210652744246092
3800000000.0 -0.012133887417723475 0.11603442331907712
3820000000.0 -0.03288678088202748 0.12727598272771914
3840000000.0 -0.03172537231482249 0.14515799171107294
3860000000.0 0.1119374007188345 -0.12806355865774996
3880000000.0 0.1647857993281686 0.09600489822001364
3900000000.0 0.18714093212258298 0.0808542261153842
3920000000.0 0.1877124560747177 -0.07901252677991157
3940000000.0 0.19092432484756097 0.0698797651464728
3960000000.0 0.14944327652672915 0.1398345870619965
3980000000.0 0.10373629460407624 0.17550941064507716
4000000000.0 0.09686734855061527 0.17588678530455928
