!Created with skrf (http://scikit-rf.org).
# Hz S RI R 50.0 
!freq ReS11 ImS11
400000000.0 0.7222250731768208 -0.3707128141778699
420000000.0 0.7871579699915872 -0.26237304198330336
440000000.0 -0.18770092093873636 -0.7559823666223224
460000000.0 -0.1547641240788209 -0.7091762793737963
480000000.0 0.3946213947473014 0.5281151424358174
500000000.0 0.5516333727167302 0.32561994429856844
520000000.0 -0.21515390197258336 0.5242598180911453
540000000.0 -0.4670393276629618 -0.21096881541581375
560000000.0 -0.4324090360613342 -0.20473872486184058
580000000.0 -0.1307099982190371 0.40255588023099337
600000000.0 0.37998844472298116 0.011538843978497358
620000000.0 0.21850444332768704 -0.308502272726326
640000000.0 -0.4110579968684432 0.006681209788665972
660000000.0 0.19997642452025038 -0.3944605384098249
680000000.0 -0.1994459846259487 -0.4002821053472191
700000000.0 0.4239218357310616 0.12840082421977067
720000000.0 -0.08947713562580463 -0.4206620316243173
740000000.0 -0.10864386567918868 -0.38114604788579576
760000000.0 0.3298643718135775 -0.1597646674517363
780000000.0 0.3051265685577987 0.12643308741200004
800000000.0 0.14712548617224233 0.24417816121030322
820000000.0 0.07678454733950713 -0.22684859937441967
840000000.0 -0.19776534475736982 0.05755128664789057
860000000.0 -0.16170632659539852 0.07869988403900008
880000000.0 -0.13983172674125177 -0.025251075320231985
900000000.0 0.0726567092097044 0.08209045671209113
920000000.0 -0.06898360587056876 0.03062820083764716
940000000.0 0.04585477031970561 0.028774037075454312
960000000.0 0.0236442473258592 0.05328577026451774
980000000.0 0.02527029074115927 0.07600250691098027
1000000000.0 0.08090919885345851 -0.03136937985818519
1020000000.0 0.00878642394640321 -0.10589463981722574
1040000000.0 -0.12949928642839836 0.014149777498361145
1060000000.0 -0.05672258815743292 0.14395998544899438
1080000000.0 -0.17416497185254404 0.07183509064825624
1100000000.0 -0.061392257688827626 0.2113778795140892
1120000000.0 -0.24270263834182443 0.07517301909788493
1140000000.0 -0.2850180667296176 -0.034410172798660425
1160000000.0 0.10453090587418083 0.2882289754609486
1180000000.0 -0.09514299411806211 0.32119727054822766
1200000000.0 -0.3424515361482012 -0.009442866609335096
1220000000.0 -0.3008508011776149 -0.19188722600083827
1240000000.0 -0.19688165033368948 0.3363653441922919
1260000000.0 0.3699398273285839 -0.17236321594906345
1280000000.0 -0.3487277248735146 -0.22786500784070776
1300000000.0 -0.17878603570564738 -0.3720360847199407
1320000000.0 0.0016388128000796771 -0.4256401240835947
1340000000.0 0.02193041535430107 -0.4389554288125082
1360000000.0 -0.4438703151560704 -0.062091127638682075
1380000000.0 0.22912943237995548 0.3787740542758097
1400000000.0 -0.1868397089557176 -0.38098397727265154
1420000000.0 -0.26669949597133646 0.28097859083725824
1440000000.0 -0.35090606696278054 0.03764455258470557
1460000000.0 -0.21606304501144294 -0.25238324817955876
1480000000.0 -0.22887073772553024 0.21860888444023804
1500000000.0 -0.10092405206105444 -0.2700411274694754
1520000000.0 -0.16402498225990927 0.19049080580210936
1540000000.0 -0.20075458885906397 0.06925440998378792
1560000000.0 0.021678974568586796 0.15636894541137014
1580000000.0 0.04452083821634566 0.12083618195280567
1600000000.0 -0.032409699159184104 0.10901519828090522
1620000000.0 0.02170099180527098 -0.09520962046368252
1640000000.0 -0.05984132556950213 0.04955118590307325
1660000000.0 0.042301601762881835 0.02980139142669287
1680000000.0 -0.01266335599971101 -0.015185635224482085
1700000000.0 0.009977979199833514 -0.015594773647788612
1720000000.0 -0.01797709574285117 -0.035104371304108255
1740000000.0 0.02925505330326459 -0.04725573322397084
1760000000.0 0.07907354588181903 0.022463909454825084
1780000000.0 0.0637107733938659 -0.0858142516360055
1800000000.0 -0.028718778696877684 0.1349588927790328
1820000000.0 0.13595084597144533 -0.09506810247945782
1840000000.0 -0.13406308577169157 -0.15033438321603634
1860000000.0 0.24112204094547 0.03713477860341849
1880000000.0 -0.1478997672770763 0.23823052370610856
1900000000.0 0.0974501260913106 -0.2984055323749463
1920000000.0 -0.04180868869814905 0.3431174412745411
1940000000.0 0.3472438873630867 -0.1386311455500552
1960000000.0 -0.28301529825332494 0.2908531839105144
1980000000.0 -0.10386326008715263 -0.40165659326321623
2000000000.0 -0.3876246153975955 0.12458824612150195
2020000000.0 -0.21858342236300027 -0.33791181072961307
2040000000.0 0.3046015744127257 -0.2823803440313598
2060000000.0 -0.11192052209467404 -0.417780843464366
2080000000.0 0.0016044497775017487 0.43488864600334504
2100000000.0 0.20703832449438705 -0.36813379259201423
2120000000.0 -0.3957272029266448 -0.020656253308815792
2140000000.0 -0.3550413790983669 -0.10606248509975781
2160000000.0 0.19671142256643606 -0.2911681610033022
2180000000.0 0.24927422426962026 -0.22608522777604456
2200000000.0 -0.031356968754129834 -0.3224264084440746
2220000000.0 -0.24019648250763592 -0.19273749782576569
2240000000.0 -0.26556225305666736 -0.13935686961593088
2260000000.0 -0.2730813835719478 -0.10688364464993025
2280000000.0 -0.1898341329661395 -0.2285896480398026
2300000000.0 -0.3133508628518151 0.004277046776703791
2320000000.0 0.004011062171454113 0.33625097632468737
2340000000.0 0.18745964718651212 -0.3177814385880743
2360000000.0 -0.1799716579084286 0.3597044705825037
2380000000.0 0.39846059829147457 -0.19093531562330318
2400000000.0 -0.49128011216893236 -0.029067819393587862
2420000000.0 0.5492859788389904 -0.01898683771182796
2440000000.0 -0.240861871752131 0.5544327742497518
2460000000.0 -0.2747025759335589 -0.5876842163887452
2480000000.0 0.5263829032457336 0.44292938912014923
2500000000.0 -0.6136498988765439 -0.37483417176976935
2520000000.0 0.6324534970558249 0.3889882974269947
2540000000.0 -0.5458615963554696 -0.5244377950832351
2560000000.0 0.2739376231227952 0.7132583886143721
2580000000.0 0.2696919914980625 -0.7142634446052648
2600000000.0 -0.5968512593843948 0.4599786690929887
2620000000.0 0.7301528526132882 -0.10649955936729731
2640000000.0 0.1618254155421061 -0.6963146275896396
2660000000.0 -0.1719467101396667 0.6629480857681092
2680000000.0 0.07716271208526101 -0.6440532229507994
2700000000.0 0.0490962120981758 0.6075249403344244
2720000000.0 -0.20016178543937457 -0.5306839253283424
2740000000.0 0.31764609058850723 0.42172416119125167
2760000000.0 -0.40673065763001126 -0.2760489948891088
2780000000.0 0.4479519928306763 0.1115776032205703
2800000000.0 -0.4301954821327845 0.073784762928428
2820000000.0 0.3748284951405848 -0.18298563941916407
2840000000.0 -0.3664235436210486 0.16193203396621375
2860000000.0 0.3131916364720845 0.23789182430963104
2880000000.0 -0.035542355977751544 -0.38860955636249794
2900000000.0 -0.3531674312162836 0.16426303010366805
2920000000.0 0.04271244005941339 0.3894507983015356
2940000000.0 0.3942306026870635 -0.03596983269406292
2960000000.0 0.16185718071952512 -0.3563504727151569
2980000000.0 0.27600881454682863 -0.2715303634172852
3000000000.0 0.38007701257793286 0.05872121734768161
3020000000.0 0.025264216634857315 0.3772147528820377
3040000000.0 -0.19653097439598713 -0.3120212964520391
3060000000.0 0.3282857445047304 0.1528094630823531
3080000000.0 -0.32824130034397814 -0.12828781776745887
3100000000.0 0.29147910304891667 0.18352341443569556
3120000000.0 -0.33609425277117916 0.017307681079200783
3140000000.0 -0.07273226049918106 -0.31287652290904755
3160000000.0 0.24238437790593959 0.1756787292763696
3180000000.0 0.021705642199836568 -0.2745908396117689
3200000000.0 0.24795270933670188 0.010665597723427551
3220000000.0 -0.0495474857804893 0.20564839591120787
3240000000.0 0.12055333283672928 -0.122245800305408
3260000000.0 0.12544024854789823 0.05736702294183707
3280000000.0 -0.08197412267291695 0.07116769635708682
3300000000.0 0.03480873403532077 0.07712673237896203
3320000000.0 -0.05926023479327967 0.023806932895698955
3340000000.0 -0.040176267996162994 0.02217950956382202
3360000000.0 0.030650201136378556 -0.02325102388325025
3380000000.0 0.029740110115784455 -0.022101404427466873
3400000000.0 -0.005076264289738953 -0.03327683547535142
3420000000.0 0.006654868677435667 -0.03145424066804281
3440000000.0 0.004128532560265515 -0.02498496191003512
3460000000.0 -0.008689916577981476 0.012415252824121996
3480000000.0 -0.012287189024177098 0.011240571865855255
3500000000.0 -0.02750475751517067 0.004232582942679552
3520000000.0 0.030365683878765835 0.025474727166856698
3540000000.0 0.041506998081632704 -0.030674740317018268
3560000000.0 -0.0425150459923798 0.044651937381408394
3580000000.0 -0.038670593799688444 -0.05943842170709716
3600000000.0 0.0729981117283989 -0.022393217984883237
3620000000.0 -0.00782037133604141 -0.08105386055247676
3640000000.0 -0.06902597651802446 -0.05471132368715717
3660000000.0 0.09355546133655736 0.004435488376546532
3680000000.0 0.05662341560912608 -0.07578714860056877
3700000000.0 -0.005032320872873936 -0.09619166412714794
3720000000.0 -0.033104107848277664 0.09370654980147705
3740000000.0 0.0842061615610734 0.0406664845921721
3760000000.0 -0.04797689107219934 0.07989200372703266
3780000000.0 -0.09324167084201779 0.04408998057055356
3800000000.0 0.08388167178008345 -0.0838222038478621
3820000000.0 0.13454350983770655 -0.023324515630455983
3840000000.0 -0.15507896186571973 -0.00048586646894247643
3860000000.0 0.035216716996722165 -0.16599693425051928
3880000000.0 0.14643995546464597 0.10616335742426021
3900000000.0 -0.1421008794852488 0.1291030573678928
3920000000.0 -0.19657993189730175 -0.04153866641647919
3940000000.0 -0.1933598824875688 -0.07644723568560736
3960000000.0 -0.19348544789798983 0.07432082998072453
3980000000.0 -0.19781402572904075 -0.03662140497689491
4000000000.0 0.01980215779991638 -0.19095836520778003
