!Created with skrf (http://scikit-rf.org).
# Hz S RI R 50.0 
!freq ReS11 ImS11
400000000.0 0.717937953097973 -0.4053798202998167
420000000.0 0.1901300800848297 -0.8076436859344182
440000000.0 -0.5848567113224185 -0.5084980889651839
460000000.0 -0.18599831025347885 -0.6916123509894126
480000000.0 0.5413854572116581 0.36500502609793967
500000000.0 0.0830826060971962 0.623667874369999
520000000.0 -0.13076646942804174 0.5675828842641771
540000000.0 -0.16007930821070587 0.4792976401905402
560000000.0 0.03827912439172784 -0.47498342557535045
580000000.0 -0.028111418824856862 0.43132960957374117
600000000.0 0.053746201406562645 -0.3742514307079626
620000000.0 0.32174236347653457 -0.18912479378074004
640000000.0 -0.3962755412197898 0.07746738303240334
660000000.0 0.40703120516666547 -0.17507600814042368
680000000.0 -0.4262405269705256 -0.15468235020818066
700000000.0 0.13813089880272028 -0.41483406880500323
720000000.0 -0.3694196937087676 -0.21080683909688472
740000000.0 -0.3805249321838702 -0.014650708227840124
760000000.0 0.18226727129730202 0.2917621935495736
780000000.0 -0.00032649098205366866 -0.32268637643469933
800000000.0 0.2961089954559192 0.05592505329706895
820000000.0 0.07097702909570862 -0.2575307071253018
840000000.0 0.21941306412718858 0.0018305891236119944
860000000.0 0.05233662867913523 -0.18001643530627054
880000000.0 0.13725850631447195 0.028830300738239212
900000000.0 0.012542727964984903 -0.11226514340380386
920000000.0 -0.07779957559719733 -0.0194955568718528
940000000.0 0.05534587371427385 0.005920578365686695
960000000.0 -0.0631096085027803 -0.005095155798133322
980000000.0 -0.05726465182190358 -0.05444830145408902
1000000000.0 0.049929913645737976 -0.07373375771063233
1020000000.0 -0.09960335652502382 -0.0015546584410238366
1040000000.0 -0.09575197402479738 0.06282720487049381
1060000000.0 -0.03183159302022693 -0.14886028069441296
1080000000.0 -0.12564053588260404 0.13575532499697698
1100000000.0 0.011536289712949822 0.21328621050294108
1120000000.0 -0.24215238228561256 -0.04081691885208124
1140000000.0 0.04943153190302364 -0.2779026297813757
1160000000.0 0.2171072151096123 0.22216900752207777
1180000000.0 0.19891141798838524 0.25601340763439556
1200000000.0 -0.150653005776816 -0.29789579678458156
1220000000.0 -0.16603589972261315 -0.3175427882451403
1240000000.0 -0.3776794920689281 0.08464133920387962
1260000000.0 0.40894415181041066 0.04434734258186381
1280000000.0 0.08770305023621502 -0.41254650050083624
1300000000.0 -0.356342372087176 -0.2386083171674644
1320000000.0 -0.4335512220290457 -0.023225861113044328
1340000000.0 -0.24708259215838818 0.35959167577438156
1360000000.0 -0.22916205501872752 0.3686702768117975
1380000000.0 0.2368634700951263 0.3570174950636544
1400000000.0 0.30206596101067995 -0.28138272184724045
1420000000.0 -0.15400732334486594 -0.35724848691758265
1440000000.0 -0.3358529351292661 -0.1419664718326423
1460000000.0 -0.2818892598091326 0.1791936779456199
1480000000.0 -0.06953948531804859 0.30503677648807487
1500000000.0 -0.05937788257989373 -0.27614600873599565
1520000000.0 -0.25015978228939906 -0.030780423458921707
1540000000.0 0.04657098995612379 -0.20042688807484954
1560000000.0 0.16055936531407894 -0.05156044832025571
1580000000.0 0.051988794716691655 -0.13517958048181195
1600000000.0 -0.11493587907469681 0.03675478012837042
1620000000.0 -0.08148133097014322 0.051759086768333865
1640000000.0 0.026564515815676152 0.0629598310734034
1660000000.0 0.03906941789667621 -0.005247276857172093
1680000000.0 -0.009887459772184224 0.011225731273981287
1700000000.0 -0.01882918239934434 0.01418762570252003
1720000000.0 0.04004812865543879 0.0006956617122404538
1740000000.0 -0.054811401084947434 -0.014687647757258162
1760000000.0 -0.0738422093472506 -0.0040220098849716125
1780000000.0 0.08789906570851176 0.04763662123756307
1800000000.0 0.05768772512235378 -0.12531162205929897
1820000000.0 0.1692226856476345 -0.04872880577246908
1840000000.0 -0.11401210237113611 0.17381703110211505
1860000000.0 -0.01453837528693308 -0.2433935464885231
1880000000.0 0.11788054537635925 0.2529695875589398
1900000000.0 -0.198500705804653 -0.23987206532180322
1920000000.0 0.0036522317861921666 0.34116783984770205
1940000000.0 0.11978732937295905 -0.35172535794038795
1960000000.0 -0.19164522325818376 0.3396305258639828
1980000000.0 0.3556972500199042 0.18777521153435792
2000000000.0 0.40042795526699393 -0.10714668583118798
2020000000.0 0.15649607913048177 -0.39700853379562323
2040000000.0 -0.3542775349174941 -0.2542758709175654
2060000000.0 -0.0029657119855517676 0.4358128049276144
2080000000.0 0.4221959451231153 0.05654750907928191
2100000000.0 0.12465172699111131 -0.3934657410628103
2120000000.0 -0.19194233736011648 -0.34222798813313077
2140000000.0 -0.26289355902485867 -0.2654548420214354
2160000000.0 0.24204149151882615 -0.26256471114263447
2180000000.0 0.07800657783379851 -0.3281523837799061
2200000000.0 -0.00795676700852746 -0.3200610991130082
2220000000.0 0.15626473399176188 -0.2628305949560077
2240000000.0 0.21978922727058506 -0.21136224661985403
2260000000.0 -0.1692489451401352 -0.2543722863723339
2280000000.0 -0.2858924069407006 0.11346040038187015
2300000000.0 0.08069209966369115 0.30581381450300266
2320000000.0 0.3237035614349914 0.0807143217288896
2340000000.0 0.0043502739899018185 -0.36286171150691815
2360000000.0 -0.3619351248531738 0.1716868683955922
2380000000.0 0.44569163330070805 -0.030249002709534997
2400000000.0 -0.48499301970505265 0.11001151669730459
2420000000.0 0.43584314325057 -0.3359507806261567
2440000000.0 -0.10135771629762684 0.5938321453904296
2460000000.0 -0.34321795280021966 -0.5502004828717874
2480000000.0 0.5832683433887405 0.36826489240880117
2500000000.0 -0.7106757716077332 -0.11706223441844502
2520000000.0 0.7379651706738078 -0.07548202203656014
2540000000.0 -0.7536355859924186 -0.03742050322050587
2560000000.0 0.5906815475539731 0.4784853642920948
2580000000.0 -0.09625303335337292 -0.7526949992366899
2600000000.0 -0.26509649389252493 0.7002238060143914
2620000000.0 0.5205667654005612 -0.5141712361390338
2640000000.0 -0.2539654347829965 -0.661280664274005
2660000000.0 0.1394544365059057 0.6623979064746175
2680000000.0 -0.21439110726092286 -0.604450731198258
2700000000.0 0.39979520620695874 0.45060142976448536
2720000000.0 -0.5315261666178651 -0.17710160683203727
2740000000.0 0.517348846632143 0.04905769174793722
2760000000.0 -0.48014475595512135 -0.03594810096222914
2780000000.0 0.4463254851816005 0.06687020612650398
2800000000.0 -0.4242089722726231 -0.06737816148362889
2820000000.0 0.41028058679279417 -0.04581441808020309
2840000000.0 -0.3863112973236913 0.10877832804457227
2860000000.0 0.3793590785616144 -0.10845445849139111
2880000000.0 -0.3448826997880016 -0.1838488756437179
2900000000.0 -0.04929922246464803 0.3854453936327793
2920000000.0 0.3909786296324106 0.008424090288559668
2940000000.0 0.06133211950629505 -0.3826245866450529
2960000000.0 -0.10603509093212565 -0.3658923507056891
2980000000.0 0.19612362881362028 -0.3212631121362534
3000000000.0 0.2560194841726383 0.27571217655543667
3020000000.0 -0.21020784018108127 0.3113639222258806
3040000000.0 -0.25704753157950566 -0.2675587734548798
3060000000.0 0.31874475393895235 -0.1755804249450756
3080000000.0 -0.26507990265130416 0.23218568185409552
3100000000.0 0.2103343444957439 -0.271593816754685
3120000000.0 -0.06258282387791415 0.325055433559142
3140000000.0 -0.24970021876825677 -0.19222063975306078
3160000000.0 0.292551713434685 -0.0028082653507777817
3180000000.0 -0.1283753451585452 -0.23672174649464514
3200000000.0 0.18083857784485968 0.15818029097322253
3220000000.0 -0.18915259002389648 -0.08972596712470535
3240000000.0 0.006068189120513993 0.17600192451331712
3260000000.0 0.001190587211174612 0.1451801090872352
3280000000.0 -0.09445169896080018 0.06783330003836151
3300000000.0 -0.05532665543096863 -0.0719386490344289
3320000000.0 -0.015778453745687072 0.06299138725929541
3340000000.0 -0.04496805257545142 -0.005045393528742073
3360000000.0 0.020339935113727677 0.02965036606245904
3380000000.0 -0.014855718472936269 0.03147545457365276
3400000000.0 0.016487513995525383 -0.03292116136199342
3420000000.0 -0.004238093343468837 0.03081683492343179
3440000000.0 -0.00678300521835662 -0.023818323864249855
3460000000.0 -0.014482788372143805 0.010991526035297293
3480000000.0 0.011242922270965808 -0.015374377677928867
3500000000.0 -0.009032496399396123 -0.024200303766361283
3520000000.0 -0.03769446788941247 -0.01099445498403714
3540000000.0 0.0009821653276792229 -0.05638863945400538
3560000000.0 -0.019508875837518615 -0.06141911640244502
3580000000.0 0.02340071637731219 0.06261940460503437
3600000000.0 0.012671521418514334 0.07294971193346597
3620000000.0 0.0783158788171017 -0.029064926215963103
3640000000.0 -0.06997337139473796 0.06051098266052884
3660000000.0 -0.09325946102581571 0.031089238889836186
3680000000.0 0.08156356390042063 -0.051808638909325445
3700000000.0 0.014630920655273692 -0.09405897194877234
3720000000.0 0.04325998112360006 0.08468644023532675
3740000000.0 0.08316851383533899 0.04961639294584995
3760000000.0 0.029692924089595497 -0.09019964639081311
3780000000.0 -0.0240308081575395 -0.0986690765956849
3800000000.0 0.01753029980827404 0.10955190307215122
3820000000.0 0.04808384551767008 0.12108957807405625
3840000000.0 0.016794162016106208 -0.14446851533527302
3860000000.0 -0.06553499503305747 0.1475752752104068
3880000000.0 -0.12378209732590943 -0.129341668463194
3900000000.0 0.10704161266952494 -0.16572078055370493
3920000000.0 0.06801105444453522 -0.19451841515790336
3940000000.0 0.17574118417164664 -0.11159232311479214
3960000000.0 0.10811724507207655 -0.17297314743397282
3980000000.0 0.08629381287515932 -0.17347001004122029
4000000000.0 0.18343623696000536 0.013420550748712751
