!Created with skrf (http://scikit-rf.org).
# Hz S RI R 50.0 
!freq ReS11 ImS11
400000000.0 0.5343228264080155 -0.6574522476147346
420000000.0 -0.7098305616942441 -0.44255015752830185
440000000.0 -0.7337962127038502 0.24280353190379672
460000000.0 -0.5895799165032302 -0.40800541137470653
480000000.0 0.46157406052410765 -0.4623505427789707
500000000.0 0.47332209649195306 -0.3878248952138619
520000000.0 0.16463216399867994 0.5195839143262103
540000000.0 0.24953177099159893 -0.413015431613073
560000000.0 0.4643403170674392 -0.06124293891077537
580000000.0 0.04586990547154418 -0.425403537552562
600000000.0 0.3486140974143017 0.1703468707188417
620000000.0 0.32713235366088045 0.20983504991215496
640000000.0 -0.37919413631506643 0.17477859404246657
660000000.0 0.2672806151189779 -0.36219879982379644
680000000.0 -0.44764315292710616 0.07460024063835269
700000000.0 0.2611018971316253 -0.35332324558044587
720000000.0 -0.3995870475022021 0.11522856180559721
740000000.0 -0.09190017976253863 -0.3645041896164485
760000000.0 -0.02045550879920953 0.3445000356993664
780000000.0 0.3228158637376819 -0.040956812406926814
800000000.0 0.219048310290253 -0.21772973751622904
820000000.0 -0.2641124714031053 -0.014496766937505146
840000000.0 0.0649416674942094 -0.20562465910939862
860000000.0 0.1743116884015726 0.04547928713921032
880000000.0 0.10150189399901716 0.10304417816121414
900000000.0 -0.11320504880012464 0.004112755334858027
920000000.0 -0.07613349695830264 -0.015743537061205185
940000000.0 -0.0009532250202714633 -0.05530337243556053
960000000.0 -0.05998129681013303 0.023476180064692553
980000000.0 -0.03337149121962451 0.06705007834962394
1000000000.0 -0.05268674559715744 0.07012252560235518
1020000000.0 -0.053775528356329 0.08631552591373878
1040000000.0 -0.10631052633877018 0.05063455703677522
1060000000.0 -0.13527808279018902 0.07036717992868935
1080000000.0 -0.14468294234981685 0.11681061167349042
1100000000.0 0.13885988124674567 0.17182181700751503
1120000000.0 0.24248131437687837 -0.05686256328363133
1140000000.0 -0.16749802870312286 0.20794506052017955
1160000000.0 -0.2047928370778009 0.20906645602317864
1180000000.0 -0.30154543978438997 -0.10076911334011614
1200000000.0 0.2522202278175084 0.2310195162284094
1220000000.0 -0.03590251906055981 -0.37076924310411025
1240000000.0 -0.1418589526520767 0.37141614975636195
1260000000.0 0.27175404162638267 -0.31622464509302
1280000000.0 -0.42006482716346694 0.0001809841788168309
1300000000.0 -0.4208770858029022 -0.03816501683472282
1320000000.0 -0.4282763503989456 0.005285389427437489
1340000000.0 -0.43135952053875487 0.0627078074618443
1360000000.0 -0.24269366409949142 0.36143553562933495
1380000000.0 0.06608426962589445 0.4227412616554676
1400000000.0 0.40855711169860964 -0.07565440450636747
1420000000.0 -0.017734788059507546 -0.39380804472921377
1440000000.0 -0.34823373002118524 0.12034802008240196
1460000000.0 0.03839811811138128 0.33221333317073254
1480000000.0 0.19380699686577066 0.23679685019315813
1500000000.0 0.14876679606093454 -0.2322884606709378
1520000000.0 -0.06516248205120612 -0.23583942953407383
1540000000.0 -0.05784932886172528 0.20067717330593576
1560000000.0 0.1553796779095645 -0.08414894378758603
1580000000.0 -0.12868427500073962 -0.07359326422015153
1600000000.0 0.06780329532656204 0.09638347709742426
1620000000.0 -0.08760913040031194 -0.03254298009063534
1640000000.0 -0.030572728368456693 -0.060506727710168635
1660000000.0 0.014330984790313228 -0.03930422604373023
1680000000.0 -0.01295740425409293 0.00757874739564018
1700000000.0 0.007455466094691459 0.01920990108661426
1720000000.0 0.03802984403754022 -0.006116362380272039
1740000000.0 -0.03404215766155215 -0.04913734909084337
1760000000.0 -0.07819095705953044 -0.028209942218282883
1780000000.0 -0.08713525379383273 -0.0640039932933229
1800000000.0 0.1373254440164512 0.004188174394875504
1820000000.0 0.08669172302158007 -0.14044268351804645
1840000000.0 -0.14953434112599057 -0.13481255442788231
1860000000.0 0.22701371669647794 0.09391704121517029
1880000000.0 0.045229009208169094 0.28344242396766284
1900000000.0 -0.2916269066494083 -0.11924901896199615
1920000000.0 0.19580272503436258 0.28132963138849176
1940000000.0 -0.008721290936238748 -0.3704344723825543
1960000000.0 -0.21110223468489236 0.32751935140483895
1980000000.0 0.31049187890339625 0.25802873130813364
2000000000.0 0.41604877599946904 -0.03164280783712547
2020000000.0 0.08497685268284981 -0.42179436912616997
2040000000.0 -0.4338430628659692 -0.05937812254294385
2060000000.0 0.14866683800564373 0.40921355777844154
2080000000.0 0.3930652091789882 -0.16136024270867252
2100000000.0 0.07174934206292713 -0.40193602466405404
2120000000.0 0.008872981565970835 -0.3903217238800266
2140000000.0 -0.035011734524151135 -0.3735662819154082
2160000000.0 0.3357870572382748 -0.1330344164041663
2180000000.0 0.0794648562900464 -0.3334810054264699
2200000000.0 -0.1237085326536706 -0.29805626783095496
2220000000.0 -0.0877821695000707 -0.2932629612255065
2240000000.0 0.002107371618644827 -0.3009366024848237
2260000000.0 -0.10215046414204623 -0.28169058587170825
2280000000.0 -0.28640869706786026 -0.10842440357264388
2300000000.0 -0.06559784030892483 0.31319738863422014
2320000000.0 0.33637640047790784 -0.05597561823738465
2340000000.0 -0.24186431337866732 -0.2777976338967313
2360000000.0 -0.20003511047573042 0.35068686069889543
2380000000.0 0.3844056896802141 -0.23772319959880525
2400000000.0 -0.3657271546454548 0.3498525034647456
2420000000.0 0.03865958244750819 -0.5592125260269736
2440000000.0 0.39575091747570323 0.4641524975358982
2460000000.0 -0.6545274854374398 -0.03188055186234299
2480000000.0 0.554674928793445 -0.4180396771880023
2500000000.0 -0.26383208308668266 0.6754131048900999
2520000000.0 -0.025804893481179935 -0.7452556994935156
2540000000.0 -0.008345146539294744 0.7574899802731266
2560000000.0 0.5157480335870107 -0.5601830244470406
2580000000.0 -0.7578248076571342 -0.01737395648479232
2600000000.0 0.49717452277251417 0.5569071106358291
2620000000.0 -0.01633014675429156 -0.7283073026463522
2640000000.0 -0.6419811292716829 -0.2863086153512071
2660000000.0 0.6052684111553948 0.28763370781236436
2680000000.0 -0.6277751825593911 -0.07897414103585716
2700000000.0 0.5734269679611228 -0.1460450129885139
2720000000.0 -0.3519784638036543 0.4211025177051191
2740000000.0 0.22699258265213154 -0.4549642571365428
2760000000.0 -0.2380414806364636 0.4093557807032773
2780000000.0 0.37753422618284904 -0.23883836054362714
2800000000.0 -0.42480107034992737 0.030249306124517553
2820000000.0 0.41143473220854115 -0.006671816449020015
2840000000.0 -0.37954558051109843 0.13123616211460057
2860000000.0 0.326723148297153 -0.22261170352334833
2880000000.0 -0.33189908776292376 0.19980123123323862
2900000000.0 0.2851141040921453 0.2553176166185825
2920000000.0 0.3553877692208803 -0.13899349240391906
2940000000.0 0.17305512473785759 -0.33957608019767965
2960000000.0 0.21003906408890524 -0.3131107558408662
2980000000.0 0.36806492869370117 -0.08148779560345161
3000000000.0 0.1771236216716365 0.33564592391623466
3020000000.0 -0.15144361835950976 0.34643976405622295
3040000000.0 -0.26886457328452384 -0.2554051543078408
3060000000.0 0.3582468553010394 -0.058889000311545835
3080000000.0 -0.3167972162465551 0.15539016756471452
3100000000.0 0.20994764605711627 -0.2717929410006723
3120000000.0 -0.0812025504126118 0.32131758916844194
3140000000.0 -0.22456577643792333 -0.22259137901149217
3160000000.0 0.29444310809447966 0.008849989443904333
3180000000.0 -0.114478893238554 -0.24292192923224368
3200000000.0 0.1592796119218081 0.17686197459313086
3220000000.0 -0.152812513264065 -0.1388000513412434
3240000000.0 -0.10290561743174571 0.13964983688268984
3260000000.0 -0.007049870090381968 0.1420678193970013
3280000000.0 -0.07012861813730999 0.0865647454276054
3300000000.0 0.08400088898010838 -0.015995525059574377
3320000000.0 -0.0488222914238212 0.03858508912447446
3340000000.0 -0.026773088815120215 0.03835983107866681
3360000000.0 0.022789597608725527 -0.03575750169441829
3380000000.0 0.018642056013436797 -0.03969693445158205
3400000000.0 -0.03100763415521466 0.02793828772495982
3420000000.0 -0.0314381671316523 0.007688231003072289
3440000000.0 -0.016706180996469134 0.012051089157130601
3460000000.0 0.011218265201860405 -0.013639177690008214
3480000000.0 0.010279122193557429 -0.02211039125788772
3500000000.0 -0.02564522703689016 -0.015796007537823956
3520000000.0 -0.01308185685336312 0.031115055031074014
3540000000.0 -0.010451828741884012 0.04245106730660726
3560000000.0 0.036164777222418835 0.039871792254556136
3580000000.0 -0.008283271171292402 -0.06285186968699226
3600000000.0 -0.02601162566719615 0.06803576735338097
3620000000.0 -0.03427664913536191 -0.07559964500593545
3640000000.0 0.027802233428291145 0.08566988464139956
3660000000.0 -0.05880776013639728 -0.07283460089361075
3680000000.0 -0.023979030406837933 0.0906963359184189
3700000000.0 -0.09008518411093402 -0.016789166414650048
3720000000.0 0.017323642354976194 0.08888517208968397
3740000000.0 0.06703368302414457 0.06043754090562813
3760000000.0 0.046526805783255167 -0.08020523539730956
3780000000.0 -0.07814132413376247 -0.06427129758495681
3800000000.0 0.11590944425556046 -0.016412069415917663
3820000000.0 0.02106329344765159 -0.13272918067154546
3840000000.0 -0.1470730311107911 0.03270967220297806
3860000000.0 0.1431657858769818 -0.08973501265653282
3880000000.0 0.004229625262648913 0.18941553392068589
3900000000.0 0.03379543632395323 0.20846356590396015
3920000000.0 0.08506528414601117 0.20699606198276627
3940000000.0 0.16598357635887462 0.14786578390484728
3960000000.0 0.1697663294103133 0.13119932196834158
3980000000.0 0.040764626035985824 0.2015845004608139
4000000000.0 -0.10865402001623853 0.15516292690443656
