!Created with skrf (http://scikit-rf.org).
# Hz S RI R 50.0 
!freq ReS11 ImS11
400000000.0 0.7119794536490912 -0.4021090370732828
420000000.0 0.5318988788709007 -0.6255556731992685
440000000.0 -0.4160101345928042 -0.64973839612463
460000000.0 0.42347579074516734 -0.5805892311949529
480000000.0 0.1831644305196252 0.643722012902531
500000000.0 0.6400989351267131 0.0436426393302168
520000000.0 -0.09676279418485095 0.5669111972430457
540000000.0 -0.22903537140791022 0.4616000571083649
560000000.0 -0.42289553152951725 0.2189709739479989
580000000.0 0.2369180132136916 0.34345497017449755
600000000.0 0.06131614086379672 -0.36319165585914365
620000000.0 0.3599154203931211 0.05058923163171875
640000000.0 -0.3393241767876377 -0.21663710439492198
660000000.0 0.2878619494280797 0.3254106879793667
680000000.0 0.4548769660410503 0.002920745887838097
700000000.0 0.08028775924500846 0.4498068584722316
720000000.0 -0.2893447157127693 -0.3404921919825378
740000000.0 -0.2912879386941149 0.27997347435363534
760000000.0 -0.26618540124758006 -0.24366667404674966
780000000.0 0.16129320461883395 -0.2791436968431244
800000000.0 0.044712741011796724 0.27773260809912814
820000000.0 -0.22210672805804244 0.05958648380327933
840000000.0 0.09145059235428198 0.16436455396126132
860000000.0 -0.08356437081957822 0.16463372864855072
880000000.0 -0.1606691539899317 -0.018427555448130507
900000000.0 0.10058555278742307 -0.08755519016706681
920000000.0 0.06377089321925351 -0.07045651455209569
940000000.0 -0.06847933199239833 0.016199178999621516
960000000.0 0.050412620134946184 0.0405543618222523
980000000.0 -0.0739245277984391 -0.014331285614525133
1000000000.0 0.07246804814942151 -0.012639181473797624
1020000000.0 0.07984763081907749 0.030648685832030714
1040000000.0 -0.041367440731423046 0.11727155674270547
1060000000.0 -0.03741081173933149 -0.15107824511624662
1080000000.0 -0.17476652550565602 0.08427708939980987
1100000000.0 0.21010777499991048 -0.0544050395078008
1120000000.0 -0.23848753910690815 0.011850763444139692
1140000000.0 0.27886951331052423 0.037863974812655056
1160000000.0 -0.22903577392429228 -0.21607070277047918
1180000000.0 -0.29240507766297413 0.18861419675904884
1200000000.0 -0.29730735532693575 0.2030164527557463
1220000000.0 0.31176727725881387 0.19815819775480795
1240000000.0 0.18769107277289102 -0.3282939491361115
1260000000.0 0.3620291533984805 -0.13065483809455547
1280000000.0 0.4045224108314201 -0.02740431719396894
1300000000.0 0.3992681302416458 -0.1422533078788585
1320000000.0 0.015961854358016923 -0.4344797967845968
1340000000.0 -0.2865012126552488 -0.34183496664321356
1360000000.0 -0.3543520145544762 0.2698570550287017
1380000000.0 0.3193011907568883 0.3030176303009291
1400000000.0 0.003995769635275426 -0.4195823760738411
1420000000.0 -0.3831141726860165 0.058379381769250636
1440000000.0 -0.357923320588135 -0.0019775716192896977
1460000000.0 -0.31214123397988697 0.11531724844961551
1480000000.0 -0.19163561323922715 0.2411989737046955
1500000000.0 0.2447037815905391 -0.15071626690826873
1520000000.0 -0.19938559281953788 0.1543638366392572
1540000000.0 0.010721084215349327 -0.21270791407357723
1560000000.0 0.10620650569409387 0.1314173370457572
1580000000.0 -0.048481685387784496 0.12022498752992757
1600000000.0 0.06698919775714338 -0.07853436063605979
1620000000.0 -0.04389555895685703 0.07549300993326104
1640000000.0 -0.06561411316045236 -0.03445522755443863
1660000000.0 0.004188330751364385 -0.05348363144812358
1680000000.0 -0.028350894959471476 0.010191773441977341
1700000000.0 -0.005218547667238716 -0.008287584941619712
1720000000.0 -0.018733937346143772 0.02614112482005268
1740000000.0 0.04672756703442043 -0.034173719883652996
1760000000.0 0.019195154052562353 0.08502979223181067
1780000000.0 -0.042251370387313164 -0.10392736090786457
1800000000.0 0.1413612921256244 0.008400102110973952
1820000000.0 -0.16390515827047297 0.03253053602205302
1840000000.0 -0.19076236181490516 0.04376648633054816
1860000000.0 0.21042906483823565 0.11439442057502806
1880000000.0 -0.271066379763617 0.057570758769633294
1900000000.0 0.31674673154930416 0.000513940389153957
1920000000.0 -0.2734502234843857 0.22480530777458202
1940000000.0 0.12932583719591617 -0.3640434143576148
1960000000.0 0.3307479935533301 0.23199379354365046
1980000000.0 -0.1453199614287853 -0.37962271605831677
2000000000.0 -0.2836648147983497 -0.2910982482355045
2020000000.0 -0.1909831704290395 -0.36504496690328797
2040000000.0 -0.19409680291637185 -0.37218971437381504
2060000000.0 -0.424747934738138 0.022593061695866824
2080000000.0 -0.2062633923825036 0.36805629270544327
2100000000.0 0.3225976092013375 0.265343046149884
2120000000.0 0.147361218172658 -0.3747405982429751
2140000000.0 -0.28184309744678404 -0.2649328744170182
2160000000.0 -0.28998436823101553 -0.22063244544345043
2180000000.0 -0.31171793948427584 0.1258900065791222
2200000000.0 -0.2777320695074027 0.1422720730229285
2220000000.0 -0.021669606887001612 -0.2913980692606291
2240000000.0 0.27440149692405635 0.11207997446321857
2260000000.0 0.28031036215173777 -0.12169480460258553
2280000000.0 -0.2723254822156999 -0.15769086992550965
2300000000.0 0.20542948180205084 0.2520435756189971
2320000000.0 0.19967916139163897 -0.27197928097772217
2340000000.0 -0.17890404622123188 -0.31492692924633825
2360000000.0 -0.33739134694683787 0.21623748231214157
2380000000.0 0.44750251355812415 -0.04689579589695468
2400000000.0 -0.4719261554323269 0.17468737521607627
2420000000.0 0.30921807219618663 -0.46414574556065646
2440000000.0 0.21941874549137802 0.5697298684468131
2460000000.0 -0.6163168120587509 -0.22159652238008462
2480000000.0 0.6749107184838667 -0.1529867388243893
2500000000.0 -0.6518237848186907 0.3087019471239616
2520000000.0 0.6756726148160515 -0.31057830822900695
2540000000.0 -0.7450347792198411 0.13040373161224741
2560000000.0 0.7409027375619504 0.17966620173559558
2580000000.0 -0.5023365537943626 -0.5701075061245368
2600000000.0 -0.004742234851360848 0.7487279407951478
2620000000.0 0.23100955211623692 -0.6943173309903745
2640000000.0 -0.45111489018869366 -0.544637884074803
2660000000.0 0.35386828303543244 0.5756948908976006
2680000000.0 -0.2867904458864766 -0.5719438429091841
2700000000.0 0.32602042565517025 0.5079198169351192
2720000000.0 -0.47093458326693793 -0.3128683141540642
2740000000.0 0.5260590487455812 -0.011549328702639961
2760000000.0 -0.4051726982740531 0.26948213071414423
2780000000.0 0.3043261470681598 -0.33367689753830193
2800000000.0 -0.38065796969235655 0.18797400968231895
2820000000.0 0.39960822963679316 0.08617772780112666
2840000000.0 -0.37752070619958283 -0.13448863441483022
2860000000.0 0.3798488757561815 0.11245634785044534
2880000000.0 -0.2834184181578801 -0.2704401224943783
2900000000.0 -0.1768842790364844 0.34563730166515216
2920000000.0 0.3546931973429424 0.16012185189094613
2940000000.0 0.1867284582628532 -0.3396325819716421
2960000000.0 0.0802909399361373 -0.3718306363261791
2980000000.0 0.35419724577921646 -0.1307570093743465
3000000000.0 0.1716677698133662 0.33906698207186514
3020000000.0 -0.2143544002852661 0.31540884962172133
3040000000.0 -0.36790384793709807 -0.06758560697950444
3060000000.0 0.22123857882267853 -0.28417694443848196
3080000000.0 -0.2659258517691947 0.2248423044669419
3100000000.0 0.310206447512218 -0.1367656930045705
3120000000.0 -0.2726676604048457 0.18479570285462732
3140000000.0 0.04682263396652475 -0.31070489767559406
3160000000.0 -0.01003721793505023 0.29528715385278886
3180000000.0 0.20712778648687066 -0.18469947189124528
3200000000.0 0.2467151618069092 0.045183480727641986
3220000000.0 0.0027037184618266927 0.21276698153182438
3240000000.0 0.005285112969794005 -0.17414539892592473
3260000000.0 -0.02265262644692228 -0.13299646130897633
3280000000.0 -0.09751179531004028 -0.02632918601267987
3300000000.0 0.07491984886097167 0.03206188062675701
3320000000.0 -0.06706836099873935 0.0029401276286878724
3340000000.0 0.05208915451643883 -0.015734549563025738
3360000000.0 -0.04206566585663774 -0.008397987429332602
3380000000.0 -0.0340813920969394 -0.00993149878741224
3400000000.0 0.008183046570709947 0.03390322958092313
3420000000.0 0.017378200861028613 -0.028246705318809677
3440000000.0 0.008164333822928091 0.02754772115248332
3460000000.0 0.016036321892848676 -0.012462552459940142
3480000000.0 -0.011659946198000794 0.0017524979212826884
3500000000.0 0.02311333458262044 0.003713623109160645
3520000000.0 0.0324065328376896 0.020662561360554634
3540000000.0 0.011020901757647205 0.05245860187248902
3560000000.0 0.061934142186902054 0.008809163043064177
3580000000.0 -0.00693907987328606 0.06789177201191925
3600000000.0 0.07174374082487874 0.011137480698960792
3620000000.0 0.06819307824137724 -0.04068884148405152
3640000000.0 -0.0017717899212717088 -0.08542419020779693
3660000000.0 -0.08821057395013496 0.02089921495792531
3680000000.0 -0.04027052142769251 0.08518681008082025
3700000000.0 0.08935243213068006 -0.038734482906818496
3720000000.0 -0.09540345641474937 0.026037654093752638
3740000000.0 -0.02088425201162867 0.09175206311479507
3760000000.0 -0.07430177959195312 0.05975005418645666
3780000000.0 -0.08356387390717508 0.06166253326166293
3800000000.0 0.11726149770064288 0.019273150153097003
3820000000.0 0.13036510744900995 0.050737517782984555
3840000000.0 -0.1582475580930981 0.002990729418819712
3860000000.0 -0.01420533182328302 -0.17380688991534
3880000000.0 0.17892544219086937 -0.050491826139511364
3900000000.0 0.022879205462309198 0.19642301348288274
3920000000.0 -0.019148239572936803 0.20555501802488305
3940000000.0 0.006406983686301656 0.21079064610316423
3960000000.0 -0.017126563006092204 0.20904363455717814
3980000000.0 -0.14678452724017954 0.1424161040904731
4000000000.0 -0.11939219532390251 -0.1574867145408688
