!Created with skrf (http://scikit-rf.org).
# Hz S RI R 50.0 
!freq ReS11 ImS11
400000000.0 0.7113154694305186 -0.3933752839559183
420000000.0 0.5462158880387847 -0.62072653135294
440000000.0 -0.2606427850169127 -0.7231508238252188
460000000.0 0.5134502916570969 -0.5060971249098286
480000000.0 -0.08258366830414716 0.6620711339318085
500000000.0 0.5530158609450008 0.34737283925806517
520000000.0 0.5735878403831639 0.04041133192832004
540000000.0 -0.4275740670292779 0.2675763019316315
560000000.0 -0.4506553399837909 0.14375466618887978
580000000.0 -0.38594977733363667 0.14636368372422884
600000000.0 0.2604802705514352 0.28828192912626915
620000000.0 0.10545311208660434 -0.3584802910546063
640000000.0 -0.4079460098577468 0.03089822076702982
660000000.0 0.24111710558989433 -0.36696027286780636
680000000.0 -0.025967877530653927 -0.4470471805707766
700000000.0 0.426415810928092 0.12729444701180484
720000000.0 -0.015314291329567744 -0.4274419182543705
740000000.0 -0.09957236772193226 -0.38822724744445564
760000000.0 0.10526477503750685 -0.3494300847097091
780000000.0 0.27574869824561343 0.1705990680930757
800000000.0 -0.23808836443024062 0.16140727628073762
820000000.0 -0.19099794109138143 -0.15087113378047165
840000000.0 -0.12364183273011448 0.163943478421843
860000000.0 -0.17013672888970985 0.03981462071208948
880000000.0 -0.026042867834626574 -0.14072977332269573
900000000.0 0.03091090750977185 0.104560021113184
920000000.0 -0.05417376242460466 0.053869052180952975
940000000.0 0.014059493896609014 -0.054064769305205054
960000000.0 -0.023875740149853227 -0.05120753910850411
980000000.0 0.06980513414082289 -0.03706586390812551
1000000000.0 0.0836559001007577 -0.008923958894806535
1020000000.0 0.04896242270270141 -0.09558794991547934
1040000000.0 -0.09566134452463272 0.08445030494306326
1060000000.0 0.022014660694947907 -0.15065318138878978
1080000000.0 -0.18805298339906315 -0.053718040348426546
1100000000.0 0.14039223037887708 0.1704999691909001
1120000000.0 -0.19439076825112855 0.16287331873245026
1140000000.0 -0.22937482444855142 -0.16565910355053215
1160000000.0 -0.19267213442781408 0.24461607332096483
1180000000.0 0.23570267139259768 0.24161697401292734
1200000000.0 -0.34175470958293297 0.006040837640081093
1220000000.0 -0.28000869211510315 0.2255362965302669
1240000000.0 -0.0907133138578868 0.3697811388102945
1260000000.0 0.39336274613074645 0.09586969033425288
1280000000.0 0.0666823376724375 -0.41083526694145367
1300000000.0 -0.06597972849990681 -0.41565916225796123
1320000000.0 -0.09627202061649993 -0.4220546594424218
1340000000.0 -0.359272074661438 -0.2584688552694514
1360000000.0 -0.20710274417910635 0.3922758655267608
1380000000.0 0.24222567167463654 0.3561337418905324
1400000000.0 0.37461039598456275 -0.17824915396752675
1420000000.0 0.03124674181795732 -0.3918804877900604
1440000000.0 -0.34980162139429966 -0.12235084243338396
1460000000.0 -0.011592563029376286 0.34202417465372664
1480000000.0 0.3098826689817388 0.019088419318814043
1500000000.0 -0.2748700693485867 -0.0581267295694989
1520000000.0 -0.10658308988869065 0.21387047215543653
1540000000.0 0.19986507382314186 0.024499931603583176
1560000000.0 0.1601842463971147 0.04295373916813815
1580000000.0 0.12478199181897527 0.07211492305542232
1600000000.0 -0.09110037424325976 0.077135645065195
1620000000.0 0.06541265936587842 -0.06444554285563613
1640000000.0 -0.003224877971255761 0.06880738893257578
1660000000.0 -0.014421931565913633 -0.04165336553950424
1680000000.0 0.0064248933658818475 0.02097289943548223
1700000000.0 -0.017464076906606337 -0.005931269816425548
1720000000.0 -0.03687084295611319 0.0004653642173007228
1740000000.0 -0.04292752580738123 -0.03639039896557529
1760000000.0 0.02667503552201654 -0.07518997807474884
1780000000.0 0.10500590501544045 0.0009239549522379185
1800000000.0 -0.1399248818140629 0.012996218865679653
1820000000.0 -0.004717334452024871 -0.17230759638187967
1840000000.0 -0.13478565581553426 0.1488492233962409
1860000000.0 0.23926704198786553 0.03143616270225777
1880000000.0 -0.2074810207364137 0.19060380098306925
1900000000.0 0.10212401798685185 -0.3015792499859033
1920000000.0 0.1323705900038604 0.324554784651711
1940000000.0 -0.06393691962918377 -0.37011496478170786
1960000000.0 -0.002456130584343119 0.3953124520033287
1980000000.0 0.3921546378841827 -0.10251153922848891
2000000000.0 0.17643112115948212 -0.3762225515510838
2020000000.0 -0.2673099544444794 -0.32616299557740835
2040000000.0 -0.41903411398364404 -0.06553406374494493
2060000000.0 -0.35989262587336884 0.22401386344986712
2080000000.0 -0.08239607492225053 0.4138838545437156
2100000000.0 0.40088232081995046 0.11686318387200144
2120000000.0 0.07331347155292536 -0.3957093059388886
2140000000.0 -0.36789807278947606 -0.10331890366620894
2160000000.0 -0.10271286505270588 -0.3437452869104385
2180000000.0 -0.1962553173118398 -0.2742187946195543
2200000000.0 -0.2116507511783759 -0.23917162658495444
2220000000.0 -0.11603212319064941 -0.28184152051622885
2240000000.0 -0.026140048627902816 -0.30068390562287267
2260000000.0 -0.12118489014027795 -0.275116661368535
2280000000.0 -0.2865257872267859 -0.11232100043277421
2300000000.0 -0.1205651592456857 0.2968938006661962
2320000000.0 0.2915724350682973 0.1758999529676319
2340000000.0 -0.0038584594512885272 -0.3704510216830168
2360000000.0 -0.23498316929802254 0.3337921891443807
2380000000.0 0.3308461890530351 -0.3107025805280837
2400000000.0 -0.3346583738535181 0.3794404277367044
2420000000.0 0.07047892014531908 -0.5551460535488995
2440000000.0 0.39373951076145053 0.46714318550524125
2460000000.0 -0.6522725299675769 -0.06560722622276413
2480000000.0 0.6297142227865187 -0.2931688355454645
2500000000.0 -0.5555213072231228 0.46453524838398996
2520000000.0 0.5325884118285866 -0.5218492490651591
2540000000.0 -0.6385228626136503 0.40856557499950996
2560000000.0 0.7520770529778336 -0.13039835539033426
2580000000.0 -0.6442782214296303 -0.4042761245359278
2600000000.0 0.36268195789378926 0.6556208902226671
2620000000.0 -0.1083843063122598 -0.7233077180639268
2640000000.0 -0.662049049455904 -0.2465338428807675
2660000000.0 0.5931055324373903 0.32154552384405494
2680000000.0 -0.5702955134247866 -0.2869746842831379
2700000000.0 0.5340052043317701 0.27359784255721137
2720000000.0 -0.558774726992149 -0.03474036101563539
2740000000.0 0.4880777285044383 -0.17851504847277033
2760000000.0 -0.3834301172875869 0.2916853567646575
2780000000.0 0.3525952022092667 -0.2800281835892872
2800000000.0 -0.34674158121546933 0.24898777949466167
2820000000.0 0.2870067522079733 -0.2924205897725378
2840000000.0 -0.3312928294246319 0.2180400226686631
2860000000.0 0.387226680026341 -0.00666784440936883
2880000000.0 -0.24090393375777766 -0.29949024139299674
2900000000.0 -0.3141878611452686 0.22125877049938011
2920000000.0 0.1862704338594878 0.34253334042414074
2940000000.0 0.2555131462879835 -0.2973374878018271
2960000000.0 -0.045938264444480355 -0.3823166562814344
2980000000.0 0.17985511733547122 -0.33530656161328876
3000000000.0 0.37511578950006425 0.052197835964331606
3020000000.0 0.03986716466874458 0.3733061320894176
3040000000.0 -0.3559913988325848 -0.08757317234742018
3060000000.0 0.35174006758939164 -0.049232583905098964
3080000000.0 -0.31950269963446504 -0.13364803204682082
3100000000.0 0.2715027554533291 0.2055292755506073
3120000000.0 -0.3340139248263304 -0.0247033222339056
3140000000.0 -0.08677621206170466 -0.30927795241860073
3160000000.0 0.297858562305156 -0.007330265591372563
3180000000.0 -0.13840941221637806 -0.23321652888646077
3200000000.0 0.24047046870228544 0.029137666544971668
3220000000.0 -0.14485337022928638 0.15014602303601837
3240000000.0 0.13993727870636752 -0.09828801564551493
3260000000.0 0.13420040906925282 -0.007931812457994375
3280000000.0 -0.01706641329185603 -0.10180708191992054
3300000000.0 0.07633906989939071 -0.038011104817091246
3320000000.0 0.02678446381451594 -0.062106143052256264
3340000000.0 0.010354897044462798 0.04746900093074231
3360000000.0 0.0374638690663394 -0.004956595140069881
3380000000.0 0.022496058749060806 -0.033166015504651196
3400000000.0 -0.04104054933482398 0.0009878224721402598
3420000000.0 0.030535474926778983 0.012951949495469628
3440000000.0 0.020097980930397646 -0.01103981922696405
3460000000.0 0.015564757439220537 -0.00916986203161005
3480000000.0 -0.009728795938954692 0.01269225273208111
3500000000.0 0.016235905840602652 0.01399987033698345
3520000000.0 0.03557039576514954 -0.0029651968476817484
3540000000.0 -0.03476847191810416 0.03794931987375199
3560000000.0 0.05519074748700068 0.025929567420583936
3580000000.0 -0.06559541194795525 0.0024884208708368925
3600000000.0 -0.06509000754674163 0.028699039428334336
3620000000.0 0.04014089950226747 0.06976901967521931
3640000000.0 -0.011804129000832794 -0.0860920711355384
3660000000.0 -0.049693617348115234 0.07716834512774856
3680000000.0 0.08486074003508516 0.041933443608977924
3700000000.0 0.03701373138255111 -0.08763882511953448
3720000000.0 -0.07451581795450467 -0.06023990476322886
3740000000.0 -0.04196376615956848 -0.08449848471671803
3760000000.0 -0.054674140676375285 -0.08008043070975394
3780000000.0 -0.10500057871419441 0.018856227814525624
3800000000.0 0.11643525340582167 -0.03690160908060024
3820000000.0 0.13383465612793063 -0.043172281848003285
3840000000.0 -0.1490871233937762 0.05037221478059274
3860000000.0 0.1190697258486182 -0.12503108733184792
3880000000.0 0.061717436018773136 0.17606174027972096
3900000000.0 -0.16415382394069994 0.11537189159304391
3920000000.0 -0.15351566944770384 0.14246420103892427
3940000000.0 -0.11210789246818381 0.18205994066364098
3960000000.0 -0.10367102606541549 0.18462539546331358
3980000000.0 -0.18913864764014066 0.08616873725862491
4000000000.0 -0.148718072834116 -0.13236837781217273
