!Created with skrf (http://scikit-rf.org).
# Hz S RI R 50.0 
!freq ReS11 ImS11
400000000.0 -0.6259925269179604 -0.5653781783217086
420000000.0 0.671014717411078 0.4110731489606908
440000000.0 -0.20622993101828718 0.724074644624706
460000000.0 -0.6144374081078872 0.34667607585421967
480000000.0 -0.26675520865702856 0.5644734999900054
500000000.0 0.054176965798565305 -0.4959580448315602
520000000.0 -0.03132385585437743 0.39573481945311495
540000000.0 0.036095203471021874 0.45671939363275205
560000000.0 0.05381666324515941 -0.47202435215308086
580000000.0 0.12419059157266454 0.4191242015876819
600000000.0 -0.3524398269883648 0.18962010812496
620000000.0 0.37803831423756884 -0.01773783063466273
640000000.0 -0.3647065571490249 -0.06042446762178801
660000000.0 0.29675770575124466 -0.16781938487671144
680000000.0 0.3332015330831714 -0.07953215266783162
700000000.0 0.29217304815737405 -0.1820705421766059
720000000.0 0.23372967203854192 -0.24331716335243309
740000000.0 0.25059274047088426 -0.20363500718556454
760000000.0 0.30395325485872227 -0.03643918762886037
780000000.0 -0.1727094013270002 -0.22386244816207135
800000000.0 0.1544791642746698 -0.19277057641996584
820000000.0 0.1466785986421699 0.1553462802224477
840000000.0 -0.12851957109559195 0.15037121492360217
860000000.0 -0.12693278965907615 -0.13279621349791523
880000000.0 -0.06380867370455906 -0.17241886637353251
900000000.0 0.07696439157002316 0.14054046424150687
920000000.0 -0.04528620006797971 -0.12755534503247082
940000000.0 -0.11782051894202952 0.056949811515904294
960000000.0 0.02536450675074344 -0.09820931481222168
980000000.0 -0.02136268584716933 0.05429799199654487
1000000000.0 0.03936074240038299 -0.016532146442853408
1020000000.0 -0.030810200851909136 -0.016560837052262495
1040000000.0 -0.07350131569810238 -0.02725169697651802
1060000000.0 0.06078599270607509 -0.10169457335929885
1080000000.0 0.03227749789402239 -0.1467519077720405
1100000000.0 -0.18508318035619548 -0.016744644497180793
1120000000.0 0.03267191141239711 -0.21894608392395476
1140000000.0 0.1826580295318251 -0.19092569926881733
1160000000.0 0.26885286760389066 -0.0900916072237076
1180000000.0 0.12641485502124566 0.2961136804613669
1200000000.0 0.28405129019964726 0.17736219360611036
1220000000.0 0.028332866470277468 0.33778037378204456
1240000000.0 -0.18550499404987822 0.28385732406024244
1260000000.0 -0.30635522979501745 0.14857874254904585
1280000000.0 -0.26746872055498655 -0.221484898564957
1300000000.0 0.28414414042264247 -0.20961661024835715
1320000000.0 0.35397494926566775 -0.05566620954155353
1340000000.0 -0.025123452269371946 0.369559076494879
1360000000.0 -0.34181982944143935 -0.16423804891276397
1380000000.0 0.1740175262459477 -0.3300161060027483
1400000000.0 -0.37466864793811294 -0.013999222436794436
1420000000.0 0.3451073981971731 0.13461060862615826
1440000000.0 0.32038913971713257 -0.15811837918112084
1460000000.0 0.15503759981167106 -0.32037458727878315
1480000000.0 -0.029642511780302 -0.3455533041736081
1500000000.0 0.04306939496427478 0.3338380987158042
1520000000.0 0.013024206629739845 -0.3093874945576201
1540000000.0 -0.22855289132086265 0.15985478126136357
1560000000.0 0.21168648705227772 0.11855416270100635
1580000000.0 -0.18436331531015168 -0.09403240643615701
1600000000.0 0.05726649668805834 0.1662043127389516
1620000000.0 0.07299417513585686 -0.1279445824409712
1640000000.0 0.05054631104680041 0.11768748607479032
1660000000.0 0.021472247051705442 0.10206342047496073
1680000000.0 -0.08146104273251069 0.01621068565334048
1700000000.0 0.043351310039840676 0.047695291445574536
1720000000.0 0.03090106631314466 0.04153686765388371
1740000000.0 0.007263668724045845 0.047732500098297624
1760000000.0 -0.05766918885626923 0.020881093310564834
1780000000.0 0.008782550979447206 0.08654813667637627
1800000000.0 -0.046216622876994316 -0.11595894040875858
1820000000.0 -0.08205751059166515 -0.1345707135044552
1840000000.0 0.1554503841999363 0.10641147104780366
1860000000.0 0.22151108319105323 0.012582826062749323
1880000000.0 0.1822776780654822 -0.16715889698408323
1900000000.0 -0.10130119461829878 -0.24797467324935887
1920000000.0 -0.28345609877203176 -0.05634213143991695
1940000000.0 0.12541382454562078 0.2741674941922271
1960000000.0 -0.30980767047322566 -0.058410404280780724
1980000000.0 -0.10376745399177184 -0.30136980903720245
2000000000.0 0.14775532920287357 -0.278850949985164
2020000000.0 0.31029079670613796 0.04492660246157857
2040000000.0 0.30400457762242994 0.06956963631131301
2060000000.0 0.232358802079242 0.2028460994362216
2080000000.0 -0.17931706728391308 0.2521818694152328
2100000000.0 0.12119268958499797 -0.2892628709659122
2120000000.0 0.10832961252895326 0.2918778359751673
2140000000.0 -0.23809142426214794 -0.1980448762241751
2160000000.0 0.06852009496681169 0.2953402626726905
2180000000.0 0.2912164145910879 -0.06048927419173966
2200000000.0 0.2700053816886176 -0.10378840551167144
2220000000.0 0.22858175390323435 0.16960137489826016
2240000000.0 -0.15178991508491893 0.2309172729552699
2260000000.0 -0.25678387714707546 0.08052688530034006
2280000000.0 0.0033412252774171923 -0.25412009110816974
2300000000.0 0.15525578050457037 0.1930123533707964
2320000000.0 -0.22975683173152553 0.05530801686079005
2340000000.0 0.1876399200824366 0.13043320002387543
2360000000.0 -0.12780367144998414 -0.19325688552634648
2380000000.0 0.19583196368348063 0.14442944288495116
2400000000.0 0.25339825114770065 -0.04887440563370564
2420000000.0 0.25078393670073773 -0.1304846042824191
2440000000.0 -0.2567753310889392 0.1801006375926059
2460000000.0 0.21366506543552413 -0.2741840557944836
2480000000.0 -0.3833046045811155 0.0043482820937587935
2500000000.0 0.1244807199208182 -0.40361989267717563
2520000000.0 0.39041582172737627 0.24260461600660144
2540000000.0 -0.46607607496588593 0.17178231926215023
2560000000.0 0.28382949517051687 -0.4476391653381876
2580000000.0 0.08716263592958967 0.5560229016850253
2600000000.0 -0.3989042679321942 -0.43330897600855733
2620000000.0 0.5876580861422595 0.16451913847891073
2640000000.0 -0.5255637253983023 0.3412327344234685
2660000000.0 -0.10926682356147743 -0.630714063247264
2680000000.0 0.6084400572343521 -0.2206332568665703
2700000000.0 0.5911062720066816 0.280625831395648
2720000000.0 0.5170080630940777 0.4062455321171263
2740000000.0 0.4361900243491498 0.4945123657183101
2760000000.0 0.49366049558771546 0.4360403823634436
2780000000.0 -0.5156209645394778 0.39795043904776456
2800000000.0 -0.6238734120387446 0.14640209440129898
2820000000.0 -0.3474358425488671 -0.5256316850036348
2840000000.0 0.5933150014000452 -0.16793727462067626
2860000000.0 -0.5443426368956619 0.2600059722212708
2880000000.0 0.5879544006908167 -0.025683525129293793
2900000000.0 -0.18902069792376222 -0.5368541950310038
2920000000.0 -0.5398423684834489 0.08511101033725439
2940000000.0 -0.0012976351514539038 0.5245971023117639
2960000000.0 0.24691426119711793 0.43480203146706203
2980000000.0 0.42842697803825613 -0.21719073055225585
3000000000.0 -0.25331681811314305 -0.3773044058209411
3020000000.0 -0.19765609484939953 0.38305596949769893
3040000000.0 0.33045929179249733 -0.2353945825401064
3060000000.0 -0.30399409276231765 0.22832103611557444
3080000000.0 0.3356295431614384 0.13102886344294803
3100000000.0 -0.33955214389669885 -0.041466476007150525
3120000000.0 -0.18082978931555507 0.2787095419304537
3140000000.0 0.2964694773927119 -0.13802057782520505
3160000000.0 -0.32001770630507986 -0.062265929245179916
3180000000.0 0.3184535789623729 0.035203406211922354
3200000000.0 -0.05118042685517431 -0.30935282856520824
3220000000.0 -0.25403646843429323 0.1694118770063296
3240000000.0 -0.19048827886211325 0.21808033472654623
3260000000.0 -0.2567421651542233 0.087249378863834
3280000000.0 0.01344759320835963 -0.2508907757966602
3300000000.0 0.21965651176948225 0.08774011169396054
3320000000.0 -0.20587114552042257 -0.07003208836372567
3340000000.0 -0.1045275749930529 -0.17011301187755792
3360000000.0 0.16256920757198068 0.05734599616167942
3380000000.0 -0.00849258771890572 -0.146221485905987
3400000000.0 -0.04123336896390729 -0.12094463167862207
3420000000.0 -0.08656974681899084 0.0755851564287003
3440000000.0 0.0035162736728242454 0.1069171234018761
3460000000.0 -0.03933636603951546 0.09739214662038738
3480000000.0 -0.04152143363336481 0.08209917625313608
3500000000.0 0.03757341808262813 0.07631266693246988
3520000000.0 0.07476753476256974 -0.004001657820831292
3540000000.0 -0.03248855207132405 -0.06299929869521136
3560000000.0 -0.03705144487227799 0.06462205606754119
3580000000.0 0.05163659555384947 -0.05994160351772375
3600000000.0 0.0691279448720128 0.05561613066793341
3620000000.0 0.006751633399912952 -0.0988175906653677
3640000000.0 0.08452292388091398 0.06715936475490879
3660000000.0 -0.08875298843978968 0.0596413379764539
3680000000.0 0.02595758339583986 -0.10235169559779335
3700000000.0 0.05497170109700515 -0.07709256527521952
3720000000.0 0.01933846125288697 -0.08771019567922896
3740000000.0 0.04443463457849811 -0.06591208608486245
3760000000.0 0.07558055395325361 0.012303493825200447
3780000000.0 -0.010003245449710835 -0.06621890522379194
3800000000.0 0.044361760574031385 -0.016967340817367886
3820000000.0 6.0800725289715365e-05 0.0369963186264732
3840000000.0 0.041803258901421884 0.03971757170433461
3860000000.0 0.05195618240286655 0.0517948531427313
3880000000.0 -0.0946119775057831 -0.008002523031400487
3900000000.0 -0.09466589858113482 0.04287237138307969
3920000000.0 0.10251933349933345 -0.029011519106836487
3940000000.0 -0.10255249830963947 -0.015194978491922998
3960000000.0 -0.1024518420270432 0.02081689110629451
3980000000.0 -0.08794125063114165 -0.041522501735276635
4000000000.0 -0.0798804717570647 0.027252960524169607
