!Created with skrf (http://scikit-rf.org).
# Hz S RI R 50.0 
!freq ReS11 ImS11
400000000.0 0.9097180525285895 -0.07695383397085243
420000000.0 0.3743656488428948 0.7936774582482402
440000000.0 0.47789494113057973 0.7049046737872182
460000000.0 -0.7781126556547954 0.2396380381851588
480000000.0 0.031037680025600898 0.783759288543381
500000000.0 0.7214169700741274 0.20984488955030556
520000000.0 -0.5649959001147649 -0.44278087554940315
540000000.0 0.32787917266458516 0.5781340137157115
560000000.0 0.47875922766487583 0.388541911802832
580000000.0 -0.2429442747174002 0.5043333188834916
600000000.0 0.5561802806505408 0.020947298246470798
620000000.0 0.5520714506935002 0.054067354778963156
640000000.0 -0.5107428547959266 -0.16383871634722164
660000000.0 0.448442010800857 0.22412971676790652
680000000.0 -0.09117847457584208 0.47031722668028386
700000000.0 -0.42795328992506476 -0.2092615026181593
720000000.0 -0.4420821107386962 0.1099237477357868
740000000.0 0.3946493361560319 -0.19703635933526986
760000000.0 0.34198639439880557 0.26280982453502494
780000000.0 0.3188506594473259 0.27031782795221937
800000000.0 -0.05642079745430845 0.3636341374254644
820000000.0 0.28129597407035783 0.14058588056715704
840000000.0 -0.1969954388969573 0.21239587524664247
860000000.0 0.0003496201576145833 -0.26536200901030266
880000000.0 -0.1793674921767246 0.14944661772534185
900000000.0 0.040974188579430644 -0.21888373496359317
920000000.0 -0.022915363780582725 0.20349641750824174
940000000.0 0.15902116275850584 0.09246869247638798
960000000.0 -0.10489826134196546 -0.0725413253336419
980000000.0 0.07797069780715214 0.006250450417419886
1000000000.0 0.05856664922227251 0.019347325013508318
1020000000.0 -0.029706804809361553 -0.04930131821817841
1040000000.0 0.06996063917391838 -0.041270156210821925
1060000000.0 -0.12549952171314585 0.04825222266471963
1080000000.0 -0.18392356050696168 0.002818839521610065
1100000000.0 -0.1968627290693583 -0.11775585731686772
1120000000.0 0.18584112400185848 0.15979711185956916
1140000000.0 -0.09571027823192553 0.24903744291170124
1160000000.0 0.239233591751056 -0.1718868152731303
1180000000.0 0.2342972457813583 0.21573582759786242
1200000000.0 0.09056037327816273 0.3252657691342766
1220000000.0 -0.32990689664487277 -0.1169017311485672
1240000000.0 -0.16951540470001333 -0.3215719008258051
1260000000.0 -0.2543922144581098 -0.25540696912432176
1280000000.0 -0.05918711875252321 -0.3699068199559633
1300000000.0 -0.3744313675057064 -0.03962039493015057
1320000000.0 -0.10499726805196485 -0.36117327686818324
1340000000.0 0.043939435280606294 0.3695710331911069
1360000000.0 0.055333550569271486 -0.372756174051105
1380000000.0 0.35409957371741385 0.1767428021216986
1400000000.0 -0.23802715805859995 0.30023079699867217
1420000000.0 -0.17561075678150131 0.3292778559932226
1440000000.0 -0.31999853790450244 0.1842393583658673
1460000000.0 -0.36935235161154595 0.007941649160217883
1480000000.0 -0.11388598821356831 -0.3529050583700545
1500000000.0 -0.3765931355812449 0.011638023676110849
1520000000.0 -0.047473684335829804 -0.3724822597508492
1540000000.0 0.28002459311173733 0.21897773254401293
1560000000.0 0.15026481948652806 0.28735267346965215
1580000000.0 -0.2757787790827133 0.057379528919908426
1600000000.0 0.026692376948405677 -0.24677800833270574
1620000000.0 0.015973559276073388 -0.21464212943651625
1640000000.0 0.11118836822313481 0.13615136243827775
1660000000.0 -0.0007354130085182878 0.15272769498143082
1680000000.0 0.00015177132987722483 0.12015484241332346
1700000000.0 -0.09751673241483375 0.007884468045541654
1720000000.0 0.07444763897105314 0.015005838944975926
1740000000.0 0.07528986490053854 0.020917810744220208
1760000000.0 -0.07938725025134225 0.022412232995357665
1780000000.0 -0.038302001082678276 -0.09647839815219582
1800000000.0 0.06097582987547505 -0.1114085433537551
1820000000.0 -0.04626360056362766 0.15059838851061783
1840000000.0 0.07966834658899072 0.16022033849673753
1860000000.0 -0.21111514454023023 -0.05671795505702533
1880000000.0 -0.1894821212850622 0.14468867509744246
1900000000.0 -0.1768563845052784 0.19703037899956105
1920000000.0 0.27145621906508094 -0.08569604423058041
1940000000.0 -0.25904902402534785 -0.15290514941850955
1960000000.0 0.24663060948356366 0.17056435598126984
1980000000.0 -0.28935636703031353 -0.10503652654286418
2000000000.0 0.18417466853919046 -0.25591648319085875
2020000000.0 0.31747024957444314 -0.002286702405555065
2040000000.0 0.29609883723262154 0.12798586708832144
2060000000.0 0.31042473565561957 0.0792044903289792
2080000000.0 -0.12341150831119246 0.29459664755935633
2100000000.0 0.09896130010952678 -0.2994211634710428
2120000000.0 -0.3032458785278831 0.0795454832031897
2140000000.0 0.3091673850476763 0.06035736050604432
2160000000.0 -0.31053481321412624 0.056342882668015466
2180000000.0 0.14229026683775742 0.2743160502307683
2200000000.0 0.20954036470079004 0.21028992653477918
2220000000.0 -0.17176442195197902 0.23312956106348695
2240000000.0 -0.27318581450875445 -0.09851889805723692
2260000000.0 0.22758528744775686 -0.17025739718499475
2280000000.0 0.22894578784076794 0.16691957605176475
2300000000.0 0.26109636507774925 -0.10742152373394208
2320000000.0 0.20913755030610776 -0.17564796135763402
2340000000.0 0.13977345503330768 0.2166045531226071
2360000000.0 -0.14239955409121008 0.20898349458119397
2380000000.0 0.11613607680003543 -0.22114494799763346
2400000000.0 0.18916222251904252 0.17900791970483787
2420000000.0 -0.05089260496537124 0.2741840057978959
2440000000.0 0.3004804488849798 0.07653976282575209
2460000000.0 -0.3047507090021037 -0.1551624862817356
2480000000.0 -0.24733281278859934 0.2769056607612222
2500000000.0 0.12669449133952387 -0.3892594173853724
2520000000.0 0.249559965732521 0.37605684506611226
2540000000.0 -0.4822487691278923 0.08146618554541282
2560000000.0 0.32322661166126043 -0.4095971168149904
2580000000.0 -0.09607617001979933 0.5458464216449751
2600000000.0 -0.19110653356451257 -0.5505799747367115
2620000000.0 0.3784227484002688 0.47328214004935315
2640000000.0 -0.6036971416078754 -0.16097590995178118
2660000000.0 0.5642912279499829 -0.30304486047649737
2680000000.0 0.1817547264610483 0.6238670765980642
2700000000.0 -0.5198164506525818 0.4009200729894312
2720000000.0 -0.6605944674772981 0.051921061578151
2740000000.0 -0.6553455032404091 -0.10304516794724272
2760000000.0 -0.6584356145972357 -0.08232808662848821
2780000000.0 0.17981012609541988 -0.6318158537969281
2800000000.0 0.3777970665844219 -0.5273036169388504
2820000000.0 0.6227922530187028 -0.12828327695015335
2840000000.0 0.12061719251685425 0.6092737874155482
2860000000.0 -0.31846091176461916 -0.5143373058812802
2880000000.0 0.07838849930161255 0.5827713102546724
2900000000.0 0.5193847881178046 -0.22381654846596674
2920000000.0 -0.0074417483701850005 -0.5435326978631763
2940000000.0 -0.3761442568220219 -0.3566938619663415
2960000000.0 -0.32306441171801137 -0.37386510427254244
2980000000.0 -0.3848187542989412 -0.2746261248023719
3000000000.0 -0.45104834743451727 -0.04470485830904765
3020000000.0 -0.35633651475052036 0.24676544019036095
3040000000.0 0.2782473592789889 0.30776532460545153
3060000000.0 0.0893085279081861 -0.3865091114608665
3080000000.0 -0.35211273189260367 0.14725892476542565
3100000000.0 0.31704081566406517 -0.1986171658960941
3120000000.0 -0.34692313658095186 -0.11720951750020585
3140000000.0 0.23631702462940538 0.27260694338546726
3160000000.0 -0.3532307545496387 -0.08010161436733994
3180000000.0 0.35079335672781353 -0.07758294939686392
3200000000.0 -0.3408307417592611 -0.09204421923070162
3220000000.0 -0.04139256225320859 0.3424945251646473
3240000000.0 0.25612099497030383 0.2197630244439055
3260000000.0 0.32167664618562464 -0.024820089657479692
3280000000.0 0.278946418074231 0.1221808700076824
3300000000.0 0.2617084327011475 0.11361155380696489
3320000000.0 -0.007991482038690252 0.2606115234101055
3340000000.0 -0.22957235573451112 0.0042514224157661285
3360000000.0 0.12021131438728401 0.168533499648285
3380000000.0 -0.1627638506808076 -0.08574769770074947
3400000000.0 0.11212506074190251 0.11843703626457022
3420000000.0 0.02340595884661178 0.1458577598097079
3440000000.0 0.11657428277944464 0.053818880803934786
3460000000.0 -0.10411878743116801 0.013316170946039945
3480000000.0 -0.00674355137340037 -0.09621559239395597
3500000000.0 -0.005091808442420957 -0.09258766173731188
3520000000.0 0.08640874283660573 -0.040745763052717564
3540000000.0 0.07083193117180567 0.06402579841439626
3560000000.0 0.08331295263955642 -0.06406094808849355
3580000000.0 0.026974750929087157 0.10197947478501047
3600000000.0 0.04668412786853096 -0.1042394223575793
3620000000.0 -0.09879536412622338 -0.0747829211571267
3640000000.0 -0.02115961978869777 -0.1295975721342271
3660000000.0 0.12696151028516367 -0.055541685994798605
3680000000.0 0.14167888299486708 0.0035260381994927236
3700000000.0 0.11526618325965332 -0.055137354910968474
3720000000.0 0.10682898197089832 0.03763522337027705
3740000000.0 -0.07192281079756857 -0.06566266767993247
3760000000.0 0.020175478148756528 0.07281218770640781
3780000000.0 0.043315919071615604 -0.03639235166586811
3800000000.0 0.019466024561325904 -0.024770154098690263
3820000000.0 -0.003054722971701636 0.0018759897700109916
3840000000.0 -0.02191671015273026 -0.034132752503812834
3860000000.0 -0.03522804667899204 0.06016505003460482
3880000000.0 0.091883760961943 -0.022894732143807748
3900000000.0 0.0012678734298062577 0.11475164566067184
3920000000.0 -0.06912467599826959 -0.09700992417032221
3940000000.0 -0.12776279554590914 -0.04368213615031595
3960000000.0 0.09414603216648276 0.09437113505067403
3980000000.0 0.09477902695976954 -0.07997868456108842
4000000000.0 0.06388231338460665 0.07966715088951211
