!Created with skrf (http://scikit-rf.org).
# Hz S RI R 50.0 
!freq ReS11 ImS11
400000000.0 0.910176008923832 -0.07124094538024732
420000000.0 0.38872847824279444 0.7868235516318142
440000000.0 0.5276812310743143 0.667928590147416
460000000.0 -0.77598369637682 0.2456066150275587
480000000.0 0.009563466663266448 0.7844740019826985
500000000.0 0.715660426604521 0.22924916754418687
520000000.0 -0.5736030414869541 -0.43234077142557176
540000000.0 0.2731147577920901 0.6054845039500163
560000000.0 0.4395469889290275 0.4342826703817387
580000000.0 -0.31699372963294514 0.4603240158544117
600000000.0 0.5512897371214154 -0.07614128538729807
620000000.0 0.5517455279504293 0.06433264297441658
640000000.0 -0.5180469541935915 -0.14013978560328857
660000000.0 0.4240912095470322 0.26607085176281287
680000000.0 -0.09573290985514905 0.46898929240249493
700000000.0 -0.43482440464155325 -0.19554384167724137
720000000.0 -0.44643686571990293 0.08860249320189445
740000000.0 0.40994283817527266 -0.16404128218429487
760000000.0 0.3368624630566425 0.2679690637392809
780000000.0 0.3039770499120166 0.2869148451691274
800000000.0 -0.06533614465500913 0.3621985589442072
820000000.0 0.269654375793994 0.16254021206350364
840000000.0 -0.19490287817783383 0.21336470272689967
860000000.0 0.019937471312853332 -0.26530845658328106
880000000.0 -0.19238084510130904 0.13109139640878537
900000000.0 0.008910805538142727 -0.2220973386597171
920000000.0 0.015511209893149887 0.20286385369977633
940000000.0 0.16977024408221647 0.07271704260229488
960000000.0 -0.08167155878726981 -0.09618055068120598
980000000.0 0.04756966563313301 -0.06221379369227916
1000000000.0 0.06161530125529122 0.006799519478978151
1020000000.0 -0.05249089712184169 -0.022025355068660997
1040000000.0 0.04040530946593086 -0.07082081823336399
1060000000.0 -0.12138752917878584 0.06013542630225915
1080000000.0 -0.17773827316468774 -0.044284549163957916
1100000000.0 -0.21652276386015679 -0.07611643511528864
1120000000.0 0.18659696121239755 0.1602481952646646
1140000000.0 -0.10434221479593717 0.2451169682156283
1160000000.0 0.24115280667630895 -0.16866197748801506
1180000000.0 0.24371984199426822 0.20474506506017556
1200000000.0 0.04175957847765999 0.33567825071927687
1220000000.0 -0.3182949018496243 -0.14476832953281146
1240000000.0 -0.1982015676434466 -0.3046811630071127
1260000000.0 -0.2617831248249083 -0.24799100671367683
1280000000.0 -0.0409551672070941 -0.3723721065240082
1300000000.0 -0.37423600586304356 -0.040972025230271505
1320000000.0 -0.12529979256894225 -0.3552177622381523
1340000000.0 0.024654265988975792 0.37155071509427934
1360000000.0 0.04683412491834674 -0.37441678618413204
1380000000.0 0.34142969249275523 0.19931131434112268
1400000000.0 -0.23267850032802367 0.30455436662041896
1420000000.0 -0.18652513716812602 0.323364748224533
1440000000.0 -0.3464699583788423 0.12471404024991696
1460000000.0 -0.3614393329715067 0.0741464475837731
1480000000.0 -0.16076347529973306 -0.33489002032848547
1500000000.0 -0.37527161484778015 0.03733939812887456
1520000000.0 -0.015664751406297115 -0.37489952637251434
1540000000.0 0.29594148922672364 0.1966812274254782
1560000000.0 0.13714346092937335 0.2943924104992262
1580000000.0 -0.27276900976698776 0.07165644583100952
1600000000.0 0.028391255190159687 -0.24601226953778008
1620000000.0 -0.001993746802651242 -0.21511927672353523
1640000000.0 0.08010393932450212 0.15682249731851955
1660000000.0 0.028667829174650793 0.15007483786325834
1680000000.0 -0.0020552495173863966 0.12017022383560362
1700000000.0 -0.09888787744852189 -0.0010942289306256677
1720000000.0 0.05325961732849675 0.05403131134347338
1740000000.0 0.07631492974479391 0.013279212061404312
1760000000.0 -0.08238114351219637 -0.006490202495624332
1780000000.0 -0.0382578765492446 -0.09597924735003448
1800000000.0 0.05950872413138457 -0.11248710762026722
1820000000.0 -0.06482849911503398 0.14273650974327745
1840000000.0 0.09403940685013215 0.15265618188764846
1860000000.0 -0.20390214869316775 -0.07774743019647368
1880000000.0 -0.18357519356110277 0.15165554970338244
1900000000.0 -0.17608185035715856 0.19750930074193537
1920000000.0 0.2760931099164322 -0.07011772878869878
1940000000.0 -0.25939904547795267 -0.1512153800685445
1960000000.0 0.25872104073093366 0.15101973380050768
1980000000.0 -0.29309632643216016 -0.09496889308576285
2000000000.0 0.19525991077062013 -0.24842962179925118
2020000000.0 0.3162870376035159 0.028856206053877582
2040000000.0 0.3153698846801897 0.06749269973881342
2060000000.0 0.3020868392126825 0.10785069146850512
2080000000.0 -0.11986493040136602 0.29615929224008347
2100000000.0 0.1162392555423108 -0.2926437808619103
2120000000.0 -0.29108695625148584 0.11607964840585157
2140000000.0 0.29856022584061626 0.10063796411610326
2160000000.0 -0.3125633422267249 0.04304192200348868
2180000000.0 0.13028893692832805 0.2802018082470593
2200000000.0 0.1904841697374693 0.22771902427938717
2220000000.0 -0.18578842689882433 0.2217453772463721
2240000000.0 -0.2727890609735867 -0.1000896435935189
2260000000.0 0.23337975589439888 -0.1619659511636864
2280000000.0 0.23223491637776614 0.16243937712731857
2300000000.0 0.25539986617233823 -0.12044830914392012
2320000000.0 0.2014597713304756 -0.18473798038607736
2340000000.0 0.13783850684748225 0.21800919373811023
2360000000.0 -0.14423931642236218 0.20801064189422713
2380000000.0 0.10632898762517039 -0.22612402402399384
2400000000.0 0.18223292337189193 0.18638066934379643
2420000000.0 -0.04066933833482841 0.27612749266535574
2440000000.0 0.291164387802309 0.10645882969713782
2460000000.0 -0.28892268606628346 -0.18294859240008374
2480000000.0 -0.2766452178568302 0.24763459541068478
2500000000.0 0.13782474555438348 -0.38534898659516553
2520000000.0 0.23391169086043817 0.38550354672724824
2540000000.0 -0.48269755258392616 0.07843899573370233
2560000000.0 0.32660284595488803 -0.40678664467818004
2580000000.0 -0.08872923862093748 0.5470731886140694
2600000000.0 -0.19053363040413984 -0.5505314098475266
2620000000.0 0.3621674038891787 0.48597988583164553
2640000000.0 -0.6025464689490019 -0.16559956593557024
2660000000.0 0.5723006724032301 -0.2883443765999645
2680000000.0 0.22974269457077573 0.6080750416181143
2700000000.0 -0.5311631500033003 0.3865568425748142
2720000000.0 -0.6597188541572371 0.06326564305232155
2740000000.0 -0.6612852224698219 -0.0586438059279304
2760000000.0 -0.6571963405321006 -0.09255560351293751
2780000000.0 0.16273389748382708 -0.636310422346783
2800000000.0 0.38802932178619676 -0.5195415705999105
2820000000.0 0.6242469157033211 -0.11973439682418037
2840000000.0 0.11150810599625934 0.610729146922197
2860000000.0 -0.2708452115277574 -0.5401617920717161
2880000000.0 0.06057268852788496 0.5848032560405965
2900000000.0 0.5142950707515689 -0.2355001368317359
2920000000.0 0.01707457907795832 -0.54347423436803
2940000000.0 -0.37299107089905914 -0.36067260021335273
2960000000.0 -0.31593716205661654 -0.38072428524250657
2980000000.0 -0.38591553386289973 -0.27461792968839255
3000000000.0 -0.450106452054776 -0.0557954650779914
3020000000.0 -0.3492497550921552 0.25763831571859197
3040000000.0 0.27279159378844364 0.3123932316667725
3060000000.0 0.1532343247450884 -0.3656954211369407
3080000000.0 -0.35952779059275813 0.1288043759142616
3100000000.0 0.33978636149329783 -0.15667298420291795
3120000000.0 -0.29296831650109917 -0.21823771923423996
3140000000.0 0.22396734848333127 0.2820441229873367
3160000000.0 -0.35041792359318014 -0.09076223760055305
3180000000.0 0.3449669497631901 -0.09998496987143007
3200000000.0 -0.34520241291115167 -0.07318439610914221
3220000000.0 -0.01222766144756103 0.34470189439097576
3240000000.0 0.2692433532148652 0.2037235587545279
3260000000.0 0.319246417677639 -0.046409834634373814
3280000000.0 0.2800701111365275 0.123125802973609
3300000000.0 0.2549349073692573 0.13047625466013396
3320000000.0 -0.004443110309820744 0.26057304990687746
3340000000.0 -0.22612849543506927 -0.04198422049501064
3360000000.0 0.08586170155890588 0.18860111777028984
3380000000.0 -0.1527281723506644 -0.10257951439364385
3400000000.0 0.10490930633557839 0.12490640114485811
3420000000.0 0.012775427214079012 0.14697044215362512
3440000000.0 0.12691694979899923 0.018824850884085607
3460000000.0 -0.10196580051197097 0.023814716698954182
3480000000.0 -0.027370271089048697 -0.09235204323844466
3500000000.0 -0.025011237085425807 -0.08910016598306614
3520000000.0 0.06649500546473647 -0.06877875751031104
3540000000.0 0.07406694585644567 0.060577417659623434
3560000000.0 0.07838876825274202 -0.07064645844934726
3580000000.0 0.03351997230677503 0.1007618161916893
3600000000.0 0.04100165163079799 -0.10627773605621338
3620000000.0 -0.09731713854652636 -0.076320624057248
3640000000.0 -0.04282152985627097 -0.12384043139541633
3660000000.0 0.1265412057213306 -0.05617857670804601
3680000000.0 0.14135471852692486 0.009123928829317896
3700000000.0 0.1175293198191208 -0.049386595977724455
3720000000.0 0.08929717764438184 0.06943254286765073
3740000000.0 -0.07235345260024603 -0.06482706896448731
3760000000.0 0.01787355307498614 0.07376161364437982
3780000000.0 0.0328349578675287 -0.045789544787800764
3800000000.0 0.02636983041725631 -0.017806611684441587
3820000000.0 0.0012889360526358894 0.003464213716877606
3840000000.0 -0.020121912987606166 -0.035201946291906004
3860000000.0 -0.037392098200708004 0.05886735214129395
3880000000.0 0.0870912754728522 -0.03618064077193093
3900000000.0 0.014871268709095085 0.11362923353071858
3920000000.0 -0.06183686053408901 -0.10218565908216781
3940000000.0 -0.12907737808832742 -0.0395649087577852
3960000000.0 0.09150077201463339 0.09702356628337132
3980000000.0 0.09520725405878121 -0.07868736560971414
4000000000.0 0.041794280083654 0.09229830689739943
