!Created with skrf (http://scikit-rf.org).
# Hz S RI R 50.0 
!freq ReS11 ImS11
400000000.0 0.9057712352246595 -0.11330637969903148
420000000.0 0.3989401030020704 0.7818816782237763
440000000.0 0.4819311939377931 0.702373178447929
460000000.0 -0.7749205086120317 0.2502361938410854
480000000.0 0.011672171776223596 0.7842169554768753
500000000.0 0.7101209766227367 0.24726964226066375
520000000.0 -0.5470468922524224 -0.4650851542116547
540000000.0 0.16985786793645974 0.6428413004061723
560000000.0 0.4314837773397527 0.44270268622677444
580000000.0 -0.26046953610320783 0.4943521365326296
600000000.0 0.5510523413700371 -0.07575110447256289
620000000.0 0.5478767338269294 0.08638676451330268
640000000.0 -0.4962794730090697 -0.2031724854538785
660000000.0 0.42341742366364643 0.26760800055376127
680000000.0 -0.09500496800606119 0.46852763166524863
700000000.0 -0.4406343110144871 -0.1794624244882619
720000000.0 -0.4419692256549916 0.10705284993947606
740000000.0 0.3913686261436659 -0.20456679487511895
760000000.0 0.3273770658575527 0.2796579845204395
780000000.0 0.29220928992375295 0.29889974956374543
800000000.0 -0.0677292762057036 0.3616534001311133
820000000.0 0.2831650057350821 0.1374149255452168
840000000.0 -0.19551434228616382 0.2125318032636208
860000000.0 -0.015949096733708756 -0.26549351229254287
880000000.0 -0.1778135779498163 0.14930352354243226
900000000.0 -0.000504799213119092 -0.22241062514468343
920000000.0 -0.030478027188725984 0.20104083252589197
940000000.0 0.18305324466541356 0.02627984722715984
960000000.0 -0.04447721440735695 -0.11866567654530857
980000000.0 0.06850269611659694 -0.03851217250103049
1000000000.0 0.05983875773140542 -0.01573203954751463
1020000000.0 -0.03155741752677537 -0.04755141457785098
1040000000.0 0.008482382851183587 -0.0811104584401626
1060000000.0 -0.1287309406682557 0.04162418893816033
1080000000.0 -0.1836963044277828 0.0020218457402874936
1100000000.0 -0.19845250870294914 -0.11406047752281744
1120000000.0 0.21131628011635972 0.12572774046001448
1140000000.0 -0.08596798271879337 0.252619541732754
1160000000.0 0.24038185965645445 -0.1699829291553027
1180000000.0 0.23069117041261383 0.21909983992589055
1200000000.0 0.07548044975574708 0.32953887809822696
1220000000.0 -0.3128900988256293 -0.1563285148635352
1240000000.0 -0.16664224268504796 -0.3227065353217457
1260000000.0 -0.2629757540891781 -0.2462194194681082
1280000000.0 -0.03576130644940483 -0.37307624656717053
1300000000.0 -0.3760662622902032 -0.02374958988078758
1320000000.0 -0.11538290630341252 -0.35782801275999937
1340000000.0 0.03239833917690463 0.37095366180486455
1360000000.0 0.06530132712923739 -0.372332839437941
1380000000.0 0.3335875132762313 0.21318817676386803
1400000000.0 -0.26927774710731495 0.2723275063086315
1420000000.0 -0.21540363574930518 0.30489793248135166
1440000000.0 -0.33912165944707534 0.14464469600924534
1460000000.0 -0.36723564584643553 0.03055159098099282
1480000000.0 -0.12207706455122853 -0.35049056055753436
1500000000.0 -0.37691785192519733 0.00516680055657313
1520000000.0 -0.04276676234129269 -0.3728507484499173
1540000000.0 0.3105767293596792 0.17206639254400083
1560000000.0 0.15440378485487496 0.2858563785819044
1580000000.0 -0.2727893257105387 0.06964715392516592
1600000000.0 0.03473203676796022 -0.24553708296834054
1620000000.0 -0.013383691037816255 -0.214996175427457
1640000000.0 0.08813663951834422 0.15282786321387787
1660000000.0 0.017962703065292678 0.151894694926549
1680000000.0 -0.03508870631213919 0.11539893655339005
1700000000.0 -0.09838589226392248 0.009236301047438293
1720000000.0 0.06446841233078052 0.04028333634107844
1740000000.0 0.07735621033463101 0.007059594313415754
1760000000.0 -0.08188438945807822 -0.011457170316769018
1780000000.0 -0.024699390238036602 -0.10026982887626687
1800000000.0 0.0829135640427654 -0.09666966737250432
1820000000.0 -0.09331218142101178 0.12590761613821438
1840000000.0 0.08472974331147749 0.1573639520406606
1860000000.0 -0.20460775627632855 -0.07524245599828722
1880000000.0 -0.1737012016329506 0.1631296416205343
1900000000.0 -0.184146588533002 0.1897214228838091
1920000000.0 0.2673421131855927 -0.09750903617932472
1940000000.0 -0.26740922765714525 -0.13732042476697687
1960000000.0 0.2620502170919564 0.14599657314635442
1980000000.0 -0.2924431128692526 -0.09771124131252198
2000000000.0 0.21258588747641385 -0.23470260168394588
2020000000.0 0.3175803458991177 0.0067550576688174485
2040000000.0 0.2945898076614075 0.13248691960709452
2060000000.0 0.2953606982252762 0.12445465660057477
2080000000.0 -0.11865092049505521 0.29666428791137595
2100000000.0 0.12772266537197927 -0.2878379611404401
2120000000.0 -0.29817333775063787 0.0954045881769291
2140000000.0 0.30885407086336186 0.06077016633195493
2160000000.0 -0.3114704125524929 0.04728485684819185
2180000000.0 0.13741167595702325 0.27651074580476626
2200000000.0 0.2163918353944713 0.2033038458992687
2220000000.0 -0.1717835570119005 0.23301504549986607
2240000000.0 -0.28106678694796133 -0.07539580540885643
2260000000.0 0.23396555837210628 -0.16162740835495187
2280000000.0 0.2316995596960122 0.16369451132016388
2300000000.0 0.25793122481799974 -0.11581941813302121
2320000000.0 0.21507493805182762 -0.16886683679719872
2340000000.0 0.12677557659645283 0.22457318187854053
2360000000.0 -0.1427827216728517 0.20856226673741177
2380000000.0 0.10716426431653903 -0.22547584169055723
2400000000.0 0.19194168111402152 0.17602241243383734
2420000000.0 -0.058959691024383934 0.27286467649252283
2440000000.0 0.273414335094004 0.14608837470093158
2460000000.0 -0.27440119325987605 -0.2034207785569493
2480000000.0 -0.2721835991854695 0.25231110909147264
2500000000.0 0.10444367154426866 -0.39613786085557534
2520000000.0 0.24035716121667403 0.38221836614741217
2540000000.0 -0.47948903266650234 0.0981695614410864
2560000000.0 0.33293936489497183 -0.401993983248609
2580000000.0 -0.11974477300490977 0.5412544254337635
2600000000.0 -0.17496184354375513 -0.5558312820002395
2620000000.0 0.36954128383246426 0.48036694757016857
2640000000.0 -0.5958666940845947 -0.1876148403719149
2660000000.0 0.5676523381570706 -0.2964531189880825
2680000000.0 0.1937646946566372 0.6203955174501458
2700000000.0 -0.524175211284537 0.3956839010982435
2720000000.0 -0.6620285980378705 0.03643701318177484
2740000000.0 -0.6472210806173736 -0.14782379753273703
2760000000.0 -0.6469681491501408 -0.14891496268337934
2780000000.0 0.21215240136300728 -0.6220102690221755
2800000000.0 0.4049998144135807 -0.5065927430000263
2820000000.0 0.6288058368903997 -0.09334445677631473
2840000000.0 0.0808555224406027 0.6154287329998068
2860000000.0 -0.24479404113662423 -0.552146265932426
2880000000.0 0.06117385196509101 0.5843047212282529
2900000000.0 0.5199004488138649 -0.2224061300535707
2920000000.0 0.03505858476029998 -0.5426576813251821
2940000000.0 -0.3504865577565048 -0.3823929750815336
2960000000.0 -0.35058043489572277 -0.3486121562115095
2980000000.0 -0.39080162335701574 -0.2682074479408657
3000000000.0 -0.4498171565863265 -0.056244015641444635
3020000000.0 -0.3526200001705888 0.2529830921872305
3040000000.0 0.2804447074829385 0.30616994034188094
3060000000.0 0.13704824433976265 -0.3726633181574022
3080000000.0 -0.3529698370112564 0.14598699569256351
3100000000.0 0.34943429202275217 -0.13364378266673554
3120000000.0 -0.2805340099499113 -0.23338569932183692
3140000000.0 0.2262278470536612 0.2801504995163253
3160000000.0 -0.34823894102196595 -0.09823617965205833
3180000000.0 0.35210778726102426 -0.06909934805838482
3200000000.0 -0.34659026343202926 -0.0652028465028958
3220000000.0 -0.03988673383439331 0.3434431002098398
3240000000.0 0.27882332687735684 0.18998270684158067
3260000000.0 0.31724942029816355 -0.058398946586960855
3280000000.0 0.2769552794024505 0.13059066864137478
3300000000.0 0.2417664704394021 0.15362860643807374
3320000000.0 -0.03925314433363746 0.2583930282168592
3340000000.0 -0.22394492804381283 -0.05282659919565619
3360000000.0 0.13707493165686702 0.1541905028177944
3380000000.0 -0.13942921796584748 -0.11997415319376527
3400000000.0 0.09892524142119177 0.1294440254173612
3420000000.0 0.008444259878124964 0.14714091658743844
3440000000.0 0.1255154573007528 0.025071876405634165
3460000000.0 -0.10316516095716688 0.016351036899392716
3480000000.0 -0.012919973411882193 -0.09502624199672184
3500000000.0 -0.030963384692832545 -0.08702462956798805
3520000000.0 0.05900670368212895 -0.07541885649846451
3540000000.0 0.0808658624804272 0.05134795905449895
3560000000.0 0.067542639358839 -0.08135878352214888
3580000000.0 0.02956365594050582 0.10179656007568025
3600000000.0 0.030060876932767336 -0.11003483035400737
3620000000.0 -0.0936505102483946 -0.0811436237802679
3640000000.0 -0.03240664120812513 -0.12738615676835485
3660000000.0 0.1376335875751332 -0.016430900607866988
3680000000.0 0.14153567074411022 0.006310372466276034
3700000000.0 0.11475658228032526 -0.05521575218249707
3720000000.0 0.09087060554903158 0.06687336038184256
3740000000.0 -0.07047769482146442 -0.06681735193345477
3760000000.0 0.033813712150245076 0.06779332373939678
3780000000.0 0.01387225920909865 -0.05502756388758267
3800000000.0 0.010453090715128652 -0.03024072783134081
3820000000.0 0.002945708550215911 0.0011203567257047323
3840000000.0 -0.019959271300306808 -0.03513825015518342
3860000000.0 -0.03759783981892384 0.05825628879891405
3880000000.0 0.08154477870123562 -0.046787203465147836
3900000000.0 0.026084374408692212 0.11137165875727811
3920000000.0 -0.07552755920823001 -0.09219538189160927
3940000000.0 -0.12929902931541462 -0.038540332629879
3960000000.0 0.09883703042394366 0.08945459655282599
3980000000.0 0.09589650632161459 -0.07814527055697494
4000000000.0 0.05767767811258199 0.08377724896497615
