!Created with skrf (http://scikit-rf.org).
# Hz S RI R 50.0 
!freq ReS11 ImS11
400000000.0 0.9049493701686743 -0.11785282241590864
420000000.0 0.3596752461762177 0.8006176529802678
440000000.0 0.49454177697201807 0.6933776350629108
460000000.0 -0.7637406725640155 0.2797865890083324
480000000.0 0.002713501983150411 0.7843672572249369
500000000.0 0.7182426401246969 0.2212144890863468
520000000.0 -0.5435978976501273 -0.4686135257410205
540000000.0 0.2485338530282312 0.6167079273386827
560000000.0 0.39091134928107396 0.4788090472209559
580000000.0 -0.24106592080204509 0.5046900668590957
600000000.0 0.5524866759656316 -0.06611387106946025
620000000.0 0.5460491397836779 0.0981733573585797
640000000.0 -0.5070532980851887 -0.1733345615709754
660000000.0 0.4035918730251623 0.2965032960884872
680000000.0 -0.05396639196292726 0.4744586415614116
700000000.0 -0.4480745447619237 -0.16093514478809146
720000000.0 -0.4457538648143463 0.08846182965723162
740000000.0 0.39680869726454127 -0.19390825565019928
760000000.0 0.35214734402945524 0.2474156344354816
780000000.0 0.30378715177195764 0.2876632400746504
800000000.0 -0.059064816101284175 0.36274953947318883
820000000.0 0.25984529587302135 0.1789322837712938
840000000.0 -0.1592386915925968 0.24120446040330276
860000000.0 0.034853639294439125 -0.263715409965477
880000000.0 -0.14542923675184344 0.18154939030630218
900000000.0 0.026377035296758285 -0.2211897337109987
920000000.0 0.002154397338504218 0.20333995503105648
940000000.0 0.139807620132495 0.12069551441845346
960000000.0 -0.10014502403685409 -0.0764009085839838
980000000.0 0.07259243779088952 -0.03037296024378518
1000000000.0 0.06212783033960733 0.0013629252095036374
1020000000.0 -0.03603496087609206 -0.043349866275889624
1040000000.0 0.007138590188352629 -0.081418336919167
1060000000.0 -0.1225404480020905 0.05692256370061302
1080000000.0 -0.18358907956522827 -0.001421982677212406
1100000000.0 -0.20468716486868338 -0.1017936451713297
1120000000.0 0.20629181372323646 0.13426498964628875
1140000000.0 -0.10967236619746526 0.24288304061999788
1160000000.0 0.23139566792317343 -0.18180352631375052
1180000000.0 0.21150516736448638 0.2372602054519778
1200000000.0 0.0567172282011141 0.3333745318910099
1220000000.0 -0.2897129438291929 -0.19478283144290598
1240000000.0 -0.183021681729344 -0.3138363585301055
1260000000.0 -0.24951931620373544 -0.2601286315093729
1280000000.0 -0.04714235564723969 -0.37151063767947773
1300000000.0 -0.3754043864760525 -0.025238625770742526
1320000000.0 -0.11607042090265632 -0.35841853885068414
1340000000.0 0.026057057976891645 0.3715352421007735
1360000000.0 0.05090572683055259 -0.374440522850955
1380000000.0 0.30482368720909325 0.25171859228684146
1400000000.0 -0.23800467611927364 0.30069375098396056
1420000000.0 -0.25097001632632127 0.2764186458620837
1440000000.0 -0.3322049520454959 0.15839961217364334
1460000000.0 -0.3669590325041443 0.036844314203125485
1480000000.0 -0.060517180830292554 -0.3675318349616488
1500000000.0 -0.37714530367034 -0.009225881407094986
1520000000.0 -0.05680824621990898 -0.37080615640608533
1540000000.0 0.2861986180235615 0.21106462308663584
1560000000.0 0.18299091670042147 0.26841793803877684
1580000000.0 -0.2750246404297768 0.06267900531308256
1600000000.0 0.029768295106314048 -0.24596402891098745
1620000000.0 0.0019868357858772493 -0.21545411722328955
1640000000.0 0.08144257645175411 0.15639606468281197
1660000000.0 0.023806168537709668 0.150776487598046
1680000000.0 -0.017066638589865134 0.11879947875660153
1700000000.0 -0.09852004258173336 -0.011248543618612014
1720000000.0 0.05830322801875939 0.048382295392069556
1740000000.0 0.07746149377933594 0.007436299913137547
1760000000.0 -0.08138756513121942 -0.012214918535011846
1780000000.0 -0.051296906058715584 -0.08968895671149825
1800000000.0 0.08283246258678449 -0.09624852976390542
1820000000.0 -0.06738006342413659 0.14130074779377363
1840000000.0 0.09409822544664372 0.15210173082684864
1860000000.0 -0.20955357885052042 -0.060818470939754524
1880000000.0 -0.18120944086603835 0.15453724463387877
1900000000.0 -0.16398659671190954 0.207859481333955
1920000000.0 0.2739073003156382 -0.07974955563400427
1940000000.0 -0.2671534046161089 -0.1370188906782689
1960000000.0 0.2573991034646367 0.15394334201951787
1980000000.0 -0.295912094100064 -0.08685333251854584
2000000000.0 0.2022708490192891 -0.2429443035869366
2020000000.0 0.3117918268337028 0.06088991523615442
2040000000.0 0.30335072640343785 0.10941502525709801
2060000000.0 0.29547107627114105 0.12481943154414715
2080000000.0 -0.15090119253696643 0.2813449070843197
2100000000.0 0.09466199806221362 -0.30028834261868936
2120000000.0 -0.29235992380237574 0.11308570237658831
2140000000.0 0.30856510900290346 0.06227608157553352
2160000000.0 -0.3081091633609772 0.06647903204422104
2180000000.0 0.142505358567027 0.27425851344724156
2200000000.0 0.19973903303726862 0.21973961973164402
2220000000.0 -0.17294337273899743 0.23245096849242927
2240000000.0 -0.2763949228806816 -0.09043772583088638
2260000000.0 0.2405694673884502 -0.15189694308907253
2280000000.0 0.22692384753132255 0.16980484998249237
2300000000.0 0.26566672623376336 -0.09646944806036829
2320000000.0 0.2127589178805504 -0.1714490164410344
2340000000.0 0.12236101189439103 0.2268380211515741
2360000000.0 -0.16323819633250825 0.1929374083687447
2380000000.0 0.0836317387367339 -0.23512712874872055
2400000000.0 0.18457695091472529 0.1838688455343548
2420000000.0 -0.05073470937372219 0.2742623586090627
2440000000.0 0.28784603250456586 0.11506519842171792
2460000000.0 -0.2993920115831254 -0.1656483016565745
2480000000.0 -0.2655178232430232 0.25964579651091285
2500000000.0 0.15498427732000197 -0.37878583216150685
2520000000.0 0.22177092637846318 0.3926916066493063
2540000000.0 -0.4836430546794769 0.07272325268853345
2560000000.0 0.3409262800371261 -0.39495967240664126
2580000000.0 -0.11383776576444243 0.5424429513682693
2600000000.0 -0.17070892679973523 -0.5567590176218299
2620000000.0 0.33072570807106494 0.5078541110635836
2640000000.0 -0.5924924430379311 -0.1984159814943076
2660000000.0 0.5713316198359726 -0.28969912909994794
2680000000.0 0.20451865280058285 0.6167250046359628
2700000000.0 -0.5126204971944902 0.411034322657513
2720000000.0 -0.6625682700305073 0.024991560125490645
2740000000.0 -0.6489908118505585 -0.1389608463024017
2760000000.0 -0.6491541657717289 -0.13840644532752275
2780000000.0 0.19869809524234888 -0.6262582985403277
2800000000.0 0.4116637631529949 -0.50114137116191
2820000000.0 0.6279893733729499 -0.09811936943828894
2840000000.0 0.08895822004114187 0.6143291640612701
2860000000.0 -0.2581526935324758 -0.5460127243750635
2880000000.0 0.08255435170623165 0.581655167218741
2900000000.0 0.515233357844039 -0.23383785446345762
2920000000.0 0.005599258199158385 -0.5432405218526547
2940000000.0 -0.38224343545083594 -0.35072102016762075
2960000000.0 -0.333126249125936 -0.36552636225263535
2980000000.0 -0.37801255801318406 -0.28487273774501615
3000000000.0 -0.44841133350948215 -0.06559384468451564
3020000000.0 -0.31356748585111466 0.29954150820651815
3040000000.0 0.22345750613969484 0.3497213275151965
3060000000.0 0.12044518525191099 -0.37796208291388417
3080000000.0 -0.3604056777251005 0.1265365243550568
3100000000.0 0.3661097081683555 -0.0764863378505013
3120000000.0 -0.32422534986933566 -0.16926474750230702
3140000000.0 0.24065428235543188 0.26823554512424164
3160000000.0 -0.35558159367971526 -0.06747651170232148
3180000000.0 0.3452329501649279 -0.0983800447945067
3200000000.0 -0.3444777082388642 -0.0755257789969652
3220000000.0 -0.02525043283097394 0.344704885454233
3240000000.0 0.27783597692542056 0.19120635405389977
3260000000.0 0.32011363868072823 -0.04091969124358827
3280000000.0 0.27595179578200735 0.13195815511343534
3300000000.0 0.23753341075093318 0.15995505116308192
3320000000.0 -0.017828119799522615 0.2600726781988968
3340000000.0 -0.22252097653281636 -0.058563339568592415
3360000000.0 0.06358179237526318 0.19704458189379828
3380000000.0 -0.14519319384784907 -0.11256679072110967
3400000000.0 0.10679004991585032 0.12291005936326846
3420000000.0 0.00887359598116471 0.14725035153204225
3440000000.0 0.1280316569272809 0.008355888939404936
3460000000.0 -0.10244787296759836 0.020614535970982742
3480000000.0 -0.03217346962323073 -0.090351741713393
3500000000.0 -0.03188542279567858 -0.08671119031258641
3520000000.0 0.06320834705763474 -0.07167461368503672
3540000000.0 0.05863093240413718 0.07577774803424851
3560000000.0 0.07155848317866442 -0.07785132489139356
3580000000.0 0.020056126902298074 0.10429048432733691
3600000000.0 0.055053459013791564 -0.1005920361083901
3620000000.0 -0.06786746872199792 -0.10428932843126933
3640000000.0 -0.02077337697861841 -0.12943741736914147
3660000000.0 0.13680046411544855 -0.021115661491866146
3680000000.0 0.1411279246527148 -0.004032895228548281
3700000000.0 0.11576576217400862 -0.05291691792885623
3720000000.0 0.08937042764267675 0.06903194243686062
3740000000.0 -0.08063762203326053 -0.05426539738301183
3760000000.0 0.027330120865981897 0.07042640293179006
3780000000.0 0.00628866580696383 -0.05669629053790994
3800000000.0 0.01431729821610132 -0.028800600562128877
3820000000.0 0.0025136237326811124 0.0021438655409578293
3840000000.0 -0.02459495179755637 -0.03202251582601549
3860000000.0 -0.029269109632903342 0.06287609480217235
3880000000.0 0.07688107953451052 -0.054329047677673305
3900000000.0 0.01925211006608969 0.11295952669526028
3920000000.0 -0.059320664853289816 -0.10364100361941729
3940000000.0 -0.13392910420292498 0.01745934815615939
3960000000.0 0.11245239958142166 0.07218931688034567
3980000000.0 0.10173914424856888 -0.07032337830476953
4000000000.0 0.04824301805403933 0.08940233088100025
