!Created with skrf (http://scikit-rf.org).
# Hz S RI R 50.0 
!freq ReS11 ImS11
400000000.0 0.7285344452581575 -0.5519549472746629
420000000.0 0.8634152329196715 -0.10031447748969193
440000000.0 0.13551191987787117 0.8208532844536027
460000000.0 -0.5771396850380264 -0.552863220668922
480000000.0 0.09032920285613978 -0.775131454361829
500000000.0 -0.5302872801939014 0.5671218327156375
520000000.0 0.6687517834797788 0.27181002730447323
540000000.0 0.08102367646198595 -0.6832429959328399
560000000.0 -0.44628450192677854 0.47390361853543966
580000000.0 -0.5289078864822641 0.18817554833222136
600000000.0 -0.4592877507596841 0.35167328572225237
620000000.0 -0.2206955566427338 0.5176379563104084
640000000.0 0.15966914122726908 -0.5221369605051469
660000000.0 -0.13951082732120756 -0.5083399193041698
680000000.0 -0.47615472684592247 0.1255116874905855
700000000.0 0.022534473982006167 -0.48048949022291215
720000000.0 0.4690053635954278 0.10435890170294368
740000000.0 -0.27160064285575436 0.3740195925922237
760000000.0 -0.4286847576812116 -0.1297342951374192
780000000.0 -0.4287582187066102 -0.06839118363658736
800000000.0 -0.3805839394490186 -0.06891548741569048
820000000.0 -0.22110714092199885 0.2566995686513893
840000000.0 -0.06555372166493662 -0.31069591521015033
860000000.0 0.20285962305292426 -0.19187657416326642
880000000.0 -0.21022583985290114 0.15063877945475976
900000000.0 -0.0870242039032508 -0.2321922825229989
920000000.0 0.14592471782823976 0.16468238557435977
940000000.0 0.19690469671373 0.04259548886365326
960000000.0 -0.11642467770463888 0.0952812668897099
980000000.0 -0.09702770489718997 0.03934402281502335
1000000000.0 0.07241165519207142 -0.021665089870024277
1020000000.0 -0.0799376975095241 0.002781633950833582
1040000000.0 -0.08698640904034827 -0.04388076114283334
1060000000.0 -0.13151843593854515 0.02149811574928852
1080000000.0 -0.09666018240085207 -0.15807595791803106
1100000000.0 -0.05447349940867763 0.2179704871413136
1120000000.0 0.07430201992641951 -0.2589669134975951
1140000000.0 -0.27447290511393535 0.05478897194248911
1160000000.0 0.26283584149318817 0.1473236219305149
1180000000.0 0.23590969389374913 0.23082747558590777
1200000000.0 -0.09937036271062015 0.33634764968143194
1220000000.0 -0.33949679572148644 0.09436186390983738
1240000000.0 -0.044810851734788486 -0.35718224670325754
1260000000.0 -0.2881561316692049 -0.21461491336325014
1280000000.0 0.3632474818890368 -0.04513334173052501
1300000000.0 -0.07852574140080293 -0.37561284231209874
1320000000.0 0.2925334334150268 -0.22680962060433255
1340000000.0 -0.37980297581996453 -0.0015769299884168344
1360000000.0 -0.13532770285685541 -0.35790530595994235
1380000000.0 -0.05950517443223186 0.3771770763157028
1400000000.0 0.25236046106395926 -0.29633916541932914
1420000000.0 -0.36840103140366576 -0.11625407341945032
1440000000.0 -0.10919590009945501 -0.35996891349182397
1460000000.0 -0.1758562871791187 -0.33207590939240583
1480000000.0 -0.3698221283035132 -0.06679293069363677
1500000000.0 -0.3789616864324145 0.014539729167845895
1520000000.0 0.32323309801985783 -0.18938779294539634
1540000000.0 -0.1514963288955334 0.32677764439412355
1560000000.0 -0.32986413467468634 -0.04449304326965927
1580000000.0 -0.25779809070710397 0.14563942918669381
1600000000.0 -0.25415345672990497 0.04128797006143415
1620000000.0 -0.21341780883348682 -0.013735682432085838
1640000000.0 0.14354039132018148 0.10867428541596046
1660000000.0 -0.0649304719147726 0.13526424552499028
1680000000.0 -0.029347810938849157 0.11645216177206578
1700000000.0 -0.09023997080103449 0.03852880279884394
1720000000.0 0.04728597915061921 -0.06996966526356005
1740000000.0 0.05052065511274953 0.04594571225247484
1760000000.0 0.04470806254053094 0.07887351054282465
1780000000.0 -0.08498213395098439 0.05604556689565133
1800000000.0 0.09620713224701088 0.08282631294540378
1820000000.0 0.10116649829840159 0.12363058190151924
1840000000.0 0.1741372104685637 0.06273393159456878
1860000000.0 0.1362683155271507 -0.16471085579884187
1880000000.0 -0.23521608890472623 -0.07643646859980424
1900000000.0 -0.26425520978068506 -0.009647970486951377
1920000000.0 0.262056251013784 0.1249813577006889
1940000000.0 -0.11414632072552613 -0.27676961383234294
1960000000.0 0.26233984884278205 0.1641817880425625
1980000000.0 -0.3081239409007692 0.07598030139342729
2000000000.0 -0.14385258354049535 -0.2879896687281022
2020000000.0 0.05342456456720772 -0.3166725608080226
2040000000.0 0.3170848367534165 -0.06102517536890259
2060000000.0 0.2607131868147851 0.1943998233965619
2080000000.0 0.2739092339548967 0.17204486494216242
2100000000.0 -0.014151901185242802 -0.3155816181021495
2120000000.0 -0.2619556679321533 0.1693257708788147
2140000000.0 0.2781467448853821 -0.1411191414622803
2160000000.0 -0.30592723919828724 -0.05521220505239568
2180000000.0 0.039686615883567956 0.30282640037169095
2200000000.0 0.2092556163363598 0.20557849693299898
2220000000.0 0.01933388538006502 0.2834723369379041
2240000000.0 -0.2336112232904521 -0.14872790468146307
2260000000.0 0.13376863309077877 0.2404565859075193
2280000000.0 0.12269410554899911 0.24395484163012648
2300000000.0 -0.27515316048588206 -0.006687821158797927
2320000000.0 -0.25121069669987783 0.1023768423795761
2340000000.0 -0.23542473400079345 -0.10802478047468599
2360000000.0 0.15043908754545113 -0.20732768340450686
2380000000.0 0.0678200442538899 0.25000927139791784
2400000000.0 -0.05405350164836011 0.2613890027998921
2420000000.0 -0.25046161218011187 0.14654086666262744
2440000000.0 0.30520127096534916 0.06678701514165301
2460000000.0 -0.14623626106953938 -0.308189729028816
2480000000.0 -0.2746588743767304 0.24769492283152852
2500000000.0 0.3349042931795476 -0.22606430544403822
2520000000.0 -0.015480405108018291 0.44618233827950227
2540000000.0 -0.2950620454945993 -0.37728698232518115
2560000000.0 0.48444509901567007 0.17581448728300586
2580000000.0 -0.5366018564037514 0.10843916516912451
2600000000.0 0.46480363211030906 -0.3399279312964939
2620000000.0 -0.3983941323697339 0.4445460957371314
2640000000.0 0.2816460512007638 -0.5515677113493348
2660000000.0 0.2927086329993443 0.5645822475155785
2680000000.0 -0.6357321853782795 0.11623890300112728
2700000000.0 -0.20802852756001416 -0.6224739785795234
2720000000.0 0.22980369016091368 -0.6233506826349092
2740000000.0 0.2965971811039993 -0.5983251493006421
2760000000.0 0.46575159095829377 -0.480380825466553
2780000000.0 0.3698043340266778 0.5527592149812246
2800000000.0 0.2166495619048341 0.6207864325910516
2820000000.0 -0.247311137647323 0.5972116422948847
2840000000.0 -0.6166854650249557 -0.13551454401950483
2860000000.0 0.5468163114687954 -0.2858708898526256
2880000000.0 -0.5184741861730224 0.29735583697928386
2900000000.0 0.4671123348977758 0.3336847554374821
2920000000.0 0.43118925358757165 -0.34776163264077153
2940000000.0 -0.18794382515269334 -0.4935062540501136
2960000000.0 -0.2659696956992255 -0.42431396458407444
2980000000.0 -0.3181567233224182 -0.353288000830793
3000000000.0 -0.32487578218724966 -0.32141306531550534
3020000000.0 -0.42039643396797244 -0.10174108885118893
3040000000.0 -0.3769129624667234 0.1891927668226038
3060000000.0 0.3842342986578127 0.11834405856293978
3080000000.0 -0.08378636844495795 -0.38119270799084326
3100000000.0 -0.04824724568024408 0.37537102436291137
3120000000.0 0.2628843702772813 -0.2687328374871411
3140000000.0 -0.10489824481856791 0.3500698102425531
3160000000.0 0.13388497702828642 -0.34032175424356725
3180000000.0 0.22709986576144048 0.2825070034266726
3200000000.0 -0.0020336679831369784 -0.3543849832849505
3220000000.0 -0.21004006682846466 0.2772482539319206
3240000000.0 -0.15525171580556957 0.3011867817005788
3260000000.0 0.32295990508212524 -0.009484618224829378
3280000000.0 0.021992914964081386 0.30524971712385945
3300000000.0 0.21688773003493075 0.19413339687016026
3320000000.0 -0.06964619486991613 0.2544052519116932
3340000000.0 -0.021850911278485177 -0.23503648963518234
3360000000.0 -0.025835466090054094 0.21172300827178328
3380000000.0 -0.17340264091679222 -0.08067128517752821
3400000000.0 0.014401522331545402 0.16949519494206117
3420000000.0 0.008982316346796977 0.1564026849977074
3440000000.0 0.10783856737850883 0.08245040381903584
3460000000.0 -0.09578715775632321 -0.051344045784998085
3480000000.0 0.04463389146928819 0.09342451107332239
3500000000.0 -0.10135333369894368 -0.017543484670474476
3520000000.0 0.0843984410325089 0.03293324244735354
3540000000.0 0.021323123469586258 -0.0960347110945417
3560000000.0 -0.025428800442421382 0.10020572540460544
3580000000.0 0.09089611483064806 -0.057251872821431536
3600000000.0 0.0700971604727913 -0.08835618557868737
3620000000.0 0.057342331778401485 0.11290500865440332
3640000000.0 0.13134263363237608 -0.006556998675883139
3660000000.0 -0.06683859182035727 0.12531054992336366
3680000000.0 0.06788658900815607 0.1298751265191437
3700000000.0 -0.1265104638196188 0.041604021968160224
3720000000.0 0.11104342797677602 0.04104203432374263
3740000000.0 0.002506087880241454 -0.10080363373089475
3760000000.0 0.00881568481252399 -0.08061748839972353
3780000000.0 0.05585432747459994 0.029555464822139527
3800000000.0 0.03555616504487968 -0.0011209880160661344
3820000000.0 0.0038897356598277893 0.004165074402988068
3840000000.0 0.008577783141003707 -0.0375313930222702
3860000000.0 -0.03171842559925134 -0.06412907004513221
3880000000.0 0.07642921709543148 -0.05318026463169845
3900000000.0 0.08892200336309442 -0.06804504898700049
3920000000.0 0.1079399893159037 -0.06338999684676014
3940000000.0 0.08178178488213639 -0.10567596418571143
3960000000.0 -0.046628017629108495 -0.12572207682147857
3980000000.0 -0.04518388793051047 0.12289038021686986
4000000000.0 0.08393404136948077 0.06599004297155668
