!Created with skrf (http://scikit-rf.org).
# Hz S RI R 50.0 
!freq ReS11 ImS11
400000000.0 0.0310902224463603 0.6288336598062418
420000000.0 -0.5837680994450883 -0.028072111554698596
440000000.0 0.02836774946786325 -0.5331435790279775
460000000.0 0.3757114043329913 -0.3025836024230586
480000000.0 0.18029078980845184 0.3453661894613564
500000000.0 0.2742973225114171 -0.25221778548271223
520000000.0 0.3295318964274096 -0.010573666757182033
540000000.0 -0.11625805776305624 -0.2819315394238141
560000000.0 -0.15328065227045143 -0.2044243422648395
580000000.0 0.07996206771411206 0.22408407818050508
600000000.0 -0.152934755345063 0.19149913485018286
620000000.0 0.23501437413645182 -0.0710359679283876
640000000.0 -0.003066201429828248 0.25790569266902535
660000000.0 -0.07455786963916929 -0.220463641661354
680000000.0 -0.20221075533456934 0.11446377595427494
700000000.0 -0.1284156791425668 -0.16686727223220696
720000000.0 0.046283478918816914 -0.20135668069334897
740000000.0 -0.06640900027305566 0.19888857470725374
760000000.0 -0.10542521740857118 -0.1557861110996063
780000000.0 0.051262161226123405 -0.1797805430304168
800000000.0 -0.17449890735228354 -0.0317603761153593
820000000.0 -0.13919643696600237 0.106520170344207
840000000.0 0.14052510546430183 0.09082112881389393
860000000.0 0.16033176367685142 -0.018206241071213537
880000000.0 0.0939162444464187 -0.09418674504283608
900000000.0 -0.10751014946123992 0.014681517862115065
920000000.0 0.08544363079261745 -0.04525466161102824
940000000.0 -0.05252017535149919 -0.07927077513521567
960000000.0 -0.0663756828064258 -0.010902021313301742
980000000.0 0.019617588004791714 -0.06667628315871132
1000000000.0 0.07964961231910142 -0.02451265217214474
1020000000.0 0.07560160814917062 0.05112200877702896
1040000000.0 -0.09777428496335408 -0.002576261349132413
1060000000.0 -0.1392263893046435 0.01670753390593035
1080000000.0 0.059500798779306516 -0.13923284402299274
1100000000.0 0.10173728806959585 0.14272946771864334
1120000000.0 -0.17643937566344436 -0.056585922886016944
1140000000.0 -0.09595279386076704 -0.1876415409724551
1160000000.0 0.07419401561509954 0.21797952637407392
1180000000.0 -0.01760616473736408 0.2166347164333412
1200000000.0 0.07771890642197847 0.20245198169660503
1220000000.0 0.0007020590336911481 -0.2401248606894846
1240000000.0 0.20118645999098753 -0.10536115675651635
1260000000.0 -0.21008423491834347 0.06869366436921602
1280000000.0 0.22406821446355027 0.038328969463208594
1300000000.0 0.19767652624613777 0.14263006134277523
1320000000.0 0.22937404384107407 -0.09192676781673646
1340000000.0 0.10994908755350126 -0.21977574191810326
1360000000.0 -0.260719525891968 -0.03314815343746087
1380000000.0 0.028621692342713227 -0.2757872266777844
1400000000.0 0.1421551612725251 0.23696291634352173
1420000000.0 -0.060650267288394726 0.2695620399910146
1440000000.0 0.2903182754168942 0.04060003858125841
1460000000.0 -0.2695859760771941 0.08317750325671115
1480000000.0 -0.26286560791538344 0.010481698619868482
1500000000.0 -0.13073655584617563 -0.20070608504969256
1520000000.0 0.18867339378738193 0.13182858514806786
1540000000.0 -0.03321733714318461 -0.20757143178831142
1560000000.0 0.02766130054618393 0.17125430005455355
1580000000.0 0.06657700650042671 -0.14304171433867394
1600000000.0 -0.007783035480374007 0.13965280545042946
1620000000.0 -0.10776337342978591 0.049618479101536266
1640000000.0 -0.021380791448610402 -0.09524818378473206
1660000000.0 -0.019033207009832683 0.09184058780734695
1680000000.0 -0.013083061759444918 -0.09106454423635034
1700000000.0 -0.07698462591311296 -2.1493764589194255e-06
1720000000.0 -0.06836392170477007 0.03521982971912422
1740000000.0 0.05062462573187325 0.06815749721878629
1760000000.0 -0.09136460941465777 -0.017949833720100554
1780000000.0 0.06826196490126513 -0.06862503155161402
1800000000.0 0.018585973924469992 0.10399174398287502
1820000000.0 0.10850296039338542 0.06679271758961658
1840000000.0 -0.09173600578822616 0.1014354643444572
1860000000.0 0.02485646973201069 -0.143950867615703
1880000000.0 -0.08804566226278249 0.1442981303547627
1900000000.0 -0.08651658980309888 0.16486430822623838
1920000000.0 -0.15553768198190301 0.11201634602118667
1940000000.0 -0.19490845221396283 0.02381013286523347
1960000000.0 -0.08615916763882364 0.1846170541604893
1980000000.0 0.05654871503914852 -0.1940018944530544
2000000000.0 -0.060272132767913614 0.18695586032545197
2020000000.0 -0.003471731845720067 -0.1963503895433519
2040000000.0 0.17862977468394187 0.07774583614274169
2060000000.0 0.18759317415437513 -0.04851710164271154
2080000000.0 0.18672653285286142 -0.04661296031147204
2100000000.0 0.15472008527252856 -0.11707871346371387
2120000000.0 -0.12284053715640174 0.1543108283900191
2140000000.0 -0.15899827075856804 0.12261573927233768
2160000000.0 0.15396082090341398 -0.1266509551542953
2180000000.0 -0.16670266204988068 -0.11184279135799208
2200000000.0 0.18904865321784883 0.061198022826689916
2220000000.0 0.10475233096837948 0.1628362802846903
2240000000.0 0.18250419751909064 -0.04981291058505646
2260000000.0 0.16559695368407407 0.06532790749878463
2280000000.0 0.09359864564448049 0.13478482331306954
2300000000.0 0.03691538226315284 0.14380184979406418
2320000000.0 -0.11246334294440972 0.07232718954203425
2340000000.0 0.03197414801187526 0.11421572508710877
2360000000.0 -0.0956481587017223 -0.01653115176560027
2380000000.0 -0.07088418385702328 0.050433842421948746
2400000000.0 0.07606775785003457 0.0008490767673898584
2420000000.0 -0.04742527624564903 -0.04666033149815985
2440000000.0 -0.06313455339781378 0.011498319672865877
2460000000.0 0.06588552172075594 0.0012706519209586978
2480000000.0 -0.06558969247205135 0.028335867487013583
2500000000.0 -0.013165219031795312 -0.07480957436051812
2520000000.0 0.06473658038890437 0.05738307111565545
2540000000.0 -0.10248744164843163 -0.0020834357145325107
2560000000.0 0.11197296559714875 0.022364739911551978
2580000000.0 -0.09203002238543889 -0.09349013599821081
2600000000.0 0.11584256926488648 -0.0939185758476986
2620000000.0 0.14139541200630995 0.07983653791386454
2640000000.0 -0.08083523814255793 0.15415253151567962
2660000000.0 0.026426828091031574 0.18339367395615622
2680000000.0 0.18615211340173057 -0.017343249826364572
2700000000.0 -0.12481058626930251 -0.13692574394846557
2720000000.0 0.07985223923022582 0.16483160445188555
2740000000.0 -0.1796902426355368 0.010277031274964925
2760000000.0 -0.1728041614577513 -0.03385274533185703
2780000000.0 -0.1230566372194229 -0.118353467803608
2800000000.0 -0.07423611447161901 -0.15814644173476616
2820000000.0 0.030268316965830898 -0.17660547142647767
2840000000.0 0.15817201595874172 -0.09296342859481697
2860000000.0 -0.07494354248103259 0.17589143210244743
2880000000.0 0.11656267233243149 -0.16084801041976268
2900000000.0 -0.19522155802972951 -0.06869698286450153
2920000000.0 -0.15248811213960106 -0.14397796045456515
2940000000.0 0.10473768997342764 -0.18267740327719972
2960000000.0 0.12304247226509522 0.1710403973083231
2980000000.0 -0.19912384054525292 0.0509258057481138
3000000000.0 0.18626541817573056 -0.06783840728152477
3020000000.0 -0.1502799306704237 0.11983427103058888
3040000000.0 -0.06262581664699796 -0.16997351717266662
3060000000.0 0.07958626585143967 0.14968027460557654
3080000000.0 -0.10033040920972837 -0.12119142424943756
3100000000.0 0.1333074133777869 -0.06063682930572617
3120000000.0 0.018759077293955772 0.13435771061581936
3140000000.0 -0.10874302296731785 0.06426799580426736
3160000000.0 -0.12029495050911587 -0.03830244554037877
3180000000.0 -0.11287398725766881 0.05438700625112293
3200000000.0 -0.012223503206693354 0.1258999543663655
3220000000.0 -0.09632078477816333 -0.09445151697269848
3240000000.0 -0.11264907798271168 0.09466935536416592
3260000000.0 0.1060667854487833 0.11997535436659937
3280000000.0 0.14271125177891053 0.09811554531809771
3300000000.0 0.0136259595335742 0.1876719954119993
3320000000.0 0.11375585201390086 0.16721550093298984
3340000000.0 -0.07430326062793927 0.19862253358715623
3360000000.0 -0.13258942308167226 -0.17949423401437797
3380000000.0 0.1910980358428433 -0.13703225596726068
3400000000.0 0.21272061339471154 0.10954154498404962
3420000000.0 -0.0776406947924534 0.22809860882208846
3440000000.0 -0.23716437960884051 -0.047624264256822875
3460000000.0 -0.13687842809429976 -0.19486567551533093
3480000000.0 0.20972036195496085 -0.09630168442508029
3500000000.0 0.14289348281816955 0.17031683175069393
3520000000.0 -0.02346338914719444 0.2136058770004725
3540000000.0 -0.015076892566964862 0.2048632645589618
3560000000.0 0.15680559600848762 0.11324735645107754
3580000000.0 0.15912371694619204 -0.09404167134537035
3600000000.0 0.08458430282896975 -0.15957161892458524
3620000000.0 -0.022274110177032 0.17324634732699043
3640000000.0 0.10629016812803842 -0.1346631069021998
3660000000.0 -0.16872515594320908 0.03540641873079716
3680000000.0 0.05061629621530606 0.1682967446653837
3700000000.0 0.060985883685429246 0.17170352033171787
3720000000.0 -0.17855507448727015 0.06134355623696528
3740000000.0 0.18839246238546958 0.05774584577292844
3760000000.0 -0.20315857170490356 0.052431616661937394
3780000000.0 0.2084213172926746 -0.07412195993121061
3800000000.0 -0.12565650969808026 -0.19311366575824826
3820000000.0 -0.14170975905700844 0.19064327779795776
3840000000.0 0.07778780080647059 0.22874387405079866
3860000000.0 0.2370873800045401 0.05665622819884942
3880000000.0 0.014922778695872217 -0.24623243018973373
3900000000.0 -0.22973859738406238 0.08138823430155627
3920000000.0 0.23232579831579891 0.0008112577797426039
3940000000.0 -0.19918783598980078 -0.09170623100056055
3960000000.0 -0.031018760225006575 -0.19839080415217308
3980000000.0 -0.1611394449581528 -0.08068130350167815
4000000000.0 0.1568640511204222 0.010773250725253768
