!Created with skrf (http://scikit-rf.org).
# Hz S RI R 50.0 
!freq ReS11 ImS11
400000000.0 0.46490327402466425 0.5569718569102363
406500000.0 -0.22749206789655999 0.6699710882585357
413000000.0 -0.6770076919221321 -0.07482622651407572
419500000.0 -0.12740334350736743 0.6497256142888004
426000000.0 -0.0812913205634782 -0.6354242235961538
432500000.0 -0.12937457240120978 0.622707450879237
439000000.0 -0.2866279021343228 -0.5583560547682621
445500000.0 0.4295128450970655 0.45302905982841973
452000000.0 -0.6060930298823722 0.1153896303240199
458500000.0 0.14873309496095044 -0.5957061941722533
465000000.0 0.4920609480731719 0.3672519014439357
471500000.0 0.5031290532156598 0.3477848939326875
478000000.0 -0.17777265699748143 0.5658838177959236
484500000.0 -0.53304129874129 0.24682333926165537
491000000.0 -0.5710198141393403 0.023033381061409675
497500000.0 -0.5249328064018237 0.17506886583955045
504000000.0 -0.2780418132586127 0.451329267129334
510500000.0 0.2088508058803369 0.45453753000678887
517000000.0 0.4656710572040259 0.010107292690046989
523500000.0 0.4398474497914575 0.00043078648354309397
530000000.0 0.4067772248266946 -0.047121435206322906
536500000.0 -0.11323504988689441 -0.35417632404404753
543000000.0 -0.1301213686373923 -0.32975554119419587
549500000.0 -0.04762216741008184 -0.32366870207324355
556000000.0 -0.23330901304477084 -0.20243933869282885
562500000.0 0.1283618633161113 -0.26561284213885655
569000000.0 -0.13723637249108314 -0.2605210427009797
575500000.0 0.0856017526710905 -0.2715734670596955
582000000.0 -0.2648411655708305 -0.10780846750951134
588500000.0 -0.2790898398090151 0.07107618400523072
595000000.0 0.11755856189743932 0.27356460413224803
601500000.0 -0.18131040688300168 0.2299878358385257
608000000.0 -0.28500227012100876 0.08531422966656346
614500000.0 -0.2835484840231423 -0.09103786652298713
621000000.0 0.13662252988760062 -0.26077226293153655
627500000.0 -0.07939693129032994 0.28603812280601804
634000000.0 -0.07659814223049939 0.2950412028587369
640500000.0 -0.27205253001389457 0.11411688098456155
647000000.0 0.0799003653163554 -0.28118332560886905
653500000.0 0.2514872420604114 -0.15828361064532076
660000000.0 0.13732258217485124 0.2515638235046018
666500000.0 -0.23682017751235446 -0.1565847101968856
673000000.0 0.26570139243722984 -0.08491502046608933
679500000.0 -0.0020148268071379935 -0.283887384421234
686000000.0 0.15781309166936522 -0.22834480744409338
692500000.0 -0.08778204494581095 0.26059698812544424
699000000.0 -0.09515339451221524 -0.2517222337249063
705500000.0 -0.2394960811723642 0.12324104534373331
712000000.0 0.2507399192542408 -0.11392147019280519
718500000.0 -0.17456157728114777 -0.2165923957962811
725000000.0 0.0578214398685322 0.2826942742542531
731500000.0 0.0836183394667169 -0.28383166605568094
738000000.0 -0.13487632697006108 0.2764618967656863
744500000.0 -0.10684331250806375 -0.2908513672493576
751000000.0 -0.13215952462022312 0.28986726343565195
757500000.0 0.15610040480706577 -0.28962588120880695
764000000.0 -0.2584182603416502 0.2152049530353557
770500000.0 0.042378307621096165 -0.34108449592814355
777000000.0 -0.15579685166581111 0.31219642239983864
783500000.0 0.09169996203462473 -0.33369980910821895
790000000.0 -0.21032025079738265 0.28263768685318974
796500000.0 0.33490324813148514 -0.1102326150368609
803000000.0 -0.2748012961782486 -0.21161973924593017
809500000.0 -0.08458697575335575 0.33964027789983126
816000000.0 0.1877636840377009 -0.29959300058028887
822500000.0 -0.2416113437284834 -0.261671519642411
829000000.0 -0.34423515411275024 -0.12734394605375587
835500000.0 0.04666859246318683 0.3694274959423299
842000000.0 0.25384305979192084 -0.28557185005331626
848500000.0 -0.16367534400105657 -0.34813225797667097
855000000.0 0.017563881307933994 0.3922432396698232
861500000.0 0.3431346207422183 -0.20480481556413338
868000000.0 -0.4114094645802385 0.05078697232414542
874500000.0 0.4139006058461028 -0.053731372769627646
881000000.0 -0.4228899242274657 0.00868610675546135
887500000.0 0.365968673536624 -0.21696800945530245
894000000.0 -0.374039275413572 0.19844827557413722
900500000.0 0.1397144602660607 -0.39688771597114686
907000000.0 0.3212729233883753 0.263364334943751
913500000.0 -0.3389823696602274 -0.22593645022294923
920000000.0 0.21652032992245815 -0.34131111761322036
926500000.0 0.38716480920200375 -0.09345564822665062
933000000.0 0.2852895835553255 0.2607970111162855
939500000.0 0.3725547868993743 0.02990387706760995
946000000.0 0.31817616218202 0.14253346223068825
952500000.0 0.2372528261303281 0.22031332543409496
959000000.0 -0.012218651113108976 0.30346831791566437
965500000.0 -0.2517383449298969 0.1341224051037898
972000000.0 0.2662851341807016 -0.04529646448703257
978500000.0 0.08059606645882314 0.2471510447964876
985000000.0 -0.21252872514435334 0.12356349593954656
991500000.0 -0.07931205696487492 -0.22049279236289585
998000000.0 0.2103238913945564 0.07376068026607753
1004500000.0 -0.10134572520400818 0.18811802853650816
1011000000.0 0.06182199343513626 -0.19959135213879647
1017500000.0 0.1961720940613957 -0.02856018362485781
1024000000.0 0.057383009442648646 0.17580087711707743
1030500000.0 -0.14146322376325116 0.0951592008545151
1037000000.0 0.15346502290826863 0.0354745675969938
1043500000.0 -0.11497192153980143 0.0874343765243417
1050000000.0 0.12399364949120611 -0.07056593209024348
1056500000.0 -0.03518850993250968 -0.13261287670141234
1063000000.0 -0.05622586645537798 0.11667613465551917
1069500000.0 0.07312487565519753 0.09672184947034698
1076000000.0 0.09671830912232911 0.05132405196649133
1082500000.0 0.016213075691098783 0.10028440987596263
1089000000.0 -0.033957615990989766 0.09087770181207205
1095500000.0 0.06904842284360219 -0.06586399761500303
1102000000.0 0.02837381451786804 -0.09740000184447599
1108500000.0 0.10498273830597322 -0.01935689830276853
1115000000.0 0.015839573341973556 0.117279438722914
1121500000.0 -0.1266486335731218 0.044456167632941676
1128000000.0 0.023087886098322092 -0.14821994894224086
1134500000.0 0.15126251772319088 -0.06249216730804637
1141000000.0 -0.023835367791438085 0.17806962000340046
1147500000.0 -0.1565149670856131 0.1166310781396086
1154000000.0 -0.17877073857597575 -0.09904260353283252
1160500000.0 0.20510537157894257 0.05062216178619981
1167000000.0 -0.14203422400598695 0.16309507559478198
1173500000.0 0.20403230015367296 -0.07446634044242013
1180000000.0 -0.1982252161173438 0.09425351155452052
1186500000.0 0.15645711991995775 0.1564881457661006
1193000000.0 0.22402874090121336 -0.052986090476294
1199500000.0 -0.2103818989992025 0.11132532519319635
1206000000.0 0.21211654946439037 0.12611035146687155
1212500000.0 -0.2483604344351551 -0.06927748099029292
1219000000.0 0.2626373939556963 0.05521734632839925
1225500000.0 -0.26909192224548445 0.0598425146858619
1232000000.0 0.22294469397162983 0.17815797945951856
1238500000.0 0.050380251101786566 -0.29001358007203304
1245000000.0 -0.1928202819317349 0.2272764540418106
1251500000.0 0.2569547901838559 0.16235066108219878
1258000000.0 0.21323110545324747 -0.22170478041279418
1264500000.0 0.043234228710221 -0.30650090532337837
1271000000.0 -0.12231652932818127 -0.29149772848155503
1277500000.0 -0.27997791777931097 -0.16261411650551358
1284000000.0 -0.28594373068739026 0.1672668111029896
1290500000.0 -0.008846175546393713 0.33744402737991736
1297000000.0 0.34346613166273665 -0.003636378997886707
1303500000.0 0.14032295979292686 -0.3115676651523068
1310000000.0 -0.2825904535680592 -0.1941253454404139
1316500000.0 -0.1499858249467307 0.3085636509570547
1323000000.0 0.28604456381201243 0.19007045805909717
1329500000.0 -0.06961162572920741 -0.33424659554197517
1336000000.0 -0.33514531255539703 0.03620958370528636
1342500000.0 0.09719376160031575 0.3170818427940695
1349000000.0 0.245190689165493 -0.22301790035241686
1355500000.0 -0.18215629144878623 -0.27767497402278407
1362000000.0 -0.02346325718891508 0.33324549182951474
1368500000.0 0.24679295041973326 -0.23330948014207858
1375000000.0 -0.30490792556435803 0.16281550431794511
1381500000.0 0.3004451642722101 -0.17513714463720154
1388000000.0 -0.3539335892581855 -0.02799210107812803
1394500000.0 0.3029689235738447 0.18842437766346234
1401000000.0 0.2725148630915055 0.23466764526706482
1407500000.0 0.20877590470759944 -0.29636082548150666
1414000000.0 -0.07152569407083194 -0.3591380813287772
1420500000.0 -0.34586304617482677 -0.1313296700499918
1427000000.0 -0.37285782979005755 -0.0098240436471757
1433500000.0 -0.3778353700325017 0.024857298838880236
1440000000.0 -0.35916686421775496 0.12139315089029062
1446500000.0 -0.3668150358264307 0.1078698599453225
1453000000.0 -0.34663313434706833 0.16040793077086354
1459500000.0 -0.3445466465858955 0.16415074050787698
1466000000.0 -0.21051969695187542 0.3170334201538794
1472500000.0 -0.14012986475559278 0.34935634331884
1479000000.0 0.20034573187589516 0.309255563354576
1485500000.0 0.2913257964523689 0.20438998269337416
1492000000.0 0.3176512267248704 -0.13829489467523434
1498500000.0 -0.02104397120971886 -0.3311242693937443
1505000000.0 0.02252271746102359 -0.3196046809953505
1511500000.0 -0.30833980905591724 0.033423162379091556
1518000000.0 -0.11391261015915684 0.27494404048395377
1524500000.0 0.2854492874846778 -0.05764020732028935
1531000000.0 -0.2537630636051055 -0.12351453303363483
1537500000.0 0.1941368982681414 0.1977074424587456
1544000000.0 -0.20478500419584855 -0.177900146005642
1550500000.0 0.2691517018331998 0.014185428506269308
1557000000.0 -0.24934699393680912 0.08196117990418682
1563500000.0 0.2612143855692698 0.013752669892260146
1570000000.0 0.17423684538661247 -0.1923662305327505
1576500000.0 -0.17912579358381936 -0.18669123107800936
1583000000.0 -0.18320245127550275 0.18882443088381912
1589500000.0 0.03360209535242394 0.2605799960963729
1596000000.0 0.2406790773871718 0.10863422873510777
1602500000.0 0.2410832734111961 -0.10592895738058775
1609000000.0 0.23837294766818168 -0.110601046774321
1615500000.0 0.24192713193316884 -0.09089331852217827
1622000000.0 0.21078348216274637 0.14207686133631178
1628500000.0 0.19360312866474003 0.1579739518800745
1635000000.0 -0.05114053633993567 0.23742961375296023
1641500000.0 -0.15317195063369574 0.1795113503462917
1648000000.0 -0.22175213038180897 -0.058558495741293015
1654500000.0 -0.0657313903552255 -0.2112255114424974
1661000000.0 -0.11924634542365578 -0.17641499416085749
1667500000.0 -0.10930089569495462 -0.17050124154086457
1674000000.0 -0.18145040026706613 -0.05080023862488062
1680500000.0 -0.16440468479809264 -0.05471806308570064
1687000000.0 -0.15638455410801416 -0.027461351391755248
1693500000.0 -0.11651627669182643 0.0898470406312147
1700000000.0 0.11939936029734907 0.06951404522795127
1706500000.0 0.11836344491362359 -0.05250370091136938
1713000000.0 -0.10937482415675222 0.05745161179188464
1719500000.0 0.10660443473899554 -0.05637844900993959
1726000000.0 0.0989571930857369 0.06272332623561543
1732500000.0 0.0305549187457236 0.11168648338776699
1739000000.0 -0.11174110892357525 0.0034768085756555545
1745500000.0 0.09514922173770471 0.054111978849132644
1752000000.0 -0.05288134280398526 0.09498063929840515
1758500000.0 0.08133839895652974 0.0671728910660869
1765000000.0 0.10470568645486143 0.00028749299486383913
1771500000.0 0.02681406171574681 0.10101584276632224
1778000000.0 -0.038144835069968734 0.0990984263087784
1784500000.0 -0.10492946351168146 -0.031353027928033406
1791000000.0 0.10343442877884587 -0.04338614996240864
1797500000.0 0.10591047127207417 0.04490521910531792
1804000000.0 0.10737696056471394 -0.038660069072756986
1810500000.0 0.08251688497163802 -0.07427764932527933
1817000000.0 0.09930926078995242 0.02256674906615227
1823500000.0 0.09077654628045913 0.006350747333907396
1830000000.0 -0.0692811361066606 -0.03490601392233408
1836500000.0 -0.01225296345550817 0.06423127048664198
1843000000.0 -0.01814801901952738 0.05031876961985979
1849500000.0 -0.04254940117884813 -0.016296898489294175
1856000000.0 0.018885641316294215 0.032976285173616046
1862500000.0 -0.03264764268367529 -0.003731305961204303
1869000000.0 0.012817702574146928 0.02767256059968197
1875500000.0 0.02596996926402678 0.0015010527648033009
1882000000.0 -0.004267865987419215 -0.01532819153875782
1888500000.0 -0.0007669703680316745 0.006421176192062551
1895000000.0 -4.765159371222732e-06 0.005385934693682219
1901500000.0 -0.015123652610143267 0.007813688711240106
1908000000.0 0.008447947631233667 0.021816369310549328
1914500000.0 0.027779747540451396 0.012454095642444313
1921000000.0 -0.024673681820270497 -0.021241042714688706
1927500000.0 0.03406036796695903 -0.0034846803900886467
1934000000.0 0.008566423684303865 -0.03377895129107832
1940500000.0 0.0006264729229807746 -0.03365733434665659
1947000000.0 0.007528160409031207 -0.034547601640852355
1953500000.0 0.02906489325442833 0.020845042470123473
1960000000.0 0.006227301567883497 0.034152986664124654
1966500000.0 -0.030332460398578776 0.02986507302361227
1973000000.0 -0.04669953435761629 0.019944274243734173
1979500000.0 0.006746618994240284 -0.06007716105191851
1986000000.0 -0.027151256374910813 -0.07077684398078744
1992500000.0 -0.06646221189515102 -0.05469953887631261
1999000000.0 -0.09566818779478621 0.02125639200836711
2005500000.0 -0.09550152895157686 0.054933704251474175
2012000000.0 -0.10884327506499537 0.04889885525254385
2018500000.0 -0.10930160771024271 -0.06419838231559394
2025000000.0 0.048376513390564806 -0.12642395131412842
2031500000.0 0.11668178877309578 0.07799142400672054
2038000000.0 -0.009548086499315265 0.14396585804006162
2044500000.0 -0.14564323557245681 -0.027307376917989835
2051000000.0 0.03527248428496799 -0.14738749217233854
2057500000.0 0.15242336494437272 -0.01147780446655303
2064000000.0 0.1223197405297346 0.09204521861179697
2070500000.0 0.12788558017261162 0.0861878223452376
2077000000.0 0.09832213376229487 -0.1131026415489048
2083500000.0 -0.10222986939842761 -0.10381419276833817
2090000000.0 0.06952469319906077 0.12280333711975322
2096500000.0 -0.03632254043812111 -0.13372180079679657
2103000000.0 0.09639138942376005 -0.09191663498655486
2109500000.0 0.1130693822279217 0.06425677852534768
2116000000.0 0.12588606983668063 -0.0328335883475899
2122500000.0 0.11720834223831973 -0.06250357188051718
2129000000.0 0.031223291524450077 -0.13493628222015328
2135500000.0 0.1252659077770595 -0.07433670461549101
2142000000.0 -0.11185610676476788 0.10801896070030205
2148500000.0 0.12905695425646938 -0.10691761811655975
2155000000.0 -0.0839402802117846 0.16201418035082527
2161500000.0 0.1855486244527256 -0.06124827846943107
2168000000.0 -0.18463885391947374 -0.09820275017215002
2174500000.0 -0.21671237729760015 0.04367273941255422
2181000000.0 -0.1556690797009682 0.1704832478291906
2187500000.0 -0.1013523379938833 0.2183176960597979
2194000000.0 -0.14791019225355387 0.19931624060393502
2200500000.0 -0.20061259720377908 0.15951006830151485
2207000000.0 -0.18730056388910987 0.17885363409554214
2213500000.0 -0.2521544070638211 -0.06386435106888792
2220000000.0 -0.19882036472372408 -0.16590456691087627
2226500000.0 0.058726614287163574 -0.24737242626275527
2233000000.0 0.21661588123766534 -0.12349187671138266
2239500000.0 0.2015272809039318 0.14089462308431283
2246000000.0 0.17503804516497773 0.16092176953994897
2252500000.0 0.18681184373944396 0.13185539515973424
2259000000.0 0.20693201224656554 0.07813757799601798
2265500000.0 0.17282718906048672 -0.12013668231645039
2272000000.0 -0.12823297524510935 -0.15302776230222326
2278500000.0 0.06663829125357512 0.17603496751161138
2285000000.0 0.057620393380439956 -0.16640160940632603
2291500000.0 -0.06403010367676483 0.1510188590463202
2298000000.0 0.12540937202832309 -0.08854652528721285
2304500000.0 -0.14874262970654767 -0.0001208175596883274
2311000000.0 0.1339683902746675 0.04892787160087144
2317500000.0 0.1358277696432292 -0.04421116331907705
2324000000.0 -0.13136728276464324 0.06317758737908782
2330500000.0 0.026963002036301517 -0.1449229060852282
2337000000.0 -0.06363687302848367 0.13694312650467022
2343500000.0 0.055579549458654766 -0.14422245091684285
2350000000.0 -0.15595369110019952 0.015989443288816723
2356500000.0 -0.10770065125083861 0.1151426786647656
2363000000.0 0.05995013584733343 0.15084010007033868
2369500000.0 0.15624103676935178 0.03532439288118256
2376000000.0 0.09112290871726067 0.13230716284423819
2382500000.0 0.10754710722252701 0.12068452705465266
2389000000.0 -0.05739940407194179 0.1515575189585014
2395500000.0 -0.14517804420840463 0.07229118368623799
2402000000.0 -0.16002955957940226 0.024443562795987528
2408500000.0 -0.15752545894994766 0.04251035051347346
2415000000.0 -0.12056165382845793 0.10601271707526713
2421500000.0 -0.10574739070037092 0.11719476464515621
2428000000.0 -0.04805401820132191 0.14615016004244114
2434500000.0 0.0024991860015495517 0.15015380625371474
2441000000.0 0.10231617378439946 0.1089549189748617
2447500000.0 0.13150466440295075 -0.06757150653511837
2454000000.0 -0.0903178120258057 -0.1158555658530251
2460500000.0 -0.13580248284025404 0.047928444768630694
2467000000.0 -0.09688321357747984 0.10433987628026864
2473500000.0 0.023032472541344717 0.13737429882858954
2480000000.0 -0.02061388673023667 0.1370441908159875
2486500000.0 -0.08873745236272298 0.10568217863562669
2493000000.0 -0.060418117063325144 -0.12582215945497707
2499500000.0 -0.05472976148903088 -0.13051099157137597
2506000000.0 0.012548341716619815 -0.14417376605983298
2512500000.0 0.0968175297654364 0.10774784839256425
2519000000.0 -0.13503556567976538 -0.056037835751442125
2525500000.0 0.13406543625576117 0.06294464392665809
2532000000.0 -0.14415622740113218 0.04013615836639354
2538500000.0 0.14927196563552095 0.005709278298083648
2545000000.0 -0.12840730015691715 0.0757687541722363
2551500000.0 0.1270800150984542 0.07202003135009524
2558000000.0 0.09300191898234796 -0.11008752745763997
2564500000.0 -0.08096703520677527 -0.11774260123766218
2571000000.0 -0.1234883761391879 0.07001458342106537
2577500000.0 0.010665211711236277 0.14043232252730645
2584000000.0 0.12729327381574262 0.05083262117913829
2590500000.0 0.10169953393687185 -0.08794162302706135
2597000000.0 0.015420793462965193 -0.13072182937136254
2603500000.0 -0.12823169414586227 -0.014882506251227912
2610000000.0 0.0008964109416668757 0.12375783464844231
2616500000.0 0.11395463952226532 -0.0346546812194933
2623000000.0 -0.0395520547449823 -0.10402902572905845
2629500000.0 -0.10609752953793528 0.0037975404639566594
2636000000.0 0.03539629967284559 0.09188761813309401
2642500000.0 0.07700064976612385 -0.05161036384473747
2649000000.0 0.04925177244554024 0.07199667780284573
2655500000.0 -0.04812353542051377 0.06333161219262484
2662000000.0 0.07139696519490231 0.0021132774341399816
2668500000.0 -0.027309083043348847 0.057340894331768234
2675000000.0 -0.052960051880966294 -0.010054693981984515
2681500000.0 0.030665490284941543 0.036291614016536446
2688000000.0 -0.03892191822297792 -0.02424840067411285
2694500000.0 0.01689693547821608 -0.044312341373802924
2701000000.0 0.053077809994932106 -0.005071458480508178
2707500000.0 0.05762554315436191 0.029244926919156602
2714000000.0 -0.07510293393156409 -0.016795785964177294
2720500000.0 0.024353411313465145 0.08928479383836224
2727000000.0 0.09545267410304058 0.046665344937948675
2733500000.0 0.10347674682826373 0.06340326793212282
2740000000.0 0.06944218023501472 0.11527346238238946
2746500000.0 0.01435721985613586 0.14715252640675924
2753000000.0 -0.16026214140182163 -0.010723534567558894
2759500000.0 0.056193858690961315 -0.158930291930146
2766000000.0 -0.07180618679353341 0.16325879174390717
2772500000.0 -0.01594759386934931 -0.18609024715808903
2779000000.0 -0.10293657056127535 0.16771652260517173
2785500000.0 -0.006338558831131917 -0.2057971289943178
2792000000.0 0.026396149391117233 0.21267360681769068
2798500000.0 -0.21354920045980477 -0.06427507870864926
2805000000.0 0.17302914530855087 -0.14756739416861392
2811500000.0 0.0550352593566244 0.22743344390899706
