!Created with skrf (http://scikit-rf.org).
# Hz S RI R 50.0 
!freq ReS11 ImS11
400000000.0 0.12489111645305749 0.806758550136236
420000000.0 -0.5543566358542431 0.17111084755164066
440000000.0 0.5296061850310178 0.4658810457680358
460000000.0 0.3857581088924213 0.3681946661423026
480000000.0 -0.3929976084901581 0.1540727031457387
500000000.0 0.05550642583281549 0.46861973954069397
520000000.0 0.03763419228789848 0.5489842633064077
540000000.0 -0.5825835405852432 0.03064520049759436
560000000.0 -0.7118292225681583 0.06724341271764414
580000000.0 0.6311565541754033 0.2961111507889548
600000000.0 -0.49261751004812987 -0.41356894952029166
620000000.0 -0.24878238189695467 -0.5476445138651818
640000000.0 -0.3163878590019265 -0.4522877383780437
660000000.0 0.2868604924800907 0.4060444967969457
680000000.0 0.4789659209509227 -0.11639333963082168
700000000.0 -0.34834909618364285 0.311962786151192
720000000.0 -0.47734770045777314 0.11706184414021724
740000000.0 -0.3852930793697183 0.23742084564141316
760000000.0 -0.37749688205712656 -0.2083085759596113
780000000.0 -0.3802722165484919 -0.15920049203486822
800000000.0 -0.28304611193370827 -0.29566263932727693
820000000.0 -0.01659648394668668 0.38602391996061025
840000000.0 -0.04910707709059346 0.34331545849155026
860000000.0 0.13907130717551103 0.2969740304831576
880000000.0 -0.02699813304772603 0.3076859902796237
900000000.0 0.14818907277810905 -0.219899792910433
920000000.0 0.22752416470275807 0.10130641850880295
940000000.0 0.1584520929960095 0.16817928266368498
960000000.0 -0.17842592417548975 0.0699308357402173
980000000.0 -0.057745401433969154 0.1620381483741056
1000000000.0 0.13638825497576976 -0.0712825870139627
1020000000.0 -0.09367969048127156 0.08321605035352739
1040000000.0 0.08256466889743261 -0.06065203579362135
1060000000.0 -0.019331735427282257 -0.11880029693336072
1080000000.0 0.1610641227568707 0.03464362512418858
1100000000.0 0.0736958200717402 0.18982775845694308
1120000000.0 -0.23915535742800706 -0.01150208534201472
1140000000.0 -0.19079825676248305 0.22595998757418145
1160000000.0 0.29420054505591453 0.07564532670837373
1180000000.0 -0.1144996537916656 0.3168393976242204
1200000000.0 0.27935433753297007 0.24931201644761408
1220000000.0 0.20425141569671554 -0.3246801595195941
1240000000.0 -0.258113814093922 -0.3090408949906934
1260000000.0 -0.19109686361098233 -0.3620481122540549
1280000000.0 -0.07458876688143047 0.4108156962520738
1300000000.0 0.08894645404057683 0.4049732341474016
1320000000.0 0.1020795473368087 0.41468867592267306
1340000000.0 -0.3857042007018279 0.16538949525698585
1360000000.0 0.1646555114095426 0.39857092863418253
1380000000.0 -0.37185075888529917 -0.22263063026145588
1400000000.0 0.3242830362002711 0.3022407295901651
1420000000.0 0.3012231393836628 -0.3397578374943258
1440000000.0 -0.4325209584339463 -0.13312365604936485
1460000000.0 0.17564014633838237 0.42626080778799447
1480000000.0 -0.45917651788243036 0.04336465603523239
1500000000.0 0.4171204946200067 0.16016518246607384
1520000000.0 -0.38349006877748926 0.17741124574187073
1540000000.0 0.08071266377417681 -0.36830991351855
1560000000.0 0.2611479956714627 0.23502342049755834
1580000000.0 -0.3123212164937832 0.018132328896098986
1600000000.0 -0.26394028971288874 0.036225567080744
1620000000.0 0.22873638489086554 0.0695322848358349
1640000000.0 -0.11917438718268641 0.16535076255413111
1660000000.0 -0.17254137053804483 -0.008369824376901888
1680000000.0 0.0011824560709584664 -0.13953952869707045
1700000000.0 -0.05422745022142685 -0.09536022960340797
1720000000.0 -0.07484821196869905 -0.0484470290757151
1740000000.0 0.06730740271570257 -0.02530768007315135
1760000000.0 -0.0327512611246939 0.06955610019899523
1780000000.0 0.030312703464070306 -0.08999832055738384
1800000000.0 0.1378067816926768 -0.004617079410411344
1820000000.0 -0.10018220614126999 -0.14553396908106744
1840000000.0 -0.20398219761480177 -0.0722037156307483
1860000000.0 0.019029796300194114 -0.24734562903464216
1880000000.0 0.17260609908453842 0.21096145748385203
1900000000.0 -0.07624596002762825 0.27709679038185464
1920000000.0 0.3030657502974089 -0.013010260752763823
1940000000.0 -0.29992627238352176 -0.097093452113209
1960000000.0 0.04233431723110991 0.32089996709165647
1980000000.0 -0.32721499152531014 -0.029195792936942265
2000000000.0 -0.003255093442400858 -0.3203500535455111
2020000000.0 0.16081276111625467 0.2853299794524343
2040000000.0 -0.24682750882668505 0.21480216947636094
2060000000.0 -0.21666471159648712 0.2307601056222633
2080000000.0 -0.2656175048372154 -0.18266103562623712
2100000000.0 0.18872113769077864 0.24298465829121277
2120000000.0 -0.012768281707122043 -0.30762857118607406
2140000000.0 0.17945428875873504 0.24357877792405486
2160000000.0 -0.1996233636558582 -0.22025493745979863
2180000000.0 -0.02514894250423374 -0.2755208120070957
2200000000.0 -0.19723854022247383 -0.19518047736050836
2220000000.0 0.26064409729170257 0.021905796468529706
2240000000.0 -0.006204208507249038 0.25616766791488826
2260000000.0 -0.17615462880770943 0.17188103662053494
2280000000.0 -0.20682376552397574 -0.1181018791866606
2300000000.0 0.2179036776547407 -0.08565478231659107
2320000000.0 0.19860682767956786 -0.09261593425185823
2340000000.0 0.03787475702074465 0.2079671655182291
2360000000.0 -0.06490532932661171 0.19427127029116087
2380000000.0 0.04749377087174005 -0.19436545077234757
2400000000.0 -0.03653827070951539 -0.2021577736922123
2420000000.0 -0.21395844351057125 -0.016925149975452927
2440000000.0 0.021330308807098852 0.22605800491179798
2460000000.0 -0.21843331796216445 -0.12468243419149168
2480000000.0 0.10769038830615928 0.257236000788391
2500000000.0 -0.15096415169757593 0.26402154742839734
2520000000.0 -0.20569076351856674 -0.25726616042188105
2540000000.0 0.20673936641104054 -0.29349108016453296
2560000000.0 0.31364159359862875 0.21620482001501307
2580000000.0 -0.34854896213260883 0.19558193579849312
2600000000.0 0.2146898414567689 -0.3564019856360449
2620000000.0 0.19380156086786007 0.3824947071145441
2640000000.0 -0.43396922114853487 -0.04351307382950646
2660000000.0 0.11079621530529199 -0.42709955287993445
2680000000.0 0.43172316158736135 0.10532514377425578
2700000000.0 0.20676689644942225 0.3968482849684649
2720000000.0 0.09198076814414738 0.4411045250060103
2740000000.0 0.10219327556949755 0.4451023904909608
2760000000.0 0.019215924294499857 0.4628748094938319
2780000000.0 -0.4277206779970669 -0.19326487834942815
2800000000.0 -0.1938989223179386 -0.4359352774803239
2820000000.0 0.33167411399669366 -0.35170948487150755
2840000000.0 0.2645384537711156 0.4097709545728224
2860000000.0 -0.3680333024037959 -0.32810694483101815
2880000000.0 0.24494532847404704 0.42990581949410456
2900000000.0 0.2224343871975531 -0.438227087247516
2920000000.0 -0.4768502264149032 -0.09048701865832871
2940000000.0 -0.17010489415618457 0.4462720379057408
2960000000.0 0.42287832570236017 0.19755208761267518
2980000000.0 0.15916754611412232 -0.4222381140484504
3000000000.0 -0.3894324710528557 -0.188443425276249
3020000000.0 0.10795401982676348 0.40279230343417705
3040000000.0 0.3329650052813494 -0.22050626353827646
3060000000.0 -0.3352152309620125 -0.18649719060778258
3080000000.0 0.027800165321744067 0.37023660563728367
3100000000.0 0.06726926628441973 -0.3589653383399802
3120000000.0 -0.19671587897649548 -0.3092061474538842
3140000000.0 -0.32396073523606134 0.16515150275871116
3160000000.0 0.28233010634509065 0.2425824389599069
3180000000.0 0.09485185180764427 -0.35980710935933247
3200000000.0 -0.21212167956885544 -0.31692971527060704
3220000000.0 -0.25827409400060913 -0.28213301162899723
3240000000.0 -0.32449053730951777 -0.19677874961373287
3260000000.0 -0.2849824957535889 -0.24058199289688514
3280000000.0 -0.15824107165676066 -0.3302640027738584
3300000000.0 0.2968075125759963 -0.18888483523631425
3320000000.0 0.22037021641869337 0.2531885056041906
3340000000.0 0.04327602958161239 0.3123958135292433
3360000000.0 -0.29770363421074486 0.03353952719046068
3380000000.0 -0.001016322099137966 -0.2776780240968554
3400000000.0 0.22713868757916594 -0.1194978435982788
3420000000.0 0.2364071014933711 0.027834874040691272
3440000000.0 0.1525238782475617 0.16316803272938696
3460000000.0 0.19989019037920178 0.058379612324228204
3480000000.0 0.09901503654948125 0.16454714220946812
3500000000.0 -0.1037011153265241 0.15034587928548054
3520000000.0 0.03327553022209106 0.17606787344702637
3540000000.0 0.18269675743479802 0.022439478212017274
3560000000.0 0.05971568994516675 0.17154970697496927
3580000000.0 -0.005835178673814154 0.1861934410949004
3600000000.0 -0.05109080846620399 0.18804447051126752
3620000000.0 -0.19321255905058154 -0.0647379862660465
3640000000.0 0.15878368094938272 -0.1366022132151049
3660000000.0 -0.06671953618145958 0.20582846175413144
3680000000.0 -0.10882362560355771 -0.19431225637116284
3700000000.0 0.013111985890584592 0.22340575739422647
3720000000.0 0.05232362644682974 -0.21273423896013627
3740000000.0 -0.20132985438366616 0.0348712010719159
3760000000.0 0.14557562765525658 0.12347591132005169
3780000000.0 0.16574805452899397 0.05461709544656936
3800000000.0 0.12787083258597615 -0.07919820360223125
3820000000.0 0.09350825672746556 0.0799702896963762
3840000000.0 -0.09230366570260816 0.0016480838894501202
3860000000.0 0.06556108097114138 0.012937461250134917
3880000000.0 0.03720827100580658 0.0351266489399192
3900000000.0 0.0368206279731457 -0.010386050722996233
3920000000.0 -0.03816477368352194 -0.018015121731676485
3940000000.0 -0.04010975395652708 -0.011675607429645287
3960000000.0 -0.025780793310679874 -0.029525901568230466
3980000000.0 -0.005133449856263139 0.031063248875774215
4000000000.0 -0.014524357175488114 -0.009735096283480205
