!Created with skrf (http://scikit-rf.org).
# Hz S RI R 50.0 
!freq ReS11 ImS11
400000000.0 0.8030571719831826 0.14742578343877075
420000000.0 0.3296423515982525 -0.6541793075965157
440000000.0 0.64786673124623 -0.33026573696176953
460000000.0 -0.03529524164758808 0.6639580765497863
480000000.0 0.08374494717731636 0.5588219636630083
500000000.0 0.1550516991129574 0.48596655475620626
520000000.0 0.15498460535582267 0.46735454489237777
540000000.0 -0.4260546115383636 0.11475067345864216
560000000.0 -0.3437117832008953 -0.11663638556348602
580000000.0 0.29539139757791205 -0.014740307189774867
600000000.0 -0.27647852802428163 -0.16910505517738547
620000000.0 0.3678408050478488 -0.06741493378847992
640000000.0 -0.4015972410329667 0.01731825967014514
660000000.0 0.3460315827635858 0.20211459368087234
680000000.0 0.11256193388376526 0.37623502860072233
700000000.0 -0.08272670094611924 0.35986160892161206
720000000.0 -0.09635488863525266 -0.3069689565366675
740000000.0 0.3184961897176705 0.1092557489475609
760000000.0 0.2318950865556278 0.21463941979090218
780000000.0 0.1268028653251546 -0.26014818389213107
800000000.0 0.25956467701153346 0.05539226398567857
820000000.0 -0.23738587585912768 -0.04785138679857298
840000000.0 0.22736746104680577 0.06428627857185809
860000000.0 -0.08861316042900019 -0.1850808238747273
880000000.0 -0.07519020261973398 0.15738405953480963
900000000.0 -0.042458631331252106 -0.16376821692526655
920000000.0 0.08150629536069828 -0.11002273176063579
940000000.0 -0.09295676500678995 0.05126016551139019
960000000.0 -0.05736487936110027 -0.03166967976512982
980000000.0 0.05624677615575804 -0.01193477199959639
1000000000.0 0.006590216127791911 -0.03293342756315548
1020000000.0 -0.008502317638694183 -0.014406924933429228
1040000000.0 0.0037797390506622477 0.040185685909831986
1060000000.0 0.02853911237011942 -0.07854516401149525
1080000000.0 0.08775316596673244 0.10440683880775803
1100000000.0 0.06743325720544122 -0.16551637849795273
1120000000.0 0.1737859824792588 0.13739203921841323
1140000000.0 -0.0006636018055316083 0.23534369259726037
1160000000.0 0.25632881124890117 -0.05955056034987095
1180000000.0 -0.1622178517131098 -0.22340050036655196
1200000000.0 0.12510742126944857 0.27754067268846067
1220000000.0 0.21454550591715177 0.22564757503007232
1240000000.0 0.1757021815096989 0.27582091088507826
1260000000.0 -0.3283410537200471 -0.03329597691476976
1280000000.0 -0.33109496233196223 0.1132089272517225
1300000000.0 -0.2837762978266608 0.2182762935369507
1320000000.0 -0.28869247409609416 0.2225072021984248
1340000000.0 0.060741525313749885 -0.37592402931077135
1360000000.0 -0.06130326778900276 0.37111591736896515
1380000000.0 -0.26294109446029656 -0.28168647032082106
1400000000.0 0.2469724686726556 0.29890302497646093
1420000000.0 0.28574958943163103 -0.26310565801840674
1440000000.0 -0.2975396881630113 -0.23527537069093596
1460000000.0 -0.353919930126064 0.11470907738171784
1480000000.0 0.3074858943213319 0.16395186379901827
1500000000.0 -0.24278017323258538 -0.24353644857616388
1520000000.0 -0.30631322777397824 0.0010388708620815619
1540000000.0 -0.20629154448149067 0.1863203270968437
1560000000.0 0.16093938149170478 0.18140893640013903
1580000000.0 -0.12450765484361372 -0.18976494993966475
1600000000.0 0.178853079026513 -0.07798089350076753
1620000000.0 -0.0931260618841842 -0.14635612936600045
1640000000.0 0.016561294175644527 -0.1403118845390495
1660000000.0 0.06471127360287351 -0.09694968857530312
1680000000.0 -0.09606893448538532 -0.0015447644625790138
1700000000.0 -0.060110737714012485 -0.051214070119898626
1720000000.0 -0.05865151332472056 0.03337225819581033
1740000000.0 -0.07572173023683221 -0.03572802088048504
1760000000.0 0.04163707983655114 0.07407408212660531
1780000000.0 0.08649849296366768 -0.05445240972395639
1800000000.0 -0.136220033663031 0.005379333712085009
1820000000.0 -0.10775666897912362 -0.13227646507618304
1840000000.0 -0.16575768137347974 0.11912543853310587
1860000000.0 0.028176667509880644 -0.2389736112654238
1880000000.0 0.00740034070875366 -0.25594736281902525
1900000000.0 0.15282067919030923 -0.23804544031005354
1920000000.0 0.10303637574337847 0.2877589005380819
1940000000.0 0.29527413790657575 -0.09150152332443047
1960000000.0 0.01977278909630755 0.31425363263931777
1980000000.0 0.30564521924145815 -0.0684978036167075
2000000000.0 0.2062556850284185 0.24658419454414165
2020000000.0 -0.2884011948972436 0.1434169208547526
2040000000.0 0.0559032305271005 0.3094103208807077
2060000000.0 -0.23330322858397495 -0.2049703376343128
2080000000.0 0.09137287730492412 -0.3043642130426939
2100000000.0 -0.08969424756829494 0.28849258434865493
2120000000.0 0.10824802749399119 -0.2856697770769568
2140000000.0 0.28747492302029 0.05998906548309703
2160000000.0 0.1805661942927443 -0.21564378547581783
2180000000.0 0.09769434845918559 -0.25702062376952434
2200000000.0 -0.2748813010967967 -0.00864159418566094
2220000000.0 -0.2525130413071485 -0.026828626741398385
2240000000.0 -0.2082167923106821 -0.13909164475769492
2260000000.0 0.10508103776958679 -0.21022434391277814
2280000000.0 0.2109408701945643 -0.01983914904426372
2300000000.0 -0.18859356472133929 0.04001577288327454
2320000000.0 0.1539244156311794 -0.09975996992086127
2340000000.0 -0.025678997578358415 -0.17247439939488907
2360000000.0 -0.11300496184726418 -0.12330507157235356
2380000000.0 -0.17405477492237567 0.025012884860061167
2400000000.0 -0.11189307197008355 -0.1452122800131467
2420000000.0 -0.18413148355908432 0.09165712506524967
2440000000.0 -0.08464456672049055 -0.2129257919279161
2460000000.0 0.1949165506585763 0.1597014386058225
2480000000.0 -0.06754969590905584 0.272398976346209
2500000000.0 0.13057113862453684 0.2796760016064736
2520000000.0 -0.30958897687763265 0.13890463147569562
2540000000.0 -0.3590104298853699 0.06860390649817295
2560000000.0 -0.23419531763602522 -0.30964367891380223
2580000000.0 0.3390464739239657 -0.22358163677846077
2600000000.0 0.2116335005963184 0.37076050976351077
2620000000.0 -0.4357500129050615 -0.048887789709541454
2640000000.0 0.12494994069059427 -0.4294153607350755
2660000000.0 0.45293059161472177 -0.003973359822577655
2680000000.0 0.2547136134386786 0.3784093840016413
2700000000.0 0.028132840489862945 0.45686691120444417
2720000000.0 0.030904826390223506 0.45990318486001464
2740000000.0 0.10332536778829886 0.45247812026678863
2760000000.0 0.19616753982723337 0.4257842889163007
2780000000.0 -0.47141693298838727 0.04339957225369919
2800000000.0 -0.40886701822339844 -0.24873703085109417
2820000000.0 0.08560793807477485 -0.4769251275076351
2840000000.0 0.4389011381018183 0.21415562742793307
2860000000.0 -0.4587276417469485 -0.18028636592119826
2880000000.0 0.32221884157282854 0.3766306586448373
2900000000.0 0.25483390176526227 -0.42183906822006306
2920000000.0 -0.4772932854201691 -0.1030035577806254
2940000000.0 -0.12351633335392809 0.46835031556014634
2960000000.0 0.47244753676402373 -0.01843080388877487
2980000000.0 -0.07648941584625302 -0.4521901627670692
3000000000.0 -0.35379118763526723 0.26969916239524844
3020000000.0 0.42427961184871277 0.05252838670882698
3040000000.0 -0.2512623308811615 -0.3279891560773881
3060000000.0 0.09215844124120541 0.38795893546715193
3080000000.0 -0.0932177490959805 -0.3746462244265684
3100000000.0 -0.36725728084981324 0.09365576485463097
3120000000.0 0.3173106923528175 0.1965926701568998
3140000000.0 -0.23838450493378754 -0.2849551448205627
3160000000.0 -0.16347973870301388 0.33685832371865737
3180000000.0 0.3727856411372404 -0.03979009463490552
3200000000.0 0.2976925818180212 -0.22223636926295626
3220000000.0 0.05590764294204889 -0.3693676785808661
3240000000.0 -0.1439090857487078 -0.3375039758629954
3260000000.0 0.16446620730857844 -0.3146175465556434
3280000000.0 0.3384879818634562 -0.012246814994421547
3300000000.0 -0.12443131821593872 0.29725550028206993
3320000000.0 -0.28255695110070855 0.11595472649133058
3340000000.0 0.28636218471114633 -0.016798059130468695
3360000000.0 -0.03313885491814646 0.26092980688484296
3380000000.0 -0.209123784135313 -0.11693007810632218
3400000000.0 0.2229958287357631 -0.002827640139007361
3420000000.0 -0.18093453009199284 0.10646294220487551
3440000000.0 -0.03623560194024079 -0.19627913441950484
3460000000.0 0.09508248431873531 -0.15576287915481718
3480000000.0 0.0004377005085509061 -0.17590911817554625
3500000000.0 0.17216500192891507 0.030290893044653835
3520000000.0 0.10472328218929475 -0.13096487419348654
3540000000.0 -0.16675247631059092 0.017433683594324324
3560000000.0 -0.04716387246272846 0.1603073000115093
3580000000.0 -0.1319706534815382 -0.11966170410886685
3600000000.0 -0.1337182475114176 -0.12442144127650615
3620000000.0 -0.034246810346750096 -0.19160528036604493
3640000000.0 0.17727962990036958 -0.08527259847583601
3660000000.0 -0.052797867042327425 0.20038267833948312
3680000000.0 0.09367979461520456 -0.1827739307454709
3700000000.0 -0.14423283036775714 -0.144442699525303
3720000000.0 -0.15179969547571542 0.12622686197696809
3740000000.0 0.1547558740468173 0.1058351025026328
3760000000.0 -0.16564537582899125 0.05934979831978381
3780000000.0 -0.14082063895604882 -0.08503245886224757
3800000000.0 0.11398122765873397 -0.09601126328651285
3820000000.0 0.07699693962610517 0.1070785083382031
3840000000.0 0.10813314159967141 0.009222695440537712
3860000000.0 0.07521680223151411 0.052342153394814614
3880000000.0 -0.07855206117155823 0.012452793299504
3900000000.0 -0.004069623318250804 0.0710269039369093
3920000000.0 0.06286469395466159 -0.020277512336674942
3940000000.0 -0.044670911718855476 0.03508388046033044
3960000000.0 -0.03971821698877149 0.020870492004977644
3980000000.0 -0.03532935920360144 -0.0012119635381326061
4000000000.0 -0.0036761904989518705 -0.033729886389449
