!Created with skrf (http://scikit-rf.org).
# Hz S RI R 50.0 
!freq ReS11 ImS11
400000000.0 -0.6688683973434735 0.46714872138788877
420000000.0 0.5138685052923777 -0.5547884831066524
440000000.0 0.6804435856645951 -0.191180566803417
460000000.0 -0.31848287495566513 -0.5529946752733397
480000000.0 0.44117191067445766 0.3625634423619933
500000000.0 0.554383417329062 0.00026138475553094605
520000000.0 0.23836323332193277 0.4014861167555042
540000000.0 0.3892426400300154 -0.1195367749176215
560000000.0 -0.3962341894131406 0.025316796400261767
580000000.0 0.13396364430629826 -0.36481543350626205
600000000.0 0.34438381877766666 0.21276915993338602
620000000.0 0.32915891933799435 -0.25301217130577813
640000000.0 0.22430886143295287 0.3463074787049989
660000000.0 -0.3893872270222623 0.09450043917140667
680000000.0 0.3563140814996177 0.14527723065432233
700000000.0 -0.35101487567939654 0.12453169318207899
720000000.0 0.2545129441308507 0.23613118138990466
740000000.0 0.28755223250508005 0.15542171238721908
760000000.0 -0.18599545096247228 -0.21368531748741343
780000000.0 -0.23262674884016113 0.17602317546532228
800000000.0 0.18660517747311933 -0.17187966020570886
820000000.0 0.24317300955247995 0.0157769456440679
840000000.0 -0.15034242672457504 0.1563967550927427
860000000.0 -0.1224762434934531 -0.16885919644515568
880000000.0 -0.015065258587988307 0.19576530364796735
900000000.0 0.016812260674473098 0.1612596530966855
920000000.0 0.0761265222510405 0.11018628633560346
940000000.0 0.08939367290354991 0.08277366571951555
960000000.0 -0.06099925166396706 -0.03860971254796231
980000000.0 0.03318226564329408 0.04883832389630495
1000000000.0 -0.024463200216039815 0.04961327909275641
1020000000.0 -0.03602522777825131 -0.015096096024868923
1040000000.0 0.03377006599278834 -0.048818997665293566
1060000000.0 -0.029874580743354584 -0.10212371843209701
1080000000.0 0.11394922597119612 -0.059135811227158434
1100000000.0 -0.18132479613066266 -0.05361788229483643
1120000000.0 -0.0918613477543389 -0.19781073528107365
1140000000.0 0.2251811183545625 0.10211844569416811
1160000000.0 0.24605614844377138 0.13640061861324274
1180000000.0 0.2514467463425544 0.14307945393846996
1200000000.0 -0.08133013687336785 -0.29008623065479683
1220000000.0 0.29284728746112676 -0.12871732855695556
1240000000.0 0.16360702984814823 0.2989920628437617
1260000000.0 0.24867324414269154 -0.2212163960134994
1280000000.0 0.21276704594016488 0.2619744893623673
1300000000.0 0.34910401224175314 -0.013401166770577838
1320000000.0 0.13758681187978072 0.3301777365086237
1340000000.0 -0.1604288197685713 -0.3271155364224485
1360000000.0 0.04226381279490426 -0.37019280170168933
1380000000.0 -0.3301910182849127 0.161075697271143
1400000000.0 -0.142083679022493 0.34859581908763426
1420000000.0 0.36914557101915824 -0.0365286106426173
1440000000.0 -0.036517333984219795 -0.37632037638228066
1460000000.0 -0.36997833321472184 0.03384746789066177
1480000000.0 0.2984555424529507 0.20340427573591358
1500000000.0 0.3312069897820793 0.00037952160907303654
1520000000.0 0.0637613768897738 -0.30362814988608866
1540000000.0 -0.28516604929844175 -0.004218875162864485
1560000000.0 0.05095834739213056 0.2554967723876034
1580000000.0 -0.10936428693451662 -0.19294032918822068
1600000000.0 -0.11652072026830483 0.15961925175324915
1620000000.0 -0.13132457432852648 -0.09877307250751047
1640000000.0 -0.01649003124663896 -0.13478829148920374
1660000000.0 0.08111264685590334 -0.08293977058720055
1680000000.0 -0.09351567068724222 0.03287117411276299
1700000000.0 0.07581473681677643 -0.021182737907387797
1720000000.0 -0.0018776770731074414 -0.06702594921270444
1740000000.0 0.0044683646031884105 0.0650106250456064
1760000000.0 -0.07565842016767545 -0.01516947062690819
1780000000.0 0.10828215139319511 0.0206435560141938
1800000000.0 -0.08843132858352742 -0.10837779516697983
1820000000.0 -0.09644644565429704 -0.13125525669744081
1840000000.0 -0.07884743948670503 -0.18836227343762155
1860000000.0 0.044832547118078436 0.23545014950083784
1880000000.0 0.25652384806133194 0.06549482837981843
1900000000.0 -0.2633629301857206 -0.13333555865741675
1920000000.0 0.21141312013127944 0.2069120184884862
1940000000.0 0.2802885500580732 -0.14308920891315627
1960000000.0 -0.31113763036551195 -0.05045551023517001
1980000000.0 0.30684351966308687 -0.11384031886923708
2000000000.0 0.20685394130632412 0.2459806273838328
2020000000.0 0.12376123931411134 0.2883253481622331
2040000000.0 0.08931437912168336 -0.2938997316451664
2060000000.0 0.280023100718788 -0.14039851976815734
2080000000.0 -0.25567135120763596 -0.18398353317077754
2100000000.0 0.11027579198894787 0.2837043383685236
2120000000.0 -0.03256339281127508 -0.2963598684756926
2140000000.0 0.13422314871771931 0.2640047557303703
2160000000.0 0.09626502979713059 -0.2594773966326218
2180000000.0 -0.12908418167782698 -0.24839947450602495
2200000000.0 -0.2641753408097757 0.01847465286183935
2220000000.0 0.030336522539925918 -0.2579898887521041
2240000000.0 -0.003404294962146487 -0.24738147441876066
2260000000.0 0.14837298794312506 -0.19031423871478154
2280000000.0 0.08314611211305911 0.19908930270613515
2300000000.0 -0.15864306109919826 -0.12351314043575064
2320000000.0 0.1707240353993671 0.07556160373497513
2340000000.0 0.12068190220731188 -0.1259033896247222
2360000000.0 -0.15823046319638862 -0.06221285210767234
2380000000.0 -0.06829714555586186 0.16355599162699716
2400000000.0 -0.18455152269279088 -0.03789045101842617
2420000000.0 0.08039123636508357 0.18801766931606453
2440000000.0 -0.21416309212089674 -0.07999171333848949
2460000000.0 -0.10880144873866589 -0.23049637568661296
2480000000.0 0.1837822180160505 0.21742692705493236
2500000000.0 0.3132616830068485 -0.02087630403850831
2520000000.0 0.033628490428380634 0.34116440784941116
2540000000.0 0.07907564810975751 0.36756908378834263
2560000000.0 -0.38076385288860987 0.12495470042040348
2580000000.0 -0.09570518409075449 -0.4080287788164064
2600000000.0 0.4387552326953677 0.021928544052608186
2620000000.0 -0.14561911894639745 0.4300351981576127
2640000000.0 -0.44341227338010414 -0.12943530257882388
2660000000.0 0.09561901475087287 -0.4586708225940282
2680000000.0 0.41383676932906466 -0.22563790844003237
2700000000.0 0.47388976145024947 -0.03030938641005282
2720000000.0 0.46233415790098 -0.12421500980350757
2740000000.0 0.4161194405928941 -0.2461616217842381
2760000000.0 0.39939115958604776 -0.2836217510292735
2780000000.0 0.13082927795623897 0.47710750249398315
2800000000.0 -0.227988192637768 0.4454011930240391
2820000000.0 -0.4948464248248817 -0.09696041481494189
2840000000.0 0.40781872555338483 -0.30322365942179297
2860000000.0 -0.3886240048542532 0.3295688884282552
2880000000.0 0.5083804212034748 -0.03585303066936822
2900000000.0 -0.24320068411297044 -0.44291623440724703
2920000000.0 -0.4548551824567686 0.2034574021297512
2940000000.0 0.12261978008430212 0.47285290443257016
2960000000.0 0.46222845981906063 -0.12210647610592852
2980000000.0 -0.1284652858785197 -0.4461750209897888
3000000000.0 -0.3967979721970842 0.2065533030696941
3020000000.0 0.4125592728510424 0.1272058241988499
3040000000.0 -0.08423202059643675 -0.4078950077850403
3060000000.0 0.14985572102757203 0.37734737144308783
3080000000.0 0.023012362749104866 -0.3915481257669712
3100000000.0 -0.289904328983746 -0.2506018792004856
3120000000.0 0.22986705891115974 0.3030558800552107
3140000000.0 -0.059506810887825924 -0.3728455565822032
3160000000.0 -0.3696879240746808 0.07876428052782398
3180000000.0 0.21180689216827947 0.31261456463428644
3200000000.0 0.3689380013809009 0.05252446567027282
3220000000.0 0.3668262854039493 0.002518136382933387
3240000000.0 0.3437303675925511 -0.1273262375293022
3260000000.0 0.3538463169011624 0.010977200775077753
3280000000.0 0.06187067306876509 0.3311062786210624
3300000000.0 -0.27095446394881945 0.16794755822231347
3320000000.0 -0.16215988678907717 -0.25563779233275874
3340000000.0 0.1936468242313027 0.20844860871325516
3360000000.0 -0.25792611089153755 -0.044393975883174217
3380000000.0 0.14787497143878142 -0.1921613886856553
3400000000.0 -0.012824175670819329 0.2263950482901325
3420000000.0 -0.06598298110170413 -0.20548669970540298
3440000000.0 0.14144354833029363 0.1449363781951714
3460000000.0 0.06437079928890369 0.18089888644896673
3480000000.0 0.13953328184433075 0.11832219102563393
3500000000.0 -0.14941128796128886 -0.09601018103811891
3520000000.0 0.041798981381075774 0.16952492861856125
3540000000.0 0.170468963176031 -0.007935076470634088
3560000000.0 0.1026038322253257 -0.13796881020660637
3580000000.0 0.100304707977163 0.14283418539832554
3600000000.0 0.17256331607972394 0.028591133893614146
3620000000.0 -0.15786910789876812 0.08735688505112131
3640000000.0 -0.1840390038214524 -0.042637146982702934
3660000000.0 0.1788928611868937 -0.08222073003795573
3680000000.0 0.03922502751235234 0.1899297206385792
3700000000.0 0.16304050179938723 -0.10082675686986292
3720000000.0 -0.0728736048255659 -0.1705924748955295
3740000000.0 0.08030177276456138 -0.1594679338849607
3760000000.0 -0.045767770332942666 -0.16335075889176082
3780000000.0 0.042817385395916036 -0.15762312398683717
3800000000.0 0.09134871030707926 -0.11842513660016152
3820000000.0 0.020835791709160344 0.13395052746634284
3840000000.0 -0.04338012859513142 -0.10648726253669244
3860000000.0 -0.09647758240577983 -0.005586143603994303
3880000000.0 0.05299624504762617 0.06105542537326624
3900000000.0 -0.03538959528283874 -0.06508612531737681
3920000000.0 0.054684789420957475 0.04387944116340666
3940000000.0 0.04437419303178261 0.041380494301683446
3960000000.0 -0.025190776227206994 -0.04839344094100112
3980000000.0 0.04228698567554555 0.00023795939037065048
4000000000.0 -0.027661611026378593 0.019474573499788317
