!Created with skrf (http://scikit-rf.org).
# Hz S RI R 50.0 
!freq ReS11 ImS11
400000000.0 -0.5728962423032747 0.5812349466090357
420000000.0 0.4951578543539109 -0.5754931532812132
440000000.0 0.6583613095666923 -0.2697365387351055
460000000.0 -0.6096856688394423 -0.19769175355451835
480000000.0 0.5629789184067597 0.038522668764200074
500000000.0 0.5411124427548502 0.08081418417863852
520000000.0 0.04276947632128551 0.4664350873266484
540000000.0 0.3708927216133604 -0.15959726423508247
560000000.0 -0.20727717213612082 -0.3377691647200706
580000000.0 0.35034312343284074 -0.16180086855900666
600000000.0 0.385860774758625 0.1362943130267647
620000000.0 -0.01451414036455714 -0.4155964516025546
640000000.0 0.30565625298164323 0.27236856097630924
660000000.0 -0.3730338490029557 0.14225991769633123
680000000.0 0.37374784852534 0.0600926855411623
700000000.0 -0.3253176175639542 -0.17816091284995528
720000000.0 0.18784902195932598 0.29844506679898525
740000000.0 0.25424109470920603 0.20559887886875203
760000000.0 -0.000640772906463724 -0.28036256535950704
780000000.0 -0.28677037250638826 -0.04443929396469875
800000000.0 0.239152299248532 0.083158353927713
820000000.0 0.22602957850970404 0.08926230829428981
840000000.0 -0.13011503821384163 0.17831553476843284
860000000.0 -0.19948959804465327 0.06563648042398289
880000000.0 0.09150395192221701 0.1764329119282917
900000000.0 0.15753452512887114 0.03500128489079206
920000000.0 0.09813944337309242 -0.0919192421430185
940000000.0 0.012010040289512146 0.1230132588131
960000000.0 0.018766479397916303 0.06761805123712021
980000000.0 0.055804371811314084 -0.029465853200840345
1000000000.0 0.040625080972522036 -0.042407798220628144
1020000000.0 -0.01843586051371013 -0.029572750671766186
1040000000.0 -0.05411681791382315 -0.017572134625334707
1060000000.0 -0.08335593702970265 -0.06258774361833286
1080000000.0 0.12630458322567642 -0.03084252329045402
1100000000.0 -0.029902825686374385 -0.19146501123906673
1120000000.0 0.09638304585687545 -0.19807083870935144
1140000000.0 -0.07112955345898864 0.24034863619695887
1160000000.0 0.1728043256281819 0.22140706569273114
1180000000.0 0.03649350211135166 0.28849323620660977
1200000000.0 0.05561856469606911 -0.29888453872005705
1220000000.0 0.31733575671345443 0.05190248187885496
1240000000.0 0.142471044893751 0.31432681167578913
1260000000.0 -0.03624533617120685 -0.3325955285386492
1280000000.0 0.3163453464700269 0.11283612120304187
1300000000.0 0.31604631842609204 -0.15279125303058244
1320000000.0 0.2593973396235409 0.24829876750019075
1340000000.0 -0.2636975015819876 -0.2533029382410391
1360000000.0 -0.08639905707976771 -0.3616576314657643
1380000000.0 -0.3661498653283674 0.039138551038019845
1400000000.0 -0.28349980223584365 0.251225698706107
1420000000.0 0.33974542362834487 0.1533401213087088
1440000000.0 0.06970666320695296 -0.37540127864217065
1460000000.0 -0.37282385555933356 -0.008377853939037687
1480000000.0 0.29871034212591596 0.20332252753572683
1500000000.0 0.326708741612139 0.04142174584452327
1520000000.0 0.01959929857578384 -0.3101529741511634
1540000000.0 -0.2448018021966662 0.14136143735257797
1560000000.0 0.0289666844565167 0.2569126431499135
1580000000.0 -0.13295891767400558 -0.17459851818680447
1600000000.0 0.016456992995506497 0.19610693818977118
1620000000.0 -0.13488103754849054 -0.09112962240133467
1640000000.0 -0.05754827916285974 -0.12358172950421725
1660000000.0 0.09606680598644964 -0.0588284290060349
1680000000.0 -0.05734820515002796 -0.08142408937029477
1700000000.0 -0.04332357191328687 0.06704458336437454
1720000000.0 0.024764490767863044 -0.06608709284187751
1740000000.0 0.06814290374224591 0.0027679505453830477
1760000000.0 -0.02355243154990942 -0.07486787220863496
1780000000.0 0.1064656435095837 0.02397801215830208
1800000000.0 -0.09654871094888917 -0.10198534257466688
1820000000.0 -0.04775587390418384 -0.15588413774874152
1840000000.0 -0.08856004541154602 -0.18603552991532513
1860000000.0 0.10866443674173284 0.21236100709976674
1880000000.0 0.26180982402192216 0.04449214560057313
1900000000.0 -0.2571151289140676 -0.13891305815340593
1920000000.0 0.2506408921247091 0.15938255555162947
1940000000.0 0.2253317798276292 -0.21654310960424164
1960000000.0 -0.31231966734116773 -0.02414432784578003
1980000000.0 0.3038050318277167 -0.11355660832081832
2000000000.0 0.10690344680763593 0.30209712072758854
2020000000.0 0.036351456662612136 0.3131488144729485
2040000000.0 0.09137848790503754 -0.29345211255580056
2060000000.0 0.26413038251336257 -0.1707683370657531
2080000000.0 -0.2862260288815747 -0.13060653412846326
2100000000.0 0.11083680433660736 0.2811372627502401
2120000000.0 0.05574674722080164 -0.29267741938117553
2140000000.0 0.0717160998528249 0.28747801426664804
2160000000.0 0.2010364171795655 -0.18808250613747546
2180000000.0 -0.010893269629496822 -0.2799959531788206
2200000000.0 -0.2561893326668513 -0.07108980876168149
2220000000.0 0.09781350352395372 -0.23960872262103675
2240000000.0 0.019995626364667726 -0.24689389951011237
2260000000.0 0.22618380516985861 -0.08655345102202139
2280000000.0 0.12297804033487415 0.17784052978932216
2300000000.0 -0.1722476848294519 -0.10762926818239765
2320000000.0 0.18213239779432389 -0.04899574460481276
2340000000.0 -0.02989445462965793 -0.17337020959744714
2360000000.0 -0.08756315631114098 0.14542252924351778
2380000000.0 0.10108220000857118 0.1431583038490656
2400000000.0 -0.1672386229538491 0.08505397085301947
2420000000.0 0.10307708178587441 0.17479854080078175
2440000000.0 -0.2177234449187464 -0.06808362422412745
2460000000.0 -0.011440108571158495 -0.2538321190452666
2480000000.0 0.15274985730913884 0.23785713176003595
2500000000.0 0.3040056950635897 0.07171816641328257
2520000000.0 0.08004314579891683 0.33219474046097874
2540000000.0 0.05911655830076103 0.3698867485800619
2560000000.0 -0.39368810498761697 0.06996817756923009
2580000000.0 -0.13746579480302376 -0.39538145441687633
2600000000.0 0.43898435195676055 0.01963698026339163
2620000000.0 -0.09891082236956215 0.44424710577966614
2640000000.0 -0.430060053753543 -0.1727481601583815
2660000000.0 0.11890909114806296 -0.4553985154887253
2680000000.0 0.4092515837510278 -0.23610690720437233
2700000000.0 0.47151707590784725 -0.06497103674564741
2720000000.0 0.456372080022833 -0.14608389041072525
2740000000.0 0.4258690998151346 -0.22892976389181952
2760000000.0 0.39732972461603666 -0.28535727590632104
2780000000.0 0.12838982581065184 0.4763574683034806
2800000000.0 -0.20795495312394666 0.45356530008448553
2820000000.0 -0.4995539104079171 -0.06038970558983525
2840000000.0 0.3448676162028637 -0.37144927056618554
2860000000.0 -0.3426093266466228 0.3772148189186737
2880000000.0 0.5022847396985735 -0.09117324839327516
2900000000.0 -0.2948584226190829 -0.4119147524774048
2920000000.0 -0.42193728280511344 0.26858680582141825
2940000000.0 0.17028395445080086 0.45969580825372225
2960000000.0 0.46095720090149134 -0.13290110970495836
2980000000.0 -0.16963942188483708 -0.43149415787229606
3000000000.0 -0.3631997921854193 0.2618627569819206
3020000000.0 0.40948107425078784 0.13046472408700416
3040000000.0 0.0776333967271327 -0.40723400948627675
3060000000.0 0.01520983476465608 0.40334708691055676
3080000000.0 0.054184429465680736 -0.3868502263470226
3100000000.0 -0.299793897539929 -0.23259004275113546
3120000000.0 0.19446577214452607 0.3247648831034798
3140000000.0 -0.020733657393597865 -0.3761016267613629
3160000000.0 -0.3737859207461777 0.0526737253768443
3180000000.0 0.22597884680681724 0.3050401352124067
3200000000.0 0.3748081129632826 -0.002065976700720229
3220000000.0 0.3685262643917482 -0.029683715927852232
3240000000.0 0.2948500793783461 -0.22011899773096918
3260000000.0 0.3556566950217933 -0.008146423785185023
3280000000.0 0.05053418829981297 0.3343988189184433
3300000000.0 -0.31345733925335073 0.0649564728432266
3320000000.0 -0.040154566915328045 -0.30187251787095615
3340000000.0 0.18087047318755234 0.2197876412210256
3360000000.0 -0.2563965297949927 0.053732543355510184
3380000000.0 0.1616527315059614 -0.18048654271510248
3400000000.0 -0.01089399041500393 0.2247082594061801
3420000000.0 -0.011593120370515344 -0.2119328004965187
3440000000.0 0.12266206850683282 0.15604644322033287
3460000000.0 0.040704615861260916 0.1828438033802065
3480000000.0 0.13350582187253277 0.11897992387808135
3500000000.0 -0.10366759469182331 -0.13961578784481937
3520000000.0 -0.04394863443449985 0.1651093174985937
3540000000.0 0.16227910242351848 0.049465920674955796
3560000000.0 0.0820850897002906 -0.15145135458097483
3580000000.0 0.17101562639614099 0.042454421507451844
3600000000.0 0.17759369565218872 0.020918365712168242
3620000000.0 -0.034384881995933717 0.1816632186282616
3640000000.0 -0.193812696844743 0.019864359998119942
3660000000.0 0.11759611205055903 -0.16186605485124664
3680000000.0 0.13048059485038188 0.14770004890603372
3700000000.0 0.14005717747317897 -0.13615011017690856
3720000000.0 -0.14652600900094612 -0.11743960324614118
3740000000.0 0.08402038652152301 -0.1604388676899984
3760000000.0 -0.0695815014452968 -0.15626678159085597
3780000000.0 0.051638104612178166 -0.15492220597807693
3800000000.0 0.1381755239502868 -0.05393135775141282
3820000000.0 -0.12188963263259663 0.05091977547514618
3840000000.0 0.11192835894554093 -0.019271438582952223
3860000000.0 0.09291101659609743 -0.026642842138094824
3880000000.0 -0.07976582682680271 0.014868063215779435
3900000000.0 0.07569313820503933 0.004949576770175408
3920000000.0 0.03463663465884966 0.05928575645035772
3940000000.0 -0.026014234152834822 0.0518552538070699
3960000000.0 0.04150881287335324 -0.029827486644177423
3980000000.0 0.034129981283370574 -0.022968623491568765
4000000000.0 0.02872595549485286 0.01996503528816763
