!Created with skrf (http://scikit-rf.org).
# Hz S RI R 50.0 
!freq ReS11 ImS11
400000000.0 -0.69014223119553 0.42637111663409266
420000000.0 0.6128432219901567 -0.4476038936771669
440000000.0 0.6921734045543757 -0.14626634575674016
460000000.0 -0.3544797710387538 -0.5341860334012019
480000000.0 0.47328659599022727 0.31896960364481713
500000000.0 0.5552612472759245 0.058560444472416005
520000000.0 0.32260596537792413 0.34485788376496185
540000000.0 0.2987186856124201 -0.28453226908355767
560000000.0 -0.17998133761900278 0.35986599527870494
580000000.0 -0.3562784371969737 -0.15072699234839154
600000000.0 0.3915635688396816 0.08077469506567814
620000000.0 -0.12417393503577819 -0.3917858503026386
640000000.0 0.12705036096650407 0.38680968308239844
660000000.0 -0.3059989668203237 0.2557398726734565
680000000.0 0.36235032645122317 0.11853332323583322
700000000.0 -0.36209217591156173 0.0958543850344349
720000000.0 0.32563740472528097 0.1293270970044674
740000000.0 0.3223345715406235 0.06282052305043455
760000000.0 -0.2794850022060367 0.04070384575020116
780000000.0 -0.1825831097301059 0.22503096138339762
800000000.0 0.12357946955435684 -0.21793232735042223
820000000.0 0.22469983558934195 0.07987125168164372
840000000.0 -0.20297506024350884 0.07738870636242559
860000000.0 -0.18590044819385348 -0.09294839005091374
880000000.0 0.08437470511729735 0.17483633850248126
900000000.0 0.008516345828925789 0.15781355656625787
920000000.0 0.12373120017133886 0.04165393998278937
940000000.0 -0.025407974327544536 0.1163687148814232
960000000.0 0.07112650292266665 -0.006211970407692655
980000000.0 -0.05254072689085868 0.025242835024823426
1000000000.0 0.04085094942172943 -0.03729330027956741
1020000000.0 -0.03646497129423688 -0.0024121559288372433
1040000000.0 -0.046482275430652906 0.03657866359458621
1060000000.0 -0.10384289804095459 0.004763292633271931
1080000000.0 0.05145432149316044 -0.11694646001889049
1100000000.0 -0.1677989735764946 -0.0858180630599302
1120000000.0 0.0717081535456801 -0.20189676190974473
1140000000.0 0.1478013649860599 0.1983199459768431
1160000000.0 0.2358682221881551 0.153812532323703
1180000000.0 0.26815029974056387 0.1054399436141527
1200000000.0 -0.0833510553362292 -0.2880570163013195
1220000000.0 0.31713490200305466 0.033168037748028685
1240000000.0 0.06654884836042181 0.3357538277994365
1260000000.0 0.23758410349217116 -0.23200683065155284
1280000000.0 0.17981112552927891 0.28591510351545496
1300000000.0 0.34373720017296366 0.07035955930956239
1320000000.0 0.11641799146401821 0.339760212174173
1340000000.0 -0.1444622655334888 -0.33631371559881956
1360000000.0 0.03171683519900022 -0.37049717849492153
1380000000.0 -0.33541845695778233 0.15153153734258432
1400000000.0 -0.15045158650162277 0.34682017163916806
1420000000.0 0.3716642794542438 -0.017928721458296052
1440000000.0 -0.031534822261295586 -0.3767714677762619
1460000000.0 -0.3638060871267922 0.07236826880387971
1480000000.0 0.2829113273369614 0.2228997398208003
1500000000.0 0.330606864051228 -0.0227242981810472
1520000000.0 0.068992942297376 -0.3051426066325549
1540000000.0 -0.26552859174967963 0.1045550893121882
1560000000.0 0.044565152961867305 0.25519664915661255
1580000000.0 -0.18200776708692554 -0.12408761508600898
1600000000.0 -0.10838509146283046 0.1647693928615677
1620000000.0 -0.05945061038074365 -0.1521408371858525
1640000000.0 -0.06866534369930263 -0.11775134120904657
1660000000.0 0.08880092001952054 -0.07035530104924632
1680000000.0 -0.09376656405155336 0.028906299468889174
1700000000.0 0.07620008210354576 -0.016245220468683385
1720000000.0 -0.05913540666373447 -0.029728026911030127
1740000000.0 -0.00953753922766924 0.06259732004188195
1760000000.0 0.06898747077651378 -0.0345227430222428
1780000000.0 0.07336497673304261 0.08235412477244317
1800000000.0 -0.1055418092171146 -0.09528379809470795
1820000000.0 -0.10970781758043055 -0.12092821385165564
1840000000.0 -0.12439418253315666 -0.16372267847842728
1860000000.0 0.1509020756689845 0.18479790348016015
1880000000.0 0.25719564567653175 0.06641619266189318
1900000000.0 -0.2357807746266381 -0.17756658895655492
1920000000.0 0.28356773884745723 0.09351940347918794
1940000000.0 0.20055145214822792 -0.24273830153711165
1960000000.0 -0.3132068630962148 -0.035984262637596916
1980000000.0 0.2842766619654578 -0.16029234480108126
2000000000.0 0.1897882628026233 0.2579075267422388
2020000000.0 0.0741661815055368 0.3054318643081138
2040000000.0 0.07081337183775384 -0.2979946070459935
2060000000.0 0.2074212185091962 -0.2335648938644004
2080000000.0 -0.30082394196474194 -0.08891229205567694
2100000000.0 0.22429042034644725 0.2021402222888775
2120000000.0 -0.13728726702382954 -0.2624806603102864
2140000000.0 0.1800294671712959 0.2330006976322383
2160000000.0 0.1807161864509434 -0.2044978178284253
2180000000.0 -0.017757947877284713 -0.2780574402745534
2200000000.0 -0.2571163132107653 -0.06504064881734338
2220000000.0 0.14030828478501647 -0.2170200294272362
2240000000.0 0.16043469172248817 -0.18967186098912855
2260000000.0 0.22581632328162465 -0.08835715800222449
2280000000.0 0.03175566367054401 0.21525790114200216
2300000000.0 -0.12210803879105757 -0.16173209206589675
2320000000.0 0.18881374759696712 -0.008726912662435785
2340000000.0 -0.039581905214469165 -0.17044470699686948
2360000000.0 -0.16655331594500766 0.03119477207473423
2380000000.0 0.057246026970261196 0.16732014450176153
2400000000.0 -0.145619723648009 0.1181416925048665
2420000000.0 0.18639816867781853 0.084597185612845
2440000000.0 -0.22118465003365936 0.06076857980256802
2460000000.0 -0.16306621176364286 -0.19547221154924457
2480000000.0 0.21224761241776346 0.1868102009832208
2500000000.0 0.3137509894642995 -0.006334987802781663
2520000000.0 0.08290645365345246 0.33277708141742673
2540000000.0 0.0960024746994991 0.3630322657731312
2560000000.0 -0.37456986107740914 0.14164696105556235
2580000000.0 -0.1722919951310887 -0.3814326876456949
2600000000.0 0.43492562624634845 -0.0550950777744454
2620000000.0 -0.05097244833543012 0.45028066886205503
2640000000.0 -0.4414037838025449 -0.13803223516331378
2660000000.0 0.0582832343200921 -0.4651513285281486
2680000000.0 0.40504552454276943 -0.24197118575154927
2700000000.0 0.45336910093435767 -0.14354553841108078
2720000000.0 0.4429122138779587 -0.18150102470171278
2740000000.0 0.3330731651147394 -0.3504388459310778
2760000000.0 0.3069289384278612 -0.3819393035058993
2780000000.0 0.2132981554281697 0.4454391750205994
2800000000.0 -0.15999262136865464 0.47293340420288127
2820000000.0 -0.5028175482669924 -0.02385792387988156
2840000000.0 0.3550918881860303 -0.3617236486362948
2860000000.0 -0.3367321210404723 0.3807608452437251
2880000000.0 0.5052107465453257 -0.061180378312640706
2900000000.0 -0.2630436299237444 -0.4304843964384928
2920000000.0 -0.44114721208971786 0.23037298420429217
2940000000.0 0.14517393920227128 0.4665329597623619
2960000000.0 0.4551900975285318 -0.14735846586735663
2980000000.0 -0.13266218476725436 -0.44364246871270413
3000000000.0 -0.3671527196448809 0.25648850774296567
3020000000.0 0.42328254022390865 0.07948794024504793
3040000000.0 -0.06383264569443818 -0.4105422338864447
3060000000.0 0.07750910505672234 0.39781662288433584
3080000000.0 -0.027343657004427233 -0.39051939216880793
3100000000.0 -0.3629270502875226 -0.11836014066276503
3120000000.0 0.2568962404424206 0.27924090284265596
3140000000.0 -0.07394532707374354 -0.3702959021494343
3160000000.0 -0.3603249147894985 0.1149041575344617
3180000000.0 0.24191941446729362 0.29219704598764773
3200000000.0 0.37378720097750323 0.029600138676116095
3220000000.0 0.3690159552366856 0.010508661122650283
3240000000.0 0.299370471187307 -0.21279751140129632
3260000000.0 0.3539950912353425 0.020330266102121866
3280000000.0 0.0036499874981818213 0.33844810975072875
3300000000.0 -0.29853059445984376 0.11062188714488216
3320000000.0 -0.14992136164305686 -0.2630673351699973
3340000000.0 0.1519789284553852 0.24062745502076338
3360000000.0 -0.25084222221512453 -0.07940343572474505
3380000000.0 0.033560086704246386 -0.23954568321606085
3400000000.0 0.058879014913802846 0.21758764096465488
3420000000.0 -0.10388390722817609 -0.18580880235553632
3440000000.0 0.15924256946268397 0.1203870044916317
3460000000.0 0.08596202856561111 0.166936660094366
3480000000.0 0.12847800990801017 0.12631004288025208
3500000000.0 -0.11413012341951843 -0.1323083776236859
3520000000.0 -0.048403798772633906 0.1650822464875146
3540000000.0 0.13441574097422962 0.10252736847536034
3560000000.0 0.1572399912617385 -0.06902971461092436
3580000000.0 0.09499262490738336 0.1472295633407645
3600000000.0 0.15539967339145624 0.08333294714049287
3620000000.0 -0.14305053425205846 0.11416033405322322
3640000000.0 -0.18568773850535866 0.050184618042815876
3660000000.0 0.13062109355967658 -0.15026057398416792
3680000000.0 0.12559990035444293 0.1496324750974492
3700000000.0 0.08836083293241014 -0.17349280977839254
3720000000.0 -0.18404685099502024 0.03696420173041001
3740000000.0 -0.06252644311073542 -0.16884807154065706
3760000000.0 -0.17043516006323228 -0.012188753185695355
3780000000.0 -0.11055655167337707 -0.11972603059077752
3800000000.0 0.03832071696781758 -0.14304205317384647
3820000000.0 -0.0026073818780422958 0.13300050368821048
3840000000.0 -0.011040431583410672 -0.11376880586720428
3860000000.0 0.03764228398858484 -0.0873755933505189
3880000000.0 -0.07926863129327719 0.015210065325819937
3900000000.0 0.032709275927693064 0.06815132359863757
3920000000.0 -0.036984085903032135 0.061717941302129736
3940000000.0 -0.05896705293022709 0.01889462743409622
3960000000.0 -0.017669949162907542 -0.0515108646505839
3980000000.0 0.005286105557428035 -0.04249801593513806
4000000000.0 0.00596466031217007 -0.03508185053402689
