!Created with skrf (http://scikit-rf.org).
# Hz S RI R 50.0 
!freq ReS11 ImS11
400000000.0 -0.5832323096864153 0.5661396281915959
420000000.0 0.5825214392110852 -0.48428528411986094
440000000.0 0.6691021836256145 -0.22207040371452497
460000000.0 -0.14269264046594518 -0.6266046464324972
480000000.0 0.5567985296416222 0.13335825849609184
500000000.0 0.5024969031895433 -0.22421146932468164
520000000.0 0.00407977599561325 0.4631066942396952
540000000.0 0.34455965401374294 -0.22390369822531886
560000000.0 -0.3825567546299932 0.09738572897281086
580000000.0 0.2139836881334435 -0.3232139297735001
600000000.0 0.21645265191378374 0.3430786650900172
620000000.0 0.23506068331753252 -0.3449515836440931
640000000.0 0.3248105095485688 0.25113600400657377
660000000.0 -0.3989264519773531 0.008565933092639314
680000000.0 0.37930390595208724 0.06710017266197862
700000000.0 -0.36024556104085775 0.09153812636414585
720000000.0 0.27366873953342097 0.21404337243964522
740000000.0 0.1742206878429363 0.27463792375899293
760000000.0 -0.18817702801366815 -0.2151495931475553
780000000.0 -0.26833018312102097 0.1109761126772186
800000000.0 0.06029845155347223 -0.24595584515013294
820000000.0 0.23806920897536127 -0.05225267568643409
840000000.0 -0.10057272986233007 0.1914871109875498
860000000.0 -0.14022007301854453 -0.15083932747088777
880000000.0 -0.13367782171766565 0.14429372148171965
900000000.0 -0.04708218895758787 0.15550292458914178
920000000.0 0.0643375573578187 0.12110899473063062
940000000.0 0.1217462241595604 0.021307108214151455
960000000.0 -0.06856297604070158 0.016115102560187673
980000000.0 0.030009587114894605 0.05252474383800383
1000000000.0 -0.0030299688664514614 0.05353214567401526
1020000000.0 -0.018259962390713768 0.03288688065390026
1040000000.0 0.047695501269622374 0.03528146805786722
1060000000.0 -0.10159359617852422 -0.03001646875713459
1080000000.0 0.11088539967482766 0.06537618348998765
1100000000.0 -0.14447243925947767 -0.12472843798715393
1120000000.0 -0.0718102875843533 -0.20643599626935583
1140000000.0 0.18600309935578999 0.1623498330751141
1160000000.0 0.2117723718389356 0.18326841739896887
1180000000.0 0.17442976270473787 0.23056399549078974
1200000000.0 -0.12803626339027752 -0.2740717237066585
1220000000.0 0.30657430833079724 -0.08698026719736665
1240000000.0 0.19693505759281035 0.27984197837569313
1260000000.0 0.18842436696186204 -0.2730667351684303
1280000000.0 0.21817236011066354 0.25670055558534044
1300000000.0 0.3468929631772356 0.04366192774252133
1320000000.0 0.13201755751307526 0.3333555261453742
1340000000.0 -0.14192360856189817 -0.33636325642496184
1360000000.0 0.11090088850543628 -0.3558843594135209
1380000000.0 -0.3398185079360255 0.14374315265191523
1400000000.0 -0.06554042727632789 0.3700206584234601
1420000000.0 0.3678255362514109 0.03847350085143729
1440000000.0 0.060982237680989364 -0.3727992481726348
1460000000.0 -0.36873929210797235 -0.04654700179178851
1480000000.0 0.3351508110871059 0.13669278274415206
1500000000.0 0.3304582952807231 0.015093774195611708
1520000000.0 0.047956431953031106 -0.3068165799653243
1540000000.0 -0.27171310854313746 0.0804804237583681
1560000000.0 -0.001848091682995335 0.2590929962287998
1580000000.0 -0.12186884377112393 -0.18510891305778515
1600000000.0 -0.1709826215833635 0.10095203825543679
1620000000.0 -0.14715469549107715 -0.07480050780361218
1640000000.0 -0.1074710567226093 -0.08567311693430628
1660000000.0 0.06030408076756476 -0.09981404660976821
1680000000.0 -0.09896932749504096 0.011608889261837028
1700000000.0 0.05581515613424556 -0.05699246066288123
1720000000.0 0.02995858214227792 -0.05994116672701913
1740000000.0 0.008305699593675046 0.0671834609034644
1760000000.0 -0.07787898754773298 -0.00574634891590977
1780000000.0 0.10348704502389561 0.03998420254796637
1800000000.0 -0.12010164430786273 -0.07206793030052547
1820000000.0 -0.020864944622334788 -0.16243294908309103
1840000000.0 -0.023083012552636287 -0.2037237050215805
1860000000.0 0.04613234707169547 0.23599930788511098
1880000000.0 0.2646340621818346 0.007156969813813644
1900000000.0 -0.24751338199012118 -0.1587229959501995
1920000000.0 0.19644162224654133 0.2201007483781747
1940000000.0 0.2963184222280559 -0.10522430075624757
1960000000.0 -0.3144613955319246 -0.0009540540630833468
1980000000.0 0.29509088738284395 -0.13844691225420608
2000000000.0 0.21798872350610635 0.23630991876289742
2020000000.0 0.12420721695874071 0.28963412089209617
2040000000.0 0.051740382156705525 -0.3028557831894021
2060000000.0 0.2911065175497743 -0.12007822999234587
2080000000.0 -0.26689147569924687 -0.16901156947778817
2100000000.0 0.03773950746801905 0.30259515763082584
2120000000.0 0.06453225995434497 -0.2917883472873429
2140000000.0 0.10529496855469218 0.2772072165210048
2160000000.0 0.1547911853243271 -0.22895120080585185
2180000000.0 -0.0219341180546077 -0.2791946522881797
2200000000.0 -0.2644797536856533 0.015823684161298854
2220000000.0 0.07530900217796284 -0.24716211005389221
2240000000.0 -0.04600486350360815 -0.24207966324032498
2260000000.0 0.1734057430754339 -0.16805750133357142
2280000000.0 0.1690358132734661 0.13358035939585133
2300000000.0 -0.14472497369032422 -0.13900049472118226
2320000000.0 0.17944699359231134 0.05370248604365663
2340000000.0 0.060631095751971925 -0.1639579830871288
2360000000.0 -0.16600773571327332 -0.03862429213250358
2380000000.0 -0.09214695043486709 0.15211004760785632
2400000000.0 -0.18862480737341936 0.018078635956294654
2420000000.0 0.058234445522164634 0.1964737785599062
2440000000.0 -0.15451449883379603 -0.16899973154335393
2460000000.0 -0.049295376858256953 -0.25118584441732356
2480000000.0 0.1296172582053232 0.2536227032264638
2500000000.0 0.30692546082144584 0.06431365482905665
2520000000.0 -0.022449015305093183 0.3419214283562679
2540000000.0 0.016504794971584257 0.3742173864149607
2560000000.0 -0.39079287085618925 0.08792285099801632
2580000000.0 -0.12214483114736889 -0.40074755718833965
2600000000.0 0.43898859141395064 -0.004738334010808245
2620000000.0 -0.07207448129445682 0.4476587198852606
2640000000.0 -0.4381674890019277 -0.14746114580964736
2660000000.0 0.08173244345904383 -0.4623163194728311
2680000000.0 0.3991877661017028 -0.2519723213622679
2700000000.0 0.47589165323649363 -0.000523996045143488
2720000000.0 0.47882773718002114 -0.022406398283093078
2740000000.0 0.43413697461133915 -0.21412088577942615
2760000000.0 0.4353526754916335 -0.22527685381830434
2780000000.0 0.02149989387018539 0.4938519175104082
2800000000.0 -0.30001110668725167 0.399658352037318
2820000000.0 -0.47818251416537194 -0.15835363179562104
2840000000.0 0.3902157135159435 -0.32476460230701226
2860000000.0 -0.3867124738680034 0.3319746136489273
2880000000.0 0.5071646875944368 -0.05111532861819791
2900000000.0 -0.2731240677774824 -0.425414113694319
2920000000.0 -0.4450944317718874 0.22530392567772642
2940000000.0 0.11497175602149105 0.4756770719968692
2960000000.0 0.4570057780054234 -0.1437888500256432
2980000000.0 -0.11760742920515511 -0.4499682599128931
3000000000.0 -0.42474429861770596 0.14709481665995594
3020000000.0 0.3802642413207171 0.20711560088703962
3040000000.0 -0.0338152922371708 -0.416806432684661
3060000000.0 0.12924748657360674 0.38590206441085373
3080000000.0 0.06660412562095534 -0.38723579882616954
3100000000.0 -0.3090841527112094 -0.22624923068760983
3120000000.0 0.19842392094329747 0.3233341506746336
3140000000.0 -0.027227380794840272 -0.37558807262661054
3160000000.0 -0.37120411092457095 0.0641572583275644
3180000000.0 0.2047232471922299 0.31626095123211956
3200000000.0 0.367638513496508 0.062826919024964
3220000000.0 0.3676220931912583 0.004606050698069139
3240000000.0 0.3078422155245208 -0.2007254534953594
3260000000.0 0.35272296851228163 -0.034541861234110544
3280000000.0 0.11232897715194547 0.3189636790016428
3300000000.0 -0.24751239971893862 0.20144728889992483
3320000000.0 -0.15057892271221482 -0.26370344034829585
3340000000.0 0.15618092074624584 0.23973774316730792
3360000000.0 -0.2566957779824814 -0.05751094258869131
3380000000.0 0.16021907351917486 -0.18256431590359568
3400000000.0 -0.12419529786855599 0.1895760840704758
3420000000.0 0.0009991324638064926 -0.21518315269975505
3440000000.0 0.03465029979676534 0.1996098233978684
3460000000.0 -0.0012248301530386084 0.1916038780293005
3480000000.0 0.06257262194517474 0.17088203175231162
3500000000.0 -0.12667606685596877 -0.12314100525249659
3520000000.0 0.009717485875516008 0.17283061598948687
3540000000.0 0.16649265055924187 -0.03548681571946872
3560000000.0 0.07973824251973094 -0.15158975338372113
3580000000.0 0.16034907872943222 0.06784287393130267
3600000000.0 0.17142066938264555 -0.03520779245439802
3620000000.0 -0.07165203722437234 0.16677662356044992
3640000000.0 -0.1863396057135578 0.03739652658910803
3660000000.0 0.143530261022532 -0.13562131835126554
3680000000.0 -0.012946319702995547 0.19415143136765164
3700000000.0 0.16095579143633462 -0.10890818976579497
3720000000.0 -0.07245472010636131 -0.1709481780440825
3740000000.0 0.12164620692056437 -0.13342830927851895
3760000000.0 0.0008110365002372014 -0.17044778877332087
3780000000.0 0.08301961935457719 -0.1416495466661474
3800000000.0 0.14618652740040036 -0.026477911177678202
3820000000.0 -0.0707196394994658 0.11559903519247512
3840000000.0 0.07169110556032343 -0.0890623298819542
3860000000.0 0.008631537406847368 -0.09613680006036886
3880000000.0 -0.03215061267630633 0.0745943238636435
3900000000.0 0.023723760520770503 -0.07008804892982393
3920000000.0 0.025559602965696298 0.06494704024790056
3940000000.0 -0.0017167101709364362 0.05900090909489793
3960000000.0 -0.004358745507498664 -0.052224108686929914
3980000000.0 0.036346935609778405 0.017890525198439148
4000000000.0 0.027427217881016482 -0.017777779670112324
