!Created with skrf (http://scikit-rf.org).
# Hz S RI R 50.0 
!freq ReS11 ImS11
400000000.0 -0.8052765774698982 0.13548792338535498
420000000.0 0.4582045784507993 -0.6070281004481118
440000000.0 0.6930027847200803 0.1430461168408207
460000000.0 -0.44965870822519294 -0.46318870398021156
480000000.0 0.5705277827587399 -0.05536116548644777
500000000.0 0.5139626207323941 -0.22251226599061572
520000000.0 0.1293405651713071 0.45027964559403777
540000000.0 0.3839759924327917 -0.16624729053040743
560000000.0 -0.1770277442716539 0.3637311994158533
580000000.0 -0.27633418372425933 -0.28178584877491686
600000000.0 0.002665709104694079 -0.40550604513482363
620000000.0 -0.33103252854033294 0.23252854202887005
640000000.0 -0.015091827797820662 0.4000334804206208
660000000.0 -0.07607571005586364 0.38346381216611275
680000000.0 0.35245942661999907 0.13136767889320738
700000000.0 -0.32987931621381855 0.1518934498459086
720000000.0 0.07461547079873207 0.3379236084135792
740000000.0 0.3307406009800688 -0.04007841584335117
760000000.0 -0.22517034834526112 -0.1648048536177876
780000000.0 -0.1708329903723283 0.24146531320517411
800000000.0 -0.014355469675044408 -0.24879364155578246
820000000.0 0.24128695764290092 0.029807829949036416
840000000.0 -0.0159099435394358 0.2188085528460042
860000000.0 -0.07335952445097808 -0.18885109881041645
880000000.0 0.14541926546440828 0.12594485302609568
900000000.0 0.019268919892279968 0.15849824268623233
920000000.0 0.11375527855473504 0.05883165267286588
940000000.0 -0.003510157941742418 0.11711556214448206
960000000.0 0.05918212721604807 0.029252708482024964
980000000.0 -0.04183200951474524 0.048864592495965385
1000000000.0 -0.0533687537470734 -0.004666607864642394
1020000000.0 -0.00409673079477665 0.033242487184152375
1040000000.0 0.04438351198697673 0.039645963114387124
1060000000.0 -0.05234448439639105 -0.08550308515490544
1080000000.0 0.0990413750044676 0.07774080961406782
1100000000.0 -0.11404201698698303 0.15575270403371738
1120000000.0 0.0449570523267994 -0.2109305851816698
1140000000.0 0.1300834581053951 0.20882495259909348
1160000000.0 0.2587318482631642 0.10438728665032987
1180000000.0 0.021048371078036032 0.2830127120640594
1200000000.0 0.22988415843734247 -0.19616061894965156
1220000000.0 0.29921031899229755 0.1265474112786703
1240000000.0 0.0701647768054483 0.33843450397283154
1260000000.0 0.22047750239641856 -0.25437471412147844
1280000000.0 0.3280692365408584 0.08791222675989864
1300000000.0 0.3476785714177472 -0.019892114492937273
1320000000.0 0.027740004165054608 0.35906518281812466
1340000000.0 -0.18318240648089243 -0.3167451864128057
1360000000.0 0.09996482204057552 -0.3563249481881718
1380000000.0 -0.360959159483068 0.07655774288867043
1400000000.0 -0.13399675708910677 0.3540453715981096
1420000000.0 0.37183497420001427 -0.01456349698759051
1440000000.0 0.022451046097648204 -0.3754741070623316
1460000000.0 -0.365162367224764 0.07805178015314294
1480000000.0 0.28959817168439017 0.21522887576947825
1500000000.0 0.3249412913503198 0.04640064584988346
1520000000.0 -0.05681932924396643 -0.3087418315577609
1540000000.0 -0.27626349256243926 0.05942468759625089
1560000000.0 -0.11772145911841198 0.23230843241629018
1580000000.0 -0.1448974911149705 -0.166956093198284
1600000000.0 -0.05013260154153005 0.19299421947843315
1620000000.0 -0.147436053126971 -0.07324691620239213
1640000000.0 -0.0652035753475817 -0.12045184512993058
1660000000.0 0.07792282046002338 -0.08191605294241254
1680000000.0 -0.022371931059214874 -0.09416045738389993
1700000000.0 0.06173302446674533 -0.05258914811485873
1720000000.0 -0.02452690666061205 -0.06356369502508039
1740000000.0 0.04199760290014681 0.05086252782196522
1760000000.0 -0.044413228369194355 -0.06527053484350426
1780000000.0 0.058761382554481136 0.0920780855296671
1800000000.0 -0.12186979091395132 -0.06761978298593985
1820000000.0 0.07601369296588703 -0.14647805013113482
1840000000.0 -0.034330426137323455 -0.20509552068388598
1860000000.0 0.01809859720832373 0.24011820803091907
1880000000.0 0.2648544253549104 -0.03438021975776522
1900000000.0 -0.28861173744987495 -0.04902357807678467
1920000000.0 0.2777774457449763 0.09997567392101205
1940000000.0 0.1806785341077735 -0.2565074416457878
1960000000.0 -0.2958188248083357 0.1020962043985074
1980000000.0 0.29677141389195616 -0.13044359442118628
2000000000.0 0.19535492182768463 0.2541199808248572
2020000000.0 0.020534913036414557 0.314911736316716
2040000000.0 -0.008130742524717545 -0.3060318063234164
2060000000.0 0.28037922049824127 -0.14293068366091355
2080000000.0 -0.29473990976009834 -0.10309967241130913
2100000000.0 0.1356604883172499 0.26940320345935326
2120000000.0 0.03400786951096537 -0.29780056474189026
2140000000.0 0.1022961343642564 0.2767244623596847
2160000000.0 0.1607069829578117 -0.22066433251005843
2180000000.0 0.01840076855038683 -0.27903929581285786
2200000000.0 -0.25448658584272854 -0.07157194995398031
2220000000.0 0.09375956686894836 -0.24137467493029777
2240000000.0 0.11688552098663609 -0.21710019128265648
2260000000.0 0.22798176386925836 -0.08649911615761782
2280000000.0 0.10472362268155999 0.18856141543642507
2300000000.0 -0.2012151484522836 -0.02344070115093401
2320000000.0 0.18080419954162094 -0.052854203736688185
2340000000.0 0.003475047922524981 -0.17484107893086848
2360000000.0 -0.14171166247219696 0.094136806116326
2380000000.0 0.0711631188402915 0.1606575940221027
2400000000.0 -0.180804821835785 0.052055267016426786
2420000000.0 0.1613922492367957 0.12412337566553447
2440000000.0 -0.21631850908114775 -0.07134324001855202
2460000000.0 -0.08734353675346701 -0.24022772076073443
2480000000.0 0.21868742698735405 0.1783805749920779
2500000000.0 0.2986183172341834 0.09534140050252525
2520000000.0 0.06969351255086033 0.3340997757063531
2540000000.0 0.09996954917271189 0.36256855859292925
2560000000.0 -0.3762436194204004 0.13435841343471475
2580000000.0 -0.17169276717552545 -0.3809630236361971
2600000000.0 0.4335638914461989 -0.06500911263050917
2620000000.0 -0.04129674875683221 0.45187789911712367
2640000000.0 -0.4498409295815227 -0.10523200658121058
2660000000.0 0.06259219234971194 -0.4647355405990271
2680000000.0 0.3698804039401576 -0.2923904117054621
2700000000.0 0.459606018149981 -0.12157536412619017
2720000000.0 0.43181160871297075 -0.20872297568609532
2740000000.0 0.39737495772342407 -0.2756921734639906
2760000000.0 0.36552107235893383 -0.32531704881262935
2780000000.0 0.1964297309815502 0.4530973451688066
2800000000.0 -0.16504112499284238 0.470698773229639
2820000000.0 -0.49901144722018226 -0.06466218505029969
2840000000.0 0.34470711066564924 -0.371324547977076
2860000000.0 -0.36782262047166614 0.35120397657989955
2880000000.0 0.508773554733626 -0.027247483499298595
2900000000.0 -0.21919428442558261 -0.45511527285349684
2920000000.0 -0.4392808555880796 0.23579742406263773
2940000000.0 0.22500032446161758 0.43441267856994065
2960000000.0 0.4459468348555596 -0.17404983833459212
2980000000.0 -0.12856795655441636 -0.44615180839247304
3000000000.0 -0.38531491438413734 0.22905329986960515
3020000000.0 0.4059418399915116 0.1455791022347875
3040000000.0 -0.05127800236309751 -0.4138225024907382
3060000000.0 0.09931826156981562 0.39379605408356594
3080000000.0 0.03445960702639697 -0.39216545275234316
3100000000.0 -0.33558328148599925 -0.18595123355382334
3120000000.0 0.20741120439939975 0.31837184454083833
3140000000.0 -0.00566177081787431 -0.3780461432921974
3160000000.0 -0.3571544103923751 0.12026378630884621
3180000000.0 0.2573094641787411 0.27723391031806616
3200000000.0 0.37143092572717845 0.025778965589198018
3220000000.0 0.36683703825314656 -0.01737076505737419
3240000000.0 0.27670312079053866 -0.2409995999740438
3260000000.0 0.35025254647400234 0.05072314125620358
3280000000.0 0.1479312542145293 0.3036259417146813
3300000000.0 -0.23973400012353535 0.20968259528755745
3320000000.0 -0.2155333462185252 -0.21465309856927894
3340000000.0 0.23391851569714212 0.16337292576562162
3360000000.0 -0.23292849352764214 0.12354805734239767
3380000000.0 0.007635886929063204 -0.24145204606435472
3400000000.0 0.0712989953215783 0.21374757133739133
3420000000.0 -0.17230023439201306 -0.1253272295663283
3440000000.0 0.08498684233887895 0.1806364879423763
3460000000.0 0.12674879634834765 0.14003234661551106
3480000000.0 0.16026434404966006 0.08236830953102006
3500000000.0 -0.1731838451586167 -0.017810521043896507
3520000000.0 0.08446156764293826 0.14973044266753852
3540000000.0 0.12596760998915 -0.11135475637801703
3560000000.0 0.0004536482337170383 -0.17048766606442078
3580000000.0 0.14211278481625625 0.10289765995659919
3600000000.0 0.1660958615065486 -0.06644394070623062
3620000000.0 -0.07628150457334788 0.1688804986064692
3640000000.0 -0.17070470221382417 0.09282003946360698
3660000000.0 0.1305638374109494 -0.15578317941639752
3680000000.0 0.11660958559651004 0.1602112455237184
3700000000.0 0.1023093404189462 -0.17044991557337277
3720000000.0 -0.1710437460417174 -0.08356015802338666
3740000000.0 0.08876933730796312 -0.16052490097170005
3760000000.0 -0.045510118676162906 -0.16781976853804262
3780000000.0 0.0938798599841292 -0.13694358302990764
3800000000.0 0.12155320277663827 -0.08922704707196143
3820000000.0 -0.1341069526337243 0.02037169284422862
3840000000.0 0.10391732200176965 -0.05156218858302606
3860000000.0 0.06764602343793813 -0.07117096604798141
3880000000.0 -0.08411228749195451 0.008028009215159301
3900000000.0 0.055632118081315296 0.05433823161118676
3920000000.0 -0.01174566072343069 0.07215870506189101
3940000000.0 0.012403681530311204 0.06147769365886063
3960000000.0 0.02505291504516121 -0.0481933743794872
3980000000.0 0.039404659148431706 -0.013696804357767794
4000000000.0 -0.0037351003299753763 -0.03507022451046169
