!Created with skrf (http://scikit-rf.org).
# Hz S RI R 50.0 
!freq ReS11 ImS11
400000000.0 -0.695129580783634 0.427582545584052
420000000.0 0.511001259906566 -0.5591370429633508
440000000.0 0.6694987068581376 -0.22992250999167482
460000000.0 -0.43330779667610875 -0.4706079600968992
480000000.0 0.4923317177704402 0.28507617967654897
500000000.0 0.5337894365519211 0.1472420732671564
520000000.0 0.23277479019748942 0.4061016517677357
540000000.0 0.3701308598215821 -0.16675338325791353
560000000.0 -0.39673669698918285 -0.010624151968048563
580000000.0 0.043508961064463496 -0.38598754607443186
600000000.0 0.3455495391270912 0.208134609369905
620000000.0 0.24127835130327555 -0.33551651880391375
640000000.0 0.25411211843149545 0.32249084367413805
660000000.0 -0.4006262990202625 -0.0013837898700548887
680000000.0 0.34479855581711605 0.167365178240796
700000000.0 -0.36060490674764084 0.09266037292006729
720000000.0 0.2178204417004053 0.2718275291758279
740000000.0 0.2829756881546496 0.16355547319671293
760000000.0 -0.14996882011548565 -0.2391949427089624
780000000.0 -0.2852131995995238 0.050505838167737335
800000000.0 0.19193821891655116 -0.16590033304074386
820000000.0 0.24279247821319438 -0.011142058150026026
840000000.0 -0.18139500735020986 0.12062728123787604
860000000.0 -0.10453734493522501 -0.1798820651909038
880000000.0 -0.09781656457210484 0.17036594072656244
900000000.0 -2.8033647191307738e-05 0.16301561641902648
920000000.0 0.11437903119244971 0.07103492823711823
940000000.0 0.0921855840648092 0.07924478447781812
960000000.0 0.010962357851914389 -0.07095851239722822
980000000.0 0.047329322184482166 0.03516488806559372
1000000000.0 -0.05399876220010847 0.009289810808498956
1020000000.0 -0.02513780525500235 -0.028807590597936455
1040000000.0 0.018878005161611092 -0.05519601858756162
1060000000.0 -0.023213859396931144 -0.1029181654112116
1080000000.0 0.12817391362051508 0.008928125886579251
1100000000.0 -0.1127119630181917 -0.1537583751990503
1120000000.0 -0.05127387697924206 -0.21061117338306345
1140000000.0 0.17786056000218517 0.17075360474232032
1160000000.0 0.21581206274151868 0.18116359874714064
1180000000.0 0.24310561700435449 0.15785413676713092
1200000000.0 -0.10498359773673908 -0.28335193904586653
1220000000.0 0.30244596223854664 -0.10427713215381207
1240000000.0 0.1693497033342901 0.29727659204255336
1260000000.0 0.19065629349576949 -0.27280507246727304
1280000000.0 0.19503027003893159 0.2753304313105878
1300000000.0 0.3479814951161499 0.03614136078307134
1320000000.0 0.15125578348857807 0.3235574327830124
1340000000.0 -0.1545192831579869 -0.3304380441817953
1360000000.0 0.03522151750607182 -0.37094093065052236
1380000000.0 -0.3304060479011613 0.16334848700722795
1400000000.0 -0.11255565523395396 0.35889990758499873
1420000000.0 0.36901238879715803 0.03507973409393902
1440000000.0 -0.032545788597298134 -0.37708691253423576
1460000000.0 -0.3696045766430166 0.03815607762048831
1480000000.0 0.30987573893393466 0.1862080005154937
1500000000.0 0.33141393414787956 -0.010187213752283684
1520000000.0 0.054339807361159745 -0.30686207090336015
1540000000.0 -0.28125243029631875 0.039585161181125275
1560000000.0 -0.01604982138431391 0.2602915684076708
1580000000.0 -0.12694430654502645 -0.18135761357166913
1600000000.0 -0.15523306074758378 0.12142730765849143
1620000000.0 -0.09577925451114716 -0.13300305526693737
1640000000.0 0.007520960418830946 -0.13542395747888572
1660000000.0 0.09111219086493072 -0.07002847784420163
1680000000.0 -0.0959984230303564 0.024564359928852066
1700000000.0 0.059103747090771215 -0.05229556734722081
1720000000.0 -0.05354246280151896 -0.040756548444222634
1740000000.0 0.011816900472762291 0.06471453653316671
1760000000.0 -0.07742916812038914 -0.006212238599323012
1780000000.0 0.10736076809535908 -0.021701876897884876
1800000000.0 -0.05282843495601427 -0.12828742757214817
1820000000.0 -0.10499726875103493 -0.12466829188062456
1840000000.0 -0.08079281290764813 -0.1889941318604196
1860000000.0 0.08144262013694556 0.2260252959111206
1880000000.0 0.2633706711576631 0.03223726059826015
1900000000.0 -0.24784163622055458 -0.15807684143207584
1920000000.0 0.21005320257529703 0.2091498336370018
1940000000.0 0.2705102922096425 -0.16027813317128722
1960000000.0 -0.3087208185006429 -0.06307408454430953
1980000000.0 0.3083789761548289 -0.10752804241237617
2000000000.0 0.202491599759321 0.2486053437971224
2020000000.0 0.10647174845272074 0.29602825795627363
2040000000.0 0.06960249897572314 -0.2984896565689451
2060000000.0 0.28880820340581687 -0.1220865810190241
2080000000.0 -0.25069542710801107 -0.18942898132787175
2100000000.0 0.027064180910452804 0.30257987561815075
2120000000.0 0.07943289820572975 -0.28863717852818715
2140000000.0 0.0785894638862164 0.28652034691612205
2160000000.0 0.13543223157397044 -0.24228505612647272
2180000000.0 -0.10872719497736859 -0.2576636568157117
2200000000.0 -0.259493631609312 0.05935442230230566
2220000000.0 -0.010310352482707636 -0.25881049681271107
2240000000.0 0.0027283519107557243 -0.24700706290492505
2260000000.0 0.15944700595314787 -0.180143732980512
2280000000.0 0.09760980459380662 0.19182813354802225
2300000000.0 -0.15869065429497348 -0.1229541175021353
2320000000.0 0.1547374231259184 0.10500292470799114
2340000000.0 0.04732858745430103 -0.16924213870016055
2360000000.0 -0.16712544895650283 0.02996260183132973
2380000000.0 0.001591874109114095 0.17704730726686635
2400000000.0 -0.18850169511959852 -0.01288016836709622
2420000000.0 0.051644579992246004 0.19756421889973538
2440000000.0 -0.17886095661228105 -0.14242745600616194
2460000000.0 -0.0333691497612505 -0.25238219236141
2480000000.0 0.18196015388984807 0.2177387247411944
2500000000.0 0.3111109093788831 0.03864681249879925
2520000000.0 0.04462643058693254 0.3398126869573012
2540000000.0 0.08994464261724541 0.36436784790593973
2560000000.0 -0.3746048976627372 0.1407117924888087
2580000000.0 -0.1429925727944715 -0.3937023461208162
2600000000.0 0.43974440282598476 -0.006677163753577041
2620000000.0 -0.05445903753278678 0.45075917765336737
2640000000.0 -0.4383836228885708 -0.14767154246275055
2660000000.0 0.10063107129685143 -0.4578816352808889
2680000000.0 0.4137984573447221 -0.2251045985820804
2700000000.0 0.47007699523110724 -0.06588788531291817
2720000000.0 0.45162855900385684 -0.15911115449758273
2740000000.0 0.44477937908952825 -0.1891164923848068
2760000000.0 0.36418183920606856 -0.32735949122786495
2780000000.0 0.09615541277785516 0.4840154856134906
2800000000.0 -0.2271689460850035 0.44465209154525104
2820000000.0 -0.49803938423616345 -0.07620848153537939
2840000000.0 0.40022831645785 -0.3127526317351497
2860000000.0 -0.3763253623194301 0.34402356598753125
2880000000.0 0.5083437445623845 -0.0416459250159796
2900000000.0 -0.24654132198131362 -0.4408889869920632
2920000000.0 -0.43471859416054975 0.24371113285879142
2940000000.0 0.13451535388496275 0.4695622342859415
2960000000.0 0.4696828288491723 -0.09131665004196603
2980000000.0 -0.0605760774935091 -0.45984292245735114
3000000000.0 -0.40453309719402525 0.19042831813508737
3020000000.0 0.39271113156086007 0.17859150725791115
3040000000.0 -0.07239382688819966 -0.41096328987640474
3060000000.0 0.189955369213246 0.3589736003645255
3080000000.0 0.0181704908005954 -0.39091958051371617
3100000000.0 -0.34617124765657026 -0.16117190949754953
3120000000.0 0.1984276237784195 0.3231561719147466
3140000000.0 -0.006375948070363336 -0.37662875968446174
3160000000.0 -0.3726669566611038 0.05580398509022778
3180000000.0 0.20146461388052997 0.3191489896992816
3200000000.0 0.37202418923579883 0.021459636369013494
3220000000.0 0.3673464479148841 0.005622012735806078
3240000000.0 0.27694429536619064 -0.23927109184529233
3260000000.0 0.35317607588663896 0.02375764950582004
3280000000.0 0.09863128395351572 0.32254307773495927
3300000000.0 -0.26156478082717965 0.1807138387275654
3320000000.0 -0.19686773700410515 -0.22902218870017754
3340000000.0 0.20557022083255602 0.19666264820917254
3360000000.0 -0.2620576899370552 0.01785476997675085
3380000000.0 0.08328085808292414 -0.2279783110282174
3400000000.0 0.019667354400975317 0.22623720865154873
3420000000.0 -0.13969745093211178 -0.16511858525792455
3440000000.0 0.1691726958579032 0.11084644460190649
3460000000.0 0.0949036123728485 0.1674792416732798
3480000000.0 0.1581063553438683 0.09332448461725923
3500000000.0 -0.14350720276187773 -0.10511121406348306
3520000000.0 0.02020989367705096 0.17335011312716025
3540000000.0 0.1683921366661278 0.02931723172541405
3560000000.0 0.08610260417141012 -0.14939675120978296
3580000000.0 0.13500587747740903 0.11107490379020331
3600000000.0 0.17452717717036395 -0.01875655834997564
3620000000.0 -0.11874959391839432 0.1383759224833297
3640000000.0 -0.1909989657934955 0.013189687206676097
3660000000.0 0.1274289241125104 -0.1498120895739543
3680000000.0 0.10568984847615076 0.16304726872499273
3700000000.0 0.14137059858531317 -0.13034755286802963
3720000000.0 -0.07438774895338614 -0.17084005294771687
3740000000.0 0.08227105058485011 -0.15872969022240957
3760000000.0 0.010350203021477385 -0.16982212561721782
3780000000.0 0.016842904287121964 -0.16282378766070774
3800000000.0 0.1464704585677001 -0.027557956252419583
3820000000.0 -0.11006369225453701 0.07810928248735369
3840000000.0 0.038613991563304285 -0.10905783643054202
3860000000.0 -0.0472937978453398 -0.08507773223147579
3880000000.0 0.06127875596434558 0.05481867242114511
3900000000.0 -0.03040316573156213 -0.06862766133389643
3920000000.0 0.0688396643612901 -0.013489672603979035
3940000000.0 0.059056941944601656 0.00879922018016479
3960000000.0 -0.040156676237662156 -0.03571216158482907
3980000000.0 0.022124550872317638 0.035472395810298644
4000000000.0 -0.03309866881968958 -0.009837693993754004
