!Created with skrf (http://scikit-rf.org).
# Hz S RI R 50.0 
!freq ReS11 ImS11
400000000.0 0.09233759382359172 -0.799170722649728
420000000.0 0.2672023873110201 0.7047492494932214
440000000.0 -0.6410108031159975 0.30434318992141246
460000000.0 0.489637349226677 0.4322299005665393
480000000.0 -0.23905025451915723 0.5535819769512837
500000000.0 0.4556898012078928 0.3143362760452103
520000000.0 -0.47349628585142584 0.07922239671546331
540000000.0 -0.038780023620403746 -0.4313352359073614
560000000.0 -0.13736827041315747 0.36839752438087175
580000000.0 -0.1573332776006333 -0.32959674295003377
600000000.0 -0.22655328826346863 0.29874735559609245
620000000.0 -0.22506902018287298 -0.32005936193080375
640000000.0 0.28341768134341566 0.285767587493195
660000000.0 -0.2535645276486939 0.30479115297194176
680000000.0 0.37814852285342654 0.09690549931025945
700000000.0 -0.05942684780124745 0.37888526342316775
720000000.0 0.23040981596109764 0.2801184145711814
740000000.0 0.34158703504405896 -0.09997102830352267
760000000.0 0.04866190112286691 0.31218954173290503
780000000.0 -0.08449169742830039 -0.3077759907424199
800000000.0 0.2783263791077336 -0.024208624781867756
820000000.0 0.07039271285752566 -0.2598460046352854
840000000.0 0.1971756879335552 -0.12382954824528775
860000000.0 -0.2008271481607767 -0.08771913079208964
880000000.0 0.14308458961347664 0.15265378137010616
900000000.0 0.1665744461842518 0.00033116148090000483
920000000.0 0.10922478324755316 -0.09407532020233449
940000000.0 -0.1304091443610605 -0.0416160563720127
960000000.0 -0.06543207626129109 0.05899146318049439
980000000.0 -0.013812624745046333 -0.06696778648675791
1000000000.0 0.03756920827765724 0.04995594433309992
1020000000.0 0.02733643620653995 -0.040902368534456744
1040000000.0 0.015292963994520304 0.06874098143458333
1060000000.0 0.09684289829633645 -0.04673224972955894
1080000000.0 0.13480362540642066 -0.0038216427468650755
1100000000.0 -0.1344254626275987 0.13498015796831186
1120000000.0 0.05094865332610276 0.2074719609267007
1140000000.0 0.029440042180676775 0.24598465429640087
1160000000.0 -0.17344682865923403 0.2231857332056357
1180000000.0 -0.28715441007048587 0.0506416089573795
1200000000.0 0.16423533171501398 -0.2617935323929689
1220000000.0 0.27413446260268753 0.17795444786782458
1240000000.0 -0.13228342493178713 0.3188208471182314
1260000000.0 0.34183985031741154 -0.022030850657373854
1280000000.0 0.07827684062969112 0.3376762154890305
1300000000.0 0.16421602672838484 0.3200944745048272
1320000000.0 0.036388091616183206 0.3726187706699802
1340000000.0 0.038854992486761136 -0.37464403469296725
1360000000.0 0.1945893239123867 -0.333440110463151
1380000000.0 -0.23325840052563643 0.305090130995144
1400000000.0 0.35442138785079025 0.1606779743557868
1420000000.0 -0.19476650006349724 -0.33091144220500285
1440000000.0 -0.08400016599408788 0.3726430382731272
1460000000.0 0.29592683703039285 0.21495331227746683
1480000000.0 0.20194869837854104 -0.29399625554367365
1500000000.0 0.025686709032102517 -0.3221298011164172
1520000000.0 -0.2526174473156049 0.17295635885151767
1540000000.0 0.08477334419942421 0.26168901834737357
1560000000.0 0.2373872110670309 0.08974537792132939
1580000000.0 -0.18660498813665113 0.09258478572598951
1600000000.0 -0.13673568911260586 0.12766213476800106
1620000000.0 -0.023336081049415296 -0.15650896107819628
1640000000.0 0.13288332109178494 -0.00034989234522294184
1660000000.0 0.049422990177218525 -0.09865105323921515
1680000000.0 0.09482067134649219 -0.005607520986413019
1700000000.0 -0.07797037088813565 0.0037885589393510813
1720000000.0 -0.057365553977055735 0.04098356503630032
1740000000.0 0.06729206991288002 0.01830663355035823
1760000000.0 0.05738737734065681 0.05437775987363354
1780000000.0 0.10284702934822626 -0.04191808535685479
1800000000.0 0.04037760967197578 -0.13777531334591592
1820000000.0 0.032824505008614016 -0.16489459210178348
1840000000.0 0.046086215195582834 -0.20737067253679775
1860000000.0 0.23187590893056387 0.07963597421036159
1880000000.0 0.21481550132662314 -0.1621308470093851
1900000000.0 -0.2614997939110302 0.14266657185568737
1920000000.0 0.2772348988706131 -0.1011390787267278
1940000000.0 -0.04111405433399401 -0.3111385118404004
1960000000.0 -0.02989276914204744 0.3133184193733998
1980000000.0 0.021602370151769777 -0.32046041927812763
2000000000.0 0.30845718565675734 -0.08629984277402575
2020000000.0 0.2135181051869347 0.22824482188062375
2040000000.0 -0.24673889645588296 -0.1779809902294861
2060000000.0 0.02103622647413352 -0.3073978623472384
2080000000.0 -0.28105002201356655 -0.12816468675532414
2100000000.0 0.1521561277376978 0.2590524204436893
2120000000.0 0.042336008548120634 -0.2887941218495822
2140000000.0 0.1821725697611954 0.2244843478850609
2160000000.0 0.20906006305294256 -0.17400875887961004
2180000000.0 0.19607636034515036 -0.186693834069441
2200000000.0 -0.19099650917998176 -0.1739366917449457
2220000000.0 0.20830432294567172 -0.14421129582883366
2240000000.0 0.1739711557402486 0.16549035057900316
2260000000.0 0.09093291431862348 0.2168491858568685
2280000000.0 -0.1494905598211508 -0.1546799395091891
2300000000.0 0.19443453446523973 0.06709458383007691
2320000000.0 -0.16819943970495144 0.09792026938380247
2340000000.0 0.1667027971782487 -0.08762273099068
2360000000.0 -0.13702579133695142 0.11754510762772606
2380000000.0 0.06942688065353254 -0.1737108467632783
2400000000.0 0.19145356366216792 0.02346284842600163
2420000000.0 0.08893341217667627 -0.1823097879670716
2440000000.0 -0.055426625615666324 0.21857920498642264
2460000000.0 -0.22414796482304214 -0.1017844506962767
2480000000.0 0.14446943488041322 0.234932853861798
2500000000.0 0.22962709011175797 0.19896063992378904
2520000000.0 -0.1509624546952602 0.2991539083971973
2540000000.0 -0.25568157061561725 0.2654190165990297
2560000000.0 -0.3801968037166165 -0.10641066378701962
2580000000.0 0.17009459526170725 -0.3789686748810333
2600000000.0 0.37853624221155024 0.21605316620530157
2620000000.0 -0.22406618501513734 0.39311142129089666
2640000000.0 -0.4046437016221882 -0.22166212793634035
2660000000.0 0.15852751277346244 -0.4415312370195972
2680000000.0 0.45445344760556516 -0.12403735828243652
2700000000.0 0.4727629880372521 0.041535486720768726
2720000000.0 0.47606793580317 0.032387944173281655
2740000000.0 0.4595858152576765 -0.14190540607850566
2760000000.0 0.45702417701441606 -0.16447042071575463
2780000000.0 -0.002979914402369231 0.4904088806328638
2800000000.0 -0.31027068665762303 0.3860537560861734
2820000000.0 -0.4721504922184729 -0.1652715324400541
2840000000.0 0.4316042433891668 -0.2601670297194753
2860000000.0 -0.3961102773311766 0.3154994797231917
2880000000.0 0.5063195449403475 0.03992974716145113
2900000000.0 -0.11329623903140021 -0.4916906365102102
2920000000.0 -0.47445702087265845 0.15347955328710491
2940000000.0 0.10356025367973877 0.47930871475951004
2960000000.0 0.47797192371993585 -0.028061308145561334
2980000000.0 -0.13506098386120147 -0.4422487076406758
3000000000.0 -0.40783241380389995 0.17978973206887247
3020000000.0 0.36596815625685336 0.2199541597597281
3040000000.0 -0.04357047697319513 -0.4117728438300477
3060000000.0 -0.04939207220055544 0.3958962303086704
3080000000.0 0.27586960599653637 -0.26804985076982646
3100000000.0 -0.34393951356953373 0.15370741124468404
3120000000.0 -0.12462374262764353 0.3513802306302368
3140000000.0 0.3221129272784207 -0.18876775023872894
3160000000.0 -0.3218854291744416 -0.1936763025854109
3180000000.0 -0.06832671321069576 0.36943223405503023
3200000000.0 0.21250713102447197 0.30587402616926396
3220000000.0 0.3312617159738816 0.1687689559353226
3240000000.0 0.3690380290475311 -0.006120138443079082
3260000000.0 0.3350046655270567 0.12102515406846215
3280000000.0 0.05191297109508461 0.3378398922969081
3300000000.0 -0.21236541639735892 0.2415723694727811
3320000000.0 -0.21791461966684167 -0.21307750249176563
3340000000.0 0.20976241742564639 0.19244621332101697
3360000000.0 -0.2605639854841411 0.026436466343826497
3380000000.0 0.00156238575002958 -0.24085862136093716
3400000000.0 0.05346044157218098 0.2156849660862405
3420000000.0 -0.07174513798112778 -0.19662409712782963
3440000000.0 0.06151946557397344 0.18472012673338925
3460000000.0 -0.12784846064631206 0.1320516099367881
3480000000.0 -0.10084271422887225 0.1400471234410662
3500000000.0 0.1521147901795163 -0.07287956986063501
3520000000.0 0.1261985418054436 -0.10902298593858105
3540000000.0 -0.15991185302458677 0.03264606065343851
3560000000.0 -0.1147303464518501 0.12297987880980782
3580000000.0 -0.10915582144019015 -0.13559561251096222
3600000000.0 -0.14182452186097202 0.10674938992899395
3620000000.0 -0.11625573556110723 -0.14160415110718313
3640000000.0 0.0950200988660629 -0.16679999612318114
3660000000.0 0.035989904438681636 0.19853550817751056
3680000000.0 -0.19883354642667367 -0.024978612340497596
3700000000.0 0.15955626741427847 0.12399027772928557
3720000000.0 -0.054756802084503856 -0.1847367347813887
3740000000.0 -0.07287908062951971 -0.17209916622407329
3760000000.0 -0.15841720659562966 -0.06713905329569203
3780000000.0 -0.05206751616181558 -0.15663756579879945
3800000000.0 0.08449169518227873 -0.12107660745905481
3820000000.0 -0.122117210117767 0.05337943817380455
3840000000.0 0.10693269229908473 0.04008176832054787
3860000000.0 0.0213500871256325 -0.09491464230389456
3880000000.0 -0.05784938290622291 0.05690347951896123
3900000000.0 0.06945420369416921 -0.027607827081319498
3920000000.0 0.050567776924067984 0.04333145108530429
3940000000.0 -0.05659930467091553 0.019114745195260123
3960000000.0 0.05004963977392841 0.007941853010286715
3980000000.0 0.033319175147187546 -0.024729959621743763
4000000000.0 0.0059247598292506325 0.03490368906411395
