!Created with skrf (http://scikit-rf.org).
# Hz S RI R 50.0 
!freq ReS11 ImS11
400000000.0 -0.7949180405374365 0.18499466619658464
420000000.0 0.37573879165931656 -0.6609146801554164
440000000.0 0.704614770239839 0.07011276405082201
460000000.0 -0.346657872092529 -0.5462509971351542
480000000.0 0.5493002672616352 0.1583016856151903
500000000.0 0.4830649482619828 -0.29005403119434015
520000000.0 0.22612891545339048 0.40901034965709643
540000000.0 0.3179146496013632 -0.2689386747774751
560000000.0 -0.29569878663786425 0.2761291704322556
580000000.0 -0.32099192700334506 -0.22932575108943826
600000000.0 -0.08317144835939518 -0.3989479935036196
620000000.0 -0.37310806589190776 0.15670748386873898
640000000.0 0.1194909861926702 0.38484643057070395
660000000.0 -0.17774771748346763 0.3462524958278359
680000000.0 0.37595966836369454 -0.016298058624418812
700000000.0 -0.35558605804579496 0.068885663707854
720000000.0 0.2590515308195863 0.23049700032409112
740000000.0 0.33077740270469386 -0.035701025156257636
760000000.0 -0.2774746308025644 -0.029367447275093838
780000000.0 -0.11712222648468658 0.2684211728393019
800000000.0 0.04673282008689466 -0.24600406400425934
820000000.0 0.24320301917528503 0.027729650884807142
840000000.0 -0.11438334745561174 0.1874775370722446
860000000.0 -0.0037273737059879608 -0.19988519820652156
880000000.0 0.12426484623048889 0.15057875284532563
900000000.0 0.06785245615488118 0.1425974479466382
920000000.0 0.11848458077708751 0.051355194161859075
940000000.0 -0.032931683706718166 0.11386427537597359
960000000.0 0.06452047489696289 0.010984258015613145
980000000.0 -0.04786256484584957 0.03751994445433122
1000000000.0 0.011864270389946478 -0.054434724074995375
1020000000.0 0.0335123366593542 -0.004974072661053973
1040000000.0 0.057932819333417755 -0.0030995838401976696
1060000000.0 -0.037609429898372404 -0.09244024931302365
1080000000.0 0.113682600718079 0.05870950052324041
1100000000.0 -0.1781933740667855 0.07118944861692407
1120000000.0 -0.08902155775886957 -0.19704444708705923
1140000000.0 0.15035770008426336 0.19448936033259376
1160000000.0 0.22705788293075094 0.1606090244497453
1180000000.0 0.03266047448787374 0.28312201949857746
1200000000.0 0.15838298000631318 -0.2583756261831524
1220000000.0 0.2767842673960856 0.169254301871964
1240000000.0 0.019401547777263925 0.34687005924416325
1260000000.0 0.27396014318267153 -0.19445863698976978
1280000000.0 0.3194302004556103 0.11178678276755326
1300000000.0 0.34873295361401563 -0.012051557480895241
1320000000.0 0.14398518853969772 0.32961689936733074
1340000000.0 -0.13265055399782025 -0.340864429045204
1360000000.0 0.0650102758101164 -0.36463890813160904
1380000000.0 -0.34170684277271435 0.1384847420990399
1400000000.0 -0.06014992486868133 0.3727893401480184
1420000000.0 0.3689206761852138 -0.04979770105162123
1440000000.0 0.014217704121913179 -0.37780474398103614
1460000000.0 -0.3544257653565065 0.11163608124832079
1480000000.0 0.24879895857030615 0.26367503527075964
1500000000.0 0.32233617058011943 -0.07287819451093326
1520000000.0 -0.003989389585108329 -0.3124846800726946
1540000000.0 -0.2823604339011212 0.02733071535772115
1560000000.0 -0.03215700061761519 0.2586677876971715
1580000000.0 -0.09409921530017268 -0.2000910177554627
1600000000.0 -0.12420353426704671 0.15543010953500663
1620000000.0 -0.15784576828254013 -0.04413863717725965
1640000000.0 -0.11576798115214872 -0.06842691888955438
1660000000.0 0.02374726696451276 -0.1092649801379747
1680000000.0 -0.09639849950322343 -0.01900693844801879
1700000000.0 0.07102971732437897 0.03778897278649496
1720000000.0 -0.06444778355643012 -0.02158312282272469
1740000000.0 0.06257649163039164 0.021913317504236564
1760000000.0 -0.05764123625766151 -0.05164356577730759
1780000000.0 0.09942199122868375 0.04220949738629593
1800000000.0 -0.10628631891550218 -0.08921931380765877
1820000000.0 -0.004459284198609906 -0.16512497040375193
1840000000.0 -0.05367452921204464 -0.20061416114430214
1860000000.0 0.11980889173274452 0.20977734549310856
1880000000.0 0.2511293998449691 -0.08650990391288842
1900000000.0 -0.28288043323101864 -0.0791167816371719
1920000000.0 0.27722154597673565 0.10277006558864339
1940000000.0 0.2302646179057015 -0.21430942581667228
1960000000.0 -0.2868715888969468 0.12655969254765415
1980000000.0 0.30631578953306005 -0.10136892209577439
2000000000.0 0.22286408603124253 0.23074229453166506
2020000000.0 -0.009572536770991588 0.31480091595024945
2040000000.0 0.07689345081896592 -0.29654874306862994
2060000000.0 0.2748307874471791 -0.15384494193482706
2080000000.0 -0.29480210778154803 -0.10430176088910843
2100000000.0 0.19192589305520313 0.23228810067203565
2120000000.0 0.03346518288967766 -0.296549150373207
2140000000.0 0.16899754377167425 0.24200942926790592
2160000000.0 0.09176193940281695 -0.25668838705497976
2180000000.0 -0.04610808397244522 -0.2750421810321261
2200000000.0 -0.2162625200293497 -0.15504184596266565
2220000000.0 0.03533864676268127 -0.25771122161407284
2240000000.0 0.1406284373507369 -0.20289232713868302
2260000000.0 0.22926612864061438 -0.0825446306449981
2280000000.0 0.056163923419751835 0.20922997547117872
2300000000.0 -0.17297113537884373 -0.10628594421658415
2320000000.0 0.17222652992093415 -0.07710833096132168
2340000000.0 0.029444766148728603 -0.17198446429050998
2360000000.0 -0.15640603588229013 0.06204701477677743
2380000000.0 -0.056995941409309726 0.16853607659482248
2400000000.0 -0.18047696335635247 0.05420125925035815
2420000000.0 0.14082364013520549 0.14626917584509133
2440000000.0 -0.22412127710631333 -0.03550473562479262
2460000000.0 -0.053009355761524886 -0.24901297256203025
2480000000.0 0.22632689971687467 0.1695565631867963
2500000000.0 0.3120231270640207 -0.03675098042927277
2520000000.0 0.1667537636895222 0.2989822810922349
2540000000.0 0.1668525576393209 0.33652839096649917
2560000000.0 -0.36557747590447154 0.16431675471461551
2580000000.0 -0.1788318008286609 -0.37793941159475736
2600000000.0 0.4392711972608613 0.0006790669842983316
2620000000.0 -0.07361175418827395 0.44754021395327703
2640000000.0 -0.4424474306674352 -0.1312134488673192
2660000000.0 0.03432426936028977 -0.4671446166664836
2680000000.0 0.3825327531111842 -0.27540445520120777
2700000000.0 0.4593807813383419 -0.12155030065616723
2720000000.0 0.42637308132621715 -0.21832479568395605
2740000000.0 0.31074234388843647 -0.3706434358415453
2760000000.0 0.2707765173283909 -0.4079727838935197
2780000000.0 0.2514892246799493 0.42534530702575163
2800000000.0 -0.14395168810064485 0.47792865147338487
2820000000.0 -0.5035180661729654 -0.00820820656743231
2840000000.0 0.3150626290889732 -0.3974335161655521
2860000000.0 -0.3274075438868696 0.3902341155973578
2880000000.0 0.5092227320148189 -0.017941955373322518
2900000000.0 -0.22431088347710157 -0.4521998688730201
2920000000.0 -0.4282098403526114 0.25273681857707697
2940000000.0 0.18061330116866559 0.4536699854539615
2960000000.0 0.44256256627477253 -0.17849736187372986
2980000000.0 -0.1654833701635485 -0.43300595976697875
3000000000.0 -0.3556999430856988 0.2700671395952017
3020000000.0 0.42854810320191944 0.04006501926973072
3040000000.0 -0.1525910861290767 -0.3879180408117231
3060000000.0 0.20916914784264995 0.34787851888585014
3080000000.0 -0.09465512336655509 -0.3819087745358113
3100000000.0 -0.3652393814620418 -0.1163312370142886
3120000000.0 0.27689831239681034 0.26188925721852097
3140000000.0 -0.048021644438086805 -0.37529475902409637
3160000000.0 -0.3711781988149718 0.07604523170015333
3180000000.0 0.2555021466966686 0.2794307083953266
3200000000.0 0.36687171789295836 0.0695873328663015
3220000000.0 0.3652416105029965 0.03607189020135895
3240000000.0 0.3180734895684098 -0.1806908573416386
3260000000.0 0.35301268321915297 0.017185525606581518
3280000000.0 0.1072537631588673 0.31867822870704404
3300000000.0 -0.25024525834997474 0.19605094308704873
3320000000.0 -0.18002325130507926 -0.2424848563190857
3340000000.0 0.23229301965792823 0.16323159131243048
3360000000.0 -0.2012198217260724 0.16626674129526522
3380000000.0 -0.018532754973435817 -0.24050931746009613
3400000000.0 0.13240200175908987 0.18152196294600337
3420000000.0 -0.1734396206657655 -0.12277985367038353
3440000000.0 0.12219214233722188 0.1574799674848597
3460000000.0 0.13030793981858768 0.13665147601406988
3480000000.0 0.1739066506505876 0.048174825743723275
3500000000.0 -0.1703339792745966 -0.038544889904427726
3520000000.0 0.06911441717070925 0.15837881193149556
3540000000.0 0.1614732856878511 -0.04879158831248835
3560000000.0 0.09208354059469394 -0.14571293837557966
3580000000.0 0.15192592625217455 0.0876408248352647
3600000000.0 0.17631089727796623 0.026793696093904862
3620000000.0 -0.09268952528958041 0.16023772763608313
3640000000.0 -0.19374688147904892 0.016754621275884694
3660000000.0 0.13533972024418442 -0.1485823708373464
3680000000.0 0.09774477550741317 0.17150605132074892
3700000000.0 0.13390742944388936 -0.1431108510150565
3720000000.0 -0.1392379214612213 -0.12729253582853572
3740000000.0 0.03860438954782716 -0.17843570331803893
3760000000.0 -0.09978333728154673 -0.1402954862851944
3780000000.0 0.04054895257383334 -0.1583399996318601
3800000000.0 0.13537908903002444 -0.06314193784554108
3820000000.0 -0.02023368391866089 0.13230280218089518
3840000000.0 0.06467968981127238 -0.09383362695338263
3860000000.0 0.034939284189308244 -0.09127408872133135
3880000000.0 -0.05284010595386415 0.0632757884559606
3900000000.0 -0.004189734269160161 -0.076938048666313
3920000000.0 0.06015496399812789 0.04105384165934807
3940000000.0 0.03464491985868736 0.051756392406602056
3960000000.0 0.01578049346875722 -0.053545748866824706
3980000000.0 0.0403147839572694 0.01768772554372805
4000000000.0 -0.0290974359132134 -0.02207975637417077
