!Created with skrf (http://scikit-rf.org).
# Hz S RI R 50.0 
!freq ReS11 ImS11
400000000.0 -0.6555843623719669 0.47727589113826685
420000000.0 0.624278737801639 -0.4314747251010886
440000000.0 0.7024397050349105 -0.08883037423506202
460000000.0 -0.3704818423579497 -0.5241290533574048
480000000.0 0.4608230969498332 0.33686766219411923
500000000.0 0.5562572892480052 0.04874304207775118
520000000.0 0.33424782425812505 0.3339763389885351
540000000.0 0.2644867088343305 -0.31570380318639873
560000000.0 -0.22497074441119164 0.3328027387335558
580000000.0 -0.3417149682479556 -0.18241124965495703
600000000.0 0.39574753833024423 0.06228719824496979
620000000.0 -0.12223315894926985 -0.3923202272436488
640000000.0 0.17823313944040015 0.36632300485875785
660000000.0 -0.3153692097254113 0.24320414449688543
680000000.0 0.3603092837721198 0.12440752153051914
700000000.0 -0.3612613860554241 0.09773203713799088
720000000.0 0.3093185202792614 0.16372105037367232
740000000.0 0.3184756612513036 0.08091028296970333
760000000.0 -0.2773786689232866 0.051595046015839606
780000000.0 -0.2163339370436031 0.1914818550172388
800000000.0 0.11002475966301599 -0.22506748447654104
820000000.0 0.2359903030332117 0.039456141772538
840000000.0 -0.2103454973168129 0.05594443175652126
860000000.0 -0.15318931124258042 -0.14071033466777322
880000000.0 0.1040840937471455 0.16375675158219558
900000000.0 0.0075957485450981795 0.1584593844214631
920000000.0 0.1302678547158983 -0.0121860193482975
940000000.0 0.002001682051451335 0.11863837772787728
960000000.0 0.06802988756955701 0.021703066161985172
980000000.0 -0.05719779938804935 0.00791161578067293
1000000000.0 0.05189982372264615 -0.01892045207802364
1020000000.0 -0.031162345396240344 -0.01828793046306708
1040000000.0 -0.05753009229144117 -0.009906419461357684
1060000000.0 -0.10233128147761011 -0.0208700897981537
1080000000.0 0.0770893312281541 -0.10259504530400307
1100000000.0 -0.1796161212713111 -0.05594064048431025
1120000000.0 0.03884685085269229 -0.21094531692278648
1140000000.0 0.13319276041388795 0.2075476223188491
1160000000.0 0.22862032806343838 0.16289619632993754
1180000000.0 0.25666478775926654 0.13334402682379928
1200000000.0 -0.0987963913650142 -0.2833445495031338
1220000000.0 0.3187331702945365 0.01597694369729811
1240000000.0 0.06364979222210784 0.33632101433814854
1260000000.0 0.2534784553143445 -0.21478254044866643
1280000000.0 0.17619171576591258 0.28780828242330314
1300000000.0 0.34727869236583286 0.049103993085365505
1320000000.0 0.09910687552891995 0.34525404718233155
1340000000.0 -0.17708211962186152 -0.3195747488975711
1360000000.0 0.024835634695353787 -0.3706835641475628
1380000000.0 -0.3386446806676182 0.14487783399306634
1400000000.0 -0.12930524441296892 0.3551444950268095
1420000000.0 0.3704442418271136 0.03723784496044921
1440000000.0 -0.02172402951950919 -0.37831480615482516
1460000000.0 -0.36286863705881134 0.07692770227685587
1480000000.0 0.24259945104095626 0.2668929092051447
1500000000.0 0.3303237116036182 -0.025831393448970237
1520000000.0 0.08540558096813143 -0.30055816270034286
1540000000.0 -0.26886799948467843 0.09708437573569748
1560000000.0 0.058280236669017285 0.25234188638297006
1580000000.0 -0.16751225766115677 -0.14305818720438995
1600000000.0 -0.08174041797804563 0.17897579651390236
1620000000.0 -0.055564838005128986 -0.15356745822506704
1640000000.0 -0.07366210357405674 -0.11489387058180524
1660000000.0 0.09592492547245846 -0.06018710749979538
1680000000.0 -0.09009404260365435 0.039790913066603754
1700000000.0 0.07696511328142362 -0.009289135603584847
1720000000.0 -0.05998673791272319 -0.029164018282445983
1740000000.0 -0.0020640000882796512 0.06291182638266764
1760000000.0 0.05943955518392007 -0.04894878175565049
1780000000.0 0.08063642903938871 0.07546183104191649
1800000000.0 -0.0865417340244851 -0.1122539334821016
1820000000.0 -0.10825878734026737 -0.12207080792754822
1840000000.0 -0.12192729135097298 -0.16602386136629171
1860000000.0 0.13707014626746128 0.19550937188907225
1880000000.0 0.24690984151456574 0.09764126550278289
1900000000.0 -0.23689146129432137 -0.17626986211980467
1920000000.0 0.2767197515183709 0.11109538689538023
1940000000.0 0.18419783744571352 -0.25498103431741187
1960000000.0 -0.3144783970062525 -0.019199136219651657
1980000000.0 0.29197412452103666 -0.14603999895393546
2000000000.0 0.1655035877090797 0.27429354478618495
2020000000.0 0.09190608650126067 0.3003239596413576
2040000000.0 0.0483862805063883 -0.3028663301779869
2060000000.0 0.18090779280435218 -0.2542961954154958
2080000000.0 -0.30602232257611583 -0.07059230392041718
2100000000.0 0.2467756235896668 0.1743740159284411
2120000000.0 -0.07510514952627671 -0.2865643336544613
2140000000.0 0.17985744909773063 0.23286545051457805
2160000000.0 0.1757334281374407 -0.20932295195159623
2180000000.0 0.003158345418025413 -0.27883822941094305
2200000000.0 -0.264942683223954 -0.008826612197407163
2220000000.0 0.15805419538917 -0.2032290307150762
2240000000.0 0.18925500412406607 -0.16015773684354173
2260000000.0 0.2350411413794863 -0.05973947282256505
2280000000.0 0.029136934917554373 0.21641034703987497
2300000000.0 -0.13003986775243387 -0.1570571805429369
2320000000.0 0.1795560696887406 -0.06035649071327717
2340000000.0 -0.06869195422077579 -0.1603028082712884
2360000000.0 -0.16762300794658552 0.011491593584299395
2380000000.0 0.016053270232098526 0.17587350320117234
2400000000.0 -0.1563889552610131 0.10504656044134628
2420000000.0 0.17679907865002764 0.10368947389656744
2440000000.0 -0.22304817148032766 0.053290526721518475
2460000000.0 -0.18630319732089154 -0.17312126513568288
2480000000.0 0.24801935447878193 0.1344437760172997
2500000000.0 0.3036772651409999 -0.07833368923806366
2520000000.0 0.0467997811079307 0.3399070206975587
2540000000.0 0.12273738749474215 0.355026555916548
2560000000.0 -0.37377385091276377 0.1449310599932548
2580000000.0 -0.16538647907041792 -0.3850514845606909
2600000000.0 0.4344612233661891 -0.0581499009164597
2620000000.0 -0.036178684251462465 0.4514634995575572
2640000000.0 -0.44012367575912464 -0.1413713155022712
2660000000.0 0.05113443169855882 -0.46574287892504507
2680000000.0 0.3533545447116945 -0.3116340445702403
2700000000.0 0.4526923026509535 -0.14407188371588459
2720000000.0 0.40992997299552675 -0.24695982106227463
2740000000.0 0.3840407494400327 -0.29358199843415106
2760000000.0 0.35269926729281625 -0.3391184995539791
2780000000.0 0.22098906675373647 0.4418937708973098
2800000000.0 -0.1167351357000208 0.4857768677936627
2820000000.0 -0.5035029407448102 -0.012906852444312956
2840000000.0 0.3667091123472149 -0.3503219916653192
2860000000.0 -0.34467563381130406 0.3734119791817509
2880000000.0 0.5086547147265534 -0.019646297451238148
2900000000.0 -0.26480785601798607 -0.42931686202077896
2920000000.0 -0.44578862117395024 0.22112926331867908
2940000000.0 0.16155107287324008 0.46111507844066923
2960000000.0 0.44976594111169144 -0.1613983098808625
2980000000.0 -0.1496114753046378 -0.43819768079223026
3000000000.0 -0.37046055487451035 0.2510267446435123
3020000000.0 0.4092144199484442 0.13437913104299595
3040000000.0 -0.11133898083038851 -0.40019616595716734
3060000000.0 0.13118618548474237 0.38369651615703537
3080000000.0 -0.05316788709698805 -0.3886615313762513
3100000000.0 -0.3699367684479196 -0.09431618862558978
3120000000.0 0.251331877589888 0.28365709486023843
3140000000.0 -0.09394759556422434 -0.3656405560953237
3160000000.0 -0.3711559101592625 0.07249398188372186
3180000000.0 0.2197869810455846 0.3095418929230769
3200000000.0 0.373831862334015 0.02864213083556464
3220000000.0 0.3673031685558892 -0.029741289855326227
3240000000.0 0.30926271198777183 -0.1990082546213996
3260000000.0 0.3538220996735386 0.02402466765421595
3280000000.0 0.02401171873025658 0.33638748982143873
3300000000.0 -0.29281485566625615 0.12682785365444105
3320000000.0 -0.12879372895614327 -0.2745198612823813
3340000000.0 0.18649159972959656 0.21470144721162204
3360000000.0 -0.2570158161726324 0.051053887983586954
3380000000.0 0.03648029632067435 -0.23893884782272506
3400000000.0 0.05517456287558028 0.21814828593629318
3420000000.0 -0.10163514281972974 -0.18766252214505977
3440000000.0 0.15386684618073138 0.12665319424708638
3460000000.0 0.08279214665155343 0.16866483384691314
3480000000.0 0.14109495257250673 0.1115320542794658
3500000000.0 -0.10175779381851187 -0.14161820015834858
3520000000.0 -0.02188243295247115 0.17078057144526784
3540000000.0 0.13482972022940112 0.1020399088546799
3560000000.0 0.1586667046650443 -0.06527352697074139
3580000000.0 0.11217587737234044 0.13519945361869048
3600000000.0 0.1520812789667782 0.08917661673006798
3620000000.0 -0.14577097888730603 0.11029766345886773
3640000000.0 -0.1929719954857142 0.009647060919521822
3660000000.0 0.12460372568849884 -0.15515952116403162
3680000000.0 0.11322067004791458 0.15934538642087073
3700000000.0 0.06825974024487791 -0.1818266067779041
3720000000.0 -0.18766075818886432 -0.01267287821542631
3740000000.0 -0.08291706870024088 -0.15971311557742943
3760000000.0 -0.1689293580197722 -0.020912622227338182
3780000000.0 -0.13538031538627568 -0.0907668823554482
3800000000.0 0.00621824041323592 -0.14808031076728184
3820000000.0 0.016225174311140796 0.13199999293086337
3840000000.0 0.007710782612540363 -0.11386623500498305
3860000000.0 0.008609481250353193 -0.0954176974685095
3880000000.0 -0.07077250090035525 0.038393794493651275
3900000000.0 0.06372975072426854 0.04204375880482437
3920000000.0 0.0004562748961552923 0.07156074830367638
3940000000.0 -0.025147698761508974 0.05680237181986906
3960000000.0 -0.026612490959363435 -0.046811534935534214
3980000000.0 0.016802590210399423 -0.039373665835194485
4000000000.0 0.005684098292471057 -0.03623221107721664
