!Created with skrf (http://scikit-rf.org).
# Hz S RI R 50.0 
!freq ReS11 ImS11
400000000.0 -0.6953121347642286 0.4285408650290533
420000000.0 0.48880570972159515 -0.5778589351607597
440000000.0 0.6928915345770666 -0.14538896913337615
460000000.0 -0.45169593513894946 -0.45427362950139755
480000000.0 0.5366976870605714 0.19289333049089266
500000000.0 0.5519304947596221 -0.0160081868786238
520000000.0 0.2008531946787529 0.4228386182085216
540000000.0 0.3967654629727942 -0.08803240757109816
560000000.0 -0.39174172549772307 0.06102021916221284
580000000.0 0.10477670254474711 -0.3724751937281313
600000000.0 0.262499255874544 0.30615228373550035
620000000.0 0.25685158545932985 -0.3255585887008713
640000000.0 0.25224580943111685 0.3254682190795828
660000000.0 -0.3749566537844727 0.1348233277489515
680000000.0 0.32829878769437526 0.19703546171699612
700000000.0 -0.3702294459882053 0.046282179752142674
720000000.0 0.2519700888460492 0.24063116751978894
740000000.0 0.23294426138784785 0.2282355914938102
760000000.0 -0.12660418248178673 -0.2548762016321947
780000000.0 -0.26987257416341576 0.10774992985279873
800000000.0 0.19448526068549224 -0.16238427607455044
820000000.0 0.2375365470505509 0.04712327961358138
840000000.0 -0.17215178646407087 0.13412709335349193
860000000.0 -0.14334644054556003 -0.14987394862056888
880000000.0 -0.12071576933297289 0.1555427273513655
900000000.0 -0.056730864902271666 0.1525394588065548
920000000.0 0.10419995602285455 0.08510560950992288
940000000.0 0.11942209127406445 0.026495951789900926
960000000.0 -0.06047365676315512 -0.03518435128901793
980000000.0 0.0525139824064723 0.027607889834434397
1000000000.0 -0.005217972113729644 -0.05426591871069356
1020000000.0 0.037441990069851154 0.00750823774529261
1040000000.0 0.0021242269307718106 -0.058000039887079184
1060000000.0 -0.052172791408149774 -0.09106661323996947
1080000000.0 0.12265062910460597 0.04114887937990519
1100000000.0 -0.1421230726536589 -0.12799480335387148
1120000000.0 -0.09896085568641895 -0.19319958711766028
1140000000.0 0.13173858115736198 0.20873893870280716
1160000000.0 0.19976577762227993 0.1983989821647
1180000000.0 0.2016851321190441 0.21013343782359195
1200000000.0 -0.125721367941713 -0.27602754511848987
1220000000.0 0.30684093346706515 -0.09107583218893471
1240000000.0 0.15025698440997187 0.3076815030923096
1260000000.0 0.1419867232090111 -0.30098583392902123
1280000000.0 0.23518937721541908 0.2414974597936131
1300000000.0 0.3482809584832823 0.031501919833811884
1320000000.0 0.18459172737385024 0.30721609582963144
1340000000.0 -0.1921947836097509 -0.3086175910090156
1360000000.0 0.07265028873959327 -0.3651856625756937
1380000000.0 -0.34507629611109264 0.12893721505677563
1400000000.0 -0.10471348970979812 0.36170056688253543
1420000000.0 0.3653948564156063 0.0617064655318791
1440000000.0 0.042200845388649585 -0.3758742410037382
1460000000.0 -0.37243206618329594 0.006018898824876485
1480000000.0 0.32032474595242955 0.16663248309741663
1500000000.0 0.3300726214491596 -0.030820080413313567
1520000000.0 0.11085527289024606 -0.2905488763833452
1540000000.0 -0.27091076933653985 0.08733119514877702
1560000000.0 0.03243910713058263 0.25795255837281955
1580000000.0 -0.11897274673790063 -0.18737878928965176
1600000000.0 -0.15439329126531748 0.12284420533468236
1620000000.0 -0.12579453094287715 -0.10545501974494537
1640000000.0 -0.022471483164578275 -0.13366449906245842
1660000000.0 0.07772890458665287 -0.08541366056885669
1680000000.0 -0.0961243791170899 0.027748349829296585
1700000000.0 0.07839280208149113 -0.011991305684809588
1720000000.0 -0.029043933615727494 -0.06139025885527908
1740000000.0 -0.005086525120672733 0.06637747861435984
1760000000.0 -0.07772816994381594 -0.001880004575126314
1780000000.0 0.10016133478561379 0.045117125211696155
1800000000.0 -0.10229104548372006 -0.09596490959744935
1820000000.0 -0.06174431862783108 -0.15054140855963036
1840000000.0 -0.023845151620488187 -0.20422992881619786
1860000000.0 0.04215251804208529 0.23716001427040265
1880000000.0 0.26404951726179493 0.02877593194279613
1900000000.0 -0.24742425605076018 -0.15830407674072075
1920000000.0 0.2042789157725428 0.2140850035128713
1940000000.0 0.2691661344854993 -0.1624798994061504
1960000000.0 -0.3124885145131919 -0.036101592783206814
1980000000.0 0.30663414622791346 -0.11115066200452434
2000000000.0 0.2195413170815524 0.23433491053682215
2020000000.0 0.17528768174012294 0.2616898363423164
2040000000.0 0.12679862263610972 -0.2782741335266378
2060000000.0 0.312517314123035 -0.028498637315695224
2080000000.0 -0.2102910957476639 -0.2337942265386923
2100000000.0 0.00548137837644616 0.30375307515516076
2120000000.0 0.11475396203436526 -0.27669068795685153
2140000000.0 0.14051701893779317 0.2624224583963263
2160000000.0 0.15164057851009288 -0.2319140601922539
2180000000.0 -0.08045710329425015 -0.2673531767423984
2200000000.0 -0.26412864254103846 0.02629567665566534
2220000000.0 -0.002569672245374235 -0.2584138736480794
2240000000.0 0.01230588257582684 -0.24722552984979035
2260000000.0 0.14443710798938975 -0.1931709058967467
2280000000.0 0.16071702513608657 0.14245276692885278
2300000000.0 -0.17230055014239257 -0.10329585969982041
2320000000.0 0.17821214880322395 0.0569211995134719
2340000000.0 -0.013434112534553863 -0.17436909189775898
2360000000.0 -0.1676487882755307 0.030957607751939793
2380000000.0 0.03464810893672926 0.17408570113001354
2400000000.0 -0.1855709098081528 0.030245524743651792
2420000000.0 0.04334108390080215 0.19920822212012132
2440000000.0 -0.1975427412602566 -0.11379314043953807
2460000000.0 -0.006405505317928633 -0.2546667165214257
2480000000.0 0.16817486979518745 0.22947945185469726
2500000000.0 0.30556769062162104 0.07492891726303277
2520000000.0 0.03524998105214147 0.3412701613976598
2540000000.0 0.08489456336764276 0.36523861837879124
2560000000.0 -0.38363753440104675 0.11334567796006546
2580000000.0 -0.15233270696554874 -0.3904422000941237
2600000000.0 0.4378368968705843 -0.036415034037100294
2620000000.0 -0.015602642642392 0.45342380672106414
2640000000.0 -0.4504857808747289 -0.1052613274083764
2660000000.0 0.06304805371762122 -0.4648279328793719
2680000000.0 0.4068549122410986 -0.2395848866675844
2700000000.0 0.4724186349357819 -0.05650654163154357
2720000000.0 0.46629185362209363 -0.11068106439782899
2740000000.0 0.45879986323228905 -0.15251622673597676
2760000000.0 0.439846510842947 -0.21298272568211762
2780000000.0 0.09709489375258684 0.48403737739639885
2800000000.0 -0.21739503397940305 0.449895428274183
2820000000.0 -0.49732773559186655 -0.08121502821673887
2840000000.0 0.3620080630095999 -0.3556421665009034
2860000000.0 -0.3615488155682203 0.3590369677297158
2880000000.0 0.5057084474430024 -0.06420624502605615
2900000000.0 -0.2768304508492701 -0.422854471844535
2920000000.0 -0.43705383220098065 0.2400786225439681
2940000000.0 0.15372354311037398 0.4640890082295191
2960000000.0 0.4539688303767104 -0.15105514268530662
2980000000.0 -0.13517779901272034 -0.4431678009821173
3000000000.0 -0.4041381538703624 0.19331055635337657
3020000000.0 0.4011347119677384 0.16010150302514603
3040000000.0 -0.009043531717851026 -0.4177007276220136
3060000000.0 0.159956133018048 0.3734005676560356
3080000000.0 0.012961242887884705 -0.39238562168776503
3100000000.0 -0.340946427078405 -0.173281803414697
3120000000.0 0.24647008137549087 0.29006847270414593
3140000000.0 0.015771066510085623 -0.37625101191007776
3160000000.0 -0.37171326386035003 0.06549368958207148
3180000000.0 0.21834208736740626 0.30821303466060734
3200000000.0 0.36956087792082165 0.052756187034100115
3220000000.0 0.3671390492640086 -0.01401655277635025
3240000000.0 0.29503586345889693 -0.21779458709814703
3260000000.0 0.3510783610752865 -0.038279252551466005
3280000000.0 0.12561728005495723 0.31233330653893043
3300000000.0 -0.2537871466369919 0.1930548646393415
3320000000.0 -0.17836010515333348 -0.24499789804403102
3340000000.0 0.1990207576917255 0.203988830226593
3360000000.0 -0.2630011751297227 -0.004901544607097157
3380000000.0 0.1561457690815291 -0.18540557450562906
3400000000.0 -0.010102744701006234 0.22681755813467025
3420000000.0 -0.043850064633984415 -0.21111460850335242
3440000000.0 0.12482680434900753 0.15881675030902487
3460000000.0 0.006935946636630702 0.191099566366879
3480000000.0 0.09411261338090189 0.15588094300308486
3500000000.0 -0.10331742751875263 -0.14230064743558835
3520000000.0 0.0032641496360196172 0.17292717039835417
3540000000.0 0.16852501394114422 0.02353916425680394
3560000000.0 0.02430178039758137 -0.16988457766084664
3580000000.0 0.16654753250443952 0.05468225129042576
3600000000.0 0.16181801515348712 -0.07064337066565662
3620000000.0 -0.02134999232354081 0.18208058946570743
3640000000.0 -0.15627641193199715 0.11280879451261618
3660000000.0 0.1127954147021141 -0.1640182353098028
3680000000.0 0.09869099678903341 0.17001827688439122
3700000000.0 0.16374498245366287 -0.10482660763236747
3720000000.0 -0.0707247232663409 -0.1732293427249937
3740000000.0 0.1096967317441953 -0.14206048592658377
3760000000.0 -0.005791785800237682 -0.17056745234658946
3780000000.0 0.13249386972993396 -0.09719706687662326
3800000000.0 0.14637272572726454 0.033483070479828056
3820000000.0 -0.10759643407609619 0.08137613990801042
3840000000.0 0.03994689187529183 -0.10838057666729754
3860000000.0 0.036407357010394596 -0.09028227387792452
3880000000.0 -0.035597502529070575 0.07375818985618743
3900000000.0 0.017758558808555303 -0.07294667092622542
3920000000.0 0.0587022030484169 0.03905712477423896
3940000000.0 0.0529648649266055 -0.027468087443871213
3960000000.0 -0.026028050573030117 -0.04623703495321952
3980000000.0 0.026246377819311644 -0.03128859230700506
4000000000.0 0.02741571521043904 0.020937220455338672
