!Created with skrf (http://scikit-rf.org).
# Hz S RI R 50.0 
!freq ReS11 ImS11
400000000.0 -0.794220204180385 0.18683917433518507
420000000.0 0.4560368545878952 -0.6090158733346117
440000000.0 0.6882883278696843 0.16890490053394197
460000000.0 -0.4886382967033904 -0.4219995314248327
480000000.0 0.5667499172135244 -0.08409062273533106
500000000.0 0.5201684192409348 -0.20495778730918282
520000000.0 0.11173004899962054 0.45408396810199975
540000000.0 0.3820497143486653 -0.17011685491649786
560000000.0 -0.1363047245292527 0.3801606082280463
580000000.0 -0.29544649067864454 -0.26131289915219724
600000000.0 -0.008990769026070787 -0.4050834807479628
620000000.0 -0.3478669356832909 0.20587664685990337
640000000.0 -0.01524703136278446 0.4004402614905743
660000000.0 -0.09520457369789792 0.3791603213379769
680000000.0 0.3510428342671804 0.13524770796807237
700000000.0 -0.3204359198279603 0.17004963134344145
720000000.0 0.06600651109952643 0.33936950682356354
740000000.0 0.319744259500831 -0.09350338073269097
760000000.0 -0.230660038933292 -0.15652169152102346
780000000.0 -0.14647227190952744 0.25634735085900373
800000000.0 -0.044257589980402995 -0.24503913824002005
820000000.0 0.2429826716088949 0.019240420879017343
840000000.0 -0.03544236679040196 0.21680030596353136
860000000.0 -0.08029800772560049 -0.1862737260826701
880000000.0 0.13921361367639856 0.1328969649092158
900000000.0 0.08070802909609541 0.13891675392496652
920000000.0 0.10175782326319038 0.07960572053418809
940000000.0 -0.0014193506542739805 0.11762436209786721
960000000.0 0.044216878532744135 0.049381697760417974
980000000.0 -0.033961479689378085 0.05395763807697981
1000000000.0 -0.04639302780805638 0.02639998618100201
1020000000.0 -0.02550225694218396 0.0223892889264775
1040000000.0 0.05358605156043848 0.026591269486162007
1060000000.0 -0.05821745143602696 -0.08108487941265094
1080000000.0 0.10964686332828044 0.06162563649112396
1100000000.0 -0.10794577688207282 0.1602801238757354
1120000000.0 0.032823162607453174 -0.21292481201263408
1140000000.0 0.13548152100751112 0.20481964767253116
1160000000.0 0.2608523801025618 0.0985837752341129
1180000000.0 0.028172858878409427 0.2827933500924862
1200000000.0 0.2335483213156512 -0.1917852128419892
1220000000.0 0.29931169946336805 0.12671547869231387
1240000000.0 0.05952614733644838 0.34016884386475654
1260000000.0 0.22009212446689302 -0.2550329612005783
1280000000.0 0.3310288262528025 0.07476226643959162
1300000000.0 0.3480872287099174 0.015585582481411349
1320000000.0 0.002503790063989235 0.35974183765867795
1340000000.0 -0.18285151491325663 -0.3168595331062908
1360000000.0 0.1010470938394874 -0.3560351710922723
1380000000.0 -0.36148629420168243 0.07389943880189573
1400000000.0 -0.10495990193426126 0.36406095778488967
1420000000.0 0.36969240178975155 -0.04245288446965889
1440000000.0 -0.02127370793687282 -0.3759381699020577
1460000000.0 -0.35557458483524357 0.1138588890671138
1480000000.0 0.2695890951467908 0.24065086594553672
1500000000.0 0.32765248465271407 0.014994168565253202
1520000000.0 -0.035949065973677516 -0.3119647759289159
1540000000.0 -0.2718068971124495 0.07674295410007645
1560000000.0 -0.11082971219009717 0.23548336881262763
1580000000.0 -0.14691427516175934 -0.16514476017866528
1600000000.0 -0.03666687564471005 0.19542975214531244
1620000000.0 -0.14794704455536903 -0.07200780542140466
1640000000.0 -0.05033394498472611 -0.12736237659624855
1660000000.0 0.052489779141563844 -0.09982702105186243
1680000000.0 -0.04963662802258143 -0.08274380004233452
1700000000.0 0.06984610095485229 -0.04110931659843387
1720000000.0 -0.04843808386894808 -0.04809572552439294
1740000000.0 0.020579165184174138 0.0623533351889402
1760000000.0 -0.04718533989453603 -0.06331192719795012
1780000000.0 0.059013014821104735 0.09189048509295657
1800000000.0 -0.12946564344256098 -0.04910794105450286
1820000000.0 0.04638071488818162 -0.15833199582529123
1840000000.0 -0.05284234473377092 -0.2005008418737225
1860000000.0 0.02219759784379799 0.23975616058303745
1880000000.0 0.25192705167494617 -0.08637335067410537
1900000000.0 -0.2888189248973032 -0.04734639462175143
1920000000.0 0.2818119369259699 0.08839648538100606
1940000000.0 0.17005780586515792 -0.2638133254250987
1960000000.0 -0.29799828733277955 0.09756948449221883
1980000000.0 0.30595221163786396 -0.10732754959757598
2000000000.0 0.16049926528919534 0.2773332143805825
2020000000.0 0.03070908302283497 0.3129351874476038
2040000000.0 0.03618412518091554 -0.3034252870072828
2060000000.0 0.26315845119680215 -0.17184685798614494
2080000000.0 -0.28117716887021876 -0.1367096651770894
2100000000.0 0.10114890710053248 0.2841812510710339
2120000000.0 0.04628409366980073 -0.2957405281389727
2140000000.0 0.1284049875193067 0.2655016826374543
2160000000.0 0.1558126799675906 -0.22395714123299607
2180000000.0 0.0038694424241625535 -0.27939539381935385
2200000000.0 -0.2599636972731485 -0.050799634093492224
2220000000.0 0.08494385463709021 -0.24481842909731052
2240000000.0 0.13171651779151275 -0.20882672897411692
2260000000.0 0.21909203849584427 -0.1067049543521846
2280000000.0 0.08959242700274624 0.19711696819376978
2300000000.0 -0.19611010744600052 -0.051166096980334516
2320000000.0 0.18711230538273577 -0.02763365355108491
2340000000.0 0.003450455327046979 -0.17498992378155143
2360000000.0 -0.1457294059587607 0.08799332092889639
2380000000.0 0.0316529169867463 0.17279338898762206
2400000000.0 -0.1880440299931281 2.2399872778284598e-05
2420000000.0 0.13422240383528952 0.15269500826740084
2440000000.0 -0.21804056562401608 -0.06591797555398661
2460000000.0 -0.10638055990938564 -0.23165607658369344
2480000000.0 0.2145035787770511 0.18337413320030838
2500000000.0 0.30792093467373616 0.054732614002266644
2520000000.0 0.06660861160506036 0.3352840579325355
2540000000.0 0.11995676268418809 0.35631745779978824
2560000000.0 -0.3769847693193949 0.13345910689856558
2580000000.0 -0.1494208343940267 -0.390286312230511
2600000000.0 0.43506129752053047 -0.05380335742535525
2620000000.0 -0.05530096373122442 0.4499827136261697
2640000000.0 -0.4488243746393011 -0.10845206722677776
2660000000.0 0.08058536286977341 -0.46208839334889223
2680000000.0 0.3865611617100983 -0.26932897520803795
2700000000.0 0.4643315279447475 -0.10131462665073349
2720000000.0 0.42885511240463725 -0.21475966056048504
2740000000.0 0.3389764334668467 -0.345507251339985
2760000000.0 0.3728022351538255 -0.3175260256145628
2780000000.0 0.20579636358790077 0.4492473377352799
2800000000.0 -0.15925568760869394 0.4726690448114005
2820000000.0 -0.5000051895177182 -0.05362741330645771
2840000000.0 0.34648552012825173 -0.3694131640281658
2860000000.0 -0.3671619234234746 0.3517932801114878
2880000000.0 0.5084336781949831 -0.027508955059081998
2900000000.0 -0.21309547275737892 -0.45807601287387906
2920000000.0 -0.43942736478121985 0.2342043544141226
2940000000.0 0.1684605623862098 0.45967931664652345
2960000000.0 0.4592011719702382 -0.13475349184101887
2980000000.0 -0.13113606739636433 -0.44466897265005384
3000000000.0 -0.34524710444035145 0.2853268645566177
3020000000.0 0.4192256124723397 0.10166692790843518
3040000000.0 -0.14966498835492023 -0.3893319161344709
3060000000.0 0.08842735624724664 0.3958945732970189
3080000000.0 0.020314843191844758 -0.3920047039099762
3100000000.0 -0.31827275150361206 -0.21253497774197588
3120000000.0 0.2574040262127146 0.27984068755470015
3140000000.0 -0.05633446463190892 -0.37412053015166924
3160000000.0 -0.3617359845074681 0.10716210218546399
3180000000.0 0.2621463603091493 0.2727374819104805
3200000000.0 0.3711913120157481 0.035620607058202275
3220000000.0 0.3655266848500074 -0.0402882415525463
3240000000.0 0.30328521185923696 -0.20889689683605805
3260000000.0 0.3297269882641373 0.12909346107015796
3280000000.0 0.11190462345047145 0.318498589956437
3300000000.0 -0.28627055678272695 0.13888274524856253
3320000000.0 -0.181181478499105 -0.24264480721622567
3340000000.0 0.23368312810855593 0.16225492590492385
3360000000.0 -0.19168621919561268 0.17968015869045104
3380000000.0 -0.04629015388009001 -0.23630018849772436
3400000000.0 0.07882408296416862 0.2104349607833442
3420000000.0 -0.19880340359220422 -0.07532874648436677
3440000000.0 0.13514697233401282 0.1476909820607482
3460000000.0 0.16161570072584158 0.09862037702693476
3480000000.0 0.17093606521126592 0.06017219896364598
3500000000.0 -0.17512347244090912 -0.005934630112972556
3520000000.0 0.07651669220258131 0.15521343933965076
3540000000.0 0.14348002306803692 -0.09004805769131077
3560000000.0 0.061962755416795176 -0.1587641578419024
3580000000.0 0.13361596818242977 0.11463876144181173
3600000000.0 0.1762308614947905 -0.026891938616659387
3620000000.0 -0.11675654469769985 0.14389663217565135
3640000000.0 -0.17223297356169798 0.09038185971203991
3660000000.0 0.12721304674446876 -0.15760109456686186
3680000000.0 0.0885728066562216 0.1772279508052143
3700000000.0 0.11631273696526864 -0.1599101264512973
3720000000.0 -0.1525800623305011 -0.11272224780244976
3740000000.0 0.04546441773303493 -0.17621782531857597
3760000000.0 -0.07795012401709701 -0.15442944481580198
3780000000.0 0.08284740374593681 -0.1417394390289151
3800000000.0 0.0913397717124709 -0.11962812391096828
3820000000.0 -0.12475527487114246 0.05370152611331137
3840000000.0 0.02274635262009242 -0.11391729190975435
3860000000.0 0.0255890659070451 -0.0945630896497326
3880000000.0 -0.0707409660544739 0.047341824689555355
3900000000.0 0.06948237398421883 0.037031693607527935
3920000000.0 0.03831501171107704 0.06336106006720481
3940000000.0 0.02631759773483769 0.05712188747610583
3960000000.0 0.05452808501715179 -0.00637950801645497
3980000000.0 0.017825576534893802 0.038709729666023984
4000000000.0 0.01780102572288417 0.03130837814583148
