!Created with skrf (http://scikit-rf.org).
# Hz S RI R 50.0 
!freq ReS11 ImS11
400000000.0 -0.8034302874282615 0.1459452286894095
420000000.0 0.44257893445481783 -0.6186435755710582
440000000.0 0.6946153602454613 0.13721699898389988
460000000.0 -0.46467414631147785 -0.448115482397198
480000000.0 0.5701955131997727 -0.05367332788719272
500000000.0 0.5141201759526219 -0.22279387594856384
520000000.0 0.13478454193363568 0.4484475440172365
540000000.0 0.37645276607903005 -0.18330859082401424
560000000.0 -0.16752152283866276 0.3674814479706816
580000000.0 -0.2896902709856122 -0.2683158856967913
600000000.0 -0.02095311608002228 -0.4049254754399069
620000000.0 -0.3406350133526312 0.21815546506942848
640000000.0 -0.013072703158583499 0.4003449918540836
660000000.0 -0.072466615653798 0.3836765447128304
680000000.0 0.35714727628987464 0.11923512233014989
700000000.0 -0.33177242446606864 0.14789844103988067
720000000.0 0.1287721496135511 0.3210142052939621
740000000.0 0.3308390952734042 -0.037862518059575294
760000000.0 -0.23243695336826972 -0.1537847265272615
780000000.0 -0.14808310092286295 0.2558417981660879
800000000.0 -0.006962406018965193 -0.2491829215313149
820000000.0 0.24200741928239938 0.02403050868249856
840000000.0 -0.030412563091731893 0.21726557427150586
860000000.0 -0.06435760258703198 -0.19229219702447997
880000000.0 0.13626232555698686 0.13586324091498433
900000000.0 0.004254591418281704 0.1593813790548228
920000000.0 0.114876687508576 0.05596111762309749
940000000.0 0.007360386465293392 0.11723019051528757
960000000.0 0.05795074108930175 0.031993215826146136
980000000.0 -0.03851463469880172 0.05125860485551874
1000000000.0 -0.052962119752566456 0.008078607136887362
1020000000.0 -0.014396892544787794 0.03044965139693585
1040000000.0 0.02894837978500899 0.05200079278688076
1060000000.0 -0.04881354174560026 -0.08752648431087354
1080000000.0 0.10084590754651075 0.07549776316545902
1100000000.0 -0.11443749513638872 0.1554363830506216
1120000000.0 0.030040042076441426 -0.21317889966000467
1140000000.0 0.14132673230451628 0.20133403285603885
1160000000.0 0.2550527425159011 0.11208044759722623
1180000000.0 0.03298473516132672 0.2819058186629454
1200000000.0 0.22489225563494405 -0.20176194820810658
1220000000.0 0.3042318416277873 0.11539144784743274
1240000000.0 0.05801681463580391 0.3407863340845611
1260000000.0 0.22024693620150557 -0.25453604770923915
1280000000.0 0.32861331270888505 0.08589545202945753
1300000000.0 0.34734445881303394 -0.021609909911368262
1320000000.0 0.007135671275583169 0.36002326026807224
1340000000.0 -0.19736296584994792 -0.30783180185293774
1360000000.0 0.08476813665281852 -0.35990397880331704
1380000000.0 -0.3479469534669124 0.1228860350700333
1400000000.0 -0.147491068980854 0.34859063137877166
1420000000.0 0.3699812875950467 -0.043149999974489366
1440000000.0 0.0028669957361311033 -0.3762888835036693
1460000000.0 -0.3622302325357778 0.09108597752844252
1480000000.0 0.3193712655018116 0.16808439716907286
1500000000.0 0.3268941367511975 0.032205155022121665
1520000000.0 -0.045914906308592324 -0.3106292383104602
1540000000.0 -0.27818245477409936 0.04977579691208527
1560000000.0 -0.13921951746364844 0.22023509819420542
1580000000.0 -0.13152636800889514 -0.1775046970261364
1600000000.0 -0.06405308831934864 0.1887389259322631
1620000000.0 -0.15181720800945647 -0.06238289755039859
1640000000.0 -0.0779789696425118 -0.11248852511547568
1660000000.0 0.06821484556232361 -0.08994710636960838
1680000000.0 -0.01190364283582787 -0.09594229479393629
1700000000.0 0.05500451270908468 -0.059644298046516
1720000000.0 -0.022043490993332845 -0.06444949528627904
1740000000.0 0.06115217946614831 0.0250230180514851
1760000000.0 -0.054133972721641374 -0.0575298353458469
1780000000.0 0.06041312139840587 0.09141350206922307
1800000000.0 -0.12505056668423428 -0.06138153613617178
1820000000.0 0.05160046395552827 -0.1567945396887012
1840000000.0 -0.07245205554072444 -0.19497594824629313
1860000000.0 0.026405328901249487 0.2394368670761429
1880000000.0 0.261706710013436 -0.05373401277615547
1900000000.0 -0.2888711168988683 -0.04744916405208676
1920000000.0 0.2780338851514961 0.0986284925733898
1940000000.0 0.1743514618109225 -0.2608750321709249
1960000000.0 -0.2963456877944468 0.10044701750542577
1980000000.0 0.2974169777869144 -0.12947868900098142
2000000000.0 0.19865290598832752 0.2515627328776717
2020000000.0 0.03027178191304924 0.31396420068418535
2040000000.0 0.05012567041463073 -0.3020885925101277
2060000000.0 0.26213116176375645 -0.17334058012927703
2080000000.0 -0.2987429117369644 -0.09178833326666407
2100000000.0 0.12622060381717715 0.27366754513294295
2120000000.0 0.0539624821341622 -0.2945560287460074
2140000000.0 0.11836954784457165 0.2701553290548723
2160000000.0 0.1446020367321651 -0.2315604800946167
2180000000.0 -0.011380905512345421 -0.2791094165133961
2200000000.0 -0.25767293591840906 -0.05952077078175136
2220000000.0 0.09208155953375623 -0.24215514011108713
2240000000.0 0.09776737836809832 -0.22652604541679205
2260000000.0 0.22552498148109718 -0.09280972377145741
2280000000.0 0.10435354985363982 0.1889147889976992
2300000000.0 -0.20090367592087216 -0.02298985913258925
2320000000.0 0.17603019679074178 -0.06723175312324772
2340000000.0 -0.0006325437429620374 -0.17482132843347464
2360000000.0 -0.13621448506164646 0.10185007169588696
2380000000.0 0.06830730875338555 0.16174366391453412
2400000000.0 -0.18524112754574454 0.03364927278701753
2420000000.0 0.14914524768823903 0.1386370370767988
2440000000.0 -0.21700023902822632 -0.06896225896245486
2460000000.0 -0.09227182907106558 -0.23771659846286475
2480000000.0 0.20217229725557626 0.1962910634362005
2500000000.0 0.3126406014503542 0.025734285791201687
2520000000.0 0.1129925925243711 0.32250947826324394
2540000000.0 0.12340518126766213 0.3554479987336296
2560000000.0 -0.3663435056500534 0.16006740710361184
2580000000.0 -0.15676420814520894 -0.38759360546158517
2600000000.0 0.4296281251066803 -0.08715128279089676
2620000000.0 -0.020953467118638613 0.4532285298193905
2640000000.0 -0.45202263994660113 -0.09466884721117588
2660000000.0 0.05949224593665416 -0.4648754257753479
2680000000.0 0.41353277730744675 -0.22685000661485996
2700000000.0 0.4678618781251996 -0.08300689427276235
2720000000.0 0.43363109568593444 -0.2045995898241735
2740000000.0 0.3418596320257643 -0.3419134478076164
2760000000.0 0.34358014602853043 -0.3485908712461876
2780000000.0 0.15518693161023384 0.4683859705672498
2800000000.0 -0.14482496978266693 0.4775010730763248
2820000000.0 -0.5019829518652366 -0.03945235103486267
2840000000.0 0.3320936468646747 -0.38302671989739256
2860000000.0 -0.3657451240997315 0.3536949903421075
2880000000.0 0.5083607873277443 -0.036705847499171274
2900000000.0 -0.2204500280013707 -0.45429801615544674
2920000000.0 -0.4395335675896436 0.23489675856205572
2940000000.0 0.16449733190443697 0.4608002573862972
2960000000.0 0.45548215921366986 -0.14744028108572899
2980000000.0 -0.1331252647586399 -0.44471817699831184
3000000000.0 -0.37656652044647937 0.24164797679334982
3020000000.0 0.4058043983566175 0.14460576207769163
3040000000.0 -0.11846286431437299 -0.3996875702034226
3060000000.0 0.15483624421745112 0.3750971203640987
3080000000.0 0.003719044922339023 -0.3936982940045224
3100000000.0 -0.30210707584485086 -0.23616423504246833
3120000000.0 0.24329532327162182 0.2921196383358884
3140000000.0 -0.026005135925210185 -0.37751730870660544
3160000000.0 -0.3589427458637887 0.11634791619849923
3180000000.0 0.2398290753774672 0.2925657692608061
3200000000.0 0.37021064428999473 0.041831978070983315
3220000000.0 0.36765413906587935 0.014369480859321014
3240000000.0 0.30258216013707767 -0.20844553687428158
3260000000.0 0.35017374691647624 0.047239264466865306
3280000000.0 0.08372808515545475 0.3286303492415115
3300000000.0 -0.26666420963825066 0.17457807116233517
3320000000.0 -0.2314490171151267 -0.19666195434874417
3340000000.0 0.2097066251849197 0.19397879957799752
3360000000.0 -0.251811126447483 0.07869625415302053
3380000000.0 -0.01175022648693692 -0.2412218493783691
3400000000.0 0.07061780560174989 0.21381019175296614
3420000000.0 -0.17095041942195233 -0.12691005062932573
3440000000.0 0.11562273342936213 0.16271493995658012
3460000000.0 0.11377979864908618 0.15079821528130635
3480000000.0 0.16408982976671183 0.07439706496048838
3500000000.0 -0.17415431648885465 -0.0052531075265140545
3520000000.0 0.0780345055451882 0.1532858110992614
3540000000.0 0.11348731902454633 -0.1240563550859145
3560000000.0 -0.0012108628328785546 -0.17082211551638432
3580000000.0 0.13920305188538842 0.10753117489208777
3600000000.0 0.16849396066599293 -0.058715329327676896
3620000000.0 -0.07722005568389764 0.16859452296798874
3640000000.0 -0.18546990562998172 0.059579348980442114
3660000000.0 0.1188264317077559 -0.16442846129784786
3680000000.0 0.11166934442646129 0.16365881844508265
3700000000.0 0.09598705283692832 -0.17361992743152238
3720000000.0 -0.13433476724861626 -0.1350560556676288
3740000000.0 0.107853694517366 -0.14854523162148153
3760000000.0 -0.04716957708825827 -0.16678236364350651
3780000000.0 0.10535019410393968 -0.12757268440975086
3800000000.0 0.1366349384868794 -0.0624353981487665
3820000000.0 -0.1352159023671244 0.00010120859929410079
3840000000.0 0.09419838761925345 -0.06691982436433468
3860000000.0 0.06126507765064721 -0.07576847923024849
3880000000.0 -0.078027754559791 0.031169895934689842
3900000000.0 0.07352588072360439 0.025331653751814977
3920000000.0 0.032288273703682945 0.06575217971930299
3940000000.0 0.048981960783505446 0.038886388377355204
3960000000.0 0.000400676408046548 -0.0546275342075547
3980000000.0 0.03719308506885084 -0.019263072080789048
4000000000.0 0.009197074635878603 -0.03453509465074997
