!Created with skrf (http://scikit-rf.org).
# Hz S RI R 50.0 
!freq ReS11 ImS11
400000000.0 -0.7946446781747142 0.18208234594045564
420000000.0 0.4561367417432806 -0.6093378190312173
440000000.0 0.6954820501985483 0.15330796517613496
460000000.0 -0.44333597821431525 -0.4697502602037155
480000000.0 0.4396397506539293 -0.3670347531516947
500000000.0 0.519063569416506 -0.20249816456032488
520000000.0 0.20265699174998428 0.42448281892890066
540000000.0 0.3943617556325757 -0.13804207936108506
560000000.0 -0.28201699095008365 0.28800616752360797
580000000.0 -0.27444310693711493 -0.2816261424168221
600000000.0 0.003109255106722247 -0.4086104175004486
620000000.0 -0.3958449090962074 0.09414177772526404
640000000.0 0.08738073609174538 0.3923601730182683
660000000.0 -0.0576503275406961 0.38869279486448094
680000000.0 0.3356906359098865 -0.16118775296192564
700000000.0 -0.3527022273425904 0.07791517832855147
720000000.0 0.20205928042840446 0.27971260062458514
740000000.0 0.26799271796105006 0.19427131417609209
760000000.0 -0.22302491259958654 -0.17610379567681275
780000000.0 -0.11324698503744382 0.27303222513268594
800000000.0 0.06938092461328955 -0.23727844042552762
820000000.0 0.2323868869106217 -0.08133597744134662
840000000.0 0.0752047602855924 0.2086631193497746
860000000.0 -0.062454263192631324 -0.1918612831604859
880000000.0 0.19188994865416487 0.004759681838768045
900000000.0 -0.07342033505189703 0.13328556661226237
920000000.0 0.022104111767984255 0.12832787173747082
940000000.0 -0.09064721635709208 0.08000556643502567
960000000.0 0.011230715161467508 0.06728343409634173
980000000.0 0.057319451022053665 -0.02590040486424754
1000000000.0 -0.030839633338142665 0.04555297911300987
1020000000.0 0.0015088602149222062 0.032659198210512684
1040000000.0 -0.057950200068742415 -0.0010949467729898222
1060000000.0 -0.09424314216639966 -0.024389022827530426
1080000000.0 0.06836783745421492 0.10461437103103231
1100000000.0 -0.1811948991379441 0.056615054394976806
1120000000.0 0.11169045327533063 -0.18870189379667465
1140000000.0 0.10603881764954382 0.21977178859655108
1160000000.0 0.2702893483559432 0.05896960856503665
1180000000.0 -0.022913023804427935 0.28426496917438693
1200000000.0 0.1809934614736489 -0.24038054665307382
1220000000.0 0.3174194345493772 0.06715051879306787
1240000000.0 -0.004943431448938163 0.3443864932115096
1260000000.0 0.1970609051089596 -0.27157739419359533
1280000000.0 0.24316608527389696 0.23657086545831194
1300000000.0 0.3328513038645358 0.10346778942312074
1320000000.0 0.14396305255732733 0.33201975312527127
1340000000.0 -0.11913455806490635 -0.3470969461668899
1360000000.0 -0.07133718804569451 -0.3643667637971186
1380000000.0 -0.3397224923636661 0.1410768473650201
1400000000.0 -0.07277431858696853 0.3691618776607146
1420000000.0 0.3713506809901865 -0.037606788972137636
1440000000.0 -0.0009485541990146071 -0.3793247795506624
1460000000.0 -0.37169470409390065 -0.003075383304083357
1480000000.0 0.30290585953398363 0.20098658252967233
1500000000.0 0.32970254038001984 -0.012080468559347088
1520000000.0 -0.17822264992301715 -0.25877056194176234
1540000000.0 -0.2565396481105247 0.11476139876337973
1560000000.0 -0.12654310480231462 0.22567350363767008
1580000000.0 -0.03613113575862522 -0.217922238839163
1600000000.0 -0.09481026549456276 0.17381238975013888
1620000000.0 -0.12967936482859307 -0.10552755029697121
1640000000.0 -0.13633148056508243 0.016174219380381785
1660000000.0 -0.1107294351200258 -0.017691178404570684
1680000000.0 -0.060100662161044816 -0.07509985577114169
1700000000.0 0.043076085456115555 0.0650055791841089
1720000000.0 0.06253711881262668 -0.03002047439130536
1740000000.0 0.0402679993199862 -0.05376450771403014
1760000000.0 -0.06484019213916765 -0.043792997970142314
1780000000.0 0.10830843467993558 0.006808172009814073
1800000000.0 -0.0719274197084498 -0.11663654195866201
1820000000.0 0.04421957186029415 -0.15961584690982336
1840000000.0 -0.05468314006429444 -0.1991426632385919
1860000000.0 0.000722445780132584 0.2432935641326875
1880000000.0 0.22207143171577068 -0.14861348244538994
1900000000.0 -0.2931239954015079 -0.0023181446300033913
1920000000.0 0.2932607877910738 0.02501448631267299
1940000000.0 0.21774592171679547 -0.22600189268473478
1960000000.0 -0.3041635244434439 0.06778684826401302
1980000000.0 0.3109179770406399 -0.09503925092956397
2000000000.0 0.15562755598003172 0.28225951037404967
2020000000.0 0.10845159245413853 0.2948790127876653
2040000000.0 -0.013081657748594768 -0.3053150287476544
2060000000.0 0.2600545446169393 -0.17681697548016714
2080000000.0 -0.2897674410180018 -0.11563829981873584
2100000000.0 0.10965503003006961 0.28182854750788805
2120000000.0 0.05094714553370326 -0.2939714114526199
2140000000.0 0.1484218569872937 0.25399737943995065
2160000000.0 0.1863207702758987 -0.20071077754487082
2180000000.0 -0.07522963465205712 -0.26900795640519276
2200000000.0 -0.2628169803730052 -0.03224446857530868
2220000000.0 0.14505976198202838 -0.2158982644065164
2240000000.0 0.10760676951522544 -0.221569837865185
2260000000.0 0.20961513531273887 -0.12326438692658342
2280000000.0 0.0460808424167249 0.2123936766589943
2300000000.0 -0.17089810679572756 -0.11117175241602505
2320000000.0 0.16945904189904162 -0.08426799356548477
2340000000.0 -0.086221769536914 -0.15259627270067533
2360000000.0 -0.14460243582906993 0.08514304959418008
2380000000.0 -0.03706292253958658 0.17139155252080046
2400000000.0 -0.1852660053262973 -0.04292806719042067
2420000000.0 0.16733782859860455 0.11999755824075739
2440000000.0 -0.205768355276348 0.09982494084585242
2460000000.0 -0.13400002229733726 -0.215101945954878
2480000000.0 0.1422883011723144 0.24298467110907981
2500000000.0 0.2923172975612643 0.11075794895128743
2520000000.0 0.10387844816023072 0.3276093911816487
2540000000.0 0.09323510786933616 0.3644281186562383
2560000000.0 -0.33928673790656766 0.21189578856305846
2580000000.0 -0.19018103213870677 -0.3726071567348876
2600000000.0 0.4353106817889304 -0.044104175017607855
2620000000.0 -0.013081800848761706 0.45298681082986214
2640000000.0 -0.44141122624684703 -0.13724461069853933
2660000000.0 0.0590184406651753 -0.4654093267079744
2680000000.0 0.3862546465056543 -0.2703665906026232
2700000000.0 0.4607615818747565 -0.11711872851542912
2720000000.0 0.44737239452137223 -0.17339803638417403
2740000000.0 0.35219652326403306 -0.33214127960803774
2760000000.0 0.33426892351451654 -0.3583831593980693
2780000000.0 0.18216627608148286 0.45904402957230167
2800000000.0 -0.18662039978995068 0.4623459121668311
2820000000.0 -0.5003631250776823 -0.05050739110001103
2840000000.0 0.3832947032561015 -0.3316217262016532
2860000000.0 -0.3787539011035714 0.33882235180732284
2880000000.0 0.5099442126280096 0.0006683092645120412
2900000000.0 -0.24270840722831896 -0.44343791867386595
2920000000.0 -0.41324934665897084 0.27779945035415216
2940000000.0 0.16660729166017085 0.4599798157935584
2960000000.0 0.4443047711536432 -0.17830743003725372
2980000000.0 -0.14509755406145092 -0.44045918737701345
3000000000.0 -0.3796723525667149 0.23943725911026792
3020000000.0 0.43117802802067656 0.02319359856033011
3040000000.0 -0.23003662974093594 -0.34755019400400305
3060000000.0 0.051118046566160306 0.4024618535617159
3080000000.0 0.0451597287960251 -0.3904771093817789
3100000000.0 -0.34995902780678095 -0.15580016007545533
3120000000.0 0.2128739978009595 0.31457888774358134
3140000000.0 -0.05350525267659 -0.3741111803396292
3160000000.0 -0.3600315430372028 0.11443387199622473
3180000000.0 0.23839905462448008 0.29200427936305867
3200000000.0 0.3715266638110031 0.04289775445639401
3220000000.0 0.35918710833154727 -0.0800084950914751
3240000000.0 0.3237161796062019 -0.17314038087506578
3260000000.0 0.35168142941450964 0.038293716014355814
3280000000.0 0.09167813713282717 0.3250864671717698
3300000000.0 -0.2669448349494923 0.17366825784350556
3320000000.0 -0.17213199280351202 -0.2499467267095312
3340000000.0 0.24873681569255213 0.13788219652998554
3360000000.0 -0.2379839431598252 0.11017293300819127
3380000000.0 0.003800409466953652 -0.2428333220597333
3400000000.0 0.15282425966071547 0.16490786780443323
3420000000.0 -0.1271035725440842 -0.16975794702967553
3440000000.0 0.1666831103332708 0.11096828717108301
3460000000.0 0.11639723661935834 0.1501042880254963
3480000000.0 0.17798871371239916 0.03664633304453488
3500000000.0 -0.1732912738683181 0.03191760009569848
3520000000.0 0.11893930188792212 0.1247112592371746
3540000000.0 0.1646051633585019 -0.02998203659705173
3560000000.0 0.11542660214503461 -0.1262367966799457
3580000000.0 0.15426059284773827 0.08476416016524352
3600000000.0 0.17718301016168592 -0.023730381721312654
3620000000.0 -0.011657035600113158 0.18477529190006106
3640000000.0 -0.16931504990475205 0.09564105322217493
3660000000.0 0.13402412510496736 -0.1515599285361253
3680000000.0 0.11531312436905718 0.16225985231275727
3700000000.0 0.12609656249707182 -0.15391819486978725
3720000000.0 -0.1433803152657704 -0.12435068508745749
3740000000.0 -0.043748272998136044 -0.17623951531200707
3760000000.0 -0.07259327758739931 -0.1566838904144386
3780000000.0 0.12079763587271475 -0.11320484176506393
3800000000.0 0.13527463362351136 -0.0693357315810593
3820000000.0 -0.07199217482931947 0.11548305314206356
3840000000.0 0.07348486149269433 -0.08831847450336429
3860000000.0 0.0950031216260794 -0.02188636513729849
3880000000.0 -0.08282549098015697 0.005699237954087975
3900000000.0 0.06477120349978822 0.044293267303547885
3920000000.0 -0.004611644084422206 0.07344246233976096
3940000000.0 0.01817229793949948 0.059113584846635966
3960000000.0 0.05417116219442678 -0.0015222133877179252
3980000000.0 0.028654768977287276 0.03059486897875157
4000000000.0 0.03486686903704488 0.00111702748173083
