!Created with skrf (http://scikit-rf.org).
# Hz S RI R 50.0 
!freq ReS11 ImS11
400000000.0 -0.8037396346705923 0.14180226473474733
420000000.0 0.4574353344040034 -0.6078360561918376
440000000.0 0.6985184894272692 0.11972984262421342
460000000.0 -0.46649643583543116 -0.44630816924721584
480000000.0 0.5716523398027686 -0.026281817235255134
500000000.0 0.5166405128771948 -0.21667830958633194
520000000.0 0.13369505068836415 0.44770191209788107
540000000.0 0.3771211058821753 -0.18046090691197067
560000000.0 -0.14730505467699084 0.37560487556919003
580000000.0 -0.30372390012711514 -0.2525962471060431
600000000.0 -0.0423638125175798 -0.4031075738440856
620000000.0 -0.33959053762422825 0.21964671689822213
640000000.0 -0.002580850539019415 0.4009060905746779
660000000.0 -0.11408298372933595 0.37365514483541856
680000000.0 0.34403142973068634 0.15258179947752437
700000000.0 -0.3267675869119673 0.15672287103229515
720000000.0 0.06932450940777676 0.3390494098736605
740000000.0 0.32553861001511847 -0.07085814879555959
760000000.0 -0.23509659117497622 -0.14973542166815063
780000000.0 -0.18396668294996302 0.23129540269786006
800000000.0 -0.008196370569899001 -0.24890264927370634
820000000.0 0.24092552894534963 0.03672710347321959
840000000.0 -0.03734622288583754 0.21602855909664745
860000000.0 -0.059385203107265264 -0.19442109099622557
880000000.0 0.11862348825387337 0.15126027087494365
900000000.0 0.06628270921510043 0.14539823220734432
920000000.0 0.11005060414493564 0.06636807619230409
940000000.0 0.010537493365174958 0.11710955557838337
960000000.0 0.04211811317181826 0.05136599715557492
980000000.0 -0.03280455043515467 0.054623547166883134
1000000000.0 -0.04867618589899551 0.021952674768538072
1020000000.0 -0.025476244309268946 0.02226364667301248
1040000000.0 0.031241954210428968 0.051059107708713435
1060000000.0 -0.046464832691083105 -0.08865123300915745
1080000000.0 0.1033321557940876 0.07173993362386491
1100000000.0 -0.11309859385245727 0.1565621109462988
1120000000.0 0.043445208557339 -0.21059515102379084
1140000000.0 0.1438866813198965 0.19878786454448344
1160000000.0 0.2572293922315429 0.10684551573884978
1180000000.0 0.02814332451835096 0.28260375344945887
1200000000.0 0.23831094892797 -0.18575394364559303
1220000000.0 0.29574301249589585 0.13503731868456784
1240000000.0 0.05414633590526679 0.34118792398509723
1260000000.0 0.22322579077192767 -0.25225187687883227
1280000000.0 0.3290494189546911 0.08271315906870806
1300000000.0 0.34754396658116843 0.022303249549959072
1320000000.0 0.01911109081454926 0.35907623605216277
1340000000.0 -0.19652077006733706 -0.3081186725502614
1360000000.0 0.1106178557161114 -0.3528747942082229
1380000000.0 -0.353432363020192 0.10691406498638802
1400000000.0 -0.10274945189545637 0.3645280064395387
1420000000.0 0.3563318208453739 -0.10939463318437703
1440000000.0 -0.004110692782762 -0.3768226794384602
1460000000.0 -0.35464439009443965 0.11797875298597808
1480000000.0 0.276953439837921 0.23257371696831564
1500000000.0 0.32699901660963815 0.030209751615566396
1520000000.0 -0.03591872362988436 -0.3119059535711057
1540000000.0 -0.2762565445691007 0.059009838441371996
1560000000.0 -0.1394946661638172 0.21983116082195817
1580000000.0 -0.1402023877690565 -0.17066351278439706
1600000000.0 -0.052565773732205466 0.19140365716910507
1620000000.0 -0.14663715174486722 -0.07353247782932863
1640000000.0 -0.08042839040427761 -0.11035145240685701
1660000000.0 0.04966543450217166 -0.10127158682894741
1680000000.0 -0.0429502119130112 -0.08575213567242353
1700000000.0 0.05504408008674968 -0.05928887919177725
1720000000.0 -0.05546729130832607 -0.04014306610621589
1740000000.0 0.054525924895365695 0.03687095986897911
1760000000.0 -0.04086818642009889 -0.06761348500645559
1780000000.0 0.05513513181633078 0.0946010826012145
1800000000.0 -0.12416987186714903 -0.06100675790323199
1820000000.0 0.01827997905323294 -0.16403188495805188
1840000000.0 -0.08834215743377416 -0.18770005647498855
1860000000.0 0.056765035839091524 0.23463870248468588
1880000000.0 0.257089059981165 -0.07015053679212266
1900000000.0 -0.2877214658095655 -0.05700153810224011
1920000000.0 0.2723741820378791 0.11373758110989995
1940000000.0 0.16535263835418879 -0.26672346176358275
1960000000.0 -0.2985391568749501 0.09537290770801879
1980000000.0 0.3095358231856693 -0.09726653140488092
2000000000.0 0.15521439598862516 0.2806460128328611
2020000000.0 0.03939994237920206 0.31196041116798606
2040000000.0 0.02617666329966486 -0.30408830505592227
2060000000.0 0.24829652751502104 -0.19285234590292266
2080000000.0 -0.2940045557908631 -0.10618863305352824
2100000000.0 0.11787362421382791 0.27759886375718756
2120000000.0 -0.03536366267092224 -0.2973377853784085
2140000000.0 0.102068321248301 0.27664257796527436
2160000000.0 0.14468898944910244 -0.23134834906378146
2180000000.0 0.0014169495321749899 -0.2792780385408348
2200000000.0 -0.2592684879869199 -0.052886263397569716
2220000000.0 0.09456769150305365 -0.24111074791771653
2240000000.0 0.1251035931504229 -0.2128167112981822
2260000000.0 0.21369719121825073 -0.11707325554963367
2280000000.0 0.08774058079837785 0.19746947730364586
2300000000.0 -0.20147445494408042 -0.020773667584875078
2320000000.0 0.18561768447002694 -0.0365430683024242
2340000000.0 -0.002872534140560547 -0.1748900542828943
2360000000.0 -0.1399859395812979 0.0962915995746957
2380000000.0 0.04446092137335631 0.1696052732015932
2400000000.0 -0.18793844287342382 0.005633980867211826
2420000000.0 0.15294450206098692 0.13384181808486492
2440000000.0 -0.20123062143074244 -0.10702509130424397
2460000000.0 -0.08979764322513235 -0.23817082783075857
2480000000.0 0.21432922910672578 0.18320604763163134
2500000000.0 0.3125271006698005 0.013047381967283285
2520000000.0 0.0996158224832463 0.3271317156420503
2540000000.0 0.124776664322466 0.35454046327038924
2560000000.0 -0.3693115940144372 0.15381672171634303
2580000000.0 -0.15186059759240236 -0.38962666173546623
2600000000.0 0.4314143182243739 -0.07679507240201396
2620000000.0 -0.054925881700780325 0.4507816676351136
2640000000.0 -0.45284270907869356 -0.08986453739613413
2660000000.0 0.09297257434015235 -0.4596078886161529
2680000000.0 0.39966612884283725 -0.24904343467081042
2700000000.0 0.45978274270169295 -0.11833228925863332
2720000000.0 0.4281819357815234 -0.21588793628553868
2740000000.0 0.3472129564329224 -0.336647801003793
2760000000.0 0.34341245591704894 -0.3492590759383655
2780000000.0 0.20036203430189245 0.45172957944929637
2800000000.0 -0.14001559763500226 0.47886952841767627
2820000000.0 -0.5019405461068203 -0.03474594063737839
2840000000.0 0.3285160762639551 -0.38607187478816857
2860000000.0 -0.31828986107305196 0.39733113644303936
2880000000.0 0.5094179208091713 -0.002542454133996898
2900000000.0 -0.21864375033579303 -0.4551942377051536
2920000000.0 -0.42983038591817113 0.25116767398149387
2940000000.0 0.16152563702923867 0.4618960910883821
2960000000.0 0.4589949236463146 -0.13478941175675924
2980000000.0 -0.15860861121105627 -0.4356347346099215
3000000000.0 -0.3393189682929243 0.29034772801616837
3020000000.0 0.43063766321020613 0.003981788464151827
3040000000.0 -0.11014133913271618 -0.40190214933718044
3060000000.0 0.12609462303334593 0.38535686166755384
3080000000.0 -0.014559091923721434 -0.3923139101059057
3100000000.0 -0.3218599680833203 -0.20770002332170492
3120000000.0 0.2809872120224253 0.25660227331915186
3140000000.0 -0.05904363728123289 -0.3736721546789741
3160000000.0 -0.36507319175202396 0.09510160756544643
3180000000.0 0.2585162839301094 0.2763269406380877
3200000000.0 0.3718132700210824 0.028427581458576396
3220000000.0 0.3652605749459794 -0.0410838722860892
3240000000.0 0.3087474470724397 -0.20090595977114917
3260000000.0 0.32899639428361904 0.13139253874065257
3280000000.0 0.09885898010970799 0.3229805784157332
3300000000.0 -0.2871495348939874 0.13681690984186706
3320000000.0 -0.19049961899023263 -0.23529066617155836
3340000000.0 0.2345733314067257 0.16095033972689177
3360000000.0 -0.18664508609052752 0.1849894690418108
3380000000.0 -0.061081551311964424 -0.23308231844122393
3400000000.0 0.0723689448381381 0.21291907650831887
3420000000.0 -0.19586989748024702 -0.0834482559126898
3440000000.0 0.13883694673167307 0.14429647680524157
3460000000.0 0.1525052365237839 0.11210351136402105
3480000000.0 0.17079484988300103 0.0606137527890187
3500000000.0 -0.1748752108179631 -0.01531132621084757
3520000000.0 0.06647846439932896 0.1594784337099372
3540000000.0 0.14917846957783568 -0.08014878606452107
3560000000.0 0.05663933362850077 -0.16059250109315812
3580000000.0 0.14083057777889393 0.10466390564269533
3600000000.0 0.17239128280523192 -0.04702022375488542
3620000000.0 -0.10799164540868227 0.1503467337688326
3640000000.0 -0.15519249095366974 0.11661625864173578
3660000000.0 0.12690718053895847 -0.15841575125716212
3680000000.0 0.08736927777820751 0.17795310154946664
3700000000.0 0.10965661582683735 -0.16468892557327613
3720000000.0 -0.16928382195897876 -0.08509601475502723
3740000000.0 0.036970223471166304 -0.17817680318406987
3760000000.0 -0.05508979773502261 -0.16405995533742104
3780000000.0 0.1007675754182072 -0.1294350009408922
3800000000.0 0.09679404433451538 -0.11495415917401199
3820000000.0 -0.12462325472332525 0.054204335765720986
3840000000.0 0.05251000277728475 -0.10310303327068114
3860000000.0 0.021546056527215057 -0.09497491116308054
3880000000.0 -0.07284860089779424 0.04268334341651834
3900000000.0 0.07179299005730538 0.030179428931014735
3920000000.0 0.057136491832082525 0.046489411368438274
3940000000.0 0.05384539528509862 0.03212395005673039
3960000000.0 0.038311151978472784 -0.039441627614576015
3980000000.0 0.037616154593655395 0.021202717419158322
4000000000.0 -0.016804171509144757 0.03239946332393396
