!Created with skrf (http://scikit-rf.org).
# Hz S RI R 50.0 
!freq ReS11 ImS11
400000000.0 -0.8110255903121157 0.051498187677763124
420000000.0 0.7252163364083936 -0.23012848593768345
440000000.0 0.6812147721714402 0.18278636496600473
460000000.0 0.09310642127934009 -0.6394600742510271
480000000.0 0.14286549455943726 0.561007229881982
500000000.0 0.5161720306853811 -0.2269668418780648
520000000.0 0.02250264709044228 0.47088510030025804
540000000.0 -0.07579588106610777 -0.4183873053893465
560000000.0 0.0848168125114493 0.3927923052615348
580000000.0 -0.3892434226288521 -0.01751162617352919
600000000.0 0.31078957053803624 -0.2594133638065453
620000000.0 -0.3955469531913128 -0.11965255384655306
640000000.0 0.39416730358991053 0.09124184722905776
660000000.0 -0.308754334678701 0.24238533256913902
680000000.0 0.36798110234637954 -0.09549459975653715
700000000.0 -0.19783916863522796 0.31314361461259066
720000000.0 0.3434825696892975 -0.0015394343601515606
740000000.0 0.30338360369543904 0.11870689715781152
760000000.0 -0.2789599265712704 -0.009869687842003995
780000000.0 -0.20883025088398458 0.19329876117099618
800000000.0 0.02752573716504195 -0.24724187690379365
820000000.0 0.1761472822041798 0.1624453432076521
840000000.0 -0.19928115737300528 -0.08292416630480202
860000000.0 -0.04256448739185069 -0.20072219547453315
880000000.0 -0.10168449117401042 0.16961974559094092
900000000.0 0.05744822480028715 0.14829292479296874
920000000.0 0.036491828907270804 0.129627151385472
940000000.0 -0.052367903615043114 0.10859227668160484
960000000.0 -0.06323112243448385 0.021095342399168878
980000000.0 0.010643515893715372 0.05823866664594137
1000000000.0 0.04368673236317574 0.027661059695225587
1020000000.0 -0.020807309407273298 -0.027909508214530077
1040000000.0 0.04600639185246315 -0.03128661876568055
1060000000.0 -0.018003523568969792 -0.10097422698242071
1080000000.0 0.028931425179848282 0.12405674311903268
1100000000.0 -0.11778360474598427 -0.15244272850780413
1120000000.0 -0.13644261142578032 -0.1723971692611459
1140000000.0 0.2443305854500879 -0.029053261626984416
1160000000.0 0.27476391814335005 0.0004899014255939272
1180000000.0 0.023234237358235495 0.28302513968200577
1200000000.0 0.1980684690380206 -0.22438666013989403
1220000000.0 0.24784077622704542 0.20207686293150384
1240000000.0 -0.07753214356961288 0.33700816873038986
1260000000.0 0.22889697728523856 -0.2467003032072862
1280000000.0 0.22548840011837418 0.25131794059725987
1300000000.0 0.35135163129959424 0.004822303685558329
1320000000.0 0.1424852998435801 0.3308014421463617
1340000000.0 -0.2526723629710223 -0.2644027618002775
1360000000.0 0.041456041087020654 -0.36910668746180686
1380000000.0 -0.3268905261365718 0.17136224668099212
1400000000.0 -0.127648446309929 0.354502797439915
1420000000.0 0.3653796033352062 0.054742511977430575
1440000000.0 0.034920890859625894 -0.37772715501580206
1460000000.0 -0.37274012298983766 0.004970420702335044
1480000000.0 0.3539346509981913 0.07339557254979133
1500000000.0 0.32714027970253 -0.02566774144601757
1520000000.0 0.0007897810162496666 -0.3087379390732695
1540000000.0 -0.28114053708689785 0.02823745763168715
1560000000.0 -0.1618114827676083 0.20610094145451757
1580000000.0 -0.01130940022690365 -0.22315463083776696
1600000000.0 -0.020030225449470158 0.19973881839652644
1620000000.0 -0.11126847718124225 0.12099798009969744
1640000000.0 -0.13658188153008702 -0.00752356473115823
1660000000.0 0.0456055269187421 -0.10217342394710477
1680000000.0 -0.0686580108119619 -0.07090806916305306
1700000000.0 0.013256575492831988 0.0787317810151193
1720000000.0 -0.05680643900347151 -0.04149845996114666
1740000000.0 0.023972396118013228 -0.0634337539062605
1760000000.0 -0.07436259958736276 -0.00868725401878683
1780000000.0 0.09674985639070123 0.05148976939207334
1800000000.0 -0.051066131667969326 -0.12967583714645586
1820000000.0 0.06122329386416396 -0.15329623741071127
1840000000.0 -0.003935552631793346 -0.20770658473420994
1860000000.0 0.10462820162335304 0.21945326485135203
1880000000.0 0.2654146856583491 -0.037284455667846474
1900000000.0 -0.29362285543179134 0.02801254089112965
1920000000.0 0.2870332959508054 0.06871202605351173
1940000000.0 0.17752239399882971 -0.25675239463954874
1960000000.0 -0.31080317891979636 0.028672855300257684
1980000000.0 0.3100033318310368 -0.09135261149744248
2000000000.0 0.1432541829797342 0.28525210016290986
2020000000.0 -0.05830119494715072 0.31010344661207057
2040000000.0 0.05352610599860779 -0.30346042757024805
2060000000.0 0.281574802430024 -0.14180945876827505
2080000000.0 -0.3121966310360557 -0.05917185587264881
2100000000.0 0.1818968881260873 0.24347967974879572
2120000000.0 -0.06736930722410185 -0.28862754049559336
2140000000.0 0.09295154808414625 0.27846064856479735
2160000000.0 0.18071372247497322 -0.2059635525373693
2180000000.0 0.09146572586299229 -0.2619969017318903
2200000000.0 -0.17101346502960488 -0.20222746909616254
2220000000.0 0.19861205704415616 -0.1636731824699998
2240000000.0 0.15944145968571158 -0.19071678473979703
2260000000.0 0.22183150012265865 -0.10120857137584215
2280000000.0 0.14690118757622905 0.15933133021903287
2300000000.0 -0.13806241856708984 -0.14833423112161379
2320000000.0 0.18798239173526748 -0.01976330820693612
2340000000.0 -0.00856989898728893 -0.1740797054464154
2360000000.0 -0.14690046634111234 0.08235182483352935
2380000000.0 -0.0916629069232055 0.15154292085244878
2400000000.0 -0.19072548878430184 -0.006563393874163234
2420000000.0 0.03239741017023102 0.20370130488585164
2440000000.0 -0.20074780492090824 -0.11108980856322719
2460000000.0 -0.06583300352812727 -0.24653798169328237
2480000000.0 0.19881411391006445 0.2016604387814119
2500000000.0 0.3013956537892306 0.07967855156299251
2520000000.0 -0.01056974252910407 0.3400244494850596
2540000000.0 -0.008701354023353364 0.37412714427751054
2560000000.0 -0.39742563277240267 0.040347296370764556
2580000000.0 -0.04072383202291734 -0.4159304653428881
2600000000.0 0.43851261256934554 0.0194153921439384
2620000000.0 -0.12002333267164894 0.43803246385295186
2640000000.0 -0.4195952275750515 -0.19482693955387534
2660000000.0 0.1378199242884966 -0.4494498419403555
2680000000.0 0.3972885539370438 -0.2554353279990523
2700000000.0 0.473435995004634 -0.050802058631257634
2720000000.0 0.46441165936423967 -0.11959286107319023
2740000000.0 0.44745743820047346 -0.18291895198183888
2760000000.0 0.4177641921769497 -0.25428145785985196
2780000000.0 0.06992453878825568 0.488651798149993
2800000000.0 -0.24643547463259272 0.4331304575090312
2820000000.0 -0.47317781615665977 -0.1698383609963948
2840000000.0 0.41537527890894754 -0.2900682482082073
2860000000.0 -0.42235650420809073 0.2846670238793607
2880000000.0 0.5100928351386445 -0.013748658685131358
2900000000.0 -0.2540075164013757 -0.4375547743795774
2920000000.0 -0.45070371370707435 0.21454181128113156
2940000000.0 0.06329585666452782 0.48507486814604106
2960000000.0 0.4711355131596815 -0.08612568755491
2980000000.0 -0.03347846687416934 -0.4629586772354191
3000000000.0 -0.42425295862468015 0.14555177311127182
3020000000.0 0.3720519884918247 0.2211553579987006
3040000000.0 0.003312984177873466 -0.41789508152510885
3060000000.0 0.15887741618970708 0.37345759312887244
3080000000.0 0.08753159061782097 -0.382608255537994
3100000000.0 -0.2806718319069584 -0.2598932951082643
3120000000.0 0.14955715998262037 0.3482300419406849
3140000000.0 0.08177529613237017 -0.3681948131505424
3160000000.0 -0.3763687667288246 0.03479330760308478
3180000000.0 0.24524851764856112 0.2872610511727752
3200000000.0 0.3713506496232916 0.028173371643660655
3220000000.0 0.35621708028914223 0.09209312608079018
3240000000.0 0.3306582885523059 -0.1575276474009069
3260000000.0 0.35447689191648335 0.022000293845878274
3280000000.0 -0.016472244228860344 0.33972694690991956
3300000000.0 -0.2517168226103191 0.19814282979167522
3320000000.0 -0.15429614534916766 -0.2627337099106499
3340000000.0 0.19100359129109523 0.21273250099171678
3360000000.0 -0.261144864076061 -0.03342101007396587
3380000000.0 0.08078580691912228 -0.22819627629696143
3400000000.0 -0.05343454070116285 0.21902138624080225
3420000000.0 -0.06664158818440545 -0.20342239408995058
3440000000.0 0.08104642416364033 0.18326869832946088
3460000000.0 0.03439285155276239 0.18735895916420775
3480000000.0 0.029568781685187017 0.17802304845966316
3500000000.0 -0.11113557252915753 -0.13511330403174446
3520000000.0 -0.0625108729350605 0.16035794686881033
3540000000.0 0.1558891745897057 0.06639455201243585
3560000000.0 0.13897608630496572 -0.09974125249571991
3580000000.0 0.09009771629830805 0.14818165520806495
3600000000.0 0.14191120392757392 0.10246755749797873
3620000000.0 -0.1652925760511577 0.07416293124595758
3640000000.0 -0.15917605943541646 -0.10678812749515962
3660000000.0 0.1878017205057491 -0.06601347110037356
3680000000.0 -0.03059790142022906 0.19404981736843172
3700000000.0 0.16781439945264395 -0.09901831823729239
3720000000.0 -0.14933304974751813 -0.11311426838219305
3740000000.0 0.03060454059583187 -0.17778775068300667
3760000000.0 -0.11000768981770748 -0.12971503827061517
3780000000.0 -0.03993238781676592 -0.15844830694573003
3800000000.0 0.11193487120268088 -0.096731659144849
3820000000.0 -0.02339258686834129 0.13155281122419996
3840000000.0 0.07558775588140813 -0.08364256305176454
3860000000.0 0.09245066225586074 -0.020072525885019888
3880000000.0 -0.0771217610265101 -0.025336691868890572
3900000000.0 0.07555754559007745 0.010665769868439262
3920000000.0 0.000541209200358226 0.07183365837463382
3940000000.0 -0.05079404474504138 0.035668460013616926
3960000000.0 -0.028520155867656657 -0.046441862163143346
3980000000.0 0.043565430392133106 0.00023126135530830122
4000000000.0 0.0144609016659116 0.033500627994815686
