!Created with skrf (http://scikit-rf.org).
# Hz S RI R 50.0 
!freq ReS11 ImS11
400000000.0 -0.6925775886947955 0.43414319933824363
420000000.0 0.46843261802132397 -0.5942484505892158
440000000.0 0.6842859822519424 -0.1735030467285024
460000000.0 -0.3374383026718464 -0.5451400124587966
480000000.0 0.5428838934832566 0.1785919471434093
500000000.0 0.5431944989786835 -0.10253027399634478
520000000.0 0.1787637320370464 0.4316064155830187
540000000.0 0.40616056687825003 -0.025347909232699382
560000000.0 -0.3550814876209279 0.18552646895381736
580000000.0 -0.143692368374339 -0.3573744681469841
600000000.0 0.2415838114583204 0.3193222500772832
620000000.0 0.3038733817491001 -0.279477898625305
640000000.0 0.05823199667591729 0.40848284841606824
660000000.0 -0.368943275572082 0.1557376019327689
680000000.0 0.35773472940171813 0.13851166367166032
700000000.0 -0.34925082613748804 0.13807853911885243
720000000.0 0.31443838513086936 0.1472363483310075
740000000.0 0.22629915669353942 0.23265333044741718
760000000.0 -0.1606241645619659 -0.2333282721115484
780000000.0 -0.27770127961017227 0.08388834521721572
800000000.0 0.22067447489065942 -0.12381397454122477
820000000.0 0.20770484379056192 0.1259477261371245
840000000.0 -0.15929572484542062 0.1510127819418784
860000000.0 -0.20703362240891257 -0.01551953292700412
880000000.0 0.004158813310167243 0.19678019742204472
900000000.0 0.0031794740220108916 0.16073533071413096
920000000.0 0.07649022734657046 0.10645012628668774
940000000.0 0.013895026550826915 0.12158637951763995
960000000.0 0.012174465368374798 -0.07076041004097722
980000000.0 0.0551965475480458 -0.023391487323080586
1000000000.0 -0.0211320372177568 0.05136848052617683
1020000000.0 -0.030511567203524464 -0.02182818106879905
1040000000.0 -0.05410531012899335 -0.02285251538575374
1060000000.0 -0.10444980763068791 -0.009345477437104604
1080000000.0 0.11390961386099772 0.0577329632897269
1100000000.0 -0.12077660436586013 -0.14798163473292367
1120000000.0 0.010428883751627791 -0.21753703107814276
1140000000.0 0.12346124755917476 0.21462400075345464
1160000000.0 0.24424434849965218 0.1417176693405068
1180000000.0 0.2277997317871672 0.18121210378956937
1200000000.0 -0.1763573650020311 -0.24504607595908118
1220000000.0 0.3166711870820756 -0.03929395699501739
1240000000.0 0.13775059326604702 0.31321419811517376
1260000000.0 0.15883557544872628 -0.292473725106117
1280000000.0 0.25642694071936994 0.2183633855101267
1300000000.0 0.3456658836164747 0.05486146439382605
1320000000.0 0.18104934083089522 0.30948738843891677
1340000000.0 -0.16529513538963997 -0.3252562604944254
1360000000.0 0.05188209683701047 -0.3688499883864925
1380000000.0 -0.3396134827230337 0.1421618255721343
1400000000.0 -0.1309075818226698 0.35299765976572156
1420000000.0 0.37052211101513116 0.014058433524158783
1440000000.0 0.011338375773032887 -0.3779387456288945
1460000000.0 -0.37224654449044664 -0.001951298509578101
1480000000.0 0.27536174287321363 0.23421247899164815
1500000000.0 0.3313216068983211 -0.009053169942477598
1520000000.0 0.09347749093804848 -0.29738852865273535
1540000000.0 -0.2673745843423421 0.0966930337219783
1560000000.0 0.0650686111000563 0.25138745567802623
1580000000.0 -0.12972981821933902 -0.1796408358814997
1600000000.0 -0.15606024941533253 0.11891858070147299
1620000000.0 -0.07495840335085363 -0.1462997060530062
1640000000.0 0.016065474621146346 -0.13527551217385794
1660000000.0 0.02917478676205397 -0.11228156676066071
1680000000.0 -0.09320736272213262 0.03256913058122227
1700000000.0 0.07907563136337369 -0.0010105137995999414
1720000000.0 -0.06431263649872766 0.019023766769137123
1740000000.0 -0.02600042569297941 0.060351325973297225
1760000000.0 -0.07005260079788105 -0.032566428699966905
1780000000.0 0.09537485337170812 0.05460093755769933
1800000000.0 -0.10232568964155465 -0.09610726911078371
1820000000.0 -0.07723683414502146 -0.14429618848521183
1840000000.0 -0.10283712579810503 -0.17847940372809534
1860000000.0 0.10655371201553122 0.214312019419567
1880000000.0 0.25191916373245427 0.08277466445167636
1900000000.0 -0.2517200410595237 -0.1528494026155969
1920000000.0 0.22620872176075263 0.19225761686037732
1940000000.0 0.26569408002301403 -0.16842488698542676
1960000000.0 -0.31269040052477537 -0.035323032974229826
1980000000.0 0.2979551548831445 -0.13079673112256887
2000000000.0 0.20103354249981184 0.25002109227110647
2020000000.0 0.16202259259039167 0.26994419836165795
2040000000.0 0.18449346895600655 -0.24559635779214736
2060000000.0 0.28571363374046016 -0.12962364207709567
2080000000.0 -0.23998760664302274 -0.20277764336424003
2100000000.0 0.06716540761821185 0.29646554402581654
2120000000.0 0.054303756780572324 -0.2943442947027799
2140000000.0 0.14442881436139757 0.2604099035905128
2160000000.0 0.0949272982226854 -0.26020472834044667
2180000000.0 -0.11011636267225922 -0.25718378396869457
2200000000.0 -0.2646268407378216 0.012779473867491207
2220000000.0 -0.0014141104964543114 -0.2586445036259516
2240000000.0 -0.009050627132109813 -0.2471540932317591
2260000000.0 0.14647845669923645 -0.19130331724915348
2280000000.0 0.11529360734841965 0.18040524763501367
2300000000.0 -0.146320785153855 -0.13935622360322433
2320000000.0 0.18305495085392373 0.04029930081354303
2340000000.0 -0.03415485630282016 -0.17148693646565105
2360000000.0 -0.16262362571146743 0.04914002373388067
2380000000.0 -0.003159339910005377 0.17687462010069543
2400000000.0 -0.18731898724747423 0.020652608810238553
2420000000.0 0.07466347293734979 0.19054416125244883
2440000000.0 -0.21802285492892978 -0.06534999795808044
2460000000.0 -0.03496416541756365 -0.2519577523556471
2480000000.0 0.17050558792484238 0.22735025488152297
2500000000.0 0.2987389097925516 0.09680064584776277
2520000000.0 0.00982677661366703 0.3427292077494001
2540000000.0 0.08455948887211623 0.3654993464084437
2560000000.0 -0.3776785787462996 0.13320722289793838
2580000000.0 -0.1512501461754672 -0.3907490571717865
2600000000.0 0.43856367300828014 -0.020471900950210713
2620000000.0 -0.06172549131545653 0.44919072184863995
2640000000.0 -0.44310909126592496 -0.1323302054085934
2660000000.0 0.05988978973127993 -0.4656361416942465
2680000000.0 0.3756990909743081 -0.2854590517697107
2700000000.0 0.4712971253370403 -0.06383664704859889
2720000000.0 0.45514530394417124 -0.14904917806162216
2740000000.0 0.45911127783543976 -0.1507837408560351
2760000000.0 0.44058942748826824 -0.21068729345768475
2780000000.0 0.11372396006723993 0.48026830993125047
2800000000.0 -0.21513914990614255 0.4509812041838373
2820000000.0 -0.49333581159123935 -0.1017245059465577
2840000000.0 0.3605453565980957 -0.35719047185644814
2860000000.0 -0.37248705875412313 0.3477674872353353
2880000000.0 0.5036995190781025 -0.08050600759059749
2900000000.0 -0.27082645120383125 -0.4273545404800374
2920000000.0 -0.43374695025804183 0.24643223831559333
2940000000.0 0.12789758379639407 0.4717184860413718
2960000000.0 0.4476671212934938 -0.16775843723538575
2980000000.0 -0.15946543006187644 -0.43470705106273966
3000000000.0 -0.40246081328729366 0.1952685220556296
3020000000.0 0.358652196795123 0.24127935228894679
3040000000.0 -0.06129265933655861 -0.4126742961567553
3060000000.0 0.10785269218739556 0.3916257833979251
3080000000.0 -0.05697625817529021 -0.38864810035641806
3100000000.0 -0.3579762152033923 -0.13534181815817126
3120000000.0 0.2214185897982444 0.30907958122843965
3140000000.0 -0.052802289661021996 -0.37262127390044064
3160000000.0 -0.3616811447273211 0.1074200628034609
3180000000.0 0.2034340411093993 0.3177971661361192
3200000000.0 0.3686774733232894 0.060142073092059926
3220000000.0 0.3672711795308148 0.012729833378456065
3240000000.0 0.2956778086341593 -0.21711462039061347
3260000000.0 0.35017930624594396 -0.05018736158377613
3280000000.0 0.10931689838245166 0.31877740617646366
3300000000.0 -0.27078696354769327 0.16778939181217378
3320000000.0 -0.15264829026678753 -0.26219429941408584
3340000000.0 0.2205700011267216 0.18038108921202156
3360000000.0 -0.2629644314256839 -0.0048360192308033265
3380000000.0 0.17007852106572396 -0.173157164332216
3400000000.0 -0.063879982027721 0.21806008599210058
3420000000.0 -0.02050702184457265 -0.2143791879033255
3440000000.0 0.09120801859416942 0.18135049495193248
3460000000.0 0.08366283989453827 0.17277727277179805
3480000000.0 0.12905128080748862 0.12881554993254576
3500000000.0 -0.10890479099991345 -0.13828057263944424
3520000000.0 -0.02843855578464126 0.17016514479725645
3540000000.0 0.1696658745110051 0.01291219046915029
3560000000.0 0.04010495925866407 -0.16654046771057976
3580000000.0 0.17318447681305832 0.032156509187263135
3600000000.0 0.15264544144695544 -0.08865255887808747
3620000000.0 0.020550867557376843 0.18111138247135222
3640000000.0 -0.18237098965177204 0.05978838233043203
3660000000.0 0.12196479975947389 -0.15618487113177745
3680000000.0 0.06057883672529682 0.186300699755775
3700000000.0 0.1703234962971512 -0.0939734164481004
3720000000.0 -0.0676783267364255 -0.1739979908364161
3740000000.0 0.09966974966629669 -0.14980972627687325
3760000000.0 -0.015309336855604472 -0.16946644141284298
3780000000.0 0.06756516171042735 -0.14980779752604742
3800000000.0 0.14965219475166008 -0.0019444208968082894
3820000000.0 -0.09874570188032704 0.09283126683570032
3840000000.0 0.020418618273874173 -0.11314389166871879
3860000000.0 -0.01911403810483826 -0.0954063639714286
3880000000.0 0.024731153508632395 0.07838025504022263
3900000000.0 -0.013121556674658775 -0.07420624008494224
3920000000.0 0.06873039718214988 0.01505155918700968
3940000000.0 0.058682308475673524 0.005269668666212736
3960000000.0 0.007301377720794835 -0.05317510979030703
3980000000.0 0.0415244844951705 -0.0015076766600546306
4000000000.0 -0.016244739622401888 0.03009966377948807
