!Created with skrf (http://scikit-rf.org).
# Hz S RI R 50.0 
!freq ReS11 ImS11
400000000.0 -0.7985766511490674 0.17305365066290154
420000000.0 0.4343241123835089 -0.6238108313745246
440000000.0 0.710304433525068 -0.016184980710808556
460000000.0 -0.4982814093767029 -0.4109572809737672
480000000.0 0.569899292691306 0.010376004414738517
500000000.0 0.5114840033572216 -0.22872947184990944
520000000.0 0.1807488447253982 0.4325525205329062
540000000.0 0.361848378133134 -0.21244742813254616
560000000.0 -0.26782419071913616 0.30364034903719644
580000000.0 -0.36197092861043323 -0.15591423886287428
600000000.0 -0.054556810375006114 -0.40065345989908974
620000000.0 -0.3765984961860556 0.14825252410397383
640000000.0 0.023355688206941293 0.40132753094383367
660000000.0 -0.24387277488315984 0.30744082915135595
680000000.0 0.3689507244919918 -0.07887332567107308
700000000.0 -0.34059424588301257 0.1249958747265116
720000000.0 0.18004066366721558 0.29660705355838257
740000000.0 0.32936495314095954 -0.044654991750564296
760000000.0 -0.248373866311722 -0.12511839059379018
780000000.0 -0.12585513132394832 0.2683130391411315
800000000.0 -0.028563470263106502 -0.24886533520413404
820000000.0 0.24256369423145788 -0.011380013233341306
840000000.0 -0.1030467199762472 0.1930891289482199
860000000.0 0.0458826394206115 -0.19646992497827823
880000000.0 0.10973919395984774 0.15983709678735866
900000000.0 0.07916493604630681 0.13660452711797222
920000000.0 0.10292643449269524 0.08019244403392779
940000000.0 -0.05888730820050153 0.10195256976309935
960000000.0 0.06507827617192505 0.002300832038773582
980000000.0 -0.0034084774937946354 0.06182532501368358
1000000000.0 0.04831995730502958 -0.025645990194531294
1020000000.0 0.017659110492744847 0.030672572720911825
1040000000.0 0.03727640763240777 0.044718803770789184
1060000000.0 -0.09595528745540123 -0.02905939061307443
1080000000.0 0.05691319379124353 0.11352603752700968
1100000000.0 -0.1518946749927193 0.11730474052351603
1120000000.0 -0.04908303601666161 -0.21003752092516234
1140000000.0 0.13530289671019183 0.20461921414161569
1160000000.0 0.2511161307363333 0.12206178513685985
1180000000.0 0.02114907246622961 0.2836600690552517
1200000000.0 0.226591186596882 -0.20113287360078355
1220000000.0 0.2818048972266768 0.1612195094203927
1240000000.0 0.019529392144612988 0.34575119559045314
1260000000.0 0.21667222559007768 -0.25747049185391846
1280000000.0 0.29446782806076516 0.16698453223340773
1300000000.0 0.3372353799563275 -0.09067249175408632
1320000000.0 0.055501175721738336 0.355202628173488
1340000000.0 -0.14804643584077182 -0.33575175474369834
1360000000.0 0.051022747526665024 -0.3662095613686167
1380000000.0 -0.3489591386781437 0.12221156563229373
1400000000.0 -0.12299541640220797 0.3570440021725814
1420000000.0 0.3734747757874137 -0.01009415082383371
1440000000.0 0.010524741623784006 -0.37788607592700585
1460000000.0 -0.36662717341068957 0.06849129921115091
1480000000.0 0.329403567309219 0.14963760809019513
1500000000.0 0.327123637183391 0.026328299914609832
1520000000.0 0.024067761696045555 -0.31355296210427913
1540000000.0 -0.27643037826847444 0.05714698550578619
1560000000.0 -0.06048105540560469 0.253243027026659
1580000000.0 -0.09701403326061735 -0.19969329103756012
1600000000.0 -0.008065135741600065 0.1975433842157918
1620000000.0 -0.15007765223843492 -0.06472153345026492
1640000000.0 -0.07301028069885569 -0.11449895595118643
1660000000.0 0.001904221955960625 -0.11146502359760553
1680000000.0 -0.04770248251243838 -0.0852980052763376
1700000000.0 0.0753387150538857 0.026563837260794577
1720000000.0 -0.06858309412635447 0.0032465372611989265
1740000000.0 0.014252122092899635 0.06459936958898074
1760000000.0 -0.07055281824574144 -0.03419546890353748
1780000000.0 0.0938121456653269 0.05528524389546619
1800000000.0 -0.055181855439941634 -0.12722747762729308
1820000000.0 0.04617916313581436 -0.15929410233094973
1840000000.0 0.0014148926927970854 -0.2070886498529352
1860000000.0 0.08978480976837451 0.2233512190193725
1880000000.0 0.24680229948037707 -0.09854801609324076
1900000000.0 -0.2866376455132644 -0.06205368393736094
1920000000.0 0.270097541075786 0.1195954657891706
1940000000.0 0.21218600037223267 -0.23139654256403672
1960000000.0 -0.2871411110533375 0.12419381362113692
1980000000.0 0.30117574381925033 -0.11927024999121837
2000000000.0 0.23593759001363646 0.21660839789199757
2020000000.0 0.021204788276061336 0.3142753552647453
2040000000.0 0.08295275517883724 -0.2949984021145618
2060000000.0 0.28413017585391387 -0.1365917267624625
2080000000.0 -0.29105363633208603 -0.11588393610660029
2100000000.0 0.15731729914640427 0.25778783947243733
2120000000.0 0.01342685519379672 -0.2979995208793083
2140000000.0 0.05814217316711072 0.28894106564649874
2160000000.0 0.14007294982136867 -0.23461341986034662
2180000000.0 -0.011801162609463534 -0.27803647878601934
2200000000.0 -0.233823551830672 -0.12700463406704424
2220000000.0 0.06080172235205868 -0.2522743819207433
2240000000.0 0.10867850026410016 -0.2206666617197173
2260000000.0 0.22998409993516436 -0.07843881515723992
2280000000.0 0.01780958336853231 0.21576344763033903
2300000000.0 -0.1893469830439364 -0.07394817596970944
2320000000.0 0.1776660313528276 -0.06347528169936377
2340000000.0 0.04776454815649798 -0.16820064559955294
2360000000.0 -0.13648511122298831 0.09997778311453834
2380000000.0 -0.04961496905101191 0.16946719278483707
2400000000.0 -0.18905738983312317 0.002002160023880058
2420000000.0 0.20374211834291386 0.008771564272452155
2440000000.0 -0.21043355415919376 -0.08564163356736267
2460000000.0 -0.02818656307810911 -0.2537147480099424
2480000000.0 0.2522086405759407 0.1282936028960044
2500000000.0 0.3083774222983542 0.05667111087994518
2520000000.0 0.11168794154992409 0.32389683606944786
2540000000.0 0.1396158145967276 0.3487659319071207
2560000000.0 -0.3600843331488179 0.17471731751055944
2580000000.0 -0.1551713259887194 -0.38790913771197977
2600000000.0 0.4343101391919449 -0.06632769488309834
2620000000.0 -0.03085006409720609 0.45224755960135715
2640000000.0 -0.4473656064997249 -0.11398541741883415
2660000000.0 0.021787334947901284 -0.46821723947161825
2680000000.0 0.3801179153183198 -0.279951441091494
2700000000.0 0.4572226931066588 -0.13169971779380177
2720000000.0 0.40492688756120393 -0.2568452707381674
2740000000.0 0.295076700238792 -0.38381488973635286
2760000000.0 0.3363239017390428 -0.35594414426342674
2780000000.0 0.21949672324676414 0.44296904459930964
2800000000.0 -0.1447789003385117 0.4778222485435969
2820000000.0 -0.5025935755851512 -0.03164061448323756
2840000000.0 0.3259653568387393 -0.38818589627556466
2860000000.0 -0.3727587499409539 0.3461937027144285
2880000000.0 0.5086153532204566 -0.024101531468705164
2900000000.0 -0.22321872260189837 -0.4526105847905867
2920000000.0 -0.4442181867832754 0.22404680941078045
2940000000.0 0.20381363282998702 0.4440583374720396
2960000000.0 0.43746269048018294 -0.19158614156538958
2980000000.0 -0.16957440829664194 -0.4302961563369463
3000000000.0 -0.3536131860301059 0.27404461278143527
3020000000.0 0.42910361172336176 0.0424135906006511
3040000000.0 -0.2484683196715071 -0.33517142980407644
3060000000.0 0.19177215206284137 0.3584859531224767
3080000000.0 -0.05069157427171116 -0.3904645703907218
3100000000.0 -0.351183881730886 -0.15366596527519544
3120000000.0 0.23860011268053402 0.29683537952175376
3140000000.0 -0.02391503973411043 -0.37680497481552083
3160000000.0 -0.37395047243980856 0.057604630688174015
3180000000.0 0.25501518321814615 0.27952824323368974
3200000000.0 0.3682487086678793 0.05444610337521879
3220000000.0 0.36618386858574375 0.014029866125515746
3240000000.0 0.3047810241512169 -0.20355445090741095
3260000000.0 0.34978807753486907 -0.04831917582573948
3280000000.0 0.12570005278849272 0.312544196792693
3300000000.0 -0.20747511567422255 0.24128988947628408
3320000000.0 -0.1980317356904677 -0.2290965790671897
3340000000.0 0.2102545054129167 0.19153829021993501
3360000000.0 -0.25024162711385967 0.08098391297810377
3380000000.0 -0.02112581937818917 -0.24074793375603418
3400000000.0 0.047693861882544084 0.21967463689270716
3420000000.0 -0.13248251152724522 -0.1674569194712073
3440000000.0 0.11995790203471124 0.15880656271034121
3460000000.0 0.05226281478670302 0.18105654511055747
3480000000.0 0.1604839369968263 0.08149280264137321
3500000000.0 -0.16491494672590543 -0.05534215238553373
3520000000.0 0.0785277349525386 0.1528464286632023
3540000000.0 0.15269605511135248 -0.06976288734804466
3560000000.0 0.04252951708455368 -0.16607383502622514
3580000000.0 0.16360430753297683 0.062487619268599595
3600000000.0 0.1793097642033928 -0.0028256203601752837
3620000000.0 0.005300210990122071 0.18527495119143353
3640000000.0 -0.18891649493742568 0.04940168249126443
3660000000.0 0.13024840681269534 -0.15511358516458446
3680000000.0 0.0847504189550582 0.17884644726371193
3700000000.0 0.1548546092980803 -0.12391166787204977
3720000000.0 -0.10242036069273767 -0.15958233877628364
3740000000.0 0.04195842546998264 -0.17855271724707528
3760000000.0 0.014625437346900486 -0.17238232211513235
3780000000.0 0.12743365596458925 -0.10322392907064366
3800000000.0 0.14572793757374428 -0.036222744097185906
3820000000.0 -0.042834608912412114 0.12708214894549408
3840000000.0 0.06972376554792405 -0.09016270334270596
3860000000.0 0.09028648658579073 -0.03430402794926401
3880000000.0 -0.07880523774250005 0.024053611756529772
3900000000.0 0.0370968059991429 -0.06724562923862001
3920000000.0 0.017689342251024455 0.06989296255923044
3940000000.0 0.015288045173022236 0.059893972094658125
3960000000.0 -0.0032672647483591058 -0.05382883443067634
3980000000.0 0.01989298525883325 0.03817424728762196
4000000000.0 -0.021916732166807708 -0.028725845440711516
