!Created with skrf (http://scikit-rf.org).
# Hz S RI R 50.0 
!freq ReS11 ImS11
400000000.0 -0.8003958879484759 0.1614792844112367
420000000.0 0.4347902815925385 -0.6241041595907542
440000000.0 0.6935627862294015 0.14139217487758296
460000000.0 -0.4640870844332426 -0.4487122660465886
480000000.0 0.5691811097076497 -0.06428228428976386
500000000.0 0.518313424235606 -0.21278996165875197
520000000.0 0.13357296400994376 0.4491345779403408
540000000.0 0.3747197630602755 -0.1869082831672534
560000000.0 -0.1668229213007308 0.3679036743295118
580000000.0 -0.28165530234197567 -0.27670782053932913
600000000.0 -0.013038404233980285 -0.40517779734398757
620000000.0 -0.3404641466326173 0.21845901269686124
640000000.0 -0.011080251587498756 0.40039960910837924
660000000.0 -0.07923378828830703 0.38261687478766554
680000000.0 0.3548877870758932 0.12645239715569773
700000000.0 -0.3239041236813647 0.16420246977335312
720000000.0 0.08901990571946222 0.33445696663096564
740000000.0 0.32877413649379356 -0.052237193767031356
760000000.0 -0.2246111816417953 -0.16485151200050469
780000000.0 -0.16863737466819356 0.24298244971780106
800000000.0 -0.0047802179385576056 -0.2491198361099166
820000000.0 0.24193428154389618 0.02361724822723034
840000000.0 -0.029102385013002486 0.21743550490227606
860000000.0 -0.06726633977558523 -0.19111724409497316
880000000.0 0.1385467930689357 0.13368566256848236
900000000.0 0.011772483510461394 0.15891272302406245
920000000.0 0.11592046057972015 0.053664537728857
940000000.0 -0.004362335165648181 0.11736148370600728
960000000.0 0.05066177641472803 0.04255068143991106
980000000.0 -0.03331343249742807 0.05490523094479984
1000000000.0 -0.053578598261210725 -0.0028915555410542063
1020000000.0 -0.003744896283885939 0.033490060577732975
1040000000.0 0.030147678346014634 0.05118181087134981
1060000000.0 -0.05330631712993332 -0.08483055508047398
1080000000.0 0.0991384291920021 0.07794763147788734
1100000000.0 -0.10758611794978898 0.16042137153892755
1120000000.0 0.036711863438326664 -0.21212244314904696
1140000000.0 0.13825365607820278 0.20346237276778825
1160000000.0 0.25550834806888 0.11106326012068517
1180000000.0 0.03624894587138391 0.2814447348109322
1200000000.0 0.22143457210458078 -0.20540993072888594
1220000000.0 0.30193225973810633 0.12085653235367608
1240000000.0 0.061568959262428447 0.3400868379556466
1260000000.0 0.21874085361616422 -0.2560475228913188
1280000000.0 0.32590953191916977 0.09560344863646274
1300000000.0 0.34765385006220245 -0.017318707233354148
1320000000.0 0.01918984213703524 0.3596904652396334
1340000000.0 -0.1883662506391549 -0.31348970299457884
1360000000.0 0.08485230428396226 -0.36007041662820194
1380000000.0 -0.35642198811321674 0.09519382788675745
1400000000.0 -0.15684888330529317 0.3445365300494052
1420000000.0 0.3707656102481459 -0.03383333265981693
1440000000.0 0.004542912340387583 -0.3763016136664991
1460000000.0 -0.3668171786974181 0.06936594922065603
1480000000.0 0.30021738486096416 0.20090838513228787
1500000000.0 0.32618249516715947 0.03774328591985842
1520000000.0 -0.0358625300280297 -0.31198849739028
1540000000.0 -0.27816237974773167 0.04923160404195677
1560000000.0 -0.13560335584574315 0.22240738576615965
1580000000.0 -0.13424429134141092 -0.17572868212275158
1600000000.0 -0.05282204696365006 0.19216552180838486
1620000000.0 -0.15472414852570057 -0.05398791416305211
1640000000.0 -0.0706495780131804 -0.11728959493765398
1660000000.0 0.07138218892654218 -0.08752455632391652
1680000000.0 0.0017362682776524438 -0.09646688982716418
1700000000.0 0.05226475537474774 -0.0618607822067471
1720000000.0 -0.040214972952126206 -0.055011838720349295
1740000000.0 0.047172318453647125 0.04619585815436836
1760000000.0 -0.05918823548453953 -0.05227969345711998
1780000000.0 0.07219089702775577 0.0819905158320507
1800000000.0 -0.12317880779347933 -0.06503054041252511
1820000000.0 0.05891319314612139 -0.1540927057562272
1840000000.0 -0.054712406970321904 -0.2007571882447123
1860000000.0 0.030793340555633538 0.23891819747753593
1880000000.0 0.26292884918673326 -0.046896564674869336
1900000000.0 -0.2877259327675689 -0.054792186999433785
1920000000.0 0.28155270323718157 0.088309388994739
1940000000.0 0.18176321288637637 -0.2559042781139292
1960000000.0 -0.2974224119629748 0.0974220864706377
1980000000.0 0.29439961623980493 -0.13578872711632675
2000000000.0 0.19534941355904006 0.2540650870093295
2020000000.0 -0.019879738277443403 0.31482132725188927
2040000000.0 0.003072766123190969 -0.3061243504663351
2060000000.0 0.27574187532881717 -0.15117841851438524
2080000000.0 -0.302447479028303 -0.07733459301678311
2100000000.0 0.13880456322799672 0.267658225094749
2120000000.0 5.746984015601783e-05 -0.2996154271308488
2140000000.0 0.11600732948519155 0.2712497172324303
2160000000.0 0.13315452564557034 -0.23860956353693394
2180000000.0 0.0045695915081953205 -0.27955805935090716
2200000000.0 -0.25743498424570976 -0.06035493167891892
2220000000.0 0.09213131227543833 -0.2420508019259302
2240000000.0 0.10807067597143397 -0.2216560068288239
2260000000.0 0.22648250824632274 -0.09037368713952396
2280000000.0 0.10368546434781764 0.18916159039262884
2300000000.0 -0.20153349315752075 -0.01906083675637059
2320000000.0 0.18089248957497372 -0.05227210594898575
2340000000.0 -0.0144569944983794 -0.17352291083384025
2360000000.0 -0.14488550905504838 0.08936567189533656
2380000000.0 0.07875760531590671 0.1569200307850664
2400000000.0 -0.18618368961861836 0.027253549370613268
2420000000.0 0.15225411658924334 0.13549553310428677
2440000000.0 -0.21270600095405576 -0.08146730338417783
2460000000.0 -0.08984270248492161 -0.23891064220011365
2480000000.0 0.17845652680083754 0.21813509382609772
2500000000.0 0.30818334743849835 0.05757340841695575
2520000000.0 0.0971480579574537 0.32724231797152614
2540000000.0 0.09593579396020196 0.36372233175485774
2560000000.0 -0.36711016555392834 0.15827653602819056
2580000000.0 -0.15269776349983805 -0.3891381570616117
2600000000.0 0.4319619588956519 -0.07493734311270353
2620000000.0 0.005467833086965584 0.45342969345272
2640000000.0 -0.44994843341943924 -0.1041873045855555
2660000000.0 0.05434109778921733 -0.465563526766622
2680000000.0 0.3846744248527124 -0.27233302774615054
2700000000.0 0.47094564927581417 -0.06659188782670401
2720000000.0 0.40762958498841917 -0.25270153245536103
2740000000.0 0.336396095732286 -0.34735126755616624
2760000000.0 0.31883107433740365 -0.37141662616535476
2780000000.0 0.2413649986681218 0.43072904351284536
2800000000.0 -0.15068483171632174 0.4756198883350895
2820000000.0 -0.5021271687143363 -0.036254689550417746
2840000000.0 0.3496224801717318 -0.36691850866786346
2860000000.0 -0.37583930657611353 0.3429038919583168
2880000000.0 0.509205003927724 -0.019043029727413983
2900000000.0 -0.2190321798151848 -0.4550654733441427
2920000000.0 -0.4291707275029495 0.2524974646437068
2940000000.0 0.17447180139154322 0.45721990098757276
2960000000.0 0.443010329001785 -0.18080479454695345
2980000000.0 -0.16613019236426238 -0.4342050554617869
3000000000.0 -0.3915848235120874 0.2162177049125935
3020000000.0 0.4137804526485916 0.11951510548134335
3040000000.0 -0.10162430497996763 -0.4044341048973304
3060000000.0 0.1333082897582119 0.383694045028075
3080000000.0 0.021351569815548695 -0.3931583854503552
3100000000.0 -0.34356237698459463 -0.1710627340778597
3120000000.0 0.20268693090738008 0.32171542659607133
3140000000.0 0.010956545700166841 -0.3780416632902287
3160000000.0 -0.35908225473148564 0.11588957819174779
3180000000.0 0.2589352185305526 0.2761708898177272
3200000000.0 0.37100247813946047 0.03371458737638784
3220000000.0 0.3666433761271514 -0.02000696207485396
3240000000.0 0.3190610173021476 -0.18326760187619082
3260000000.0 0.3483251253285634 0.062343504718459404
3280000000.0 0.11526012508910086 0.31779968837194017
3300000000.0 -0.2739261188115443 0.16395256651095402
3320000000.0 -0.233697538232261 -0.1940010019093642
3340000000.0 0.20494895020431814 0.1991304755093363
3360000000.0 -0.25015675755127464 0.08415923212892608
3380000000.0 0.02257349989903343 -0.24059197204150445
3400000000.0 0.04438891513440982 0.22093328539991766
3420000000.0 -0.17888318746234458 -0.1156631425797474
3440000000.0 0.10673712363205896 0.16885466189012277
3460000000.0 0.11485387897235239 0.1498393098642723
3480000000.0 0.16554040493622313 0.07135414863865565
3500000000.0 -0.1739010288843938 -0.008305248042125641
3520000000.0 0.0849640497363171 0.14962577679500236
3540000000.0 0.12021534066001653 -0.117525820945584
3560000000.0 -0.0055165953609756235 -0.17047168019615128
3580000000.0 0.14373267601035003 0.10175992098146888
3600000000.0 0.17286326546386205 -0.0455457346387821
3620000000.0 -0.06746158596554878 0.17277062213823746
3640000000.0 -0.1840841605195824 0.0634025079527874
3660000000.0 0.13285441627561462 -0.15344480830668833
3680000000.0 0.11561055966198824 0.16118672031843922
3700000000.0 0.10069987291521983 -0.1711234604478181
3720000000.0 -0.1383496811551437 -0.13094218398999782
3740000000.0 0.09532797349474038 -0.1567058867112429
3760000000.0 -0.02213111200562722 -0.17196746972013852
3780000000.0 0.07203232593843362 -0.149480426914431
3800000000.0 0.12712033659970018 -0.08057459671704027
3820000000.0 -0.13384007286895844 0.019259562371723885
3840000000.0 0.08454391351657102 -0.07958369202258025
3860000000.0 0.06364403417950357 -0.07393664706962205
3880000000.0 -0.08023390001929416 0.024971115093589374
3900000000.0 0.0684409196298544 0.037066922313708894
3920000000.0 0.004033462490199986 0.0729673634101583
3940000000.0 0.04523520916604424 0.043239774203808604
3960000000.0 0.0012365135075116194 -0.054385411339970054
3980000000.0 0.040298741722454345 -0.011830167790058592
4000000000.0 -0.010466473401696189 -0.03414336737281576
