!Created with skrf (http://scikit-rf.org).
# Hz S RI R 50.0 
!freq ReS11 ImS11
400000000.0 0.5098722432286974 -0.16022691101038708
420000000.0 -0.31676238831208336 -0.17619878735021574
440000000.0 -0.18646409859995972 -0.07535639455305562
460000000.0 0.14341387590220303 -0.14636864666137467
480000000.0 -0.18085403321846516 -0.23817171895327505
500000000.0 -0.32880040309478314 0.01146001358453929
520000000.0 0.22946159912397177 0.2607111823826049
540000000.0 -0.222021083524331 0.31449210186833043
560000000.0 0.4282531003672005 -0.06859089598817657
580000000.0 -0.319061152435427 -0.3645230365527951
600000000.0 -0.1768697118044526 0.46068893719769993
620000000.0 0.46312958728719233 0.11709518918616942
640000000.0 0.03143490775106694 0.4302341919436437
660000000.0 -0.32752382058407614 0.2015214712352231
680000000.0 0.3429727628867976 -0.16130761442238642
700000000.0 -0.3523818916353511 0.06884729044555547
720000000.0 -0.3037820706455059 0.017188726110785733
740000000.0 0.09519188638303847 -0.20507482634213156
760000000.0 0.1466472343440233 0.0778556143127669
780000000.0 -0.09988905768432645 -0.027770562687241436
800000000.0 -0.010199726204969662 0.00023730243263019165
820000000.0 -0.09611706555124236 -0.007559780423625428
840000000.0 -0.10941691407599666 -0.10294156613195667
860000000.0 0.1251002929115317 -0.13819438711783746
880000000.0 -0.17851383304672813 -0.07959511925244195
900000000.0 0.08877909776987188 -0.15771490600403243
920000000.0 0.006599725221312976 -0.2064205589491857
940000000.0 0.10523693413046242 -0.20821874171962856
960000000.0 -0.0985374056904358 0.22093491413300598
980000000.0 0.15856286877029319 0.21121202687481033
1000000000.0 0.21573541864024146 0.18009817234341496
1020000000.0 -0.10057700506036489 -0.2690434593472773
1040000000.0 0.2800968824154549 -0.0758368355227232
1060000000.0 0.17890721396274242 0.21526758635625545
1080000000.0 0.12949914302270654 -0.2315223980609336
1100000000.0 -0.2477581941474587 -0.013310815729465485
1120000000.0 -0.022451781903578036 0.23992115971700753
1140000000.0 -0.01960684167788023 -0.22725990757874615
1160000000.0 0.04369125710986223 0.21826066141891426
1180000000.0 -0.10675947851485842 -0.17582563970543594
1200000000.0 0.008148856185532608 0.1850721640251634
1220000000.0 -0.030521843747298168 0.16513588057380468
1240000000.0 -0.1422411151257961 -0.00028980619224469237
1260000000.0 0.08992118074694733 -0.0896996477908909
1280000000.0 0.10865012845965369 -0.04024169731369562
1300000000.0 0.10974325889049773 0.03438458090193375
1320000000.0 -0.09650223511975622 0.09054625324619832
1340000000.0 -0.10847151139541217 -0.10455829182490357
1360000000.0 0.16475705325601053 -0.07648412823232267
1380000000.0 0.17693000322857674 0.10091092193758956
1400000000.0 -0.2109177517333654 -0.05066249633803081
1420000000.0 -0.17152798669152625 0.1408352932177805
1440000000.0 -0.22411269819570973 0.04468446923262622
1460000000.0 -0.2163848118260782 0.09376807557391276
1480000000.0 0.2158839946800845 0.06301801929428717
1500000000.0 0.18315703477507528 0.09489206288701721
1520000000.0 -0.06349085209810389 -0.17566517003022114
1540000000.0 0.16999803919569695 0.022581336196751806
1560000000.0 0.12455514770495442 -0.08602920734450788
1580000000.0 -0.04307758435469093 0.1371537218899506
1600000000.0 -0.07535695768911348 -0.11453676015808412
1620000000.0 -0.029711165635002614 -0.13088878168888832
1640000000.0 0.11823148576879132 -0.0525764224840074
1660000000.0 -0.0697583383193285 0.11433595446423406
1680000000.0 0.1349555986992426 0.052903167075289824
1700000000.0 0.13696709914145266 -0.055809156153300635
1720000000.0 -0.1466958472865212 -0.0071129483816766105
1740000000.0 0.07561389936141164 0.1305177532687769
1760000000.0 0.1250863706832499 -0.1049831206883624
1780000000.0 -0.051914367621752874 0.17252469098165477
1800000000.0 -0.01466451831761441 -0.19330907616572443
1820000000.0 -0.1966964442406186 -0.06788015463839767
1840000000.0 -0.1962235404930902 0.10766787368973339
1860000000.0 0.16167313936576624 -0.1808446154633463
1880000000.0 0.04811291593943739 0.24639768556749173
1900000000.0 -0.19356733660023137 -0.17566259093466388
1920000000.0 -0.12150799304222658 -0.23243736460660205
1940000000.0 0.1897755945722979 -0.17708322084821312
1960000000.0 -0.019077514134232684 0.2556639090008303
1980000000.0 0.23046729708395505 0.12375575621489747
2000000000.0 -0.24907674057237328 -0.05721522645015331
2020000000.0 0.06149760735340302 0.23601414871436702
2040000000.0 -0.013207118888054972 -0.23398272866477957
2060000000.0 0.21730628411807315 0.05441334298929552
2080000000.0 -0.12591629622225756 0.17625150076046114
2100000000.0 0.1963433780865548 -0.04229229554868683
2120000000.0 -0.08407909232823149 -0.16255374745661333
2140000000.0 0.09850654567799123 -0.1384976734638329
2160000000.0 -0.1194902486683051 0.10763708143844529
2180000000.0 0.1264100474604931 0.09436833711798402
2200000000.0 -0.1446321948769778 -0.0581993259295735
2220000000.0 0.11087655484926867 0.10305072198584234
2240000000.0 -0.10366440428819364 0.1082425609576493
2260000000.0 -0.14488891435764412 0.04089191805250536
2280000000.0 0.005062719853258425 0.14784170264793858
2300000000.0 0.1323535092939914 0.059637649773256224
2320000000.0 0.0019725746411126256 0.14096894764919565
2340000000.0 -0.09481933709545268 0.10556235635616444
2360000000.0 0.1293875109034719 0.06044554368911619
2380000000.0 -0.13637975719860398 -0.03432256914289327
2400000000.0 0.09114320036052902 -0.10251799245980563
2420000000.0 -0.09071551339135589 -0.09193141404242937
2440000000.0 -0.04393534931455805 -0.1103499428285264
2460000000.0 0.01070182185546098 0.11130873869255023
2480000000.0 0.043927435869182026 -0.09541486759006745
2500000000.0 0.08374832730489434 -0.061557497335227924
2520000000.0 -0.08166747350015945 0.06634596504755613
2540000000.0 -0.10948955274437057 -0.008489185242331916
2560000000.0 -0.0630382036314131 0.0963662417242223
2580000000.0 -0.0981935476386265 0.06905127715014397
2600000000.0 0.0019210684276395693 -0.1293432544811831
2620000000.0 -0.10848599096499834 0.08107387601695497
2640000000.0 0.1405613075535011 -0.01785831114031816
2660000000.0 -0.13588102568674476 -0.0481954065665462
2680000000.0 0.10444279909270501 0.09717907393058471
2700000000.0 0.07165826283750239 0.11816828211413855
2720000000.0 -0.06995740810128169 0.10848541106667099
2740000000.0 0.06968734002557589 0.09957097686624951
2760000000.0 -0.0371512741564469 -0.11229786899852522
2780000000.0 0.11206113046040096 0.039174217403521984
2800000000.0 -0.08890215563991706 0.0871734407134309
2820000000.0 0.08973784808678982 0.09594699641414481
2840000000.0 0.040062127869597446 0.13699852213684152
2860000000.0 -0.1448403751539996 0.05418059814147123
2880000000.0 0.16336707897921515 0.003178818963190088
2900000000.0 0.13767133548068655 0.10160158812370705
2920000000.0 -0.07111977379721086 0.1597643350630442
2940000000.0 0.07573826576886207 -0.16051885618266037
2960000000.0 -0.1552336906069989 0.09491617179617033
2980000000.0 0.17169926165121713 -0.06254429364787627
3000000000.0 -0.1552938860482088 -0.09303533410833857
3020000000.0 0.01330863233234119 0.17949121327658665
3040000000.0 -0.04990457595104487 -0.1730778329029036
3060000000.0 0.17936748209191372 -0.004853477427109653
3080000000.0 0.12102179638444342 0.12764512700670858
3100000000.0 0.008649553385567488 0.17011237818157282
3120000000.0 -0.02865285104061218 0.16486113682692896
3140000000.0 0.16274295522763144 0.03662920121945534
3160000000.0 0.14505619801428532 -0.08447243607723949
3180000000.0 -0.08212856886046023 -0.15171230628470947
3200000000.0 0.028767761549951157 -0.17779239061725635
3220000000.0 -0.13884180329748813 -0.1268257794186297
3240000000.0 -0.19279285527749485 -0.0535336682033668
3260000000.0 -0.19100945731764224 -0.08953926835572186
3280000000.0 -0.09554051265746767 -0.19804718178799238
3300000000.0 0.20766721228180293 -0.09860358239033681
3320000000.0 0.10493813485465438 0.21262419652339773
3340000000.0 -0.2253849196984643 -0.09328393475978136
3360000000.0 0.23953693676722748 -0.06891144974867973
3380000000.0 -0.20821357112545527 0.1393250642781564
3400000000.0 0.2465069437446643 -0.0368471974750941
3420000000.0 -0.24833342244932713 0.0005915000999086846
3440000000.0 0.24421973938452832 0.03370114509684045
3460000000.0 -0.14445772156304593 -0.19805870035762912
3480000000.0 0.07172201465608434 0.23081798855126257
3500000000.0 -0.09185607885180148 -0.22103345547152442
3520000000.0 0.19951690305372255 0.12587230388860912
3540000000.0 -0.16757085788999687 0.15900475884808138
3560000000.0 -0.21800275024977514 -0.054513705384741526
3580000000.0 -0.045302508066246264 -0.21340278001990753
3600000000.0 -0.08797864135058454 -0.1967529107601737
3620000000.0 0.0754473126488193 -0.19787893382315128
3640000000.0 -0.11577690908389328 -0.17533072049048296
3660000000.0 -0.16278222020063385 0.1348016915383859
3680000000.0 0.12922435979061006 0.1721443090734153
3700000000.0 0.2210398263123085 -0.021321302327123863
3720000000.0 0.21662007246315707 -0.08184083331371352
3740000000.0 0.16252400546056028 0.1810040535007138
3760000000.0 0.025294875255500095 0.25381958907222
3780000000.0 -0.26095978033335965 -0.06773023654089472
3800000000.0 0.2636482653792347 -0.091834191764633
3820000000.0 -0.2697583568913431 0.09428805884661787
3840000000.0 0.2739422033297552 0.09893756637327389
3860000000.0 -0.16245107732139152 -0.24453092577118574
3880000000.0 -0.09714099093359549 0.276389844579833
3900000000.0 0.28349542502932085 -0.05997187202839825
3920000000.0 -0.25073855747963436 -0.12368150534784697
3940000000.0 0.16103141975628543 0.21120513668364851
3960000000.0 -0.24578724005446137 -0.0031477131403595477
3980000000.0 -0.1397355749369961 -0.16846660429453217
4000000000.0 -0.16640371644531232 -0.09048431920452246
