!Created with skrf (http://scikit-rf.org).
# Hz S RI R 50.0 
!freq ReS11 ImS11
400000000.0 -0.14141766555206056 -0.7578138837731658
420000000.0 0.7022330550028953 0.1267843290090024
440000000.0 -0.10733133446889417 0.5730319193959602
460000000.0 -0.07476633230030796 -0.39288785331332055
480000000.0 -0.24136846322282177 -0.0697429446805094
500000000.0 -0.18042829704078034 -0.0333138303640844
520000000.0 0.11595728201217642 -0.14899488527549182
540000000.0 0.012450398714469844 0.2769493962279113
560000000.0 0.2714362556645701 0.24526669937857562
580000000.0 0.3021192111646215 0.319892750243434
600000000.0 -0.15294720524618788 0.4348949443034451
620000000.0 -0.48698664453560125 -0.03684992994055408
640000000.0 -0.43110186223773417 -0.2005845052469843
660000000.0 -0.43290233670329537 0.25678394951234645
680000000.0 0.000741505218467339 0.5191669477890933
700000000.0 -0.09763308845103699 -0.4936457265791257
720000000.0 -0.4352118775419933 -0.012749476147187045
740000000.0 -0.2810609582052309 0.2542993685691551
760000000.0 -0.32039188707851224 0.15042319823859585
780000000.0 -0.33676626953604416 -0.050365258559921966
800000000.0 -0.25513134476810173 0.16152348790121726
820000000.0 -0.046747724163346153 -0.2342868794851222
840000000.0 -0.1807651303761552 -0.04082349829138196
860000000.0 -0.12768327001600469 0.015022186180768365
880000000.0 -0.03283026850192857 0.07501970399974234
900000000.0 0.0712877761351053 -0.07460778650154481
920000000.0 0.09607115262116785 0.11519537052861432
940000000.0 -0.19392405783227062 -0.05536898073951564
960000000.0 -0.03730482855300916 0.23674913640131465
980000000.0 0.16443139693755024 -0.17643706421985614
1000000000.0 0.12908061670285592 0.22348545560750205
1020000000.0 -0.2225256582344782 -0.1676657302060111
1040000000.0 0.09357379435741203 -0.2507300160427794
1060000000.0 0.010396147935292852 -0.2830211956032341
1080000000.0 -0.2269077540999537 0.18545954016655455
1100000000.0 0.24410854930963463 0.18584198770015992
1120000000.0 0.08425170511644521 0.29492436271422406
1140000000.0 0.2754503148073449 -0.1407039552050523
1160000000.0 0.14471493660666454 0.2691148945425375
1180000000.0 0.1636376527680037 0.2436336699994208
1200000000.0 -0.3013497789003908 -0.013066901922191083
1220000000.0 0.19336052738492582 0.2171042413333812
1240000000.0 -0.08340146291008652 -0.2681553125641575
1260000000.0 -0.2200823981877115 0.13142509388298018
1280000000.0 0.20899838999660456 0.16457299802672565
1300000000.0 0.04818722949167144 0.24506012602831678
1320000000.0 -0.15929625279699428 0.22768187521403588
1340000000.0 -0.2702437092421796 0.10956803654092113
1360000000.0 0.2175176704707504 0.20514204429953017
1380000000.0 0.30631969874152204 -0.1084262471595162
1400000000.0 0.3359190838636619 -0.06134119213123609
1420000000.0 0.31577041039269155 0.14346606373667825
1440000000.0 -0.20101556957411018 -0.2952264024055353
1460000000.0 0.30981811159576833 -0.16587813913077976
1480000000.0 0.30725600575574924 -0.1432528242455459
1500000000.0 -0.010688618312477867 0.33990553773387583
1520000000.0 0.25192188814992256 -0.2059508820830189
1540000000.0 -0.23593835513356934 0.2023024413147937
1560000000.0 0.28072531963122366 0.08786416977112552
1580000000.0 0.018798105793889092 0.2676752726160536
1600000000.0 -0.05398272293910765 -0.2456583514249162
1620000000.0 0.1561709531709163 0.18115713584806392
1640000000.0 0.05257262068161174 0.21501923183409674
1660000000.0 0.11293126973864291 -0.17187433447837314
1680000000.0 -0.03583798697680268 -0.18030665233611373
1700000000.0 0.10544942674916437 0.1393810642864123
1720000000.0 0.06026440079970423 0.12367086443276823
1740000000.0 0.047740777481134575 0.10464954080262182
1760000000.0 -0.04971109702531518 -0.07651448936862958
1780000000.0 0.03138794056613383 -0.06993632816831119
1800000000.0 0.01885521457519423 0.0622615139670117
1820000000.0 -0.0832594924044804 -0.010686486956954361
1840000000.0 0.0977899613443466 -0.05221720803137308
1860000000.0 0.12445629717229055 0.08599902066981854
1880000000.0 0.0899087970775055 -0.15419225006202827
1900000000.0 -0.18553579964357503 -0.09889784668606036
1920000000.0 -0.05011171209609288 -0.22642165664710592
1940000000.0 -0.11566040976273363 0.22095434918523568
1960000000.0 0.06856658061135693 0.2521684968543276
1980000000.0 0.24556007487518552 -0.12139497543799474
2000000000.0 -0.08210218267854152 0.2597780385415729
2020000000.0 -0.05768019190828494 -0.2612120392179686
2040000000.0 0.14817846004926527 0.21893439128203315
2060000000.0 -0.14097098920660883 -0.22005752975467877
2080000000.0 0.2418091070231483 0.0637978261703327
2100000000.0 -0.14734119882775862 -0.20379218103364485
2120000000.0 0.10744379928690499 0.21540048138918047
2140000000.0 0.13737969893943527 0.18146735605246764
2160000000.0 0.2117327230269105 -0.06544660422060505
2180000000.0 0.004200398178854508 -0.21248941393660237
2200000000.0 0.028160842073031853 -0.19108372814332766
2220000000.0 -0.046002741426607714 0.17511294139092748
2240000000.0 0.14825140572747114 0.09637216916867308
2260000000.0 -0.13023747858550894 -0.11069027422826956
2280000000.0 -0.1641819194600396 -0.03062308124074871
2300000000.0 -0.010066440238254957 0.16167793286579135
2320000000.0 -0.13012513634286355 -0.08926290189620979
2340000000.0 0.019403223136547704 0.14538282950020193
2360000000.0 0.05525854222844664 -0.1239268231166852
2380000000.0 0.09891208271992333 0.0749807967567682
2400000000.0 0.04921643856935067 -0.10198642567169927
2420000000.0 -0.09333178894296329 0.021572192800365073
2440000000.0 -0.07375773455243685 -0.05239361218535181
2460000000.0 0.07176516860169313 -0.05343398368745992
2480000000.0 -0.013066044415457393 -0.08449320600513616
2500000000.0 -0.0528617254976474 -0.06053100137278583
2520000000.0 -0.07303912101146721 0.04038175259639688
2540000000.0 0.08617556487665677 -0.0031877852916709576
2560000000.0 -0.07565318677835049 0.06738745534985426
2580000000.0 0.05004675077724735 0.10255072256327263
2600000000.0 -0.1212975541197789 -0.0328090907211743
2620000000.0 -0.13220248403730298 -0.031962799168665165
2640000000.0 -0.13239539773624995 -0.08488135593546245
2660000000.0 -0.09653512933046235 0.13460148376613984
2680000000.0 0.14286952844509854 -0.07817199746531135
2700000000.0 0.1379526986364119 -0.08161308433064238
2720000000.0 0.15320596718307722 0.03514446887339941
2740000000.0 0.135926844779057 -0.07188893607688
2760000000.0 -0.057706160947637274 0.13802185070769285
2780000000.0 -0.14477803949572068 0.031001589841355343
2800000000.0 0.10302523835381233 -0.10353865614185181
2820000000.0 0.09277160298979643 -0.13121245406802778
2840000000.0 -0.14444525432550898 -0.09727632241646322
2860000000.0 -0.1570308861678036 -0.11321347966224672
2880000000.0 -0.194977613526171 -0.06425994976204938
2900000000.0 0.011858413433296407 0.2130979154242953
2920000000.0 0.1891260852513633 0.11825817086600195
2940000000.0 0.21629669633007254 0.08251254820203106
2960000000.0 0.1255918825870902 -0.19629080550114797
2980000000.0 0.2283000793277528 -0.0026184195232238547
3000000000.0 -0.09671749227928442 0.19637800413753892
3020000000.0 -0.20945658940813605 -0.037759766929840274
3040000000.0 -0.018801896542479764 -0.19521309412899981
3060000000.0 0.1800019404705999 0.027789386632403358
3080000000.0 -0.1396292322026273 0.08691770932232332
3100000000.0 -0.06813016430567337 -0.13200840489099705
3120000000.0 0.13469504964589019 0.032311286314961454
3140000000.0 -0.12178595539936059 0.03520301270377329
3160000000.0 0.11064758561277634 0.04360488995500263
3180000000.0 0.014833317436299526 -0.12551333579467258
3200000000.0 0.012530260419283337 0.1335681707839131
3220000000.0 -0.12313377028885024 -0.07671386772049021
3240000000.0 0.01392244465978494 -0.15879429066491108
3260000000.0 -0.12350164681651801 0.12362722521577402
3280000000.0 -0.09188593557641989 0.17575961434115778
3300000000.0 -0.13140341409297412 -0.17452285221269212
3320000000.0 0.20148657944923354 -0.130853532384139
3340000000.0 0.24823117677552722 -0.06932248897304889
3360000000.0 -0.25755285915458054 0.08371997325406308
3380000000.0 0.06880555601374083 -0.27932785868983206
3400000000.0 0.26750784007306555 -0.12232156291763177
3420000000.0 0.09500525664052237 0.2829498546780461
3440000000.0 -0.26098059168104465 0.14401137862669258
3460000000.0 -0.08678298083670492 -0.28526467304729247
3480000000.0 0.26368076974950816 -0.1274936771908314
3500000000.0 0.24359222306467285 -0.1430512590016496
3520000000.0 0.2644107810482287 0.012953377083379297
3540000000.0 0.23061847215057077 0.08454093611872246
3560000000.0 0.15699263615899076 0.1578156065316842
3580000000.0 -0.13626453922174672 0.15543325282245474
3600000000.0 -0.15076816755879804 0.11587704036232364
3620000000.0 0.02815121931908047 -0.17353411747789813
3640000000.0 0.10208016731184211 -0.13803965404616025
3660000000.0 0.024161515666384116 0.1631089717243766
3680000000.0 -0.16909594917635262 0.0031408763506911293
3700000000.0 0.10829226093750213 -0.1405564210378104
3720000000.0 -0.06403358772349545 0.18455333288611359
3740000000.0 0.07970760289753563 -0.20268208648955824
3760000000.0 0.2312061401921021 -0.06545460658429358
3780000000.0 -0.2530496476726159 0.07879034042477448
3800000000.0 -0.04442274441870228 -0.2890665035821096
3820000000.0 0.1469838076951823 0.2706513496894328
3840000000.0 -0.0646807238768347 -0.3190273449109966
3860000000.0 0.3171725793692527 0.1164017322993056
3880000000.0 -0.3392043255342843 -0.011138769023496921
3900000000.0 0.341390722041814 -0.043325040030462315
3920000000.0 0.06403219569719981 0.3320862922159984
3940000000.0 -0.21090465666799704 0.24083954252722672
3960000000.0 -0.26911891610091154 0.1220847580122275
3980000000.0 -0.024993850924030944 0.26671641065637663
4000000000.0 0.1503330207563235 -0.17558289410457445
