!Created with skrf (http://scikit-rf.org).
# Hz S RI R 50.0 
!freq ReS11 ImS11
400000000.0 -0.5559740053309656 -0.4666611850166688
420000000.0 0.5548213589151991 -0.1399619293308183
440000000.0 0.08037473832909643 -0.40338858292471
460000000.0 0.1283238063483642 -0.23224530258747958
480000000.0 -0.07189007886472336 -0.15510324101511674
500000000.0 0.13224693927781048 -0.1243931710450967
520000000.0 -0.017225335596127787 0.25213416462379123
540000000.0 0.16328060603044076 -0.2550428635217781
560000000.0 0.28579601117379005 -0.24563662325326818
580000000.0 0.08387638570055919 0.37256578030880116
600000000.0 0.2840954155735016 0.29578631643631415
620000000.0 -0.14977654970110718 0.3832553189741295
640000000.0 -0.29270965990304487 0.20017178468829933
660000000.0 0.21672978827793413 0.06332250373246119
680000000.0 -0.106587193947047 0.12675145842221314
700000000.0 0.17311539442259863 -0.0677132982624604
720000000.0 -0.14861924141396515 -0.05417493549858874
740000000.0 -0.029363970856265794 0.11416181957094955
760000000.0 -0.01351022648714859 -0.053357144025072835
780000000.0 -0.0023685185133617333 -0.025181685840054095
800000000.0 -0.011072182732062718 -0.08678429099619478
820000000.0 0.14959887786049839 0.002236405264300756
840000000.0 0.012579262512030833 -0.1913938829326113
860000000.0 0.1354645924012232 -0.1779252989593943
880000000.0 0.17265222506758082 0.19298926632075314
900000000.0 0.3077855031765493 -0.006712121952925217
920000000.0 -0.26998457674808873 0.2193743136960938
940000000.0 -0.3418364484837717 -0.16631103281472306
960000000.0 -8.806326847279364e-05 -0.3831254073881569
980000000.0 0.36766738602947496 -0.06278154674787724
1000000000.0 -0.18525958139943785 -0.30613279728230325
1020000000.0 -0.3085708525725499 0.18013263188958475
1040000000.0 0.06420067017537846 0.3510629474095119
1060000000.0 -0.28976033396714235 0.22999954109352738
1080000000.0 -0.1500968910132589 0.3432829492963665
1100000000.0 -0.334578939745432 -0.15040638899358288
1120000000.0 -0.039330030584055854 -0.33293417579424534
1140000000.0 0.17236480045858524 0.2750867745654691
1160000000.0 -0.31773757452929924 -0.03501885489966888
1180000000.0 -0.07545622536975174 -0.29866491107929044
1200000000.0 -0.13320902084922873 -0.25075728790732404
1220000000.0 0.2547512522028057 0.012786776489573912
1240000000.0 0.16145108493657914 0.1420755903822648
1260000000.0 0.1548440567886789 -0.09224205316331209
1280000000.0 0.016853380595007406 -0.14418202416985568
1300000000.0 0.04025019930947291 0.10741772867548532
1320000000.0 -0.02636579685841212 0.08405336314322903
1340000000.0 -0.021650987234979234 -0.06627737703810344
1360000000.0 -0.044083861885353924 0.025518763580596737
1380000000.0 -0.026070305766190835 0.033211724497610735
1400000000.0 0.034022238825218605 0.0232562121263333
1420000000.0 0.03742980649858738 0.0277421234086008
1440000000.0 0.015306144667310832 0.05105333633209647
1460000000.0 -0.027232325445666793 0.05261408945207035
1480000000.0 -0.06339515602410142 0.02562249460955597
1500000000.0 0.01532473719826173 0.05638003286720709
1520000000.0 0.050306850334068044 -0.02231147742853474
1540000000.0 -0.007629580631177634 -0.05654413186031202
1560000000.0 0.040805622312655554 0.04274408397373458
1580000000.0 0.06527059158997324 0.013147753388707795
1600000000.0 -0.06704441544272066 0.007779671699109636
1620000000.0 0.03411341758098583 -0.06648213608164433
1640000000.0 0.05482173936864541 -0.06512566668238162
1660000000.0 -0.044324107676102335 0.09179095234691102
1680000000.0 0.08730649502429758 0.07509702332706072
1700000000.0 -0.11581637480135713 -0.06741103835515348
1720000000.0 -0.040371042612484614 -0.1487375875890066
1740000000.0 0.08723780752066275 -0.15423351157759912
1760000000.0 0.16604267493307664 -0.11017860782333201
1780000000.0 0.17187876188334802 0.1490291421849787
1800000000.0 -0.2311387638691001 -0.11876315794208529
1820000000.0 0.2702939282605136 -0.10483519452353296
1840000000.0 -0.10816672113053805 0.3011258144519776
1860000000.0 0.209613527869735 -0.2738152079214195
1880000000.0 -0.34942413712094667 0.09576075821767391
1900000000.0 0.18974573333694483 0.32557246435873166
1920000000.0 0.12386499317948901 -0.3650245820719759
1940000000.0 -0.3324630813671832 -0.1943642369685536
1960000000.0 -0.264677979732685 0.2748037188672842
1980000000.0 0.01415569617023158 0.37137837289787134
2000000000.0 0.24692435356822673 0.265943317358714
2020000000.0 0.35318538547765477 -0.01345477109919285
2040000000.0 0.26933735892263433 -0.20989567564321573
2060000000.0 0.003531109296772979 -0.33067646867020517
2080000000.0 -0.18085563613764333 -0.26523629026969575
2100000000.0 -0.2560381061046387 -0.17755325531618865
2120000000.0 -0.18880365387296275 -0.24093111512255172
2140000000.0 -0.06509547661664034 -0.29375975330760723
2160000000.0 0.0477467905371411 0.29614486879746765
2180000000.0 -0.2998767032983843 0.04267428271357082
2200000000.0 -0.11608581484140619 -0.28396725140058854
2220000000.0 0.25316865959703677 -0.18323703317977164
2240000000.0 0.1615460715875622 0.27799147934072743
2260000000.0 -0.3107693070295313 0.11742199496649995
2280000000.0 -0.1864934810376857 -0.28525600656086103
2300000000.0 0.1601973123299355 -0.3073219415957113
2320000000.0 0.3479030784732238 0.047156584248479336
2340000000.0 0.09472496225854972 0.342330653955714
2360000000.0 -0.13625913263684747 0.3296500032219993
2380000000.0 -0.21663719191131298 0.2836793896341766
2400000000.0 -0.11556026670280627 0.3333465160452619
2420000000.0 0.0811022742227272 0.3371079605087291
2440000000.0 0.3200735014814373 0.11525378498202839
2460000000.0 0.06933809150554844 -0.32608463270258614
2480000000.0 -0.2794102176563243 0.16677902280721407
2500000000.0 0.3114376712096817 0.06750525897846038
2520000000.0 -0.2776997018966411 -0.145865411619407
2540000000.0 -0.25673260736470854 0.17648415454557448
2560000000.0 0.28781491878730814 -0.11801275904105617
2580000000.0 -0.3092339542331771 0.04479434647418044
2600000000.0 0.28672447764656933 0.12817546193325052
2620000000.0 -0.0012963442270284902 -0.3166246604574445
2640000000.0 -0.3077167036080057 0.08487520438070356
2660000000.0 0.03297437771668597 0.3187607071578032
2680000000.0 0.3178399104790026 0.031118816502137953
2700000000.0 0.08601790416571956 -0.30395766537182184
2720000000.0 -0.28595191295658345 -0.11796248370102283
2740000000.0 -0.08666808639051218 0.2882879095308769
2760000000.0 0.28750534079942475 -0.05653530034473874
2780000000.0 -0.2815314673893089 0.03113431366288104
2800000000.0 0.24809199219752925 -0.11908822505335355
2820000000.0 -0.11005756217241433 0.2469742339842913
2840000000.0 -0.23330099662826706 -0.1358640020661098
2860000000.0 0.22851272741672374 -0.14643557941290652
2880000000.0 -0.2799590580785495 -0.0027321558729453232
2900000000.0 0.14481387823211142 -0.2523028318078823
2920000000.0 -0.15969548886849924 0.2588408895470105
2940000000.0 0.31552211810303415 -0.04799185753850328
2960000000.0 0.05783388750939195 -0.33085144898260876
2980000000.0 -0.1852658175745728 -0.29803278948870804
3000000000.0 -0.26317447565786906 -0.25310597537996515
3020000000.0 -0.2796131431999168 -0.25128333348301796
3040000000.0 -0.2787369965755417 -0.26530936222447027
3060000000.0 -0.24186796774216837 -0.308616439299946
3080000000.0 -0.32680023964015176 -0.22877411090511166
3100000000.0 -0.4017959214126628 0.008121877663127766
3120000000.0 -0.2012920168539189 0.35054736962595573
3140000000.0 0.3766895349836706 0.14912473852106137
3160000000.0 -0.03181192886464407 -0.40513615041499335
3180000000.0 -0.16260375812574004 0.3749173598737079
3200000000.0 0.3787601031555403 -0.1608294012475022
3220000000.0 -0.39323657098894943 -0.14357092189900392
3240000000.0 -0.4029109012869736 0.14415519678284672
3260000000.0 0.25258253189117696 0.35842554540989674
3280000000.0 0.3800552513633562 -0.239501433536252
3300000000.0 -0.09052116719693708 -0.4504359943612556
3320000000.0 -0.39566826505675023 -0.25250693598721025
3340000000.0 -0.42407645165796953 -0.22026055809138348
3360000000.0 -0.2706853821160637 -0.4032161551796054
3380000000.0 0.04862006164952748 -0.4853554307463067
3400000000.0 0.476845463885697 -0.11682709200530579
3420000000.0 0.3588541835599054 0.33343664135611123
3440000000.0 0.05812561848080972 0.4817258904917723
3460000000.0 -0.4516342286896763 0.16300743126119835
3480000000.0 -0.36498765060491883 -0.3017768089842984
3500000000.0 -0.12435171058188826 -0.44909714397409933
3520000000.0 0.08614408899676079 -0.44775938508599167
3540000000.0 0.04131751165552843 -0.441122484685713
3560000000.0 -0.21137607506269337 -0.37544022278458494
3580000000.0 -0.40169419730662204 -0.11513792370459325
3600000000.0 -0.26015507057685966 -0.3149844823831694
3620000000.0 -0.3243873840367123 0.23270159190246148
3640000000.0 0.1726129470658027 0.3539257814028964
3660000000.0 0.37891093116865776 -0.09815267986153872
3680000000.0 0.09467912456814127 -0.38019124508637464
3700000000.0 -0.14045798792678935 -0.37020111581894605
3720000000.0 -0.10827009021716487 -0.38704258595321467
3740000000.0 0.2936519776896739 -0.2841708525616046
3760000000.0 0.41868914481286806 -0.0012006046491206774
3780000000.0 0.12098422579962065 0.40854146723225104
3800000000.0 -0.4271046874426959 -0.039856299137509446
3820000000.0 0.36056200932702803 -0.2294001057268543
3840000000.0 -0.06598817500398202 0.4159405765483803
3860000000.0 -0.10494857883101821 -0.39796858266070456
3880000000.0 0.34708435696775125 0.19527451920481675
3900000000.0 -0.34620149730650585 0.15859830232011268
3920000000.0 -0.17144919844128387 -0.3113050976756881
3940000000.0 0.1024063782124484 -0.31010494604630007
3960000000.0 0.024749555634275833 -0.2951984014093423
3980000000.0 -0.24861955970619912 0.09873529006676068
4000000000.0 0.23344401649384958 0.05597007637680079
