!Created with skrf (http://scikit-rf.org).
# Hz S RI R 50.0 
!freq ReS11 ImS11
400000000.0 0.556150993869553 0.23039250230518485
420000000.0 0.42046887062425803 -0.12201965934306862
440000000.0 -0.1322962256095425 0.13225168371505394
460000000.0 -0.02749201117325336 -0.0049472448785733624
480000000.0 -0.22553633237605833 0.07004950628351427
500000000.0 0.1578120278207607 -0.3027420256341358
520000000.0 0.348494538120654 -0.14989033698512993
540000000.0 -0.07417973071580987 0.49368252812774494
560000000.0 -0.5467118308241581 -0.07246826749790548
580000000.0 -0.3825077302962824 0.35306707218430433
600000000.0 0.3565802109626045 -0.31443175130352946
620000000.0 0.11310133123656607 -0.40318648156245007
640000000.0 -0.225506030188047 -0.26641818843170195
660000000.0 -0.13795039025835984 0.15015233658379162
680000000.0 0.05959787010130068 0.15197401355395335
700000000.0 -0.20603256085075466 -0.009458933488087372
720000000.0 0.1355835317090306 -0.23275080210835966
740000000.0 0.04049795282294719 0.25716714860495504
760000000.0 -0.05587717699240616 0.22712541956214147
780000000.0 0.20392076286037011 0.01934723676671912
800000000.0 -0.10876275506803168 0.17613217761061328
820000000.0 -0.20441580248812918 0.0491790663811955
840000000.0 -0.10313410324968265 -0.19795778653642748
860000000.0 0.011348515860282462 0.23170654942708457
880000000.0 -0.10234658794895923 -0.2339297240027252
900000000.0 0.03628003606649672 0.25806118751135915
920000000.0 0.07422617699679539 0.23811409113708037
940000000.0 0.02818151292136233 0.24210018572907402
960000000.0 0.07791577865492665 0.2257701608815179
980000000.0 0.20774094886924194 0.07025732425307656
1000000000.0 0.1975654229609554 0.02601396402341498
1020000000.0 0.04322144082605387 -0.18795192698322163
1040000000.0 0.06263052240347979 -0.1620733451509681
1060000000.0 -0.16671015504778897 0.06336963274885876
1080000000.0 -0.1386906664806691 0.06679281087192138
1100000000.0 0.028489379743456857 -0.14570063477770542
1120000000.0 -0.08559667555332491 0.13164012159328847
1140000000.0 0.024996470425484148 -0.1717586305291171
1160000000.0 -0.15826458026473925 -0.1079672037238433
1180000000.0 -0.18754874245069134 0.06023682296395424
1200000000.0 -0.16544321725580147 -0.06626809527475849
1220000000.0 -0.11396949530950241 -0.10772501562640413
1240000000.0 -0.047174536152541954 -0.12272045314179196
1260000000.0 0.09928085174764692 -0.0636887496541569
1280000000.0 -0.05802693769174018 0.09448806391888821
1300000000.0 -0.05250468163640537 -0.10701907769967041
1320000000.0 0.003572773257966689 0.1349370302621445
1340000000.0 -0.14104895858086683 0.0701236216702841
1360000000.0 -0.12426861785038787 0.11946061457362611
1380000000.0 0.19527284727456373 0.03877789793091251
1400000000.0 -0.20411727108602096 -0.1059413019009468
1420000000.0 0.23716906441589664 0.09072743111870392
1440000000.0 -0.2583506428397587 0.09201406056847693
1460000000.0 0.04709492186803101 -0.27886424913364904
1480000000.0 0.019469963023886844 0.27994989769253537
1500000000.0 -0.25585944134576777 -0.08025732593882806
1520000000.0 0.14894908493786913 0.19339381932659522
1540000000.0 0.16692603435460648 -0.14262374112609466
1560000000.0 -0.13450476273482084 -0.13623105614387235
1580000000.0 -0.12005302404154078 0.10958455642273077
1600000000.0 -0.004482744969812462 -0.1357414751090933
1620000000.0 0.09450899268191514 -0.08145157361246405
1640000000.0 -0.08228023457463282 0.0834398768644345
1660000000.0 -0.10702426509821725 0.040320378928813586
1680000000.0 0.11074441336056257 0.012003330679733385
1700000000.0 -0.10145015530013858 -0.040011156110912195
1720000000.0 0.018056194616279806 0.11918964445281509
1740000000.0 0.12540277083309334 -0.0832479283951399
1760000000.0 -0.13636937478982283 0.14178164264217116
1780000000.0 0.17665609594417964 0.15341036207054848
1800000000.0 -0.09195300611116275 -0.25380232054588747
1820000000.0 -0.28674981640853325 0.05405549825089104
1840000000.0 0.17591785175440303 0.25293659089510456
1860000000.0 0.2939545043121776 -0.10226177787090651
1880000000.0 0.25186698191089735 -0.17026877363733547
1900000000.0 0.2584748917936665 0.13713720498244275
1920000000.0 -0.18868870299770157 0.2127945832512583
1940000000.0 -0.2548988356121543 -0.10184966308732277
1960000000.0 0.10538751015361278 -0.24175336323807226
1980000000.0 0.23746459244300494 -0.10288071253410004
2000000000.0 0.08436144237924487 -0.24159244451311127
2020000000.0 -0.145829462411688 0.19913643494995373
2040000000.0 0.2305039364313983 0.01554836040766144
2060000000.0 -0.16697081866110938 -0.13740127726432486
2080000000.0 -0.12176602539112946 0.15892115564777384
2100000000.0 -0.1756161226161461 0.05200212773770057
2120000000.0 0.13647520343546604 0.107376743377516
2140000000.0 -0.10393964828676512 -0.126245367205454
2160000000.0 -0.11048134665137002 0.1153119809504026
2180000000.0 0.1603319141374807 -0.022369886478673166
2200000000.0 -0.1606252310419459 -0.02087820118682466
2220000000.0 0.15918804603190317 -0.011432744388152415
2240000000.0 0.15201894638227859 -0.04361492835216469
2260000000.0 0.14706687240019894 0.050310250534281065
2280000000.0 -0.030352661936940546 0.15915764690903988
2300000000.0 0.16052924836940594 -0.04950825727383826
2320000000.0 -0.12032046599611823 -0.12565910679105252
2340000000.0 0.15282712487093425 0.08950521219070887
2360000000.0 -0.1335114171949812 0.11515549514039854
2380000000.0 0.04720437511009768 -0.16750857332035093
2400000000.0 0.15162111324753208 0.08288111843202758
2420000000.0 -0.05303099017592424 -0.1599075238461886
2440000000.0 -0.10016446958718989 0.12431994829913884
2460000000.0 0.0796809394547157 -0.127290524506965
2480000000.0 0.09928682996403981 -0.09992606022070141
2500000000.0 0.0920655425688162 0.08876866914295546
2520000000.0 -0.04310227448425471 0.11799118124659685
2540000000.0 0.09082739411529245 0.0839522873640753
2560000000.0 0.11426522354285358 -0.04985148883128793
2580000000.0 0.11572237798115523 -0.05501771070379686
2600000000.0 0.021879511255645415 -0.13078263111277344
2620000000.0 0.10285143784829816 -0.08537966773532804
2640000000.0 0.12676885706057797 0.03758895604034639
2660000000.0 0.04557535293131641 0.11997674913456094
2680000000.0 -0.10443649350128775 -0.059151484405440456
2700000000.0 -0.09465175608612246 -0.055322278065702536
2720000000.0 -0.09744512184478307 -0.012966250871063921
2740000000.0 0.052917347866803625 0.07131406137474873
2760000000.0 -0.06971040457794439 -0.04406889826276489
2780000000.0 0.04066642773563574 -0.06673368019547828
2800000000.0 0.07607296311183806 -0.028554732471330075
2820000000.0 0.07628199992898616 -0.049162366043301216
2840000000.0 -0.052539778281688695 0.08561355054883255
2860000000.0 0.04534451406314389 0.10329229042497094
2880000000.0 0.005027592724471922 0.12585406188499057
2900000000.0 -0.13203249907097 -0.041030636069860384
2920000000.0 0.1122700438017735 0.09574902569109767
2940000000.0 0.012734341453678227 -0.15603899515831338
2960000000.0 -0.13665571627547562 -0.09384451968612038
2980000000.0 -0.13790775019839144 0.1108929360486674
3000000000.0 0.17060170374159658 -0.0726050677977365
3020000000.0 -0.1863153327351117 -0.04118044739163553
3040000000.0 0.17726515724329905 0.08462046501977265
3060000000.0 -0.17314391434413812 0.10186368014968714
3080000000.0 -0.19129711458861487 -0.07462736282558237
3100000000.0 -0.17002504769244287 -0.11689006646565023
3120000000.0 -0.14272853977547525 0.14981364463659153
3140000000.0 0.18515298899191804 0.0921097511079851
3160000000.0 -0.1156197085636066 -0.17252168924175518
3180000000.0 0.01313569425988935 0.20931530466307524
3200000000.0 0.13502845732217383 0.16733424493019294
3220000000.0 0.10507759979490292 -0.1931091710948416
3240000000.0 -0.1807691872374082 -0.1357938817355014
3260000000.0 -0.167958530284811 -0.1581346445182906
3280000000.0 0.07359261875195892 -0.22562682427633368
3300000000.0 0.18525588576610824 0.15825638237555006
3320000000.0 -0.24956073074049534 -0.010214122349909044
3340000000.0 0.2535894944773422 -0.02329692727680095
3360000000.0 -0.22039556527491574 -0.13261296337031062
3380000000.0 0.01353096498387382 0.25735303495279843
3400000000.0 0.2565123899739842 0.03126301431071326
3420000000.0 -0.042916541497538124 -0.256393658416243
3440000000.0 -0.12968329311411667 0.22455155688616155
3460000000.0 0.2573642951464405 0.019720549469540286
3480000000.0 -0.13977847462201382 -0.21396896262295367
3500000000.0 0.13773755024149253 0.21163021360628723
3520000000.0 -0.1184448243336879 -0.21831486952897403
3540000000.0 0.24228339673936017 -0.021054933546673503
3560000000.0 0.05076655095362306 0.2308596334109868
3580000000.0 -0.09538398596469892 0.20855790494623969
3600000000.0 -0.11110489562269404 0.19559940645963425
3620000000.0 -0.2191862213958611 0.025623942509551027
3640000000.0 -0.019813528763862824 0.21736311071276865
3660000000.0 0.22029346518221113 -0.00795113911576267
3680000000.0 -0.003513738853293669 -0.2245993887084726
3700000000.0 -0.20216715150073986 -0.1181681174373983
3720000000.0 -0.243889117184569 -0.0355066987998496
3740000000.0 -0.15613739909797944 -0.2059499188758244
3760000000.0 -0.026323307856545866 -0.27086072044799614
3780000000.0 0.2811911271114601 -0.042624661373958886
3800000000.0 -0.2500670794472035 0.15785954758683562
3820000000.0 0.2837739270792711 -0.10831666393836807
3840000000.0 -0.26671608918427986 -0.15444576741498123
3860000000.0 0.11438785802871827 0.28607430092373654
3880000000.0 0.18429968624844828 -0.24405244042123603
3900000000.0 -0.2759116951381719 -0.11728708047109579
3920000000.0 0.013366044569373469 0.2862718428752636
3940000000.0 0.13166856534313212 -0.23455718960394875
3960000000.0 -0.17898630619211825 0.1703931450404164
3980000000.0 -0.03186528944747302 -0.21923030352844564
4000000000.0 0.11545346305972636 -0.15386967441442642
