!Created with skrf (http://scikit-rf.org).
# Hz S RI R 50.0 
!freq ReS11 ImS11
400000000.0 -0.11436872619035378 0.850335576900102
420000000.0 -0.5516606900541499 -0.6066161591120275
440000000.0 -0.5462911490363337 0.4358065281226572
460000000.0 0.4409691970456712 0.3316118904678978
480000000.0 0.36697277501598774 0.2398512516858088
500000000.0 -0.2132255212200211 -0.21331032172236386
520000000.0 -0.26111510658035225 -0.10466209580239236
540000000.0 -0.18547418819414518 -0.32644995217587625
560000000.0 0.44697507386425084 0.060593486868743045
580000000.0 0.4297991550930489 0.21138306404126353
600000000.0 -0.5368313639189981 -0.040041989402096474
620000000.0 0.33860738916124744 0.44395763842442704
640000000.0 0.533524336936385 -0.16082911265978608
660000000.0 -0.15549155522288147 -0.5380490520769995
680000000.0 -0.1572266011953998 0.4753757782399508
700000000.0 -0.06177219332122673 -0.4173657226276267
720000000.0 0.3619099613214218 0.035609665967169656
740000000.0 0.24907727869418725 0.19107882717433822
760000000.0 0.07980912253073971 -0.25243173488938137
780000000.0 -0.025832220535359163 0.18580882362849155
800000000.0 0.010022186746948492 0.15303275150915732
820000000.0 -2.9143762314486216e-05 -0.11600293004111009
840000000.0 0.12911418526643786 -0.04635928835832688
860000000.0 0.10858753067362295 -0.09981860410619176
880000000.0 -0.03414065325101647 0.11280036596068795
900000000.0 0.010433954564754929 0.0808331656351696
920000000.0 -0.05401810905583678 0.06218312992930532
940000000.0 -0.04049576356267312 0.17583448704176527
960000000.0 0.2471612829450768 0.0619639547639794
980000000.0 -0.050104570087455065 0.24478219481956662
1000000000.0 0.16344030948176422 -0.2244293283632952
1020000000.0 -0.2500099144260561 -0.16817641929477664
1040000000.0 -0.09556498400019366 -0.3184565205757671
1060000000.0 0.2517439720914672 -0.2529588772000575
1080000000.0 -0.18903124917614098 0.2924159648216217
1100000000.0 0.06000599295457875 0.3543006223436247
1120000000.0 -0.07270131039170055 -0.34967750020401317
1140000000.0 -0.3310628826653876 -0.08180956176568639
1160000000.0 -0.03388729184330726 0.31567996604569387
1180000000.0 -0.29175498674256667 -0.09140850118736016
1200000000.0 -0.250466817080896 0.186782847530561
1220000000.0 -0.006416079395990542 -0.28395233419803995
1240000000.0 -0.2680450969999593 -0.04642881687425703
1260000000.0 0.2405860781691035 -0.03004956852855768
1280000000.0 0.13958992034549175 -0.18636209264904866
1300000000.0 -0.13557982898688234 0.18166221340009184
1320000000.0 -0.137286191495638 0.1777414508739257
1340000000.0 0.15379943890221826 0.17121974019839928
1360000000.0 -0.04477880504917899 -0.21567591378741566
1380000000.0 -0.0644290433311297 -0.25969135296847284
1400000000.0 -0.27438771643576276 0.13243719495889056
1420000000.0 -0.2791197843570141 0.1464016630866781
1440000000.0 -0.291938642939564 -0.08886642799728918
1460000000.0 -0.12882007672555681 0.30275178665680363
1480000000.0 0.15857325636997804 0.2828465105144108
1500000000.0 0.2245616431906932 -0.2578946507371266
1520000000.0 -0.32064803488030286 -0.1271698788726199
1540000000.0 -0.055512763746342744 -0.3398298437066222
1560000000.0 0.3312130344762206 0.05963328372466022
1580000000.0 -0.1376830719646335 -0.2825231508752529
1600000000.0 -0.23689354120218045 -0.15269939833191717
1620000000.0 -0.2487026213849278 0.013145898430054797
1640000000.0 0.18008217615687488 -0.18589952008216354
1660000000.0 -0.21737178743498234 0.08113068228046777
1680000000.0 0.06516171724008689 -0.16880513940114444
1700000000.0 0.023228848740998963 -0.16250472445274183
1720000000.0 -0.06422807796398002 -0.1297456935081784
1740000000.0 -0.09420409670646705 0.05428211068604489
1760000000.0 0.06755415403243768 0.051385798237633055
1780000000.0 -0.07291447957862442 0.026098218885825895
1800000000.0 -0.011409822567988573 0.08910165408865586
1820000000.0 0.0750251929111994 -0.09449988753919299
1840000000.0 -0.06407621159008567 0.12335276470475923
1860000000.0 -0.15680688871754397 0.004625966032324087
1880000000.0 -0.14827736356118545 -0.12354373367695681
1900000000.0 -0.18207737651465936 0.11363808150076914
1920000000.0 -0.2102907293501412 -0.07312647088121137
1940000000.0 0.23571947244614588 -0.050014478646931065
1960000000.0 0.2513756864142025 0.034876417400115343
1980000000.0 0.16115588829012942 -0.20780610689599546
2000000000.0 -0.26515231095217556 0.06751774066751164
2020000000.0 0.2027972650764219 -0.1863281982864109
2040000000.0 0.12288525450630533 0.2322440558308325
2060000000.0 0.25396567816225957 -0.07072022747349418
2080000000.0 0.2075181939069873 0.15100717693324783
2100000000.0 0.05221874974075788 -0.2367140019816677
2120000000.0 0.06277937899979319 -0.22422773035571125
2140000000.0 0.030144208087868513 -0.2220784280667346
2160000000.0 0.13233325879438498 0.17669206124540107
2180000000.0 -0.12485262688164052 0.14977120659870571
2200000000.0 0.030256293402054713 0.17575114275275652
2220000000.0 -0.15340964654389688 -0.0871071030002312
2240000000.0 0.15289904112037112 0.11346722023420411
2260000000.0 -0.017487073313191766 -0.18640889158223908
2280000000.0 0.1944077749968375 0.01004637611607142
2300000000.0 -0.10829055681268215 0.1428255579325251
2320000000.0 0.03919062027958529 0.1790358039651066
2340000000.0 -0.11130536888577489 -0.13200446514346487
2360000000.0 0.04401151256336408 -0.151516306174418
2380000000.0 -0.052257344998901875 0.14402539003783793
2400000000.0 -0.1362923430494158 -0.07897456283901222
2420000000.0 0.10449708565863851 -0.11013162703989683
2440000000.0 0.08941677428218998 0.09653100737990405
2460000000.0 -0.08840305597263438 0.08135775850121572
2480000000.0 -0.015042711257005478 0.09534635115039841
2500000000.0 0.024678657093567043 0.09541753731851904
2520000000.0 -0.0937985957330738 -0.06461118461259827
2540000000.0 -0.0878784424290521 -0.057921731706336355
2560000000.0 0.11335180763703319 -0.025024365082069268
2580000000.0 -0.07176652690139113 0.09918687513359267
2600000000.0 -0.08659980939292977 -0.08444261163918312
2620000000.0 -0.0007260259505958691 0.12267785174807579
2640000000.0 -0.09024878808898189 -0.08569158798417327
2660000000.0 -0.1422654956714682 0.04014870465653982
2680000000.0 -0.13286005154115654 0.06909055335104869
2700000000.0 0.12846611970425087 0.08118945820272475
2720000000.0 -0.09717397034744905 -0.12698323741214343
2740000000.0 -0.02666660513578227 -0.15428601807268905
2760000000.0 -0.07706560085278928 0.11634445562208065
2780000000.0 -0.1379122444205166 0.025207204154263883
2800000000.0 0.14495686918635137 0.056985223201525596
2820000000.0 -0.14182008146297373 0.11937064652417852
2840000000.0 0.20366420106476232 -0.023357109531487834
2860000000.0 -0.1985805677576629 0.06122685051238099
2880000000.0 0.20791607001510354 0.04586230872054014
2900000000.0 -0.22037183869767937 0.054288201892230104
2920000000.0 -0.029344663668549976 0.23026324568323364
2940000000.0 -0.21347503067032797 -0.09463998616432603
2960000000.0 -0.16796710373872226 -0.18810972568384304
2980000000.0 -0.037499957005073414 -0.24891191568850454
3000000000.0 -0.17381177570069192 -0.1286728754459968
3020000000.0 -0.19427451844205154 0.004874668525097271
3040000000.0 -0.03553732676203165 0.17780947101665506
3060000000.0 0.08537532629103696 0.15349186623926162
3080000000.0 0.16871672248332534 0.03745393686800897
3100000000.0 0.12406210980401888 -0.08438488099345592
3120000000.0 -0.11453859278792433 -0.056454401074423566
3140000000.0 0.08282484241734615 -0.0884027970146223
3160000000.0 0.028571274760293544 -0.12498317651018165
3180000000.0 -0.030845462990334183 -0.13855133755984503
3200000000.0 0.13486711398088616 -0.0407942104444898
3220000000.0 0.006838141040500418 0.15797404287001926
3240000000.0 -0.1644629704945169 0.08078587248510716
3260000000.0 -0.04640873626579512 -0.18891374606101233
3280000000.0 0.1617731690657435 0.0986362875122126
3300000000.0 -0.042499488502018214 0.2014050886888164
3320000000.0 0.16358122974871794 -0.16380773730801107
3340000000.0 -0.16346837027117125 0.20851169618980464
3360000000.0 0.2881188278532188 -0.009530465658304437
3380000000.0 0.11669159250984061 0.2587233977432711
3400000000.0 0.08013309273842752 -0.2705748277041849
3420000000.0 -0.16087164632930087 0.24663602718062586
3440000000.0 -0.1354963466892835 -0.266428068825386
3460000000.0 0.2823119799142394 -0.11607173239772893
3480000000.0 0.197884276029813 -0.22516454225625698
3500000000.0 0.25824838524794397 -0.11946594081631941
3520000000.0 0.23825291948413876 -0.12104297815185829
3540000000.0 -0.016337901985399066 0.2385004227494922
3560000000.0 0.18813833377085215 -0.11353213371325285
3580000000.0 0.13652332292169125 0.16289218582337797
3600000000.0 0.15954799968413227 0.12602504873954068
3620000000.0 0.012156450492257219 0.1926390303951246
3640000000.0 0.03677401118809856 0.1675926045933453
3660000000.0 0.1072049720450826 0.1269531041604069
3680000000.0 -0.15731478237266633 -0.0885580615522395
3700000000.0 -0.04161721214065877 -0.19162914242092965
3720000000.0 0.0861842394862269 -0.20045222639150853
3740000000.0 0.1389540554780593 -0.19448803966191278
3760000000.0 0.23660897450731677 0.0941399744425235
3780000000.0 -0.09920377269176574 0.26002180736047675
3800000000.0 0.0685772555861817 -0.2866918382389324
3820000000.0 -0.08345603772786468 0.30401997000393244
3840000000.0 0.06692302464510995 -0.3242645500783623
3860000000.0 0.10736284979160277 0.32969062051285747
3880000000.0 -0.3014709621110449 0.17355397379926135
3900000000.0 0.154408583015103 -0.3037446165939761
3920000000.0 -0.2461886006159469 0.21736627755049234
3940000000.0 -0.28323715872175675 -0.14956071548120434
3960000000.0 -0.1897834002827442 -0.22392382466051577
3980000000.0 -0.2192551576326785 -0.14729990828481263
4000000000.0 -0.029701003665850594 0.2305943244711594
