!Created with skrf (http://scikit-rf.org).
# Hz S RI R 50.0 
!freq ReS11 ImS11
400000000.0 0.5301278882379427 0.28631946511389805
420000000.0 0.42920228830148166 -0.0839733350140683
440000000.0 -0.11103946794889875 0.15250530348978933
460000000.0 0.0256678330861854 0.019272260612949375
480000000.0 -0.17338969278279723 0.16269187932943333
500000000.0 -0.19330019127406473 -0.2807311066203431
520000000.0 0.3679325872051852 -0.09316152451535112
540000000.0 -0.10845831015424728 0.48431064952818725
560000000.0 -0.5231178151373852 -0.16612467875016554
580000000.0 -0.4689024862047583 0.21957837596421256
600000000.0 0.4599518411302005 -0.12190921378660974
620000000.0 0.32199080141824715 -0.274156546562921
640000000.0 -0.1923597724268525 -0.2970667922123447
660000000.0 -0.09059092444609446 0.18587031040963337
680000000.0 0.10806236759540118 0.12082339964247647
700000000.0 -0.20150165917045496 -0.033335881046121715
720000000.0 0.2406694204712163 -0.12051698238037645
740000000.0 0.08909600435598466 0.24515128598321217
760000000.0 -0.215728782583522 0.10211121457288971
780000000.0 0.2086941301654058 -0.007784950192287821
800000000.0 0.05772108827526122 0.2008427823147804
820000000.0 -0.12198127937309154 0.1678558694847513
840000000.0 -0.03407299253261894 -0.21601765172439868
860000000.0 -0.05232049664335061 0.2255831699387165
880000000.0 0.17766575677147767 -0.17896130329920867
900000000.0 -0.24251903703294517 0.10641598383960207
920000000.0 0.027063714722002398 0.25241691952605755
940000000.0 0.11010841332257178 0.2207233645945722
960000000.0 0.18441058162605303 0.15401269594160394
980000000.0 0.1981745929745061 -0.09135180464091223
1000000000.0 0.19693171661505787 -0.009155562845801588
1020000000.0 0.12019163752770923 -0.14964255880985
1040000000.0 0.1401460446590759 -0.10161772964926291
1060000000.0 -0.059535500026734724 -0.1704863002258892
1080000000.0 -0.11066514217781245 0.11281938875724021
1100000000.0 0.011053003542374016 -0.15435169088767248
1120000000.0 0.10809223093994241 0.11759216582560858
1140000000.0 -0.16953763626565804 -0.03250772284608431
1160000000.0 -0.18582294273822195 0.0292986104204989
1180000000.0 -0.14589221943774652 0.12208302927066475
1200000000.0 0.04335218938483922 -0.16835597020866486
1220000000.0 0.13251334419396932 -0.07678559750458112
1240000000.0 0.09921156821708015 0.08767791294915153
1260000000.0 0.015809503642950824 0.11887515901351074
1280000000.0 -0.11190332773502767 -0.0310517813067713
1300000000.0 -0.11705958895690091 -0.040125727486309146
1320000000.0 0.07922572523270578 0.11229755322860482
1340000000.0 -0.01729348069713851 0.15745998507502898
1360000000.0 0.054920714680962955 0.16416590401560174
1380000000.0 0.06671238832626213 -0.1828605173723721
1400000000.0 -0.19150909963661944 -0.11642105046919125
1420000000.0 -0.058746742484817635 0.24243163184672467
1440000000.0 -0.2511054745794793 -0.11300450165466823
1460000000.0 0.19170235583898862 -0.20938951225677258
1480000000.0 -0.09688858973997982 0.26736119023114624
1500000000.0 -0.26410182535978327 -0.06937834504127635
1520000000.0 0.23404039968813933 0.07915352903280269
1540000000.0 -0.1210604439772304 -0.18257122058750128
1560000000.0 -0.17748874570011683 -0.06099015933821345
1580000000.0 -0.15752588750858196 0.025351144159638357
1600000000.0 0.13362864025739693 -0.024672319981863793
1620000000.0 0.0756316699496862 0.10134867235358053
1640000000.0 -0.09883782007952925 -0.0714709176786623
1660000000.0 -0.014608420605136209 0.11970669120753535
1680000000.0 -0.11392564249808153 -0.005300694858342618
1700000000.0 -0.10554015698194942 0.0031376255767625416
1720000000.0 -0.07816799966906578 0.08679481358780483
1740000000.0 0.14082511737002912 0.052657620557640866
1760000000.0 -0.19065966151784472 -0.0488503464219266
1780000000.0 0.12979501602428156 0.19821109330040693
1800000000.0 -0.1065271595698844 -0.24895237031460435
1820000000.0 -0.126489947748412 0.26478177322646623
1840000000.0 0.2817193145752792 0.11862831254274703
1860000000.0 0.2779913156159383 -0.1310200953772616
1880000000.0 0.2994321847825752 -0.023088560585301496
1900000000.0 0.1381720990471537 0.2581541285366744
1920000000.0 -0.2718818645660688 0.08765503539857689
1940000000.0 -0.2189491047077573 -0.1694812813418116
1960000000.0 0.026662947206919314 -0.2661644114800048
1980000000.0 0.1409880129860792 -0.21894101103062155
2000000000.0 -0.015809432781852442 -0.25375488473004676
2020000000.0 -0.2047548707077605 0.13434017923874492
2040000000.0 0.1430416781320071 0.1812065294062222
2060000000.0 0.003581988714601757 -0.21913047222144305
2080000000.0 -0.1823711948953488 0.08925025176297882
2100000000.0 -0.17251397296853682 0.06690225204856592
2120000000.0 0.17541611397428888 0.0024199969436890633
2140000000.0 -0.1518773540703978 -0.0581451088930289
2160000000.0 -0.09855644496444667 0.12335061944755556
2180000000.0 0.11417175297515865 0.11245132571887247
2200000000.0 -0.0952468061781647 -0.13071180384500808
2220000000.0 0.15807837831021265 0.03398414662347291
2240000000.0 0.10010321327260328 -0.12488641990890174
2260000000.0 0.10572034316712745 -0.11432210046351798
2280000000.0 0.08012445283073205 0.1378868744460402
2300000000.0 0.15867994924697493 -0.047170333639476265
2320000000.0 -0.06827131704251731 -0.1590831238712321
2340000000.0 0.13799886021524418 0.10980864226713731
2360000000.0 -0.15584661022022625 0.0814916953156573
2380000000.0 0.07515477243920415 -0.15934711106045768
2400000000.0 0.17482787187267426 0.0032251158948326127
2420000000.0 -0.11950912886382455 -0.11920026488472661
2440000000.0 -0.06300428870618124 0.14525421550128986
2460000000.0 0.12291229522538898 -0.08275966815180708
2480000000.0 0.13769886123185643 0.02609928183785552
2500000000.0 -0.11948957939807893 0.04920528355565912
2520000000.0 -0.11557725780952884 0.053044116048568866
2540000000.0 0.027606603996446856 0.12165051811569273
2560000000.0 0.1226327173990145 -0.026066398909537904
2580000000.0 0.09000321288830937 -0.09213305837874743
2600000000.0 -0.025670350151104263 -0.12898676642501172
2620000000.0 0.07662746900485264 -0.10794122947064971
2640000000.0 0.11549520537218681 0.061949775096637474
2660000000.0 -0.045364377109657426 0.11932665407940381
2680000000.0 -0.057126595569289326 -0.10596234325319104
2700000000.0 -0.0863583284272247 -0.07045176516935793
2720000000.0 -0.10031746494651117 0.001521220537006459
2740000000.0 0.07510915635277611 0.04880573153300763
2760000000.0 -0.05777415777208456 -0.058348689623507054
2780000000.0 0.04878360586867203 -0.06094045789634172
2800000000.0 0.06593893341262348 -0.04623994295708662
2820000000.0 0.0901109595980089 0.0010267657887758391
2840000000.0 -0.06577576289686028 0.0766096795409492
2860000000.0 0.05707254281960846 0.09762305788475999
2880000000.0 0.030921353321551576 0.12339051568044357
2900000000.0 -0.130875570117259 0.047392888358528874
2920000000.0 0.1478375526721574 -0.0031772407019690523
2940000000.0 -0.012088155178852564 -0.156750324858717
2960000000.0 -0.14523151842784174 -0.07961141120440116
2980000000.0 -0.1302081808459289 0.12030060582753044
3000000000.0 0.18052818636411466 -0.04101377728820165
3020000000.0 -0.17784234586556824 -0.06752485764224954
3040000000.0 0.18176564426103223 0.07645390648648852
3060000000.0 -0.12495348632532886 0.15719962234917828
3080000000.0 -0.2030663945718427 -0.015190738116545307
3100000000.0 -0.1607809390593508 -0.12634541745699673
3120000000.0 -0.17689266505779946 0.1038733705083086
3140000000.0 0.16470898942840437 0.12596342341681172
3160000000.0 -0.11559347504414817 -0.17306908001799323
3180000000.0 0.02581880243913019 0.20825913259448034
3200000000.0 0.17537657478829347 0.12498436801217981
3220000000.0 0.01428691773975005 -0.21922623173476297
3240000000.0 -0.1666452246442104 -0.1519064650820639
3260000000.0 -0.13508228356182203 -0.18747541281638597
3280000000.0 0.13421364570851352 -0.19640029994952696
3300000000.0 0.14533594062963587 0.19676608608477603
3320000000.0 -0.2506018328766731 0.013837929903949294
3340000000.0 0.24915053941750573 -0.05504738056999778
3360000000.0 -0.21338175062073297 -0.1441440909321291
3380000000.0 -0.02789503964004281 0.2555053347557784
3400000000.0 0.24095126575454012 0.09233817953779856
3420000000.0 -0.0629831896464496 -0.25186428537054983
3440000000.0 -0.10394982768423915 0.23752376338929715
3460000000.0 0.25635687284180425 -0.027630415992871398
3480000000.0 -0.19825366909777978 -0.15925082748247843
3500000000.0 0.16897819472855705 0.1862462249956499
3520000000.0 -0.21175432575157832 -0.1293359795654477
3540000000.0 0.2369254840509723 -0.0544457978933596
3560000000.0 0.11842356861202692 0.20555345899391844
3580000000.0 -0.01887855318283905 0.2293873505401805
3600000000.0 -0.03173839956958968 0.2227107245624469
3620000000.0 -0.21104535991987727 0.06522641546464747
3640000000.0 -0.050399189794937 0.2137207278655392
3660000000.0 0.21208735901783254 0.06343447282275909
3680000000.0 0.08997157169310516 -0.20669502938265838
3700000000.0 -0.16426926253838417 -0.1680792284214573
3720000000.0 -0.22319412622815826 -0.10442217726721738
3740000000.0 -0.057724387098029926 -0.2526491083187223
3760000000.0 0.0738011191679163 -0.2621667933096068
3780000000.0 0.27578429400775273 0.07096743563741806
3800000000.0 -0.293443747926518 0.03009513339147339
3820000000.0 0.30188448398691636 0.029707916021352372
3840000000.0 -0.20293536573969487 -0.23093001132707305
3860000000.0 -0.05896255917430807 0.3020079023798594
3880000000.0 0.27223436314013066 -0.1378787300020035
3900000000.0 -0.2425231761065723 -0.17511988830634334
3920000000.0 0.04261934560618657 0.2828481913213581
3940000000.0 0.0832449939454118 -0.2546720486955842
3960000000.0 -0.11985082602096306 0.2156193733500348
3980000000.0 -0.0678095496454967 -0.21137260352679382
4000000000.0 0.07639948709346459 -0.17816286706194487
