!Created with skrf (http://scikit-rf.org).
# Hz S RI R 50.0 
!freq ReS11 ImS11
400000000.0 0.061267921620992635 -0.512038414451033
420000000.0 -0.32403448293788156 -0.03879835081694268
440000000.0 -0.03276699577789377 0.17566356549662343
460000000.0 -0.06711415314191488 0.09982211645102575
480000000.0 0.043665281024528234 -0.006895551324881779
500000000.0 -0.07299206063419994 0.052389816967636
520000000.0 -0.19527753251787294 0.06456877514892072
540000000.0 0.03469458108463754 -0.27143643443569554
560000000.0 -0.21141871100979925 0.37244877675709487
580000000.0 0.4902856133623508 0.19774303012758893
600000000.0 0.2774100734932347 0.48825395327311427
620000000.0 0.4314514392454754 0.27589520095282694
640000000.0 -0.3934998623152371 0.21355937818867776
660000000.0 -0.34268239606529605 0.012598933592690157
680000000.0 0.2658981670837999 0.018894291200539322
700000000.0 -0.12958084315350674 0.20446028707395433
720000000.0 -0.2292843223444983 0.04108778084562659
740000000.0 0.22074848364707877 0.012656081198402972
760000000.0 0.18240206839291428 -0.027392081662908786
780000000.0 0.05597265929417504 0.12001565395865621
800000000.0 -0.05059714284749913 0.07073092770937701
820000000.0 -0.0010064762110575498 -0.06394744617802976
840000000.0 0.08577148894587315 -0.059805604774321466
860000000.0 -0.10363029373149892 -0.021100291775708664
880000000.0 -0.060947620641309534 0.06206024395566158
900000000.0 -0.043373684276702934 -0.08605522469082859
920000000.0 0.046512888525889085 -0.13913901146414043
940000000.0 0.15937871727613792 -0.13152355905592666
960000000.0 0.23042941602462122 -0.03291796136705257
980000000.0 -0.15580485536042968 0.18861477121336562
1000000000.0 -0.17165230297158862 -0.15327011166478657
1020000000.0 -0.13998746998987224 -0.16291813052518436
1040000000.0 0.17727587136774284 0.0750509322899775
1060000000.0 0.06822563762629172 -0.19782455577964886
1080000000.0 -0.19736362639329086 0.11555380565503598
1100000000.0 -0.014583774157076635 -0.23104422061203983
1120000000.0 -0.041584542814550235 -0.21725194280148902
1140000000.0 0.010301855369355826 0.20779688604441318
1160000000.0 0.11537800879294462 0.1520219658428515
1180000000.0 0.023206676217567706 -0.17971723557780986
1200000000.0 0.15041354414856015 -0.09199596191908335
1220000000.0 0.16731756022137567 0.0559046142122428
1240000000.0 0.10463316319499713 0.15264113656115155
1260000000.0 -0.14732983850562176 0.10096406828383685
1280000000.0 0.04920140397999532 0.1707861167754039
1300000000.0 -0.17987862027675633 0.03951729270884493
1320000000.0 0.19535287822605782 0.03863786645783071
1340000000.0 0.19578881024854627 0.09335130677297758
1360000000.0 0.23452693485441825 0.03729985271670726
1380000000.0 -0.06682939584764813 0.2524254662458383
1400000000.0 -0.22136130479518973 -0.17902280740786658
1420000000.0 0.2923284048272501 0.06920038683792883
1440000000.0 -0.29834026151977033 0.008460888570137388
1460000000.0 0.04199657921614049 0.3025746060130393
1480000000.0 0.217182860530122 0.20830149587775315
1500000000.0 -0.2548657337337688 -0.14784000388907814
1520000000.0 -0.1515620178252599 0.23960336956017866
1540000000.0 0.21414274734205274 0.14218674375933316
1560000000.0 0.010095970794293387 -0.24083943382546574
1580000000.0 -0.08522361337831337 0.19792789503009178
1600000000.0 -0.08705223440094775 0.1761211419873866
1620000000.0 0.04467618477644558 0.18148399802381188
1640000000.0 0.0167239467675458 0.1774588595309672
1660000000.0 0.1577709009006272 -0.06792511675501259
1680000000.0 0.09198340802820469 0.1431947439299884
1700000000.0 0.15111628738860583 -0.05747799380692358
1720000000.0 -0.07364212040658354 0.1336562163298352
1740000000.0 0.11278363798433888 -0.08761271149536266
1760000000.0 0.05311517657792625 -0.12295696911165979
1780000000.0 -0.06457257309913075 0.10277290743422819
1800000000.0 -0.009000497959671255 0.12632789578750345
1820000000.0 0.07132152383937312 0.11034062038446973
1840000000.0 0.058749527001670354 0.14069794690355722
1860000000.0 -0.08572961096639263 0.1505254396911479
1880000000.0 0.18229713800906636 -0.0701244444013384
1900000000.0 -0.18927195038807978 0.0976433053455229
1920000000.0 -0.21250044525252434 0.08723962158225736
1940000000.0 -0.23789408937983078 0.0033028230619204257
1960000000.0 -0.21416768691257732 0.12378680004275663
1980000000.0 0.24402088688146198 -0.015067920094119464
2000000000.0 -0.08674282730251816 -0.22510680473243622
2020000000.0 0.005403431858602361 0.2401863826026269
2040000000.0 -0.05439630161740488 -0.2218318598769758
2060000000.0 -0.07818029646059617 0.2060762327853178
2080000000.0 0.1545030239953019 -0.14890056514139904
2100000000.0 0.018997504728269214 0.20321677333497665
2120000000.0 -0.1471106033435019 0.12414645489561403
2140000000.0 0.17101717444030506 0.06823643200271538
2160000000.0 0.15295585622479113 -0.08130586490502739
2180000000.0 -0.02169690960009166 0.15550369879247514
2200000000.0 -0.00022956728467255654 -0.14630339764265518
2220000000.0 0.010169182253784976 -0.13426597946585314
2240000000.0 0.0776646266964335 -0.10602841418051465
2260000000.0 -0.12176634304631086 0.028769157379560754
2280000000.0 0.12640433676283402 0.04236571134713817
2300000000.0 0.09585511122818687 -0.09673415585513916
2320000000.0 0.13841879277174995 0.023800539639111714
2340000000.0 0.0894516366678782 -0.12030615898196476
2360000000.0 -0.04357185571124162 0.1452796707810821
2380000000.0 0.0723804642804744 -0.13644562446228437
2400000000.0 0.1140121770003701 -0.11222129774042976
2420000000.0 -0.12500825426828413 -0.0890641969461727
2440000000.0 -0.06632578550969444 -0.1343153291808896
2460000000.0 0.10483127335343985 0.09911074145376085
2480000000.0 -0.08426665580886492 0.1121235647675998
2500000000.0 -0.13076042604237503 -0.04627892515171618
2520000000.0 -0.07147737266124413 0.1149505355117662
2540000000.0 -0.11501014274533926 0.07385538551545519
2560000000.0 -0.05884452539285194 0.126953091888491
2580000000.0 0.026722545465413243 0.1439198890272852
2600000000.0 -0.1282486362879946 0.08388353055998783
2620000000.0 0.01138494921173926 -0.15883487650339195
2640000000.0 0.16270571106360113 0.02999906446115052
2660000000.0 -0.1608359421692428 -0.0471805601492773
2680000000.0 0.07749143723085603 -0.15001209242255548
2700000000.0 0.10447808545047063 0.1295537797389871
2720000000.0 0.1423772342789214 0.07657130746981326
2740000000.0 0.015633235569500976 -0.15403777746638728
2760000000.0 -0.1147776682547626 -0.09496020269758805
2780000000.0 0.031307698984893266 0.14307063312920643
2800000000.0 -0.03652164118374874 -0.14562528610009878
2820000000.0 -0.14328090311565403 -0.0626597473514814
2840000000.0 -0.13018896365053928 -0.10367382665189574
2860000000.0 -0.006010668391431726 -0.17864553467802136
2880000000.0 -0.0024994783415732227 0.18798270828808028
2900000000.0 0.19593405577065404 0.04840620772666948
2920000000.0 0.18376257551060868 -0.10092906840929952
2940000000.0 0.1745822011613482 -0.12699487129244008
2960000000.0 0.1577683585728727 0.149118320587466
2980000000.0 0.04847428362241171 0.20874329130678446
3000000000.0 -0.2058075912372082 -0.012425610696207068
3020000000.0 0.08269877086612856 -0.1794900283299695
3040000000.0 0.1203833886676382 0.13978966455015865
3060000000.0 -0.1702210813066676 -0.007290409264031887
3080000000.0 0.11358162547459598 0.10991317207793165
3100000000.0 -0.14433029368737527 0.027644430384501966
3120000000.0 0.13038249539367763 0.0437753909162303
3140000000.0 -0.08049849350197955 0.10568792444791458
3160000000.0 -0.05037969765903607 -0.12502166909081883
3180000000.0 -0.005393642726196417 -0.13599437069413423
3200000000.0 0.09167679290885443 0.1110458527549167
3220000000.0 0.05703521296775476 0.14074561300153954
3240000000.0 -0.16381063699460838 0.018486774492706054
3260000000.0 0.10349343492269786 -0.15011447792364682
3280000000.0 0.19419394500366916 0.05576237884967495
3300000000.0 -0.016427105802764307 0.21986401051643786
3320000000.0 -0.23910368059667264 0.03260033547481992
3340000000.0 -0.10977310705356072 -0.23306817168993504
3360000000.0 0.2679972246889214 -0.05853102477786398
3380000000.0 0.11835014073806352 0.25730697750572107
3400000000.0 -0.27972003851384636 0.07713585744093687
3420000000.0 -0.15399634879783386 -0.24714855264203067
3440000000.0 0.04464179368529738 -0.28549095385000217
3460000000.0 0.27641195460708357 0.028736786500902202
3480000000.0 -0.13155180661218208 0.22903775096208545
3500000000.0 -0.018459481223887086 -0.2500020400576045
3520000000.0 0.20925184837066604 0.10627221711524218
3540000000.0 -0.2122410889518408 -0.058853333166485916
3560000000.0 0.11515607625916706 -0.17153835459102246
3580000000.0 0.11378850769715342 0.15711634688332957
3600000000.0 -0.1856697977444294 0.022417418256308615
3620000000.0 0.08123323380964322 -0.16377028737767474
3640000000.0 0.14813454432523798 -0.10617440007922863
3660000000.0 0.13419571792584697 -0.12686110599315148
3680000000.0 0.10005644213544627 -0.16312531377695852
3700000000.0 0.1513428478805417 -0.13938296682110032
3720000000.0 0.21373256177770306 -0.06351848312550905
3740000000.0 0.156211463449766 0.18268902061725245
3760000000.0 -0.08935481600421352 0.24344359676882701
3780000000.0 -0.2433755455988535 -0.13589137445348556
3800000000.0 0.2942144157433123 -0.03654199988661247
3820000000.0 -0.29801293619520713 0.08417384756330246
3840000000.0 0.3184328668625311 -0.026860839544467285
3860000000.0 -0.32225035694441173 0.054758198070258814
3880000000.0 0.31697358377642015 -0.08260675078049405
3900000000.0 -0.3082559087002331 0.10240437051687767
3920000000.0 0.21224456854030443 -0.22759477702137276
3940000000.0 -0.005044219386228084 0.29391616953478206
3960000000.0 -0.26773254180798883 0.035272780725107054
3980000000.0 -0.23650865118678496 -0.0612871434110826
4000000000.0 0.0350786485852872 0.21057200302109935
