!Created with skrf (http://scikit-rf.org).
# Hz S RI R 50.0 
!freq ReS11 ImS11
400000000.0 0.5342581237567722 0.27004487068387634
420000000.0 0.4127078790454478 -0.13756886988910647
440000000.0 -0.0768023061408457 0.17078284533702756
460000000.0 -0.022906442185402397 0.01506953345411249
480000000.0 -0.21676108565945812 0.09054434498349893
500000000.0 0.02460080233756529 -0.3401081532984349
520000000.0 0.3297279426516063 -0.18673783459227683
540000000.0 0.0010581601428578074 0.4979589599260314
560000000.0 -0.540985932319025 -0.10966345390567084
580000000.0 -0.3629730576461793 0.3710205930341041
600000000.0 0.3496636446887071 -0.3227269926391493
620000000.0 0.12219729387422061 -0.40187003213237227
640000000.0 -0.20490220094514064 -0.2840805443678134
660000000.0 -0.136879761396453 0.1530171993515594
680000000.0 0.03743776081296689 0.1587168738402419
700000000.0 -0.20485023114791298 -0.018445529400704843
720000000.0 0.10756586699702847 -0.24688905828040675
740000000.0 0.052125378555399254 0.256447239860089
760000000.0 -0.05856037139141218 0.2278586651398489
780000000.0 0.19902268744686785 0.057449943774746416
800000000.0 -0.11442848221356244 0.17451430800568665
820000000.0 -0.19081146219009293 0.09236715742917499
840000000.0 -0.11809667512254433 -0.19060284296069444
860000000.0 -0.11154301790758496 0.2034701390614045
880000000.0 -0.05268916330080695 -0.25020680725909367
900000000.0 -0.06089949259459398 0.2542388271618806
920000000.0 0.016332291238365278 0.24885617360667456
940000000.0 -0.012366011911715005 0.24368414909423913
960000000.0 0.045070266266473646 0.23453248561091428
980000000.0 0.20146762448162214 0.08623224284483556
1000000000.0 0.19603450363846694 -0.0290939702460959
1020000000.0 -0.014220389321782637 -0.19076753917645425
1040000000.0 0.003496566419603418 -0.172568453250498
1060000000.0 -0.14561611708508615 0.1024786795439253
1080000000.0 -0.11413016823601799 0.10402185370817292
1100000000.0 -0.01632338077738966 -0.14906180960510673
1120000000.0 -0.030198842766131842 0.15636197287616216
1140000000.0 -0.042834148093689524 -0.17081863782313864
1160000000.0 -0.1664074549484595 -0.09940511309578676
1180000000.0 -0.1953870801360132 0.03137060271103357
1200000000.0 -0.11315890207710962 -0.13773067572920886
1220000000.0 0.010721574573145386 -0.15502140888662275
1240000000.0 0.06842377447644223 -0.11063076857241266
1260000000.0 0.11672134345451787 0.00018432068004841135
1280000000.0 -0.0696188071383239 0.08445908232133414
1300000000.0 -0.08983022147053527 -0.0785629180530505
1320000000.0 0.07743236818185668 0.11136668789279164
1340000000.0 -0.11315517097277082 0.11286199931059748
1360000000.0 -0.0744983635957365 0.15772252962308306
1380000000.0 0.19977940889086915 -0.01831579667690861
1400000000.0 -0.21266216238799285 -0.08953173900621615
1420000000.0 0.2241459546985556 0.12050588346580474
1440000000.0 -0.27369104211127365 -0.01884096276849953
1460000000.0 0.1479639664391441 -0.24112529503003552
1480000000.0 -0.027846637904175763 0.2791429630247987
1500000000.0 -0.23228992501370888 -0.13347719038723993
1520000000.0 0.13593328471840593 0.20256373110717082
1540000000.0 0.13474992895244522 -0.17306810034000936
1560000000.0 -0.1741402139310587 -0.07767677563022492
1580000000.0 -0.07525668837555759 0.14294197333637448
1600000000.0 -0.04704630102774963 -0.1265655574800842
1620000000.0 0.08830923346063858 -0.08813218669754634
1640000000.0 -0.06661224561725956 0.09712435234084056
1660000000.0 -0.09118187900591214 0.07090482919157604
1680000000.0 0.09824796761179785 -0.05525011240458349
1700000000.0 -0.10767191234929793 0.018594588135031665
1720000000.0 0.03281050375698991 0.11606402615228072
1740000000.0 0.13439039629968016 -0.06850891304037189
1760000000.0 -0.1507531512808401 0.12703199150800537
1780000000.0 0.14335751670406652 0.1859669352252826
1800000000.0 -0.011962712337683042 -0.2702882609017094
1820000000.0 -0.2860336059316662 0.0632035730884145
1840000000.0 0.18631302211772943 0.24566767416470472
1860000000.0 0.2913304443239381 -0.10792119684020533
1880000000.0 0.2652483550697063 -0.14711903982808663
1900000000.0 0.23966310389252388 0.1671701832832537
1920000000.0 -0.20862247325137717 0.19284068291591452
1940000000.0 -0.24218611567933299 -0.13031157820796047
1960000000.0 0.10629312814587877 -0.24195951070992353
1980000000.0 0.23468536212683602 -0.11041544953278597
2000000000.0 0.05871028972373183 -0.24926316830639103
2020000000.0 -0.11019999208148598 0.2201515881090709
2040000000.0 0.22735920117319236 0.038399849665084126
2060000000.0 -0.15666767545597846 -0.149123715745134
2080000000.0 -0.11584850141027611 0.16366999841532853
2100000000.0 -0.1800427764938933 0.037023156050187016
2120000000.0 0.14647686179521519 0.09443240779572337
2140000000.0 -0.12457111950238829 -0.10645358783245226
2160000000.0 -0.10479228983314334 0.1204204557534906
2180000000.0 0.1613437124242527 -0.01444155592050726
2200000000.0 -0.15671768583298745 -0.038740610958843666
2220000000.0 0.1562388283418261 0.03256549600233094
2240000000.0 0.15657289647999845 -0.027536901847211807
2260000000.0 0.1549393729065819 0.018653975128353633
2280000000.0 0.001017814219919949 0.1619840465586424
2300000000.0 0.16366215649014576 -0.0381388155439205
2320000000.0 -0.11603325953381427 -0.12959158136203663
2340000000.0 0.1484784763528527 0.09613997125921127
2360000000.0 -0.13725076731411606 0.11055917597356488
2380000000.0 0.0682571083394831 -0.16032843618524892
2400000000.0 0.15084798438497585 0.08459696167531011
2420000000.0 -0.053947155465010645 -0.15965165572483514
2440000000.0 -0.07774446260309836 0.13965449226975127
2460000000.0 0.06369654128207644 -0.13549633742710634
2480000000.0 0.11470792935100063 -0.08180616107650725
2500000000.0 0.05385023977761361 0.1157978099699201
2520000000.0 -0.0528665330635682 0.11391818288716005
2540000000.0 0.08466727866196477 0.08980982892503406
2560000000.0 0.11912381701130671 -0.036751746872910517
2580000000.0 0.11855190570635579 -0.04895279630205366
2600000000.0 -0.0012001833487206136 -0.13260586968036941
2620000000.0 0.09446441604699347 -0.0945727038359278
2640000000.0 0.13100631290844642 0.019439016288036792
2660000000.0 0.04092459574148119 0.12145365528193748
2680000000.0 -0.09645375391692207 -0.07112755761080981
2700000000.0 -0.0966985945067887 -0.05171976272532225
2720000000.0 -0.0980153017586204 -0.010394490989571108
2740000000.0 0.036861186375274475 0.08101901908210221
2760000000.0 -0.04268218186111022 -0.07064117931277303
2780000000.0 0.05195339947781738 -0.05828190122535585
2800000000.0 0.07794550296344356 -0.021841875317087624
2820000000.0 0.07581523459141583 -0.048893153713926225
2840000000.0 -0.03438535690427778 0.0942441986258123
2860000000.0 0.04951320932617625 0.10189664802967241
2880000000.0 0.01720038127827365 0.12480959160866585
2900000000.0 -0.13389407699095163 -0.03515070924688661
2920000000.0 0.1251635218774397 0.07901321189301648
2940000000.0 -0.00026140995043670145 -0.1569321766068864
2960000000.0 -0.15163477325954886 -0.06689063459513203
2980000000.0 -0.13688048199593206 0.11229798564247204
3000000000.0 0.16794390648456953 -0.07882027988391167
3020000000.0 -0.18898578361369475 -0.025879232425594666
3040000000.0 0.17737965005712084 0.08592378655055986
3060000000.0 -0.15368706907781776 0.1291920907310333
3080000000.0 -0.1958057024618752 -0.06143913200131288
3100000000.0 -0.15743142184791953 -0.1336184283909675
3120000000.0 -0.17238889694769424 0.11416722800042525
3140000000.0 0.1562503098716601 0.1351726319184861
3160000000.0 -0.0733642187160331 -0.19394238822702992
3180000000.0 -0.009677243322374457 0.20907665393608343
3200000000.0 0.12610678574462275 0.17380740838486167
3220000000.0 0.08327445788585285 -0.20341434871313196
3240000000.0 -0.18524700181961554 -0.12944290924717022
3260000000.0 -0.17448922763954977 -0.15090153583153623
3280000000.0 0.05726560845205773 -0.2303482497840134
3300000000.0 0.1863859003650188 0.15729001551814106
3320000000.0 -0.25007012186463967 -0.008668660181152563
3340000000.0 0.25353958769162205 -0.02571252504655571
3360000000.0 -0.2208074465579287 -0.1320899493991558
3380000000.0 0.012445194456702818 0.25740900150115215
3400000000.0 0.25337333606496254 0.05194924271243429
3420000000.0 -0.03005370667672115 -0.2584345063784885
3440000000.0 -0.13612677389619282 0.22067754757785787
3460000000.0 0.25341952092809594 0.05077442945460823
3480000000.0 -0.12121947071419897 -0.22522997377492474
3500000000.0 0.1579146833413317 0.19723305503697997
3520000000.0 -0.18603960351824805 -0.16383930149560288
3540000000.0 0.2425345384604759 0.005666239913304162
3560000000.0 0.03592629024948199 0.23345400714436926
3580000000.0 -0.09654493111278449 0.20807491956826507
3600000000.0 -0.10032993933708972 0.2014305000500197
3620000000.0 -0.21885582964960013 0.028121896930836773
3640000000.0 -0.01090045432190969 0.21820127970006195
3660000000.0 0.2199600987670757 0.008778004613630796
3680000000.0 -0.003532861642426923 -0.22435463052769125
3700000000.0 -0.20048304822647453 -0.12067544724591174
3720000000.0 -0.24177574345945402 -0.04729458314608336
3740000000.0 -0.14750180553512712 -0.21230670093358875
3760000000.0 -0.03399169175597958 -0.2697959629268896
3780000000.0 0.2844538583756666 0.01494323418950416
3800000000.0 -0.26666060827830784 0.1283063047212076
3820000000.0 0.29881796979082104 -0.05670356469370674
3840000000.0 -0.2818459993792789 -0.1257388222507369
3860000000.0 0.09979978607543478 0.29172607644628346
3880000000.0 0.20448787900724363 -0.22735384993038468
3900000000.0 -0.26475241853120673 -0.14099122407346143
3920000000.0 0.004207163803049669 0.28654092230254496
3940000000.0 0.19546653331093086 -0.18416727283641
3960000000.0 -0.16017335628650406 0.187826692719021
3980000000.0 -0.02807089108938304 -0.21912416565661247
4000000000.0 0.08860483302520002 -0.16990625321679062
