!Created with skrf (http://scikit-rf.org).
# Hz S RI R 50.0 
!freq ReS11 ImS11
400000000.0 0.46962453318457836 0.6515233414961236
420000000.0 0.44661443498059133 0.5647411174672802
440000000.0 0.04650372301662239 -0.5805026222067272
460000000.0 0.2581982575106317 0.3699820765169315
480000000.0 0.1613928259896807 0.2822344338288803
500000000.0 -0.2456369475984094 -0.07404168721967973
520000000.0 -0.23142797438814192 0.12913291174709313
540000000.0 0.029212098213926164 -0.3449263529117717
560000000.0 0.45647904993124505 -0.03359607925668701
580000000.0 0.44502616099580566 -0.2408854663511104
600000000.0 -0.39064837814326697 -0.36367569713590087
620000000.0 0.5336775208586123 -0.10772552787082972
640000000.0 0.491452288094573 -0.17476797868114835
660000000.0 0.46247599113673665 -0.04089676304301951
680000000.0 -0.27452401792431824 0.29731049579278085
700000000.0 -0.07206746475004555 0.4280505899772401
720000000.0 -0.35134853594988524 -0.27887867786423015
740000000.0 -0.0462976191706421 0.3903504887924204
760000000.0 0.058300877367926454 0.3189870913102665
780000000.0 0.24109775777484485 0.005544658651330484
800000000.0 0.16123856334835496 0.12964886369234957
820000000.0 0.10770097461691865 0.15383605931444946
840000000.0 0.1272611602250364 0.059791288038020945
860000000.0 0.11168000086036037 0.015102603309493309
880000000.0 -0.02097857315541061 -0.056264962410995704
900000000.0 0.002466968876054953 -0.09018454810243692
920000000.0 0.11000245713935265 -0.060056635696867866
940000000.0 -0.06641644597476394 0.17255101825622457
960000000.0 0.19752596754268778 -0.07005601494156266
980000000.0 -0.07374243492575223 0.19613363720446658
1000000000.0 -0.22596596905073138 0.04103272535320036
1020000000.0 -0.08016501090467505 -0.24464118880999816
1040000000.0 0.25847082117916703 0.08156379763204043
1060000000.0 0.15555356350752014 -0.24931334472205197
1080000000.0 0.2821299741368498 -0.1451425839479255
1100000000.0 -0.2923153983716592 0.12088746169117184
1120000000.0 0.16777650837532268 -0.26925180422351286
1140000000.0 0.047785221278087715 0.31186402762423937
1160000000.0 0.24636803732111268 0.20810485786012936
1180000000.0 -0.234789096035643 0.21574008406514597
1200000000.0 0.29579156764702286 -0.10823360835665952
1220000000.0 0.2124062755392543 0.22217191515230572
1240000000.0 0.04100416046508649 -0.3072167602593932
1260000000.0 -0.13872535980992187 0.2565235563933181
1280000000.0 0.2791992618283903 0.04708570371521981
1300000000.0 -0.09225096710267339 -0.2866854109546998
1320000000.0 0.2792251213336148 0.11436002166376659
1340000000.0 -0.3153724690121098 0.04740606417530201
1360000000.0 0.05552819648855286 0.3414906942920757
1380000000.0 -0.10613454693031238 -0.34518608589728333
1400000000.0 0.07545891925891286 -0.3635656553114953
1420000000.0 0.3594419477781312 -0.13817398985369336
1440000000.0 0.1782471106141413 -0.33092988228704406
1460000000.0 -0.32729492497976925 -0.17121932314727822
1480000000.0 0.2977102679987461 -0.18089066980747182
1500000000.0 -0.2829018756971761 -0.19048953125075888
1520000000.0 0.26441139524145135 0.18624428024585846
1540000000.0 0.06544668627467373 0.28978530645597056
1560000000.0 0.23048467227578834 -0.12623470053947747
1580000000.0 0.12476166841876697 0.2084155952676065
1600000000.0 0.02720982413156413 -0.21952525842077664
1620000000.0 0.1992148333545713 -0.02098675097286592
1640000000.0 -0.07269175824778498 0.16416125482605154
1660000000.0 0.11894483580914651 0.11345515453029506
1680000000.0 0.031949663813410835 0.1321604966810077
1700000000.0 -0.029229706329030655 -0.13127033239161864
1720000000.0 -0.0890318537948915 -0.06146224265924719
1740000000.0 0.000370490258617989 -0.0873369729752474
1760000000.0 -0.05255681605573869 0.05222498352752637
1780000000.0 0.04764534657061211 -0.04626087089517933
1800000000.0 -0.06919482888520333 0.02832010201079878
1820000000.0 -0.057899988962762355 0.09170139922732137
1840000000.0 -0.11136794895528332 0.07332296406061968
1860000000.0 0.07527833040968804 -0.15169928370733815
1880000000.0 0.018857704909447427 0.1940960782581529
1900000000.0 0.18714745635412375 0.10869278148454743
1920000000.0 0.007655642961002798 0.2387543955937795
1940000000.0 0.21377743935799742 0.13540492700733375
1960000000.0 0.2027610877914332 -0.16420426421511955
1980000000.0 -0.16559941167356865 0.21117980754438662
2000000000.0 0.2367034711776567 -0.1351198101225284
2020000000.0 -0.03790313107112444 0.2642645105467897
2040000000.0 -0.2588961083536914 -0.018886732196282063
2060000000.0 0.24127297306202924 0.06123903027899809
2080000000.0 -0.1862411133100751 -0.1487885187838711
2100000000.0 0.22850417623822442 -0.06092019471682491
2120000000.0 -0.12125321433582284 -0.18134370442411168
2140000000.0 -0.09145914815352464 -0.189550246593354
2160000000.0 0.03658826996997291 -0.1918404463549677
2180000000.0 0.06495999366048434 -0.17996830598595157
2200000000.0 -0.16593979096894068 -0.07389711699974963
2220000000.0 0.14396816627522122 -0.11041094972983848
2240000000.0 -0.05062549025666714 0.18100478790385385
2260000000.0 -0.0878367750726041 -0.15372304897214328
2280000000.0 -0.12319773045486623 0.11842905997321342
2300000000.0 0.0011457961082510142 -0.16257546430224987
2320000000.0 -0.14022091167246542 0.06776175037613393
2340000000.0 0.048212673148812016 0.14288390108656074
2360000000.0 0.05189287287428058 0.13137122174075255
2380000000.0 -0.12223604418974039 -0.034755026496446045
2400000000.0 -0.023067745064840287 0.1024519833445476
2420000000.0 0.05356617965677557 0.07880451085832318
2440000000.0 0.051836812686618654 0.07042224206876316
2460000000.0 0.048316982445159785 -0.06779589403464004
2480000000.0 0.036195444709926854 0.0588056832486995
2500000000.0 -0.06324345209372342 0.03399237769830646
2520000000.0 0.04837623229748295 -0.05911867774387301
2540000000.0 -0.06716208338136072 -0.051649474451789974
2560000000.0 0.048232031257365575 0.08240978402378023
2580000000.0 -0.10514721735471003 0.015069230008990128
2600000000.0 -0.09331906848145664 0.0793717132192929
2620000000.0 -0.09704236367919188 -0.10324152360001819
2640000000.0 0.15355840369455245 -0.0017134450198390578
2660000000.0 0.09575203104637166 0.13701341849581788
2680000000.0 -0.13559847767473632 0.10559756799069565
2700000000.0 -0.13442468470264615 -0.10719699972028449
2720000000.0 -0.13782562199302079 -0.11002840585554181
2740000000.0 -0.15843355327643363 -0.06547131598478184
2760000000.0 0.15189620325810524 0.07694008049887723
2780000000.0 -0.16186623991053192 -0.0580279316058301
2800000000.0 -0.05010847707412814 -0.1690913685255438
2820000000.0 -0.1830449940126364 -0.017076155738946514
2840000000.0 0.15747915185357284 0.11877938100000121
2860000000.0 0.20729801674668027 -0.018668818531886823
2880000000.0 0.15413018051959598 0.15751453074735153
2900000000.0 -0.23179989663799558 0.012225595132137893
2920000000.0 0.2339572478084509 0.05777648177306384
2940000000.0 0.01945651917230152 -0.23564422065215215
2960000000.0 0.22219102470187024 -0.08406713164551548
2980000000.0 0.22729651000280182 0.043753418108108046
3000000000.0 0.157790797923712 0.1568244749982783
3020000000.0 0.07304030675281831 0.1972477162860917
3040000000.0 -0.16445797970425954 0.09821070244934264
3060000000.0 0.12767995484539774 0.11278322440645565
3080000000.0 -0.1577491444378947 0.010320321634438438
3100000000.0 0.06854575184421002 -0.12281961142634998
3120000000.0 -0.0664368054484724 0.11315035048352917
3140000000.0 0.11883994271472421 0.03221764854354271
3160000000.0 -0.11263593372599517 -0.036687734324698094
3180000000.0 0.0821571247494423 0.09285559260407351
3200000000.0 -0.13207349679448582 0.01972411690973406
3220000000.0 0.026287655844486318 -0.1442939979213386
3240000000.0 0.1617254582353178 -0.016468563856328493
3260000000.0 0.10627721465567565 0.1498081797654722
3280000000.0 0.1845294637018807 0.07987374040764483
3300000000.0 -0.15003628320243187 0.16799060961666631
3320000000.0 -0.12315173560133086 0.21012850413586645
3340000000.0 -0.11115102412063527 -0.23126409271274487
3360000000.0 0.09853070562673281 -0.25466115365935144
3380000000.0 0.20788190558783132 0.18203455080760592
3400000000.0 -0.263829439675567 -0.1054982674829916
3420000000.0 -0.10761320454878914 -0.2662872989411866
3440000000.0 0.2797601795224775 0.027090359160856215
3460000000.0 -0.1334197332631762 0.2410456150896701
3480000000.0 -0.23322303106654482 -0.1364362772655332
3500000000.0 0.2295555954013015 0.11368720236474
3520000000.0 -0.15398988121290455 0.19390573258253435
3540000000.0 -0.22539855720053525 0.06401331067314443
3560000000.0 -0.2183746669238589 -0.025117911771628573
3580000000.0 -0.06313985913259644 -0.19431293412771847
3600000000.0 -0.08691496954072551 -0.17239716206266745
3620000000.0 0.15281823669451977 -0.10216910987195804
3640000000.0 0.13588569874860165 -0.11220596089556623
3660000000.0 0.17241102409148637 0.027148850630122335
3680000000.0 0.16575303244866815 -0.06379177880816753
3700000000.0 -0.06963866475687072 0.1744766903256254
3720000000.0 -0.1965278354687489 -0.03482512120161075
3740000000.0 0.21565018399421615 -0.03483430813700156
3760000000.0 -0.21098184499074343 0.10404717003315418
3780000000.0 0.2280748868746445 -0.11727373991360149
3800000000.0 -0.2765210611525247 -0.01007325883380032
3820000000.0 0.24927453990948997 0.16585632525948907
3840000000.0 -0.28535669861753055 -0.1337822305512909
3860000000.0 0.13750812267055554 0.2958917918859481
3880000000.0 -0.1265656756378028 -0.3113327878272051
3900000000.0 0.3146586981368294 0.13246961565770946
3920000000.0 -0.2307420182889336 0.2433630866265175
3940000000.0 -0.2057365811214779 -0.24887731691035983
3960000000.0 -0.25834833167323795 -0.15796087614186186
3980000000.0 -0.25644135296254106 0.10268654838999515
4000000000.0 0.22576752160229258 -0.09800512422943035
