!Created with skrf (http://scikit-rf.org).
# Hz S RI R 50.0 
!freq ReS11 ImS11
400000000.0 0.30162416578575996 0.6300148091208329
420000000.0 0.3684758089758387 0.5088284062091227
440000000.0 -0.46427293949135373 0.325561451761587
460000000.0 0.12153158219915357 0.47105833722340434
480000000.0 0.058304089638149065 -0.4365879866813457
500000000.0 -0.2593447154618247 0.2563448434097389
520000000.0 0.2701138648584474 -0.13719636294288548
540000000.0 0.2031026457432414 -0.21788544454242312
560000000.0 0.28999621120285746 0.03595289041718549
580000000.0 0.16843600243359433 -0.2704415731031024
600000000.0 0.10651722513921594 -0.31507640117460045
620000000.0 0.2393540062624682 -0.19227295964869012
640000000.0 -0.030835114901326014 -0.29056559787115877
660000000.0 -0.22992635707236883 -0.04706185401162509
680000000.0 -0.2624400696072207 -0.004818883304571987
700000000.0 -0.15400356023140013 0.2696832480344937
720000000.0 -0.32512653841430345 0.010213117436770058
740000000.0 -0.26760595621373084 0.18465819627847727
760000000.0 0.18238407018243585 0.2616611885447048
780000000.0 0.027226262336098112 -0.28883060542059164
800000000.0 0.2144932904751001 0.14094902231595416
820000000.0 0.18762234579837203 0.15858252378852214
840000000.0 0.20656997973103633 -0.08500762134155344
860000000.0 -0.0569157948683916 0.23239924084519858
880000000.0 0.046446189779666365 0.24688415293345917
900000000.0 -0.0247228209731796 0.2547431508225756
920000000.0 0.21948525360035764 0.12694136337277215
940000000.0 -0.11870935699051502 -0.22749534534103324
960000000.0 -0.09711203077209486 0.211402330732477
980000000.0 0.1894200892459555 0.027973609731189134
1000000000.0 0.168127049537987 -0.016003815346314468
1020000000.0 0.029131553261397394 0.17443030977368879
1040000000.0 -0.18928510280982383 -0.02073356732974007
1060000000.0 -0.21022535847114918 0.06550486123902914
1080000000.0 -0.2498533791713275 -0.09781336799877387
1100000000.0 -0.2974439899189454 0.029311263221254453
1120000000.0 0.27311149879375834 -0.19653158847175425
1140000000.0 0.2616712234064915 0.24819773053715707
1160000000.0 0.3025923405911038 0.2122520804012546
1180000000.0 0.27607555693724767 0.2705972700905477
1200000000.0 -0.1014771220331473 0.3892424551527719
1220000000.0 0.17085721502091805 0.38248217723467487
1240000000.0 0.26757492515542547 0.33335012953275
1260000000.0 0.39553655889773337 -0.15971695158861485
1280000000.0 0.4012662863694906 0.1569818589710574
1300000000.0 0.22962645270487556 -0.3868047142921171
1320000000.0 -0.2178076677887501 -0.3981077109493443
1340000000.0 0.3092105730855039 -0.3461211187209789
1360000000.0 0.1109872508148787 -0.4562210967322461
1380000000.0 0.44399816815951254 -0.16261308307303873
1400000000.0 0.34024964385849066 0.3307769294346059
1420000000.0 -0.24522266549560068 0.4003199977647528
1440000000.0 -0.4192598494454464 -0.1706322488224588
1460000000.0 0.28242028504610034 -0.31759355082829516
1480000000.0 -0.2658912108432608 0.2894692718973022
1500000000.0 0.3642392674047279 -0.015220305679807028
1520000000.0 -0.3389309007345258 -0.039006919456949916
1540000000.0 -0.017966668867135795 -0.3122717525976814
1560000000.0 0.03942858144431275 -0.2800571926555663
1580000000.0 -0.14246134901037158 -0.2137412457363969
1600000000.0 0.22676170677023935 0.06618403723434692
1620000000.0 -0.21338540500608588 0.023919345136539313
1640000000.0 0.09131583581282253 0.1810651177587124
1660000000.0 0.17311213090287492 0.0892490178739096
1680000000.0 0.17399441127110685 0.030325762092891565
1700000000.0 -0.1547715535327308 0.0627192372060664
1720000000.0 0.1291116535186992 0.09818052466298681
1740000000.0 0.13534606215538342 -0.05503694364622227
1760000000.0 0.048944163807415245 -0.12519843012953072
1780000000.0 0.07425183975399864 0.10863712715894136
1800000000.0 0.11322394009464287 0.0794192319906685
1820000000.0 -0.001532345128181857 -0.1642107499024189
1840000000.0 -0.13392235277667447 0.14004442260812622
1860000000.0 -0.2120092345431697 0.07810294930925281
1880000000.0 -0.0020086486534076956 -0.2513180023934833
1900000000.0 -0.266831306351094 -0.029870100132711793
1920000000.0 -0.07013115295759975 0.2756738066375393
1940000000.0 0.07329607588425278 0.2772957718854749
1960000000.0 -0.05276994192655005 0.27458515822726187
1980000000.0 -0.24899807709049954 0.12343605001272881
2000000000.0 -0.0361494081307449 0.269776256253204
2020000000.0 0.2355871036794475 0.1115649708342825
2040000000.0 0.18486032896822094 -0.1678953876338869
2060000000.0 -0.22011018582640407 -0.08539813838028645
2080000000.0 -0.22419038233458907 0.02318419710290002
2100000000.0 -0.1647676926731424 -0.139826249973389
2120000000.0 -0.17381426212426038 -0.10924497826172365
2140000000.0 0.09093644144027412 -0.1686981625032824
2160000000.0 -0.16228103497986165 -0.0667370369022003
2180000000.0 -0.11613658772034112 -0.11506371624758202
2200000000.0 0.07812577805833175 -0.12898476103618817
2220000000.0 -0.14724485840609158 -0.012488748964829212
2240000000.0 -0.14464686323953738 0.006688664071880602
2260000000.0 0.14336774717203024 0.03731860423151484
2280000000.0 -0.14037469378214298 -0.0316313385317534
2300000000.0 0.019981518323461085 -0.14313389623236217
2320000000.0 0.13043424246786253 -0.05116174518403773
2340000000.0 0.13145601585395691 0.033623474673116126
2360000000.0 0.08225193520203046 -0.09418154244708131
2380000000.0 0.11224827748166254 0.027187500604352058
2400000000.0 0.08018053335964408 -0.07460283830579198
2420000000.0 -0.10616747619700896 -0.000808321258000778
2440000000.0 0.03233083242514169 -0.09611924795331933
2460000000.0 0.09055203972471931 0.0496591047876557
2480000000.0 0.05095871966248172 -0.09097881305288653
2500000000.0 0.05086647741649723 0.10113671685926026
2520000000.0 -0.08477793731805378 -0.08706877380239769
2540000000.0 0.028598378939415463 0.12647540132132487
2560000000.0 0.06279128024366586 0.12394354144220258
2580000000.0 0.14399278171671856 -0.03608441015656807
2600000000.0 0.1490879283238739 -0.04223574711480268
2620000000.0 0.11631272495332774 0.10877206502653802
2640000000.0 0.013035689432843499 0.16435428315648437
2660000000.0 0.14148872883284966 0.08614019745022075
2680000000.0 0.1350400625482112 -0.08069835972464848
2700000000.0 0.11624976493784712 -0.09227084669653668
2720000000.0 0.0725781742893511 -0.11967480833521285
2740000000.0 -0.055909243624951914 -0.12127017020025892
2760000000.0 0.05104112753533006 0.11549474936461684
2780000000.0 -0.09663690665872121 -0.06950275461094609
2800000000.0 0.11580293573807353 0.03115181648794979
2820000000.0 -0.0607953557713111 0.10690477750943866
2840000000.0 -0.1239345834472253 -0.018323430056041624
2860000000.0 0.1285007459916915 -0.03008976401591764
2880000000.0 -0.13557149101907243 0.028277979841758175
2900000000.0 -0.14145549730410067 0.03504266792654236
2920000000.0 -0.024975187354232896 -0.14878353405101252
2940000000.0 0.11456594647641635 0.1063919343158691
2960000000.0 0.04974227195024097 -0.1545057420798794
2980000000.0 -0.12213727901548216 0.11288540299626536
3000000000.0 0.14197199127292257 0.09148591671095044
3020000000.0 0.11264264920689836 -0.1294378956115945
3040000000.0 -0.16706335421821333 -0.046356401128067375
3060000000.0 0.12116358572405381 0.12631473447685912
3080000000.0 -0.1721504855291118 -0.04020469829010203
3100000000.0 0.035069383525890827 -0.17257355060836413
3120000000.0 0.1437621327582938 -0.10148194650609817
3140000000.0 -0.12209757410141724 -0.12952183884373006
3160000000.0 0.0997342605708254 0.14929219945436775
3180000000.0 -0.17010705547437155 0.06884617292202513
3200000000.0 -0.1449528142952124 -0.12174874997381328
3220000000.0 0.13023515126465895 0.14602099066686583
3240000000.0 -0.2055209603589048 -0.01448562662238754
3260000000.0 0.21929812990772657 0.006460479864816838
3280000000.0 -0.22918057629033128 -0.03671453387006176
3300000000.0 0.1321600740988612 0.20176395717332224
3320000000.0 0.24557798678648043 -0.024023260655725555
3340000000.0 0.23876333033074257 -0.06570636328814254
3360000000.0 0.1124159583968811 0.22033060955265854
3380000000.0 -0.22770431645462186 0.07889566108228975
3400000000.0 0.04496516111017655 -0.23066145955974404
3420000000.0 0.2030918499234545 0.09307923902496908
3440000000.0 -0.2006849493848032 -0.058192493672257685
3460000000.0 0.007069035684341649 0.1956737267946481
3480000000.0 0.18311896372087103 0.005116100466317001
3500000000.0 -0.1053588229704592 -0.13766572133727573
3520000000.0 -0.06702431517792548 0.1495279075413536
3540000000.0 0.12641745328814766 -0.0923004185956239
3560000000.0 -0.040164623332166666 0.14497206705786847
3580000000.0 -0.12969672258356696 0.06555926206828584
3600000000.0 -0.14467865499338448 0.01240389781562977
3620000000.0 -0.14419620107416956 -0.0037043363257666514
3640000000.0 -0.06653505696193385 0.13102729184878056
3660000000.0 0.1293948717295083 -0.08216941722561692
3680000000.0 -0.07007956386956601 -0.14521254367331668
3700000000.0 -0.028027106778111193 -0.17181999746854454
3720000000.0 0.16374808818734615 -0.09672101102783558
3740000000.0 -0.10406261895157651 0.18123982264033342
3760000000.0 -0.21389455852723932 -0.08012135328877665
3780000000.0 0.21647064657307577 -0.1205276436685097
3800000000.0 -0.2616189798860362 -0.02445422743186154
3820000000.0 0.2346026937532045 0.14752422195656728
3840000000.0 -0.05000889590331953 -0.2831148062367675
3860000000.0 -0.16315799793856958 0.24567216997099228
3880000000.0 0.25490301564970214 -0.15385864206763328
3900000000.0 -0.2756571465761501 0.11135266834178367
3920000000.0 0.17149154894672575 -0.23153617855300382
3940000000.0 0.15779352301042993 0.2230512595947247
3960000000.0 -0.1405022726064304 0.21235028163501174
3980000000.0 0.011826007374137037 0.2341020577441053
4000000000.0 0.05567406802178746 -0.2039676570766835
