!Created with skrf (http://scikit-rf.org).
# Hz S RI R 50.0 
!freq ReS11 ImS11
400000000.0 -0.4174821496210703 0.3243374400515356
420000000.0 -0.12615280080861171 0.4457598435718629
440000000.0 -0.19935685230751507 0.3198002449113124
460000000.0 -0.1612299719387886 -0.28881849422231926
480000000.0 -0.16596834212727862 0.2145591485999197
500000000.0 -0.039025917253049464 -0.2439714635995608
520000000.0 -0.20360765728070848 -0.12910084745337871
540000000.0 -0.20316432890278205 -0.12257841071190953
560000000.0 0.11523446729614202 -0.2398052588830461
580000000.0 -0.23388932860581169 -0.18775739364429414
600000000.0 0.28341092226842435 -0.11256991957030894
620000000.0 0.15264222693550858 -0.23682069419786442
640000000.0 0.14492166701632345 0.2210203277766858
660000000.0 -0.14558135248532256 0.26774545276901185
680000000.0 0.18502501425388648 0.21642719682227848
700000000.0 -0.16667495220057268 -0.1768388806478577
720000000.0 -0.08335929110948674 0.20846928850463023
740000000.0 0.017437732049529277 -0.1829204211569695
760000000.0 0.15719117506773742 0.1302950904482511
780000000.0 -0.18070692498862703 -0.04344525786875038
800000000.0 -0.17701116913307352 -0.017198584164984546
820000000.0 -0.15632371993099978 0.07568576541755252
840000000.0 0.05633804189483795 -0.15010668611335207
860000000.0 0.10661299703213234 -0.1324050197545399
880000000.0 0.1345062970145351 -0.06939530835452658
900000000.0 0.043482252150870815 -0.12701141714389647
920000000.0 0.1104604723757724 -0.03798542188898332
940000000.0 0.1279888251915466 0.017397584902775275
960000000.0 -0.12332894667593412 0.008505834070763725
980000000.0 -0.08722969830710921 0.07536235898088092
1000000000.0 -0.058933625604327716 -0.08208510408569618
1020000000.0 -0.005842965959117782 -0.12142012971284176
1040000000.0 -0.16133213671003382 0.06751796276985012
1060000000.0 0.19404412511274816 -0.06050700920195906
1080000000.0 -0.21347994935392314 -0.036169857730044254
1100000000.0 -0.1146424630253533 -0.19851031309664394
1120000000.0 0.13651789684555166 -0.19800833663085105
1140000000.0 0.014877089373367618 0.24494991090303395
1160000000.0 -0.23839883315672614 -0.036059979842717464
1180000000.0 0.2696723204673001 -0.03385231151238145
1200000000.0 -0.06963383261109124 -0.26556966858843195
1220000000.0 0.1746604752864878 -0.19552788708985186
1240000000.0 0.09720931371479251 -0.22926052811075762
1260000000.0 -0.22158545001234295 -0.054013166415299955
1280000000.0 -0.21908367525951494 0.06479666312192293
1300000000.0 -0.07190951118404032 0.204257773574355
1320000000.0 -0.18984385701081447 0.12580885100101333
1340000000.0 -0.21234484934128792 -0.0671707474521419
1360000000.0 0.21040954267407047 -0.01834576835594542
1380000000.0 0.19091617461477825 0.04668983723799941
1400000000.0 0.15541576421760056 0.12269226674932329
1420000000.0 -0.10312801827232562 0.1524302909250313
1440000000.0 0.14202543506840898 0.10383505423969276
1460000000.0 -0.1304097846999429 0.10101537104887921
1480000000.0 0.03434498437342281 -0.15052662173236203
1500000000.0 -0.05933007895994071 -0.13385472187744935
1520000000.0 0.09927637848646957 0.11410612417925395
1540000000.0 -0.12756112776506104 0.0768417311401337
1560000000.0 0.13419334864150756 -0.006277458123851072
1580000000.0 0.12187888202377083 0.0009530557615105258
1600000000.0 0.13566663559784983 -0.0026645806657934566
1620000000.0 0.058239418646976224 -0.1388947893345606
1640000000.0 0.1444678787803027 -0.044387793641009844
1660000000.0 -0.04558492171251304 -0.13441555738846042
1680000000.0 -0.11519342655695361 -0.07655628643208544
1700000000.0 -0.08390284277756581 -0.11872958395729834
1720000000.0 -0.15565592515438076 0.03772469215751716
1740000000.0 0.16497723675353468 0.03008821583942923
1760000000.0 -0.16020274988749927 -0.06759101252032013
1780000000.0 -0.019408223287793947 0.17465285631238442
1800000000.0 -0.1866770974973032 0.002542121742125127
1820000000.0 0.011242398926163823 0.2004245449192121
1840000000.0 0.20611180469542326 -0.020672979169406573
1860000000.0 -0.07207297055265155 -0.19700789585232498
1880000000.0 0.0005669454391106726 -0.19914786166892326
1900000000.0 -0.18968033176975874 -0.0285866614653958
1920000000.0 0.06457184371537114 -0.17039033063951015
1940000000.0 -0.02166462160414932 -0.17252933984036345
1960000000.0 -0.16590258842497063 -0.012749415573300548
1980000000.0 0.1362359320204921 0.08183744246010526
2000000000.0 -0.1439527077231701 -0.031623691615419586
2020000000.0 0.08158412192825983 0.1058613728235615
2040000000.0 0.09613925798405552 -0.090156544472227
2060000000.0 0.12222168600765965 -0.03290442271933869
2080000000.0 -0.11576341915157023 0.03491015593139337
2100000000.0 -0.0582291484308875 0.1026235473769114
2120000000.0 -0.008464123344399988 0.11179999285560707
2140000000.0 -0.10409430994710185 0.02491266297958956
2160000000.0 0.10987198641809533 -0.012183884767190968
2180000000.0 -0.015683814131996807 0.10753567715123627
2200000000.0 0.07020267011876768 -0.08358372239760468
2220000000.0 -0.10747850006920706 0.009205396369756072
2240000000.0 -0.0896587712368925 0.06413855994939949
2260000000.0 0.02901016417912124 0.10997950147618389
2280000000.0 0.07223628928285583 -0.09060032592260645
2300000000.0 0.10634175520245978 0.045418374564462106
2320000000.0 0.014277052517677948 -0.11223064370583886
2340000000.0 0.0005188704751499952 0.11755914537781845
2360000000.0 0.07709943820515912 0.09092752403586292
2380000000.0 0.11880200733588717 0.02273576930662263
2400000000.0 -0.07167671405143579 -0.10043769888696431
2420000000.0 0.06403457296487065 -0.10669365532785319
2440000000.0 0.11988396959299236 0.039852335061940115
2460000000.0 0.08767802313167898 -0.09900196800794149
2480000000.0 0.13428487584138948 0.0006222045219787472
2500000000.0 0.004500486050374884 0.13627095467934092
2520000000.0 -0.026231806496149698 -0.14021814426008852
2540000000.0 0.046175398223450154 0.14643422866615996
2560000000.0 0.14514779742829392 -0.06336396978571923
2580000000.0 0.1498623076928136 -0.06907682804250591
2600000000.0 0.040810749541514174 -0.16862835821585379
2620000000.0 -0.05039034290519683 -0.17073537174357795
2640000000.0 -0.1689320636622155 -0.06456311851023809
2660000000.0 -0.06430791495575952 0.1667409597613827
2680000000.0 0.08493860327888088 0.14558018597959269
2700000000.0 0.1134671657466157 0.1154695499741236
2720000000.0 -0.062282926751390785 -0.14395630444149166
2740000000.0 0.14072501766369966 -0.047101079238996285
2760000000.0 0.08122578377580546 0.11254859451775834
2780000000.0 -0.021962588598086745 0.12846565770859214
2800000000.0 -0.016520913491432233 -0.12457954379891562
2820000000.0 -0.11115393414320539 0.060936811869579555
2840000000.0 0.0943256130235435 -0.09384304205975992
2860000000.0 -0.1301122475357306 0.043135696305128306
2880000000.0 -0.14450814109411386 -0.004396505950733198
2900000000.0 0.04804917379151372 -0.14639001302624285
2920000000.0 0.15602441807686765 0.05078176220164897
2940000000.0 -0.16938592579039352 -0.03182946058107314
2960000000.0 0.17367871947269953 0.04512490297131725
2980000000.0 -0.16386555452996399 -0.09003618585614205
3000000000.0 0.15417829404216207 -0.11119365210843997
3020000000.0 -0.13521516101245734 0.13215453457201606
3040000000.0 0.09146923377162436 -0.16274986406248906
3060000000.0 0.08279470593430391 0.16258218070017674
3080000000.0 -0.1442033856447725 0.10358350547782602
3100000000.0 -0.16426322008030525 -0.04657064561939512
3120000000.0 -0.11516701213861918 0.11547590182717204
3140000000.0 0.15383321936637306 0.0202564122694323
3160000000.0 -0.04007959509605918 -0.14415914655531603
3180000000.0 0.0871835939034232 0.11881915014758265
3200000000.0 -0.13677201948043477 0.06281003243049162
3220000000.0 0.12004703681347176 0.0968913523890624
3240000000.0 0.003059019811053269 -0.15991858578057375
3260000000.0 -0.0661859254764793 -0.15484155237569552
3280000000.0 -0.09787062532031776 -0.14864981886692774
3300000000.0 0.06601735067656223 -0.17541109514324185
3320000000.0 0.13392329315970364 0.14007561352831543
3340000000.0 -0.15178685870089173 -0.1316148136537976
3360000000.0 0.07992090460850042 0.1912062745954927
3380000000.0 0.07856889071590115 -0.1969477941518333
3400000000.0 -0.21413025902156224 -0.005254840360961767
3420000000.0 0.1759653491302055 0.1280011761243776
3440000000.0 -0.16134287729397018 -0.14789812548369632
3460000000.0 0.17787814879602828 0.12481107050997658
3480000000.0 -0.18256323036291414 -0.11084740313801573
3500000000.0 0.20544941778553674 -0.03224171733174113
3520000000.0 -0.002498624704910797 0.20381466596577494
3540000000.0 -0.13786607761486838 0.13810837314981225
3560000000.0 -0.14216315459401124 0.1204923855557771
3580000000.0 -0.1191558781725919 0.1339129693940673
3600000000.0 0.12223510667564737 0.12909767774124567
3620000000.0 0.12996660510049116 -0.12158060606823318
3640000000.0 -0.04297665474597729 0.1755744553254418
3660000000.0 0.023917050712424833 -0.18420814849543085
3680000000.0 -0.14120800929627367 0.13524498513126837
3700000000.0 0.08147726562325042 0.19270857538843017
3720000000.0 0.07311489241324788 0.21429469785846986
3740000000.0 -0.1849211167178888 0.1563633672799013
3760000000.0 -0.24687952717827877 -0.08193702987880633
3780000000.0 0.1368342830553952 -0.23998995075233437
3800000000.0 -0.15814919497593258 0.23790867803518187
3820000000.0 0.22221844472976085 -0.1941875215570226
3840000000.0 -0.2988411536735176 0.01876851819798696
3860000000.0 0.2622846677584162 0.14010911476851395
3880000000.0 -0.12370842567758937 -0.26292839085962627
3900000000.0 -0.1456752946809761 0.23975015524675744
3920000000.0 0.15261565269891986 -0.21630516804334798
3940000000.0 -0.11115542460132177 0.21720360525080626
3960000000.0 -0.20246274514286774 -0.08677671892811797
3980000000.0 -0.19331166064815497 -0.006271718948259046
4000000000.0 0.1005373105544174 0.13118539751926833
