!Created with skrf (http://scikit-rf.org).
# Hz S RI R 50.0 
!freq ReS11 ImS11
400000000.0 -0.3624138317680494 0.34870077941204747
420000000.0 0.07894024471810017 0.5133216016222375
440000000.0 -0.08024084371865552 0.4078209713498846
460000000.0 -0.13407442812130144 -0.31381449553639834
480000000.0 0.2803209121625097 0.08552581691231086
500000000.0 -0.30804994027685195 0.047935007900283585
520000000.0 0.005347320725830498 -0.2844854015899189
540000000.0 -0.16664130516422032 -0.13778270500546566
560000000.0 -0.17934788040962066 -0.21718481492227718
580000000.0 0.004061477136293032 0.267847178108515
600000000.0 0.1065632662854018 0.33876971091174307
620000000.0 -0.3255091331212832 -0.0528073448461517
640000000.0 -0.20063053000036749 0.21040132571194436
660000000.0 0.2716031148064032 0.05882483566185349
680000000.0 -0.06936131935275255 -0.2644036450553066
700000000.0 -0.10504970635909928 -0.19995561851326143
720000000.0 -0.19119182327980097 -0.06340417958912944
740000000.0 -0.15314601590078253 0.1288923166432459
760000000.0 0.046129201741690516 0.1938883426405569
780000000.0 -0.1569092737334633 -0.12619585170903966
800000000.0 -0.15605220390868302 0.1348194385209833
820000000.0 0.150775458296039 0.10400727395579475
840000000.0 -0.11224105607835336 0.0780149520901066
860000000.0 0.06014607956738683 -0.032696072607757524
880000000.0 0.004981463035070221 0.0689109975050473
900000000.0 0.08978633158032255 -0.03324490837899496
920000000.0 0.08027503409670247 -0.014470783655875587
940000000.0 -0.03993013936333298 0.03672714176502705
960000000.0 0.051605610851425184 0.004827974296478871
980000000.0 -0.04327905432230359 0.022939228645103848
1000000000.0 -0.03661571434361932 -0.05699985637377628
1020000000.0 0.09983367487862464 -0.020794067509542217
1040000000.0 -0.11392132497565909 0.06431308428488669
1060000000.0 0.08944726433774752 -0.14577570988198574
1080000000.0 0.20850195838106866 0.041493265344138296
1100000000.0 0.20045705613444498 -0.13187419116974758
1120000000.0 -0.21899296356587325 0.06492830783378452
1140000000.0 0.011126912588316317 0.24747889128116174
1160000000.0 0.040901364374771265 -0.2776402575783196
1180000000.0 -0.25462691862768366 0.13517787717865945
1200000000.0 -0.26263605017465547 -0.06342187083681539
1220000000.0 0.24530474717004094 -0.12326052263845351
1240000000.0 0.08156676511715029 -0.2530200642326131
1260000000.0 0.0810000899802005 0.24808621013533946
1280000000.0 0.18498360270675585 -0.13343406613636755
1300000000.0 -0.20692973754441737 -0.012972190256612458
1320000000.0 -0.18399117404115914 -0.07791482605488441
1340000000.0 0.18052642386357917 -0.068352920645517
1360000000.0 0.18219461852851415 0.015646615080229416
1380000000.0 -0.03612908310381481 0.17926158575189974
1400000000.0 0.032220971329652015 0.16673611724102416
1420000000.0 -0.0878163290050582 0.1691303851272806
1440000000.0 0.10569468773681522 -0.17247431169379715
1460000000.0 -0.09521078551474128 -0.17535252603868026
1480000000.0 -0.09797473157396572 -0.14739320063299394
1500000000.0 0.054509320658752906 0.14373014448317945
1520000000.0 0.027081268000768342 0.14305041431003185
1540000000.0 -0.13071888249322888 -0.001695514537151441
1560000000.0 0.013549184559545515 -0.11544896665083744
1580000000.0 -0.08897497075381913 0.10089167181003364
1600000000.0 0.12632639362961195 0.04900663216931196
1620000000.0 0.10347221599763466 -0.048472325910084636
1640000000.0 0.06111335417468259 -0.08440645007508524
1660000000.0 -0.10053155223339084 -0.049818042224996285
1680000000.0 -0.12131600122808163 -0.048955871811384014
1700000000.0 -0.009338401934486209 0.14759724331149782
1720000000.0 0.13013618147700956 -0.07442489470087436
1740000000.0 0.03192830536956494 -0.1355057263505156
1760000000.0 0.04395281251041322 -0.13865048566201066
1780000000.0 -0.1654863721768376 0.023930704832860673
1800000000.0 0.06129332965560438 0.17231300546954245
1820000000.0 0.10474318133328901 0.15716840444230168
1840000000.0 0.1781513186501263 0.10460664970464717
1860000000.0 0.17504168040089108 0.11993759607829924
1880000000.0 0.21349947016016604 -0.03730674243928735
1900000000.0 0.09750050550339748 -0.1913874761480106
1920000000.0 -0.013479881330886177 -0.21307626583614186
1940000000.0 -0.15554584993347437 0.14355029780301487
1960000000.0 -0.1490302940282727 -0.13554181043582958
1980000000.0 0.18485378987714876 0.03729735227572271
2000000000.0 0.1676991120754039 -0.04436538317471164
2020000000.0 -0.15061067115850443 0.023121992085069255
2040000000.0 0.13753031923806655 0.04334352319975158
2060000000.0 0.11625041912144514 0.07687575931050569
2080000000.0 -0.13066936520416736 0.03109522858459471
2100000000.0 0.01578041185909079 -0.11945462955334725
2120000000.0 -0.009660204688913994 0.10801868584867169
2140000000.0 -0.0743814958325495 -0.0774304725780552
2160000000.0 -0.10352426889835792 -0.03423487327017587
2180000000.0 0.08968635762361037 0.07235726862850654
2200000000.0 0.057888117607820484 0.10132348027389002
2220000000.0 0.007244139523817849 -0.11402488112268072
2240000000.0 0.08012868200349399 -0.08756140588450904
2260000000.0 -0.11616650293897092 0.04150367968084572
2280000000.0 -0.04724018213674067 -0.11430340440986958
2300000000.0 0.028507166722903463 0.11335826544564115
2320000000.0 0.08504276745203304 0.07737514725024178
2340000000.0 0.003302545571404784 -0.11593682600849367
2360000000.0 0.038618554128101334 0.11517724323340953
2380000000.0 -0.12037146132736734 -0.048414977580134785
2400000000.0 -0.1025977675111414 -0.07192484827552963
2420000000.0 0.06040242361719448 -0.10070974525530421
2440000000.0 0.054548855800251775 0.10300216505960244
2460000000.0 -0.027183999504583473 0.1153231917707273
2480000000.0 -0.09012431001267884 -0.07750691143025926
2500000000.0 0.08334178917555023 -0.09106039494259431
2520000000.0 -0.12107046271891476 0.04207505695512849
2540000000.0 0.0048353979094944485 0.14129984294746667
2560000000.0 -0.043218737049994675 -0.14477180937741135
2580000000.0 -0.15765240831278224 -0.019090001606156204
2600000000.0 -0.08430667299690596 0.13919431818195205
2620000000.0 -0.16009825258332525 0.03629298930170488
2640000000.0 0.10552321910782163 -0.13148275873005805
2660000000.0 0.13425529887073318 -0.11544296143607453
2680000000.0 -0.08799819750237217 0.15271623671685128
2700000000.0 0.05822503201780769 -0.15304118710464706
2720000000.0 -0.08571500246713493 -0.12161242180874644
2740000000.0 -0.1258364964516853 0.06520040419541297
2760000000.0 0.06553413524452843 -0.11857305161488989
2780000000.0 0.0790671942863128 -0.10240162277319657
2800000000.0 0.03640702936947301 -0.11620723245457212
2820000000.0 -0.11327877349001393 0.009701320990148282
2840000000.0 0.050436430929308114 0.10227183123767755
2860000000.0 -0.07703017561188226 0.08980298686472338
2880000000.0 -0.1309227379915269 0.002787260499163146
2900000000.0 -0.14219093573612504 -0.0332533307777176
2920000000.0 -0.038914399304303134 -0.1499229244688673
2940000000.0 0.01434603052105902 0.16696383004406776
2960000000.0 -0.14425243127154 -0.10849791401165818
2980000000.0 0.1888942263477394 -0.018924618369109657
3000000000.0 -0.022052097633916974 0.1949351736703958
3020000000.0 -0.06027237291137555 -0.18850571438618333
3040000000.0 0.1801095103720814 0.09522203586470315
3060000000.0 0.19914625891495785 0.048733208594244064
3080000000.0 0.1534465919621483 -0.12267273342666471
3100000000.0 0.17652488065377933 0.05830988053029046
3120000000.0 0.16060724728606435 -0.08405518143719617
3140000000.0 -0.17482841902383867 0.009817695816100744
3160000000.0 0.14573671849115938 -0.08901930792879706
3180000000.0 0.11384735624562664 0.12164367737992651
3200000000.0 0.040490041416697126 -0.15761209092657014
3220000000.0 -0.12893106340031987 0.09880829973319451
3240000000.0 0.11836655679427867 0.12036395182794596
3260000000.0 0.12048569452098333 -0.1264315825556131
3280000000.0 0.09838062546137681 -0.14942889953544503
3300000000.0 0.059335770889469536 0.17338782927433913
3320000000.0 -0.0923520244949826 -0.16870608764313053
3340000000.0 0.19723868162993216 -0.04241841435551785
3360000000.0 -0.14337234190165374 0.14411161104717968
3380000000.0 0.17868072605981683 0.10063166023486861
3400000000.0 -0.04871907147345091 -0.19974947276335014
3420000000.0 -0.1193806486138014 0.1664979870524677
3440000000.0 0.19871924554455683 0.04266692705271019
3460000000.0 -0.10808087155124713 -0.17245106298125923
3480000000.0 0.03289681291983584 0.19507662039865564
3500000000.0 0.14762909892156922 -0.1250388373018158
3520000000.0 -0.0732939022862202 0.17750993550126645
3540000000.0 -0.18788521670260344 -0.015379338480120729
3560000000.0 -0.17443178459957862 -0.051685341171766465
3580000000.0 -0.17311316205417426 0.020271690822199342
3600000000.0 -0.16456195621922753 0.03594128283717859
3620000000.0 -0.159648732725512 -0.0636894163290997
3640000000.0 0.11591030507920726 0.13656931181222787
3660000000.0 -0.15488530888668803 -0.10679935329259863
3680000000.0 0.17566419695618385 0.09743358943434469
3700000000.0 -0.09160453214828061 -0.19414094416090397
3720000000.0 -0.18058137975272964 -0.14149080612509288
3740000000.0 0.0768818216690814 -0.23630754369679044
3760000000.0 0.053857828641623355 -0.2616826868504579
3780000000.0 0.2731545705469528 -0.07891846315323736
3800000000.0 -0.06194531722630044 0.2877307649264314
3820000000.0 -0.012767468951379741 -0.2993486909616106
3840000000.0 -0.14526069710741718 0.2646239570419174
3860000000.0 0.2560236197590043 -0.1564506873689418
3880000000.0 -0.29436176173881706 0.008835714350059545
3900000000.0 0.2590975127558935 0.11643248692599265
3920000000.0 -0.21043688191749713 -0.16475859050620592
3940000000.0 0.22753759935688175 0.09774839380480177
3960000000.0 -0.17376691422205362 0.14072718328171424
3980000000.0 -0.2015513283315256 0.0037630203314366717
4000000000.0 0.16964895274043834 0.05528569036759571
