!Created with skrf (http://scikit-rf.org).
# Hz S RI R 50.0 
!freq ReS11 ImS11
400000000.0 -0.015272371642615721 0.6158624409155733
420000000.0 -0.522605860922099 0.18401677630214083
440000000.0 0.01445931308653251 0.4725192361850033
460000000.0 -0.1380817522916198 -0.3634507145680485
480000000.0 -0.18958109361063158 0.3730177214811312
500000000.0 0.013623437271495235 0.4539470154130728
520000000.0 0.13616269276565676 0.4707926082729307
540000000.0 -0.4123564683887628 -0.2575150482158598
560000000.0 -0.3772629086833076 -0.17565532372647186
580000000.0 -0.29718266475117755 0.1912185431506867
600000000.0 -0.12305509882770718 -0.22475949650108706
620000000.0 0.07788593381087613 -0.13941110283655567
640000000.0 0.07208037280604515 0.16263437912106798
660000000.0 -0.06343963945335224 -0.11609403787589867
680000000.0 0.0024749579094417947 -0.11181991833576611
700000000.0 0.08201518017954433 0.06275091676989199
720000000.0 0.09283092638798666 0.07975459912946084
740000000.0 -0.11388719979484586 -0.1300257640936882
760000000.0 -0.02061516605411919 0.18735417774539323
780000000.0 -0.20647072049591814 0.05772663854661949
800000000.0 0.20831301113956768 0.0929528625407826
820000000.0 0.046194755678421275 0.24011695138367087
840000000.0 0.0795393721375543 -0.24816203135158377
860000000.0 -0.24848104896134768 0.09458216344432452
880000000.0 0.2350110020980934 -0.11015760706479912
900000000.0 0.17533586268607493 0.17108729435073214
920000000.0 -0.17871017106899778 0.1585897760329496
940000000.0 0.1751786005429392 -0.14409475189646345
960000000.0 0.16673141108909348 -0.10403162509460433
980000000.0 -0.09600176969125122 -0.09265852874613553
1000000000.0 0.10094230299612857 -0.04436246824397209
1020000000.0 0.03190648793950186 0.07821854088202697
1040000000.0 0.08896433639378687 0.042671162974458304
1060000000.0 -0.05106790759653938 0.10425877610465482
1080000000.0 -0.10446645860509123 -0.09903977341842074
1100000000.0 -0.13708122470774603 0.12920706064896528
1120000000.0 0.2231595511418625 0.03895549175397959
1140000000.0 0.06795612140508947 0.23185359144670298
1160000000.0 0.23262381665113885 -0.0767309023542682
1180000000.0 -0.24174377760722993 0.06265069291910065
1200000000.0 -0.030421349446490133 0.25880421728925457
1220000000.0 0.061266005776425485 0.23740622986388504
1240000000.0 0.11334657898157412 -0.2037280157964896
1260000000.0 -0.09088527362703724 0.21914941818525727
1280000000.0 -0.2188821065595553 -0.09512769335842881
1300000000.0 0.16354252886586332 -0.18679617843359203
1320000000.0 0.23238801710555737 -0.10939243896351901
1340000000.0 -0.21564704123685477 -0.13987487983037925
1360000000.0 0.10994579899231562 0.25069286192459256
1380000000.0 -0.1917419056723249 0.20496246579171615
1400000000.0 -0.03521632784560397 0.26775134107815934
1420000000.0 0.1721667320062928 0.20929121228107228
1440000000.0 -0.18121975631007894 -0.17248254806953195
1460000000.0 -0.050534275484223165 0.25406014839076707
1480000000.0 -0.23960835599274297 0.0922070522641903
1500000000.0 0.23150001861078268 -0.1008017910665749
1520000000.0 -0.2540556126449867 0.04270144073562198
1540000000.0 -0.2553664881566884 0.06613372210612076
1560000000.0 0.13920154785523398 0.222693787820215
1580000000.0 0.14733418745197027 -0.21342992329023733
1600000000.0 0.0716126711751239 0.23529575953592416
1620000000.0 -0.23972359279200556 -0.0015098081499263457
1640000000.0 -0.20507361577456326 -0.11307948620411323
1660000000.0 -0.11039243412643251 0.19797611461525724
1680000000.0 0.20437341151493607 0.07977571468550973
1700000000.0 0.009606732615363588 0.20173376709619753
1720000000.0 -0.00925394649416728 0.18610039553167426
1740000000.0 0.1450427842299029 0.08721129490328836
1760000000.0 0.13646167328924177 -0.03609221614237232
1780000000.0 0.08164756676108705 0.07549339392267784
1800000000.0 0.03652088580884453 -0.05630821980379085
1820000000.0 -0.021950777512186645 0.01768627101253088
1840000000.0 -0.023746328222916897 0.025093685514672198
1860000000.0 -0.045334875123821214 -0.06023955588230242
1880000000.0 0.050972913685767215 0.10039262622422485
1900000000.0 0.040896725599210516 0.14819407313568336
1920000000.0 -0.13952939398960765 0.10631935308389981
1940000000.0 0.15040304875426805 -0.12749268427990051
1960000000.0 0.1323634384882075 -0.16579112600385457
1980000000.0 0.06479108465272775 -0.20392751989913355
2000000000.0 -0.09345723330929238 -0.20010201208455844
2020000000.0 0.1652632608213751 0.1424526235415014
2040000000.0 0.07531080564769801 -0.19117438838290643
2060000000.0 -0.18556057920482877 0.07137024666951435
2080000000.0 0.06630994050891151 0.18085075766493114
2100000000.0 -0.1270186643123631 0.14124824427988758
2120000000.0 0.11126673252075321 0.14921281893211907
2140000000.0 0.004118542106189038 0.17885188024478602
2160000000.0 0.09363126259632207 0.1450133604731425
2180000000.0 -0.15434486581354154 0.030838433699854558
2200000000.0 0.04092550552225313 0.1407635027210445
2220000000.0 -0.08862049306497842 -0.09900187725423693
2240000000.0 -0.10378365905652734 -0.03882300428569627
2260000000.0 -0.07706862048597006 -0.05212987557636183
2280000000.0 0.06884310549516101 -0.04654103676900995
2300000000.0 0.0655007263199863 -0.0023407800789144967
2320000000.0 -0.036917259577064196 0.027207638482628575
2340000000.0 -0.03804741372056961 -0.006147918650050712
2360000000.0 -0.008890801094493105 0.030899313902128276
2380000000.0 0.028661586071517118 0.004275756437313518
2400000000.0 -0.013481743449704113 0.03321344129558145
2420000000.0 0.0322473145097055 -0.007984568117384195
2440000000.0 -0.03212077489204648 -0.020428628176154606
2460000000.0 -0.04271537452472021 -0.0050089316188564
2480000000.0 0.0361178513625241 -0.02732092921055012
2500000000.0 0.036703319887742156 0.04327744295961008
2520000000.0 0.06735057996365323 0.018187966504263298
2540000000.0 -0.0043202037885366135 0.0861371107180068
2560000000.0 0.09030978561978241 -0.03927308012684078
2580000000.0 -0.10006882349215375 0.057481073897347246
2600000000.0 0.056453162047062314 0.11600799557965145
2620000000.0 0.09333696102262705 0.10947334124529842
2640000000.0 -0.0958212283488858 0.12383602505550884
2660000000.0 -0.15480651248721974 0.07667920678322365
2680000000.0 0.0028019130209586433 0.1855068242958478
2700000000.0 0.19300741908941071 0.023191088247032317
2720000000.0 -0.13088170385698988 -0.1570489358405904
2740000000.0 0.20911157339820666 -0.02357217832279785
2760000000.0 0.21637423157483499 0.0021613970646037354
2780000000.0 0.14600773435173842 -0.16582229243828353
2800000000.0 -0.018973034572321603 -0.2254613890939993
2820000000.0 -0.1972636765255597 -0.12204401503590095
2840000000.0 0.08986776784756272 -0.22341467046968128
2860000000.0 0.17411960575856356 -0.17590685308892925
2880000000.0 0.25815018937990414 -0.015991574428230293
2900000000.0 -0.22490945615091287 0.1465562867441377
2920000000.0 0.09148685496274683 -0.25779113156486605
2940000000.0 -0.2545332808455875 0.09454458837913327
2960000000.0 -0.06957278187777255 0.25670559551013883
2980000000.0 0.02666586154889271 0.256854195610937
3000000000.0 -0.04785419234313624 0.23980838918752267
3020000000.0 -0.12112483050230176 0.19464003566121857
3040000000.0 -0.19422835801896757 0.07418378254781192
3060000000.0 -0.04298944746593984 -0.18108173033320812
3080000000.0 0.1520198340022875 0.07280268317714843
3100000000.0 -0.1440286698950661 -0.03428393021052828
3120000000.0 0.06982740803845203 -0.11728821138511382
3140000000.0 -0.056736766660508135 -0.10998373718694283
3160000000.0 -0.0016424340833703405 -0.11547439612634197
3180000000.0 -0.07593220332983563 -0.07655236453090199
3200000000.0 -0.03119798407200792 0.09678013249449463
3220000000.0 -0.10540900973645692 0.005284235475676702
3240000000.0 0.07456298864702413 -0.08299486741996474
3260000000.0 -0.11307306525746212 0.04579503060042749
3280000000.0 0.1118530489774968 -0.07792775278807974
3300000000.0 -0.14346680855610117 0.05473368930419116
3320000000.0 0.08948052001296022 -0.14900094038111922
3340000000.0 0.1540128021172706 0.11813636186027429
3360000000.0 -0.009838157994707353 0.20976071654324982
3380000000.0 -0.21425809294228018 0.05122827556034782
3400000000.0 0.16546119607684495 -0.15299482208508433
3420000000.0 0.20390577113644762 0.1005167174179859
3440000000.0 -0.006694002029875346 0.224070304638074
3460000000.0 -0.10274869569682463 -0.18971186065942913
3480000000.0 0.17669792316230867 0.10876030561607979
3500000000.0 -0.19390341420322124 -0.037928309453262476
3520000000.0 0.1557474096849386 -0.10300249307404413
3540000000.0 -0.003453074470435529 0.1741049680974775
3560000000.0 -0.15978035892553924 -0.04346494178733098
3580000000.0 -0.09900222421799589 -0.12347679980915419
3600000000.0 -0.1477787480491586 0.044941982282595765
3620000000.0 -0.13541186038323322 0.06919772245721353
3640000000.0 0.10717107952358282 0.11095217769893248
3660000000.0 -0.08245650328137806 -0.14045242605551975
3680000000.0 0.059097995030882006 0.16380752219751318
3700000000.0 0.038454666770134996 -0.1849226730405642
3720000000.0 -0.016020394295317587 -0.2021664822769759
3740000000.0 0.21072859263600602 -0.06291207309156525
3760000000.0 0.046975510036542094 0.23454566322565948
3780000000.0 -0.250565547817549 0.061398547784763856
3800000000.0 0.11343373535914075 -0.24437727920714766
3820000000.0 -0.09853617619587617 0.25667572009090955
3840000000.0 0.2385304487052878 -0.14411805774366623
3860000000.0 -0.27188455666296135 -0.04703190251424712
3880000000.0 0.1326915754190409 0.2390800620220271
3900000000.0 0.01087056528323542 -0.2656704559503373
3920000000.0 0.11321498085481338 0.22588801272348763
3940000000.0 -0.23055565541267417 0.0405584556922162
3960000000.0 -0.1382022072415158 -0.1589200968656841
3980000000.0 -0.08839487693204819 0.16621707952994758
4000000000.0 -0.1364249312090153 -0.09014485107694788
