!Created with skrf (http://scikit-rf.org).
# Hz S RI R 50.0 
!freq ReS11 ImS11
400000000.0 -0.015588801713241852 0.606869464264128
420000000.0 -0.5574635221453812 0.013488607105394616
440000000.0 0.10312143045113528 0.470169074671439
460000000.0 -0.3201463586259678 -0.22340934583475783
480000000.0 -0.04444430888968427 0.40503553636552736
500000000.0 -0.41061535625466034 0.18753816354065422
520000000.0 -0.29576557943607773 0.3946569202517593
540000000.0 -0.25853561212874165 -0.41661519413409276
560000000.0 -0.41220414165654534 -0.07677089951472421
580000000.0 -0.30498249761168206 0.18485499221332397
600000000.0 -0.19274829505723273 -0.16612745445184465
620000000.0 0.11720329696551167 -0.11260197667204888
640000000.0 0.09759649368261386 0.14885985666740667
660000000.0 -0.0010557511075959928 -0.1334303244048855
680000000.0 -0.03593547520347991 -0.10649392208021766
700000000.0 0.10448423477198605 -0.0037523250399245575
720000000.0 0.12178681247064531 0.01730381678036648
740000000.0 -0.1676338764000126 0.025867127687851082
760000000.0 0.07033181768659766 0.17057488964988948
780000000.0 -0.2011440682076611 0.06630824349065441
800000000.0 -0.019265582052471742 0.22649242029112057
820000000.0 0.03372665112644636 0.24358710059662608
840000000.0 0.19449817742139552 -0.17802525134490935
860000000.0 -0.2628624746037789 0.04939407794830892
880000000.0 0.21975558157312322 0.14110238207561562
900000000.0 0.11417248840499007 0.22352166350619562
920000000.0 0.07078310063495095 0.23101508815948035
940000000.0 -0.21527384243922715 0.06552555382983972
960000000.0 -0.1879622280897602 0.024079972761152486
980000000.0 -0.10427151699119165 0.07188545509927237
1000000000.0 0.09608098659039256 -0.028159782790015284
1020000000.0 -0.06408597071212703 0.052032973395050135
1040000000.0 0.02209085633306164 -0.0969284430121376
1060000000.0 -0.07530800034023644 0.09073522208829994
1080000000.0 0.14705474129647503 0.008363466293670612
1100000000.0 -0.060064059052282195 0.1835896914792252
1120000000.0 0.17601440926954537 -0.14356026977111627
1140000000.0 0.21358278344398324 0.10838029246548993
1160000000.0 -0.010341215798845017 -0.24587672432053728
1180000000.0 -0.04296171412158367 0.24253314639565707
1200000000.0 -0.012514184346768277 0.2539800776167256
1220000000.0 -0.10914758854169296 0.21720746244654643
1240000000.0 0.23561863061937383 0.007664964901075022
1260000000.0 -0.19775630671074002 0.1391352660773044
1280000000.0 -0.23214130850818804 -0.059307643595490483
1300000000.0 0.2072663721188312 -0.13708054206126535
1320000000.0 0.20674735024002786 -0.15502643033335262
1340000000.0 -0.20620940520648554 -0.152881192538599
1360000000.0 0.19499090183376033 0.18726407277244986
1380000000.0 -0.23944081329627062 0.1369710209238977
1400000000.0 -0.1185301672918284 0.24015574667105358
1420000000.0 0.007004426522433782 0.2699060493250527
1440000000.0 -0.12072927992563863 -0.2205794908688136
1460000000.0 0.08438830983523923 0.24597962917172864
1480000000.0 -0.20377691615201013 0.1563948757885709
1500000000.0 0.12097205248053652 -0.22058624877998434
1520000000.0 -0.23631678072981144 0.099445876029735
1540000000.0 -0.26214087872563197 0.028799985083712464
1560000000.0 0.1324607074750288 0.22679996326343566
1580000000.0 0.12368138601946262 -0.22840401893717127
1600000000.0 0.038045312707832644 0.24309029506120178
1620000000.0 -0.23091839533456943 -0.06620045471914696
1640000000.0 -0.19624361329152445 -0.1295027431381959
1660000000.0 -0.15124891257296696 0.16874074193884908
1680000000.0 0.20077066678150654 0.08777774406617857
1700000000.0 0.009806205313592897 0.20118167129722633
1720000000.0 -0.05025444712558681 0.17880559358116427
1740000000.0 0.1319505097520787 0.10624766542861927
1760000000.0 0.10875246520885958 -0.08844118804443281
1780000000.0 0.0971522977061141 0.05229848128483997
1800000000.0 -0.0024826016710803836 -0.0661194986340407
1820000000.0 -0.02653787211845005 -0.008356007317179361
1840000000.0 -0.0018310223679185089 0.03362760162795884
1860000000.0 -0.031877868964568845 -0.06720146070110894
1880000000.0 0.020874719913455193 0.11101684740570722
1900000000.0 0.055283515356257605 0.14320393915733606
1920000000.0 -0.10952008283075869 0.13739682612006576
1940000000.0 0.1283511811994357 -0.14838841166244213
1960000000.0 0.1258275590709129 -0.17124457902878384
1980000000.0 0.025680376732132516 -0.21329346456505194
2000000000.0 -0.12649683144242355 -0.18109319237212676
2020000000.0 0.16696320641560644 0.1407247330364122
2040000000.0 0.0847837229563587 -0.1875674136564011
2060000000.0 -0.1974461237074322 0.023969760292047244
2080000000.0 -0.00447730796409702 0.19245908525288744
2100000000.0 -0.1523835633490452 0.11340317931632769
2120000000.0 0.104246517704838 0.1545364035655546
2140000000.0 0.04813287489704577 0.1717593849046092
2160000000.0 0.12195832679548665 0.12082533701867608
2180000000.0 -0.14676578470007828 0.05517695633522719
2200000000.0 0.02268831278385919 0.14394487209070195
2220000000.0 -0.0655597799198202 -0.11627678810179322
2240000000.0 -0.10693154140930648 -0.028764426484119737
2260000000.0 -0.0795004850569839 -0.04929644197544498
2280000000.0 0.0231624698728806 -0.08020582953983109
2300000000.0 0.06597585315645493 0.005863849268149273
2320000000.0 0.011094954721527755 0.0441071341475364
2340000000.0 -0.03766155342990918 0.005827836831236905
2360000000.0 0.013609279007209872 0.029139503345958738
2380000000.0 0.011110583259093046 0.027019493642163318
2400000000.0 -0.009018374173450295 0.03497448592411353
2420000000.0 0.028043120102438368 -0.01887704013789777
2440000000.0 -0.034268220808827694 0.016833952482583188
2460000000.0 -0.029586260990120825 0.031432938962435
2480000000.0 0.021761291656495856 -0.03974013866260445
2500000000.0 0.03330359871048133 0.04628374067972075
2520000000.0 0.06948312155928466 -0.001099105178880336
2540000000.0 -0.00936570948501558 0.08610899312946298
2560000000.0 0.0948667252596355 -0.027255372854579504
2580000000.0 -0.11185952183483718 0.02953555699980751
2600000000.0 0.009701447326788301 0.12862341138459735
2620000000.0 0.09473060502182473 0.10902323678506382
2640000000.0 -0.10063037944283794 0.12010296711242717
2660000000.0 -0.14655838476408503 0.09114099154358532
2680000000.0 0.011571511241914805 0.18468558637199445
2700000000.0 0.19401289327257285 0.004080540106381577
2720000000.0 -0.12457984136016088 -0.1614747706403672
2740000000.0 0.20945922719619184 -0.02352328572571188
2760000000.0 0.21621030314412745 0.013301056497484665
2780000000.0 0.16143840338024568 -0.15135173587194822
2800000000.0 -0.007003465953327828 -0.22630848858205385
2820000000.0 -0.17304200286991342 -0.15516082502675968
2840000000.0 0.08609091669343595 -0.2254496409342407
2860000000.0 0.1458770657732143 -0.20105240575897873
2880000000.0 0.2557492448923087 -0.03900900741343779
2900000000.0 -0.2255913209105581 0.14382823552460577
2920000000.0 0.10732105375314914 -0.25083806120561536
2940000000.0 -0.252783393791173 0.09771502298443537
2960000000.0 -0.0742667790886225 0.2547656714154636
2980000000.0 0.025702869017234252 0.2565965239477211
3000000000.0 -0.06656791238130406 0.2348117542310426
3020000000.0 -0.1471413055643375 0.1757278052577388
3040000000.0 -0.20902654866396642 -0.0007465774883931114
3060000000.0 -0.10086468671303928 -0.15632448764215756
3080000000.0 0.1501853295855818 0.07508577758928593
3100000000.0 -0.1461664183195665 -0.01911738080225438
3120000000.0 0.10791212325361979 -0.0831010616429673
3140000000.0 -0.037191828629845755 -0.11755598124246915
3160000000.0 0.011460138480092202 -0.1142949073174018
3180000000.0 -0.05320530748118454 -0.09300444373979484
3200000000.0 -0.031006901358439653 0.09680788665880369
3220000000.0 -0.09890380592224433 0.03784568270600587
3240000000.0 0.048179683692213926 -0.09989668316065577
3260000000.0 -0.0991234943696067 0.07078178621987714
3280000000.0 0.10102186546928829 -0.09215204435199888
3300000000.0 -0.14552625820564283 0.04995402897831734
3320000000.0 0.09051645469070445 -0.1491189360224491
3340000000.0 0.15075696897471577 0.12265753317747671
3360000000.0 0.02007996234649778 0.20913045296009122
3380000000.0 -0.2179579062857727 0.032607309465161514
3400000000.0 0.1652072019496857 -0.15306681523288002
3420000000.0 0.20994372370813336 0.08513322974649042
3440000000.0 -0.037966951669400235 0.22034538746706003
3460000000.0 -0.09505240530131576 -0.1927163447201898
3480000000.0 0.12902473824572824 0.1617028946444018
3500000000.0 -0.1957293442245998 -0.02284588467198768
3520000000.0 0.18026250587873618 -0.0457493484673305
3540000000.0 0.017290131813763147 0.17244139407481823
3560000000.0 -0.16313160629891454 -0.023384785056297187
3580000000.0 -0.11638466892307131 -0.10723628067787616
3600000000.0 -0.12766028377109673 0.08701081158260143
3620000000.0 -0.12613408313604127 0.08521072216874913
3640000000.0 0.12017197106807552 0.09766261889926105
3660000000.0 -0.09157479754399775 -0.135489673323051
3680000000.0 0.04569164298103532 0.16870607934145293
3700000000.0 0.07160260476194309 -0.17570609954623626
3720000000.0 0.0700930420790927 -0.19162350549753995
3740000000.0 0.21968080741733373 0.012877927648925043
3760000000.0 -0.01975231130890828 0.2379654998405092
3780000000.0 -0.2545757193591249 0.035755935619561995
3800000000.0 0.13140505554617157 -0.23428294547813075
3820000000.0 -0.05641691905506008 0.26802940152026505
3840000000.0 0.24801675218625782 -0.12509874926020265
3860000000.0 -0.2752586605699269 -0.0008451614577649277
3880000000.0 0.1905982988546323 0.19501210225048826
3900000000.0 -0.04855583619427838 -0.2611602644895819
3920000000.0 0.13664936902324637 0.21292478175341797
3940000000.0 -0.20206023496221673 0.12101966700987468
3960000000.0 -0.14103890795445492 -0.15816110531988017
3980000000.0 -0.09785753850891463 0.16255800703178105
4000000000.0 -0.09332909182371239 -0.1359194791834025
