!Created with skrf (http://scikit-rf.org).
# Hz S RI R 50.0 
!freq ReS11 ImS11
400000000.0 0.07394366032765409 0.6025722255221019
420000000.0 -0.5583113580237624 -0.0043326761039687404
440000000.0 0.055668639509512896 0.47668110420275367
460000000.0 -0.23319755026159097 -0.317200340807713
480000000.0 -0.15461646593797895 0.37587140704751587
500000000.0 -0.37821797222316855 0.2421509592671816
520000000.0 -0.3086995411743026 0.3847727404495726
540000000.0 -0.3347971526055972 -0.3553514302285183
560000000.0 -0.4139996939108896 -0.06766266154955883
580000000.0 -0.3094933804576076 0.17614480798559565
600000000.0 -0.16873853557749488 -0.1905492474785338
620000000.0 0.11719834776545249 -0.11202558424587311
640000000.0 0.16185645852830605 0.0753269767160162
660000000.0 0.0785661784735201 -0.10590041676633694
680000000.0 -0.09809780407028575 -0.05421867876018597
700000000.0 0.10058992244535475 0.025387388669827256
720000000.0 0.10351284693976551 0.06595195368208817
740000000.0 -0.16932109424891265 0.0005338536988300551
760000000.0 0.117354824335114 0.14206309488127639
780000000.0 -0.19758690291736927 0.07674376726567751
800000000.0 -0.007257118915781589 0.22754304368660513
820000000.0 0.06185631712713565 0.23959960252693968
840000000.0 0.24023021082067275 -0.10707720914727761
860000000.0 -0.2633321625229614 0.04169673647778089
880000000.0 0.2529714900645498 0.062490295448355555
900000000.0 0.09390669049281306 0.23433647640561167
920000000.0 0.07589825781948224 0.23099465828870872
940000000.0 -0.20131878558659283 0.10580930746369886
960000000.0 -0.1835870190616707 -0.03853654007574271
980000000.0 -0.12413150270387895 0.028409764257938713
1000000000.0 0.04278344862806652 -0.08846593871648963
1020000000.0 -0.06498146888592016 0.05059236768667391
1040000000.0 0.06071742549770438 -0.07870928725922026
1060000000.0 -0.10669306031322684 0.053116517169256056
1080000000.0 0.08421153737730641 -0.12084935655743764
1100000000.0 -0.12254765744000984 0.15171467984968365
1120000000.0 0.16637832235605166 -0.15666262926247398
1140000000.0 0.20246604784381764 0.12858563302000126
1160000000.0 0.05763229572942956 -0.2395711573713359
1180000000.0 -0.0936787659674081 0.22795121980754804
1200000000.0 -0.05312104587075745 0.24863903365007628
1220000000.0 -0.14479615669291382 0.19483990783074356
1240000000.0 0.23237257907732975 -0.033273960284474054
1260000000.0 -0.16696391846064587 0.17420050200511528
1280000000.0 -0.21894547498000336 -0.09530491438388333
1300000000.0 0.14580739662843134 -0.2012506291023693
1320000000.0 0.18527722136873637 -0.1806297798043517
1340000000.0 -0.25308488565525883 -0.04406149407412689
1360000000.0 0.22215674450165748 0.1551746195925865
1380000000.0 -0.2450774340573216 0.12902909589695383
1400000000.0 -0.15212311325459218 0.2215033020255606
1420000000.0 -0.04022827946266678 0.2669384186283083
1440000000.0 -0.1759842544563042 -0.18028459007299497
1460000000.0 0.006117491511491373 0.2614950288738508
1480000000.0 -0.24924109685887805 0.06340511210552015
1500000000.0 0.1363971694123146 -0.21088603269961265
1520000000.0 -0.25145720501268015 0.05198491460696651
1540000000.0 -0.2578336121068605 0.05344562241823347
1560000000.0 0.08834752440490398 0.24673909777831196
1580000000.0 0.1469918157043133 -0.21293154010557108
1600000000.0 0.052548632874313696 0.24042347529323596
1620000000.0 -0.23714364096577056 -0.02909924744292287
1640000000.0 -0.19416137383599963 -0.13356727289031622
1660000000.0 -0.10763453844819712 0.1999325101440921
1680000000.0 0.21941031912252557 0.021526835462061463
1700000000.0 0.006426283384769078 0.20138678372504315
1720000000.0 -0.02392586712614122 0.18506774532487522
1740000000.0 0.07396922080443155 0.1530793729618451
1760000000.0 0.12078178034175328 -0.07316152802896714
1780000000.0 0.09268784213036434 0.059344045675018546
1800000000.0 0.035268734027613026 -0.05554592470569542
1820000000.0 -0.011623709866912172 -0.024963819221100705
1840000000.0 0.015847504053087477 0.03066472057861739
1860000000.0 -0.02923252891249405 -0.067750234571049
1880000000.0 0.014548271062696419 0.11235093403968503
1900000000.0 0.0003129273329201126 0.15402327437634847
1920000000.0 -0.1345632731797565 0.11299709300615085
1940000000.0 0.10804824693205412 -0.16341242284056623
1960000000.0 0.11164193009923545 -0.17924369384300037
1980000000.0 0.07011547190632882 -0.20218363097623437
2000000000.0 -0.07053896697618338 -0.2093640430445616
2020000000.0 0.1911001212247439 0.10632070085686579
2040000000.0 0.07537349243239502 -0.19197076620350537
2060000000.0 -0.16341198122635558 0.1118787137638854
2080000000.0 -0.014228971793070318 0.19182358253669635
2100000000.0 -0.15290182390602727 0.11292747125177574
2120000000.0 0.03727493764518703 0.1827084022187227
2140000000.0 0.0960384172688216 0.15124476662130573
2160000000.0 0.11933218692468343 0.12422050331825074
2180000000.0 -0.14180456541685973 0.06628312387561612
2200000000.0 0.02635611160154549 0.1430519941656198
2220000000.0 -0.04861162524911417 -0.12400718092937077
2240000000.0 -0.1105808680039562 -0.013712333670893412
2260000000.0 -0.07691922105251618 -0.052930407205067524
2280000000.0 0.04730017030654459 -0.06841110936047091
2300000000.0 0.06617563998021644 -0.0034900254808351086
2320000000.0 0.008905242392877048 0.044796602136994934
2340000000.0 -0.03528588518824378 -0.013642599105802665
2360000000.0 -0.003817101531477704 0.031356799136493224
2380000000.0 0.010048040795496324 0.02801977362064836
2400000000.0 -0.02204574758307486 0.029465710060637102
2420000000.0 0.02849660308676794 0.018082158809701945
2440000000.0 -0.035897745160683336 0.0131293380287566
2460000000.0 -0.03609124167653455 0.023191485247034075
2480000000.0 0.041509851713434784 -0.01817948018020083
2500000000.0 0.03688512818122309 0.04362193354272754
2520000000.0 0.0689928832563043 -0.004500498135649421
2540000000.0 -0.03936216491821891 0.07609341132182754
2560000000.0 0.08242993668090036 -0.05397063110297904
2580000000.0 -0.11240381282300912 0.026008360907495184
2600000000.0 -0.0010664122132890425 0.12949183682433218
2620000000.0 0.10315547744126606 0.10086707728123379
2640000000.0 -0.1132673949035561 0.1083154887185901
2660000000.0 -0.13158961896174962 0.11210791705004254
2680000000.0 0.002207493962503889 0.1855661118874345
2700000000.0 0.19313336752160917 0.022504781317261364
2720000000.0 -0.11288359425583801 -0.1707786266030133
2740000000.0 0.20594378476930067 -0.042296908557344394
2760000000.0 0.2162812292099388 0.0077667679192912125
2780000000.0 0.17860101897260558 -0.1308239216297024
2800000000.0 0.04000857935288621 -0.2228095000666194
2820000000.0 -0.18374977713818547 -0.1412529010609916
2840000000.0 0.10121408338320834 -0.21816393238980047
2860000000.0 0.15594481019102455 -0.1925512674128866
2880000000.0 0.2572377354562937 -0.02150117608117233
2900000000.0 -0.23115246456708652 0.1347534588338559
2920000000.0 0.09418914421655276 -0.2564329510716164
2940000000.0 -0.2564636940763533 0.08864994203867171
2960000000.0 -0.08376551419906844 0.25225610397880216
2980000000.0 0.02195785034137264 0.25736385914420173
3000000000.0 -0.06743297430536982 0.23503754830496537
3020000000.0 -0.15506078118377925 0.16900505084247927
3040000000.0 -0.20705516520319264 0.025088610994654304
3060000000.0 -0.04282898095213416 -0.18115180884764756
3080000000.0 0.13177531613919036 0.10445562624659298
3100000000.0 -0.14708142567744878 0.0012960315715878962
3120000000.0 0.09883811009846126 -0.09311316524759987
3140000000.0 -0.03463173169019638 -0.1177581367502173
3160000000.0 0.026945290706911287 -0.1115455325769263
3180000000.0 -0.0514686699778923 -0.09410352344827372
3200000000.0 -0.013422014980313132 0.10042717369240055
3220000000.0 -0.09779030141732627 0.038059587050005256
3240000000.0 0.03474393329054398 -0.10554504121786146
3260000000.0 -0.08876324285711118 0.08336241866333016
3280000000.0 0.09599024908791048 -0.09729391615040854
3300000000.0 -0.13708043175995227 0.06951395811134095
3320000000.0 0.0777247170658902 -0.1563542028518117
3340000000.0 0.15228100467874603 0.12077255998096864
3360000000.0 -0.015871923808525902 0.20979886334020528
3380000000.0 -0.22006598138405858 0.01671850937055698
3400000000.0 0.17551526174026288 -0.14146600764531933
3420000000.0 0.17429080872772998 0.14562919529883317
3440000000.0 -0.04867165739748489 0.21841112786473588
3460000000.0 -0.052595314065491235 -0.20859550155427659
3480000000.0 0.16815727848727624 0.1190152352834962
3500000000.0 -0.18903344388003562 -0.056863773390467776
3520000000.0 0.12527384553243023 -0.13762022860728157
3540000000.0 0.08369226052292753 0.15251115152368544
3560000000.0 -0.16437359768447815 -0.012530571051509459
3580000000.0 -0.1178364683311428 -0.10583824959039839
3600000000.0 -0.10677000315305792 0.11192902880765591
3620000000.0 -0.11850557313264128 0.096029760130609
3640000000.0 0.11344692807512329 0.10614596129275079
3660000000.0 -0.09027782146032506 -0.13619607193608665
3680000000.0 0.042088115467607115 0.1697275472065124
3700000000.0 0.0776982412773968 -0.17281540636880874
3720000000.0 0.07253848053035522 -0.1905831598670982
3740000000.0 0.2196798320159185 0.012029007134772365
3760000000.0 -0.030891299788380233 0.23687170056300083
3780000000.0 -0.2525720427454731 0.046183255077418404
3800000000.0 0.12701091674261147 -0.23638836797383106
3820000000.0 -0.10659717602519346 0.25246710285337465
3840000000.0 0.25115914670856904 -0.118963745759032
3860000000.0 -0.2746783276823377 0.009359745560914099
3880000000.0 0.1909959357926639 0.1946402039711143
3900000000.0 -0.0394032996311778 -0.2630100739658219
3920000000.0 0.13250458461963813 0.2154014804063062
3940000000.0 -0.20616994116212128 0.11251484521495746
3960000000.0 -0.16163175389726905 -0.13625835190961724
3980000000.0 -0.08033112275537425 0.17124721718694547
4000000000.0 -0.1265367314197901 -0.10502540720939135
