!Created with skrf (http://scikit-rf.org).
# Hz S RI R 50.0 
!freq ReS11 ImS11
400000000.0 0.050642276192254525 0.6130702268341381
420000000.0 -0.5108263065611595 0.20885140846540015
440000000.0 0.06683525343631755 0.46982883246154133
460000000.0 0.09829280567011471 -0.38125547870461246
480000000.0 -0.001042001095074635 0.42040111707900396
500000000.0 -0.09452469910426643 0.44426104701664143
520000000.0 0.017133511114213854 0.490084661959387
540000000.0 -0.3351287033385992 -0.3524572653529433
560000000.0 -0.373233402517046 -0.17977637206199878
580000000.0 -0.27122710246154785 0.22784400280891604
600000000.0 -0.18960466964729278 -0.173180317771293
620000000.0 0.1388955995055402 -0.07717332612625734
640000000.0 0.11801338850542302 0.13714344975536394
660000000.0 -0.11473028886103724 -0.06746563778820672
680000000.0 0.02039360681766194 -0.1085381884880423
700000000.0 0.09862219203520317 0.03278967782368681
720000000.0 -0.003006499960787885 0.12298473621496979
740000000.0 -0.0478148831713596 -0.16546472223250114
760000000.0 0.058213973919681555 0.17841823392303405
780000000.0 -0.20504107813405542 0.0614724953107965
800000000.0 0.22297318075587702 0.049295689774265565
820000000.0 0.13784899830568956 0.20191544499919764
840000000.0 0.13704622503941594 -0.22539264598047873
860000000.0 -0.21071841476200479 0.1619579801668463
880000000.0 0.25572315469914625 0.036694586335280235
900000000.0 0.18445342759075725 0.16010882541037474
920000000.0 -0.18697165987609732 0.14558857069423356
940000000.0 0.15848186191527974 -0.16186940482295792
960000000.0 0.04957280992626113 -0.18718998229965142
980000000.0 -0.06929825857898363 -0.11754876950521362
1000000000.0 0.04207015148174923 -0.10107172474931896
1020000000.0 0.005136701514369232 0.08526897213725793
1040000000.0 0.022330786174269483 0.09834382703435461
1060000000.0 0.059503496118906186 0.09804053759883903
1080000000.0 0.06959980498750609 -0.12446903209340938
1100000000.0 -0.09432758926698227 0.16269559475747064
1120000000.0 0.22168669984071018 0.027977280681041224
1140000000.0 0.11350929225081959 0.21059731242700236
1160000000.0 0.17157067090309586 -0.17534774523100682
1180000000.0 -0.24280637149211026 0.058325339704205954
1200000000.0 0.0984536846504144 0.24168057677777496
1220000000.0 -0.02466535272572098 0.24345570173202688
1240000000.0 -0.02843423584130234 -0.23348538554840456
1260000000.0 -0.11753572927069172 0.206124265578404
1280000000.0 -0.18327898106044826 -0.15216576047024474
1300000000.0 0.20408753752394443 -0.14326073671565215
1320000000.0 0.23082771611663536 -0.11349611012826696
1340000000.0 -0.13427670245526668 -0.2180390997738316
1360000000.0 0.10359269571523479 0.25162331447844255
1380000000.0 -0.24278299983651375 0.13857265087997905
1400000000.0 -0.06039448417587761 0.26217970646367045
1420000000.0 0.1693727683730348 0.210859100226559
1440000000.0 -0.20154268312229814 -0.1464796309870986
1460000000.0 -0.027923672933244853 0.2566953293961006
1480000000.0 -0.22931978935456304 0.11436748868227452
1500000000.0 0.17296065380084405 -0.18284720690224507
1520000000.0 -0.24530800313846018 0.07887334337072388
1540000000.0 -0.2420692949272491 0.10665112789587869
1560000000.0 0.16819700507264068 0.2019793663454454
1580000000.0 0.15417850783499906 -0.20873841581929625
1600000000.0 0.06923733921291493 0.23691696743012114
1620000000.0 -0.2338929427321071 -0.05324712805021789
1640000000.0 -0.19291639136270444 -0.13422163898101816
1660000000.0 -0.13518954276320785 0.18104997451440472
1680000000.0 0.19007156275632486 0.1095726543795459
1700000000.0 -0.023493562384025165 0.2009859740830171
1720000000.0 -0.03217099178719655 0.18305502968070803
1740000000.0 0.15096082318070117 0.07606367248094888
1760000000.0 0.13579276626259926 -0.035910933757304836
1780000000.0 0.08463604918604678 0.07094043644661788
1800000000.0 -0.01491921445316382 -0.06475479418285339
1820000000.0 -0.014521536941726627 0.024065905562157233
1840000000.0 0.011546998327742171 0.031986775980203025
1860000000.0 -0.027760350080568954 -0.06926313257259042
1880000000.0 0.025643171911253444 0.1098240393732068
1900000000.0 0.06288123319421995 0.14014046954021137
1920000000.0 -0.1384256530921401 0.10789609233600202
1940000000.0 0.10918020833862443 -0.16285881801273996
1960000000.0 0.13951340946982257 -0.15956376389638954
1980000000.0 0.049229358773696316 -0.20824404480484904
2000000000.0 -0.08222469388342397 -0.20511417765322962
2020000000.0 0.1850654578421002 0.11693843359688859
2040000000.0 0.081747360480381 -0.18956773106206198
2060000000.0 -0.15574083003484485 0.12314049474204466
2080000000.0 -0.010483750716063169 0.19194289735926753
2100000000.0 -0.15600327088528496 0.10756324009384051
2120000000.0 0.04682342285914481 0.18068719092809268
2140000000.0 0.030457892021640096 0.1765241132660654
2160000000.0 0.09867143680568424 0.1414471005603966
2180000000.0 -0.15272629016258812 0.03819956726456412
2200000000.0 0.06915745606214552 0.12867351785095352
2220000000.0 -0.06954897537818917 -0.11363735812829132
2240000000.0 -0.10452763602216392 -0.03753727545837278
2260000000.0 -0.08933146336243916 -0.02576011176496349
2280000000.0 0.042540259294587254 -0.07091923745606434
2300000000.0 0.06546613759790547 -0.0021758836123127825
2320000000.0 -0.012131415612943166 0.04391200208517314
2340000000.0 -0.0383444253235555 -0.003711240791946047
2360000000.0 0.02702881670030208 0.017811602001860865
2380000000.0 0.024023913642953455 -0.016487001312258977
2400000000.0 0.006117115767580692 0.0350822015979988
2420000000.0 0.025087989216327065 -0.02175296910679059
2440000000.0 -0.03676123684128253 0.011299052555798697
2460000000.0 -0.028914121318230745 0.03266854817145629
2480000000.0 0.030275457405157004 -0.03370978517691007
2500000000.0 -0.02480676498093341 0.05152741653535306
2520000000.0 0.05993784914515655 0.03565623311284426
2540000000.0 -0.0386466192771692 0.0771741895561877
2560000000.0 0.08930059778614434 -0.04115679774018054
2580000000.0 -0.10256013063595393 0.05281573117937088
2600000000.0 0.03073867089072584 0.1251731611208324
2620000000.0 0.09811821907702527 0.10540286269218231
2640000000.0 -0.10536155566034344 0.11545569222294148
2660000000.0 -0.15465739492441133 0.07757150817804612
2680000000.0 0.007242301290996658 0.1845037225175127
2700000000.0 0.19377429839977298 0.018130404603085192
2720000000.0 -0.11788800776415664 -0.16735759919461146
2740000000.0 0.20596219032985094 -0.043847610860347636
2760000000.0 0.21648120904505178 0.0036293366897740586
2780000000.0 0.1761987798146245 -0.13406096684350277
2800000000.0 -0.014930365327355507 -0.22573343629536077
2820000000.0 -0.18808310933644065 -0.1359056859360583
2840000000.0 0.10095924912924978 -0.2191895662900915
2860000000.0 0.1960675582356012 -0.1512051792553456
2880000000.0 0.2582573853342848 -0.0019092559718011859
2900000000.0 -0.22746534796162537 0.14078111687882816
2920000000.0 0.1067787771680808 -0.2513136756227551
2940000000.0 -0.2505018010357681 0.1038354672828949
2960000000.0 -0.06479304835943611 0.25805749550368406
2980000000.0 0.04376081136665506 0.2545473669889239
3000000000.0 -0.03615937916604244 0.2413463527957039
3020000000.0 -0.11891215580448229 0.19561211802360437
3040000000.0 -0.20588267749509853 0.032992102331351726
3060000000.0 -0.07242006213511869 -0.17221070348472242
3080000000.0 0.14991672914079063 0.07748180526269459
3100000000.0 -0.14378383431702216 -0.03458889311627283
3120000000.0 0.10648800811266985 -0.08537195049015524
3140000000.0 -0.04421527053897245 -0.1154867486820761
3160000000.0 0.006500447466834305 -0.11503290059188483
3180000000.0 -0.06892660315555615 -0.08248165062704824
3200000000.0 -0.023477841966193076 0.09863536163260747
3220000000.0 -0.1057832916901211 0.0006893283691315025
3240000000.0 0.05875334610733105 -0.09426643847013544
3260000000.0 -0.1032513823363166 0.06421119892794452
3280000000.0 0.10218701605115602 -0.09024796449502943
3300000000.0 -0.13578843800283338 0.07184861106824963
3320000000.0 0.0766542035196854 -0.1563379717199919
3340000000.0 0.1694921041754953 0.09557018275851772
3360000000.0 0.01835819678454668 0.20906581616460293
3380000000.0 -0.21628295438389614 0.04282928930541298
3400000000.0 0.15589583203438515 -0.16266805415510247
3420000000.0 0.2056045429676531 0.09653395228275198
3440000000.0 -0.03316547957745856 0.22183241093234676
3460000000.0 -0.09437792260214638 -0.19369023284103115
3480000000.0 0.14725663056923866 0.14587529643392685
3500000000.0 -0.19157569652711684 -0.046710561634552235
3520000000.0 0.17813686198386897 -0.054812998363249626
3540000000.0 -0.00682187210373787 0.1735837305620197
3560000000.0 -0.15940215359319773 -0.04231443248838693
3580000000.0 -0.09260239860212768 -0.12796310224232918
3600000000.0 -0.13841741247501152 0.0692234544207058
3620000000.0 -0.12652208831561013 0.08456863314282327
3640000000.0 0.11453300262386827 0.10374148162068988
3660000000.0 -0.08731638555721914 -0.1376062101820466
3680000000.0 0.04589540511229869 0.16839239193941982
3700000000.0 0.04953011791457621 -0.1826075693666859
3720000000.0 0.011467307498820783 -0.20270426951074405
3740000000.0 0.21912529273380776 -0.02044266567531312
3760000000.0 0.026094115176904846 0.23756037962246127
3780000000.0 -0.2537593240436167 0.043143575225000494
3800000000.0 0.13170075888901303 -0.23442683932710917
3820000000.0 -0.08253115305770838 0.2616815377962854
3840000000.0 0.2370708507667047 -0.14598317213199485
3860000000.0 -0.2759340927188647 -0.0008366868088331524
3880000000.0 0.17376004371483425 0.210731068903328
3900000000.0 -0.025627965038770722 -0.26532990052387356
3920000000.0 0.14322128642293633 0.2090121790263098
3940000000.0 -0.2287017482050593 0.052924436383659124
3960000000.0 -0.11763474815930117 -0.17607800959895695
3980000000.0 -0.1179740266190296 0.1480089501627026
4000000000.0 -0.0889507488425065 -0.13744834216906335
