!Created with skrf (http://scikit-rf.org).
# Hz S RI R 50.0 
!freq ReS11 ImS11
400000000.0 0.03247929426848341 0.6069467882864381
420000000.0 -0.5576911359182635 0.036947559132073864
440000000.0 -0.02122395925962466 0.4789442844554692
460000000.0 -0.19266457667324466 -0.34417741456271167
480000000.0 -0.11040949350552459 0.390595516154588
500000000.0 -0.35324201184613346 0.27840701006432117
520000000.0 -0.3808357777469659 0.3132997313775616
540000000.0 -0.29660949518453333 -0.38954424308666874
560000000.0 -0.41497126875064594 -0.05448530371008259
580000000.0 -0.2940296589152083 0.20085378492696174
600000000.0 -0.16473651099449252 -0.19378289687492573
620000000.0 0.08407689796663556 -0.13752152280459853
640000000.0 0.17044142705074075 0.05176280920784209
660000000.0 0.12432841973331285 -0.04602226711082674
680000000.0 -0.056705790710566806 -0.09565045102750566
700000000.0 0.0856631570400106 0.06045624541868432
720000000.0 0.1196627476380748 0.03124816892173619
740000000.0 -0.1687800769425758 0.0023740909444279795
760000000.0 0.11377354841791096 0.1460107380992607
780000000.0 -0.1984473688441396 0.0709655303338184
800000000.0 0.0166180220761306 0.2274392014863059
820000000.0 -0.00532735776260239 0.2470258303898973
840000000.0 0.21041349289672664 -0.15740961713116733
860000000.0 -0.26393860870949687 -0.03440105505892489
880000000.0 0.25648754519492495 0.04982383506734831
900000000.0 0.15103483305079476 0.20257284608116646
920000000.0 0.0611637151169885 0.23423754320404433
940000000.0 -0.22659695441159633 0.027714503410559716
960000000.0 -0.18877205830710062 0.018400082175440594
980000000.0 -0.11288496979704551 -0.05408647698467218
1000000000.0 0.08424527891440968 -0.05422185374158486
1020000000.0 -0.018692560314655375 0.07948759315697074
1040000000.0 0.09054326109620728 -0.04090575547899499
1060000000.0 -0.09758601528540574 0.06921967286016904
1080000000.0 0.07260941369017647 -0.12944586265962907
1100000000.0 -0.1056257519221918 0.16423039609673223
1120000000.0 0.16457974974528788 -0.15809503584746704
1140000000.0 0.193951825707038 0.14226180819770323
1160000000.0 -0.003120657944188225 -0.24569223965869708
1180000000.0 -0.1168441744021384 0.2170312622734525
1200000000.0 -0.019034227563365085 0.2533803188060677
1220000000.0 -0.19967491921011757 0.13557594547200547
1240000000.0 0.22526462823439639 -0.07178938846422182
1260000000.0 -0.178432864324225 0.1612089040652779
1280000000.0 -0.2291937438076491 -0.06552064152277913
1300000000.0 0.13669148861799432 -0.207925172541911
1320000000.0 0.15345709771587143 -0.20792425054533473
1340000000.0 -0.25507187225744044 -0.03220016469539527
1360000000.0 0.18700167726204697 0.19524090417850648
1380000000.0 -0.2324808300194258 0.1518714879171338
1400000000.0 -0.1656862641183476 0.21149068047034836
1420000000.0 0.01235489828794722 0.26990232374051787
1440000000.0 -0.11559633713182076 -0.22416104050577698
1460000000.0 0.03784284089669155 0.25851670081848016
1480000000.0 -0.24964310366560655 0.06362201872948045
1500000000.0 0.14599122226145234 -0.2036254342750185
1520000000.0 -0.25143744095798265 0.052244941537068997
1540000000.0 -0.262432382089125 0.01891037083357122
1560000000.0 0.10826407128681698 0.23848565631354057
1580000000.0 0.14497779177825976 -0.21444077625805621
1600000000.0 0.031826441533772405 0.24423146380684244
1620000000.0 -0.23743648407990312 -0.030203538317222615
1640000000.0 -0.2036669254384762 -0.11763848432336889
1660000000.0 -0.09789098782038665 0.20447741448968104
1680000000.0 0.2182311579428788 0.03000274469675039
1700000000.0 0.04272079427117499 0.19740553603294758
1720000000.0 -0.05216299090144037 0.17921529552695928
1740000000.0 0.12351502724778583 0.11681388237377807
1760000000.0 0.10780681522939187 -0.09148097357057365
1780000000.0 0.0655579526614984 0.0879180368977725
1800000000.0 0.009021735671318103 -0.0656464394341077
1820000000.0 -0.0033892005113739343 -0.027533689737085584
1840000000.0 0.0082473612771008 0.03337260258216975
1860000000.0 -0.029335328543491555 -0.06773593269169012
1880000000.0 0.004058164202242724 0.11303530530913643
1900000000.0 0.04231282548995716 0.1486732722201916
1920000000.0 -0.1142655866080072 0.1337555927847162
1940000000.0 0.10020425613798181 -0.16815631898947453
1960000000.0 0.143076889121945 -0.15655110033431016
1980000000.0 0.05918044076098576 -0.20554923198117273
2000000000.0 -0.06687158262813452 -0.2110006060940023
2020000000.0 0.17157737785884086 0.13611019942157263
2040000000.0 0.049802317869939675 -0.19936196596549002
2060000000.0 -0.1730275435436729 0.09591627786742675
2080000000.0 -0.020961478175119265 0.19112792247370639
2100000000.0 -0.16559724706295323 0.09251855527680967
2120000000.0 0.10225041532223228 0.15635204852724768
2140000000.0 0.10172671245231375 0.14723245936768434
2160000000.0 0.1359156096091868 0.1049223015654224
2180000000.0 -0.14727322703634974 0.05437120942285448
2200000000.0 0.03246084910143554 0.14177535683251435
2220000000.0 -0.04586226108690922 -0.12538553329289964
2240000000.0 -0.10857124784524204 -0.025934206123218166
2260000000.0 -0.06928305099049849 -0.06245955461854905
2280000000.0 0.04717739756622036 -0.0684963337457184
2300000000.0 0.06615849558859219 0.0057416864863290866
2320000000.0 -0.004267427239353843 0.04549383673750719
2340000000.0 -0.03572070116705589 -0.013510325021440533
2360000000.0 -0.029433863235599312 0.011058058458429967
2380000000.0 0.009537139739067247 0.02807089998947429
2400000000.0 -0.030098508889567756 0.01986226352846679
2420000000.0 0.03168640779726246 0.011015415040215732
2440000000.0 -0.037573120006773285 0.007398494062014765
2460000000.0 -0.03521609822543857 0.024017036443260788
2480000000.0 0.04129376878707071 -0.018368997544982914
2500000000.0 -0.004990860668740633 0.05679229161718981
2520000000.0 0.06870041409092063 -0.003703504967403077
2540000000.0 -0.02242656723877402 0.08301045302649578
2560000000.0 0.0843378163573948 -0.05080791125510141
2580000000.0 -0.1108360710780351 0.033327238244332
2600000000.0 0.02766298792039898 0.1265512383936488
2620000000.0 0.08963643759085305 0.11368050012701558
2640000000.0 -0.10835291494238292 0.1136899574852163
2660000000.0 -0.14347524495824038 0.09597619278152052
2680000000.0 0.007204595678036333 0.18530193841813775
2700000000.0 0.19327683983693872 0.016978570056440656
2720000000.0 -0.12521250952422802 -0.16168438583051897
2740000000.0 0.21056611808361375 -5.74275751980676e-05
2760000000.0 0.2114666184405838 0.045262229996667354
2780000000.0 0.1695567837973232 -0.14161866983014204
2800000000.0 -0.008912283048270173 -0.22606848022129972
2820000000.0 -0.186793080749891 -0.13705277899479243
2840000000.0 0.07940114644529635 -0.22730862969286603
2860000000.0 0.17459496047206555 -0.17559227489012588
2880000000.0 0.25618506058034113 -0.03433744683928688
2900000000.0 -0.21668742231240637 0.15730433380492745
2920000000.0 0.09653062848067141 -0.2559721418959963
2940000000.0 -0.257879236812398 0.08388447935913762
2960000000.0 -0.09050747862985153 0.2500841247789962
2980000000.0 0.008299952083680909 0.25842286431963807
3000000000.0 -0.09128221007457021 0.22686615202945323
3020000000.0 -0.15594126840854977 0.16798561491387698
3040000000.0 -0.20691782765064798 0.024182915424209875
3060000000.0 -0.0691665219210837 -0.1725894818791036
3080000000.0 0.14504505634243237 0.08478543245052145
3100000000.0 -0.14676272251799033 0.00785093965234898
3120000000.0 0.09386403500699174 -0.09784629459223779
3140000000.0 -0.01497550202328615 -0.12188316381471452
3160000000.0 -0.0011177045432652069 -0.11485961046348266
3180000000.0 -0.05711369309711484 -0.09061798245013558
3200000000.0 -0.017946885893200325 0.09985692486437087
3220000000.0 -0.09343075459174907 0.04968884930366827
3240000000.0 0.04885608723324807 -0.10058953159215131
3260000000.0 -0.0953531847530326 0.07630895286975958
3280000000.0 0.09020064865862149 -0.10287598888163266
3300000000.0 -0.14139701604768698 0.06079336506189628
3320000000.0 0.08206654819792626 -0.1541121239845663
3340000000.0 0.14619114181235507 0.1283303854434524
3360000000.0 -0.00543195927023675 0.21018528080885776
3380000000.0 -0.22015084877688085 0.016375620805203335
3400000000.0 0.16236910546423516 -0.15578502191788202
3420000000.0 0.19122512072540307 0.12171422229195213
3440000000.0 -0.03852151362840419 0.22004596631173218
3460000000.0 -0.10220133034627898 -0.18882762977288847
3480000000.0 0.1533968286102611 0.13819683885206463
3500000000.0 -0.19294238654675316 -0.040489602579031746
3520000000.0 0.17065445433337023 -0.07364797002036551
3540000000.0 0.022756340876475798 0.1717933249238953
3560000000.0 -0.16506507703616746 -0.008037324997096786
3580000000.0 -0.12379318372751777 -0.09842973757286037
3600000000.0 -0.11620533740804098 0.10191364005805163
3620000000.0 -0.12352447402648724 0.08996146547156693
3640000000.0 0.115684639089822 0.10376651469823464
3660000000.0 -0.07576483761827339 -0.14537097475468336
3680000000.0 0.011822655454373028 0.17446332196016656
3700000000.0 0.07355951849672394 -0.17452726263589435
3720000000.0 0.10166209004716698 -0.17663307879798368
3740000000.0 0.21988008375749005 0.005354742769686293
3760000000.0 -0.03649405554765762 0.2361173155189682
3780000000.0 -0.2548031255057456 0.030521861826140168
3800000000.0 0.10863603552779941 -0.24497449680876535
3820000000.0 -0.1077263671553453 0.25178781657015653
3840000000.0 0.23454284053800104 -0.14831618656664033
3860000000.0 -0.27498787054842144 0.004841425332673808
3880000000.0 0.19304927489374274 0.19227802640575595
3900000000.0 -0.055435616102680954 -0.2597032546956752
3920000000.0 0.14289413274994164 0.20827739019470462
3940000000.0 -0.21559583480791383 0.09186619008498018
3960000000.0 -0.16641731503956195 -0.1306629952564547
3980000000.0 -0.04092534708695696 0.18455897568553234
4000000000.0 -0.13242172103417701 -0.0976416390984995
