!Created with skrf (http://scikit-rf.org).
# Hz S RI R 50.0 
!freq ReS11 ImS11
400000000.0 0.0032332829700227896 0.6075699726656231
420000000.0 -0.5557691011845187 0.06200916496705245
440000000.0 0.00965853952677683 0.48125369537569246
460000000.0 -0.3000948248923942 -0.2552769779912214
480000000.0 0.0857905619574953 0.39480057446092437
500000000.0 -0.39654831612344965 0.21355023197751297
520000000.0 -0.3649131174655496 0.3324109876786815
540000000.0 -0.31628954004590676 -0.3753961281981162
560000000.0 -0.40773263277335997 -0.09680136942858282
580000000.0 -0.2677620374684557 0.23570005898021473
600000000.0 -0.1990264914587203 -0.15998779178952025
620000000.0 0.07247320071960539 -0.14412540096868046
640000000.0 0.17602170242274884 0.0336611439748036
660000000.0 0.03090617909715532 -0.1281995783598258
680000000.0 -0.062254847888710545 -0.09463254821269824
700000000.0 0.10324738638343474 -0.012303571719636943
720000000.0 0.1231766951395555 -0.008991316220115696
740000000.0 -0.16769793416731651 -0.0035921814210569483
760000000.0 0.08853606408701885 0.16167739508853352
780000000.0 -0.19332231456217852 0.08362698552199897
800000000.0 -0.07350525376665895 0.21590120385710995
820000000.0 0.026602313326710134 0.24559502358826518
840000000.0 0.13662762953631893 -0.22446075198397564
860000000.0 -0.26684618700011353 -0.016201187372656953
880000000.0 0.2528480847907015 0.06308472963643001
900000000.0 0.1260658979119872 0.21748414541399738
920000000.0 0.08999949951853134 0.22591928024010677
940000000.0 -0.21501620133954777 0.06497865212137605
960000000.0 -0.18173534561142185 0.05095428121215474
980000000.0 -0.10814921571315692 0.06895390898699726
1000000000.0 0.0857973118665365 -0.0501271824808357
1020000000.0 -0.00810391499425691 0.08226480546966018
1040000000.0 0.09463893394867104 -0.03505925540957534
1060000000.0 -0.08689074004768968 -0.08157058360701012
1080000000.0 0.12703836228824256 -0.07219652339933107
1100000000.0 -0.10974359357551307 0.15945940162877406
1120000000.0 0.14914842036686457 -0.17104288264093798
1140000000.0 0.22212027139984222 0.09088645537792896
1160000000.0 -0.035843849902083176 -0.24295859469837103
1180000000.0 -0.08452824784184762 0.23174194620015132
1200000000.0 0.03630710982118799 0.2522142862964515
1220000000.0 -0.15275946438000668 0.18744571518166875
1240000000.0 0.2323576979259539 -0.047109302634442046
1260000000.0 -0.20319353420667172 0.1300263545725308
1280000000.0 -0.2287860061378844 -0.07347561314961143
1300000000.0 0.18296667679829773 -0.16887291972526464
1320000000.0 0.21403622867113173 -0.14358963165403296
1340000000.0 -0.1949199009644235 -0.16664144666636715
1360000000.0 0.18414659719254864 0.19917850403869372
1380000000.0 -0.20030753362148768 0.18957880056806073
1400000000.0 -0.1778707701699571 0.1990732199986116
1420000000.0 0.024213368356452297 0.2689995545478724
1440000000.0 -0.13126048489372533 -0.21448395695078598
1460000000.0 0.09229973546993935 0.24365877453092158
1480000000.0 -0.18558589934675299 0.17734262201466688
1500000000.0 0.10332647954850646 -0.22913229756916403
1520000000.0 -0.24380824064784307 0.07971302192334888
1540000000.0 -0.26188320111849356 0.03365322199831075
1560000000.0 0.13837476526280354 0.22313546262207665
1580000000.0 0.1500820989724226 -0.21217149549911896
1600000000.0 0.04612886751923984 0.24186528376679117
1620000000.0 -0.228981476089296 -0.07167689915056519
1640000000.0 -0.18323561255384765 -0.14751858545534405
1660000000.0 -0.12030965244549735 0.1922430418598252
1680000000.0 0.19501364863789472 0.09905009024545851
1700000000.0 -0.005035074045924581 0.20157820450048453
1720000000.0 0.007761704647547383 0.1851672716320959
1740000000.0 0.1555481794840857 0.0678546656460203
1760000000.0 0.09435334603461791 -0.10411960251602177
1780000000.0 0.09992547581607764 0.04743190747638642
1800000000.0 -0.004877196826048823 -0.06649153198951699
1820000000.0 -0.027523532811790548 0.002699439517309862
1840000000.0 0.013816838767887408 0.0310617304432794
1860000000.0 -0.04403271608402537 -0.059833012371369704
1880000000.0 0.026969930144543477 0.10977920903300337
1900000000.0 0.0679014111303858 0.13815185678531264
1920000000.0 -0.12447449861781275 0.12355929634221484
1940000000.0 0.14783345392892303 -0.13028360313106457
1960000000.0 0.11960350149604353 -0.17564497068043514
1980000000.0 0.011758745930566127 -0.21440744806918102
2000000000.0 -0.10756486827105667 -0.19287767303412226
2020000000.0 0.17125344541429408 0.13482699389385788
2040000000.0 0.0889013805501559 -0.18528448854537816
2060000000.0 -0.1841212299226699 0.07422600573938652
2080000000.0 0.013643414381122222 0.19238764681849255
2100000000.0 -0.12536542423034566 0.14321896336482065
2120000000.0 0.10038410759506011 0.1568813695053416
2140000000.0 0.049276230341377104 0.1717431314287376
2160000000.0 0.1076769790531178 0.1344216646583808
2180000000.0 -0.13926009073925877 0.07246835662840836
2200000000.0 0.015301440891468211 0.14486196294104428
2220000000.0 -0.049721304919895175 -0.12395087361804884
2240000000.0 -0.10586715034703754 -0.03293672041307092
2260000000.0 -0.07853476831176792 -0.049624093927461796
2280000000.0 0.05452209055844336 -0.06358071215479694
2300000000.0 0.04771004109595757 -0.046009683242743564
2320000000.0 0.020267778570738505 0.04031061297827987
2340000000.0 -0.03835862313650284 -0.0017247265178861682
2360000000.0 0.021597130625523365 0.023082203825757392
2380000000.0 0.022653408805705304 0.019174132793991907
2400000000.0 -0.0077420367914939 0.03548769981559348
2420000000.0 0.021896453415481687 -0.02524569351078207
2440000000.0 -0.03761868508091203 0.007012885535339915
2460000000.0 -0.03639866482531339 0.023696727325130208
2480000000.0 0.030968503164266813 -0.03346924241161324
2500000000.0 0.04945559395156602 0.02855383270872668
2520000000.0 0.06714760552739016 0.01797819630978945
2540000000.0 -0.0010031999413147696 0.08690997576118178
2560000000.0 0.08683380996948584 -0.04587868898241873
2580000000.0 -0.11019980334460064 0.03512132561865834
2600000000.0 0.040585889502477435 0.12245386893604857
2620000000.0 0.07959648415533266 0.12053181605705834
2640000000.0 -0.10293143020528245 0.11810631853476293
2660000000.0 -0.14400711389590937 0.09558605104539619
2680000000.0 0.01587467573401379 0.18458745987659078
2700000000.0 0.19407280714825811 0.009038727968213943
2720000000.0 -0.1072709545919016 -0.17428536800837952
2740000000.0 0.20571686261859481 -0.04446802920342809
2760000000.0 0.2164054479764986 -0.0033718529075551337
2780000000.0 0.15847910667301315 -0.15421844656097744
2800000000.0 0.010927575567313424 -0.22616836856153308
2820000000.0 -0.18357928734360732 -0.14213272260608406
2840000000.0 0.06334995194511281 -0.2327891625861161
2860000000.0 0.1597993386332706 -0.18945682476632947
2880000000.0 0.2578190725092521 -0.015420750421901821
2900000000.0 -0.22359470334502546 0.14782219536005545
2920000000.0 0.11155839619375986 -0.24927493538365114
2940000000.0 -0.251714580998678 0.10103937936894215
2960000000.0 -0.08530338423943477 0.25199391878028815
2980000000.0 0.01353807640276303 0.25766050491947473
3000000000.0 -0.08104818939275328 0.23015210936754052
3020000000.0 -0.16225038747822462 0.16256860290665665
3040000000.0 -0.20871041646789365 0.006331705799911412
3060000000.0 -0.09681321848999525 -0.15869056446424254
3080000000.0 0.14154263425056743 0.09026896744228817
3100000000.0 -0.14650048615391345 -0.01459186000096736
3120000000.0 0.0781400525892761 -0.11126921920008699
3140000000.0 -0.06194121015425553 -0.10617686665051151
3160000000.0 0.017330621330782663 -0.11360469192052172
3180000000.0 -0.0832196833041637 -0.06859252921141439
3200000000.0 -0.019527507417323783 0.09984970017546212
3220000000.0 -0.09727373229391711 0.04263059905675589
3240000000.0 0.05568110753151622 -0.09609755337443071
3260000000.0 -0.10677059018845465 0.05839516545135725
3280000000.0 0.10369151506828324 -0.08933842002037917
3300000000.0 -0.13945733875340532 0.06515562178335482
3320000000.0 0.09745902579261577 -0.14448446677333307
3340000000.0 0.14073629295896734 0.13393726121914787
3360000000.0 0.0034013110023091864 0.2098562529699376
3380000000.0 -0.21706904479940367 0.0384215865181234
3400000000.0 0.18630916611433157 -0.12677839224946844
3420000000.0 0.19041397573156998 0.12337337240608848
3440000000.0 0.0016811127554119014 0.22323373644141883
3460000000.0 -0.09435470452480424 -0.19308063860494035
3480000000.0 0.1203050354499732 0.16832088168036535
3500000000.0 -0.19208256139892554 -0.04443974994685064
3520000000.0 0.17447889301036337 -0.06433220925573085
3540000000.0 0.02008424497570181 0.1727209794765874
3560000000.0 -0.16529592259070755 -0.008420287884368419
3580000000.0 -0.11608626279105093 -0.10736126123458178
3600000000.0 -0.13444535698864699 0.07552077151623905
3620000000.0 -0.11578238204527391 0.09925586305321955
3640000000.0 0.11710628250912684 0.1013173482479219
3660000000.0 -0.08730733462738065 -0.13811299732184013
3680000000.0 0.05052204769428007 0.16710442344418616
3700000000.0 0.06741101819108748 -0.17700467438361606
3720000000.0 0.03628828291001834 -0.19966223969411853
3740000000.0 0.21979905931814187 -0.008982818715909488
3760000000.0 0.020676124458015113 0.23807013782956035
3780000000.0 -0.2523438531009359 0.04871473881269518
3800000000.0 0.13811082898510524 -0.23035082043307617
3820000000.0 -0.04835155026664131 0.2692623848268152
3840000000.0 0.2610493352766634 -0.09471759734507945
3860000000.0 -0.2747143931480971 -0.010500808759729773
3880000000.0 0.16043922270296695 0.22014805882230462
3900000000.0 -0.00014403878315581893 -0.26539744602619525
3920000000.0 0.14971856880853254 0.20360940310055092
3940000000.0 -0.22136484743382145 0.0764962134788071
3960000000.0 -0.16875566955784324 -0.12738874729392058
3980000000.0 -0.049694720578496596 0.1824438882599314
4000000000.0 -0.13767369400765755 -0.09014845674836001
