!Created with skrf (http://scikit-rf.org).
# Hz S RI R 50.0 
!freq ReS11 ImS11
400000000.0 0.020116849245110143 0.6076527781560704
420000000.0 -0.5573178329743037 0.013247922430726273
440000000.0 -0.009992089899303672 0.4809178195401241
460000000.0 -0.12864903940768238 -0.3714933762227741
480000000.0 0.025464568210998788 0.40431803052368304
500000000.0 -0.33828144296458484 0.2942955740852545
520000000.0 -0.3579347422109056 0.3381555706988689
540000000.0 -0.28636937006314295 -0.3984300413171617
560000000.0 -0.4129987171876762 -0.06710911436096055
580000000.0 -0.24014475902441115 0.26378643181681394
600000000.0 -0.14094974334520913 -0.21298604155132542
620000000.0 0.04537261359272458 -0.15455749940787286
640000000.0 0.14318248343552248 0.11077498015779476
660000000.0 0.06310459434906379 -0.11592482732905693
680000000.0 0.0289722010882341 -0.10909803196643936
700000000.0 0.09600345661769975 0.04339960510730372
720000000.0 0.10308051419645282 0.06875049818677827
740000000.0 -0.16649895058910477 0.028396365898560774
760000000.0 0.10502505025280141 0.15150225789613464
780000000.0 -0.2028265582084044 0.06289773545706484
800000000.0 -0.016339185757708322 0.22710999469784757
820000000.0 -0.013087815915879937 0.24655450535679652
840000000.0 0.16687196296803614 -0.2007520010361619
860000000.0 -0.26653268798207425 0.026005713058967362
880000000.0 0.25371972464969333 0.059664484958170776
900000000.0 0.1691986789700407 0.1885048035295961
920000000.0 0.05531021791458364 0.23652651659610985
940000000.0 -0.22160954843262073 0.058173367022233205
960000000.0 -0.1721867230789073 -0.08184976616105298
980000000.0 -0.12297980339813362 0.020525601042486474
1000000000.0 0.09409665870933842 0.03730710215818375
1020000000.0 -0.018281221144896036 0.07940263402152023
1040000000.0 0.0575215469295134 -0.0805894913185819
1060000000.0 -0.10691451605698554 0.053597744854243075
1080000000.0 0.047744109890268754 -0.1401171001178533
1100000000.0 -0.052812634547960244 0.1903427536690643
1120000000.0 0.20411039220348257 -0.10206644933572918
1140000000.0 0.2070203921233085 0.12466517302249565
1160000000.0 0.05867816543455523 -0.23901289014790206
1180000000.0 -0.1269626729752983 0.21188460115697472
1200000000.0 -0.06726931965618889 0.24417790004481205
1220000000.0 -0.21995207856581311 0.09875165414073675
1240000000.0 0.195356521681265 -0.13207021831197302
1260000000.0 -0.20664910240321802 0.12092653143477002
1280000000.0 -0.2373829839352324 -0.02789364513898953
1300000000.0 0.1336071660028999 -0.21011491320191011
1320000000.0 0.1489219725019984 -0.21127593763371558
1340000000.0 -0.25202248482377565 -0.05047848740171614
1360000000.0 0.2267244048257213 0.14914003369266846
1380000000.0 -0.22301431442790987 0.16635487106017496
1400000000.0 -0.17303368709507524 0.2062120866144015
1420000000.0 -0.007621478805093178 0.2704185316798382
1440000000.0 -0.10121856316826745 -0.23099965459026148
1460000000.0 0.04081432155159827 0.2583496904665719
1480000000.0 -0.2260273816833626 0.12334631190811497
1500000000.0 0.14882591616843666 -0.2010496157747283
1520000000.0 -0.2551162208588609 0.02388312304254394
1540000000.0 -0.26281351810624576 0.007451042242538548
1560000000.0 0.09892033205705891 0.24280341452336693
1580000000.0 0.14959993085855824 -0.21099000149219138
1600000000.0 0.06413162022996884 0.2375745519619451
1620000000.0 -0.23568489530813425 -0.04208839867173367
1640000000.0 -0.19003250984729395 -0.14000563418041384
1660000000.0 -0.14310192344038655 0.17612606013908993
1680000000.0 0.21705071624062885 0.02970514087404389
1700000000.0 -0.015112856038968222 0.20062623273754107
1720000000.0 -0.05864958644397938 0.17717353132608604
1740000000.0 0.13386363149878566 0.10498220262115601
1760000000.0 0.11637119554931372 -0.07989686198728585
1780000000.0 0.07549522603193043 0.08024874261805676
1800000000.0 -0.007338066657838116 -0.06573356521933481
1820000000.0 -0.008249774966741634 -0.02650990212150887
1840000000.0 0.02566066174299716 0.022682907813661547
1860000000.0 -0.01083346627671315 -0.0731589495750663
1880000000.0 0.017660675194345426 0.1111284078910533
1900000000.0 0.0647400409890104 0.14046841674463661
1920000000.0 -0.09968953020224637 0.1449643285990858
1940000000.0 0.12804029970480443 -0.14790262135302154
1960000000.0 0.11880791047668919 -0.17589039413977917
1980000000.0 0.06495855675246694 -0.20417608034889922
2000000000.0 -0.068269540144337 -0.21010152292048537
2020000000.0 0.17335566965565588 0.13406178125027307
2040000000.0 0.09565014973003064 -0.18206650807183686
2060000000.0 -0.16652454064379144 0.10553333321386413
2080000000.0 -0.015778516254454176 0.19178065768728353
2100000000.0 -0.1656793726694343 0.0925237955196366
2120000000.0 0.09056835951549545 0.16240391944308746
2140000000.0 0.11458446246467378 0.13747374235043636
2160000000.0 0.12912391791926608 0.1138186946561218
2180000000.0 -0.13309574412121675 0.08293758486381546
2200000000.0 0.0215609855784465 0.14371394078867583
2220000000.0 -0.03610471781792448 -0.1284989458841531
2240000000.0 -0.10791194760850109 -0.028135828686251255
2260000000.0 -0.08165145502529421 -0.045358286505346505
2280000000.0 0.06945537289103083 -0.046290039725934345
2300000000.0 0.06571544245614952 -0.008539560505529955
2320000000.0 -0.02156433283238439 0.03999452700307398
2340000000.0 -0.024429962419474687 -0.029502230283193636
2360000000.0 -0.008438264186558997 0.030013569969962697
2380000000.0 -0.015729691511574325 0.024688348833709663
2400000000.0 -0.03066647063705735 0.019664786285647964
2420000000.0 0.0333452362545544 0.006330237159616725
2440000000.0 -0.03644383893753565 -0.009670701062145322
2460000000.0 -0.02738703548523173 0.03310830534281987
2480000000.0 0.042270031241203765 -0.015921810903340793
2500000000.0 0.0256332566304213 0.050768039250825424
2520000000.0 0.0679598923125329 -0.013585673618586976
2540000000.0 -0.023663097688762066 0.08310079809135601
2560000000.0 0.07966687058284426 -0.05793591378678917
2580000000.0 -0.11272465034597219 0.026388444823975128
2600000000.0 0.019548902315326695 0.12839737565835185
2620000000.0 0.08288302085377722 0.11893709200528103
2640000000.0 -0.1043987044291307 0.11688070834603966
2660000000.0 -0.13365715003189954 0.10968899765221878
2680000000.0 0.00430493064097795 0.18552157896845312
2700000000.0 0.19400848445753374 0.009314236413107078
2720000000.0 -0.12921749029225285 -0.15807202751969643
2740000000.0 0.2101957840391708 -0.016367897974639372
2760000000.0 0.21091158679700925 0.04880162026274008
2780000000.0 0.17602994806063132 -0.13464623862986214
2800000000.0 -0.016887819165837467 -0.22559537340946242
2820000000.0 -0.17842854627680918 -0.14776392508443273
2840000000.0 0.09435474924793574 -0.2215589525162195
2860000000.0 0.16690753648102968 -0.18258667977686316
2880000000.0 0.25652661866710136 -0.03223256668310483
2900000000.0 -0.21698308566709687 0.1562549420544988
2920000000.0 0.09037799777802621 -0.25794498170928437
2940000000.0 -0.2600986995321067 0.076978014276987
2960000000.0 -0.07239707757530524 0.2559429155714684
2980000000.0 0.008362357307639559 0.25849697652794756
3000000000.0 -0.06092325986465605 0.23674547067016619
3020000000.0 -0.14332670730656688 0.1790863451467732
3040000000.0 -0.20722356228862734 0.024624226286711067
3060000000.0 -0.04711770305501444 -0.18041497473485676
3080000000.0 0.1453876215753907 0.08439883842893105
3100000000.0 -0.14649258151605496 -0.009155894896292862
3120000000.0 0.11000917235925682 -0.0794442170350583
3140000000.0 -0.009368311758500072 -0.12245151372193087
3160000000.0 0.025799057058906803 -0.11212975369093423
3180000000.0 -0.06126543752086799 -0.08771774419271221
3200000000.0 -0.01380136121610248 0.10066423681077143
3220000000.0 -0.09914038143823256 0.035386952316628466
3240000000.0 0.05195857325220649 -0.09851434434407592
3260000000.0 -0.08548513156715339 0.08685624739089287
3280000000.0 0.08925099787561686 -0.10348062111186815
3300000000.0 -0.13475000338805287 0.07479182550016134
3320000000.0 0.07547380812313201 -0.15714397371625938
3340000000.0 0.15870973105651034 0.11288160688687186
3360000000.0 0.010085595460144923 0.21009022747735925
3380000000.0 -0.2184026663387742 0.03326116048652153
3400000000.0 0.1726826177749688 -0.1450483481781012
3420000000.0 0.18231469213056306 0.13554583513500526
3440000000.0 -0.02512193844080826 0.22180564312676107
3460000000.0 -0.05496920679318967 -0.207523028940827
3480000000.0 0.09920826808002732 0.18086255645241664
3500000000.0 -0.19345644863004377 -0.038004727038090276
3520000000.0 0.1352611541224789 -0.12716898513985983
3540000000.0 0.054769572882176334 0.16496485026645205
3560000000.0 -0.16444627968658984 0.010934639262370921
3580000000.0 -0.13546640610451696 -0.08250185051815082
3600000000.0 -0.10315263407161422 0.11500038761255735
3620000000.0 -0.11414165637254381 0.10195206257125435
3640000000.0 0.12686998479790498 0.0893052187832193
3660000000.0 -0.09332008194358112 -0.13503390724571906
3680000000.0 0.026508842330323603 0.17329724929080303
3700000000.0 0.07536716432718757 -0.17381857634343148
3720000000.0 0.06332668152629375 -0.19307903016702818
3740000000.0 0.21953099983632163 0.009755665233204775
3760000000.0 -0.026267606094288055 0.23734152648140575
3780000000.0 -0.25592167687525713 0.02191622596558005
3800000000.0 0.13116073861165456 -0.23370094790206386
3820000000.0 -0.10054291019231906 0.254661054282143
3840000000.0 0.23898592489168816 -0.14109427134571143
3860000000.0 -0.27124205691312103 0.047110226878744985
3880000000.0 0.19921223635951374 0.18617362693622175
3900000000.0 -0.06404762312948305 -0.25805403269870303
3920000000.0 0.14061874267378 0.2106054635636619
3940000000.0 -0.22294305475371837 0.07390584647973766
3960000000.0 -0.16738067673357476 -0.1301723187403234
3980000000.0 -0.07312428908737144 0.1747454640391827
4000000000.0 -0.12789328812317954 -0.10392628367488356
