!Created with skrf (http://scikit-rf.org).
# Hz S RI R 50.0 
!freq ReS11 ImS11
400000000.0 -0.02285925716837956 0.6159124022924974
420000000.0 -0.5313534473584868 0.1512851269872046
440000000.0 -0.043401881039498644 0.4723227557271891
460000000.0 -0.1341955207688297 -0.36307100965795136
480000000.0 -0.22646485298367744 0.3562562029947676
500000000.0 0.048705057766271216 0.4526419886925499
520000000.0 0.14440656915103703 0.4650350218378572
540000000.0 -0.36397526065039354 -0.3212297521238318
560000000.0 -0.4080669381950516 -0.08268762431314765
580000000.0 -0.32287079529774315 0.14577624821301938
600000000.0 -0.1356066403517873 -0.21859156815782155
620000000.0 0.05465661209777502 -0.15000320782033552
640000000.0 -0.004611904925144884 0.18048940173190367
660000000.0 0.004206423457858917 -0.1333646534801489
680000000.0 -0.029493352535797584 -0.10672098904119078
700000000.0 0.08424027514759576 0.05952302132089954
720000000.0 0.06670031429136493 0.10453426453238396
740000000.0 -0.043297015916208034 -0.16501799863705563
760000000.0 -0.040542563028331986 0.18511385062872396
780000000.0 -0.13076651744257317 0.16951900759653915
800000000.0 0.2059732985963231 0.09867303236322056
820000000.0 0.056990083726983706 0.2364257526903792
840000000.0 0.09385594199899717 -0.24546626464084753
860000000.0 -0.22714802945853074 0.13688175192791646
880000000.0 0.246439790865291 -0.0805707090438948
900000000.0 0.16365353234484384 0.18025028709120225
920000000.0 -0.19041691398882413 0.1422398929268375
940000000.0 0.15611196954459347 -0.16575811210863037
960000000.0 0.1652238658534345 -0.10162880408082958
980000000.0 -0.06124613522581374 -0.12102054369578423
1000000000.0 -0.06997228797464526 -0.08452331930692442
1020000000.0 -0.04776307136523489 0.06920409361176168
1040000000.0 0.038083420984960155 0.0925003774014555
1060000000.0 0.10686882814197571 0.0431525298391834
1080000000.0 -0.035511119040666915 -0.1372092715513206
1100000000.0 -0.1229898324923728 0.14652762121238316
1120000000.0 0.2151423520885274 -0.06541380607886511
1140000000.0 0.03128197459872143 0.23819120846837294
1160000000.0 0.20948142459988467 -0.12743180743227128
1180000000.0 -0.24946923796845408 0.01811177089761303
1200000000.0 0.07003254041575062 0.24958071272202803
1220000000.0 -0.10117548859421929 0.22178699058003773
1240000000.0 -0.024171789970191215 -0.23470524702059914
1260000000.0 -0.10769602194399358 0.21006114417790628
1280000000.0 -0.1946728991490954 -0.13559886755732803
1300000000.0 0.1700601851659529 -0.18270293815492977
1320000000.0 0.21157356391600737 -0.14396747135246618
1340000000.0 -0.18667286432115632 -0.17720035266073925
1360000000.0 0.08530257408022682 0.25905875866530714
1380000000.0 -0.19815006118431655 0.19967435801692138
1400000000.0 -0.03562448963795528 0.2675170682966531
1420000000.0 0.1703789815741153 0.2107944940851835
1440000000.0 -0.16316419955594252 -0.1896420006204888
1460000000.0 -0.08163209416511154 0.24528884890089125
1480000000.0 -0.2575019158835123 0.01025979729124699
1500000000.0 0.2242468823583287 -0.1149299840210401
1520000000.0 -0.25422598472250063 0.039046640779948905
1540000000.0 -0.2608802887210943 0.04250266595888653
1560000000.0 0.14006725003195095 0.2215714244043326
1580000000.0 0.13359314156116558 -0.2219861714202482
1600000000.0 0.10467009927288602 0.22228083184295605
1620000000.0 -0.23771349934384467 -0.029635013614419996
1640000000.0 -0.22070268167663787 -0.07864622598910073
1660000000.0 -0.09242227518968031 0.2068719106370059
1680000000.0 0.21580554496997045 0.04180879982213429
1700000000.0 -0.02412961056343939 0.20087644818255143
1720000000.0 -0.02538732518302397 0.18538193960782343
1740000000.0 0.115859680597302 0.1237727353618825
1760000000.0 0.1407610450970603 -0.008499919787443452
1780000000.0 0.07353168692048964 0.08323450041288462
1800000000.0 0.03573575496803216 -0.05622677462421627
1820000000.0 -0.022220712091087145 -0.016757552611098774
1840000000.0 -0.034563840812643624 0.005243798365534431
1860000000.0 -0.017894306397061792 -0.07297307222714362
1880000000.0 0.03772592959832385 0.10674768230914514
1900000000.0 0.027968728635684052 0.15084048051976348
1920000000.0 -0.15642628384136356 0.07973640368528595
1940000000.0 0.14272236698686588 -0.13460720203132007
1960000000.0 0.11939102760847681 -0.17442220642751402
1980000000.0 0.06242934616233025 -0.20446873821641698
2000000000.0 -0.103045401999292 -0.19549921146698718
2020000000.0 0.1810370756402268 0.12318105127364055
2040000000.0 0.04431470576771012 -0.2012095945078678
2060000000.0 -0.18273091879638784 0.07794476198729908
2080000000.0 0.023210677256860417 0.19146814436921922
2100000000.0 -0.14236421566721122 0.1264997504010813
2120000000.0 0.0695469036428202 0.17296907171037554
2140000000.0 0.047264755015634666 0.1727658159582849
2160000000.0 0.08983461500346014 0.14628386878969088
2180000000.0 -0.15702953576469092 0.01175028849626786
2200000000.0 0.04162162417482415 0.1398016152848549
2220000000.0 -0.08214664087987573 -0.10514872775081016
2240000000.0 -0.10816076906660992 -0.02363052185232657
2260000000.0 -0.09254190050420251 0.0021504500480002005
2280000000.0 0.060183821457911506 -0.05661759079206667
2300000000.0 0.06435686917960991 0.014014195676801861
2320000000.0 -0.014043666371243725 0.04369539151600681
2340000000.0 -0.03712959476217266 0.011428423700889631
2360000000.0 0.010677216006437475 0.030429110110156605
2380000000.0 0.029029197009695105 -0.0037297579644115396
2400000000.0 -0.01264597072974748 0.0341338495952438
2420000000.0 0.029125726253889817 -0.01539280119801787
2440000000.0 -0.025155381431524265 -0.028939778029123113
2460000000.0 -0.03884922326285393 0.019069305503413805
2480000000.0 0.04161624440525907 -0.017307797928701917
2500000000.0 0.023015674693713344 0.05232416868394737
2520000000.0 0.06825127702020134 0.016779871924539783
2540000000.0 0.0020979876515348815 0.0861322501644426
2560000000.0 0.09378075473574134 -0.03049243801871403
2580000000.0 -0.10120923606877122 0.05526317544665803
2600000000.0 0.05128703486436544 0.11883587989672442
2620000000.0 0.101619336144063 0.10155342873429167
2640000000.0 -0.11009073200440332 0.11173240723747686
2660000000.0 -0.14955910304120862 0.08632685347837091
2680000000.0 -0.01022951108487431 0.18475211964605157
2700000000.0 0.19194694929498896 0.028969166465427156
2720000000.0 -0.13686021848342877 -0.15180440634659087
2740000000.0 0.20862216260279265 -0.02790239948674659
2760000000.0 0.2164653876978056 -0.00038062533807341605
2780000000.0 0.1460476862742171 -0.16598397453805944
2800000000.0 -0.023890130676580686 -0.22511369020858005
2820000000.0 -0.18370592082883036 -0.141671485326512
2840000000.0 0.0780949033285188 -0.22868026190388124
2860000000.0 0.14953181944815042 -0.19855705409087412
2880000000.0 0.25795671597385533 -0.012033306693719973
2900000000.0 -0.23094822508344282 0.1357652012101288
2920000000.0 0.11264149679679912 -0.24918202671546433
2940000000.0 -0.24814704180368843 0.10941439908522822
2960000000.0 -0.07281027162159188 0.2558027446116594
2980000000.0 0.04319534605907743 0.2539977400233499
3000000000.0 -0.03147687124037518 0.24219814813767923
3020000000.0 -0.10990272810250251 0.20131582958309277
3040000000.0 -0.20260305351016747 0.05023770273790962
3060000000.0 -0.08398207605663627 -0.16653059077743457
3080000000.0 0.14900699437947934 0.07910750668199784
3100000000.0 -0.12362024610654362 -0.0816400333371098
3120000000.0 0.08823978232412828 -0.10419141526789605
3140000000.0 -0.025338408509153913 -0.12103968869488343
3160000000.0 0.040310848473569666 -0.10796897934585449
3180000000.0 -0.039026364689193814 -0.1000287030748601
3200000000.0 -0.049930985373148086 0.0884931480401869
3220000000.0 -0.10378309790344287 -0.01734517069936223
3240000000.0 0.06844398884433456 -0.08748771195349112
3260000000.0 -0.10847629558932476 0.054469964024024084
3280000000.0 0.10434126864887651 -0.08723816145288028
3300000000.0 -0.12294739865233095 0.09151417335240075
3320000000.0 0.06421847863987955 -0.1615835094145564
3340000000.0 0.16868426592074354 0.09640772402956906
3360000000.0 0.042221244458364726 0.20560634314188875
3380000000.0 -0.21554718821727087 0.047690367580131475
3400000000.0 0.16319437511756862 -0.15654443245677085
3420000000.0 0.19602881015035611 0.1164900331666588
3440000000.0 0.017798353060588842 0.22319754274621226
3460000000.0 -0.07343448316635896 -0.20317772126294562
3480000000.0 0.10905314789461446 0.17657357595604023
3500000000.0 -0.19648830021572308 -0.019793209783592627
3520000000.0 0.18251071279754494 -0.0381504670596989
3540000000.0 -0.006597837198305572 0.1738644904614172
3560000000.0 -0.16132476630962556 -0.0346274010743452
3580000000.0 -0.10664004316457616 -0.11663744711505777
3600000000.0 -0.1398812276099412 0.06393236416236406
3620000000.0 -0.12697532753485652 0.08380750791771509
3640000000.0 0.12044696308856043 0.09649332698667816
3660000000.0 -0.10327343870457194 -0.12608370151190357
3680000000.0 0.06092835160747121 0.16369266880901678
3700000000.0 0.04351690422774262 -0.18440460128994676
3720000000.0 0.008875826172415717 -0.2031741196294359
3740000000.0 0.2168202351080332 -0.03885363031503354
3760000000.0 0.005600387368729548 0.23913384018669087
3780000000.0 -0.25165373447358946 0.0555528592544585
3800000000.0 0.1351830314952433 -0.2325549871017323
3820000000.0 -0.1535375796686737 0.22792614511124343
3840000000.0 0.24107564659056382 -0.13920658714225279
3860000000.0 -0.2714318868740984 -0.0467394547355466
3880000000.0 0.1411579352165914 0.23352937640474875
3900000000.0 -0.03186517334478674 -0.26424357931269316
3920000000.0 0.12112016252646661 0.22160221217719192
3940000000.0 -0.20944214683534929 0.10594816534326103
3960000000.0 -0.13539030690081538 -0.16134433302211365
3980000000.0 -0.09143467123042358 0.16498636223812663
4000000000.0 -0.1259742419194395 -0.10512038486808709
