!Created with skrf (http://scikit-rf.org).
# Hz S RI R 50.0 
!freq ReS11 ImS11
400000000.0 0.036678125334960024 0.6038672836333929
420000000.0 -0.5561634873125862 0.031540595169596376
440000000.0 -0.08406133131360705 0.47145446476194813
460000000.0 -0.26594818225938854 -0.29049036456192917
480000000.0 0.009735383242006106 0.40490178377648384
500000000.0 -0.35328653270103877 0.2830095975386693
520000000.0 -0.2659595847241945 0.41326612236012067
540000000.0 -0.25062822686018327 -0.420969273216251
560000000.0 -0.41127241277185034 -0.08208504924347089
580000000.0 -0.2308301342331426 0.27173693140351285
600000000.0 -0.22483114325784065 -0.11941964074915933
620000000.0 0.12270175332698567 -0.10283617030306498
640000000.0 0.15892619800492558 0.08718818224762369
660000000.0 -0.02477005070487622 -0.13100072858476794
680000000.0 -0.1100496437122857 -0.019754159657081743
700000000.0 0.08452092256631813 -0.06073130511981073
720000000.0 0.10256262529467942 0.0656560843459655
740000000.0 -0.12754652797964527 -0.11000302338036423
760000000.0 0.059029040735652134 0.17463445136402808
780000000.0 -0.19393438580808015 0.0793223908500794
800000000.0 -0.07678293332535131 0.21609217536947628
820000000.0 -0.02973129911161344 0.2448956865188845
840000000.0 0.11544754287485715 -0.23723288030222223
860000000.0 -0.26294027344571985 -0.0404197664625877
880000000.0 0.2456047445668416 0.09163685234949269
900000000.0 0.1691217666602821 0.18493666652705892
920000000.0 -0.027808712549050423 0.2393518537434483
940000000.0 -0.21690343123792585 0.06450039852681985
960000000.0 -0.1602378630468459 0.10188005284871338
980000000.0 -0.0947236349686651 0.08458044206740173
1000000000.0 0.06525586911771503 -0.07780246248365805
1020000000.0 -0.0483847374061959 0.06462360392157893
1040000000.0 0.10106457763899981 -0.011201817309745161
1060000000.0 -0.08471798927210611 -0.0820844576978251
1080000000.0 0.1444127937399003 -0.03165613270316567
1100000000.0 -0.057707827642145416 0.18367502326676363
1120000000.0 0.1537729127626375 -0.166542988639551
1140000000.0 0.2302175673014771 0.06743637979722347
1160000000.0 -0.011691958177146806 -0.2454345464165269
1180000000.0 -0.07045178816772313 0.23567432841755565
1200000000.0 -0.035087214598516776 0.2526981786660877
1220000000.0 -0.1873797009547797 0.15580846550374022
1240000000.0 0.19263642786987567 -0.13481721663757748
1260000000.0 -0.23036736710453382 0.07326497720243849
1280000000.0 -0.23286756475845247 -0.06079863540273479
1300000000.0 0.16622137510225113 -0.18437025843465057
1320000000.0 0.23254958016630953 -0.11165490899695028
1340000000.0 -0.22664050661100246 -0.12217714138033611
1360000000.0 0.19240586571608673 0.1903267576088245
1380000000.0 -0.20602753418888017 0.18287684272049512
1400000000.0 -0.17124401431441932 0.20497234440321577
1420000000.0 0.011622949682732734 0.2690872986519723
1440000000.0 -0.1698052106283613 -0.18644764823052656
1460000000.0 0.09736174629798447 0.24137543817423496
1480000000.0 -0.17218474500062117 0.19032124412784368
1500000000.0 0.1142825821385837 -0.2240048897715557
1520000000.0 -0.22372981882130008 0.12551726801420962
1540000000.0 -0.262683648355999 0.021575297978194574
1560000000.0 0.11643999129581911 0.23539761035989365
1580000000.0 0.13917147425485094 -0.21895608891045285
1600000000.0 0.058713274415588296 0.23913760655284044
1620000000.0 -0.23371769230387338 -0.054584206282555336
1640000000.0 -0.19255834436936814 -0.13527293932624895
1660000000.0 -0.1280294574832529 0.18704442379125713
1680000000.0 0.20299877740507385 0.08310349896117375
1700000000.0 0.0037088283404511308 0.2019990740782431
1720000000.0 -0.022413895760544044 0.18409383706129173
1740000000.0 0.14269556663886893 0.09166336885547081
1760000000.0 0.11303640295869603 -0.08340562083315144
1780000000.0 0.1002381766708021 0.04716270811755816
1800000000.0 -0.01375225500297995 -0.06501221858194946
1820000000.0 -0.01197716870338133 -0.024944576484987213
1840000000.0 0.03350359083626939 -0.003761384214871898
1860000000.0 -0.011991160433416479 -0.07283001392901128
1880000000.0 0.021306336542181413 0.11117277571859788
1900000000.0 0.06754095735191648 0.13863267322133024
1920000000.0 -0.12493720390979202 0.12435020001988847
1940000000.0 0.12194133707167909 -0.15380912324927298
1960000000.0 0.11392945190221093 -0.17826559800845565
1980000000.0 0.04706939111444303 -0.2091955736427915
2000000000.0 -0.0982313566027309 -0.19801943144026599
2020000000.0 0.17847358911210986 0.12682049417226898
2040000000.0 0.08511124063274625 -0.18725261460556417
2060000000.0 -0.16934181908701082 0.10356993164296265
2080000000.0 0.0037007278632769725 0.19202495901217254
2100000000.0 -0.1524219482621332 0.11344757026622963
2120000000.0 0.08242041243273693 0.16682263311902631
2140000000.0 0.06240196143021507 0.16870078008481493
2160000000.0 0.13407592615329042 0.10732755165289604
2180000000.0 -0.14356172780805118 0.0635173025778717
2200000000.0 0.03860106107778126 0.13997503601569597
2220000000.0 -0.038902007809573105 -0.12716844097291674
2240000000.0 -0.09022573191771568 -0.06515719918855566
2260000000.0 -0.09250822265445338 -0.014131122836381951
2280000000.0 0.027903703003158985 -0.0784838787886157
2300000000.0 0.062423226761156005 -0.021740248168042788
2320000000.0 -0.0011261104409662026 0.045238585470506715
2340000000.0 -0.0318873425070848 -0.020959481111685697
2360000000.0 0.011457659460725866 0.029755226047120487
2380000000.0 0.0010308706665068169 0.029187915668460983
2400000000.0 -0.008295670238384331 0.034747354081597445
2420000000.0 0.0339627666099183 0.0005793754768298801
2440000000.0 -0.02597240397877154 0.028599992490423495
2460000000.0 -0.037538181176891575 0.020828198085151788
2480000000.0 0.03928583066402437 -0.022276855398707007
2500000000.0 0.035653864071203314 0.04497105171825574
2520000000.0 0.06972079598665884 -0.000568563383722669
2540000000.0 -0.022581929135761326 0.08352887698286551
2560000000.0 0.09624098669862477 -0.0201838339500987
2580000000.0 -0.10282404565107307 0.053209238321800835
2600000000.0 -0.00675832355875936 0.12884409407005032
2620000000.0 0.09059764193898491 0.11239596977581799
2640000000.0 -0.10166035976634212 0.11971651675434775
2660000000.0 -0.14855259364117154 0.08796816438618524
2680000000.0 0.0034718663634257323 0.18522873496055914
2700000000.0 0.19392612057624406 0.0081128074627323
2720000000.0 -0.11938657110327368 -0.16581483481174839
2740000000.0 0.20301834284453618 -0.05492621811711114
2760000000.0 0.2160564951841008 -0.009761104598380217
2780000000.0 0.1650201987383346 -0.14743114397420798
2800000000.0 0.03258718700305871 -0.22424703844632035
2820000000.0 -0.19116985134269057 -0.13227266026871154
2840000000.0 0.05028611600563409 -0.2360618898929365
2860000000.0 0.14116359740286505 -0.2041999205630347
2880000000.0 0.257800516316335 -0.01717358717889384
2900000000.0 -0.22951508219861366 0.1383811518295882
2920000000.0 0.08577055963736095 -0.25979581737438506
2940000000.0 -0.24962559010406463 0.10584489551364251
2960000000.0 -0.06702142804868955 0.25676180853118347
2980000000.0 0.004783633378576258 0.25767600857818695
3000000000.0 -0.08693932905032539 0.22797621493303932
3020000000.0 -0.1433579908452073 0.17897187690399508
3040000000.0 -0.20392999964578756 0.04245893871992366
3060000000.0 -0.08948415288716662 -0.16250835258518473
3080000000.0 0.15025600039097936 0.07485778781321153
3100000000.0 -0.13773352265985514 -0.05320703974321035
3120000000.0 0.07462666662085254 -0.11424533948585947
3140000000.0 -0.0609664687067685 -0.1070626313120126
3160000000.0 0.012695458434276037 -0.11463190293338973
3180000000.0 -0.06953087209965922 -0.08181509994249611
3200000000.0 -0.013580095279348477 0.10086177540691078
3220000000.0 -0.1050298234164638 0.008828508108609369
3240000000.0 0.04517480639136266 -0.10205394661822446
3260000000.0 -0.10908042044061324 0.05387422861313877
3280000000.0 0.10357268149715075 -0.08876176428931813
3300000000.0 -0.14457935499855143 0.05205742075896528
3320000000.0 0.08921952391459631 -0.14972349427426818
3340000000.0 0.1484043083681869 0.12569210736028205
3360000000.0 0.023146540947631064 0.20905937624895612
3380000000.0 -0.21861030058329928 0.02854391278568847
3400000000.0 0.17611638730105816 -0.1403924503576322
3420000000.0 0.20181734948154792 0.1037984030539604
3440000000.0 -0.005970182604716049 0.22324538054787113
3460000000.0 -0.09031284262594727 -0.19527305527226402
3480000000.0 0.13006122254016897 0.16104999086554134
3500000000.0 -0.1916649855300175 -0.046541528346224034
3520000000.0 0.17170993533151793 -0.0724051216315077
3540000000.0 0.029240476768167413 0.1714223825644519
3560000000.0 -0.16418900451431984 -0.018113838642440334
3580000000.0 -0.10102382174597642 -0.12197606004384236
3600000000.0 -0.13990075672984517 0.06470799478262086
3620000000.0 -0.12512658748366412 0.08643735303827262
3640000000.0 0.11573588417228318 0.10247485545309512
3660000000.0 -0.08977507141998624 -0.13646536252643052
3680000000.0 0.06008169274648315 0.1637505520579314
3700000000.0 0.06226285739931371 -0.1789710845006745
3720000000.0 0.02080479026266053 -0.20198450557395803
3740000000.0 0.2203234957633602 -0.0026555121509571314
3760000000.0 0.010531012146836242 0.23856504255947958
3780000000.0 -0.25420242166602014 0.04098599854047884
3800000000.0 0.12175103087267432 -0.23972203306503712
3820000000.0 -0.09601607777413562 0.25698629334515116
3840000000.0 0.2472541403765705 -0.1268355571036061
3860000000.0 -0.27498654494061714 0.015694719202196707
3880000000.0 0.19557177577737206 0.19006207698729202
3900000000.0 -0.03663593685413455 -0.26328630060093544
3920000000.0 0.14503305149025866 0.20694708656899904
3940000000.0 -0.22163992026823487 0.07710249223604705
3960000000.0 -0.16424363742795953 -0.13414775406971147
3980000000.0 -0.09627751168095633 0.16345655211863283
4000000000.0 -0.08954034895952818 -0.13835478975105803
