!Created with skrf (http://scikit-rf.org).
# Hz S RI R 50.0 
!freq ReS11 ImS11
400000000.0 0.07685721711444071 0.6039088320514654
420000000.0 -0.5494369263249569 0.09414357249701773
440000000.0 -0.0719771340830775 0.473491963615555
460000000.0 -0.29571758239322193 -0.2653398826965753
480000000.0 -0.12701454287399824 0.38323000970712195
500000000.0 -0.3300160475258234 0.30557261526818924
520000000.0 -0.3151661759990784 0.3790442970344519
540000000.0 -0.2293585769452116 -0.431278200010425
560000000.0 -0.41276600946018027 -0.07096644409285047
580000000.0 -0.2672118175728691 0.2350391736044624
600000000.0 -0.17789285622238835 -0.1825166459689353
620000000.0 0.1556520561370503 -0.03861428003346936
640000000.0 0.14596042627184172 0.10345505320857061
660000000.0 0.07628142351122956 -0.10779847912643503
680000000.0 -0.012549297726267249 -0.11059991063851024
700000000.0 0.09886654249084337 0.03046129359849297
720000000.0 0.12344463942968853 0.017231927068469197
740000000.0 -0.16617250887918106 0.03027847610090709
760000000.0 0.11580996436495458 0.14447473619331205
780000000.0 -0.20570992435617044 0.045536158265034994
800000000.0 -0.03461602496872764 0.2258439490041161
820000000.0 0.0650777984475896 0.23791755986282548
840000000.0 0.2018190532867432 -0.1674248771490025
860000000.0 -0.26622107436865944 0.012993584529061564
880000000.0 0.2591006720080392 0.041686643933789624
900000000.0 0.07802453112053634 0.23738181464985325
920000000.0 0.07847586347918094 0.23296446657841627
940000000.0 -0.2226988334880968 0.03509778411353181
960000000.0 -0.1887421311916154 0.013584862281394989
980000000.0 -0.11108504946431069 -0.0623871689576202
1000000000.0 0.009417463869820479 -0.09760515818486339
1020000000.0 -0.0823154247680586 0.005065238382028399
1040000000.0 0.007215414863035942 -0.09977313667832817
1060000000.0 -0.11759117173053059 0.0013054832862295796
1080000000.0 0.03994658704355094 -0.1416529353581294
1100000000.0 -0.12934999193235658 0.1483482184804417
1120000000.0 0.12336152755732561 -0.19206424552251586
1140000000.0 0.2012993684733341 0.12988598654221312
1160000000.0 0.08850653049987621 -0.23088387823602008
1180000000.0 -0.16897731498136556 0.17949721148920084
1200000000.0 0.012934731983752707 0.25362967106429146
1220000000.0 -0.22193860678500565 0.09629014050757691
1240000000.0 0.18894543568100605 -0.14133803325652952
1260000000.0 -0.17338587396303223 0.16794485807649306
1280000000.0 -0.21711666399577403 -0.09758304192652058
1300000000.0 0.1629882950458085 -0.18835885882144843
1320000000.0 0.1456802093787879 -0.21350510803418057
1340000000.0 -0.24565118698397093 -0.07580666155124537
1360000000.0 0.20047292913405176 0.18176596772462292
1380000000.0 -0.23847923504146765 0.14316178045813843
1400000000.0 -0.1569168238968416 0.21747171509000027
1420000000.0 -0.047732755830724824 0.2655246356115418
1440000000.0 -0.13917535243119283 -0.21082362334952315
1460000000.0 0.024513118508205298 0.26034146584340445
1480000000.0 -0.24281491922870557 0.08327755013603926
1500000000.0 0.13853777771149542 -0.20930049757167382
1520000000.0 -0.2548155332667296 0.030217843681771273
1540000000.0 -0.25621911830975513 0.05896447889146586
1560000000.0 0.10415390613251024 0.2405345216494211
1580000000.0 0.13453728989100275 -0.22029357632370386
1600000000.0 0.06687538598757717 0.236956525092138
1620000000.0 -0.2385715150238541 -0.018853861905373612
1640000000.0 -0.2151796752455707 -0.09616856939267948
1660000000.0 -0.10574712083004084 0.2003288516182684
1680000000.0 0.2169431027013301 0.03884068086444361
1700000000.0 0.007430135379511838 0.20197257928088638
1720000000.0 -0.030337234971150536 0.1838093629735954
1740000000.0 0.11536975733919913 0.1250965800665236
1760000000.0 0.11449316130710104 -0.08213187482049226
1780000000.0 0.07455674934418484 0.08127625439049196
1800000000.0 0.015783025955030363 -0.06402264864135762
1820000000.0 -0.01181105502178495 -0.025537716235968302
1840000000.0 -0.014581821332572483 0.03089386520322232
1860000000.0 -0.014352878943408942 -0.0729887667470875
1880000000.0 0.02002186247415715 0.11132010795508168
1900000000.0 0.008710570504206634 0.1542009113260898
1920000000.0 -0.11288430485051681 0.13489165883624146
1940000000.0 0.11815706258661036 -0.1558801331980738
1960000000.0 0.14102326139428092 -0.15754452072998734
1980000000.0 0.06976936872575931 -0.20262611374030748
2000000000.0 -0.09809331702744967 -0.1984877709927085
2020000000.0 0.17886674324900806 0.12638159577205677
2040000000.0 0.032874277124110576 -0.20268215426405709
2060000000.0 -0.18925860638833725 0.059066187884458526
2080000000.0 0.006572473374121497 0.19279028027564107
2100000000.0 -0.15994283278910104 0.10318000457941387
2120000000.0 0.09166076274893502 0.16225028521894067
2140000000.0 0.07247432352827848 0.16329056687303709
2160000000.0 0.1082501859710917 0.1342361309798688
2180000000.0 -0.1430260932430922 0.06360543866821836
2200000000.0 0.019901227788553976 0.1437003819970269
2220000000.0 -0.05314900133999142 -0.1219246817558382
2240000000.0 -0.11016257474319302 -0.017473895920310404
2260000000.0 -0.08308667096292065 -0.04190039567806459
2280000000.0 0.04931010852686781 -0.06679427273184949
2300000000.0 0.06118671404715026 -0.02576902761820477
2320000000.0 0.02642259173744547 0.03722518418374537
2340000000.0 -0.0366683416249261 -0.012020897322013396
2360000000.0 -0.0001773895676586622 0.03184380551141345
2380000000.0 0.013240421763566034 0.02656710257719458
2400000000.0 -0.021493212074872065 0.029272196799530956
2420000000.0 0.017848386466591464 0.02926987950078175
2440000000.0 -0.03341241419640025 0.019376331958767423
2460000000.0 -0.028186384356555974 0.03276675716689751
2480000000.0 0.04537284906017506 -0.0017947898867550901
2500000000.0 0.0009043847789731958 0.05714105672860876
2520000000.0 0.06836790453434588 -0.007443826400736493
2540000000.0 -0.04406127960888463 0.0734973696022783
2560000000.0 0.09045775007534297 -0.038325269523271414
2580000000.0 -0.11258950261879593 0.026302643698428555
2600000000.0 0.014168184392616757 0.12817821518021574
2620000000.0 0.08822552490320001 0.11447464442493861
2640000000.0 -0.10582375260044143 0.11564064478721374
2660000000.0 -0.12681286044438697 0.11736145444268421
2680000000.0 0.023205690484057045 0.18404066369977246
2700000000.0 0.19346957511272297 0.019349603488777508
2720000000.0 -0.11146891276774756 -0.1714665669760386
2740000000.0 0.2086232033462466 -0.029215219077316064
2760000000.0 0.2127660187622369 0.039036535112670176
2780000000.0 0.18451159830715466 -0.12204682135378644
2800000000.0 0.022144711984314013 -0.22527162658716424
2820000000.0 -0.1806386180315564 -0.14517356679081878
2840000000.0 0.09848421607043097 -0.21953675480907417
2860000000.0 0.17473319198545048 -0.17515380952859974
2880000000.0 0.2574878135052809 -0.02306301595476229
2900000000.0 -0.23210051791864905 0.1333301371140354
2920000000.0 0.0935964990050482 -0.25651023600730244
2940000000.0 -0.25056108849826997 0.10419750403852056
2960000000.0 -0.0675462729412024 0.25719300294302827
2980000000.0 -0.0011768020317764207 0.2586913848671564
3000000000.0 -0.07017697245709857 0.2341238929673924
3020000000.0 -0.158070422984208 0.16673745995131836
3040000000.0 -0.20115117845042854 0.05399212238115096
3060000000.0 -0.055651270488668525 -0.17765856416555828
3080000000.0 0.14072506899498993 0.09207072118393793
3100000000.0 -0.14161111749391012 -0.04025012207837876
3120000000.0 0.09981243350160358 -0.09201235641983461
3140000000.0 -0.022829048212695744 -0.1210419117833333
3160000000.0 0.016065879066090895 -0.11367577157644068
3180000000.0 -0.07553232450713991 -0.0758113398611121
3200000000.0 -0.027081036787165273 0.09774924606085632
3220000000.0 -0.10172936881141778 0.02555297054427194
3240000000.0 0.05329720813692522 -0.09789661773410593
3260000000.0 -0.10212707969264315 0.06655642087625285
3280000000.0 0.08819745781639753 -0.1043824140515763
3300000000.0 -0.1422404058181689 0.05855057902236224
3320000000.0 0.08018995731988217 -0.15478490180229965
3340000000.0 0.16194482583057765 0.10827970727441812
3360000000.0 0.0036543514273383324 0.2104425816213839
3380000000.0 -0.2173700152943455 0.03814782750359975
3400000000.0 0.16055363496232464 -0.1581507142571947
3420000000.0 0.19629657271172743 0.114350205361598
3440000000.0 -0.057384247188493304 0.21608529659468556
3460000000.0 -0.08013930552294862 -0.19945859497046295
3480000000.0 0.14375339982524205 0.14846071378922307
3500000000.0 -0.19203842980429725 -0.045488414509861005
3520000000.0 0.14217100929057125 -0.11985414734087539
3540000000.0 -0.006622088342874926 0.17320868183463933
3560000000.0 -0.1622908025366497 -0.028593606867334736
3580000000.0 -0.12354538502612986 -0.09938383045890409
3600000000.0 -0.12873317116954455 0.08596758778638784
3620000000.0 -0.11935732143529394 0.09463279707313203
3640000000.0 0.11582833567371388 0.10267786589015333
3660000000.0 -0.09463264622897505 -0.1331120856438934
3680000000.0 0.04678644073843282 0.1685811350053908
3700000000.0 0.04773861073496693 -0.18328257817177773
3720000000.0 0.05799847376864506 -0.19561008934474697
3740000000.0 0.21986722400699965 0.015738651925050747
3760000000.0 -0.014126837816922784 0.23874397136094885
3780000000.0 -0.2529682121421957 0.04684438008829485
3800000000.0 0.14976755580198578 -0.22296608302911178
3820000000.0 -0.09468574659004125 0.2574472746048379
3840000000.0 0.2424684781681006 -0.1360403480778245
3860000000.0 -0.2751311491071586 -0.0032327467715274126
3880000000.0 0.18790397672197184 0.1977498725361554
3900000000.0 -0.004206758314355589 -0.26575671695797093
3920000000.0 0.13160933319303586 0.21592084040823198
3940000000.0 -0.20954013579393124 0.1062509464345098
3960000000.0 -0.1461177834879244 -0.15238671668239076
3980000000.0 -0.08144024586785827 0.1707006496196382
4000000000.0 -0.1288758667286242 -0.10207499037550863
