!Created with skrf (http://scikit-rf.org).
# Hz S RI R 50.0 
!freq ReS11 ImS11
400000000.0 0.08333007961688658 0.602002913122591
420000000.0 -0.5538788058439329 0.0631609065899094
440000000.0 0.07583360133869406 0.470975057810497
460000000.0 -0.05771405990657962 -0.3908142463796853
480000000.0 0.14276374346802154 0.37896605662528776
500000000.0 -0.37569984964226816 0.2444082318244221
520000000.0 -0.41444747216357114 0.2680417436730939
540000000.0 -0.3533121391033319 -0.3392266900737642
560000000.0 -0.40824625753844473 -0.0865434254416194
580000000.0 -0.26579963819043956 0.23783173954030828
600000000.0 -0.19925635467165506 -0.1605599331549143
620000000.0 0.1566721114709782 -0.037208068673046234
640000000.0 0.14543139253621837 0.10613233776429315
660000000.0 0.07574385599124023 -0.10965675276646394
680000000.0 -0.08372052549887263 -0.0727071501524519
700000000.0 0.09425812403737065 0.04065101032235979
720000000.0 0.12287668003982705 -0.00036523226274770435
740000000.0 -0.16698880526530388 -0.03247103124148017
760000000.0 0.09385017129514632 0.16068290807414262
780000000.0 -0.206830799677189 0.04064775736505848
800000000.0 -0.07037291376285125 0.2166976755046466
820000000.0 0.03128042343582943 0.24473298655880876
840000000.0 0.19328133210048112 -0.17817670814224681
860000000.0 -0.24541426718266385 0.10120648229199852
880000000.0 0.2536184087425019 0.06998529532104303
900000000.0 0.08590937842922775 0.23505554636558318
920000000.0 0.07952451813685972 0.2317936882659258
940000000.0 -0.22569875311949641 0.03357175485552716
960000000.0 -0.18062712701523576 -0.05722152023315375
980000000.0 -0.10567850521240736 -0.06958576991993744
1000000000.0 0.006240468371135401 -0.09763922437762038
1020000000.0 -0.0756190997147663 -0.024719166395103038
1040000000.0 0.035351997055286 -0.09511472891508461
1060000000.0 -0.07653481116281681 0.09097813590673402
1080000000.0 -0.019767244094060242 -0.1469488800769144
1100000000.0 -0.1880359544848116 0.05348402811867478
1120000000.0 0.1687741918811199 -0.1569910982363115
1140000000.0 0.22733140791324902 0.07694316923926521
1160000000.0 0.12559411842517482 -0.21216323271716053
1180000000.0 -0.17894024801234426 0.1672320696073796
1200000000.0 -0.06373209115776589 0.2476216433748558
1220000000.0 -0.1464269947929158 0.19183678709796037
1240000000.0 0.23468503015176592 0.00848781240908553
1260000000.0 -0.14520572602698995 0.1930275939578497
1280000000.0 -0.2311425026874143 -0.0572057754083525
1300000000.0 0.11715186054798325 -0.2185072859148555
1320000000.0 0.18577503394278494 -0.18110065571519493
1340000000.0 -0.2574315102260377 0.0068574479467039704
1360000000.0 0.1781352845135188 0.20482973652771666
1380000000.0 -0.20717918626642912 0.18388201008561117
1400000000.0 -0.17365202291520168 0.2059971128904094
1420000000.0 -0.029794181983568525 0.26750405230463564
1440000000.0 -0.16657832919049456 -0.19025137919274793
1460000000.0 -0.019112369494010698 0.2605215188151282
1480000000.0 -0.2221079913648996 0.12954429459216668
1500000000.0 0.17330919375968806 -0.18203446154543587
1520000000.0 -0.25330140129312084 0.04020169829332098
1540000000.0 -0.2575513448687754 0.050134599719790604
1560000000.0 0.09865332097891091 0.24245321243515994
1580000000.0 0.11480105608743064 -0.2316828089251535
1600000000.0 0.07094416793774456 0.23564692478355717
1620000000.0 -0.23557296412993883 -0.040549521174983484
1640000000.0 -0.19879437832086755 -0.12728321432267262
1660000000.0 -0.1042915303143778 0.2014773211688554
1680000000.0 0.21360965995567321 0.05396623076977252
1700000000.0 0.012053793536403824 0.2016435763932737
1720000000.0 -0.05781571952303139 0.17654803016195011
1740000000.0 0.09708194979034991 0.1397412615561578
1760000000.0 0.11966411627757868 -0.0743427791557587
1780000000.0 0.09490637819361582 0.0557379573698723
1800000000.0 -0.02203652460952753 -0.061660959133790744
1820000000.0 -0.020101771438078116 -0.01928733039404001
1840000000.0 0.029524010644367812 0.015477849840508972
1860000000.0 -0.025109603651188205 -0.06941861475682422
1880000000.0 0.024980938920247865 0.11016109777047113
1900000000.0 0.0016934800567127135 0.15361325646072357
1920000000.0 -0.1198609418277731 0.12809045184804374
1940000000.0 0.07584811447994749 -0.18143909176543482
1960000000.0 0.12304066437470908 -0.17256939097569157
1980000000.0 0.043877291701900245 -0.2091835191810774
2000000000.0 -0.07550121546055685 -0.2078901842338291
2020000000.0 0.1731687863188397 0.13286065199543795
2040000000.0 0.09308154760457353 -0.18339437784569032
2060000000.0 -0.18313479839310676 0.07796538290597378
2080000000.0 -0.0025654194740382043 0.1926231721749165
2100000000.0 -0.15554847806248065 0.10808345179562562
2120000000.0 0.07834856565960563 0.16875698758093577
2140000000.0 0.08410302363315796 0.1578616879860375
2160000000.0 0.11721636043658576 0.12531407262193936
2180000000.0 -0.1433243844304037 0.0648609013729194
2200000000.0 0.052633381327446424 0.13528429055934965
2220000000.0 -0.07477598287685609 -0.11006089170050008
2240000000.0 -0.10789952773399256 -0.02788906947229493
2260000000.0 -0.08741647704424356 -0.03322575399540966
2280000000.0 0.062208129247257576 -0.05561937320044731
2300000000.0 0.06496034596165978 -0.014290036137634542
2320000000.0 0.025439518352376685 0.03786315217796518
2340000000.0 -0.03451114697252222 -0.0164546017977755
2360000000.0 -0.009668150740034813 0.030381252899116903
2380000000.0 0.029417080246454133 0.006532198885768693
2400000000.0 -0.024346459404975034 0.02648779100672223
2420000000.0 0.0333665842403816 0.00562494478740414
2440000000.0 -0.034442434834505535 0.01799180201690969
2460000000.0 -0.03667046746431522 0.022990021628075154
2480000000.0 0.041045327262505364 -0.018485678554163235
2500000000.0 0.04460596163753557 0.03555646535481794
2520000000.0 0.06714783473683827 0.01658160363461289
2540000000.0 -0.018533408659625324 0.08368490165034946
2560000000.0 0.09805547481904898 -0.008899211693749975
2580000000.0 -0.11202281076479687 0.027442048136739085
2600000000.0 0.011356748978097854 0.1289963400099108
2620000000.0 0.11069914703821496 0.09199443546621529
2640000000.0 -0.10700562781731228 0.11541274545847346
2660000000.0 -0.1303339447388677 0.11358926547557373
2680000000.0 0.017363183693548827 0.18457250954140225
2700000000.0 0.19449497203157126 0.0005644018294034311
2720000000.0 -0.1028872640807706 -0.17685487898665947
2740000000.0 0.19999894295117165 -0.06568150507863645
2760000000.0 0.21175798303687174 0.04478929864972911
2780000000.0 0.19232366094872202 -0.11002410032323055
2800000000.0 0.032926078292489815 -0.223732566322601
2820000000.0 -0.18041594990035728 -0.1457277326664136
2840000000.0 0.11061886391642164 -0.21380220604289735
2860000000.0 0.17654126270736528 -0.1726904509091458
2880000000.0 0.2576867516353698 -0.015557669775856486
2900000000.0 -0.22912052507713418 0.13833288713400188
2920000000.0 0.07595650994721863 -0.2620165959928532
2940000000.0 -0.24661412525890294 0.11335924235121937
2960000000.0 -0.07831432999632883 0.25403896950421084
2980000000.0 0.0478192940496351 0.2543767956713974
3000000000.0 -0.06322389040310872 0.2366261250007433
3020000000.0 -0.14191234234544906 0.180695526129906
3040000000.0 -0.20671248141241946 0.030510710868479535
3060000000.0 -0.06176117457799215 -0.17595126936873826
3080000000.0 0.12412660672016498 0.11356208774774597
3100000000.0 -0.1461430462804647 -0.01733431290797485
3120000000.0 0.10974552691749008 -0.08089235119592714
3140000000.0 -0.013301686781320281 -0.12189438457419306
3160000000.0 0.04515908820601928 -0.10506976973707316
3180000000.0 -0.0576464345031071 -0.08995148683569085
3200000000.0 -0.019365311209521577 0.09932622205561868
3220000000.0 -0.09728552457403249 0.04064781412458501
3240000000.0 0.044273086638396894 -0.10133063025214546
3260000000.0 -0.09780643331257162 0.07170032245088742
3280000000.0 0.09697104403108936 -0.09630583440921085
3300000000.0 -0.13224156958392794 0.0782353792212517
3320000000.0 0.06256938326589599 -0.16309955411938037
3340000000.0 0.16831962685618435 0.09755932374418795
3360000000.0 0.021715234211209626 0.2083997418097344
3380000000.0 -0.21930825761435974 0.02695973600596294
3400000000.0 0.16956054711046964 -0.1481207798706119
3420000000.0 0.19629281702317458 0.11358809297067118
3440000000.0 -0.0003307848267687154 0.22326374739954094
3460000000.0 -0.06309286984018117 -0.20577287608308426
3480000000.0 0.12727391016470524 0.1626735009198845
3500000000.0 -0.19566333639628936 -0.024856899641808962
3520000000.0 0.18007425588175605 -0.04597195632443932
3540000000.0 0.003328437628396692 0.1733011874685724
3560000000.0 -0.16285824789682335 -0.027081798392697854
3580000000.0 -0.1284302782900081 -0.09203067399924247
3600000000.0 -0.13302593839802337 0.07848529079762358
3620000000.0 -0.11368497854882312 0.10177810727938072
3640000000.0 0.1164899011127045 0.10181903894846586
3660000000.0 -0.09029444417184046 -0.13655730798400115
3680000000.0 0.06555943165489168 0.16189985117250713
3700000000.0 0.050965710473444815 -0.18233419399666873
3720000000.0 0.029428083184961446 -0.20117663154312118
3740000000.0 0.21986095338718437 -0.01292095841767728
3760000000.0 -0.005007386346702715 0.23919665347540175
3780000000.0 -0.2565960834966754 0.01940192608832363
3800000000.0 0.14997023076691043 -0.22283972687032805
3820000000.0 -0.11083667069486135 0.2508510798104754
3840000000.0 0.2468738648070081 -0.12805794793682143
3860000000.0 -0.2753017169003811 -0.005838038073574792
3880000000.0 0.1693740101303982 0.21359872933402368
3900000000.0 -0.012911705592026512 -0.2655715112023893
3920000000.0 0.11825533773568128 0.22367880723658623
3940000000.0 -0.2290383327392656 0.05021223096789497
3960000000.0 -0.14794766407221852 -0.1512387242665781
3980000000.0 -0.07703297309790799 0.1725239263709145
4000000000.0 -0.13090935347245625 -0.09921025844527476
