!Created with skrf (http://scikit-rf.org).
# Hz S RI R 50.0 
!freq ReS11 ImS11
400000000.0 0.0668070293575315 0.604848434841495
420000000.0 -0.5548406958937385 0.06838172531055309
440000000.0 0.11063673046734036 0.4648125952221583
460000000.0 -0.20724677832554367 -0.33725040852838134
480000000.0 -0.21828779833019443 0.34208857418437927
500000000.0 -0.3229049217558395 0.31174083544963943
520000000.0 -0.34116937456109714 0.35468329905330553
540000000.0 -0.20840190213017787 -0.443292952010689
560000000.0 -0.41840794013916516 0.02045777041234295
580000000.0 -0.3472710986193659 0.07847942868070763
600000000.0 -0.16904342719682944 -0.1902261907686541
620000000.0 0.10759662534278686 -0.11792326777047098
640000000.0 0.1778930888114926 0.02111278852131187
660000000.0 0.07950981522119514 -0.10600772051502012
680000000.0 -0.0674543625430109 -0.08977448309174743
700000000.0 0.07447084704360737 0.0723101457196964
720000000.0 0.11954618724782333 0.025312364905038836
740000000.0 -0.1660855901875149 0.03935157771922064
760000000.0 0.11498577696385351 0.1441508702432068
780000000.0 -0.211072100539067 0.005970660873273079
800000000.0 -0.004647178874188619 0.22823730378320292
820000000.0 0.09674189620286044 0.22729716380725795
840000000.0 0.20888950106660714 -0.15830261043924562
860000000.0 -0.26414969287223145 0.04010889631354708
880000000.0 0.2416598918492522 0.10119287300132139
900000000.0 0.18343245177551049 0.16881160630859
920000000.0 -0.03474207466666354 0.24186780362680463
940000000.0 -0.1951574596057071 0.11746143400528748
960000000.0 -0.18604325876330322 0.023457354649610886
980000000.0 -0.09807017321204124 -0.081354256548776
1000000000.0 0.03628306921723514 -0.09205546155722036
1020000000.0 -0.05421010418318558 0.06148614048636358
1040000000.0 0.027424439921624983 -0.09444803024001937
1060000000.0 -0.11520449345822335 0.0323074351013429
1080000000.0 0.0003600815314693621 -0.14860144558566898
1100000000.0 -0.11072465477130196 0.16097453000578948
1120000000.0 0.21485823197321632 -0.07879194800454399
1140000000.0 0.22635942936163347 0.08026997011805433
1160000000.0 0.06984984075004141 -0.2360689312024449
1180000000.0 -0.14597077592855884 0.19791796661624653
1200000000.0 -0.0032293200350287485 0.25429075563803094
1220000000.0 -0.2101989297966382 0.12230541655877178
1240000000.0 0.22340892840606835 -0.07035626323723179
1260000000.0 -0.1718493548600729 0.16963724679830594
1280000000.0 -0.21907092090276126 -0.09382264071947893
1300000000.0 0.10029075417094102 -0.22688275534584137
1320000000.0 0.17899399488577983 -0.1866131014449111
1340000000.0 -0.25694646946983074 -0.006929422600386062
1360000000.0 0.18745449358797597 0.19577482320523135
1380000000.0 -0.22671277799737954 0.15966153953843484
1400000000.0 -0.14788711797319407 0.22469021117526758
1420000000.0 -0.035724008404001514 0.26739206407569593
1440000000.0 -0.1406855179745853 -0.20981156050357436
1460000000.0 0.01210940667590529 0.26111573707040797
1480000000.0 -0.22637516536861046 0.12198139774699103
1500000000.0 0.17233537950178765 -0.18264337794243302
1520000000.0 -0.25355796825699783 0.03728965181106985
1540000000.0 -0.2537250138820746 0.06997074655957483
1560000000.0 0.08287263383026996 0.2481751628073987
1580000000.0 0.12166633851967214 -0.22756365366829315
1600000000.0 0.05771094890003486 0.2391487385515652
1620000000.0 -0.23840659365546826 -0.019861418655581435
1640000000.0 -0.21251017096811264 -0.10282965591835153
1660000000.0 -0.07808211864900128 0.212757682376605
1680000000.0 0.21825176899974746 0.03144154904375612
1700000000.0 -0.0033221685307009414 0.2019097369316908
1720000000.0 -0.026370660994292913 0.18436793497565496
1740000000.0 0.10865865230446994 0.13107671817927222
1760000000.0 0.10662833716261075 -0.09243324715601046
1780000000.0 0.0760398807775423 0.07963146730780771
1800000000.0 0.022306079818232072 -0.06207346971230818
1820000000.0 -0.008315706211851298 -0.026374769262855473
1840000000.0 -0.0106521384857696 0.03221376764093252
1860000000.0 0.003615633170606388 -0.07389365236909175
1880000000.0 0.035821141426507004 0.10743854732943271
1900000000.0 0.016415414847059197 0.15310164781767202
1920000000.0 -0.10867081309945745 0.13775896369530488
1940000000.0 0.10045064508786865 -0.16798347706480724
1960000000.0 0.1486670492891703 -0.15059798039615133
1980000000.0 0.06171254037236911 -0.2050127039209322
2000000000.0 -0.07801990260844482 -0.20746608112245737
2020000000.0 0.17090248462730656 0.13673445225068875
2040000000.0 0.046427403340433035 -0.20004121630004576
2060000000.0 -0.16812440645128265 0.10491395913529793
2080000000.0 0.035144276158104164 0.1894638268082646
2100000000.0 -0.18084216595406477 0.057953277826030145
2120000000.0 0.09101384929110146 0.16298212857256197
2140000000.0 0.08784618655316509 0.15582080670455153
2160000000.0 0.10860372385258507 0.13291290147693158
2180000000.0 -0.14090285953221915 0.06847666365822327
2200000000.0 0.022525906285396653 0.14345849901415955
2220000000.0 -0.06358439543073494 -0.11671281404682776
2240000000.0 -0.11045942261376171 -0.014871624086823566
2260000000.0 -0.0811017020003864 -0.04619389414439722
2280000000.0 0.03760431241709393 -0.07413486193567972
2300000000.0 0.06414676016960566 -0.01768225325438623
2320000000.0 0.02058988653927867 0.04056931900525604
2340000000.0 -0.037454515534670024 -0.009499502311528043
2360000000.0 0.0012389972244390775 0.03181631671383166
2380000000.0 0.005572674366366434 0.029553254156875566
2400000000.0 -0.023387698084688793 0.028356834924182502
2420000000.0 0.0296018924761832 0.016774201585492872
2440000000.0 -0.031631342890671474 0.021815952588381232
2460000000.0 -0.03402111524234324 0.02668754095947714
2480000000.0 0.04389266984867222 -0.011598899701974376
2500000000.0 0.018431236757785564 0.05384076826906263
2520000000.0 0.06836777332265459 -0.007800211660685579
2540000000.0 -0.02169802236776299 0.08309621308776673
2560000000.0 0.08156845806165856 -0.055259408702168285
2580000000.0 -0.11132175367182112 0.02933447416085474
2600000000.0 0.03912208195743688 0.12300313760666728
2620000000.0 0.09384660816662338 0.11004603119137654
2640000000.0 -0.08234649526535466 0.1335193040000934
2660000000.0 -0.12424530190322565 0.12071761436549022
2680000000.0 0.02289721918291402 0.18440654615170793
2700000000.0 0.19141145613443425 0.03519811422713972
2720000000.0 -0.11595929940060667 -0.16840176294230416
2740000000.0 0.2100684787406083 -0.01037869058837872
2760000000.0 0.20874046931027326 0.057009984405537784
2780000000.0 0.1867394165028025 -0.11842489886545778
2800000000.0 0.004561749635556778 -0.22626004335053748
2820000000.0 -0.18104814134694006 -0.1444402910368649
2840000000.0 0.09717717849000701 -0.22011402002865224
2860000000.0 0.17415648652114585 -0.17581334930772455
2880000000.0 0.25647520620073555 -0.03110910906225812
2900000000.0 -0.2183138892712129 0.15485279304253183
2920000000.0 0.09153687884380086 -0.2573852097067896
2940000000.0 -0.25972480929304487 0.07807023830147296
2960000000.0 -0.0784993428778275 0.2540591198585956
2980000000.0 -0.009250314284191008 0.25845708219619284
3000000000.0 -0.05614377159334637 0.23785120940346693
3020000000.0 -0.1344185546984739 0.18626903821067917
3040000000.0 -0.19910120722765287 0.06149456066703538
3060000000.0 -0.05574326138458724 -0.17790469802184455
3080000000.0 0.15068423418864688 0.07505246631300565
3100000000.0 -0.14703919854380484 -0.009805074480796516
3120000000.0 0.099734471026205 -0.09272128574453191
3140000000.0 -0.00019893395278233273 -0.12315421008866329
3160000000.0 0.03606331622036801 -0.10915729771671336
3180000000.0 -0.04513743221585157 -0.09696723405747187
3200000000.0 -0.03787148063012404 0.09371148328255026
3220000000.0 -0.10232659641605693 0.025219978732934165
3240000000.0 0.045319291382539865 -0.10101344863475184
3260000000.0 -0.09283597894497535 0.07836236088692201
3280000000.0 0.10268710041971288 -0.08992418706834526
3300000000.0 -0.1352472971092926 0.07275218980150583
3320000000.0 0.059842238159268604 -0.1637997163051649
3340000000.0 0.17431040348689494 0.08549435793835065
3360000000.0 0.03867006960232597 0.20649067089137726
3380000000.0 -0.2139453207689713 0.054292607993481276
3400000000.0 0.15633546982208207 -0.1624560322907009
3420000000.0 0.2100130429634866 0.08574521884862216
3440000000.0 -0.024459023649433972 0.22235787510671481
3460000000.0 -0.09439563553821655 -0.19317713338369513
3480000000.0 0.12851193912154385 0.16174175734484764
3500000000.0 -0.19008878291512352 -0.053493528932200406
3520000000.0 0.18003595997805738 -0.046673660119635876
3540000000.0 0.00798154927279234 0.17322443980321336
3560000000.0 -0.1594285116304032 -0.04083434145639137
3580000000.0 -0.11851352105996506 -0.10459103622814855
3600000000.0 -0.12875753227146408 0.08549037888544164
3620000000.0 -0.10881266427441348 0.10646520415291588
3640000000.0 0.1238047510015768 0.09315925618813013
3660000000.0 -0.09476192269509744 -0.13316667678941094
3680000000.0 0.05732075649498751 0.16517790369178145
3700000000.0 0.04345029443236031 -0.18424263041702713
3720000000.0 0.07119485411902914 -0.19149629983455435
3740000000.0 0.21971400598296292 -0.015282778540825591
3760000000.0 -0.02025398187294344 0.23896040698593768
3780000000.0 -0.2567835995776709 0.015055571866793304
3800000000.0 0.14443778607181737 -0.22661494013572978
3820000000.0 -0.0979279665394934 0.2561616811517063
3840000000.0 0.24462242792007535 -0.1316602122555052
3860000000.0 -0.27510882887925797 -0.012323770028416062
3880000000.0 0.17768216525131425 0.20674318331189123
3900000000.0 -0.02169983670683958 -0.26511827100803326
3920000000.0 0.12157071032182677 0.2219384821278208
3940000000.0 -0.22059763965551826 0.0797994996319706
3960000000.0 -0.15752051829152003 -0.14112088445981755
3980000000.0 -0.05818387865814208 0.17970178696707834
4000000000.0 -0.1399030052189804 -0.08647864136723121
