!Created with skrf (http://scikit-rf.org).
# Hz S RI R 50.0 
!freq ReS11 ImS11
400000000.0 0.0002087215721470998 0.6069268199320164
420000000.0 -0.550667803975242 0.09783249340857161
440000000.0 -0.03548598776241986 0.4763535806509279
460000000.0 -0.3455972950038219 -0.19231124821769072
480000000.0 0.07458034542050973 0.3992325815854344
500000000.0 -0.4070617653346489 0.1981602498287821
520000000.0 -0.34514179135866346 0.35274090140897085
540000000.0 -0.3096396932267384 -0.3796179967225126
560000000.0 -0.39815093032791454 -0.1292148051948581
580000000.0 -0.2650928761373602 0.23960681847185175
600000000.0 -0.16942148251379377 -0.19025821057454997
620000000.0 0.13426896741079258 -0.0903719643500413
640000000.0 0.15538501522262005 0.08695090480158689
660000000.0 0.05233812325468595 -0.12312099348165478
680000000.0 -0.08904745787309384 -0.06681750081783072
700000000.0 0.10340230037454604 -0.013645327357904654
720000000.0 0.11083027878252823 0.057030057671617944
740000000.0 -0.16035066880607046 -0.05074201867788463
760000000.0 0.11419310621875645 0.14404635952764408
780000000.0 -0.20789715909478995 0.02033037619187705
800000000.0 -0.01047468598249995 0.2290594537085352
820000000.0 0.04720945617688165 0.24228823678578898
840000000.0 0.13751356136710566 -0.22412000360405346
860000000.0 -0.2623287873140693 -0.05079901786578475
880000000.0 0.23556839740689828 0.1119917014779517
900000000.0 0.16613791558687754 0.1886457623379318
920000000.0 -0.03579255303953257 0.23956752318683236
940000000.0 -0.22253040926023432 0.03922397962172741
960000000.0 -0.16645790044001124 0.09199580035721028
980000000.0 -0.12558374270482833 0.012757659308044846
1000000000.0 0.06913735518500153 -0.07233289676224933
1020000000.0 -0.07952701332402769 0.021443994048816233
1040000000.0 0.10004119060868397 0.010352753062219111
1060000000.0 -0.1174506225841515 -0.0027189965435459812
1080000000.0 0.13929262395631148 -0.05120182267354149
1100000000.0 -0.11430586378567617 0.15433423933535478
1120000000.0 0.1385746187604162 -0.180514197598848
1140000000.0 0.20812110124520947 0.12025288051573894
1160000000.0 -0.001008982496397617 -0.24469883177941845
1180000000.0 -0.06316479012617231 0.23823742690557823
1200000000.0 0.032606611738608945 0.2527516295624573
1220000000.0 -0.18477913120370543 0.15640264954403751
1240000000.0 0.18048028869520955 -0.15330886810999472
1260000000.0 -0.22923968755198812 0.07413743936800382
1280000000.0 -0.22132085610769203 -0.09165949322309928
1300000000.0 0.16310920908781595 -0.18748665544111232
1320000000.0 0.2173152860653765 -0.13910354043076587
1340000000.0 -0.22951827773333955 -0.11511200955205206
1360000000.0 0.2014603204498453 0.18031574156736843
1380000000.0 -0.20848423276415168 0.181768428059029
1400000000.0 -0.161422309363512 0.21286648195021826
1420000000.0 0.07309635649635482 0.2609595032143703
1440000000.0 -0.16265853395947863 -0.1916357594688032
1460000000.0 0.08297243562007375 0.24616290914692923
1480000000.0 -0.19500406487485503 0.16767009072328296
1500000000.0 0.13229913001734886 -0.21369346218180454
1520000000.0 -0.24739681116674986 0.06933586179603429
1540000000.0 -0.25444736428167597 0.06869818586258589
1560000000.0 0.10307908423994094 0.24134426531164796
1580000000.0 0.12449939851296933 -0.22797417625044902
1600000000.0 0.0716224359048434 0.2356983871332866
1620000000.0 -0.23503032012621192 -0.048329716878049274
1640000000.0 -0.17948797599936367 -0.1518517296311464
1660000000.0 -0.119659045503325 0.192213664565358
1680000000.0 0.20965753853828467 0.06487163100934817
1700000000.0 0.041663423444066795 0.19769779993120118
1720000000.0 -0.021914209830588505 0.18448284317630836
1740000000.0 0.11671675051340741 0.12302959509598418
1760000000.0 0.12019804781786729 -0.0738019044717696
1780000000.0 0.0873089940059235 0.0672630368007718
1800000000.0 -0.01350536331213784 -0.06480475387131329
1820000000.0 -0.013100773541569157 -0.023957763605638144
1840000000.0 0.0344368622221098 0.0015009073140304036
1860000000.0 -0.010394108491978273 -0.07334511467400091
1880000000.0 0.041038532147530664 0.10518515403623496
1900000000.0 0.023752232819782188 0.15178030341421822
1920000000.0 -0.1289327280221061 0.1203352554202834
1940000000.0 0.11920419862716612 -0.15664879145028776
1960000000.0 0.10528636277915787 -0.18365266545738326
1980000000.0 0.030411064470912966 -0.2118076784236149
2000000000.0 -0.09788119382082895 -0.19737924542981958
2020000000.0 0.15035711034628707 0.15863771964089576
2040000000.0 0.051001506108106213 -0.19945280517684766
2060000000.0 -0.17919776349263705 0.08692105495875647
2080000000.0 0.04001550541026063 0.1880327517370907
2100000000.0 -0.1555285303543623 0.1084207445139918
2120000000.0 0.1121779385407211 0.14881700860352162
2140000000.0 0.06501129041648072 0.16675422342832424
2160000000.0 0.11078098242362627 0.13117197358226113
2180000000.0 -0.1340899685317668 0.08126855703577261
2200000000.0 0.05263860542944347 0.13581323475597035
2220000000.0 -0.061878574052173306 -0.11818205828142014
2240000000.0 -0.10240675219372528 -0.04228331477250629
2260000000.0 -0.07931791043967612 -0.04969665586620911
2280000000.0 0.015067521262754175 -0.08150926817947704
2300000000.0 0.06587631319855158 -0.004466505725009234
2320000000.0 -0.005017533878571652 0.0453834602081802
2340000000.0 -0.032810027428936024 0.01847513653224291
2360000000.0 0.017307833140366338 0.02659665488975331
2380000000.0 -0.011618975137802393 0.02720336377695491
2400000000.0 -0.01990434309020133 0.02981075808916763
2420000000.0 0.025371023842264636 -0.022072458345956888
2440000000.0 -0.031814239758474215 0.020586481857754448
2460000000.0 -0.032274227840285455 0.02853926903287097
2480000000.0 0.019421322202654096 -0.040467455322020084
2500000000.0 0.013960141365335093 0.055771908362122126
2520000000.0 0.06917078628802045 -0.009234216837213816
2540000000.0 -0.02316518055578262 0.08332150352677574
2560000000.0 0.09363176324207582 -0.03030659280281045
2580000000.0 -0.11263414682333994 0.026783652763741183
2600000000.0 0.010539706898021492 0.12881992474055423
2620000000.0 0.09854387022649133 0.1053789742278398
2640000000.0 -0.10340000643691746 0.11797130271568372
2660000000.0 -0.14636413397137396 0.0917287742820203
2680000000.0 0.00855042922838014 0.18496250746449722
2700000000.0 0.19342687087198823 0.010594119798032358
2720000000.0 -0.12508198749975344 -0.1613871651614982
2740000000.0 0.21007849275068474 -0.01630400218776471
2760000000.0 0.21609095148990454 -0.013126227828687593
2780000000.0 0.15445723744032738 -0.15854043159246667
2800000000.0 -0.005194586558131843 -0.22664767408625003
2820000000.0 -0.1800918212913293 -0.14714468918078258
2840000000.0 0.09001445046392882 -0.22395313860397573
2860000000.0 0.18412381520921545 -0.16591355205530073
2880000000.0 0.2577789079800408 -0.014522269979715672
2900000000.0 -0.22936037360055686 0.137833014933253
2920000000.0 0.1055942426684027 -0.2521742824286091
2940000000.0 -0.25643735868488166 0.08787626963517005
2960000000.0 -0.09035622517215967 0.24970066710374092
2980000000.0 0.02146711313164158 0.25693879730534264
3000000000.0 -0.05880198741273873 0.23689163830018353
3020000000.0 -0.14556811125938865 0.1771456368986768
3040000000.0 -0.1935504790725492 0.07721004834887131
3060000000.0 -0.09048620039026693 -0.16287649395685552
3080000000.0 0.15503388459081022 0.06496810270795979
3100000000.0 -0.14716030455137752 0.0063013717467376535
3120000000.0 0.10510638376936139 -0.08703269518073406
3140000000.0 -0.005923078672273802 -0.12301990867770188
3160000000.0 0.008999764003757906 -0.11463778332776728
3180000000.0 -0.0428763417134538 -0.09790228667559382
3200000000.0 -0.03123782052172709 0.09693067259427862
3220000000.0 -0.10398069007640123 0.017485807715094094
3240000000.0 0.03905372289340082 -0.10439831303242061
3260000000.0 -0.10736761547349775 0.05684037033824768
3280000000.0 0.10347849685851576 -0.08885036242209385
3300000000.0 -0.14563714143369053 0.048474512012084824
3320000000.0 0.06751269428328888 -0.16106071324796453
3340000000.0 0.15371474379477273 0.11906483897061845
3360000000.0 0.040114351789995915 0.20621581434393027
3380000000.0 -0.21527799276065585 0.048634356852604914
3400000000.0 0.1636718935505093 -0.15503644427966592
3420000000.0 0.2058279903363238 0.09680533173958654
3440000000.0 -0.0285935785617443 0.22193713029092113
3460000000.0 -0.07716922388831439 -0.20101643978052977
3480000000.0 0.09006778114114154 0.18627270096399853
3500000000.0 -0.1921780116188501 -0.04361254421857074
3520000000.0 0.18243604806445624 -0.0360160457985394
3540000000.0 0.033820700059388566 0.17034334173204393
3560000000.0 -0.16524526228724415 0.0014128496526208967
3580000000.0 -0.12329336141949332 -0.09936444818540968
3600000000.0 -0.13772628139784934 0.06963639972253062
3620000000.0 -0.11930454057603808 0.09484835858851312
3640000000.0 0.10565197812682497 0.11333334321114476
3660000000.0 -0.08674983236561937 -0.13846227256298857
3680000000.0 0.05198067605285284 0.16654515586306562
3700000000.0 0.06211512924822959 -0.17916910469086875
3720000000.0 0.03205989658475092 -0.20050225163440064
3740000000.0 0.21997716940951004 -0.002900641700785185
3760000000.0 -0.002064030605595989 0.23885781256373068
3780000000.0 -0.25504884290754054 0.03454203216038846
3800000000.0 0.1401556619458506 -0.2288324393591694
3820000000.0 -0.0913975643137305 0.2584039629174968
3840000000.0 0.2422884946247147 -0.1355387050686248
3860000000.0 -0.27453289772635975 0.01821102134259231
3880000000.0 0.1917051553780439 0.1939374879628536
3900000000.0 -0.0413097259063823 -0.2622390466196221
3920000000.0 0.1278329413511714 0.21808142526688337
3940000000.0 -0.22529458123216684 0.06568116531915379
3960000000.0 -0.15261767012865077 -0.14690522083698432
3980000000.0 -0.08165232693002263 0.17074659893267852
4000000000.0 -0.12358889320623431 -0.1086637606492448
