!Created with skrf (http://scikit-rf.org).
# Hz S RI R 50.0 
!freq ReS11 ImS11
400000000.0 0.0009815018789720588 0.6070266240697498
420000000.0 -0.5567141040242329 -0.00606328804086997
440000000.0 0.13290484871051897 0.4618120305433246
460000000.0 -0.25774321476137263 -0.29520849419518846
480000000.0 -0.1173708269613561 0.3893673618312368
500000000.0 -0.32830568287789735 0.30854466012742826
520000000.0 -0.3242462272494221 0.3694045202191982
540000000.0 -0.27603871370769245 -0.4052192071265824
560000000.0 -0.4116953166063024 -0.07856973204843846
580000000.0 -0.29043863236199935 0.20583492710030246
600000000.0 -0.1846896501151823 -0.17459664057376623
620000000.0 0.09935881342832571 -0.12673483658722218
640000000.0 0.09813052562376118 0.1515800971861247
660000000.0 0.009617918330904376 -0.13132030405347186
680000000.0 -0.030175382144677812 -0.10778778980067491
700000000.0 0.10267932541233622 0.017400438312188005
720000000.0 0.10724380047782892 0.059672634821403635
740000000.0 -0.15625507216639262 0.06789237464162606
760000000.0 0.0373536862983456 0.1811094748647287
780000000.0 -0.193037312561041 0.08490817563926384
800000000.0 -0.10652837814238734 0.2013426854802287
820000000.0 0.06877821386965251 0.23753122117433914
840000000.0 0.13328468018196554 -0.22661237763639175
860000000.0 -0.2646847857290291 0.030340350402820845
880000000.0 0.21420865389142926 0.14949237906013704
900000000.0 0.12768581687018637 0.2171920134640959
920000000.0 0.06788041503043994 0.2322869265824377
940000000.0 -0.2243315314124992 0.030067811599951887
960000000.0 -0.1791632771501519 0.061913917674872365
980000000.0 -0.1265121019255881 0.016021804091212215
1000000000.0 0.0868508347477947 0.04660925790787099
1020000000.0 -0.0741988139804227 0.035156212419488284
1040000000.0 -0.001330145392805129 -0.09966333214534671
1060000000.0 -0.10629463390393874 -0.052448673837569265
1080000000.0 0.0765694582297956 -0.12587526001342592
1100000000.0 -0.08976545903209536 0.17258541859539556
1120000000.0 0.15701914920692522 -0.16467566958712748
1140000000.0 0.19703887856613642 0.13780619209639164
1160000000.0 0.0023263574618967208 -0.2462396265050405
1180000000.0 -0.14586955613141636 0.19902631993428044
1200000000.0 -0.006244795660767542 0.255274346801296
1220000000.0 -0.16643654746984493 0.1761530991462917
1240000000.0 0.22605300862601294 -0.06420507938277205
1260000000.0 -0.18210624671247416 0.1584211226906668
1280000000.0 -0.21868801673156799 -0.09490872224809602
1300000000.0 0.15576453901221046 -0.19470116605193002
1320000000.0 0.1864408425187362 -0.1796946639951695
1340000000.0 -0.24639862304336127 -0.07171460694374619
1360000000.0 0.1977633005873849 0.18606621369635085
1380000000.0 -0.21225026312233553 0.17731543548443401
1400000000.0 -0.12882099203714148 0.23645991553427098
1420000000.0 -0.024000386758480735 0.2696836172262436
1440000000.0 -0.11699200927480963 -0.22342620982374234
1460000000.0 0.019208149282152313 0.2599184500767874
1480000000.0 -0.23701278000463863 0.10125682442982355
1500000000.0 0.1613041936507651 -0.19298430727607388
1520000000.0 -0.2518910874640617 0.043909041538110975
1540000000.0 -0.26242218630914205 0.026084474884896545
1560000000.0 0.12185258915104835 0.23218935026423054
1580000000.0 0.12412390509409177 -0.22733026040269466
1600000000.0 0.0591217050379476 0.23845783646865065
1620000000.0 -0.23894225276525333 -0.021523092979357828
1640000000.0 -0.20352745902761563 -0.11826140520583514
1660000000.0 -0.0984377513712425 0.20433215541019298
1680000000.0 0.2178776612570688 0.032050146621771476
1700000000.0 -0.007843153604240788 0.20152285713305795
1720000000.0 -0.03715618366133554 0.18252611222435913
1740000000.0 0.10763617010924532 0.13209449462483835
1760000000.0 0.1281689410594271 -0.05838371312265589
1780000000.0 0.09150351891436194 0.061016922750690275
1800000000.0 0.027049532699092146 -0.06007927950709296
1820000000.0 -0.016745597933634133 -0.0225261631051125
1840000000.0 0.010774724831161146 0.032420920114322356
1860000000.0 -0.016945544454493106 -0.0725601242363966
1880000000.0 0.004295584187726841 0.11304597933254258
1900000000.0 0.012313178509981874 0.15364597025020876
1920000000.0 -0.12717136561267608 0.12125714200036498
1940000000.0 0.11275061913724034 -0.16075311854122495
1960000000.0 0.1282642645446114 -0.16852471658664075
1980000000.0 0.030624204826546986 -0.21190044585371148
2000000000.0 -0.1012158077597744 -0.19652252276342938
2020000000.0 0.18206904625825945 0.12046788925578802
2040000000.0 0.08042769543796711 -0.18986163020249186
2060000000.0 -0.18835809356349076 0.0641300639714169
2080000000.0 0.03056627952262263 0.18960545178325075
2100000000.0 -0.1528917655359047 0.11260759377490687
2120000000.0 0.10421353182905047 0.15451055279438822
2140000000.0 0.05479554071882233 0.17073244273836358
2160000000.0 0.12867297486382892 0.11425267666144444
2180000000.0 -0.14558558677490827 0.05877078959392979
2200000000.0 0.030553570247461418 0.1424551748596639
2220000000.0 -0.04446172154141011 -0.12560081988165425
2240000000.0 -0.10674867794666217 -0.030282544818371945
2260000000.0 -0.08282449723514945 -0.043645002969915005
2280000000.0 0.035784443915508966 -0.0750949181213421
2300000000.0 0.06483641087325968 -0.014389415221155336
2320000000.0 0.015172662031673676 0.04312398853501577
2340000000.0 -0.03761748293761567 -0.006566974445763652
2360000000.0 -0.005370926029496949 0.0313536175622777
2380000000.0 0.001440069797096718 0.029452514838988687
2400000000.0 -0.027087913401716096 0.02410142094222417
2420000000.0 0.030639519038313818 -0.014569150534295135
2440000000.0 -0.03385607205303674 0.0173754841818618
2460000000.0 -0.03826151678871167 0.020320734733787107
2480000000.0 0.041616735515413915 -0.017588456987636895
2500000000.0 0.025453921075008996 0.05110158184152292
2520000000.0 0.06894351357081181 -0.006912825578805489
2540000000.0 -0.02808489274173008 0.08148870050716873
2560000000.0 0.08518273761359497 -0.04926657545216712
2580000000.0 -0.11433423351101091 0.017545020127020233
2600000000.0 0.028827133162847598 0.12587212945867485
2620000000.0 0.09624661051289202 0.10741782093827879
2640000000.0 -0.10675809940428811 0.11466690683379994
2660000000.0 -0.14507275910814577 0.09408014063970334
2680000000.0 -0.0009104462467513759 0.18565556464767508
2700000000.0 0.19394624815169367 0.00960229434544396
2720000000.0 -0.12650559601936126 -0.16061372534776852
2740000000.0 0.20712673245353727 -0.035701654969196736
2760000000.0 0.21632949891120865 0.007404996532249837
2780000000.0 0.17234398836689876 -0.13898652139307827
2800000000.0 -0.028802128409408163 -0.22421376416918806
2820000000.0 -0.1895030642518157 -0.13380245293936283
2840000000.0 0.06830772567456538 -0.2314778388525413
2860000000.0 0.18080064151780945 -0.16905661839736427
2880000000.0 0.25481090851828714 -0.04165389677367776
2900000000.0 -0.22080719588658315 0.15165557759554732
2920000000.0 0.08989334667228771 -0.258079048917792
2940000000.0 -0.25260496554663703 0.09841257896443163
2960000000.0 -0.06595060420037763 0.2574666795025982
2980000000.0 0.006598184644788432 0.2583245186299088
3000000000.0 -0.05392146712277913 0.23845240997987335
3020000000.0 -0.13135319029718 0.18828195619831622
3040000000.0 -0.2034797232491095 0.04547591995155337
3060000000.0 -0.0958635932576623 -0.1589111413695695
3080000000.0 0.1451771211538273 0.08420438669504363
3100000000.0 -0.13403763315725045 -0.06262678374603413
3120000000.0 0.09929505421934522 -0.09309031826807308
3140000000.0 -0.008828046314501119 -0.12260109629043837
3160000000.0 0.005979828200446038 -0.11467845992632553
3180000000.0 -0.06496507026756519 -0.08560037698226362
3200000000.0 -0.01993845980935721 0.09973350184601512
3220000000.0 -0.09826030333451967 0.03669271401813791
3240000000.0 0.04232383633239001 -0.10239082813835075
3260000000.0 -0.09027423518716518 0.08157256010368726
3280000000.0 0.07616740791817143 -0.11333622597918148
3300000000.0 -0.13438748367617295 0.07478364987094088
3320000000.0 0.07761974466054583 -0.15639941795982956
3340000000.0 0.15932867686426883 0.11174039651347972
3360000000.0 0.0006067650446245095 0.21042187769545892
3380000000.0 -0.21803792032978847 0.03442324305285931
3400000000.0 0.17679047845435344 -0.1398804015983325
3420000000.0 0.18668172351554405 0.12938521790421625
3440000000.0 -0.01780430589762339 0.2224602767075868
3460000000.0 -0.062212968827722946 -0.20554239566242233
3480000000.0 0.10413280713883974 0.17855720477053597
3500000000.0 -0.19671686266581326 -0.008562611517541212
3520000000.0 0.1732289697180802 -0.067243608180761
3540000000.0 0.0329119289044099 0.17018521856351598
3560000000.0 -0.1642363828433149 -0.012318054458312437
3580000000.0 -0.1329494980754041 -0.08571462510349379
3600000000.0 -0.11691512175730842 0.10098270807958874
3620000000.0 -0.11125464082128717 0.1045807962967676
3640000000.0 0.12060296221659071 0.0974404109354541
3660000000.0 -0.09276483403832682 -0.1348223491787946
3680000000.0 0.02066132551683988 0.17391671648726584
3700000000.0 0.07512191247214173 -0.1739687500123664
3720000000.0 0.090318729470771 -0.18281279983808305
3740000000.0 0.21864400875529147 0.024063108208084622
3760000000.0 -0.02200193445897994 0.2377409042571032
3780000000.0 -0.2533721007680698 0.042549732610939486
3800000000.0 0.14422587494666236 -0.2262691042141423
3820000000.0 -0.10670417104820745 0.25222647514809
3840000000.0 0.2501964937357064 -0.12022659451602104
3860000000.0 -0.27530889438366657 -0.0015445319209944186
3880000000.0 0.18124283112688577 0.20367741516051274
3900000000.0 -0.0478091933837374 -0.26150533771685497
3920000000.0 0.13940190343155304 0.21102823669751333
3940000000.0 -0.2064739821865447 0.11285990290271869
3960000000.0 -0.16456487537512265 -0.1329226623308566
3980000000.0 -0.07205243876083049 0.17506651819332233
4000000000.0 -0.13558247352248184 -0.09336929432422506
