!Created with skrf (http://scikit-rf.org).
# Hz S RI R 50.0 
!freq ReS11 ImS11
400000000.0 -0.002885331812874173 0.6162520299338052
420000000.0 -0.5272494103344291 0.17043291725886914
440000000.0 -0.04341076583162746 0.4712373163519512
460000000.0 0.16942224951119325 -0.350069665343766
480000000.0 0.04292014808403861 0.4190820770552867
500000000.0 0.03879252284601742 0.45143474924359306
520000000.0 -0.02965629596119653 0.48867462838899467
540000000.0 -0.3928946009285376 -0.2874057392065418
560000000.0 -0.364967703171424 -0.1954814432704901
580000000.0 -0.3098039410509949 0.1732362477341832
600000000.0 -0.18884041845873478 -0.1741993081795685
620000000.0 0.12409651794469641 -0.09958897213443219
640000000.0 0.1461898660955763 0.10480873397684802
660000000.0 -0.047878700148713246 -0.12395378844056952
680000000.0 0.03355887674525935 -0.10633179743787605
700000000.0 0.0813229529604881 0.06316339309576083
720000000.0 0.0976824348101389 0.07369710993791448
740000000.0 -0.00716640664848434 -0.17161107711793658
760000000.0 0.010660630710822953 0.18808930321796774
780000000.0 -0.17963591327103504 0.1158484872064434
800000000.0 0.215993459486218 0.07609349891031497
820000000.0 0.08822277406981915 0.22830818626972027
840000000.0 0.045060998550967554 -0.2578940255628114
860000000.0 -0.2521177591467537 0.08298524225076723
880000000.0 0.2397475797595017 -0.09793136128016461
900000000.0 0.18174598274807804 0.16213775815445947
920000000.0 -0.17255615880351416 0.16457622250804438
940000000.0 0.1674594177121751 -0.15292320025125375
960000000.0 0.07489368063058714 -0.18094853485118617
980000000.0 -0.09452219273488704 -0.09443063146986126
1000000000.0 0.031662889700371684 -0.1071141821082623
1020000000.0 -0.06178857486543015 0.05522456795098985
1040000000.0 0.0007428619470846967 0.09968768786568143
1060000000.0 0.09868990284846567 0.06400133363888062
1080000000.0 -0.07668087688331947 -0.12063575728389833
1100000000.0 -0.16118108317083743 0.1022644667210188
1120000000.0 0.21804280338345625 -0.05765630044530846
1140000000.0 0.09080770441820432 0.22214027290674832
1160000000.0 0.22664979233803564 -0.09291209118662444
1180000000.0 -0.24984678427996998 -0.013227955158181589
1200000000.0 0.1114600770792292 0.2350639137755087
1220000000.0 -0.1237114591718615 0.20949492409833834
1240000000.0 0.01583225527121319 -0.23595174267918542
1260000000.0 -0.11667977715259283 0.2043517454395569
1280000000.0 -0.21229536021401643 -0.10722869605920438
1300000000.0 0.1831915746001194 -0.1686956973935537
1320000000.0 0.22772253155497524 -0.11880323737289405
1340000000.0 -0.20552632680364277 -0.15412171497194616
1360000000.0 0.12672057870804254 0.2419446177399557
1380000000.0 -0.22929200695842972 0.1629448708985123
1400000000.0 -0.050436115534040725 0.2651203792548997
1420000000.0 0.151649179147767 0.2260741877258386
1440000000.0 -0.1650045325131805 -0.1873607570560559
1460000000.0 -0.05800266777985959 0.2525159038105277
1480000000.0 -0.25481914549767903 0.03262648463607447
1500000000.0 0.21328727392670374 -0.13401615069578296
1520000000.0 -0.25486445269699526 0.03502319047505894
1540000000.0 -0.2557445919200039 0.0654421227079643
1560000000.0 0.15084890146627475 0.21464771008061814
1580000000.0 0.15120661239628055 -0.21045596483072782
1600000000.0 0.09694609514405383 0.22654550695938752
1620000000.0 -0.23951612320327773 -0.01350284742198874
1640000000.0 -0.19970053578723326 -0.12444158274242283
1660000000.0 -0.10451236014023002 0.200899924891304
1680000000.0 0.2078739529153747 0.0701850862115848
1700000000.0 -0.02069387949162793 0.2022512648689277
1720000000.0 0.0067247282970589175 0.18668304591039292
1740000000.0 0.15114047538979028 0.07788199662815881
1760000000.0 0.14032721601810375 0.002741674802272102
1780000000.0 0.06426075904931901 0.0903021862861795
1800000000.0 -0.0029987072213414354 -0.0660970905550556
1820000000.0 -0.0007695259598693739 -0.027403178532948852
1840000000.0 -0.014725060679645761 0.031029710998777164
1860000000.0 -0.039497416892601396 -0.06372290467998713
1880000000.0 -0.006637593566481887 0.11254405451423524
1900000000.0 0.03666369794298637 0.14984792509224776
1920000000.0 -0.14344315584021855 0.10130962087191682
1940000000.0 0.1210117180778409 -0.15418380134493836
1960000000.0 0.13431186468373654 -0.16346141167064038
1980000000.0 0.07832289165969292 -0.1993448798206799
2000000000.0 -0.09478493101359962 -0.19960906313207666
2020000000.0 0.1751442184071962 0.1309145234163093
2040000000.0 0.05086800204074552 -0.19974042897289265
2060000000.0 -0.13506625663160093 0.1457802847666339
2080000000.0 0.015433430137314385 0.19140510863270704
2100000000.0 -0.1563813146479084 0.10823264758459149
2120000000.0 0.10290534135351825 0.15592854075026152
2140000000.0 -0.009380293091198982 0.1787043482018261
2160000000.0 0.1002382234029459 0.1404729754378822
2180000000.0 -0.15425792042836725 0.03209859363408027
2200000000.0 0.037640322606036815 0.14108985772222246
2220000000.0 -0.059952668960804485 -0.11827765847266943
2240000000.0 -0.10341019925993795 -0.04141941181526448
2260000000.0 -0.08423465613886061 -0.0387956158732755
2280000000.0 0.04256369009668921 -0.07045092785962839
2300000000.0 0.06521997021351528 0.009657768531209084
2320000000.0 -0.02189639679666385 0.03998454280789997
2340000000.0 -0.03683208166162048 -0.01209049301210386
2360000000.0 -0.014616537917500822 0.02888985282494732
2380000000.0 0.028821596003416775 0.00041024273991590904
2400000000.0 0.00921332422379661 0.03465550305083175
2420000000.0 0.026521175721013014 -0.02058518808323476
2440000000.0 -0.023041281063115197 -0.03033183670101293
2460000000.0 -0.0428747059760396 0.00672353431887
2480000000.0 0.02943482520788382 -0.03457610983091935
2500000000.0 -0.006319018839965723 0.056767510237918296
2520000000.0 0.057570980201263916 0.039545663704173194
2540000000.0 -0.018431975312147672 0.08467297929593076
2560000000.0 0.08847241389885409 -0.041724583973524104
2580000000.0 -0.10186708481831733 0.054967796691526065
2600000000.0 0.04292732202825071 0.12154549671615651
2620000000.0 0.09264222604575738 0.10989865983381186
2640000000.0 -0.0998103361966733 0.12015121807267748
2660000000.0 -0.1551526751841709 0.07594699005938321
2680000000.0 0.026067730265611943 0.18358431378797754
2700000000.0 0.19371447623421 0.018803392333438557
2720000000.0 -0.14405360832804281 -0.14453536092235583
2740000000.0 0.2107592362850495 -0.0014468031306948735
2760000000.0 0.21578056120072628 0.020044080820582684
2780000000.0 0.17319303213739465 -0.13810604401539855
2800000000.0 -0.029132189857754044 -0.22440293554073146
2820000000.0 -0.18050129850093116 -0.14533463215422268
2840000000.0 0.1004859640072405 -0.21875866098534286
2860000000.0 0.17995436217255906 -0.17019752267606594
2880000000.0 0.2573241170018711 -0.019201436498911355
2900000000.0 -0.2189958845288567 0.15426963245229477
2920000000.0 0.10501407457125232 -0.25239444321611215
2940000000.0 -0.2499979978914146 0.10597289932383565
2960000000.0 -0.0653317055824968 0.2577725822822758
2980000000.0 0.05087298118773071 0.25324149417077196
3000000000.0 -0.055344608396154085 0.23792367095250622
3020000000.0 -0.11021028670963036 0.20074222748210555
3040000000.0 -0.2049304023647512 0.038199578367088656
3060000000.0 -0.08225905259026012 -0.16698495346981723
3080000000.0 0.13687190754646822 0.09883620090346604
3100000000.0 -0.1476352290077436 -0.0008434525407272944
3120000000.0 0.10436587651734011 -0.08772144035960766
3140000000.0 -0.02011795947689915 -0.12166351117101244
3160000000.0 0.033374278624184545 -0.10991065805365739
3180000000.0 -0.08235758019837133 -0.06917482551107444
3200000000.0 -0.04723701445599223 0.08973630428981967
3220000000.0 -0.10513648252756852 -0.0039914524778501695
3240000000.0 0.07490294116067847 -0.08227734950658688
3260000000.0 -0.09944467283112769 0.07005767509159885
3280000000.0 0.0954566401080937 -0.09700136664320225
3300000000.0 -0.13970107505369586 0.06428825963917968
3320000000.0 0.08314281383256067 -0.1528703437190002
3340000000.0 0.16263698919728078 0.1066381887527965
3360000000.0 0.017772365643529825 0.2094864777970932
3380000000.0 -0.21390843150635588 0.05438166135054425
3400000000.0 0.16652350363963517 -0.1522274705990436
3420000000.0 0.20881968650134983 0.09058444678998549
3440000000.0 0.024901169299353244 0.22207493185916594
3460000000.0 -0.06507285616001673 -0.2060088013926539
3480000000.0 0.11932213798991458 0.1695112427908072
3500000000.0 -0.19324524369729065 -0.041987798986447965
3520000000.0 0.18342278392643968 -0.033153294059778654
3540000000.0 -0.0007360577683998531 0.17405051476433467
3560000000.0 -0.16302543717250143 -0.0282157985550899
3580000000.0 -0.09360064177916129 -0.12778704710957683
3600000000.0 -0.1460815015743222 0.048359351331142525
3620000000.0 -0.1335541140666746 0.0728226319836852
3640000000.0 0.11646530966672122 0.10138730168851737
3660000000.0 -0.09080291231748777 -0.1352015414249327
3680000000.0 0.06901027737805729 0.15988363750437573
3700000000.0 0.04474515870115266 -0.1840384104732893
3720000000.0 0.016611128727894907 -0.20247357062225907
3740000000.0 0.21425397966565674 -0.049620529939744314
3760000000.0 0.012276865162899792 0.23881510878180626
3780000000.0 -0.2537367541254674 0.04463741701939852
3800000000.0 0.12794742628497338 -0.23663670377908888
3820000000.0 -0.06779848298115947 0.2663171361185178
3840000000.0 0.25622397780328254 -0.10992930991706819
3860000000.0 -0.2741154145545504 -0.031236271039071246
3880000000.0 0.16327207340974886 0.21917232742227233
3900000000.0 0.014161335081511961 -0.2659012028721786
3920000000.0 0.1006401852911144 0.2322051057821918
3940000000.0 -0.23188913200070493 0.034861720295002945
3960000000.0 -0.1231221044150057 -0.17163959216587518
3980000000.0 -0.11856144481795317 0.14695864565601469
4000000000.0 -0.07511515207762985 -0.14557482766546104
