!Created with skrf (http://scikit-rf.org).
# Hz S RI R 50.0 
!freq ReS11 ImS11
400000000.0 0.030209660790354344 0.606362345697558
420000000.0 -0.5567475808207288 0.04952045049309536
440000000.0 0.014046467548920829 0.47985820922872113
460000000.0 -0.3069682974056553 -0.24496673340141492
480000000.0 0.1368167837645948 0.38114402231523803
500000000.0 -0.40019395113801226 0.20661035173944134
520000000.0 -0.368702357947507 0.32750294384595346
540000000.0 -0.3055801083581072 -0.384132060733173
560000000.0 -0.39921102082721593 -0.12607944365464366
580000000.0 -0.26181935243531895 0.24241681931845174
600000000.0 -0.21391838300015736 -0.13825361287375648
620000000.0 0.11705849395833953 -0.11104658303704085
640000000.0 0.17908062168198174 0.019187953648631597
660000000.0 0.018343332976638132 -0.13117235431498486
680000000.0 -0.06150101975981762 -0.0936583969182759
700000000.0 0.09401108770735905 -0.043024123994417546
720000000.0 0.10912356657579332 0.05826171145353161
740000000.0 -0.16035693077275864 -0.05082032254670925
760000000.0 0.1126857115912382 0.1460307518190818
780000000.0 -0.17690281832652152 0.11366395635504525
800000000.0 -0.08307620140268378 0.21288919607977097
820000000.0 0.02824139958180163 0.2451076337911247
840000000.0 0.10670116184168667 -0.23976821627962366
860000000.0 -0.26183195842115625 -0.052094539940956565
880000000.0 0.2572631976495691 0.04734672142901951
900000000.0 0.10536946057141594 0.22770101280723215
920000000.0 0.04927184855366988 0.23924649456692884
940000000.0 -0.2162402805304721 0.06123846629046919
960000000.0 -0.16505388725067627 0.09243670205925518
980000000.0 -0.05408635396881225 0.11715319521199787
1000000000.0 0.08861360648899065 -0.04335291870678508
1020000000.0 -0.05485941868781674 0.06212632453848205
1040000000.0 0.1004546347124407 -0.014392073037502631
1060000000.0 -0.09420488620312331 -0.07183097922503949
1080000000.0 0.10318384783740743 -0.10271654896060746
1100000000.0 -0.11039977334164308 0.1599572512923425
1120000000.0 0.14260786623378646 -0.17652358040945745
1140000000.0 0.22316727638234193 0.08886119622380778
1160000000.0 -0.005729291329207493 -0.24542190514849083
1180000000.0 -0.07491688832515704 0.23526470431731003
1200000000.0 0.026567636155803948 0.2532554931951394
1220000000.0 -0.13805732334743184 0.1994542331612522
1240000000.0 0.2195983433396182 -0.0865500531620697
1260000000.0 -0.2079682963148785 0.12211252416932947
1280000000.0 -0.21957679754494788 -0.09788204208065834
1300000000.0 0.17770939303077876 -0.1742470702380113
1320000000.0 0.21559427316648422 -0.14222882751841606
1340000000.0 -0.21912062430238374 -0.13363330014458139
1360000000.0 0.19915082894183453 0.18338439059766198
1380000000.0 -0.2199451284498887 0.166244157992486
1400000000.0 -0.1629492896848837 0.21124929217872696
1420000000.0 0.05308726925126162 0.2654300177052717
1440000000.0 -0.15213257497108393 -0.2002388428485458
1460000000.0 0.07271560479554671 0.24958240500698115
1480000000.0 -0.20782438438002004 0.15071632975674737
1500000000.0 0.1326697291195647 -0.21315544218090338
1520000000.0 -0.2292856191937636 0.11541047715576541
1540000000.0 -0.2589227311885319 0.0490429597171228
1560000000.0 0.12801956597819797 0.22957705250689991
1580000000.0 0.13840925425648976 -0.21926062714914077
1600000000.0 0.06305117774429773 0.23802928520085834
1620000000.0 -0.2307179363367499 -0.06549633856747841
1640000000.0 -0.17849887181160723 -0.15307910663525437
1660000000.0 -0.12217540805067142 0.19126698555361973
1680000000.0 0.2067217606248465 0.07334506850646427
1700000000.0 0.0007197846069732567 0.2016085408922895
1720000000.0 -0.02647380206312616 0.18369843988853168
1740000000.0 0.1346652329371443 0.10351953677370111
1760000000.0 0.11155736925173979 -0.08558012552883808
1780000000.0 0.10635570453777352 0.030532306428630022
1800000000.0 0.009962753667220608 -0.06531347365323838
1820000000.0 -0.025734008823272744 0.0098067593836589
1840000000.0 0.028480759470383407 0.018244093040959967
1860000000.0 -0.052096851750722754 -0.05218715071511923
1880000000.0 0.019191484092158352 0.11102344479583112
1900000000.0 0.05923575956173463 0.14231847474991058
1920000000.0 -0.12796807560062853 0.12104514019732145
1940000000.0 0.11313232876054027 -0.16123944876280613
1960000000.0 0.11276990321871556 -0.17944446568019795
1980000000.0 0.027695815636983683 -0.21229930794093874
2000000000.0 -0.06758935509447665 -0.21026094176280014
2020000000.0 0.16031368059425535 0.14821596694596306
2040000000.0 0.05253189272566384 -0.19904079823126455
2060000000.0 -0.17287512192610685 0.09878109912081917
2080000000.0 0.020358591023858057 0.19069557025391695
2100000000.0 -0.14458988437302536 0.12357097554318379
2120000000.0 0.10712704571122678 0.15219022134804855
2140000000.0 0.03473228156150567 0.17576957694894718
2160000000.0 0.1233667633062497 0.11956617168720335
2180000000.0 -0.14499693140371034 0.0606660996667574
2200000000.0 0.049784776551977265 0.1364953575808734
2220000000.0 -0.041492912907730516 -0.12658123917849157
2240000000.0 -0.10331043712039685 -0.041487617982112215
2260000000.0 -0.08093852423634915 -0.046271032159162236
2280000000.0 0.04713048651729893 -0.06872226533046916
2300000000.0 0.05420000857989596 -0.03805620594792571
2320000000.0 0.015101765692449675 0.04301296250590116
2340000000.0 -0.03836036561821909 0.0008505117852226306
2360000000.0 -0.014050589861702257 0.02842814122711066
2380000000.0 0.018871392706108936 0.02293007386681598
2400000000.0 -0.012384620419210228 0.03380658139080571
2420000000.0 0.033433065429758706 0.002764343092342247
2440000000.0 -0.038371373426443124 -0.0016779640916555897
2460000000.0 -0.024917044828161938 0.03524768778411493
2480000000.0 0.02477574677165185 -0.03750081421632034
2500000000.0 0.037108097953453906 0.043161241452101595
2520000000.0 0.06975559188924844 -0.0036785020054535818
2540000000.0 -0.011344865764717686 0.08526827589238796
2560000000.0 0.09451390193022367 -0.028416034694630683
2580000000.0 -0.10932825304776404 0.03761664970575396
2600000000.0 0.042653014044425744 0.12176581387121817
2620000000.0 0.06860759822707073 0.12711969843983456
2640000000.0 -0.10027491715479402 0.12091398418135775
2660000000.0 -0.1402300619606264 0.10078586356054442
2680000000.0 0.008763307105761828 0.18508442041431566
2700000000.0 0.19374740440359278 0.010458842807826248
2720000000.0 -0.12381442780992873 -0.16244460050072723
2740000000.0 0.21020787829496454 -0.013710440080282936
2760000000.0 0.21658263119711144 0.008554533671867424
2780000000.0 0.154611361903868 -0.1579597255109409
2800000000.0 -0.009519085779175923 -0.22643879865159272
2820000000.0 -0.1792714117813171 -0.147988408963937
2840000000.0 0.11609772848973382 -0.21138620624248175
2860000000.0 0.16708687430654892 -0.18289691663952717
2880000000.0 0.25773049713179785 -0.018148162419779318
2900000000.0 -0.2249509481319027 0.1455165632145037
2920000000.0 0.10646173199795535 -0.251611028486924
2940000000.0 -0.2507908028795247 0.10324180032709511
2960000000.0 -0.07850142797080802 0.2538484608453016
2980000000.0 0.027987025920837433 0.2563307683250216
3000000000.0 -0.05861057587288693 0.23683970333053345
3020000000.0 -0.14318729320447982 0.17972169274988922
3040000000.0 -0.20256173220176935 0.048920861483618225
3060000000.0 -0.07059446031243741 -0.17248219085594946
3080000000.0 0.16024965309756564 0.05012705493290043
3100000000.0 -0.13495574148895767 -0.059762224387366794
3120000000.0 0.050174866970320794 -0.1265382383058403
3140000000.0 -0.07153621942635037 -0.1003032371698952
3160000000.0 -0.004295968137395407 -0.11500620955232532
3180000000.0 -0.06722783886187905 -0.08397783113774394
3200000000.0 -0.012458381875481865 0.10124518475552048
3220000000.0 -0.09702999172878951 0.042074725526419894
3240000000.0 0.0500569913545751 -0.09961244286545548
3260000000.0 -0.10522826828696985 0.06075918965817932
3280000000.0 0.10435888566619304 -0.08780628731878938
3300000000.0 -0.13987978281898145 0.06403154724786642
3320000000.0 0.0830400756689497 -0.15322913930316162
3340000000.0 0.1517435651648037 0.1213360306243059
3360000000.0 0.010712793765553437 0.20967637169665052
3380000000.0 -0.21634718880799197 0.041795103472379996
3400000000.0 0.17383086982537013 -0.14330871603619802
3420000000.0 0.2023054721676792 0.10261201480047769
3440000000.0 0.004844483969115814 0.22285512745772332
3460000000.0 -0.0507825132590871 -0.20929087130256854
3480000000.0 0.10951455761335402 0.17545252031894928
3500000000.0 -0.19552230090720604 -0.026533295180643134
3520000000.0 0.1749401509689884 -0.0633712485905126
3540000000.0 0.021774875123303006 0.17227760933581254
3560000000.0 -0.1648398316918767 -0.010450148263992105
3580000000.0 -0.12319714897147441 -0.09945791316748823
3600000000.0 -0.12847465749903517 0.08515010742069123
3620000000.0 -0.1217598680186443 0.09165714082482855
3640000000.0 0.11420355221070194 0.104533428437214
3660000000.0 -0.08319493505030015 -0.140744004967736
3680000000.0 0.03769345943644675 0.1703451339898127
3700000000.0 0.06730096912076866 -0.17704157712083785
3720000000.0 0.0441987853822593 -0.19823365637951126
3740000000.0 0.2197966908736259 0.007644240540190709
3760000000.0 0.016392924394118363 0.23822741796844832
3780000000.0 -0.25516743529746916 0.035017670849815136
3800000000.0 0.11562123874217017 -0.24220551119484232
3820000000.0 -0.07287258750648312 0.2642014737992152
3840000000.0 0.24280536458293675 -0.1352452291136884
3860000000.0 -0.2751992126136199 -0.0006280977130363475
3880000000.0 0.20086402085184446 0.18472920160506684
3900000000.0 -0.06338649204020003 -0.25842479390189715
3920000000.0 0.1316053441394303 0.21618645480790413
3940000000.0 -0.22778167006984784 0.05685313454035547
3960000000.0 -0.15152821357879467 -0.14764707953027995
3980000000.0 -0.07076760862539218 0.17566490430067672
4000000000.0 -0.1296864308471071 -0.10130221990533267
