!Created with skrf (http://scikit-rf.org).
# Hz S RI R 50.0 
!freq ReS11 ImS11
400000000.0 -0.6960585045945074 0.42261484350459677
420000000.0 0.48763036822959804 -0.581697048853737
440000000.0 0.709664912276216 0.0445972923234711
460000000.0 -0.46247756269446494 -0.4497302659622075
480000000.0 0.5693051862548753 -0.003860864522482546
500000000.0 0.5509819074445451 -0.08423781206420279
520000000.0 0.1082849842473691 0.458108253980655
540000000.0 0.2754041593689168 -0.3155572655598666
560000000.0 -0.10028003365798623 0.39165356493231135
580000000.0 -0.3726819057972986 -0.12318099032139533
600000000.0 0.1327355734631789 -0.38272451128878193
620000000.0 -0.3831594327563122 0.13031599825850024
640000000.0 -0.1773047406331461 0.35940285621018414
660000000.0 -0.012259999640336177 0.3941131976990361
680000000.0 0.368911760560886 0.0754160396245738
700000000.0 -0.3126263019820525 0.18521539596640987
720000000.0 0.036990966021800124 0.34687214637406144
740000000.0 0.31823754140821797 0.0813238261309946
760000000.0 -0.19113299987154184 -0.20384209000529882
780000000.0 -0.07516661804018626 0.28419787184577994
800000000.0 0.06921498257270071 -0.23960557747266426
820000000.0 0.24330665305583304 -0.02739348363508039
840000000.0 -0.0737764432842904 0.20416666264583266
860000000.0 -0.15661586878689168 -0.12787407780416796
880000000.0 0.191414616171451 0.033190184206935154
900000000.0 0.05638942311958683 0.15032920029118726
920000000.0 0.12579904002531292 -0.03340874576658714
940000000.0 -0.05428220059123688 0.10581959703092511
960000000.0 -0.008776482193754345 0.06770227018446409
980000000.0 -0.05548444461459986 -0.032572832594197625
1000000000.0 0.024660202361601245 -0.047992123322381515
1020000000.0 -0.027463182538154222 0.014366491023870477
1040000000.0 0.05037847331071519 -0.03240408623219242
1060000000.0 -0.08431247631928052 0.05784589063220267
1080000000.0 0.09446973020454562 0.08827957147469086
1100000000.0 -0.18925314619934128 0.04128187203463786
1120000000.0 0.01863299879945585 -0.21832392380927573
1140000000.0 0.023742042901268436 0.2455055087502401
1160000000.0 0.2598029813137088 0.10489646881800617
1180000000.0 -0.12476061437510635 0.2548755495869085
1200000000.0 0.2634668191970535 -0.14645793359571543
1220000000.0 0.2546435920805341 0.19872875426535902
1240000000.0 0.04764889545147877 0.34199634447980093
1260000000.0 0.19755522569914769 -0.27096395497293924
1280000000.0 0.3383885240116724 0.029461937654637244
1300000000.0 0.3425677872528845 -0.06280124286297156
1320000000.0 0.14411485598654558 0.3301119544125124
1340000000.0 -0.22141877732147527 -0.29183534544484097
1360000000.0 0.06699648314618153 -0.36536253608937824
1380000000.0 -0.3379344435480241 0.153877237780666
1400000000.0 -0.18871894215262208 0.3307741467248684
1420000000.0 0.3655188151140492 -0.07832738725545017
1440000000.0 0.152771413071515 -0.34747132117410273
1460000000.0 -0.370556272138105 0.049002386376453065
1480000000.0 0.16923809340600257 0.3203851869857593
1500000000.0 0.30598366011488565 0.11900607618300953
1520000000.0 0.06703642821534458 -0.3063730117352337
1540000000.0 -0.27163376939317135 0.07500030530391354
1560000000.0 -0.12109188038799874 0.22993973656851535
1580000000.0 -0.16644486238737197 -0.14602693689067917
1600000000.0 -0.04189622991701836 0.1932579737814803
1620000000.0 -0.1385365614500039 -0.08811088709968881
1640000000.0 -0.12342590029228226 -0.05954718556791181
1660000000.0 0.024010666049091505 -0.10956101799559338
1680000000.0 -0.0963005883667398 -0.015523954238366992
1700000000.0 0.08066210907239718 0.004789951668726071
1720000000.0 -0.05427823717361699 -0.04331035177572954
1740000000.0 0.06677288760213707 -0.00842727392448689
1760000000.0 -0.015463124497515975 -0.0778816786634576
1780000000.0 0.1038563215789528 0.0352786126741273
1800000000.0 -0.08730330947709065 -0.1100933905995365
1820000000.0 0.042929630425061746 -0.15970001094286054
1840000000.0 0.016480363623865932 -0.2070867216190758
1860000000.0 0.019778591190283554 0.23940280893695476
1880000000.0 0.26452070132319416 -0.03729093380148159
1900000000.0 -0.2892366857141136 -0.050594608503171594
1920000000.0 0.26078961555049013 0.13769304276457503
1940000000.0 0.19454932169138942 -0.2466273065100782
1960000000.0 -0.3067540695002248 0.062092991985808456
1980000000.0 0.3048888393143833 -0.1074368811866136
2000000000.0 0.1812285101581749 0.26398276119072966
2020000000.0 -0.01117338377956863 0.31489114422287223
2040000000.0 0.035206701972545044 -0.30358852171982753
2060000000.0 0.27150272938 -0.1615675455865008
2080000000.0 -0.29397457405512034 -0.10631676971111928
2100000000.0 0.22672832625636138 0.1995904248331521
2120000000.0 0.04061432609482613 -0.2960874449686096
2140000000.0 0.07902524243557552 0.2847880433869681
2160000000.0 0.18536109675609921 -0.2009306392854226
2180000000.0 0.03361572924490187 -0.2779412470058417
2200000000.0 -0.2599650292171887 -0.05357682805872524
2220000000.0 0.08991886458078789 -0.2416248216627824
2240000000.0 0.1467249364178915 -0.19795392977738022
2260000000.0 0.23020689315099715 -0.08004046513333947
2280000000.0 0.15716605108092424 0.14904595593180042
2300000000.0 -0.18192990693003472 -0.08964243139902812
2320000000.0 0.172334750869683 -0.07662393770656786
2340000000.0 -0.049816973337046024 -0.1671807944708348
2360000000.0 -0.15954652256162105 0.055242186487855845
2380000000.0 0.023862446145127864 0.1753811724150216
2400000000.0 -0.1851125266746529 0.03688317131984395
2420000000.0 0.1010561837985568 0.17664099962848934
2440000000.0 -0.17991981503928473 -0.1404132962801881
2460000000.0 -0.006138992634698311 -0.25469416837843323
2480000000.0 0.13398362324026372 0.24915878060993718
2500000000.0 0.3057187911891675 0.07368275525730279
2520000000.0 0.09896852746818581 0.32705165265471137
2540000000.0 0.07950284204220742 0.3657970392048201
2560000000.0 -0.37971329146669414 0.12220632314534716
2580000000.0 -0.16003043737250464 -0.3859696988959652
2600000000.0 0.42436685523825185 -0.10826668962666368
2620000000.0 -0.012354672228063893 0.45315204626145433
2640000000.0 -0.45936361320959884 -0.048539475184628575
2660000000.0 0.01447044678826255 -0.46888316243239675
2680000000.0 0.3588194555067032 -0.3063462169747618
2700000000.0 0.45627041215182285 -0.1345611536619209
2720000000.0 0.43434611721642086 -0.20240578118235308
2740000000.0 0.4176204785687596 -0.24389463925415328
2760000000.0 0.37864788162311 -0.3100005074059728
2780000000.0 0.1917190288989105 0.45476115766049396
2800000000.0 -0.1304624299747747 0.4812967734449282
2820000000.0 -0.5023623590082115 -0.02478674717710699
2840000000.0 0.33270374499090294 -0.381774807454487
2860000000.0 -0.36103882894208883 0.35807622053258725
2880000000.0 0.5078271969755045 -0.04100556687179134
2900000000.0 -0.2339725191905788 -0.4483624437362348
2920000000.0 -0.4236029647211042 0.2636875912682022
2940000000.0 0.1902351899011478 0.4516241406983065
2960000000.0 0.4568670137417201 -0.1441987911900918
2980000000.0 -0.12539844662186822 -0.44726693706686815
3000000000.0 -0.3989175088552141 0.20629063019617205
3020000000.0 0.4205195945444423 0.10043248472943145
3040000000.0 -0.08437748835208529 -0.40922468080585067
3060000000.0 0.01603871074523939 0.40562052585737207
3080000000.0 0.12216627638074243 -0.37333152032563127
3100000000.0 -0.25569215415711727 -0.28566643910111705
3120000000.0 0.17626125079289667 0.33673735466752913
3140000000.0 -0.02551236640085816 -0.37703950303813627
3160000000.0 -0.3565250769238554 0.12328372704671267
3180000000.0 0.22907513458634582 0.30013506706826826
3200000000.0 0.37180612353850445 0.029835254975408485
3220000000.0 0.3602698833089775 -0.0742385290169508
3240000000.0 0.2919980905697548 -0.2260158161379479
3260000000.0 0.35553536378765627 -0.02137150412460944
3280000000.0 0.1016554449302146 0.3225338517463082
3300000000.0 -0.2258043175987954 0.22657349756793627
3320000000.0 -0.19516310593645167 -0.23587719605498786
3340000000.0 0.22043250115968194 0.18546577405442763
3360000000.0 -0.2649741500886824 0.019459911933135204
3380000000.0 0.013717069908405988 -0.2437493911666782
3400000000.0 0.07972525496039076 0.21253747323631497
3420000000.0 -0.08753240155274464 -0.19632850596924514
3440000000.0 0.08378240360810255 0.1856702347423528
3460000000.0 0.037703754962018006 0.1863971234825908
3480000000.0 0.11539574793316063 0.14150524360806477
3500000000.0 -0.08693233284078278 -0.15255637120858184
3520000000.0 -0.0030531466318630485 0.17292385589435957
3540000000.0 0.16617357607919317 -0.023204462343090634
3560000000.0 0.11742789536885048 -0.12583982848841338
3580000000.0 0.0901689535533506 0.15099638676152943
3600000000.0 0.1679677355257957 0.05958415440228418
3620000000.0 -0.12133455205543163 0.13849739567739175
3640000000.0 -0.19409480408305754 0.0058961758176289455
3660000000.0 0.15906368544599572 -0.12180481041886478
3680000000.0 0.007080624211041109 0.19803330152163368
3700000000.0 0.10125000606394606 -0.16822715730345666
3720000000.0 -0.10601746959172183 -0.1545506978437415
3740000000.0 0.06119083707388049 -0.17104399432047504
3760000000.0 0.041236323265892126 -0.1678196897411019
3780000000.0 0.039429026380446715 -0.15860841057718042
3800000000.0 0.14954901390223754 -0.003746714915796073
3820000000.0 -0.054161851878504155 0.12165391733865427
3840000000.0 0.10868016730486622 -0.035060516654073504
3860000000.0 0.07789981731512294 -0.05732108796202563
3880000000.0 -0.051956230147568935 0.06254410283878764
3900000000.0 0.0648190398709902 0.04219689241596454
3920000000.0 -0.015929879608340476 0.07055454223962929
3940000000.0 0.03506351750985481 0.050304536086244724
3960000000.0 0.03744186864336089 -0.03926765388927075
3980000000.0 0.03452730392731246 0.023749900805629547
4000000000.0 0.03243447688567357 0.010335872348541634
