!Created with skrf (http://scikit-rf.org).
# Hz S RI R 50.0 
!freq ReS11 ImS11
400000000.0 -0.7155229952290334 0.38865820268833706
420000000.0 0.48695848110198003 -0.5823236075090538
440000000.0 0.7098047175154022 0.038902126655296035
460000000.0 -0.4593426699008441 -0.453219391839688
480000000.0 0.5692793284321481 0.01058739165699007
500000000.0 0.5500143068499208 -0.08785141067416953
520000000.0 0.1162616124949707 0.456121008066608
540000000.0 0.2934058765636319 -0.299437331489431
560000000.0 -0.10259352100628313 0.3911437756340594
580000000.0 -0.35444920916918116 -0.16837765775486235
600000000.0 0.12164242811114302 -0.38610647650352803
620000000.0 -0.3827591750898155 0.1304050942931316
640000000.0 -0.17567052923766394 0.35978932425249777
660000000.0 -0.021438044579534996 0.3933321588420866
680000000.0 0.36826021010604265 0.07912104936481358
700000000.0 -0.33368342785954686 0.1430992736235075
720000000.0 0.0562762979191084 0.34441924737765717
740000000.0 0.3245992369449327 0.05130030838518064
760000000.0 -0.19378564201259063 -0.2010403462020368
780000000.0 -0.06140818067619341 0.28745292047017484
800000000.0 0.04916482813270179 -0.24416119954750948
820000000.0 0.24282768914250893 -0.030667779234251746
840000000.0 -0.06636027798618749 0.20655269020751907
860000000.0 -0.15379977946313245 -0.13056271125656121
880000000.0 0.19425994504384533 0.0063461097750072215
900000000.0 0.06439929640824112 0.1470915218444163
920000000.0 0.12757370086393566 -0.024546425913857226
940000000.0 -0.03351275280528226 0.11349901670088344
960000000.0 -0.0031052163246192955 0.0677841922483404
980000000.0 -0.05111320737309483 -0.03836018786456165
1000000000.0 0.015701188209174176 -0.051510031930297184
1020000000.0 -0.02412639983372386 0.01949832206599012
1040000000.0 0.059367500642138867 -0.005488742806581196
1060000000.0 -0.0770028260414003 0.06721076768054651
1080000000.0 0.09007582948142043 0.09275659393689957
1100000000.0 -0.16834188128024027 0.09515079004371554
1120000000.0 0.024487913967981882 -0.2177611192766554
1140000000.0 0.023865797284424162 0.24527576908410068
1160000000.0 0.2620470362972404 0.09930152150619363
1180000000.0 -0.1254678377135095 0.2546667819337469
1200000000.0 0.2716319157404936 -0.13089442467362744
1220000000.0 0.26631719559586114 0.18276959801198445
1240000000.0 0.05706804648889399 0.3408356451356061
1260000000.0 0.18684438112902596 -0.2779574564274348
1280000000.0 0.3360673313962829 0.05016374231112534
1300000000.0 0.3419664128040153 -0.06434382980311715
1320000000.0 0.15641562855076965 0.3244930876810412
1340000000.0 -0.24758971230921034 -0.26961845288811026
1360000000.0 0.08983012341217267 -0.36044032196730164
1380000000.0 -0.34311077939463047 0.141836208531847
1400000000.0 -0.1840184605780446 0.3334263649438125
1420000000.0 0.3695603083491242 -0.05680812199522948
1440000000.0 0.11204690250908887 -0.3628002476642457
1460000000.0 -0.3717347365409272 0.04176542149436382
1480000000.0 0.10692684892050802 0.3462598002593356
1500000000.0 0.29663547117010175 0.14043308680357033
1520000000.0 0.05983632088564518 -0.30807354758557015
1540000000.0 -0.27753961987809683 0.048676446595457
1560000000.0 -0.11962712658056578 0.23040226450976284
1580000000.0 -0.17013479101131915 -0.1413929108426562
1600000000.0 -0.024468857169674844 0.1960070342618025
1620000000.0 -0.14009902495720317 -0.08569198130249267
1640000000.0 -0.11582494838403899 -0.07408184610445939
1660000000.0 -0.00034647656018167 -0.11205631661729094
1680000000.0 -0.09814731572599011 0.001594691215846928
1700000000.0 0.06965056083066497 0.03946766624424331
1720000000.0 -0.06308269921235087 -0.028971761348115237
1740000000.0 0.06699162260251955 0.0073097710743822274
1760000000.0 -0.017009854507543654 -0.07761770302494657
1780000000.0 0.10462133613861485 0.033043626612075674
1800000000.0 -0.09657757570861517 -0.10249213635241157
1820000000.0 0.06707019516827524 -0.15080471175605503
1840000000.0 0.015777555184158874 -0.20733095434919876
1860000000.0 0.014620165889944229 0.23994666438312368
1880000000.0 0.26625728626762657 -0.025128727662372098
1900000000.0 -0.28671774525828164 -0.06307825882554229
1920000000.0 0.25534673159439153 0.14706178031951356
1940000000.0 0.20016374631987355 -0.2419891695679098
1960000000.0 -0.3080370360441847 0.05483917591807009
1980000000.0 0.2981735951510408 -0.12429573477144723
2000000000.0 0.18614451710429258 0.2604556284788701
2020000000.0 0.036802339307285326 0.3127298809416953
2040000000.0 0.0653733941897952 -0.29862175614922437
2060000000.0 0.2446180155251585 -0.19977830670587038
2080000000.0 -0.2896162069957282 -0.11801930094013816
2100000000.0 0.22660629283719133 0.19945644028416298
2120000000.0 0.06709597603848313 -0.2913334542942214
2140000000.0 0.12482798264772098 0.2677169790428388
2160000000.0 0.17589161766938552 -0.209794585997385
2180000000.0 0.05717901834571499 -0.27403205847183215
2200000000.0 -0.2596487171746794 -0.05309033369443079
2220000000.0 0.10643809119063502 -0.23476486859638754
2240000000.0 0.14818504521156967 -0.19663146495798745
2260000000.0 0.23068858069439868 -0.07808725705613453
2280000000.0 0.16437499752165424 0.14081008558389108
2300000000.0 -0.1854562946997139 -0.0826896260099241
2320000000.0 0.17126805221349678 -0.07882882414524112
2340000000.0 -0.05076933233735236 -0.16720644873758878
2360000000.0 -0.15909512857544997 0.05705559365171633
2380000000.0 0.019762305082636197 0.17601392645008354
2400000000.0 -0.18111755893017586 0.053801773817101606
2420000000.0 0.10469682699771171 0.17472960793617132
2440000000.0 -0.1720634954753694 -0.15030143603917162
2460000000.0 -0.007427658337877955 -0.2545904819746807
2480000000.0 0.16474258998109695 0.23040160713451563
2500000000.0 0.3003789270460555 0.09233112970491057
2520000000.0 0.10429932293806844 0.32529966351397316
2540000000.0 0.09930679740588 0.36101615087584243
2560000000.0 -0.38063725725382275 0.11965320316841582
2580000000.0 -0.1857181988157327 -0.3744642701820362
2600000000.0 0.4235917467854668 -0.1120184847341033
2620000000.0 0.017390963652124773 0.45298770582925413
2640000000.0 -0.4600958450243057 -0.04252554662988396
2660000000.0 0.009807469940434112 -0.4690241757941904
2680000000.0 0.381300550260818 -0.27801138443042783
2700000000.0 0.4564778383840577 -0.13405504553625755
2720000000.0 0.42409484199778225 -0.22297260324336937
2740000000.0 0.4151481567659384 -0.2481760783763687
2760000000.0 0.36699143960115677 -0.3239614417459986
2780000000.0 0.20047864812002825 0.45101620893162925
2800000000.0 -0.12754589999229363 0.48217899129991126
2820000000.0 -0.5025995553708754 -0.021988015404959583
2840000000.0 0.32173924442232366 -0.3913712576739493
2860000000.0 -0.3640436408239687 0.3553876500416607
2880000000.0 0.5051000922506469 -0.06886837223712015
2900000000.0 -0.24216280512401966 -0.4439537016004377
2920000000.0 -0.4316234064437049 0.25079300662033527
2940000000.0 0.15753788258729318 0.46413857550727816
2960000000.0 0.4410156528765463 -0.18644813715869055
2980000000.0 -0.14661295745657985 -0.43998467760752596
3000000000.0 -0.40392395186587443 0.19578564041339727
3020000000.0 0.4195799416329036 0.10496701338738398
3040000000.0 0.002941287347646565 -0.4183660531123512
3060000000.0 0.01117606625967346 0.40589987138375616
3080000000.0 0.10355202207463732 -0.37928676080926066
3100000000.0 -0.3053850337172252 -0.23250599594169025
3120000000.0 0.14099282587197257 0.3528318301803425
3140000000.0 -0.02450078995714595 -0.3775146077812845
3160000000.0 -0.36324902084349026 0.10068527480973331
3180000000.0 0.23076492550661074 0.2987598938263873
3200000000.0 0.37168033229986525 0.03040245260536305
3220000000.0 0.3605823488367126 -0.07232632171261581
3240000000.0 0.28393658634704905 -0.2355366195119607
3260000000.0 0.35474012506205055 -0.028831536286385497
3280000000.0 0.10726842485148869 0.3206034627497788
3300000000.0 -0.22234998605047707 0.22934611391957416
3320000000.0 -0.2223673248881371 -0.21001462696780185
3340000000.0 0.22756875995433987 0.17647269037731148
3360000000.0 -0.2635654583997752 0.034086352399782444
3380000000.0 0.01089542399058942 -0.24374912118749195
3400000000.0 0.04003009613468316 0.2234645940358202
3420000000.0 -0.07470833428900733 -0.20149787924106433
3440000000.0 0.12101728215437119 0.16392155463093333
3460000000.0 0.050621448387864816 0.18339244618756653
3480000000.0 0.11617691502590842 0.14054336924232047
3500000000.0 -0.11118946829636196 -0.13619142020995412
3520000000.0 -0.006838079070010575 0.17318033658296944
3540000000.0 0.16555858336421206 -0.0275471043544505
3560000000.0 0.10354750380987827 -0.13751621541024162
3580000000.0 0.11837390922181237 0.13025675474109877
3600000000.0 0.16649581855806336 0.06401746813687845
3620000000.0 -0.0976271499579346 0.15621681457455183
3640000000.0 -0.1948014714380211 0.003516400223910686
3660000000.0 0.16327230705628049 -0.11725323690338976
3680000000.0 -0.010222195905919532 0.19826565748460212
3700000000.0 0.10647349321812291 -0.16487381173579035
3720000000.0 -0.14636021921345943 -0.11677646068087041
3740000000.0 0.07325457997516927 -0.16624872941472343
3760000000.0 -0.008307167170375605 -0.1724458962283207
3780000000.0 -0.036025718186194655 -0.15982020125981072
3800000000.0 0.14790724195622823 0.021883566724253074
3820000000.0 -0.04108239607250014 0.12698231573244056
3840000000.0 0.11313035708138701 -0.009529536634629835
3860000000.0 0.08057992074059138 -0.053243888026623845
3880000000.0 -0.0683249938035873 0.043064708725718874
3900000000.0 0.06960330661087681 0.03354397199154459
3920000000.0 -0.032530059197254615 0.06402707754764346
3940000000.0 0.0403234027298196 0.04581746332693062
3960000000.0 0.013949542349562706 -0.0520147041804636
3980000000.0 0.04177004121449888 0.0022527991596340753
4000000000.0 0.02521571704097918 0.023470240545904308
