!Created with skrf (http://scikit-rf.org).
# Hz S RI R 50.0 
!freq ReS11 ImS11
400000000.0 -0.7030571355872463 0.4109162941323823
420000000.0 0.4989054800942782 -0.5719788862371202
440000000.0 0.7093231199158209 0.05064068440646278
460000000.0 -0.4520833188759681 -0.460701606102512
480000000.0 0.5689278192022517 0.007701091747856289
500000000.0 0.5520956415738532 -0.07890348187743983
520000000.0 0.12803601608348092 0.45268242062466635
540000000.0 0.30552264809497004 -0.2868804532712304
560000000.0 -0.11384435229959547 0.3871553160122526
580000000.0 -0.3571973178073398 -0.16330849957386495
600000000.0 0.12377205150848704 -0.38589913964507205
620000000.0 -0.3853227804713514 0.12097354389185694
640000000.0 -0.18023062704251405 0.35772615935994695
660000000.0 -0.02811800668589641 0.3926802297719235
680000000.0 0.3752459011615425 0.0330285892769031
700000000.0 -0.3398326219980778 0.12933695545874555
720000000.0 0.09520928087867245 0.33526473127151174
740000000.0 0.31897363186056904 0.0788802424612347
760000000.0 -0.21605724368050352 -0.17719168196104343
780000000.0 -0.09405623555268645 0.27941709128904096
800000000.0 0.03698465982267768 -0.24636265931130663
820000000.0 0.2414272509837662 -0.04093978130776194
840000000.0 -0.06698482024051974 0.20629104948840285
860000000.0 -0.15987788276608306 -0.123146267001464
880000000.0 0.19283352600635756 0.024194956848719043
900000000.0 0.04376054332355093 0.15427956454587155
920000000.0 0.12408526929945897 -0.0396885738060421
940000000.0 -0.048700159406668664 0.10806235358901356
960000000.0 -0.026465042399618808 0.06298315754521673
980000000.0 -0.03057507382885512 -0.05579452686541217
1000000000.0 0.02258917810408854 -0.04933891254879358
1020000000.0 -0.011592131674416504 0.028755721731306038
1040000000.0 0.05899702211403081 -0.009671171660540701
1060000000.0 -0.07953490210444472 0.06416794698608067
1080000000.0 0.07843885852868779 0.1025980958639183
1100000000.0 -0.17615280722823298 0.07909369719759946
1120000000.0 0.03879279946560042 -0.21517324225688633
1140000000.0 -0.01779580466100405 0.24579534242401158
1160000000.0 0.26328147013265635 0.0965414739274804
1180000000.0 -0.11949070584654503 0.25771715252478616
1200000000.0 0.27182251733546087 -0.12996313038064283
1220000000.0 0.2664748562962927 0.18248768841905336
1240000000.0 0.03714430022811426 0.34340499748323966
1260000000.0 0.18575134320182424 -0.2786599501655004
1280000000.0 0.3386264016898057 0.028657073524251887
1300000000.0 0.34150675136301456 -0.06953561544532742
1320000000.0 0.14683254509659635 0.32871953390743375
1340000000.0 -0.23553945313385638 -0.280104526036471
1360000000.0 0.08174499286121577 -0.36235952566485824
1380000000.0 -0.35233634602501057 0.11753165886811164
1400000000.0 -0.17620306970521535 0.33676741974432917
1420000000.0 0.3636391936206543 -0.08876356553893261
1440000000.0 0.13843000611305992 -0.35300246285832554
1460000000.0 -0.3699158583238382 0.054521965436926036
1480000000.0 0.1398701477012 0.33430783725393814
1500000000.0 0.2935997034525587 0.1468060653718485
1520000000.0 0.0463184427285603 -0.3105823384836471
1540000000.0 -0.27746399897288393 0.04859810516794734
1560000000.0 -0.1125640775439336 0.234474542414409
1580000000.0 -0.1599250698816853 -0.15288483064028818
1600000000.0 -0.03173368095083006 0.19540110879133812
1620000000.0 -0.13769801456197908 -0.08914602954135208
1640000000.0 -0.11134736534660238 -0.08107227848629447
1660000000.0 -0.0031247414118233934 -0.11183045429194496
1680000000.0 -0.09843487545649358 -0.004371752712154088
1700000000.0 0.07199407074446043 0.03494544114158533
1720000000.0 -0.05077075757297762 -0.04707412047623065
1740000000.0 0.0619896290687975 0.026657556043950224
1760000000.0 -0.017876130279867314 -0.0771258292943094
1780000000.0 0.1082807184741367 0.01693519661619707
1800000000.0 -0.04363729492645325 -0.13326730900076747
1820000000.0 0.05130098300432371 -0.15707649076379024
1840000000.0 0.014252076794911193 -0.20732183379287164
1860000000.0 -0.0008302425848018163 0.2402926395198875
1880000000.0 0.2654094432783906 -0.02654105973704147
1900000000.0 -0.282551592605609 -0.08012416836589267
1920000000.0 0.25927478749243527 0.14080792003583684
1940000000.0 0.19890678586904167 -0.24298237926559052
1960000000.0 -0.3043762406935977 0.07365452006282659
1980000000.0 0.3077743819691423 -0.09967704330900656
2000000000.0 0.17707049575433417 0.26688355963448485
2020000000.0 -0.006612445664385154 0.31486945360612684
2040000000.0 0.05342537543025293 -0.30093471848949316
2060000000.0 0.25785065675014057 -0.18223646176725308
2080000000.0 -0.29451588988818267 -0.10483573690867373
2100000000.0 0.23233088369799787 0.1926867558200618
2120000000.0 0.03198722642578839 -0.2973104723017291
2140000000.0 0.09904118005895314 0.27808571275491595
2160000000.0 0.16379169755556078 -0.21902135178796836
2180000000.0 0.04273070269446528 -0.2764885498409383
2200000000.0 -0.25590730099853504 -0.07006813455147037
2220000000.0 0.06890915865772988 -0.24867171287180828
2240000000.0 0.14874721110693565 -0.19687257329220947
2260000000.0 0.22696238787795767 -0.0884893973395361
2280000000.0 0.15425137117896234 0.1520397967551781
2300000000.0 -0.18789620049178543 -0.07619009674345799
2320000000.0 0.17344512841555754 -0.07435245745748403
2340000000.0 -0.029597820259602017 -0.17229631364101872
2360000000.0 -0.1599377070830748 0.053258311309140514
2380000000.0 0.02054807034359805 0.1757571203761578
2400000000.0 -0.18615571108604415 0.031106912964755967
2420000000.0 0.08198758197579765 0.18650994641161156
2440000000.0 -0.16368738849883854 -0.1588205130193757
2460000000.0 -0.004500001946598389 -0.25428859139965504
2480000000.0 0.1619500186450462 0.2318744777253992
2500000000.0 0.30166562692974674 0.08776837227363704
2520000000.0 0.1094822375579155 0.32347868969577
2540000000.0 0.09802350307247236 0.36143830030928575
2560000000.0 -0.3729432617140991 0.14202550473135558
2580000000.0 -0.17527906111654457 -0.3798163215802683
2600000000.0 0.4317490779756326 -0.0740496411568564
2620000000.0 -0.017865635957999358 0.453056241871894
2640000000.0 -0.4558580448007463 -0.07611940619263187
2660000000.0 0.033210718137509226 -0.4681664774322306
2680000000.0 0.3797376615623425 -0.2797115017193373
2700000000.0 0.45951405072353846 -0.121743003722562
2720000000.0 0.45447804502541367 -0.15213958141712738
2740000000.0 0.34230268706536576 -0.3414792086370714
2760000000.0 0.3282849975351579 -0.36268278913487845
2780000000.0 0.22109412701310013 0.4409264036717589
2800000000.0 -0.12769555905790472 0.481760916119382
2820000000.0 -0.5025756941772066 -0.02101108345381561
2840000000.0 0.3187677106255411 -0.39372649433312373
2860000000.0 -0.3008373847004547 0.4103836143373922
2880000000.0 0.5086458766485046 -0.03380875827102956
2900000000.0 -0.2400201720439674 -0.4451542109500899
2920000000.0 -0.4174708219773327 0.2732011816676131
2940000000.0 0.15921179263316237 0.46354480261585107
2960000000.0 0.4561170940078434 -0.1458711661144113
2980000000.0 -0.07897550320435238 -0.4576181085877165
3000000000.0 -0.4116058799725224 0.17758913717057037
3020000000.0 0.41880292020206195 0.10487860907302575
3040000000.0 -0.0552398496482875 -0.4136509309336442
3060000000.0 0.010622266418032471 0.4049378216778207
3080000000.0 0.09538098460007345 -0.38055554152920235
3100000000.0 -0.25569129650338046 -0.28448626819308476
3120000000.0 0.21194125454412335 0.31482104404605843
3140000000.0 -0.061694338148044606 -0.37280755508374785
3160000000.0 -0.35179246310830387 0.13490773425292246
3180000000.0 0.2515373341213486 0.28180617117695217
3200000000.0 0.3733292690098279 0.013783654716055058
3220000000.0 0.3612745057023427 -0.07513394959810814
3240000000.0 0.26772607594046394 -0.25428418145234993
3260000000.0 0.3558706547201701 -0.02149166095496107
3280000000.0 0.04046397642401446 0.33810933426946077
3300000000.0 -0.2928214604079831 0.1335654272504596
3320000000.0 -0.17824458182377445 -0.24991878129000644
3340000000.0 0.1332542039588269 0.25719646084581665
3360000000.0 -0.25050822566535497 -0.09273184886284824
3380000000.0 0.1154529569063008 -0.2161388600462633
3400000000.0 -0.08256641749373084 0.21251035918842148
3420000000.0 0.051951425990941054 -0.20908222577306654
3440000000.0 0.0031218119338430584 0.20424043803826383
3460000000.0 -0.07463963865189904 0.1749232581228928
3480000000.0 0.030752535187975976 0.17878560401902466
3500000000.0 -0.03188258602791812 -0.17215183248769314
3520000000.0 -0.06134064276930663 0.1604314518315589
3540000000.0 0.16664966627272582 -0.006497819309354069
3560000000.0 0.110207106996906 -0.13038904359224812
3580000000.0 0.11913068544144001 0.12831521648323135
3600000000.0 0.17624263877893706 0.02009753242265565
3620000000.0 -0.08838062002648489 0.16107841639121823
3640000000.0 -0.1875637736753365 0.048410477530439665
3660000000.0 0.1464177139140099 -0.137128352676582
3680000000.0 0.026574243054591124 0.1961405292698483
3700000000.0 0.11359209418510713 -0.16059874838250476
3720000000.0 -0.14793516447973054 -0.1148954851996191
3740000000.0 0.0822646724527987 -0.16236576707953118
3760000000.0 0.025347755321741737 -0.17061716397009852
3780000000.0 0.05378674878775379 -0.15431807002452433
3800000000.0 0.14937705907880713 0.005033132767080789
3820000000.0 -0.06286994587996735 0.11751991068335489
3840000000.0 0.11253490027620022 0.013504792336568629
3860000000.0 0.08941308950425413 -0.03613897474541777
3880000000.0 -0.07286242127108308 0.033585846788406835
3900000000.0 0.06341512480355874 0.043534624216836355
3920000000.0 -0.023621997864646933 0.0678322572815936
3940000000.0 0.04772095122568513 0.037858871160531354
3960000000.0 0.007403613482883917 -0.05354414700055041
3980000000.0 0.035702301010212524 0.0216633112827667
4000000000.0 0.03160976637047789 -0.014132919851219351
