!Created with skrf (http://scikit-rf.org).
# Hz S RI R 50.0 
!freq ReS11 ImS11
400000000.0 -0.6863301984875781 0.437187909636856
420000000.0 0.5161006429940828 -0.55686171969582
440000000.0 0.7107606310442054 -0.004522402228853713
460000000.0 -0.4653367982272455 -0.44608086123194624
480000000.0 0.568723602986702 0.020885878666347953
500000000.0 0.5503974845265039 -0.0838984115134026
520000000.0 0.06924869396673561 0.46565829071797094
540000000.0 0.2758633306705356 -0.3165320386036605
560000000.0 -0.05477880986256596 0.40050725552233407
580000000.0 -0.37539483664565726 -0.11322354707714506
600000000.0 0.1345756462606695 -0.3803086665693894
620000000.0 -0.3914466290980573 0.10409996914784427
640000000.0 -0.1947933400326758 0.35107857399079034
660000000.0 0.047878069311640854 0.39064623134769433
680000000.0 0.3682476496146402 0.0809274713325914
700000000.0 -0.32659066496888567 0.15692063383857682
720000000.0 0.0689697865449743 0.34221699205968087
740000000.0 0.3065592970489952 0.11791655620869122
760000000.0 -0.19775178082001782 -0.19756077403083902
780000000.0 -0.0847397020753963 0.28182076802382244
800000000.0 0.04514298488852237 -0.24499040732352623
820000000.0 0.2443232043383235 -0.00353259456308396
840000000.0 -0.07322541314644221 0.20369634403183215
860000000.0 -0.15912243706861667 -0.1248635477106377
880000000.0 0.19369104640426768 0.01384168765500792
900000000.0 0.0507715860053607 0.1522257468875517
920000000.0 0.12190674750501174 -0.04560734807133822
940000000.0 -0.06567531419202605 0.09950533546420463
960000000.0 -0.011216404805553887 0.0673606463279429
980000000.0 -0.05263528491608223 -0.036112286733256914
1000000000.0 0.0052288960919899055 -0.05396026126974153
1020000000.0 -0.019230035073870364 0.024238257181248446
1040000000.0 0.0481751641280251 -0.036103552342356265
1060000000.0 -0.09965893028064486 0.020924672424006023
1080000000.0 0.08528766646072787 0.09713235430952402
1100000000.0 -0.18428829399150082 0.059902833321944196
1120000000.0 -0.02904604261045978 -0.21707406740927143
1140000000.0 0.01797847434609893 0.24596330960665705
1160000000.0 0.2694496314297272 0.07722261452318877
1180000000.0 -0.14117559941212104 0.24631276707080196
1200000000.0 0.253332448318499 -0.16390495047214496
1220000000.0 0.24303808870081392 0.2123340913301702
1240000000.0 0.04747710047041577 0.34212630144316686
1260000000.0 0.18492101289204474 -0.2799226478926511
1280000000.0 0.339306934913059 0.004701690527567075
1300000000.0 0.33874772774429635 -0.08146022297565808
1320000000.0 0.17488349849319712 0.31512351516975706
1340000000.0 -0.2429494384401787 -0.2739030928611962
1360000000.0 0.07525781019571401 -0.36405555065975803
1380000000.0 -0.3295265449099422 0.17219578821861575
1400000000.0 -0.1840514908089848 0.3329174104117288
1420000000.0 0.36561104657151067 -0.07775744506455105
1440000000.0 0.11571065135104583 -0.3618867392776873
1460000000.0 -0.36776194605472073 0.06769121380267004
1480000000.0 0.12108199597357015 0.34124021087132345
1500000000.0 0.3015939110814065 0.1313937927947736
1520000000.0 0.015497293467697005 -0.3123493574143423
1540000000.0 -0.2798816777250678 0.032533638068969466
1560000000.0 -0.1111071044576984 0.23515717049749568
1580000000.0 -0.17410030545109617 -0.1358003833625283
1600000000.0 -0.028471435363770874 0.1956134366270039
1620000000.0 -0.14157049226911508 -0.08410604250580114
1640000000.0 -0.1258357687863655 -0.055831689830513544
1660000000.0 0.029989589619317823 -0.10796587295649589
1680000000.0 -0.09806766554578071 0.001995514078544119
1700000000.0 0.07759696077637429 0.022020924871245375
1720000000.0 -0.06474560087920574 -0.023721747309052587
1740000000.0 0.06739173644929401 -0.001633127088468039
1760000000.0 -0.04997328492129424 -0.061534145440277896
1780000000.0 0.10102041774506318 0.042413300496559454
1800000000.0 -0.092591149125588 -0.10604051519086438
1820000000.0 0.03654512446249852 -0.16063957492638514
1840000000.0 0.007714566676258011 -0.20826573707324295
1860000000.0 0.030738896030291046 0.23847513961673844
1880000000.0 0.26422578512107486 -0.040273165725503816
1900000000.0 -0.2823574170913159 -0.08008535069335936
1920000000.0 0.255494303625714 0.14747106201135118
1940000000.0 0.19065692145947064 -0.2494651470876155
1960000000.0 -0.30621931468018027 0.06372456548974281
1980000000.0 0.30896035036180736 -0.09412175985827698
2000000000.0 0.17349613422655913 0.2692678049257024
2020000000.0 -0.028748486557665605 0.3138680070136657
2040000000.0 0.033609290208886915 -0.30395888962860124
2060000000.0 0.2509819175243303 -0.1920006918766508
2080000000.0 -0.3009505963086463 -0.0845449379057246
2100000000.0 0.21834677681257383 0.208760749350493
2120000000.0 0.03272407446139454 -0.29735490002449333
2140000000.0 0.12812098491555177 0.26633696474829455
2160000000.0 0.16042086756427365 -0.22105658758510308
2180000000.0 0.039954442936318016 -0.27774697538534376
2200000000.0 -0.2622142117990195 -0.037710114403536533
2220000000.0 0.12456273484801238 -0.22553290754071278
2240000000.0 0.13085589026613745 -0.2091134293333311
2260000000.0 0.22673436104119227 -0.0901585859640371
2280000000.0 0.16937060750684024 0.13417207456441568
2300000000.0 -0.17648710982986282 -0.09954804025191605
2320000000.0 0.1718308655337234 -0.07807007736260836
2340000000.0 -0.06072041209973264 -0.16371453063100488
2360000000.0 -0.14469625963932137 0.08729876205880807
2380000000.0 0.047198914328215505 0.17059111103035968
2400000000.0 -0.17669434396880407 0.06530079219534769
2420000000.0 0.07534877386322883 0.18926026497564186
2440000000.0 -0.1945288208601536 -0.12020697299837457
2460000000.0 -0.02538151117451162 -0.2534013365436825
2480000000.0 0.17811996847157072 0.22010854386658185
2500000000.0 0.29634871473194935 0.10527889209491682
2520000000.0 0.08541176282978401 0.33092809180355837
2540000000.0 0.10884881951880246 0.3583212334263671
2560000000.0 -0.38240119363272185 0.11402085761501103
2580000000.0 -0.17595112288266498 -0.37944014841629314
2600000000.0 0.4312305321826693 -0.07535616696832742
2620000000.0 -0.009478097403414182 0.45381986357403953
2640000000.0 -0.4604310662339759 -0.035610132127815636
2660000000.0 0.03103297890978213 -0.46810908302172655
2680000000.0 0.38557000234971367 -0.27225130607307596
2700000000.0 0.45635295691925587 -0.13451963286402102
2720000000.0 0.4281227263547008 -0.2156733386541523
2740000000.0 0.39047275471508813 -0.28530225706301837
2760000000.0 0.3453506740059503 -0.3470593342294339
2780000000.0 0.21201396505335654 0.44571175797790125
2800000000.0 -0.12821573026492594 0.4819025686502206
2820000000.0 -0.502026509563713 -0.028935147428664227
2840000000.0 0.3216474871836119 -0.3912568346062682
2860000000.0 -0.366277149895296 0.35288813098639404
2880000000.0 0.507578503129647 -0.04651571054999762
2900000000.0 -0.2522017038122491 -0.4382883637137186
2920000000.0 -0.4224393244760918 0.26581211689410617
2940000000.0 0.1490922755394843 0.46720926249818223
2960000000.0 0.4481324713991894 -0.16933741694080948
2980000000.0 -0.14241377831890165 -0.4419657524925688
3000000000.0 -0.3856070740294897 0.22919901112045404
3020000000.0 0.423565502509039 0.0858185763477814
3040000000.0 0.012270878262775706 -0.4185060740675441
3060000000.0 0.05486035283438534 0.4032479626021684
3080000000.0 0.08701899586354242 -0.38358216213207313
3100000000.0 -0.25522507482422163 -0.28614394369234314
3120000000.0 0.18667108982719868 0.3308823556298317
3140000000.0 -0.0251282909716531 -0.3774201040704208
3160000000.0 -0.3582011916462922 0.11946642003676256
3180000000.0 0.23678409705756448 0.2944744926329998
3200000000.0 0.3724083438927562 0.020698453122746478
3220000000.0 0.36495816956055893 -0.0487646391244258
3240000000.0 0.2910650422933242 -0.2250137344835069
3260000000.0 0.35243164970768476 -0.04302580519616315
3280000000.0 0.08132862720218635 0.32967732497059954
3300000000.0 -0.2349713094739183 0.21731656677381325
3320000000.0 -0.24041208859552898 -0.18796030861396926
3340000000.0 0.21643321714281571 0.1892443286074982
3360000000.0 -0.2655899642442109 0.0073635650710019976
3380000000.0 -0.03143891511448866 -0.24171010745362467
3400000000.0 0.05282938847241912 0.22065503827406802
3420000000.0 -0.10634869136853567 -0.18614247381586746
3440000000.0 0.1201368652220077 0.16372898375714268
3460000000.0 0.05269534471828132 0.18267471064071153
3480000000.0 0.1381513089446569 0.11998159182992182
3500000000.0 -0.12937509676072617 -0.11924926050906816
3520000000.0 0.0009112959520730653 0.1734140634268724
3540000000.0 0.1676811124821345 -0.008892325147332849
3560000000.0 0.11356993539415754 -0.13001541994380764
3580000000.0 0.09900704439663956 0.1457483567938939
3600000000.0 0.17136159973752468 0.04965026596743507
3620000000.0 -0.11286350067775731 0.14619712692941714
3640000000.0 -0.1940822543675372 0.007035030865317971
3660000000.0 0.1691784431331278 -0.1072538105523087
3680000000.0 0.004840599379338721 0.1982202952991757
3700000000.0 0.1230509730435238 -0.1531558756191497
3720000000.0 -0.10876589960415291 -0.15321537285050604
3740000000.0 0.06013968012830898 -0.17097322230915832
3760000000.0 0.01236447502105846 -0.17139187291023536
3780000000.0 -0.004464952805171986 -0.16394499776767169
3800000000.0 0.14946119364525298 -0.008437656739873758
3820000000.0 -0.035902108261432975 0.12827686437382982
3840000000.0 0.10006573652176816 -0.05341355091565078
3860000000.0 0.08210194413175508 -0.051506711337966006
3880000000.0 -0.06797554614785112 0.04388830798163287
3900000000.0 0.0637076697003689 0.0440674301306423
3920000000.0 -0.003857181856474448 0.07130053545270422
3940000000.0 0.02578826131589063 0.055447464862891926
3960000000.0 0.008950917642331515 -0.05290713115786656
3980000000.0 0.0359223309081477 0.01940219814536591
4000000000.0 0.0022143666505875653 -0.034986799575901846
