!Created with skrf (http://scikit-rf.org).
# Hz S RI R 50.0 
!freq ReS11 ImS11
400000000.0 -0.7146341283254672 0.39037295004143496
420000000.0 0.4889803444163531 -0.5805513613652208
440000000.0 0.7096503251775568 0.043766068001344735
460000000.0 -0.46379005257288547 -0.44863274430116695
480000000.0 0.5692412876591104 0.01139237285384686
500000000.0 0.5505988213198095 -0.08534549798294282
520000000.0 0.11908664642693019 0.45543606010806337
540000000.0 0.2742155898116883 -0.31695692472795817
560000000.0 -0.1075358706238216 0.3896350088927982
580000000.0 -0.35956649552373965 -0.1570034485343688
600000000.0 0.13194276854403966 -0.38283295420523056
620000000.0 -0.3847296444875071 0.1246137521618802
640000000.0 -0.16357372632879086 0.3657560455359344
660000000.0 -0.030227518543537172 0.3929268307669307
680000000.0 0.371798459566933 0.06083665709722595
700000000.0 -0.3226206205965357 0.16653349946077275
720000000.0 0.05946759947935251 0.343626837529028
740000000.0 0.32182459850607575 0.06674607362191036
760000000.0 -0.205380939075454 -0.18951089603666435
780000000.0 -0.09743536458211753 0.2774152700517774
800000000.0 0.04993936351555137 -0.24415475119248434
820000000.0 0.2373888353061814 -0.06055369327489074
840000000.0 -0.06119215191899703 0.20783900668937758
860000000.0 -0.1645240285099192 -0.1167376740683122
880000000.0 0.1943079103246063 -0.002194050054519088
900000000.0 0.06971660329040262 0.14470456926697087
920000000.0 0.12733517775394174 -0.026677499575980677
940000000.0 -0.0369107887850338 0.11250094447142689
960000000.0 -0.003356620579088265 0.06784676301451517
980000000.0 -0.05803015898035188 -0.02681134982373339
1000000000.0 0.011933531286766857 -0.052595070532720806
1020000000.0 -0.027848015010913055 0.013508454372001443
1040000000.0 0.05768116420860248 -0.015266024471758292
1060000000.0 -0.07842936165095905 0.06525343928824147
1080000000.0 0.09601850746606704 0.08634701468929701
1100000000.0 -0.1709907281527405 0.09049370109932629
1120000000.0 0.02619115273499446 -0.21755481818325195
1140000000.0 0.014309590828315144 0.24600976338505137
1160000000.0 0.25991244824845056 0.10526737502547082
1180000000.0 -0.12703799735604152 0.25396750956204533
1200000000.0 0.26941256013930814 -0.13526778726310362
1220000000.0 0.2674545620259396 0.18096117441466023
1240000000.0 0.05615545249156231 0.3409040485772822
1260000000.0 0.18198022295755925 -0.2811746668886449
1280000000.0 0.33760474623808817 0.0386331552443177
1300000000.0 0.33907885426719897 -0.07790702063395541
1320000000.0 0.16329855873498014 0.32116609864352086
1340000000.0 -0.2287709489053638 -0.2862767953898806
1360000000.0 0.08972159569222643 -0.36050819745506013
1380000000.0 -0.33382109377151686 0.1622756490195368
1400000000.0 -0.19027227262071378 0.32972989834972655
1420000000.0 0.3665909598571957 -0.07326958325431518
1440000000.0 0.11525838151938368 -0.3617503882970784
1460000000.0 -0.3692298272048368 0.058795091588412944
1480000000.0 0.13805435994235765 0.3351455797736711
1500000000.0 0.30456482381953387 0.1222280824027311
1520000000.0 0.053222408640616434 -0.30929324501469097
1540000000.0 -0.2750065473498574 0.06075326954981189
1560000000.0 -0.12243614506613319 0.22896303598927656
1580000000.0 -0.17128625656196395 -0.1400438633550773
1600000000.0 -0.028342254061671172 0.19569025444701257
1620000000.0 -0.13886298981041983 -0.08763757318612216
1640000000.0 -0.11164812796212309 -0.07995249843338817
1660000000.0 0.008312608702340756 -0.11172340079891048
1680000000.0 -0.09740602815762787 -0.012930020128284264
1700000000.0 0.06868583223410987 0.04130413467144623
1720000000.0 -0.06184030221720379 -0.031113365900974046
1740000000.0 0.0669631033796901 0.005702486120395455
1760000000.0 -0.0367852605940538 -0.0704046065747881
1780000000.0 0.1053649729846241 0.03095184950928397
1800000000.0 -0.08224410729982246 -0.11430256463144225
1820000000.0 0.06676700975697579 -0.1508406766891475
1840000000.0 0.013220346769644283 -0.20744751659502628
1860000000.0 0.013277181810849836 0.24007600383950137
1880000000.0 0.2648146761196772 -0.03511988374960253
1900000000.0 -0.286567637216121 -0.0643799596196937
1920000000.0 0.2580630855380912 0.14285598344255013
1940000000.0 0.19935390845117235 -0.24267470616921397
1960000000.0 -0.30780922136996974 0.056614989473128104
1980000000.0 0.30369479381613146 -0.11082883411248798
2000000000.0 0.180105108748104 0.2647374193573604
2020000000.0 -0.0028200971793429785 0.3149406588822893
2040000000.0 0.07496140930736053 -0.2966456830702642
2060000000.0 0.2733731188586336 -0.1588266538709372
2080000000.0 -0.290020959579176 -0.11654775264123687
2100000000.0 0.22840883726353436 0.19739228311053092
2120000000.0 0.04453523430191672 -0.29575566216151333
2140000000.0 0.0871233795133706 0.2820999281385655
2160000000.0 0.1665553144140459 -0.21709566374734743
2180000000.0 0.05782615523651547 -0.27382491764047057
2200000000.0 -0.25867119586706583 -0.0581934169718523
2220000000.0 0.10461747111647682 -0.23554823112636222
2240000000.0 0.14829368239173274 -0.19685149007554908
2260000000.0 0.23063199455588398 -0.07792354230955371
2280000000.0 0.16359351122973023 0.14149614415275125
2300000000.0 -0.18247936085344588 -0.08845008865934972
2320000000.0 0.1678318318980083 -0.08600472005029354
2340000000.0 -0.040866275675370406 -0.16993004501642145
2360000000.0 -0.15987153836212134 0.0546251873829746
2380000000.0 0.02622138851632766 0.17513129363145702
2400000000.0 -0.18131784140258306 0.05259978164128009
2420000000.0 0.07784425043028288 0.18841452848453008
2440000000.0 -0.17242193314544155 -0.14974079530209242
2460000000.0 -0.02274143060056415 -0.25369325451175323
2480000000.0 0.16632525057377032 0.2291056834094883
2500000000.0 0.3086220625355086 0.0621789176883433
2520000000.0 0.08356899351589597 0.33118890336976525
2540000000.0 0.1117594574792184 0.3574586763904874
2560000000.0 -0.378925977710739 0.12460568302674335
2580000000.0 -0.16075140708114807 -0.38578704794901714
2600000000.0 0.4265731465083632 -0.09951162217234506
2620000000.0 -0.010815649601381672 0.45335932346548174
2640000000.0 -0.45907722304836474 -0.05142492766164607
2660000000.0 0.01075469087629339 -0.4691055517312546
2680000000.0 0.41184024266575814 -0.23090487129558554
2700000000.0 0.46630758203469397 -0.09431777252246347
2720000000.0 0.4330114356902674 -0.20564553425682125
2740000000.0 0.36856891979952267 -0.31327693229607945
2760000000.0 0.3212501867495638 -0.3697472201774986
2780000000.0 0.20571656398306568 0.44882523268552504
2800000000.0 -0.13099669876600686 0.48121087299090376
2820000000.0 -0.5020157580805755 -0.030156394647720842
2840000000.0 0.3161978999717158 -0.3957360861722442
2860000000.0 -0.3606330692780755 0.3586546624471341
2880000000.0 0.5047980135574296 -0.07033128087911385
2900000000.0 -0.22931831100554723 -0.4509492202795273
2920000000.0 -0.43189304093160447 0.2504270525202985
2940000000.0 0.14559899900098888 0.4683062818096401
2960000000.0 0.4504865989279985 -0.16258280388434726
2980000000.0 -0.1258098799647086 -0.4471772895766729
3000000000.0 -0.39237057141554116 0.21897495806021824
3020000000.0 0.4251432025953498 0.08007880065346784
3040000000.0 -0.09539822872200932 -0.4072362564835548
3060000000.0 -0.007239461163759329 0.4063411699026535
3080000000.0 0.08727214691957923 -0.3831368293261563
3100000000.0 -0.27784308429069937 -0.26442386803113566
3120000000.0 0.1551702173422813 0.34672398277487193
3140000000.0 -0.009338098449448188 -0.3777817298189338
3160000000.0 -0.363674935341194 0.0999282125362923
3180000000.0 0.2458093639629843 0.28658982067380623
3200000000.0 0.3719825310275063 0.030017362395751153
3220000000.0 0.35770239522319536 -0.08529910700080875
3240000000.0 0.28661680896157316 -0.23219942047068406
3260000000.0 0.3542040016002544 -0.0358164764015945
3280000000.0 0.09949491743362349 0.32327639296861177
3300000000.0 -0.27120558431849695 0.1716454854937421
3320000000.0 -0.22943938307871167 -0.20152193151508305
3340000000.0 0.2059121939486844 0.20144159491375324
3360000000.0 -0.26556359180225125 0.0031700145073278656
3380000000.0 0.01961111557256927 -0.24328158600434438
3400000000.0 0.026167097921139585 0.22532855089480536
3420000000.0 -0.0665157935542825 -0.2041181003257355
3440000000.0 0.12086941877152053 0.1639845400770202
3460000000.0 0.04438454189633998 0.18493886987283756
3480000000.0 0.12267839083763596 0.1355108885818862
3500000000.0 -0.0987756759465673 -0.1452127811026474
3520000000.0 -0.006669307397235688 0.1730877217833565
3540000000.0 0.16621155415378377 -0.02253713719516905
3560000000.0 0.11250781553631267 -0.1300528702196512
3580000000.0 0.11033715406231767 0.13677452644427682
3600000000.0 0.16654343098071764 0.0636146503852
3620000000.0 -0.10267373745875814 0.15265651011629958
3640000000.0 -0.19405039872970858 0.009836346984734212
3660000000.0 0.15104107223768248 -0.13187531270661396
3680000000.0 0.003082482738287932 0.19827962150096093
3700000000.0 0.11710242564042374 -0.15749579453010024
3720000000.0 -0.15077400337492944 -0.11126877139962718
3740000000.0 0.08082174937103394 -0.16274881528319446
3760000000.0 0.0046337587126378515 -0.17257709231581117
3780000000.0 0.03927836868104913 -0.15860682313560215
3800000000.0 0.14889474708031053 -0.013587806114730946
3820000000.0 -0.04782482728866045 0.12439447433667786
3840000000.0 0.10624016405632639 -0.04069360529602381
3860000000.0 0.08138328745085553 -0.05179403717259695
3880000000.0 -0.0626708273271496 0.05127198515374609
3900000000.0 0.06791978620299136 0.036752566478533984
3920000000.0 -0.033244574545063195 0.0639618565058958
3940000000.0 0.043620590546716125 0.04180491336749387
3960000000.0 0.011707132151499287 -0.052783381520929096
3980000000.0 0.04092358255317564 -0.0076370948168200435
4000000000.0 0.034477288093953506 6.581298200219165e-05
