!Created with skrf (http://scikit-rf.org).
# Hz S RI R 50.0 
!freq ReS11 ImS11
400000000.0 0.6948377257676248 -0.5930418682607969
420000000.0 0.8547733616947577 -0.16768464314427173
440000000.0 0.49690553461017034 0.6642699933450235
460000000.0 -0.4423102370283594 -0.658459518266145
480000000.0 -0.060031005403409436 -0.7791385713893665
500000000.0 -0.562200453583501 0.5316695927738719
520000000.0 0.5958240252633862 0.4094262777386642
540000000.0 -0.12524297276761318 -0.6774345145285561
560000000.0 -0.5448407300650743 0.35824323111570916
580000000.0 -0.05856865081230921 0.5559299386039681
600000000.0 -0.532042833376478 0.21817024335783797
620000000.0 -0.25514235635701316 0.5049021239052509
640000000.0 -0.21833410659540645 -0.5006622747901276
660000000.0 -0.42507228381363105 -0.3004523999475499
680000000.0 -0.48744673068068656 0.027042454073725637
700000000.0 0.1917920668509906 -0.4325109652910439
720000000.0 0.07904240124311113 0.4669129474655156
740000000.0 -0.4638250860768428 -0.007201328157612536
760000000.0 -0.36720796000260664 -0.26581038876241075
780000000.0 -0.43803535011403316 0.0016035013798761882
800000000.0 -0.3861352651193072 -0.010414380736051311
820000000.0 -0.04319388730853306 0.33960338828526493
840000000.0 0.0637629404056866 -0.30418656227832297
860000000.0 0.28685710390892577 0.015228351966327259
880000000.0 -0.22630093200714047 -0.12941574570817677
900000000.0 -0.08215832993367435 -0.22580167651638577
920000000.0 0.10853417305668542 0.1910612040407352
940000000.0 0.0027363634404987017 0.19781608448967977
960000000.0 -0.10781150070069592 -0.11392553766915509
980000000.0 -0.03297819845518927 0.09920672971293365
1000000000.0 0.08043687271235765 0.0007871298318273041
1020000000.0 0.03722030057733153 -0.06734551180009107
1040000000.0 0.08959898143103254 -0.02001102402990437
1060000000.0 -0.017308300077294187 -0.13770013966688058
1080000000.0 -0.13305819966568005 0.12774739511075003
1100000000.0 -0.09788146033660378 0.20239115299771895
1120000000.0 0.059467411262550895 -0.25918390693220517
1140000000.0 -0.24563565140781835 -0.14373659157455113
1160000000.0 0.29557860179749873 0.042904357495036245
1180000000.0 0.013324074623100176 0.33195318612918434
1200000000.0 0.1432060570696694 0.3190073199143247
1220000000.0 -0.3031967483944319 0.18692073420612765
1240000000.0 -0.2614207045288048 -0.2380819986375352
1260000000.0 0.062074608437108374 -0.35217708949249077
1280000000.0 0.2982411279918034 -0.21888406091832896
1300000000.0 -0.3015597423152481 -0.2312209510578244
1320000000.0 0.3553269717347775 0.09226006190279219
1340000000.0 -0.31928560029128095 -0.20715110426378866
1360000000.0 -0.22068542393882032 -0.31604853461955823
1380000000.0 -0.0029417197717782717 0.38079288453066745
1400000000.0 0.2936007421200717 -0.25640623590983663
1420000000.0 -0.29036180485453 -0.2512222619159818
1440000000.0 -0.10861343464645491 -0.36426831286179795
1460000000.0 -0.29948238396315086 -0.22637487778011178
1480000000.0 -0.33670512428633126 -0.16332405408815617
1500000000.0 -0.35682856718638845 0.12838993377418884
1520000000.0 0.36250348893354006 -0.09713658892761007
1540000000.0 0.017461267756981504 0.3632206195126332
1560000000.0 -0.33322707349304376 0.005641465345540897
1580000000.0 -0.18924376686208982 0.22835263755988333
1600000000.0 -0.251722829459633 -0.04351807311497871
1620000000.0 -0.2124613600376731 0.04634194256701467
1640000000.0 0.17545360440300875 -0.03529716080083998
1660000000.0 -0.10995994372588071 0.10152605392280815
1680000000.0 -0.03212559395049363 0.11351151835795135
1700000000.0 -0.09640974690926345 0.013743813297477188
1720000000.0 0.0799052948225918 -0.008807127509169605
1740000000.0 -0.0133471274082792 0.06587021720280349
1760000000.0 -0.04691616035897237 0.07659036291608048
1780000000.0 -0.05858192064451356 0.08342907042165389
1800000000.0 0.11601870712271595 -0.052567696518916074
1820000000.0 0.15347747675511236 -0.020518293375858306
1840000000.0 0.14282610096628134 0.12103499978681925
1860000000.0 0.05470660885422316 -0.20541746065482558
1880000000.0 -0.1179866274835461 -0.21568880350923905
1900000000.0 -0.26159360284310074 0.052748337353738364
1920000000.0 0.258954891409807 0.13224102888883882
1940000000.0 -0.08235676438145216 -0.29179881911780164
1960000000.0 0.3106938992435934 -0.03050355928335015
1980000000.0 -0.2912898653939151 0.12499469124286655
2000000000.0 -0.14182480508091797 -0.28908883475710034
2020000000.0 0.11063455475788857 -0.30267878704933776
2040000000.0 0.2102869141925118 -0.24299742182521292
2060000000.0 0.28601661833159964 0.14836947210910673
2080000000.0 0.27055636835083813 0.17045256521332486
2100000000.0 -0.03357924950199265 -0.31282616681490993
2120000000.0 -0.11736501043009273 0.28869343286711713
2140000000.0 0.25676600111496917 -0.17420160598523865
2160000000.0 -0.30703138353029363 -0.046920205907542284
2180000000.0 0.12367723583729592 0.27904543445272156
2200000000.0 0.1806538637808343 0.2322845069552646
2220000000.0 0.0643857047632635 0.2778781352423039
2240000000.0 -0.17683280463534246 -0.21509100943422843
2260000000.0 0.1695736388011086 0.2182686633566599
2280000000.0 -0.09443139590151688 0.25732621563648045
2300000000.0 -0.2741724147192425 -0.029390074069359486
2320000000.0 -0.2656653260514035 -0.06298037419035238
2340000000.0 -0.2549495570849099 -0.051175044638117964
2360000000.0 0.2529558936926252 0.03324145228899794
2380000000.0 0.2405402539600834 0.10148892672651978
2400000000.0 -0.15800122435915348 0.21052431314184888
2420000000.0 -0.1116559917842808 0.26523710245191084
2440000000.0 0.2983800127511766 0.08175298163881968
2460000000.0 -0.25092136824136113 -0.23143148482446033
2480000000.0 -0.24675622079562126 0.2759072772310807
2500000000.0 0.10590718999610996 -0.3894535082403834
2520000000.0 -0.20006426040266007 0.3966176370374844
2540000000.0 -0.33170918632223806 -0.3479332632894189
2560000000.0 0.4557280461917289 0.2417021973944008
2580000000.0 -0.538963370370639 0.10227703805042437
2600000000.0 0.5216024489078066 -0.23916654857355726
2620000000.0 -0.4921286948522761 0.3402231006468835
2640000000.0 0.33558270686050945 -0.518770082252097
2660000000.0 0.2152172716712952 0.5985635995088427
2680000000.0 -0.6424509629668752 0.05887150969108583
2700000000.0 -0.16812756830791176 -0.6335405018982124
2720000000.0 0.2596395372281144 -0.6097901567264319
2740000000.0 0.360239241993205 -0.5620186098703488
2760000000.0 0.4449087063130471 -0.49908277196490025
2780000000.0 0.3461352751405796 0.5681563849609139
2800000000.0 0.16523129413370385 0.6369993077240996
2820000000.0 -0.2069710064423546 0.6130046655858199
2840000000.0 -0.6121922132634257 -0.15773599505060124
2860000000.0 0.540152627216285 -0.3007371837020229
2880000000.0 -0.5504322837925573 0.23747656057443842
2900000000.0 0.48860738524736247 0.3038171257053798
2920000000.0 0.3718676316869124 -0.4089865100436889
2940000000.0 -0.13307258218651413 -0.5110565557985334
2960000000.0 -0.2861727057418084 -0.4119496559067135
2980000000.0 -0.3260199020994318 -0.3479033640348357
3000000000.0 -0.36624010065505364 -0.2723822797709323
3020000000.0 -0.4270555316416926 -0.0801737170513217
3040000000.0 -0.15405206151148634 0.3917695906161031
3060000000.0 0.39184546368151607 -0.08977818896925825
3080000000.0 -0.21737369676836035 -0.32035460840086777
3100000000.0 0.0627151432188398 0.37122370760357937
3120000000.0 0.3555477596198917 -0.10495740891210317
3140000000.0 -0.2299194918196787 0.28702156574039456
3160000000.0 -0.023929891302418262 -0.36512867133598487
3180000000.0 0.2215190492624672 0.2841545722655436
3200000000.0 0.14336789929205035 -0.3255886404154859
3220000000.0 -0.2828024781072536 0.20655857413312162
3240000000.0 0.028466764047364732 0.33637206185856616
3260000000.0 0.21127330192456548 0.24579209427851703
3280000000.0 0.05993804986348586 0.3004963711305087
3300000000.0 0.08259995039272455 0.2771974175066179
3320000000.0 -0.07846526055813176 0.2541376943716365
3340000000.0 -0.10663688493873993 -0.2118011840742521
3360000000.0 -0.006553942331827082 0.21176576022610533
3380000000.0 -0.07637189553931965 -0.17608818007908777
3400000000.0 0.14081541230924804 0.10079725692913533
3420000000.0 0.10634491955301656 0.1134135753142355
3440000000.0 0.06101336597688461 0.12067676645589417
3460000000.0 -0.10955541440233192 0.029349277976969616
3480000000.0 0.06197904401570401 -0.08319388456114202
3500000000.0 -0.03914667748332164 -0.0926511051254904
3520000000.0 0.005166752874120533 0.09747012348636364
3540000000.0 -0.004528187607272865 0.09686439327861507
3560000000.0 0.03761764566636266 -0.09319815469752818
3580000000.0 -0.013904220625564165 0.1087123146361338
3600000000.0 0.06717684641149774 -0.09229993721007457
3620000000.0 0.1203837404200655 0.022873188846684715
3640000000.0 0.004530895266884231 0.13066411531154076
3660000000.0 -0.05453602396441977 0.1333962803437207
3680000000.0 -0.003477835925084465 0.14545752215027155
3700000000.0 -0.0016093080203303483 0.1349185049931213
3720000000.0 0.060721846570156966 -0.10125603624385573
3740000000.0 -0.09767713511582883 0.012150393805525612
3760000000.0 0.013373836484107266 -0.0817968788803377
3780000000.0 -0.054981501898569936 0.032754424287174455
3800000000.0 -0.019043764395566643 -0.028651612974723527
3820000000.0 0.0028085327669147126 0.0025980846792503167
3840000000.0 0.037610011043231646 -0.006719149404317254
3860000000.0 -0.06846757659133336 -0.011966639435098115
3880000000.0 0.04265585732241247 -0.08229926163071151
3900000000.0 0.08686215371873751 -0.0704854208646514
3920000000.0 -0.04602936062186551 -0.1165946304819051
3940000000.0 0.0016822951133978435 -0.13121504658538097
3960000000.0 -0.07027234620399807 -0.11249573138654355
3980000000.0 -0.08496362663171939 0.09840593343286391
4000000000.0 0.07541160286088827 0.07394457171701235
