!Created with skrf (http://scikit-rf.org).
# Hz S RI R 50.0 
!freq ReS11 ImS11
400000000.0 -0.6031071191406193 0.587235861454523
420000000.0 -0.1243120927083992 -0.7797841492065063
440000000.0 -0.5290468617935149 -0.4962392825092631
460000000.0 -0.18896813234852858 -0.606520024481293
480000000.0 0.5292370786281935 0.021417809223378534
500000000.0 0.10096069662739782 -0.41356387053133437
520000000.0 0.01109154333271161 0.4511474531932639
540000000.0 -0.4103221316079892 -0.24220943474179044
560000000.0 0.14813617410871535 -0.4280306145210095
580000000.0 0.3976945309140461 0.16232293845829396
600000000.0 -0.3730252872421389 0.0019263924305156575
620000000.0 -0.046714416515078086 -0.34559417372993934
640000000.0 0.003113538469398476 0.360381092925068
660000000.0 -0.23643542255265443 0.2715475942529707
680000000.0 -0.27014634475988614 0.22885533920771467
700000000.0 -0.35578380516327973 0.04146271517209011
720000000.0 0.31617951945486567 0.16749753267526946
740000000.0 0.0762171063338175 0.3237100456154842
760000000.0 -0.10897728357196948 0.29941332002006016
780000000.0 -0.041676639889116074 -0.2899003499629008
800000000.0 -0.16532032034241362 0.21061618159124706
820000000.0 -0.2322821834508424 0.08085009490182243
840000000.0 -0.14890628295435107 0.15489884527949896
860000000.0 0.18696673747868203 -0.04711660250242742
880000000.0 -0.17848945055049062 -0.08112473392696398
900000000.0 0.019230812044450492 0.1564568736866463
920000000.0 0.12272762657688337 0.08291912641145063
940000000.0 0.11673124253292484 -0.06551228814817087
960000000.0 0.09873495551806755 -0.007468799145870566
980000000.0 -0.061597397739116766 0.011846149927532178
1000000000.0 0.03260991960881468 -0.026694961675191857
1020000000.0 0.016968523279403108 -0.04541237285479049
1040000000.0 -0.08841033801879812 -0.006332629255097444
1060000000.0 0.11358575123882998 0.02029908004966117
1080000000.0 0.1113540502531975 0.11111399828533158
1100000000.0 0.1723936444047125 -0.06753842836032671
1120000000.0 -0.1249112842486681 -0.18041201596115936
1140000000.0 -0.25612104220114124 0.04103815068832128
1160000000.0 0.2117919259772801 -0.18709280743842488
1180000000.0 0.2096389301914941 0.22183288156598407
1200000000.0 0.04124752093500764 0.3181359816448766
1220000000.0 -0.042073854029901124 0.3294736915380758
1240000000.0 -0.32912466016910774 0.02294613446045637
1260000000.0 -0.28661684797779746 -0.17860380133330625
1280000000.0 -0.26306383387016075 -0.21734020417452057
1300000000.0 0.3516868782915254 -0.011923689380506437
1320000000.0 0.3436190092581288 -0.12023885107465365
1340000000.0 -0.03284863486056833 0.36691525727630275
1360000000.0 0.04103598483343338 -0.38264175460975175
1380000000.0 0.3410911980324533 -0.16840010134507086
1400000000.0 -0.37877681033256194 -0.031231769919131788
1420000000.0 -0.004008021672426757 0.3726830418138028
1440000000.0 0.33222316402695745 0.15541889547886034
1460000000.0 0.2817318835758965 -0.22809814253113345
1480000000.0 -0.22822504534838278 -0.2654081873884584
1500000000.0 0.042776335932810085 0.3306949794445053
1520000000.0 0.21703027704902422 -0.21722988673928845
1540000000.0 -0.2500650851397777 -0.11608942266839845
1560000000.0 0.23378499733316424 0.08285764942628825
1580000000.0 -0.20703715350247795 0.022363169617577207
1600000000.0 0.026719565538344325 0.17650938464728455
1620000000.0 0.08615075238360488 -0.13763097633978405
1640000000.0 -0.13289647724792844 -0.028430118646902865
1660000000.0 0.011660082438172506 -0.10754981394506226
1680000000.0 -0.07873568834661251 0.04531472575531287
1700000000.0 -0.04124783625576435 -0.06090556952964266
1720000000.0 -0.028499517190587565 0.04343341449877714
1740000000.0 0.04511018468417643 -0.028349249103107918
1760000000.0 -0.02048944333850208 -0.05146721632407477
1780000000.0 -0.09116811723445946 -0.02335495570083014
1800000000.0 0.05434883044826337 0.10686342883425035
1820000000.0 0.04564342775823438 0.15232233805086712
1840000000.0 -0.001020542609727439 0.19054986021361678
1860000000.0 0.1915110353921857 0.1039093290778076
1880000000.0 0.11583451987910241 0.20888879355681902
1900000000.0 0.2639356771694188 -0.018767181094666085
1920000000.0 -0.2836179884505109 -0.03726993074021355
1940000000.0 -0.013613693810235543 0.29863214193897214
1960000000.0 -0.3067199984921294 0.06684574469573466
1980000000.0 -0.1860670611154903 -0.2554602247398411
2000000000.0 0.25918268526530897 -0.1744080772197613
2020000000.0 0.30538295132357257 0.0793304749567581
2040000000.0 0.19943008876262608 0.23957032372448325
2060000000.0 -0.09663722415759908 0.2922885075756008
2080000000.0 -0.27458944551509046 -0.1446745912295089
2100000000.0 0.31229280799823134 -0.02779587982851481
2120000000.0 -0.27061474781655287 0.14708134465581374
2140000000.0 0.17619086138901696 -0.2480052836874265
2160000000.0 -0.15141357612247527 0.2585671631964507
2180000000.0 0.19592079769641532 0.21489818295275528
2200000000.0 0.2607826471233067 0.11654699879530352
2220000000.0 0.2739759260544604 0.012454317784818088
2240000000.0 0.08810920542513104 0.2537820709303807
2260000000.0 -0.13069548700397743 0.22279804988143626
2280000000.0 -0.2405461809254358 -0.048748346997253666
2300000000.0 0.22746622897916394 0.07066751848328431
2320000000.0 -0.12819983709834867 0.19046213596517178
2340000000.0 0.038166632820107745 -0.2172565022359067
2360000000.0 -0.2066950569473334 0.0790985332965059
2380000000.0 0.19052330691875205 -0.126724183721951
2400000000.0 -0.12491788501009132 0.20828243312445247
2420000000.0 -0.15512858707874394 0.219452600011232
2440000000.0 0.2971839006034485 -0.028996819433305576
2460000000.0 -0.3228787535771873 0.080203157798027
2480000000.0 0.3194391319361355 0.17589576575941654
2500000000.0 -0.3122216462493784 0.2541667992707296
2520000000.0 -0.06413632822082022 -0.4347604361237701
2540000000.0 0.47286057632287165 -0.0565948815120145
2560000000.0 -0.32137888042417423 0.3969912012945265
2580000000.0 0.015235059281107128 -0.5423151569722539
2600000000.0 0.42754038152082036 0.38044903900431387
2620000000.0 -0.575338171121086 -0.158372976583007
2640000000.0 0.5844147945867213 -0.19531906618079853
2660000000.0 -0.24944638230874586 0.5826633080190988
2680000000.0 -0.4810783102457364 -0.43201516435911985
2700000000.0 0.3712677074824523 -0.5417477496842351
2720000000.0 0.6483309669725535 -0.14878134563473594
2740000000.0 0.6689847481114315 -0.041363284246391754
2760000000.0 0.6713117790469544 0.04999651390806302
2780000000.0 -0.2447160492847322 0.6252810559218354
2800000000.0 -0.35549187608059396 0.5623140732912913
2820000000.0 -0.6245270523390531 0.19796598455422568
2840000000.0 -0.31991242301729544 -0.559569735085412
2860000000.0 0.6192137200915454 0.1286023949822899
2880000000.0 -0.6123653961011205 -0.06590503639638481
2900000000.0 0.47340683041118664 0.36926690151631647
2920000000.0 0.052938336295028365 -0.5769973693332761
2940000000.0 -0.547779716232777 -0.07628812585769312
2960000000.0 -0.35190610093435887 0.3982425145348606
2980000000.0 0.36343866350919357 0.35685309446189
3000000000.0 0.3377941841467043 -0.34618556420881275
3020000000.0 -0.35353323531136305 -0.295453656358987
3040000000.0 0.3961621972589251 0.18091507542646937
3060000000.0 -0.14519283316425668 -0.3778534082335973
3080000000.0 -0.08240788197175584 0.3713835461280399
3100000000.0 0.05506469810930768 -0.35938953130302065
3120000000.0 -0.2636867478053768 -0.22812584505349523
3140000000.0 -0.08587019465583932 0.3299992677940246
3160000000.0 -0.12704506114931688 -0.31375635341516617
3180000000.0 -0.03379116650261001 0.32739886875357765
3200000000.0 0.29140225645535267 -0.14489627483101375
3220000000.0 -0.30491959449718764 -0.07438773815554518
3240000000.0 -0.2963702168037663 0.06225169957367324
3260000000.0 -0.284964700330444 -0.005964617057953226
3280000000.0 -0.1498692420404275 -0.2257409185356299
3300000000.0 0.18969191226818943 -0.1686324056435103
3320000000.0 0.003120310191875036 0.23585809491458548
3340000000.0 -0.1476992754363993 0.1552730219793537
3360000000.0 -0.037682736178374976 -0.18293766744786444
3380000000.0 -0.15105214463331965 0.05893160807154629
3400000000.0 0.12648343045011207 0.05119905509582016
3420000000.0 0.017590221172870554 0.12248776103435029
3440000000.0 0.04375719075269699 -0.10216821616207103
3460000000.0 0.09288906706555825 -0.05013961796334771
3480000000.0 -0.047019285379829565 0.07979000348623
3500000000.0 0.08285665261991718 -0.012563045746120176
3520000000.0 0.07246172096193647 -0.008840189286111588
3540000000.0 -0.0686256855627064 0.014019200633861527
3560000000.0 -0.04455744204262758 -0.05678348048403779
3580000000.0 0.07690213255007301 -0.009717193299193782
3600000000.0 0.0003476877903174492 -0.09246885698805322
3620000000.0 0.04189277853593388 0.09439079924264811
3640000000.0 -0.10152978629947645 0.04347356979400706
3660000000.0 -0.03955997269368071 0.1064959956827911
3680000000.0 0.10692639778693246 0.03608203804979003
3700000000.0 0.026592732606582126 -0.10405714663638134
3720000000.0 0.09619408630062302 0.001126561618537412
3740000000.0 -0.0626969981254898 -0.055164755130667126
3760000000.0 -0.06321878473950023 -0.044670332147248346
3780000000.0 -0.06780136350762349 -0.015101869031453566
3800000000.0 -0.0027460563013687544 -0.04619808833491235
3820000000.0 -0.00942268314414738 -0.03937026396580832
3840000000.0 -0.01947912294704325 -0.04613624418767951
3860000000.0 0.0009969370826377112 0.07501380173215684
3880000000.0 -0.049604828209496736 -0.07806133521120673
3900000000.0 0.10520253590914713 -0.009994600624151426
3920000000.0 -0.04474557402601553 0.09631053769041319
3940000000.0 0.09213858182949251 -0.054327106731027294
3960000000.0 0.08109307021938142 -0.06603179972348856
3980000000.0 -0.08194566163426348 0.05514929824482527
4000000000.0 0.06548763614140585 0.06083597609481856
