!Created with skrf (http://scikit-rf.org).
# Hz S RI R 50.0 
!freq ReS11 ImS11
400000000.0 -0.6482375869853608 0.5398195976229515
420000000.0 -0.15988665737323496 -0.7740671086600459
440000000.0 -0.5038547377300675 -0.5196534485469801
460000000.0 -0.021794109100021365 -0.6330931976543775
480000000.0 0.5193772156202293 -0.10069085173541242
500000000.0 0.05776406223699713 -0.42215293148920624
520000000.0 0.08332392379149628 0.4422753986137838
540000000.0 -0.32566590678281065 -0.34862453162225016
560000000.0 0.23832558008254898 -0.3859361623792385
580000000.0 0.4322490505404009 -0.00796003678844202
600000000.0 -0.3698150368464714 0.02583219364881517
620000000.0 -0.02388112904333058 -0.3517643737413727
640000000.0 -0.016626173336504218 0.35716786336436906
660000000.0 -0.20825413719775804 0.2928478053957847
680000000.0 -0.17006714844970128 0.31097340826293407
700000000.0 -0.310381372877078 0.18224339235266832
720000000.0 0.2993513790857466 0.19415317866339488
740000000.0 0.15345683921827605 0.2928374228068355
760000000.0 -0.13540439720021583 0.28759331212365014
780000000.0 -0.13826572881015003 -0.25850984432707963
800000000.0 -0.20056776914914376 0.17780266508696074
820000000.0 -0.20139379144712083 0.13883089615879515
840000000.0 -0.19860546473819865 0.08294388306918168
860000000.0 0.1895530416230887 -0.013818987691762954
880000000.0 -0.19508192713739095 0.015561640029515832
900000000.0 0.09301468701308611 0.12634959020740846
920000000.0 0.03199338435908386 0.1420169285206064
940000000.0 0.10170699477635087 -0.08889683580366177
960000000.0 0.04485801264799113 0.08563957748276906
980000000.0 -0.062354376374186914 -0.014289389015483524
1000000000.0 0.021251199870227163 -0.0349673034718623
1020000000.0 0.010407538599068625 -0.04668338264089523
1040000000.0 -0.015500252069719389 0.08616286864615304
1060000000.0 0.11594678747662046 -0.019824205530098577
1080000000.0 0.14228871112607147 0.06174337431732951
1100000000.0 0.1494157558200973 -0.11157160236674182
1120000000.0 -0.08038445142144471 -0.20385867403643798
1140000000.0 -0.25647402349357007 0.03883937562077563
1160000000.0 0.14973599437907717 -0.2400276623370948
1180000000.0 0.15967918133471162 0.2600993784318925
1200000000.0 0.030282803349449106 0.3194893039697624
1220000000.0 -0.06686632055892892 0.3248936284361757
1240000000.0 -0.32685205653895677 0.04166007947969028
1260000000.0 -0.2827317336390368 -0.18341417605622704
1280000000.0 -0.2680999429461599 -0.2121653329011179
1300000000.0 0.34940578333883937 -0.04276391366664983
1320000000.0 0.3442267763712026 -0.11799844261740693
1340000000.0 0.046310402501626914 0.3652691850974788
1360000000.0 0.007323889639850614 -0.38504047157559207
1380000000.0 0.33812846393262336 -0.17503750354347633
1400000000.0 -0.3784527361271583 -0.03911991601606011
1420000000.0 0.015128041003608199 0.3719014246812769
1440000000.0 0.3169394885256458 0.18490598094924104
1460000000.0 0.2670126262612577 -0.2441862360093159
1480000000.0 -0.2194870439906133 -0.2736056250808687
1500000000.0 0.05188764170449361 0.32929674124687014
1520000000.0 0.24256696824349855 -0.19005661253314027
1540000000.0 -0.2706130969415284 -0.05329051519435455
1560000000.0 0.24433780682614503 0.04239035997225623
1580000000.0 -0.2082306966611946 -0.011328827299905815
1600000000.0 0.01710443735781663 0.17866402204059723
1620000000.0 0.004042774371952683 -0.16267753959140152
1640000000.0 -0.13455837638261012 0.0184295405120184
1660000000.0 0.01967074122423725 -0.1051189075049932
1680000000.0 -0.08042123190680933 0.04681682125558741
1700000000.0 -0.07315568801005562 -0.001990233025242615
1720000000.0 -0.02788290814391061 0.044018694603784055
1740000000.0 0.02837800749105797 -0.043743522769226904
1760000000.0 -0.0034621936237989414 -0.05600309288355354
1780000000.0 -0.09321733753293238 0.010101209022939765
1800000000.0 0.053588583871715015 0.10684015483763613
1820000000.0 -0.002445593124399915 0.1580509915931368
1840000000.0 -0.015012354013036988 0.19031356906870853
1860000000.0 0.19077268330715255 0.10530055685657244
1880000000.0 0.12119887930417331 0.2058996678355716
1900000000.0 0.2632953869483607 -0.022453458734656127
1920000000.0 -0.2737086804601852 -0.08214444417371886
1940000000.0 -0.026332936169041032 0.2986433797011547
1960000000.0 -0.30456028603119817 0.08182661183108648
1980000000.0 -0.1777533839272782 -0.2606233120428871
2000000000.0 0.25072894199975904 -0.18577969781547388
2020000000.0 0.28746393202628534 0.12957191657718517
2040000000.0 0.20287777515539968 0.23739020878106817
2060000000.0 -0.09932274709034128 0.2916865076552687
2080000000.0 -0.28570143781766844 -0.12112900275994441
2100000000.0 0.31209668993371203 -0.03265255899246593
2120000000.0 -0.25143928542761196 0.1782518882494082
2140000000.0 0.13199826482519303 -0.2740841142023965
2160000000.0 -0.14671099735439666 0.2614044962972182
2180000000.0 0.19676646060332495 0.21341980908391892
2200000000.0 0.2677468572914888 0.10229858780255242
2220000000.0 0.2745568076380709 -0.010071781788525884
2240000000.0 0.10899217865288983 0.24562410883711855
2260000000.0 -0.16183513887753273 0.20206773864771696
2280000000.0 -0.23473133162945897 -0.0750250462144525
2300000000.0 0.23769570335417617 -0.010108462246334042
2320000000.0 -0.17452915657610965 0.14833613423024122
2340000000.0 0.06995420486778046 -0.20921336570764493
2360000000.0 -0.20751921926538847 0.07774665663263762
2380000000.0 0.17991495564500143 -0.1404993266277261
2400000000.0 -0.1495874260090108 0.18998214761317347
2420000000.0 -0.1589686571552985 0.21712757564779636
2440000000.0 0.2925114305187334 -0.06378985138486831
2460000000.0 -0.31294226216531185 0.1126337484551915
2480000000.0 0.32120218305456516 0.17255204995168902
2500000000.0 -0.3385921640906216 0.2161696373681245
2520000000.0 -0.03924570452247959 -0.4384572567547419
2540000000.0 0.4543989275941057 -0.14453753706389655
2560000000.0 -0.33642650013907743 0.38433502914638024
2580000000.0 -0.025263060166962895 -0.5422577142828556
2600000000.0 0.40780598789891104 0.40187010077588325
2620000000.0 -0.5778175104001435 -0.14867900988264102
2640000000.0 0.5854564622056792 -0.19206329316754178
2660000000.0 -0.2596528184568507 0.5784513464173818
2680000000.0 -0.528312583539942 -0.3721523214282593
2700000000.0 0.30278174628922905 -0.5822793731369985
2720000000.0 0.6403107981133562 -0.17971204261799087
2740000000.0 0.6699958625486157 0.015797702619001788
2760000000.0 0.6673128722485547 0.08625949629076285
2780000000.0 -0.22816058594213112 0.6314917157917568
2800000000.0 -0.3507778947937528 0.5655165486938475
2820000000.0 -0.6177830826403441 0.2190581532374521
2840000000.0 -0.33423770027010613 -0.5511467544626424
2860000000.0 0.6193652442917642 0.1270318320744077
2880000000.0 -0.6129732394751776 -0.05930857224569042
2900000000.0 0.4708538170503803 0.3721883284036159
2920000000.0 0.055047602038353564 -0.5771295448404973
2940000000.0 -0.5494442770448571 -0.05919284200848164
2960000000.0 -0.3404442639964274 0.40770842406737146
2980000000.0 0.37741794980473437 0.34126973242924385
3000000000.0 0.3389607637347056 -0.3455022745538221
3020000000.0 -0.37218455492305136 -0.27202731128043767
3040000000.0 0.3922943067644431 0.18885481941894816
3060000000.0 -0.21601274104375573 -0.34127657444604315
3080000000.0 -0.10320745003105802 0.36539793117018593
3100000000.0 0.04949507929609228 -0.36082771180467466
3120000000.0 -0.2833452677955215 -0.2023727449396806
3140000000.0 -0.08306977533494024 0.3305438118488983
3160000000.0 -0.14108417588810954 -0.30729930838130226
3180000000.0 -0.04587174745281963 0.3260252051697955
3200000000.0 0.2843793628266592 -0.15931962561288493
3220000000.0 -0.3043995231917463 -0.07624950582641192
3240000000.0 -0.30243129259986995 0.03661672186586491
3260000000.0 -0.2848346929118826 -0.007723361672982575
3280000000.0 -0.13878656485061305 -0.23232857933046336
3300000000.0 0.19807475181388573 -0.15932124256619265
3320000000.0 -0.001921449011808267 0.23548967037381552
3340000000.0 -0.12086669912578285 0.1766481526540403
3360000000.0 -0.0451831001592622 -0.18023844134600006
3380000000.0 -0.14062234421367126 0.08139728487405042
3400000000.0 0.13568093457734745 0.007218726972911913
3420000000.0 0.03074326324783078 0.11931695521006919
3440000000.0 0.006747966032492081 -0.11038747208304316
3460000000.0 0.09055923400531878 -0.05460784251413352
3480000000.0 -0.06217320148382038 0.06940972415312117
3500000000.0 0.08353300333085026 -0.010501869015135385
3520000000.0 0.06792847580995533 -0.02670929585492392
3540000000.0 -0.059716477930711526 -0.03523923214621852
3560000000.0 -0.01846505680345394 -0.07068604890204547
3580000000.0 0.07284257937077253 -0.027633508989479062
3600000000.0 0.0009266181698279826 -0.09103195904470225
3620000000.0 -0.030868579367771244 0.09822235805281082
3640000000.0 -0.09712496601144749 0.05235330021833506
3660000000.0 -0.03539523202860851 0.10805115131115003
3680000000.0 0.10851502181625697 0.029446186933662934
3700000000.0 0.057825934721195724 -0.08957688919713863
3720000000.0 0.09311935257393388 0.021390932068524354
3740000000.0 -0.048656600664964744 -0.0693226080507885
3760000000.0 -0.06833178085237236 0.036658226570271964
3780000000.0 -0.06778846707181811 0.011041609630509997
3800000000.0 0.023857929252211838 -0.040027691417889845
3820000000.0 -0.03784446720755746 -0.016167562994785462
3840000000.0 -0.04810514216229552 -0.010507649352371307
3860000000.0 0.006625079805204789 0.07401020326608712
3880000000.0 -0.06355626337134691 -0.06722436587443475
3900000000.0 0.10147004166001636 -0.02992236597864403
3920000000.0 0.023844270405956297 0.10295429441761078
3940000000.0 0.10297159171030874 -0.024005598320245642
3960000000.0 0.09096800739117948 -0.05175053424634362
3980000000.0 -0.06876987399091082 0.072173483324514
4000000000.0 0.08521684211461848 -0.021803044383691284
