!Created with skrf (http://scikit-rf.org).
# Hz S RI R 50.0 
!freq ReS11 ImS11
400000000.0 -0.6496763329565084 0.5378887896565263
420000000.0 -0.1251052155057527 -0.7803502526511493
440000000.0 -0.5187910734892419 -0.49877952836468215
460000000.0 -0.09991960221312764 -0.6326549036881599
480000000.0 0.46556075554695586 -0.24423228697953236
500000000.0 -0.08814063456089061 -0.4175634542294224
520000000.0 0.1592147971311827 0.42351925869376444
540000000.0 -0.3749882657043422 -0.29175186291336697
560000000.0 0.3210318967360406 -0.32206067929624516
580000000.0 0.4313979277999892 -0.006433356582888987
600000000.0 -0.340905538250591 -0.14709789411974916
620000000.0 -0.06319406297489409 -0.3416241578811063
640000000.0 0.024576724062875865 0.35510481155143087
660000000.0 -0.21200988232565335 0.2864952988464021
680000000.0 -0.23372134991449534 0.27581856691846524
700000000.0 -0.26452743307656323 0.2434729600721806
720000000.0 0.3465871024078632 0.07874464303359262
740000000.0 0.06797575976075725 0.32384993560722525
760000000.0 -0.1374179395150615 0.28642008240121797
780000000.0 -0.18803167273152674 -0.22370931043325054
800000000.0 -0.22850317291989097 0.14256956318917458
820000000.0 -0.12505193129459227 0.2091964859635096
840000000.0 -0.21336580557313542 -0.015390151402615149
860000000.0 0.11503481056148054 -0.15230853010090534
880000000.0 -0.07496154822988886 -0.1778380358863546
900000000.0 0.00975139792665151 0.1593938497052931
920000000.0 0.11149654245838164 -0.09692952811280114
940000000.0 0.1111076825625513 -0.06968221240132234
960000000.0 -0.0976937909419743 0.011717983004316044
980000000.0 0.05980284798170216 0.017774624255093806
1000000000.0 -0.0449824378858986 -0.0023376203823931335
1020000000.0 0.04751241215913799 -0.01864451550422767
1040000000.0 0.013602303044998326 0.08337177325273543
1060000000.0 0.11701713220226719 0.02146381289674292
1080000000.0 0.11070402840666467 0.10595367223962306
1100000000.0 0.17400385173430372 0.06927081568743164
1120000000.0 -0.21071077780913652 -0.06500655877411377
1140000000.0 -0.2586672083494127 -0.012571906909875336
1160000000.0 0.1286652170838619 -0.25153171099132904
1180000000.0 0.13727724033780678 0.2726805697837169
1200000000.0 -0.011608687171969797 0.32295429642684015
1220000000.0 -0.06191090176706841 0.32383243863927724
1240000000.0 -0.3312736341181576 0.00028224388440902675
1260000000.0 -0.3368098283583608 -0.016481681499675997
1280000000.0 -0.15708239506296034 -0.30064280639515334
1300000000.0 0.3523531319039628 0.047539031288472505
1320000000.0 0.3113076518210668 -0.18888028840385607
1340000000.0 0.04294760321525916 0.3670230298919213
1360000000.0 -0.09857262574559915 -0.3692373095666872
1380000000.0 0.3805202043006177 0.03387192585268924
1400000000.0 -0.38216469174375095 -0.0005225650529761157
1420000000.0 -0.02264406878612514 0.3726622713056639
1440000000.0 0.3486777102322995 0.11325266568153045
1460000000.0 0.3243725496076763 -0.15470330764019735
1480000000.0 -0.13033766482478465 -0.32691282264801663
1500000000.0 0.13789501260143608 0.30257059419818605
1520000000.0 0.2525007366106148 -0.1746147369862513
1540000000.0 -0.27165480889664806 -0.04300657072499672
1560000000.0 0.20936835080144958 0.13117939439051307
1580000000.0 -0.19966804649410796 0.06825918955835704
1600000000.0 0.02785715519237422 0.17569770625281994
1620000000.0 0.010585706546194553 -0.1630022685823918
1640000000.0 -0.1343338725954446 0.012475827418424927
1660000000.0 0.1092594667379596 -0.01108798296017739
1680000000.0 -0.07878119332841807 0.05085211886681366
1700000000.0 -0.0720047541017712 -0.004000636540443705
1720000000.0 0.02006307599665104 0.05013909379779223
1740000000.0 -0.013531647866719003 0.05091657421739727
1760000000.0 -0.05197155025326962 -0.022531008334953584
1780000000.0 -0.05393563014330839 -0.07630763926524908
1800000000.0 0.05492752411085809 0.1076569782820546
1820000000.0 -0.007851362945266104 0.1576380459082827
1840000000.0 -0.10673736372598869 0.16010186345972216
1860000000.0 0.18883030419523156 0.10675172201969296
1880000000.0 0.10762452040613465 0.21391901931189675
1900000000.0 0.2577577505289318 -0.04541997611556741
1920000000.0 -0.24696617260577006 -0.14194612488487188
1940000000.0 0.018539307067906175 0.2987183942558222
1960000000.0 -0.28087811614932434 0.14025495179983752
1980000000.0 -0.180536356204411 -0.2577833981760411
2000000000.0 0.2469187414171073 -0.19118110509719513
2020000000.0 0.2592186683410119 0.18140037292685324
2040000000.0 0.28162975717049366 0.13852769827737418
2060000000.0 -0.07635359447769065 0.2987357849455488
2080000000.0 -0.24964574513330462 -0.18621246247946388
2100000000.0 0.2931862210854273 0.11286263279055517
2120000000.0 -0.29786912572097 0.08749986928419289
2140000000.0 0.14899048009725496 -0.2646496310014662
2160000000.0 -0.2091336633439542 0.2124835447267532
2180000000.0 0.14045532885737216 0.2530920641966998
2200000000.0 0.24165676939540165 0.15315789939147495
2220000000.0 0.2654718509801349 -0.07024079678666181
2240000000.0 0.13435006616595085 0.23206713764891623
2260000000.0 -0.1695176926061307 0.1941433351966234
2280000000.0 -0.23886345917793267 -0.060075317858978614
2300000000.0 0.23507447483952765 -0.04075832746979814
2320000000.0 -0.10220171202689006 0.20528582644141982
2340000000.0 0.03595908981376264 -0.21653118749443648
2360000000.0 -0.21914426370372908 -0.038370476175391535
2380000000.0 0.15696912638920849 -0.16819532968326567
2400000000.0 -0.053021099128635604 0.23625437126964002
2420000000.0 -0.16074359770384286 0.21396241815971634
2440000000.0 0.2864772946307717 0.08839575587542656
2460000000.0 -0.33440485955211263 0.0016371345331507667
2480000000.0 0.3572511767988332 0.07885094016264022
2500000000.0 -0.3536745609551221 0.18612407546219648
2520000000.0 0.06976934495569169 -0.4345298984566525
2540000000.0 0.4742297432972875 -0.05331213551504655
2560000000.0 -0.274056029602703 0.43085962991159
2580000000.0 -0.00928130639359252 -0.5408235077900088
2600000000.0 0.3742558023036514 0.4334397600923139
2620000000.0 -0.5867711132640817 -0.11182183112219324
2640000000.0 0.56559547576014 -0.2455805631802446
2660000000.0 -0.21014212753216294 0.5980698840003674
2680000000.0 -0.5248563565871394 -0.3771142402534313
2700000000.0 0.31711932294496264 -0.5756890761909846
2720000000.0 0.6370007332650388 -0.19399606723278479
2740000000.0 0.6650346412068713 -0.09140797081193848
2760000000.0 0.6551350142979875 0.15676999656282042
2780000000.0 -0.2435105207553357 0.6257913034188339
2800000000.0 -0.38247472919716446 0.5441252130293331
2820000000.0 -0.6282837850046832 0.1870548499620334
2840000000.0 -0.3328828429244379 -0.5515962107003834
2860000000.0 0.6162805563937019 0.13989470897615952
2880000000.0 -0.6159344025821428 -0.007477176555487185
2900000000.0 0.4903140459975362 0.34535520275686105
2920000000.0 0.025199049528375865 -0.5784215886944053
2940000000.0 -0.5454622876830484 -0.09381344660933082
2960000000.0 -0.3003474113421268 0.4391577114728435
2980000000.0 0.3715207016747122 0.3486764430221075
3000000000.0 0.3191203022046027 -0.36452969558191395
3020000000.0 -0.3959908259803166 -0.23751837181718566
3040000000.0 0.3965560743783802 0.1822704133595277
3060000000.0 -0.18987960851232633 -0.3580799864241801
3080000000.0 -0.17843765132068842 0.33481475422987295
3100000000.0 0.07770817324252723 -0.3545772841661884
3120000000.0 -0.17688517666940162 -0.2989206814709389
3140000000.0 -0.08160942051926182 0.3306593095952856
3160000000.0 -0.13027204210189353 -0.311098502661239
3180000000.0 0.01384593881744225 0.32786778433479014
3200000000.0 0.2977529892660568 -0.12979695368289418
3220000000.0 -0.2972259395501228 -0.10025678761046156
3240000000.0 -0.2936571763357223 0.07951722568952471
3260000000.0 -0.2801177577815064 0.05368852606614624
3280000000.0 -0.1912348651024569 -0.1907034470250565
3300000000.0 0.22453945427338834 -0.12088803531961473
3320000000.0 0.009406662462393807 0.23637435806775117
3340000000.0 -0.1099808960411649 0.186081927982037
3360000000.0 -0.050335920164835075 -0.18014847388260735
3380000000.0 -0.16042564134179416 -0.023373382938543488
3400000000.0 0.11172176525391007 0.0818231436571296
3420000000.0 0.019566970037826637 0.12233623175962974
3440000000.0 0.03617527266587278 -0.10588594235863923
3460000000.0 0.10491549094046203 -0.013771534558008862
3480000000.0 -0.08865292281691269 -0.027392714965709646
3500000000.0 0.08077329998787128 0.021912157286284425
3520000000.0 0.055874337971132434 0.044030965665532155
3540000000.0 -0.041375447955268575 0.05559443353133278
3560000000.0 -0.06586775017648142 -0.023718438559821683
3580000000.0 0.0009971725057688853 -0.07734070546982878
3600000000.0 -0.08559503615424476 -0.03021821367192429
3620000000.0 0.08764219422542961 0.0577373965989572
3640000000.0 0.029341918182656045 0.10718269897165325
3660000000.0 -0.0764065413577772 0.08481305198207217
3680000000.0 0.11338481696861832 -0.022054860939617227
3700000000.0 0.04371573938443916 -0.0986139464524081
3720000000.0 0.08448118055402316 0.05261729317176779
3740000000.0 0.0430428206912868 -0.07346135598059304
3760000000.0 -0.023154479823678385 -0.07747107910992725
3780000000.0 -0.008125354843352712 -0.0700920807411614
3800000000.0 0.04334017234259893 -0.020309619959170563
3820000000.0 -0.014372467161342588 -0.039184817798739
3840000000.0 -0.021078792698552718 0.04931740515452091
3860000000.0 -0.021444832410480667 0.07239044572919523
3880000000.0 -0.029364976532832862 -0.08995744360681186
3900000000.0 0.095087323133619 0.05193005326307715
3920000000.0 -0.08209753074237147 0.07010903906001514
3940000000.0 0.04082357582658773 0.09910342802665277
3960000000.0 -0.004193146485106584 0.10428960095464092
3980000000.0 -0.027015418295566043 -0.0936401149763609
4000000000.0 -0.05410151989942841 -0.06920338227593645
