!Created with skrf (http://scikit-rf.org).
# Hz S RI R 50.0 
!freq ReS11 ImS11
400000000.0 -0.5979170297469057 0.5957456539999042
420000000.0 -0.22747327963760405 -0.7557196748332231
440000000.0 -0.39016046941472515 -0.6100380335327927
460000000.0 -0.07909063683385201 -0.6317444038012879
480000000.0 0.5214628028766293 -0.08320870657316977
500000000.0 0.09341744591792402 -0.41142858212655375
520000000.0 0.2527292517429512 0.3738495970378804
540000000.0 -0.4209339990003484 -0.22226862250480492
560000000.0 0.031744129783149985 -0.45516050422992194
580000000.0 0.4193633421850869 0.10443419180556462
600000000.0 -0.3702106770715958 0.010396633918119496
620000000.0 -0.0744652353080129 -0.33937674510068644
640000000.0 0.03710522413198317 0.3562698865296107
660000000.0 -0.13441364795231492 0.3309041839403746
680000000.0 -0.17122563295723095 0.3113883712102185
700000000.0 -0.24156995222718902 0.2648293438187297
720000000.0 0.2994666825798295 0.19656878786495663
740000000.0 0.09105307134555878 0.3194613173308793
760000000.0 -0.1897797751843922 0.2562846221983284
780000000.0 -0.027937848431669056 -0.28988948761574346
800000000.0 -0.2191779619535821 0.15584460457435662
820000000.0 -0.10601481730265216 0.21869817962773191
840000000.0 -0.20598696494084842 0.06846598485561402
860000000.0 0.18519935915109947 -0.04877672836527201
880000000.0 -0.19468898548553923 0.022617676183944658
900000000.0 0.05253544430065939 0.14892956464800097
920000000.0 0.046224109050450116 0.13881784977410885
940000000.0 0.08714210155541927 -0.10235382621277644
960000000.0 -0.0015517366866019712 0.0953463785373483
980000000.0 -0.06329454407471154 -0.01075937902991678
1000000000.0 -0.04015194928248497 0.008473434461520612
1020000000.0 0.02617838185988949 -0.04121820514386934
1040000000.0 -0.051363207772902424 0.07426385111822605
1060000000.0 0.1145506395440221 -0.006691666278918645
1080000000.0 0.0941902512462251 0.12452133366947919
1100000000.0 0.1765391480941383 -0.057179933313236404
1120000000.0 -0.1415368063644406 -0.1678746648384437
1140000000.0 -0.2572035660954299 0.030629512319036472
1160000000.0 0.23457247204608506 -0.15698386224761826
1180000000.0 0.20154725423368092 0.23136677491179766
1200000000.0 0.03644684144240862 0.3186027250037382
1220000000.0 -0.06168330743652371 0.3256672905175866
1240000000.0 -0.32187483027010344 0.06615333738692339
1260000000.0 -0.28230792908984453 -0.18584603411380743
1280000000.0 -0.26468262899289535 -0.21536715197428657
1300000000.0 0.3501365298108206 -0.03210137681518964
1320000000.0 0.3215037198254117 -0.1702424152300635
1340000000.0 0.017148884710259053 0.3680716450867692
1360000000.0 -0.02567343805844049 -0.3843809920934606
1380000000.0 0.34187412301991815 -0.16827067116182506
1400000000.0 -0.36638881796184647 -0.10200430583557814
1420000000.0 -0.02688694404914685 0.3718548283942432
1440000000.0 0.3465205768498755 0.1214215059698835
1460000000.0 0.29001615175860407 -0.21756492769484792
1480000000.0 -0.2479866221582066 -0.24579430645689151
1500000000.0 0.01212188308843794 0.33409053664692967
1520000000.0 0.19345294891278692 -0.23853496188404807
1540000000.0 -0.25844949681062 -0.09468964315866071
1560000000.0 0.2312806522374972 0.09087504141987732
1580000000.0 -0.20876178746074733 0.007165726575197284
1600000000.0 0.040896221542152174 0.17414221255857448
1620000000.0 0.05982079551495239 -0.151669456076711
1640000000.0 -0.1350781894195379 0.020200687255260048
1660000000.0 0.005267529301319736 -0.10774932747568927
1680000000.0 -0.09233228246356302 -0.009821328149051435
1700000000.0 -0.060482503788584954 -0.04156537983019162
1720000000.0 0.0296925463340299 0.04216586073738196
1740000000.0 0.05219981301336408 -0.005307711396830395
1760000000.0 -0.01994518412519896 -0.05249530303745062
1780000000.0 -0.09320704488746179 -0.0030226761532802984
1800000000.0 0.059944497946824354 0.10358078193228887
1820000000.0 -0.03384906435781123 0.15489657789687886
1840000000.0 -0.02880750788740401 0.18874460240289506
1860000000.0 0.1862340282734981 0.1126543850961966
1880000000.0 0.08464275348131832 0.22316372503194704
1900000000.0 0.2636909016604782 0.015381225423742735
1920000000.0 -0.2729042439761894 -0.08665542822767723
1940000000.0 0.0164768416629957 0.29898568819353355
1960000000.0 -0.30363207321538005 0.08171001822870706
1980000000.0 -0.19001487014993168 -0.2515243087635454
2000000000.0 0.23079802567802862 -0.21090554538675488
2020000000.0 0.3069011855207434 0.07374069773044067
2040000000.0 0.16319669181170576 0.26642795978077477
2060000000.0 -0.091774387354567 0.29395111210469244
2080000000.0 -0.2990347349208021 -0.08649941109729599
2100000000.0 0.31316165350194725 -0.014010247161547175
2120000000.0 -0.2698155872701636 0.14965546232623855
2140000000.0 0.14721307547777043 -0.26619239069727135
2160000000.0 -0.17012973860496225 0.24704904307406805
2180000000.0 0.1682410745511348 0.2366906558808643
2200000000.0 0.2623226398699825 0.11352854389942175
2220000000.0 0.27297441238785186 -0.02626288226508474
2240000000.0 0.0286559061939301 0.26708032242106416
2260000000.0 -0.11429565675635182 0.23197963293261348
2280000000.0 -0.243294966182387 -0.03313641663096751
2300000000.0 0.23051915932939074 0.05847522656352569
2320000000.0 -0.11570864081624806 0.1988981636748597
2340000000.0 0.0780757415569995 -0.20612389351679006
2360000000.0 -0.1994644029433068 0.0966539402712428
2380000000.0 0.1876136305065553 -0.12954595353811071
2400000000.0 -0.1084600924453017 0.21785278394818472
2420000000.0 -0.17137464537025104 0.20691724076991835
2440000000.0 0.2986439387468003 0.013694225970246464
2460000000.0 -0.32396393038894483 0.07524257224160935
2480000000.0 0.3173020685681928 0.18073765170818926
2500000000.0 -0.29496928666565586 0.2734291638195752
2520000000.0 -0.05089916444247369 -0.4368337621842351
2540000000.0 0.4689676109267043 -0.08493212384718699
2560000000.0 -0.31673323043052193 0.40062684572943974
2580000000.0 0.027008148049986056 -0.5418328772726962
2600000000.0 0.39098009775136744 0.4181150525409918
2620000000.0 -0.5812515060108391 -0.1348983900073296
2640000000.0 0.5828633782495598 -0.20030741142771827
2660000000.0 -0.2512655149724522 0.5821937870020529
2680000000.0 -0.5180323685028742 -0.38660089091658134
2700000000.0 0.38519714579013553 -0.5324260357945618
2720000000.0 0.6628497982746964 -0.0523855002664828
2740000000.0 0.6687753813896606 -0.04710772722292614
2760000000.0 0.6673085167291481 0.09042758399055795
2780000000.0 -0.2140519858824482 0.6362558933585951
2800000000.0 -0.355921682760724 0.5619315280141951
2820000000.0 -0.621366975051476 0.20727168173062235
2840000000.0 -0.31184240596063817 -0.5640251804167078
2860000000.0 0.6226955653588174 0.10902537888961676
2880000000.0 -0.6144871000490274 -0.04375271956473627
2900000000.0 0.4754153502851299 0.36709813409225883
2920000000.0 0.029990120079813838 -0.5787824673613732
2940000000.0 -0.5472711844545717 -0.08024622805353811
2960000000.0 -0.3674937636030264 0.38410315647815113
2980000000.0 0.36259850680381334 0.3576350986529171
3000000000.0 0.33696591771312456 -0.3466456192353229
3020000000.0 -0.36672176225822933 -0.27874711932109175
3040000000.0 0.38862146095662703 0.1959289281217296
3060000000.0 -0.205754404756696 -0.34885761155281675
3080000000.0 -0.0799145947789332 0.3717969912160868
3100000000.0 0.15486732854551075 -0.3290802331854505
3120000000.0 -0.24691118381926283 -0.24536889946662713
3140000000.0 -0.05704165242548755 0.3369890618846958
3160000000.0 -0.17381066707546275 -0.289777250214425
3180000000.0 -0.03670738022448067 0.3271125345052606
3200000000.0 0.2990199271732055 -0.1285766507808754
3220000000.0 -0.30239436488436255 -0.08789651532674095
3240000000.0 -0.296303740671883 0.06719868914976439
3260000000.0 -0.28384290709330484 0.020422863063284714
3280000000.0 -0.12815979240353995 -0.2396947491622194
3300000000.0 0.18415996411694352 -0.17507567681127456
3320000000.0 0.02335447503650737 0.23411642957456172
3340000000.0 -0.14386091433375112 0.15941609335480791
3360000000.0 0.011845784016188791 -0.18687060328551172
3380000000.0 -0.13280482954088155 0.09240833940436782
3400000000.0 0.12168283382061888 0.06120404701872463
3420000000.0 -0.0070426111455675925 0.12391453274681535
3440000000.0 -0.036343916212486525 -0.10558107720848789
3460000000.0 0.10264762995476297 -0.022259152960934933
3480000000.0 -0.08276645672837481 0.04125678631557713
3500000000.0 0.08094131228176916 0.021174227683918957
3520000000.0 0.05858437596560558 -0.04316556731388147
3540000000.0 -0.06783411961412877 0.013313113104558405
3560000000.0 -0.01262360609466907 -0.07087612303726372
3580000000.0 0.07502425225690687 -0.019487019351393416
3600000000.0 0.00029386630900007753 -0.09140334024193483
3620000000.0 0.05544480780664872 0.0881129752335115
3640000000.0 -0.10361157870687114 0.03817141242714697
3660000000.0 -0.0008224022046019966 0.11416554162856922
3680000000.0 0.10184360969072041 0.049361871230831585
3700000000.0 0.018719500736440273 -0.10576002237266312
3720000000.0 0.08771747299078225 0.04074225247839106
3740000000.0 -0.04896678257771688 -0.0682798366646237
3760000000.0 -0.0740186079221481 -0.024576111290429505
3780000000.0 -0.06385780929766582 -0.027203686275533663
3800000000.0 0.007810428616270622 -0.04646659180848312
3820000000.0 -0.025724952493073973 -0.03157550442526272
3840000000.0 -0.029015684531679332 -0.041463815156839626
3860000000.0 -0.0052125590573318704 0.07456783216015124
3880000000.0 -0.0020084378613266607 -0.09233585280361234
3900000000.0 0.10608339334817887 -0.001055405676018337
3920000000.0 -0.04426412677758788 0.09615048900430283
3940000000.0 0.10170251627403273 0.029443143953073785
3960000000.0 0.10052660670372904 -0.028805620110579768
3980000000.0 -0.09109787313416566 0.03780622067620977
4000000000.0 0.05886984915653082 0.06468136578481096
