!Created with skrf (http://scikit-rf.org).
# Hz S RI R 50.0 
!freq ReS11 ImS11
400000000.0 -0.024613587071908496 -0.6805166603789341
420000000.0 0.007890936311779364 -0.415758262333585
440000000.0 0.03331421721512899 0.11557146436981351
460000000.0 -0.0784616980134846 0.09701253691553342
480000000.0 0.05632040815882515 0.26669698722121987
500000000.0 0.3359792343685226 -0.19406400199428192
520000000.0 -0.10091587436330764 0.38885848449978244
540000000.0 0.48100485405331694 -0.012902819760738914
560000000.0 0.49315651320015363 0.1179147612720828
580000000.0 -0.3024421277175469 0.39379913851197473
600000000.0 -0.057613554231890074 -0.48481905772811895
620000000.0 0.3637678880490674 0.31417230769334326
640000000.0 0.2092450665475134 0.4209575878869221
660000000.0 0.2645517980031014 0.2767971955722
680000000.0 -0.03753888507964611 0.2608605017489839
700000000.0 0.2371574777714796 -0.16600929844581475
720000000.0 -0.24431487634960847 -0.11671492361955602
740000000.0 0.25626032084402206 -0.0687878357227687
760000000.0 0.18628261799990495 0.09617583052217789
780000000.0 -0.13972393718568107 0.010319782157803175
800000000.0 0.07116329069374205 0.05316336704476943
820000000.0 -0.11907828813382043 -0.05640881496367214
840000000.0 0.1736860137741643 -0.08151944281869651
860000000.0 0.02562279549876193 0.23321218202571126
880000000.0 -0.012406681202690572 -0.26440578688552246
900000000.0 0.2211722108479667 -0.17198776116442835
920000000.0 -0.2926162636238401 0.08388049751742734
940000000.0 -0.25099461321369787 -0.14628322580357508
960000000.0 -0.08188663942260362 0.27008034641371914
980000000.0 0.23031280323305744 0.11298313766383515
1000000000.0 0.16394098782010136 0.17926662463901394
1020000000.0 -0.07658226748899313 -0.20996916256128165
1040000000.0 0.21506355269708932 0.0020184418950542284
1060000000.0 0.20479121246116794 0.07576239483247235
1080000000.0 -0.007341077758007634 0.23557015592585626
1100000000.0 -0.0677015616842593 -0.22155116000482727
1120000000.0 -0.16469807527288371 -0.17522106027470008
1140000000.0 0.14534434523038597 -0.2061582297333899
1160000000.0 0.06696709382438362 -0.22930602872910932
1180000000.0 0.11056289338868748 0.19301230511877804
1200000000.0 0.14193009425998843 -0.1578379391951191
1220000000.0 -0.09114013485354436 0.15117334424487716
1240000000.0 -0.12575357218967725 -0.0914767932194817
1260000000.0 0.04597997933672264 0.12383368126268304
1280000000.0 0.10608572928844757 0.04248757758920498
1300000000.0 0.08775711261406766 -0.08638108457838882
1320000000.0 -0.13082303176876567 -0.021610243327003058
1340000000.0 0.13613473750430352 -0.05870783399453198
1360000000.0 -0.14267744225064996 0.06517713566903467
1380000000.0 0.047896538057130796 0.17133120006852995
1400000000.0 -0.05676159779027196 -0.18259012130761557
1420000000.0 0.17785755160676714 -0.10108079230548275
1440000000.0 0.1932426911588929 -0.07843614763913843
1460000000.0 -0.13118655070079824 0.16155004850434423
1480000000.0 -0.10036138021630908 -0.18072688677650828
1500000000.0 0.20655342780433972 0.009906311343190864
1520000000.0 -0.12572436702762407 0.16344293186940162
1540000000.0 0.20036221596400564 0.020581233983016246
1560000000.0 0.1838739821643855 0.04237037925783049
1580000000.0 0.138091649772985 0.10093344356776926
1600000000.0 0.051234353819670904 -0.15003903473893535
1620000000.0 -0.004102545460291442 -0.13924655615432452
1640000000.0 0.08621570434650677 -0.08829037153466711
1660000000.0 0.089426566338587 0.07897071851685619
1680000000.0 -0.11111903567387454 -0.07366505072135386
1700000000.0 -0.13866641713748806 0.06929659797884939
1720000000.0 0.15300241933095993 -0.0884886273330722
1740000000.0 0.11763014458084461 0.1573715429194652
1760000000.0 -0.13241580124725552 0.17750675743554833
1780000000.0 0.13161319383164954 0.20292574092719334
1800000000.0 0.1369498996228715 0.21178628903753638
1820000000.0 -0.25125173335802076 0.08158249255209155
1840000000.0 0.09073220564811384 -0.25821924781866173
1860000000.0 0.15192966260750226 0.24314787996072526
1880000000.0 0.02324372156482519 0.2884204450600962
1900000000.0 -0.24285805882055161 0.15601582742170106
1920000000.0 -0.18088191089116298 -0.21926355425513533
1940000000.0 0.2447832200105806 -0.1380051849172781
1960000000.0 0.25467899385619813 -0.11208389504195035
1980000000.0 -0.21030197898579017 -0.17359096589337208
2000000000.0 -0.09326944688417144 0.24147041636681932
2020000000.0 0.2101143069992793 0.11326002291395065
2040000000.0 0.21906091991285084 -0.03672357077653662
2060000000.0 -0.0483606449283568 -0.20225395446495328
2080000000.0 0.01029505043668099 -0.19287617230354198
2100000000.0 0.146580826240531 -0.10827704108443947
2120000000.0 -0.15767090496871256 0.06625020579467851
2140000000.0 0.15809602882440668 0.04940918343514893
2160000000.0 -0.12417320994317098 -0.10496832621814102
2180000000.0 0.08394746722906964 0.13598898606208534
2200000000.0 0.13949692556764942 -0.07856945020184153
2220000000.0 -0.13184301434173948 -0.09312210693333697
2240000000.0 -0.14457630065522947 0.07526843466471211
2260000000.0 -0.08223450826604801 0.14621828466772868
2280000000.0 0.14769487270328258 -0.08223941993777042
2300000000.0 0.025790844440665203 -0.1650555909803579
2320000000.0 -0.15486809943898655 -0.07189127219570034
2340000000.0 0.11775933846634187 0.12524622929800908
2360000000.0 -0.040105173670098894 -0.16597268001007845
2380000000.0 0.09141990008323612 0.14505580779601795
2400000000.0 0.16011385530213088 0.054656316488376586
2420000000.0 0.1462298402538371 0.059360050932453716
2440000000.0 0.12021111312961652 0.08966862881019248
2460000000.0 -0.07984028089802342 -0.12299767079262963
2480000000.0 0.13756499528228822 -0.028697940272283475
2500000000.0 0.06866186927943196 -0.11780696471185194
2520000000.0 -0.11677227212133302 -0.06593272921404975
2540000000.0 0.12470128554421706 0.036340979593591415
2560000000.0 -0.07379707401915163 -0.10718268899394988
2580000000.0 -0.1274438805669409 0.010857682587499674
2600000000.0 -0.013447747903234159 -0.1257814852931297
2620000000.0 0.12818027087438905 -0.010349826563540374
2640000000.0 -0.04852320031305798 0.11718452611950678
2660000000.0 -0.1184215494013746 -0.025336792466174353
2680000000.0 0.09160091039455928 -0.06294070201966948
2700000000.0 0.09906137140911025 -0.0073316920844137025
2720000000.0 -0.03145939848642303 0.08043406600261832
2740000000.0 -0.05413500575851969 0.05778705759213642
2760000000.0 0.01337409905583012 -0.07535095264361055
2780000000.0 0.004669113349121331 0.07786679442473099
2800000000.0 -0.08042889239874225 -0.02224327715140599
2820000000.0 0.02311194688036112 -0.0889489545254279
2840000000.0 0.06411027975804962 0.0823641388471737
2860000000.0 0.1085628238245595 -0.04706844427354595
2880000000.0 0.11933083148698238 -0.059487152958445866
2900000000.0 0.03376881491156566 0.14256520573555612
2920000000.0 -0.11443163115620152 -0.10792092229233378
2940000000.0 -0.024174886940651202 0.1637195350791789
2960000000.0 0.14670910466103815 -0.09879171338051519
2980000000.0 -0.1782907509970704 0.052440032841399566
3000000000.0 0.18111857560095468 -0.06348987257555495
3020000000.0 -0.18964696352753693 0.048738002801522906
3040000000.0 0.11697338270938569 -0.16075543134781045
3060000000.0 0.14490411701660796 0.1385757575222549
3080000000.0 -0.00868967250884206 0.2019725312323816
3100000000.0 -0.1317157140764988 0.15133397156602063
3120000000.0 0.1439179053605961 0.14258867231361672
3140000000.0 0.14663798325200417 -0.13940121119506718
3160000000.0 -0.20390791400776007 -0.016825432044759628
3180000000.0 0.1635210602044998 0.12737846764774158
3200000000.0 0.1940500112061103 0.08483114242828166
3220000000.0 0.06038421500182126 -0.2071191053234166
3240000000.0 0.014871734835635097 -0.21970660561239322
3260000000.0 0.15368520146316786 -0.16700880251916198
3280000000.0 0.23159430074837384 0.03822047748031297
3300000000.0 -0.022987935637146 0.24018741620235698
3320000000.0 -0.0979216143030137 -0.22555095824837423
3340000000.0 0.023613759253708257 0.24943428392396855
3360000000.0 0.04348162368992584 -0.25051039558883137
3380000000.0 -0.2540041180258817 0.04308305844746832
3400000000.0 0.21126040657013198 0.15360784084385545
3420000000.0 -0.10384475599013611 -0.24066818784552146
3440000000.0 -0.008778910044995272 0.26076605461537355
3460000000.0 0.24197358327450746 -0.08860250075174236
3480000000.0 -0.23633155971467817 -0.09753147056207939
3500000000.0 0.24824657446792028 0.0438239226288046
3520000000.0 -0.22568142384337395 0.09988519747850241
3540000000.0 0.03565012542973502 -0.23795142976001954
3560000000.0 0.23199141191545608 0.022296451747478303
3580000000.0 0.09584693565459221 0.20341696483782745
3600000000.0 -0.02835541911632465 0.2171161910635341
3620000000.0 -0.20860670909091142 -0.060294557599802005
3640000000.0 -0.1550786496846118 0.15199315074708913
3660000000.0 0.147571276672266 0.16585776450283932
3680000000.0 0.046252865207886094 -0.22174027838462476
3700000000.0 -0.17717751731200945 -0.15068618488164848
3720000000.0 -0.07409623043650969 -0.2306178217849894
3740000000.0 0.1863064450414261 -0.17523372662198008
3760000000.0 0.2672072045618606 -0.0332454919143111
3780000000.0 0.04226161008615718 0.2787966564497748
3800000000.0 -0.14317130764170755 -0.25302594007851603
3820000000.0 0.015381446999568928 0.2986212594533017
3840000000.0 0.24282913310244425 -0.18645720613135489
3860000000.0 -0.30792071504717333 -0.026109844827081567
3880000000.0 0.18748678406116473 0.24393466232392264
3900000000.0 0.05378160118910909 -0.2989862756599592
3920000000.0 -0.27260071452846224 0.10363549434783743
3940000000.0 0.2745605870347987 0.003036476946131683
3960000000.0 -0.24732924487766975 0.048732514136605856
3980000000.0 0.038547686888140316 -0.22240515456198648
4000000000.0 0.15969012778461883 -0.113710778083071
