!Created with skrf (http://scikit-rf.org).
# Hz S RI R 50.0 
!freq ReS11 ImS11
400000000.0 -0.14118578828784106 0.8421481585220044
420000000.0 -0.5430647005967522 -0.609018004047063
440000000.0 -0.6269247544317558 0.29168988497802795
460000000.0 0.082048176444328 0.5388565190785368
480000000.0 0.039385054637625275 0.4359540692837587
500000000.0 0.06176974545313765 -0.28768440904735265
520000000.0 -0.11112532149500826 -0.25140001159039743
540000000.0 0.10329818058405144 -0.36287116943740527
560000000.0 0.4437535314834589 -0.07033697765880889
580000000.0 0.29288592753943576 0.3791279953231702
600000000.0 -0.4779012483133102 0.25991132227411134
620000000.0 0.5383453607797878 -0.14553250600832704
640000000.0 0.2491250791676398 -0.4925657850316537
660000000.0 -0.5508819577301151 -0.04999120087090977
680000000.0 0.16842897669209037 0.45357784786653704
700000000.0 0.06073847115603398 -0.4073539776983677
720000000.0 0.3253647507129014 0.14957054397619118
740000000.0 0.2490137835456843 0.1785596646010436
760000000.0 0.24132891991478805 -0.06409278054476202
780000000.0 0.15494305678399997 -0.084238682030928
800000000.0 -0.06232956350448381 0.14532722780802887
820000000.0 0.059700458149320054 0.11156159035205307
840000000.0 0.08189041540846059 -0.1254028256264376
860000000.0 -0.15661736147368774 0.02841782206168202
880000000.0 -0.09720637824977016 -0.06927804316025225
900000000.0 0.07560106376071912 -0.025295765471303758
920000000.0 -0.024850576886791938 -0.07933332918867732
940000000.0 0.17092151862518715 0.03326933413716073
960000000.0 0.24194544503742488 -0.030487295775751426
980000000.0 -0.21057089433013584 0.1197181718232987
1000000000.0 0.2721642240703647 -0.020046973813044294
1020000000.0 -0.019711788139776584 -0.29788440407601136
1040000000.0 0.1068667600851823 -0.3177741543238281
1060000000.0 0.1755091758025969 -0.31230757786192054
1080000000.0 0.04758350790561683 0.34387327124456496
1100000000.0 0.21647449356021853 0.2826443933605476
1120000000.0 -0.3102483352846404 -0.17103924823931085
1140000000.0 -0.19457534684348618 0.26931071363960823
1160000000.0 0.09033031867863639 0.2937103957490775
1180000000.0 -0.2849316237952422 -0.08006877267248136
1200000000.0 -0.2685340475915027 0.1440039453917289
1220000000.0 -0.12504359529124393 -0.24665907618992
1240000000.0 -0.22351079950710298 0.1360692855450727
1260000000.0 0.178881312560558 -0.14354383335176185
1280000000.0 0.21029261147858985 -0.06316747813614468
1300000000.0 -0.1877490463668911 0.10538122898673177
1320000000.0 -0.18413241349620385 0.10379267686484578
1340000000.0 -0.19786610929483212 0.08954262573841172
1360000000.0 0.10591879139272382 0.18533426792035862
1380000000.0 0.2058217083509963 0.16918399871002263
1400000000.0 -0.04122709326531902 -0.3025032387371643
1420000000.0 -0.1748209574809746 -0.27173619818368544
1440000000.0 -0.28295709998802293 -0.1316482911931347
1460000000.0 -0.25054019479764017 0.22291235325268383
1480000000.0 0.3317067111349637 -0.03837463400631711
1500000000.0 0.008164955452248235 -0.34746689313088236
1520000000.0 -0.2596682564631565 0.23878850944937788
1540000000.0 -0.3111087032593544 0.16177970319645632
1560000000.0 -0.3131934999620358 -0.11682258621211204
1580000000.0 -0.13735599244189423 0.2740485746357801
1600000000.0 -0.15151973119206297 0.22885133870721985
1620000000.0 0.008468185242940136 0.242053269963758
1640000000.0 -0.1752103234902993 -0.17932793318405715
1660000000.0 0.1339320164881071 0.17677950487466956
1680000000.0 -0.1715313592245805 -0.007471153714251901
1700000000.0 -0.07646909907353783 -0.12808870346075169
1720000000.0 0.11693213786663233 -0.06786982971700686
1740000000.0 -0.06768857941852625 -0.07489353149896243
1760000000.0 -0.059650517267842776 0.0478525816374978
1780000000.0 -0.029262535722801356 -0.07827778629488676
1800000000.0 -0.08455137119951628 -0.04223904775062149
1820000000.0 0.10652577209024633 0.06882619817561225
1840000000.0 -0.10337217439220366 0.10372068114644475
1860000000.0 0.041837542220525305 0.1597785932579579
1880000000.0 -0.015474495279349786 0.1936880639620861
1900000000.0 -0.06951716395952916 0.20298794639759962
1920000000.0 -0.17765991628851158 0.13563108835610677
1940000000.0 0.22303001645985862 -0.08842573640034941
1960000000.0 0.25640578787100665 0.004797631922922305
1980000000.0 -0.17693304646865513 -0.1969562366045498
2000000000.0 0.11517939794111678 0.24180654377004185
2020000000.0 0.19784904126904573 -0.17233722034631285
2040000000.0 -0.09018373905783676 0.24121014335395344
2060000000.0 0.0854384165301583 0.24046404560708637
2080000000.0 -0.2500049059755878 0.0024223341959629997
2100000000.0 0.05266287092287134 0.23505216016099212
2120000000.0 0.03965541072661679 0.23117804556028718
2140000000.0 -0.04435493736422695 0.2205116378038671
2160000000.0 -0.04780683255738662 -0.22369274117838006
2180000000.0 0.10567518567240335 -0.17317368211771703
2200000000.0 0.14021412171832373 -0.13158692565715602
2220000000.0 -0.119399487764761 -0.15925886725856764
2240000000.0 -0.024572590278911295 -0.20545011996960644
2260000000.0 -0.0020464371123907676 0.19896275020094276
2280000000.0 -0.19930534875074793 0.03363684182839252
2300000000.0 0.15881963483318012 -0.09104226143713068
2320000000.0 -0.032412359952692364 -0.1878456952417123
2340000000.0 0.11625550786387075 -0.1297807056498729
2360000000.0 0.14531979285901442 0.06505834869540313
2380000000.0 -0.061968244024510864 0.1348238678792015
2400000000.0 0.14323237428975005 0.042405039044086636
2420000000.0 0.08110928813028424 0.12288448774952326
2440000000.0 0.0025705513860814965 0.11940435523835927
2460000000.0 0.012289320134846078 -0.10523959598020573
2480000000.0 -0.04242710384155104 0.07210881148325687
2500000000.0 -0.07987253359742576 0.04128825081138838
2520000000.0 -0.0988112577277465 0.030832467072888094
2540000000.0 -0.0539237753652519 -0.0768745415960183
2560000000.0 0.012990484109211338 0.10429878678382
2580000000.0 -0.0687935979623185 -0.0893109731324463
2600000000.0 0.09426895318183717 0.05991537214539945
2620000000.0 0.11656664427663725 -0.01296765649826353
2640000000.0 0.04194780968317294 -0.11904076877086522
2660000000.0 -0.13763596109752116 -0.04808394552177111
2680000000.0 -0.11983390148137438 0.08689454309978442
2700000000.0 0.14915478651348302 0.007497185406749267
2720000000.0 -0.15177597432637865 0.027088915422597518
2740000000.0 -0.04821012111484698 -0.14288410865167
2760000000.0 -0.07149723406562405 0.11205811735380536
2780000000.0 -0.1300254915037012 -0.03875340079297032
2800000000.0 0.11953006364870801 -0.09412040328672203
2820000000.0 0.04436561117043033 0.1753253045370959
2840000000.0 0.11230414842133532 -0.15921576972889523
2860000000.0 -0.1868751242525059 0.06779450859944137
2880000000.0 0.10031735202120065 0.1801920027156754
2900000000.0 -0.16543001896228202 -0.15374958003734787
2920000000.0 -0.15362445272672237 0.17485786739598408
2940000000.0 -0.229526840289133 0.04121525290213634
2960000000.0 -0.24566479395366744 -0.01155884745727199
2980000000.0 0.14808557102316533 -0.192999776000427
3000000000.0 0.050578085005708706 -0.2062868653306321
3020000000.0 0.1247594818840831 -0.14269202301258518
3040000000.0 -0.17592777685429928 -0.05183642287369303
3060000000.0 -0.05363951425800784 0.16897427854149485
3080000000.0 0.1621367150047067 0.06730123626019482
3100000000.0 0.12466542765722742 -0.08205647856234666
3120000000.0 -0.10111754866487156 -0.07816772930668002
3140000000.0 0.10606127923463884 0.06256441525275712
3160000000.0 -0.11821219793568691 -0.0612298916415753
3180000000.0 -0.0755313845362097 -0.12187043557293392
3200000000.0 -0.13382107028226634 -0.06524355620858818
3220000000.0 -0.052710894053084 -0.1469953641853051
3240000000.0 0.04275275160871066 0.16241729006053982
3260000000.0 0.13442227533129317 0.12153549614974295
3280000000.0 0.07527071277216736 -0.17161916734740867
3300000000.0 -0.05125287468533503 -0.20824660308531434
3320000000.0 0.059922764940839146 -0.23432328560143856
3340000000.0 0.22218127690980446 0.14250277967738578
3360000000.0 0.2842455289588564 0.005803331660970212
3380000000.0 0.006206737143221571 0.27672550964697096
3400000000.0 0.21296467395857077 0.18688468857896257
3420000000.0 -0.2567423287966253 -0.15948886898394907
3440000000.0 -0.2890589482516104 -0.1094523853562466
3460000000.0 -0.01494643251240495 -0.3060519332973782
3480000000.0 -0.17634419412291347 -0.23924235606141273
3500000000.0 0.22846687258131948 -0.15709015673694335
3520000000.0 0.18253358903586261 0.18894240413819333
3540000000.0 -0.23627367036337452 -0.03426168950388368
3560000000.0 0.1915773163341988 0.11624880006556389
3580000000.0 0.09771972217268532 0.1995408183678188
3600000000.0 -0.08163754020036869 -0.19022376388056464
3620000000.0 0.13952521737297222 0.11600367027323875
3640000000.0 -0.06496193142543548 -0.1532283534368533
3660000000.0 0.027201155525568538 -0.16739690426006046
3680000000.0 -0.0029192663739485013 -0.1917806191198356
3700000000.0 -0.20372357601995256 -0.005923026643418051
3720000000.0 -0.16392707266759515 -0.15224232264834198
3740000000.0 -0.058587421557954635 -0.23582882459903817
3760000000.0 0.17332919746629016 -0.1883369708599096
3780000000.0 0.009366540931259394 0.27778711247429155
3800000000.0 -0.10037096556856168 -0.2827773638473895
3820000000.0 0.19480778155930797 0.2544359904530962
3840000000.0 -0.31486921530340756 0.0983976257745961
3860000000.0 0.33674995403405555 0.007993365715782793
3880000000.0 -0.2886318853454945 0.1739515258615644
3900000000.0 0.3249190998895139 -0.06667542621895989
3920000000.0 -0.324105735192059 0.008615514358662459
3940000000.0 -0.16916988425760907 -0.26604463842371096
3960000000.0 -0.04030105291865953 -0.28481460399851577
3980000000.0 0.033593757502749566 -0.2576757395222563
4000000000.0 -0.11203427140411451 0.19842710937179753
