!Created with skrf (http://scikit-rf.org).
# Hz S RI R 50.0 
!freq ReS11 ImS11
400000000.0 -0.6968656384074426 0.435724374531383
420000000.0 0.6954875877153563 -0.2823511514149154
440000000.0 0.5364305041551917 0.4775915999591063
460000000.0 -0.11743339076430459 0.6680680236270986
480000000.0 0.5425880898912816 0.20733291229623405
500000000.0 0.03670795443982835 -0.4688036119585215
520000000.0 -0.30149719200652786 -0.2614754687514779
540000000.0 0.46943928233027665 0.0671256364160082
560000000.0 -0.10042887859504201 -0.464053581072172
580000000.0 0.4080140315914204 0.047208432125534695
600000000.0 -0.08630995314483224 -0.35566647542528945
620000000.0 -0.2731705049771589 -0.2560656062144572
640000000.0 0.08954894376304588 -0.35320313426037814
660000000.0 0.03913493088680899 0.345655517775426
680000000.0 0.17810901579462213 0.2957867762361567
700000000.0 0.0643018806274904 0.3236721777196693
720000000.0 0.28980644252212073 0.1957649111742953
740000000.0 0.2749715964626434 0.16034627085294012
760000000.0 -0.3121779840201496 -0.04697138523029458
780000000.0 -0.28877158170626976 0.04422349416107721
800000000.0 0.1693558524308738 -0.17940625683779157
820000000.0 -0.21373603784179349 0.013511870738939185
840000000.0 -0.044810665824756915 -0.2078004162537655
860000000.0 -0.18192275264729127 -0.004462661142908026
880000000.0 0.17544783003478956 -0.060062037449105356
900000000.0 -0.11755044102574631 -0.10849429029309335
920000000.0 0.14541825135578051 0.04139293953180424
940000000.0 0.13149643791379384 0.010300300616462284
960000000.0 -0.08715312348089807 0.06670829351133749
980000000.0 0.043164085122338706 -0.05658268746165932
1000000000.0 0.030604893034754003 0.02448771595132514
1020000000.0 0.01789856474110502 0.04101240129015407
1040000000.0 -0.023588130448606588 -0.07378885117234671
1060000000.0 -0.08593799860184585 0.07204513511120549
1080000000.0 0.14647691115873313 0.05848294735788532
1100000000.0 0.07488306313748343 -0.16166645675338068
1120000000.0 -0.16823463048268705 0.12619174980663234
1140000000.0 0.23092900069309039 -0.10150929328382237
1160000000.0 0.21328651013282304 -0.19081136843286012
1180000000.0 0.27128640672681836 -0.14582102990591242
1200000000.0 0.19471945068915045 0.254140146018043
1220000000.0 0.3232034689747557 0.04394744501913588
1240000000.0 -0.23270359499643078 0.23706638518022022
1260000000.0 -0.26673101530263527 0.20380907364041193
1280000000.0 -0.33010856679406675 -0.0654022719510504
1300000000.0 0.3027481605456412 -0.17372598239091702
1320000000.0 0.23761193694873123 -0.2705576157005578
1340000000.0 -0.06757830146915443 0.3594979903989152
1360000000.0 -0.3563135262435042 -0.12492703462834942
1380000000.0 0.1861522861884363 -0.32780001080886223
1400000000.0 -0.2207982407449247 0.30304972671591884
1420000000.0 0.2694527263921839 0.25342109841289717
1440000000.0 0.36484343750468284 0.027513008805800244
1460000000.0 0.23400062269381833 -0.27310467683775214
1480000000.0 0.03637505127681683 -0.347220264873036
1500000000.0 -0.18517871866355728 0.28386804782200387
1520000000.0 0.2813703329697208 -0.13350047899434622
1540000000.0 -0.24932980877525637 0.1257174574036121
1560000000.0 0.04184630852883841 0.23804429487011
1580000000.0 0.10042325424800741 -0.188158602685004
1600000000.0 -0.009692232206409353 0.17980486244411584
1620000000.0 0.1479262110756927 -0.055932798004319696
1640000000.0 0.0723230622000691 -0.11229448713449959
1660000000.0 -0.09223053394607494 -0.03142182958741979
1680000000.0 -0.07362734809960962 -0.047359851720805514
1700000000.0 0.029782430602773007 0.07027722723960139
1720000000.0 -0.015427362569535374 0.04857584520986209
1740000000.0 -0.022762797684063484 -0.04513055149130536
1760000000.0 -0.041995108723154616 -0.04941395797061458
1780000000.0 -0.0039049508535974886 -0.0949294479731782
1800000000.0 0.11599034317208776 -0.05568300008075879
1820000000.0 0.06607368442152164 -0.1448774461392827
1840000000.0 0.05221836674818782 0.18762354453022606
1860000000.0 0.2245345588593425 0.004429878475594522
1880000000.0 0.16893444605596541 -0.1773106882896437
1900000000.0 0.1947439206372401 -0.1842896419137526
1920000000.0 -0.28389828040110765 -0.05813519824978949
1940000000.0 0.2335843102625399 0.19586591525208874
1960000000.0 -0.3105207776452659 0.05254324835918979
1980000000.0 -0.15838523891452846 -0.2717696245316742
2000000000.0 0.30476062899285794 -0.0716555836010172
2020000000.0 0.16371176149374647 0.2637954117302907
2040000000.0 0.014789019800534235 0.3114556468858789
2060000000.0 -0.16024871233884913 0.26183453574910653
2080000000.0 -0.3013324031524826 0.01489865226256924
2100000000.0 0.16011467586077818 0.2616588221631989
2120000000.0 -0.20533179288758677 0.22880009025384576
2140000000.0 -0.05418463325743137 -0.294684657644782
2160000000.0 -0.1099968126295578 0.2769867561503894
2180000000.0 0.23168200638847197 0.1723755795437145
2200000000.0 0.25024583629722635 -0.13130505597220168
2220000000.0 0.2342911611270682 0.14204359327551833
2240000000.0 0.15603262203827706 0.22438972299673504
2260000000.0 -0.15946507869962384 0.2006877965727209
2280000000.0 -0.0407938849007385 -0.24161371206577564
2300000000.0 0.16453623685227453 0.17988216455208683
2320000000.0 -0.08418880538982007 0.21519569757403784
2340000000.0 0.18931977057281757 -0.11803660744558846
2360000000.0 -0.1602681183424178 0.15161848252731724
2380000000.0 0.22147100267039657 -0.06646860736614142
2400000000.0 0.21267697744738884 0.1343434784259441
2420000000.0 0.2557545600710697 -0.10643619838455279
2440000000.0 -0.24966045479231702 0.177009605364981
2460000000.0 0.05715448704581478 -0.33178871304060203
2480000000.0 -0.36348315802521486 0.06740204536631879
2500000000.0 -0.06184591972477476 -0.4055464244030084
2520000000.0 0.44422051695723325 -0.02874270075926516
2540000000.0 -0.07193514668590896 0.47419628992850554
2560000000.0 -0.24128594390678523 -0.45357847192217743
2580000000.0 0.5002099595482344 0.2208024668759552
2600000000.0 -0.5609396583818271 0.1179323737199482
2620000000.0 0.4280685915930432 -0.4137522710185072
2640000000.0 0.009004266316656564 0.6128750064846288
2660000000.0 -0.5612836709412091 -0.2774477796659785
2680000000.0 0.3216045119850262 -0.5466419783966843
2700000000.0 0.6411438062694788 -0.003262047905403276
2720000000.0 0.5800494862640531 0.27981528241299236
2740000000.0 0.49973085071603085 0.4080682352139248
2760000000.0 0.48088671963203256 0.42621064460679353
2780000000.0 -0.594531735348508 0.22495970271703866
2800000000.0 -0.6139981341177733 -0.13283271600267718
2820000000.0 -0.11109075168266104 -0.6054476104176412
2840000000.0 0.5632275522352913 0.21495208777831526
2860000000.0 -0.5620837944098945 -0.1860053683587092
2880000000.0 0.48625077536946815 0.31116301997423096
2900000000.0 0.14991053807108706 -0.5394284267997767
2920000000.0 -0.5144501339418452 -0.16589201393767494
2940000000.0 -0.34346914297022174 0.3843638764822062
2960000000.0 -0.07502095807560032 0.4883904570320753
2980000000.0 0.34826312518856833 0.3215025645089707
3000000000.0 0.22547345006404745 -0.3889427056094877
3020000000.0 -0.4161699620410084 -0.07988368736557792
3040000000.0 0.19528426766087356 0.34819477443634406
3060000000.0 -0.08177150643034325 -0.36673823913751114
3080000000.0 -0.05195629219788783 0.3471064006970591
3100000000.0 0.19794076455749768 -0.26956462105911766
3120000000.0 -0.18552231326166982 -0.2691270495486722
3140000000.0 0.2566038985572613 0.18529366062732727
3160000000.0 -0.019979323945536948 -0.3136626470375893
3180000000.0 -0.12090072216490207 0.29167197880899454
3200000000.0 0.020654242947990925 -0.30654764882049684
3220000000.0 -0.28677930669191976 -0.06993737559973935
3240000000.0 -0.2778855404264212 0.0048139110229779986
3260000000.0 -0.13149094464822114 -0.22801586958398046
3280000000.0 0.13035187172135002 -0.21125361161363693
3300000000.0 0.06526553935924119 0.22143679343258751
3320000000.0 -0.21097626669199437 -0.025662433650930815
3340000000.0 0.02801554744082722 -0.19131052701215726
3360000000.0 -0.1310823591933336 0.10693452451312725
3380000000.0 -0.0015074914925655302 -0.14324777053153626
3400000000.0 0.11040927542517945 0.051010223596005634
3420000000.0 0.10934516458134422 0.02252349337880883
3440000000.0 -0.022594666927672705 -0.09961142426943413
3460000000.0 -0.016365606050032948 -0.09546514097786919
3480000000.0 0.06915785969854236 -0.050698312100274895
3500000000.0 -0.07064227997122151 0.023761035590474017
3520000000.0 -0.04470428121571824 0.051589841789491116
3540000000.0 -0.0030399328618604584 0.06304350047256459
3560000000.0 0.003906004851467519 0.06415351508283047
3580000000.0 0.06812490759756798 -0.03069437982010979
3600000000.0 -0.07543855989815135 0.038032850980027386
3620000000.0 -0.02935196534496601 0.09136198579851075
3640000000.0 0.08552656671206997 0.06047179418757929
3660000000.0 -0.04427802574669149 -0.0930794149054641
3680000000.0 0.04840312841153929 -0.08819999226080395
3700000000.0 0.03157091205257318 -0.08969851954948473
3720000000.0 0.08392226175743897 0.020785107272622
3740000000.0 0.0034095395984133506 -0.07469868198821901
3760000000.0 0.06395950020949075 -0.02764752774071387
3780000000.0 0.05069179643148636 0.033668394761278204
3800000000.0 0.0015303026358687215 -0.04525386788098448
3820000000.0 0.036565191833226 -0.0019211382711900775
3840000000.0 0.012684583467766485 -0.05227407490476409
3860000000.0 -0.007282832182965399 -0.07519565795525873
3880000000.0 -0.09589781576924554 -0.0024248758193442283
3900000000.0 -0.058701049391013366 -0.08466428517912317
3920000000.0 -0.060886622266392375 0.08520788241299049
3940000000.0 0.10093654547862928 -0.033424326373487544
3960000000.0 -0.08672595125666421 -0.06087391664105109
3980000000.0 0.0881705101061759 0.03707710792030657
4000000000.0 0.029784516873840535 -0.0784027973006241
