!Created with skrf (http://scikit-rf.org).
# Hz S RI R 50.0 
!freq ReS11 ImS11
400000000.0 0.8023628670269155 -0.15379907307045942
420000000.0 -0.26533763285545364 -0.7166796752706025
440000000.0 0.6712162191564047 0.33189502890007394
460000000.0 -0.4161394161616076 0.6170130153827958
480000000.0 -0.4088516196011407 -0.5457409736989516
500000000.0 -0.13643727064479905 0.5304884723025607
520000000.0 0.09635912415196696 0.43005379932043314
540000000.0 0.45452456042600287 0.24179270149229512
560000000.0 0.48691766005911297 -0.11595301451961913
580000000.0 0.19290282168125225 0.39267452278686454
600000000.0 -0.4530829689511306 0.10496910707631879
620000000.0 0.04654566123218531 0.4291851114311657
640000000.0 0.09684206801113257 0.36632612129709824
660000000.0 0.32105891516541446 0.22351991224150417
680000000.0 0.3241974405991789 -0.13579733312921663
700000000.0 0.3060108580656152 -0.16464858317167708
720000000.0 0.3088391165172779 -0.015784228244850203
740000000.0 0.28447284007044177 0.10405006020207544
760000000.0 -0.2766635543366322 0.0885621544005614
780000000.0 0.18098237933827138 -0.19969820107032032
800000000.0 -0.11332457851468898 0.23157508019058118
820000000.0 0.17697997172300148 0.13262317503144175
840000000.0 -0.15295651184384157 0.14845858470383186
860000000.0 -0.13468409273520662 -0.12734982899726793
880000000.0 -0.04020829974960871 -0.1606737810007927
900000000.0 0.1625297198735472 -0.012096451274131073
920000000.0 -0.0820931159184673 -0.1341836638626186
940000000.0 -0.1364323004252948 -0.062338718436007634
960000000.0 -0.1258039950435584 0.026394744419607624
980000000.0 -0.04336967726980262 0.07918045142455567
1000000000.0 0.023682973941699867 -0.055060986610374715
1020000000.0 -0.06387607560936995 0.011460007266254683
1040000000.0 -0.0882767197298567 0.058830692534516386
1060000000.0 0.03654182677473674 0.14676428025859922
1080000000.0 0.15636500610233584 -0.10127885960821037
1100000000.0 -0.16568950046676292 -0.12522261800100734
1120000000.0 0.2240909039454655 -0.08894740646787341
1140000000.0 0.25676445106308116 0.05912028560870316
1160000000.0 -0.16942481777991023 0.2291128371402309
1180000000.0 -0.16157706726195267 -0.2504931026100217
1200000000.0 0.30466972186861613 -0.06684060293146343
1220000000.0 0.08014106668652753 0.3110611660346596
1240000000.0 -0.24256377197944134 0.21903007986296905
1260000000.0 -0.2761765237182129 0.1853121460655057
1280000000.0 -0.19628822885406755 -0.26917895858118107
1300000000.0 0.294088857365452 -0.17569375925574127
1320000000.0 0.07985438708372701 0.34587392820381513
1340000000.0 0.09573604136264206 -0.3559179753580892
1360000000.0 0.275985124144098 -0.2599402730540028
1380000000.0 -0.0225134467964762 0.38285819715092795
1400000000.0 -0.15332773641724667 -0.3512038446778359
1420000000.0 -0.051925916721645544 0.3718322498148185
1440000000.0 0.32368043945406566 0.16205886884966708
1460000000.0 0.33641083930625765 -0.11584732554316343
1480000000.0 0.3108205379831377 -0.140267326426725
1500000000.0 -0.2887722829709634 -0.1554782936781069
1520000000.0 0.17479095892604943 0.2619902891681806
1540000000.0 -0.20894889721184648 -0.19528124642735945
1560000000.0 0.24845624864894347 0.0524093789461935
1580000000.0 -0.13933732557455705 0.1753939343582497
1600000000.0 -0.18735804065110337 0.0142233536351936
1620000000.0 -0.029689148341298776 -0.1489870208353801
1640000000.0 0.0060120480666007005 -0.12500652705723608
1660000000.0 -0.11138106283035644 0.005578600543914509
1680000000.0 0.03746645847257445 0.08238202609849378
1700000000.0 -0.0663241868528975 0.02964827478585054
1720000000.0 -0.05100347305835786 -0.010595258506146885
1740000000.0 -0.002492054076460123 0.04171982435305139
1760000000.0 -0.05009400571806469 -0.01726672600903986
1780000000.0 0.09855137331106943 0.009060649691724479
1800000000.0 -0.1222959531002033 -0.06872181571227304
1820000000.0 0.16683509076364422 0.030892163183847944
1840000000.0 -0.11594842266549957 -0.1581269006543612
1860000000.0 0.20853085353576925 -0.03594353376293396
1880000000.0 0.2102165385432986 0.10840459003561739
1900000000.0 0.24748510507943675 -0.07036786060413683
1920000000.0 -0.17253086323283942 -0.22321976340576527
1940000000.0 0.1984368380808031 0.21741257250300045
1960000000.0 -0.30149987834074915 -0.0523824045904851
1980000000.0 -0.12237175469561262 -0.28223418998935007
2000000000.0 0.28257180641106444 -0.13263396294326746
2020000000.0 0.2760881351563567 0.13938911255274555
2040000000.0 -0.09094640245234938 0.2971096188610515
2060000000.0 -0.3125750183906557 -0.0415394735418678
2080000000.0 -0.20229089390054694 -0.2484507142478333
2100000000.0 0.2928456768429492 0.13907263101694714
2120000000.0 -0.15198151732076065 0.2794739554737225
2140000000.0 -0.12195363608356015 -0.2894195321574147
2160000000.0 -0.12731218265041364 0.2762068832488986
2180000000.0 0.26705995325660925 0.12460567392555107
2200000000.0 0.2849844781287627 -0.03869824853249285
2220000000.0 0.21706625246513042 -0.17257758618538635
2240000000.0 0.25170863834888485 0.07723548588956294
2260000000.0 -0.10346266591091632 0.2287071627880178
2280000000.0 0.1371059783018041 -0.19508816308436017
2300000000.0 -0.12865474360566853 0.19376013607558332
2320000000.0 0.2187814253074155 -0.07416374918920528
2340000000.0 -0.11396978233006738 0.20360572533664534
2360000000.0 -0.22604064588157338 -0.050089319440472256
2380000000.0 0.22123480237852758 -0.07840208799434384
2400000000.0 -0.18372752089343788 0.1642836106481214
2420000000.0 -0.2686443005101947 -0.007394809386861573
2440000000.0 -0.0054085198407766545 0.30100767760952307
2460000000.0 -0.056673915212629815 -0.3338889376978562
2480000000.0 0.0978897855396525 0.3609873570599238
2500000000.0 -0.4036665058832362 0.06308311961687492
2520000000.0 0.04327489625480511 -0.4441420258717866
2540000000.0 0.4383709027029313 0.19625327131384493
2560000000.0 -0.4022433924289086 0.3216762413972207
2580000000.0 0.03639661177264265 -0.5468514766924234
2600000000.0 0.3195631154097475 0.4765549713326301
2620000000.0 -0.521482356499602 -0.29100812262796144
2640000000.0 0.6145063329799787 0.041284532135496994
2660000000.0 -0.5193462077386899 0.3632875405471952
2680000000.0 -0.05920450045096981 -0.6435764400845804
2700000000.0 0.6375006704437385 -0.16625656322055873
2720000000.0 0.6347762073920202 0.20873666376157887
2740000000.0 0.48280656453038145 0.46869527518308784
2760000000.0 0.5542656844491495 0.38557837461508176
2780000000.0 -0.4738354413550999 0.47717255296332894
2800000000.0 -0.5790841375118831 0.3254552110537025
2820000000.0 -0.6543271565061817 0.01786457782918909
2840000000.0 -0.10649534206556362 -0.6339616636005955
2860000000.0 0.5433389277869389 0.31901559322393197
2880000000.0 -0.5662838537344381 -0.245050141404731
2900000000.0 0.21243154076260554 0.5629740171728561
2920000000.0 0.4171022691518355 -0.40718664687366934
2940000000.0 -0.4447538633266763 -0.34496760871675575
2960000000.0 -0.3353130681942789 0.42289536463068017
2980000000.0 0.32978748398889074 0.3943966964812966
3000000000.0 0.27589398352880395 -0.40274074312398395
3020000000.0 -0.4477002534653019 -0.10310507365189794
3040000000.0 -0.0244356132022194 0.42786241135713454
3060000000.0 0.3290709302133547 -0.23192648764778284
3080000000.0 -0.3706526082414443 0.07697435492567084
3100000000.0 0.32301454767338605 0.15868274152606812
3120000000.0 0.27180714482928436 -0.22074235812165907
3140000000.0 -0.031060410344465852 0.34635249958296566
3160000000.0 -0.07806453269078605 -0.32857679603299317
3180000000.0 0.014702611456295969 0.33438872125561325
3200000000.0 0.026323656386956114 -0.3276476193210306
3220000000.0 -0.28001050159813134 -0.15065940475394515
3240000000.0 -0.21229314643699093 0.22449992143987424
3260000000.0 -0.20114874908741132 0.21061206943770894
3280000000.0 -0.26480967593829463 -0.07495981764978295
3300000000.0 0.23278460869931145 -0.11238056249283804
3320000000.0 0.09528847142886537 0.2183860077242798
3340000000.0 -0.20362009693667338 0.07094882902278632
3360000000.0 0.1675296003064442 0.08300273571481104
3380000000.0 -0.0835283409805779 -0.14096094552234142
3400000000.0 0.027675710528560157 -0.1396768628388099
3420000000.0 -0.08312217681249813 -0.09684030849874055
3440000000.0 0.043334442659791056 0.11480481350129006
3460000000.0 0.1096285387628653 0.0025081483803727107
3480000000.0 -0.08910461382843199 -0.028398025107046376
3500000000.0 -0.08158413417401858 -0.010264477486260476
3520000000.0 -0.037661994145487626 -0.0658737333277924
3540000000.0 0.010259700086204427 -0.07112662398744479
3560000000.0 -0.04495873599509767 0.05377379279588178
3580000000.0 0.043287913208245044 0.06619468928916335
3600000000.0 0.04463963773197437 0.0818929709320402
3620000000.0 -0.0555065093833445 -0.09168353931405959
3640000000.0 0.012421825481619355 0.11696732471140363
3660000000.0 0.10121475227484615 0.0643296135920112
3680000000.0 -0.07748314919506889 0.09162545603997278
3700000000.0 0.047564385122878236 -0.09702591667741271
3720000000.0 0.057626741339548995 0.06815661737650483
3740000000.0 -0.06438149337364804 -0.03885055938489727
3760000000.0 0.03230617818378462 0.0631858623742351
3780000000.0 0.0564816540743081 -0.030068790433004776
3800000000.0 0.05506822617281807 0.004412117328284962
3820000000.0 0.04474070275982982 -0.013484278376519417
3840000000.0 -0.046416591497817065 0.030860498136796182
3860000000.0 -0.06512072329851293 -0.029118740553595965
3880000000.0 -0.010031383917636654 -0.08366073356777491
3900000000.0 0.026502386241441966 0.09273842437996856
3920000000.0 0.03382491157394401 0.0955773315572804
3940000000.0 0.10168581257165912 -0.035174914996881336
3960000000.0 -0.10505843833105732 0.002089739388075476
3980000000.0 0.07688538989906654 -0.06895782524230974
4000000000.0 -0.025501857274263177 0.08362599558522803
