!Created with skrf (http://scikit-rf.org).
# Hz S RI R 50.0 
!freq ReS11 ImS11
400000000.0 -0.44308368701319917 -0.7008353682801126
420000000.0 -0.4328541093048778 0.6298647246006391
440000000.0 -0.17260494814894004 -0.7134642664909738
460000000.0 0.7144935319573376 0.12936813585850862
480000000.0 -0.1079681962664817 0.641119530963406
500000000.0 0.435004730976749 0.19150054018539692
520000000.0 -0.1600889540453055 0.3771975468671701
540000000.0 -0.4242368135285864 -0.270455658231746
560000000.0 -0.11543207364736492 0.4917894784843035
580000000.0 -0.43342396258944177 -0.14021661683973413
600000000.0 -0.42674596467307546 0.15395083888824737
620000000.0 -0.41906612688521494 -0.03530001830081223
640000000.0 -0.37050642482468904 0.08823540167534465
660000000.0 -0.1784668639093102 0.3339740399844779
680000000.0 -0.13973006960244708 -0.3036567102534966
700000000.0 0.27924372492673344 -0.22908411795801584
720000000.0 0.19228024579265118 -0.2744020043597762
740000000.0 -0.06810593231344364 -0.33211464707496496
760000000.0 0.28180719115552627 0.1941434714469299
780000000.0 0.30175678499802444 -0.03543355042045922
800000000.0 0.08807956844976705 0.26241050095503177
820000000.0 -0.10939686461323761 -0.19583688136590222
840000000.0 0.13268770592342705 -0.13889543654596387
860000000.0 0.07215992984703984 0.16503050557440213
880000000.0 0.1597829089975079 0.0198774179926699
900000000.0 0.08178409899067868 0.1279587032081255
920000000.0 0.0775908347454255 -0.12631636208879102
940000000.0 0.11782374696086934 0.04912691436209489
960000000.0 0.06888553900117587 0.061787143558674366
980000000.0 0.04911012123063371 0.03534140016514456
1000000000.0 -0.019505763109177475 0.029234708755118962
1020000000.0 -0.04632391730251746 0.006960720852382884
1040000000.0 0.060815519597022 0.06268345970544016
1060000000.0 0.021507013444275986 0.12072433285549124
1080000000.0 -0.07950233910467029 -0.13958842787115025
1100000000.0 0.0076012249078591726 -0.18924903951883904
1120000000.0 -0.21902622085993353 0.03937858703807786
1140000000.0 -0.12368531998377094 -0.22167369525827696
1160000000.0 -0.05433351423172427 -0.2764207495724097
1180000000.0 0.28961293385438847 0.06539347628227166
1200000000.0 -0.09885334861008474 0.293482611951614
1220000000.0 -0.17027036833289966 -0.2758158219189946
1240000000.0 -0.0801121097630491 -0.32884957551324595
1260000000.0 -0.1401543771846735 -0.3166563423327555
1280000000.0 0.19737771736963958 -0.29105470029681135
1300000000.0 -0.07692024391640888 -0.3593060988876554
1320000000.0 0.022059383399025044 -0.3685158220746045
1340000000.0 -0.05217061486666293 0.3665977525713685
1360000000.0 -0.31331044447588474 0.2034820219576372
1380000000.0 0.3697514783015305 0.04659609732511119
1400000000.0 -0.3723503617310733 0.026957320436045474
1420000000.0 -0.1694698030965663 0.3243269739851502
1440000000.0 0.13082075627268772 0.3278725448698846
1460000000.0 0.2115708823287407 0.28188409257948877
1480000000.0 0.33970445160075663 -0.02101042852686534
1500000000.0 -0.2376461618845931 -0.23237572009859428
1520000000.0 0.008092900158144747 0.31391654690661636
1540000000.0 0.12458072450368594 -0.25635450055828796
1560000000.0 0.13288048672285047 0.22084555162081815
1580000000.0 -0.209066761838451 0.08133966260180589
1600000000.0 -0.15479418960025482 -0.11767261104590669
1620000000.0 -0.13737715931696112 -0.07855401530020811
1640000000.0 0.1164635993327618 0.04874816607105895
1660000000.0 0.0993910042936617 0.030021708937303025
1680000000.0 -0.06087982878576309 -0.06081515539359465
1700000000.0 0.04020265477818119 0.054705716894357
1720000000.0 -0.04774581656904108 -0.030246729634921712
1740000000.0 -0.010409771644241894 -0.05008259266646671
1760000000.0 0.03340290645672926 0.0403785875349505
1780000000.0 -0.08206824266460491 0.04068888643857207
1800000000.0 -0.020981462134495404 0.1285259171391033
1820000000.0 -0.15365498581551656 0.04712256466864535
1840000000.0 0.129952351228894 0.1491864296736654
1860000000.0 0.17457375575904713 -0.12849647182741264
1880000000.0 0.22906801477927813 0.06595758823429036
1900000000.0 0.10519146971818533 -0.23437628426768725
1920000000.0 -0.15902848089131916 -0.2232361992017833
1940000000.0 -0.15822036898915212 0.24791519073078036
1960000000.0 -0.15115534792255553 -0.26791208232900093
1980000000.0 0.23277793108618136 -0.20865382202305327
2000000000.0 0.2977696266439044 -0.10847877025307817
2020000000.0 0.23904152289586694 0.20874396097138037
2040000000.0 0.03415485603728156 0.3143448167912799
2060000000.0 -0.22318061870087252 0.22589370832455766
2080000000.0 -0.29502511087946726 -0.1270020678170895
2100000000.0 0.32629996490801677 -0.037549543579203384
2120000000.0 0.17533458113799774 0.27025421520595144
2140000000.0 -0.3124859102103868 0.041039898264759817
2160000000.0 0.2749273524038874 -0.1238384356653713
2180000000.0 0.05016141107621545 -0.2787831552584203
2200000000.0 0.2628027903409904 -0.06693958840449955
2220000000.0 0.10041485626281356 0.24591575412709288
2240000000.0 -0.1934241926665881 -0.1742837488860374
2260000000.0 0.22757743519950022 -0.1259913194878395
2280000000.0 0.18860654887839642 0.17088357875044075
2300000000.0 0.17226793056640757 0.17810900517559447
2320000000.0 -0.22750210206368765 0.05352068983892034
2340000000.0 0.2011934506592389 0.11430493484866253
2360000000.0 -0.0982890775877151 0.20300659436667065
2380000000.0 0.22657878543420346 -0.020140257015683068
2400000000.0 -0.23555803500163638 0.060504233340176364
2420000000.0 -0.22687880586577797 -0.1446445433332533
2440000000.0 0.0798692083227554 0.29206415677617686
2460000000.0 -0.23055647538863439 -0.2457795307416478
2480000000.0 0.056901962388460965 0.3669202008403719
2500000000.0 -0.40740896915336006 0.022770764286515175
2520000000.0 0.040155300450152795 -0.44243611148438755
2540000000.0 0.4357385271097795 0.20195068819814946
2560000000.0 -0.4160057301760179 0.30342169890917486
2580000000.0 0.1161400562863107 -0.5341348905214228
2600000000.0 0.1912296047351278 0.5409380030320102
2620000000.0 -0.4811025619103836 -0.354166641615383
2640000000.0 0.5939813765360407 0.16755311464965952
2660000000.0 -0.5700698165500067 0.28218441550777956
2680000000.0 -0.12409958586019615 -0.6368923276413745
2700000000.0 0.6072850469138413 -0.26220518010501914
2720000000.0 0.6657792615642492 0.0800922694079894
2740000000.0 0.6301785066349539 0.24005206910742824
2760000000.0 0.6265772983182173 0.2581212238188677
2780000000.0 -0.39433976381682334 0.5469054555615902
2800000000.0 -0.5151629973220571 0.422717171758963
2820000000.0 -0.6403478258953139 0.14505387118152688
2840000000.0 -0.24241232963609002 -0.5962652750586496
2860000000.0 0.6001921586575281 0.18951681566506245
2880000000.0 -0.6114633086903957 -0.06181334538857459
2900000000.0 0.39657681746632967 0.44638903121274204
2920000000.0 0.4043088607909012 -0.4102337374423031
2940000000.0 -0.39647114083911916 -0.38984049950491445
2960000000.0 -0.4764030862852827 0.24014454167605137
2980000000.0 -0.05540602889466551 0.5079961396284514
3000000000.0 0.4923175203331248 0.02458600556752204
3020000000.0 -0.390755168402841 -0.25500126825579095
3040000000.0 0.05064399730780388 0.4361394563370114
3060000000.0 -0.04295354575646729 -0.4103149109406051
3080000000.0 -0.009195174605126583 0.3805399810775042
3100000000.0 0.2653470478275876 -0.2424637760258194
3120000000.0 -0.07736426339018072 -0.33684202416998993
3140000000.0 -0.10299662530932165 0.3234298490554076
3160000000.0 0.27227915177881334 -0.19481391788877145
3180000000.0 -0.29693902013025225 0.1596277194405891
3200000000.0 0.30462229794062295 -0.1399142116920809
3220000000.0 -0.3245971083402347 0.007846966032789693
3240000000.0 -0.16925999350501128 0.25805160404953553
3260000000.0 0.03924476862923966 0.2880682713607185
3280000000.0 -0.2694096120038481 -0.002987328131583179
3300000000.0 0.2454910514236489 -0.060933279419958734
3320000000.0 -0.03472955592727967 0.23421489485938013
3340000000.0 -0.18288407470862408 0.118496592669223
3360000000.0 -0.06016810097973234 -0.1744738593418365
3380000000.0 -0.13878104147989573 0.0769268080420636
3400000000.0 -0.10368780050347173 -0.08657441548868669
3420000000.0 0.11213022850177119 -0.04947249145321144
3440000000.0 -0.10001350594787976 -0.061974099859288784
3460000000.0 -0.08468335251351004 -0.07359061156540667
3480000000.0 0.10250604407358818 -0.02302133805441263
3500000000.0 -0.06406113262784684 0.06770807835639275
3520000000.0 0.08559017733648842 -0.022573064585537393
3540000000.0 -0.01511214456963018 -0.07663268498515996
3560000000.0 -0.003229183447641461 0.0753508515217252
3580000000.0 0.07602280869776791 -0.013752536851133947
3600000000.0 -0.03898834674990162 -0.07484678052123227
3620000000.0 -0.0895622334208238 -0.041313311301409
3640000000.0 -0.05784239202718224 0.08858047004245528
3660000000.0 -0.10649975421517917 -0.015074764680025164
3680000000.0 -0.1089549378397846 -0.03353346014033557
3700000000.0 0.10477912793270776 0.03003332761156596
3720000000.0 -0.04637319824617659 0.08921418111137479
3740000000.0 -0.08931215690075932 -0.0028613287310871147
3760000000.0 -0.018460675790997964 -0.07869918761539361
3780000000.0 0.053434512919236475 0.029447012857505138
3800000000.0 -0.013102150572430235 0.04167856590815317
3820000000.0 0.01767272120321882 0.030805486903952448
3840000000.0 0.0536523808923674 -0.0019856346201542418
3860000000.0 0.024706368240914517 -0.07076254349620285
3880000000.0 0.0594596299152375 0.07559483523667201
3900000000.0 0.05634701338017821 -0.08954582159025949
3920000000.0 0.04641969398438898 0.09712470209246098
3940000000.0 0.01413450812226016 -0.1007453157825668
3960000000.0 0.05295881045537656 -0.08088209599581514
3980000000.0 0.08072662470670071 -0.04578089668271804
4000000000.0 -0.007161345317396588 -0.08193959915394264
