!Created with skrf (http://scikit-rf.org).
# Hz S RI R 50.0 
!freq ReS11 ImS11
400000000.0 -0.2987099336221706 -0.7786383065995137
420000000.0 0.13674798838080326 0.7751110135737813
440000000.0 -0.16818753117203541 0.7429078081320468
460000000.0 -0.594569886011899 -0.3741675827633076
480000000.0 -0.5933516914131897 0.1406450080879493
500000000.0 0.5212448280691704 0.13649603275823816
520000000.0 -0.2657476002699762 -0.3055013684299135
540000000.0 0.390765288840139 0.22864659247684874
560000000.0 0.004780031288131963 -0.4755648861451246
580000000.0 0.4161825971766369 0.11235110184981222
600000000.0 0.08923520174100051 0.3902855150564026
620000000.0 0.25504435949851495 -0.25552315775245854
640000000.0 -0.360614796797366 -0.02885913372067929
660000000.0 0.11524591586343529 0.3303290861985253
680000000.0 0.31227736131391165 -0.15461163108567522
700000000.0 0.3120081533494817 -0.15110775115564423
720000000.0 0.230197622826693 -0.2549289887910715
740000000.0 -0.15551697214566768 -0.28155975503462644
760000000.0 0.27591050324123323 -0.13642484497958857
780000000.0 -0.15822099339352635 -0.22188299905269754
800000000.0 0.09362307435652688 0.22769950992303747
820000000.0 0.054257968726102786 0.20684343435305994
840000000.0 -0.12858595564564976 0.14865168795181372
860000000.0 -0.16480963057429507 -0.07823803592993402
880000000.0 -0.03623748312201376 -0.18112703057614607
900000000.0 -0.1393862121903977 0.04973886789012453
920000000.0 -0.08026639915566748 -0.12110368118544744
940000000.0 -0.1048353505189293 -0.09286947678695456
960000000.0 0.1041141474796982 -0.019583048361415546
980000000.0 0.03325011999837237 -0.04868081904288543
1000000000.0 0.03213858057386333 0.0122108192673523
1020000000.0 0.011411382082262478 -0.03308818789667816
1040000000.0 -0.028375070133723684 -0.07023229842764699
1060000000.0 0.07311988123471123 -0.09872537067017322
1080000000.0 -0.0693787234300056 -0.13071343250105413
1100000000.0 0.021467891325023723 -0.18785925509500828
1120000000.0 0.21814233710386485 0.06402160718555595
1140000000.0 0.09326669074400495 -0.2533946418971161
1160000000.0 0.2342000223013307 -0.1635122049368765
1180000000.0 -0.2154368853158316 0.23351360732721926
1200000000.0 0.096715672486203 0.3250920701304099
1220000000.0 0.16660902523144552 0.30169587388202923
1240000000.0 0.1445777148682404 0.30668505971629056
1260000000.0 -0.28405417380852394 0.18133881083318337
1280000000.0 -0.04078393562934979 -0.34320708664370403
1300000000.0 0.09436739224410325 -0.3437170263792777
1320000000.0 0.3423863949402889 -0.10111088930569029
1340000000.0 -0.1725798775474747 0.3288090411016749
1360000000.0 -0.24047189502940958 -0.2964887638884559
1380000000.0 0.15384005785513172 -0.3495199567519234
1400000000.0 -0.25677504617743113 0.273338403039138
1420000000.0 0.07583283559964303 0.3595659420762599
1440000000.0 0.36021154511468834 -0.008984057878282978
1460000000.0 0.2697326420265026 -0.2325198328007113
1480000000.0 0.05887805104209165 -0.3379127283363306
1500000000.0 -0.17040914249613748 0.288225143469256
1520000000.0 0.05855773839778664 -0.3050852845535456
1540000000.0 -0.2768714799062571 -0.01714326894658861
1560000000.0 0.18666463776233597 0.1546691967221732
1580000000.0 -0.19884620585728932 0.06268258301508975
1600000000.0 -0.03152798362898686 0.17040936753180871
1620000000.0 0.08312537918907534 -0.12589639213011902
1640000000.0 0.06407082453765231 0.11638778441863587
1660000000.0 -0.06929422499641827 0.08345857883474744
1680000000.0 0.03759356615011183 0.07633449842306439
1700000000.0 -0.054861107710379886 0.04757967819001109
1720000000.0 0.05181481361961977 -0.01885971726250643
1740000000.0 -0.024126147291652786 0.04088785885835429
1760000000.0 0.009960331918814567 -0.05599856537646134
1780000000.0 -0.0264770695697385 0.08367362263808237
1800000000.0 0.10423353378741718 -0.06330213962568855
1820000000.0 0.09491879028260157 0.12289391174689886
1840000000.0 -0.0889670942999228 0.1629387698926116
1860000000.0 0.06569101496172718 0.21214865574723293
1880000000.0 0.2434277306561809 0.016810000306059423
1900000000.0 0.06172478045002166 -0.25839987470403797
1920000000.0 -0.2579361077636804 -0.12591934035499902
1940000000.0 0.12130688994410233 0.27368347401259335
1960000000.0 -0.26585873044092123 -0.16359291602473078
1980000000.0 -0.02259611206355762 -0.31857719278257196
2000000000.0 0.013779323820820677 -0.31776745125077716
2020000000.0 0.31188906947079437 0.04081396999067263
2040000000.0 0.28660161193031125 0.12292266820023216
2060000000.0 0.1835806690234636 0.2491951289392283
2080000000.0 -0.30356646068438814 0.05688151617413778
2100000000.0 0.2134307154960047 -0.2299532704410715
2120000000.0 -0.012817321222570377 0.31052055185613725
2140000000.0 -0.1960759525049682 -0.23863513828664645
2160000000.0 0.025131951059417717 0.29992815052037386
2180000000.0 0.2814806475758843 0.08187278904680675
2200000000.0 0.2789586585283626 0.0710813192379216
2220000000.0 0.10605327977036148 0.2594357958938518
2240000000.0 -0.09130700128922677 0.26123999498580874
2260000000.0 -0.256998907644157 -0.06824544225957563
2280000000.0 0.056404495862476235 -0.24595612395290306
2300000000.0 0.21456175214985684 0.11570650629046655
2320000000.0 -0.22624261921645497 0.06817761587752318
2340000000.0 0.2173416823176478 -0.06505449632547439
2360000000.0 -0.22832565828949805 0.016951690889601627
2380000000.0 0.22148990229801382 0.07905778281751565
2400000000.0 0.1458658330538231 0.2070790589140538
2420000000.0 0.1298542257303 0.24737297452146753
2440000000.0 -0.10069365865144067 -0.29551489136992654
2460000000.0 0.25479071485077126 0.23184054648022792
2480000000.0 0.055658421833679264 -0.3713564101029156
2500000000.0 0.3701475915714382 0.1843351889052707
2520000000.0 -0.3337100678740284 0.30361564680748504
2540000000.0 -0.06693297914765434 -0.48437184832816965
2560000000.0 0.44368943950324324 0.27627367138252795
2580000000.0 -0.5528077137986839 0.0532345966228814
2600000000.0 0.44626828156546217 -0.37788739918784314
2620000000.0 -0.17598367609817125 0.5817643036437784
2640000000.0 -0.33808803103741386 -0.5261233380907296
2660000000.0 0.6382515550203337 0.052414144787062064
2680000000.0 -0.04770151937307448 0.6478020786709633
2700000000.0 -0.6029018626903291 0.26598152125265556
2720000000.0 -0.660684498388257 0.06314758033190403
2740000000.0 -0.6593660830503372 -0.09449303303544937
2760000000.0 -0.6655720004894022 -0.0443872113922732
2780000000.0 0.05486989138075723 -0.6583898293481518
2800000000.0 0.3299186272549134 -0.5615699368233771
2820000000.0 0.6351810820453201 -0.08829300891644265
2840000000.0 0.0905732349215925 0.6219987443189879
2860000000.0 -0.3142285304669964 -0.5278280350276487
2880000000.0 0.20753152855293866 0.5640608489819499
2900000000.0 0.30758487688796793 -0.493676928229218
2920000000.0 -0.43502486336091145 -0.3510561478546698
2940000000.0 -0.42711829332112994 0.32617735241850887
2960000000.0 0.001319551462649746 0.5131192222043021
2980000000.0 0.4420504083152325 0.21414595800390357
3000000000.0 0.0021134056023491775 -0.46737215418147343
3020000000.0 -0.43070801252669183 0.09686307283962242
3040000000.0 0.3094723372282612 0.27648963406082994
3060000000.0 -0.2623334335992877 -0.2893879572629605
3080000000.0 0.050407804130507945 0.367034864159091
3100000000.0 -0.17087789538302814 -0.30799291619092334
3120000000.0 -0.337859627081855 -0.04920964899109031
3140000000.0 0.33379749413745197 -0.005097572158431929
3160000000.0 -0.3023928888846335 -0.13162709852138246
3180000000.0 0.22773391634974668 0.23602599588205153
3200000000.0 0.07750846398598346 -0.31173686608402057
3220000000.0 -0.2711817423525959 0.15853008449219877
3240000000.0 -0.09687529294011837 0.27840843289652795
3260000000.0 -0.2603737178368258 0.09310202814935922
3280000000.0 0.021963854958998438 -0.2566809119376599
3300000000.0 0.17540535748097213 0.17034677974212536
3320000000.0 -0.2236473506426461 -0.0001640592623817222
3340000000.0 0.03797598676701414 -0.20301432749823456
3360000000.0 0.18029962602504074 0.004540769228345467
3380000000.0 -0.07832629046414129 -0.12800751743184466
3400000000.0 -0.013678383972047438 -0.1287033001028574
3420000000.0 -0.10820189506624209 -0.044182057967517986
3440000000.0 0.06321603917790673 0.08821137927232482
3460000000.0 -0.10288674421105076 -0.013190232254994199
3480000000.0 0.08403981187574994 0.0383506919302043
3500000000.0 0.07649531548207363 0.023166514023225674
3520000000.0 0.03757968163621575 -0.06444745529538148
3540000000.0 0.06654186472079368 -0.009449924179084678
3560000000.0 0.06502762307127757 0.035397281779931726
3580000000.0 -0.027651285500957974 0.07524741782409307
3600000000.0 -0.06196988041665972 -0.06634914042960842
3620000000.0 0.0027241674652315993 0.1027048711791062
3640000000.0 0.11175314269003485 0.012387151999319867
3660000000.0 0.1110336358552209 -0.014466246471765443
3680000000.0 0.03652177718594082 -0.10219602649887544
3700000000.0 0.053962780619462455 -0.08662297473638204
3720000000.0 -0.09325289195568069 0.000212770441192082
3740000000.0 -0.051925468941174446 -0.07033462780693907
3760000000.0 -0.06686534324065306 0.034423782565361834
3780000000.0 0.029912433529152543 -0.06242862778647249
3800000000.0 -0.04737177960352123 -0.016669196685884163
3820000000.0 0.0314317055017996 -0.024237572486682395
3840000000.0 0.03090575129799543 0.0424840990960082
3860000000.0 0.06867274562312661 0.02391125077794079
3880000000.0 -0.07904332793327744 0.04596361787384092
3900000000.0 -0.10060033763617147 0.024720206103401067
3920000000.0 0.1026570196202648 0.02996494770601759
3940000000.0 -0.07907776510408526 -0.07143117119034005
3960000000.0 -0.05478534550031847 0.08925662485703763
3980000000.0 0.08463028725323833 -0.05243896733094313
4000000000.0 -0.08580124991378515 0.0022283669013905974
