!Created with skrf (http://scikit-rf.org).
# Hz S RI R 50.0 
!freq ReS11 ImS11
400000000.0 -0.47808678050174586 -0.6788526009323658
420000000.0 -0.16944291759384286 0.765903549189566
440000000.0 -0.22174940980818342 0.7326304852416958
460000000.0 -0.6867631593814829 -0.14649234900305005
480000000.0 -0.5422126283987452 0.2790724324805136
500000000.0 0.5347377965800534 -0.023665677882555684
520000000.0 -0.331875052615035 -0.2235947392254988
540000000.0 0.3342505471370652 0.30993734546952195
560000000.0 -0.14867697749050038 -0.45217159339709967
580000000.0 0.4224524074882749 0.08016808266551598
600000000.0 -0.07122483616028473 0.3954053979816891
620000000.0 0.23445997529717366 -0.2811029506442364
640000000.0 -0.3477345916969285 0.10180053004739549
660000000.0 0.1709354566398812 0.3050230119897992
680000000.0 0.3353700410392492 -0.0867898196017539
700000000.0 0.3531652989317553 0.007934562114834119
720000000.0 0.07692805649450281 -0.33399274876478163
740000000.0 -0.05236526340242417 -0.3178804680878065
760000000.0 0.308211887528208 -0.028420473738719143
780000000.0 -0.2568061101821209 -0.08110049890804683
800000000.0 -0.007347057848340999 0.24843912972468732
820000000.0 -0.2125519143054886 0.038925036668745173
840000000.0 0.11388716364192566 0.1622564425575112
860000000.0 -0.025631707719659794 0.17996430277056882
880000000.0 0.1776234773739355 -0.030568977042450964
900000000.0 -0.14214608576174634 0.06338509951817917
920000000.0 -0.05993334953497527 0.12842886669043188
940000000.0 -0.10250118741046059 -0.09534609305092707
960000000.0 -0.10294641927758931 -0.02137404125632358
980000000.0 -0.0562131994935353 0.022458034924348013
1000000000.0 -0.036491339025730325 0.0004131055485205592
1020000000.0 -0.01051109918110953 -0.03043472694043743
1040000000.0 0.06024768757797768 -0.038139791835399506
1060000000.0 0.07495632999608877 0.09552525291740604
1080000000.0 0.09905358759129168 -0.11512344144406036
1100000000.0 -0.14883745663425432 -0.11674085024950717
1120000000.0 0.22308977482425382 -0.01692350625503119
1140000000.0 0.23194902589992827 -0.13306504640198372
1160000000.0 0.24409707376825035 -0.15690250851480228
1180000000.0 -0.15479204784584386 0.2795757966113343
1200000000.0 0.15726220850930933 0.29901398188627776
1220000000.0 0.15202178504704544 0.30685960397167794
1240000000.0 -0.16480556199381974 0.29753532106766767
1260000000.0 -0.20505412682621768 0.2703580260092945
1280000000.0 -0.2463205662276216 -0.24088187599432986
1300000000.0 0.2971841591589513 -0.19085337426829518
1320000000.0 0.3605614983550785 -0.010229676872884758
1340000000.0 0.1278316213251025 0.34956194923802847
1360000000.0 -0.1576304135856771 -0.3445101203578641
1380000000.0 0.18179039866781177 -0.3360259986621223
1400000000.0 -0.2890368088829827 0.24069238832525444
1420000000.0 0.12717855214943208 0.3438143700009008
1440000000.0 0.3589770679474973 0.024486674129569664
1460000000.0 0.302050427072855 -0.18521376011881924
1480000000.0 0.0015449030052153885 -0.34516070912392743
1500000000.0 -0.11795046066485211 0.31389321143707033
1520000000.0 0.08094166451513399 -0.2983362824499867
1540000000.0 -0.2430684716591423 -0.13279565997292356
1560000000.0 0.15631619998571658 0.1888103568154428
1580000000.0 -0.1704033337112616 0.12006721479664603
1600000000.0 -0.031597031906840344 0.1685260045121617
1620000000.0 0.05065176277778262 -0.14230767765949054
1640000000.0 0.013222709434993875 0.1330023643040787
1660000000.0 -0.0003631844375775594 0.10843881575587017
1680000000.0 0.01767429252799947 0.08543678594817326
1700000000.0 0.028119506161795992 0.06656697707718104
1720000000.0 0.04638044583693648 -0.027680853803693454
1740000000.0 -0.0029042896275643885 -0.049756500078189395
1760000000.0 -0.038573138326006534 0.04217803996595269
1780000000.0 -0.05631716942572617 0.06611263745857898
1800000000.0 0.11975288260766723 -0.01851521060422821
1820000000.0 0.07777680422753526 0.1354375527234861
1840000000.0 -0.0489030558194433 0.18072877522338873
1860000000.0 0.07684795385970901 0.20802563849072447
1880000000.0 0.22974101456458393 0.08266276746054917
1900000000.0 0.07504549581255432 -0.2552699254843917
1920000000.0 -0.28376643468570734 -0.039547443714286964
1940000000.0 0.08881653558252436 0.2864766315748391
1960000000.0 -0.2728373153963185 -0.15255294381735596
1980000000.0 -0.04249100877583457 -0.31694333886254716
2000000000.0 0.024065679511944944 -0.3180236838440747
2020000000.0 0.3071314364708921 0.06376157657526042
2040000000.0 0.3025045268818869 0.07849804598709768
2060000000.0 0.19506324839328298 0.2400310383181492
2080000000.0 -0.29248829707062524 0.09655188837045009
2100000000.0 0.21853141279676522 -0.2254281686140034
2120000000.0 -0.03240338518607876 0.30962323608959147
2140000000.0 -0.16816999596238436 -0.25813907070367825
2160000000.0 0.028707200703431843 0.29940700302293266
2180000000.0 0.28704574274498657 0.061581104016032444
2200000000.0 0.2816302226596465 0.05517444265834897
2220000000.0 0.039981082183167975 0.27733339424208664
2240000000.0 -0.06639891187908807 0.26826352670048786
2260000000.0 -0.2553350807492847 -0.07357546991978807
2280000000.0 0.08544579039025628 -0.2391217927045571
2300000000.0 0.22928736724012408 0.08029912797782597
2320000000.0 -0.23575383376448075 0.0105260560487921
2340000000.0 0.2113648958184072 -0.08331544241001904
2360000000.0 -0.2161413653082476 0.07254577779423467
2380000000.0 0.2134977573232363 0.10083053989625955
2400000000.0 0.12714476628777432 0.2189198373795296
2420000000.0 0.1510995132040202 0.23449580304075127
2440000000.0 -0.0979207370037725 -0.29697572057784344
2460000000.0 0.22629921433248917 0.2585943099130446
2480000000.0 0.06450500797921947 -0.3706223071193691
2500000000.0 0.39001460250157 0.14067640389462183
2520000000.0 -0.3020147899017436 0.33534323698466845
2540000000.0 -0.06966482000545444 -0.4834588420014676
2560000000.0 0.4471368281175689 0.2709055511735954
2580000000.0 -0.5524900665939615 0.058056935590826024
2600000000.0 0.44438306325116655 -0.3802188799604627
2620000000.0 -0.14068554207613634 0.5914387037397495
2640000000.0 -0.35719063464549095 -0.5133643539690904
2660000000.0 0.6398090742239795 0.01986763748140928
2680000000.0 -0.053788085145259096 0.6475159849580945
2700000000.0 -0.5870027119765238 0.29952129805530087
2720000000.0 -0.6590566626285354 0.07708874719337476
2740000000.0 -0.6601054386138838 -0.08940027706062384
2760000000.0 -0.6657529859047536 -0.042534830551299356
2780000000.0 0.05006247418407423 -0.6587428485807515
2800000000.0 0.2997646297831676 -0.5782092567884078
2820000000.0 0.6310135588065972 -0.11448546568887946
2840000000.0 0.10522580819975028 0.6199904515078546
2860000000.0 -0.3076388686445416 -0.5321039840838413
2880000000.0 0.20386760535902682 0.5646802742588358
2900000000.0 0.3027687823517844 -0.4970052428717033
2920000000.0 -0.45055790777903304 -0.3328344859141513
2940000000.0 -0.4053236581861935 0.3514870939950294
2960000000.0 -0.052190922289454364 0.5101171547756043
2980000000.0 0.4560767831078665 0.18372479135907735
3000000000.0 0.07320482261349355 -0.46057637617414626
3020000000.0 -0.42905459370520505 0.1030604662093349
3040000000.0 0.33385321478570407 0.2471946944540267
3060000000.0 -0.31714697267053854 -0.22528678700641144
3080000000.0 0.011123164955248411 0.3695201098418603
3100000000.0 -0.1532771585579243 -0.3178716402199211
3120000000.0 -0.3398078742858741 -0.022986127652792825
3140000000.0 0.33255331392819604 -0.030067224514337017
3160000000.0 -0.3126458453942556 -0.10652247634831678
3180000000.0 0.23826972110335376 0.22549562065361053
3200000000.0 0.08875828800608572 -0.3070903862358472
3220000000.0 -0.28504587079874993 0.13477599870425008
3240000000.0 -0.062374037489927224 0.2876341160903451
3260000000.0 -0.2582225796307688 0.09803871935965079
3280000000.0 0.046956803104862936 -0.25307962695902636
3300000000.0 0.16524587146380712 0.17986240870150183
3320000000.0 -0.20691188722245585 0.0829093331745009
3340000000.0 0.08205454722929977 -0.1891462793237616
3360000000.0 0.18105391913706118 0.008735569345341667
3380000000.0 -0.10426395449466584 -0.10780565251634869
3400000000.0 0.04595704359700564 -0.12087560228774837
3420000000.0 -0.11153980812926674 -0.04069651571615792
3440000000.0 0.10030582509446224 0.041213813886449756
3460000000.0 -0.0745227681161597 -0.07067140275847775
3480000000.0 0.017598961237659864 0.09197240357683988
3500000000.0 0.07317547505080325 -0.030331036383441257
3520000000.0 0.07473677929113544 0.004921118714859258
3540000000.0 0.027141786760459526 -0.06101842620370015
3560000000.0 0.049175556309153136 0.0537475124656319
3580000000.0 -0.07888496937219538 -0.010756819566950545
3600000000.0 -0.09046074013542418 -0.014826019993802267
3620000000.0 0.06645865151828687 0.07824119050747565
3640000000.0 0.10574166476258962 0.03518589080886482
3660000000.0 0.1089916575764712 0.030573206046252452
3680000000.0 0.021223261655297285 -0.10747654619897798
3700000000.0 -0.0267442668475364 -0.09839223094321553
3720000000.0 -0.08910227950230497 -0.02558901021433126
3740000000.0 -0.06578657441324325 -0.0587586719421529
3760000000.0 -0.06241633301473013 0.04222878230050458
3780000000.0 0.039457326184554685 -0.05811176026674039
3800000000.0 -0.04988346993003981 0.0030293716547993483
3820000000.0 0.035869684755464835 -0.017889707995347025
3840000000.0 0.047407829279047714 0.02537514887539037
3860000000.0 0.07121229000453981 0.010274416688313213
3880000000.0 -0.0912798123650155 0.001565641195329039
3900000000.0 -0.09693824630838424 0.03902559810546553
3920000000.0 0.09666790945447239 0.045665157207669026
3940000000.0 -0.10125064637149082 -0.03241665811547105
3960000000.0 -0.0756261149914134 0.07221283724327383
3980000000.0 0.06156507021292238 -0.07914071784881765
4000000000.0 -0.05472165253441385 0.06781003083326123
