!Created with skrf (http://scikit-rf.org).
# Hz S RI R 50.0 
!freq ReS11 ImS11
400000000.0 -0.6068383806701914 0.5592517419950113
420000000.0 0.398790739132273 -0.6646928096781499
440000000.0 0.521322049194613 -0.5314270479153381
460000000.0 -0.1797581134080692 -0.6309037162596193
480000000.0 -0.24392776270974564 -0.47523578069366024
500000000.0 -0.35974556668071306 0.19172387598410814
520000000.0 -0.3857335062116337 0.23737786144210174
540000000.0 0.34973870302265925 -0.33673586578911924
560000000.0 0.18604378931939441 -0.4268391126478316
580000000.0 0.13596874239804482 0.39552800080095646
600000000.0 -0.22650507442385165 -0.31849748757933743
620000000.0 -0.08544576854703628 -0.3543707008556015
640000000.0 0.3535231428766307 -0.022879800666355022
660000000.0 0.3166448681749655 0.1385666914988847
680000000.0 -0.2606008300320034 -0.22257961688992325
700000000.0 -0.36330146566220767 -0.07362003431692198
720000000.0 0.3076745011637612 -0.1780294160185054
740000000.0 0.3216920794985242 0.00299540094048063
760000000.0 -0.05945030264011597 -0.30573901459896696
780000000.0 0.10836133691682064 -0.2807929154298396
800000000.0 0.26041197428348717 -0.04978339082084488
820000000.0 -0.0544730237965085 0.2209075832466616
840000000.0 0.20909563593990194 -0.036608124637085834
860000000.0 0.11381280128759964 0.16533180807844805
880000000.0 -0.19580066241900984 -0.03138044115574529
900000000.0 0.153714354650335 0.039092096538988166
920000000.0 -0.030227476747020483 -0.13884905288700441
940000000.0 0.09653775952250705 0.10094100108176084
960000000.0 0.05938023605072761 0.0878183288010322
980000000.0 0.006052939171046794 0.06423473236751204
1000000000.0 0.03471645409736936 -0.011209666391480504
1020000000.0 -0.04471823030992856 0.021799690431588196
1040000000.0 -0.01915730610328472 0.08287982852618753
1060000000.0 0.1009675510623085 -0.061966098341382995
1080000000.0 -0.09126874819152128 0.12614282375073718
1100000000.0 0.1795543332828922 0.0005323809937908949
1120000000.0 0.0870676810520195 -0.19978781066224227
1140000000.0 -0.2339612710151454 -0.10690228614661482
1160000000.0 0.2769745176691694 0.03589999366409386
1180000000.0 0.26600527051418316 0.1477164974467662
1200000000.0 -0.10670533568102016 0.30382632653938235
1220000000.0 0.07235894380860933 0.322530478347825
1240000000.0 -0.3012301150819238 0.13896138049332357
1260000000.0 -0.3340660522827597 -0.04794987214907807
1280000000.0 -0.3334784115148402 -0.08283359468149062
1300000000.0 0.12122729675491153 -0.327604021223406
1320000000.0 0.3400698398937927 0.13067047338086232
1340000000.0 -0.29118850447821354 0.23248835293886558
1360000000.0 -0.23249877641246294 -0.307131400324822
1380000000.0 0.25951743627143253 -0.27725670806411806
1400000000.0 -0.2040528072387193 -0.31798836590654567
1420000000.0 -0.11082504121652782 0.3591510311176841
1440000000.0 0.22662583577827664 0.2890888430286765
1460000000.0 0.2553806437414648 -0.2564610706700189
1480000000.0 -0.03580819360564065 -0.3459463204003941
1500000000.0 -0.059733609736712975 0.33089548332305113
1520000000.0 0.04886305594483824 -0.30527086716237345
1540000000.0 -0.2711465557142795 -0.031324458440954835
1560000000.0 0.18231300543595094 0.16782539135473654
1580000000.0 -0.16785402997876145 -0.12851180614399235
1600000000.0 0.16397134275629985 0.07469769239667441
1620000000.0 -0.14182787619938014 -0.07040424107284952
1640000000.0 -0.018048616677178744 -0.13230402405060823
1660000000.0 0.09361871206264653 0.056247986988535864
1680000000.0 -0.08445233116468105 0.02701820188257381
1700000000.0 0.07242445938824853 0.008835743445930832
1720000000.0 0.047877673395376255 0.018373304463412718
1740000000.0 0.047367531702884186 0.02088179810447531
1760000000.0 -0.04889826143439839 -0.036745379736161064
1780000000.0 -0.07957530051659775 -0.05358802110849298
1800000000.0 -0.020599132166404768 0.12218471743256705
1820000000.0 -0.045889531955444665 0.15227853046108672
1840000000.0 -0.015445647185468718 0.19221091323379486
1860000000.0 0.04954164796311444 0.21231738308923778
1880000000.0 -0.005487170801245836 0.2400666990147785
1900000000.0 0.26788767357949383 0.0013218309047032493
1920000000.0 -0.2792097264907267 -0.06531057594144193
1940000000.0 -0.09889981308914525 0.28140037561329045
1960000000.0 -0.3136929127286443 -0.005437514567499312
1980000000.0 -0.08803742210859632 -0.3020106079202198
2000000000.0 0.3042640094800182 0.06365531344362231
2020000000.0 0.22974301860741225 0.21743882991085525
2040000000.0 0.15224033589790015 0.27507900358413057
2060000000.0 -0.09815199387238743 0.29093749042142303
2080000000.0 -0.2432665953448548 -0.1925423178125084
2100000000.0 0.30823469863320646 0.007249757289288611
2120000000.0 -0.30786154029415863 -0.007788895911950899
2140000000.0 0.16718625489067065 -0.24992236308031573
2160000000.0 -0.22408452865522338 0.1958394439936431
2180000000.0 0.10917224320622883 0.26881316904428576
2200000000.0 0.26959987658528667 0.08477703790306028
2220000000.0 0.25521528731154713 0.09772008328608704
2240000000.0 0.022004313211154595 0.27002226371375804
2260000000.0 -0.10763853622080234 0.23491634131814926
2280000000.0 -0.15183351744993218 -0.19659298274374765
2300000000.0 0.2269753746275183 -0.072383799239777
2320000000.0 -0.14619762844995915 0.17651501542617706
2340000000.0 0.16573703762034092 -0.14554382391045698
2360000000.0 -0.09380523036698622 0.2016200042969772
2380000000.0 0.16734875684868428 -0.15823173106576321
2400000000.0 -0.10332818758115928 0.22364060169458938
2420000000.0 0.1245795705274196 0.2435755439629642
2440000000.0 0.07755384063052702 -0.292938309156915
2460000000.0 -0.1461417680734079 0.30377027394616396
2480000000.0 0.368032508574788 -0.04714290848888762
2500000000.0 0.14488895734319446 0.3835152846838623
2520000000.0 -0.4367199162360619 -0.08279136742589575
2540000000.0 0.10767516401235223 -0.4691170975598098
2560000000.0 0.30021758683352207 0.42038973032444465
2580000000.0 -0.534075555840964 -0.12200269443975566
2600000000.0 0.4951220110436649 -0.29591411367270665
2620000000.0 -0.245779828102349 0.5491275316906589
2640000000.0 -0.14539311252448844 -0.6039371116669295
2660000000.0 0.5987241564568379 0.21952396389796275
2680000000.0 -0.40445054509773065 0.5086797195005481
2700000000.0 -0.6302699969767062 -0.19587189263388755
2720000000.0 -0.33030039988135657 -0.578710909674939
2740000000.0 -0.24493176784240991 -0.6238634162182238
2760000000.0 -0.17299167808560367 -0.6483840267224015
2780000000.0 0.6649990142121509 0.04075093534774752
2800000000.0 0.617094582213471 0.22701636972253333
2820000000.0 0.2557249004624941 0.5919728787893602
2840000000.0 -0.5667176393824176 0.2823100987978638
2860000000.0 0.2168496105657976 -0.5805470187851534
2880000000.0 -0.24289602585139788 0.5516675534016388
2900000000.0 0.564704958103822 -0.1521226421092817
2920000000.0 -0.3760817195785729 -0.4226374512960708
2940000000.0 -0.47220394987106995 0.2595148669990569
2960000000.0 -0.0899964803149372 0.5109973217815542
2980000000.0 0.43895635711640446 0.2267693253298551
3000000000.0 0.2816960056954873 -0.37736310849432836
3020000000.0 -0.37453660662499755 -0.24483893389734482
3040000000.0 0.3732962681215855 0.19837334293629053
3060000000.0 -0.07749302874040684 -0.38620644026743817
3080000000.0 -0.09247629166109143 0.35855198554229417
3100000000.0 0.0399489152617999 -0.3479376461020824
3120000000.0 -0.06876418422970347 -0.3295292283554832
3140000000.0 -0.06338745499059867 0.32537381258556214
3160000000.0 -0.03421006457705038 -0.3239270096660932
3180000000.0 0.011986835465145434 0.3215377641797996
3200000000.0 0.09621616840874837 -0.3027191881743105
3220000000.0 -0.2994103014735569 0.061551348628965795
3240000000.0 -0.23707883002827868 0.17248777045779773
3260000000.0 -0.20015492506621083 0.19058955999148108
3280000000.0 -0.13071850867687823 -0.22655150366959179
3300000000.0 0.12859070980147536 -0.20932558925965622
3320000000.0 0.04839983097719713 0.2203909227424501
3340000000.0 -0.20846439649598875 -0.014213365172053004
3360000000.0 -0.05479127608465865 -0.17385387131157398
3380000000.0 -0.1527123821692357 0.011248965743206366
3400000000.0 -0.019702264463195722 0.12875412249632373
3420000000.0 -0.08615747174684164 -0.08042070209737648
3440000000.0 0.08839357985633792 -0.0639919436767974
3460000000.0 0.03856492345276023 0.09306724314407322
3480000000.0 -0.07502790231907058 -0.047506470522355765
3500000000.0 -0.038166203041511415 0.07011654855458956
3520000000.0 -0.027203113928439236 0.06469970872522869
3540000000.0 -0.06550429224766831 -0.010234487199736549
3560000000.0 0.009637397663409257 -0.06675997569901954
3580000000.0 0.048385169202362355 -0.058910326265578045
3600000000.0 -0.04400740930908525 -0.0779654349681651
3620000000.0 0.0947000226489755 -0.03085262595598095
3640000000.0 0.04167157628190652 0.09973485800415761
3660000000.0 0.047034586889437416 0.10149868264719801
3680000000.0 -0.02421767705098555 -0.10751510957459039
3700000000.0 -0.0614822431001454 -0.0802907937284222
3720000000.0 0.0546750447389524 -0.07351269824923662
3740000000.0 0.04777936035611937 -0.06637194271417753
3760000000.0 -0.018606361334310647 -0.07451310494786624
3780000000.0 0.04151149671370883 0.05023432130895441
3800000000.0 0.020014296026700785 -0.03884443971268454
3820000000.0 0.02461296517809216 -0.03291447341684364
3840000000.0 -0.04793356779910038 -0.003157774300934295
3860000000.0 0.040372815572439644 0.0642837360859878
3880000000.0 -0.07850559044275326 -0.0460592102615288
3900000000.0 0.03305999785999585 -0.09872078524265146
3920000000.0 -0.10658523372673026 0.003717025279938166
3940000000.0 0.06394308744425134 0.08656443526193335
3960000000.0 0.04234747598383302 -0.09491633045368038
3980000000.0 -0.0864091204145669 0.045478962100342794
4000000000.0 0.018148919100214798 0.08354768892279985
