!Created with skrf (http://scikit-rf.org).
# Hz S RI R 50.0 
!freq ReS11 ImS11
400000000.0 -0.6308399928738553 0.5325613248780463
420000000.0 0.3248790480917283 -0.7029338012553784
440000000.0 0.5093931944521359 -0.5429713678053757
460000000.0 -0.17182643105804887 -0.6328496551824391
480000000.0 -0.2463525995073658 -0.47446166007137325
500000000.0 -0.3544127375213028 0.20136309940912547
520000000.0 -0.37162025926879394 0.25674396657240145
540000000.0 0.337343939110187 -0.3495955866732156
560000000.0 0.18745455560800986 -0.42573974271110715
580000000.0 0.14771300918642546 0.3916927190255645
600000000.0 -0.22233512395554308 -0.3223896206308594
620000000.0 -0.13435229651542183 -0.3390408433452304
640000000.0 0.3509590415789522 -0.05213631159566341
660000000.0 0.32846636277574975 0.10686424471195262
680000000.0 -0.26171628285820486 -0.22148691841156704
700000000.0 -0.3532485356204376 -0.11529591321588321
720000000.0 0.3065286183132015 -0.17991072996654733
740000000.0 0.3214866135084777 -0.011651852498294582
760000000.0 -0.05122795074264542 -0.3070696230773632
780000000.0 0.11708850289718961 -0.27687010175349747
800000000.0 0.262715937256137 -0.03618437420713622
820000000.0 -0.02574900624733955 0.2263854398077001
840000000.0 0.20843791316611104 -0.03660524955931233
860000000.0 0.10388414711178842 0.17122538069110527
880000000.0 -0.19314809898203122 -0.045779458131337956
900000000.0 0.15347612037443173 0.040974327414156096
920000000.0 -0.04906511113951284 -0.13336706558277592
940000000.0 0.10175568255918326 0.09588830359230636
960000000.0 0.04291292555052875 0.09684783651803675
980000000.0 0.004151930561105388 0.06440610687179063
1000000000.0 0.035244787916323454 -0.008518774626819126
1020000000.0 -0.04606536956896872 0.018752187201289825
1040000000.0 -0.017446970533929254 0.08323802892467758
1060000000.0 0.0878046910937708 -0.07973016850594851
1080000000.0 -0.10331386723941308 0.11586518876581792
1100000000.0 0.17890363745497612 -0.016629494326630963
1120000000.0 0.10291035841624863 -0.1921820753132264
1140000000.0 -0.2365559281454079 -0.10110046092788234
1160000000.0 0.277425357969658 0.03608727192250555
1180000000.0 0.24955194352682558 0.17373273011579043
1200000000.0 -0.07731931574197877 0.3122580398172725
1220000000.0 0.11430458606938755 0.31083393827742484
1240000000.0 -0.3063653268333386 0.12757799013459553
1260000000.0 -0.33573657674945706 -0.026648049770575624
1280000000.0 -0.33154878242899216 -0.09195310907328264
1300000000.0 0.1283092170051765 -0.32483383539121
1320000000.0 0.3499485426961887 0.10162486645797404
1340000000.0 -0.27081436401336245 0.2554545746964956
1360000000.0 -0.2313077123380542 -0.3085527601238217
1380000000.0 0.26800670124745674 -0.2689758854851317
1400000000.0 -0.19961387685908724 -0.320681313851939
1420000000.0 -0.11698219773877479 0.35741362977969204
1440000000.0 0.23201871863263773 0.28418758926081233
1460000000.0 0.246066724988281 -0.2657459294422057
1480000000.0 -0.014632140587908604 -0.34802004999975145
1500000000.0 -0.08078316865045672 0.3263857376964537
1520000000.0 0.03591117317232549 -0.306768212492479
1540000000.0 -0.2718214611020215 -0.025918957967068515
1560000000.0 0.16347496392706243 0.18666605254378
1580000000.0 -0.15968825138726084 -0.13828895177019798
1600000000.0 0.17232938731840527 0.0538099905932852
1620000000.0 -0.1335366957241624 -0.08591419668817274
1640000000.0 -0.002728934976085115 -0.13322864968839127
1660000000.0 0.10751458047466886 0.020330579599326628
1680000000.0 -0.08264336057673403 0.03359722757290603
1700000000.0 0.06457047707480044 0.03223133501295122
1720000000.0 0.0500341706878141 0.01116785486991032
1740000000.0 0.04273955469598282 0.029553106620110747
1760000000.0 -0.041452958995513774 -0.04546131238631163
1780000000.0 -0.05839123181577108 -0.0759903706139153
1800000000.0 -0.03148542653907892 0.11975248719115368
1820000000.0 -0.054711978901088254 0.14952335661674138
1840000000.0 -0.016058139893292175 0.19225694313442845
1860000000.0 0.05385988774054223 0.21115701019238667
1880000000.0 0.0029140338488014977 0.24009057596575503
1900000000.0 0.2676991408237454 0.001048742587012756
1920000000.0 -0.27721506272987134 -0.07245099916340003
1940000000.0 -0.08841999626384557 0.28495706086697314
1960000000.0 -0.31341187301165846 -0.013210344030069245
1980000000.0 -0.11247453373759041 -0.2933938726701031
2000000000.0 0.30757205197333226 0.04498925997503333
2020000000.0 0.20904923160101632 0.2378563919670367
2040000000.0 0.16886107172388096 0.26544868191278426
2060000000.0 -0.08236791797621408 0.2958580726402992
2080000000.0 -0.21914285038569814 -0.2194591616924257
2100000000.0 0.30828988517210365 0.010120437926810418
2120000000.0 -0.3079255718407623 -0.0027160357462957855
2140000000.0 0.1648613670409391 -0.25161028361162646
2160000000.0 -0.2170130838020255 0.20338757223671347
2180000000.0 0.1299908136598788 0.25948127023379547
2200000000.0 0.26382458889520577 0.10184235558292506
2220000000.0 0.24973790899925274 0.11007746524223005
2240000000.0 0.012196883012929656 0.2706945395739218
2260000000.0 -0.09518833804037982 0.24011412682638125
2280000000.0 -0.1541114579184724 -0.194785305955972
2300000000.0 0.2284408869795073 -0.06676045975530227
2320000000.0 -0.13050027743113254 0.18815976676839666
2340000000.0 0.15572561424708928 -0.15642505052911138
2360000000.0 -0.08837866947661369 0.2038619894592042
2380000000.0 0.14313403106799788 -0.18008418465319748
2400000000.0 -0.11589811275993292 0.21732428535413953
2420000000.0 0.09842974781466429 0.2553555359748817
2440000000.0 0.094627851473074 -0.2877725623734349
2460000000.0 -0.1554370372204468 0.2990571116377734
2480000000.0 0.36137463274308507 -0.08582807996596085
2500000000.0 0.146456581068741 0.38270596377285226
2520000000.0 -0.4411522214244906 -0.0540255138044298
2540000000.0 0.10929998949333417 -0.4688840051949976
2560000000.0 0.31321279225933374 0.41059998925148145
2580000000.0 -0.532691335375736 -0.12932505580435552
2600000000.0 0.4952086459408544 -0.2958499934588464
2620000000.0 -0.2142561179909716 0.5616001165051034
2640000000.0 -0.1460169976994883 -0.6036065510108075
2660000000.0 0.6023103460589826 0.20931209139135842
2680000000.0 -0.35488096359347193 0.5444378939615381
2700000000.0 -0.6280919642567152 -0.20223084685172255
2720000000.0 -0.3553215115290291 -0.563373272176528
2740000000.0 -0.19459011050104616 -0.6413962763890251
2760000000.0 -0.15415866060306666 -0.6530260722942449
2780000000.0 0.6656678871968845 0.02862524051300578
2800000000.0 0.6241590905693507 0.20715795506763118
2820000000.0 0.2616901366312704 0.5892643011569465
2840000000.0 -0.5646732327911367 0.2862084610035148
2860000000.0 0.25855213168039964 -0.5633605303317633
2880000000.0 -0.270103795312207 0.538899721769041
2900000000.0 0.5680646874104478 -0.13907650041406786
2920000000.0 -0.38187795914539263 -0.4170322645605597
2940000000.0 -0.48340826616499916 0.23927181411139914
2960000000.0 -0.0686511373421719 0.5137586286546371
2980000000.0 0.41858075110746584 0.261201942168424
3000000000.0 0.2684860440458264 -0.3879003435432205
3020000000.0 -0.39166624034640124 -0.2179880196882298
3040000000.0 0.337610812741959 0.2546963501944735
3060000000.0 -0.06996459786982488 -0.387289689005008
3080000000.0 -0.11518834270529796 0.35221331016578566
3100000000.0 0.07776795052014843 -0.34193850610041177
3120000000.0 -0.1126699446155895 -0.3169052014895486
3140000000.0 -0.053802808739674926 0.3271972245000182
3160000000.0 -0.02383606887144076 -0.32479494410333876
3180000000.0 0.0026696222002818813 0.321651670586338
3200000000.0 0.09655624198332882 -0.3024814625047853
3220000000.0 -0.3024261421060839 0.045645707411578106
3240000000.0 -0.22581110263786172 0.1860417162713843
3260000000.0 -0.2092830131970984 0.1811049000497198
3280000000.0 -0.13334751621363794 -0.22489621709503715
3300000000.0 0.1630233698847549 -0.18488666651950467
3320000000.0 0.03487932988453417 0.2229451736292826
3340000000.0 -0.20839529541280374 0.008363794535889878
3360000000.0 -0.06288000001194591 -0.17115982414309824
3380000000.0 -0.15268170931835928 -0.015293452756325099
3400000000.0 0.03193626210573416 0.126282542004045
3420000000.0 -0.10720774405377959 -0.04922141929333875
3440000000.0 0.09970117857655653 -0.044189121668833854
3460000000.0 0.055458502157737226 0.08425165218127068
3480000000.0 -0.07795249718190779 -0.042785914962603554
3500000000.0 -0.040225015199616056 0.06887108286686039
3520000000.0 -0.016251994205679257 0.06761119163335866
3540000000.0 -0.06563752570067667 0.00801875356785554
3560000000.0 0.003828968861954458 -0.06747209066044328
3580000000.0 0.052497670271669857 -0.05473121234629407
3600000000.0 -0.06608853336407136 -0.059953286543198835
3620000000.0 0.09536269288726817 -0.029775319385496078
3640000000.0 0.019397617194083918 0.10679518272722657
3660000000.0 0.025006918403383645 0.10968086031821703
3680000000.0 -0.013055321061561083 -0.10966968013447234
3700000000.0 -0.07373465631056489 -0.06890267808791424
3720000000.0 0.04711156188099756 -0.07846918625783156
3740000000.0 0.028080810137190677 -0.07706733249149901
3760000000.0 -0.04032933808626193 -0.06554868117029984
3780000000.0 0.02988712513828582 0.05804713132082431
3800000000.0 0.021054675357704337 -0.038235990739699514
3820000000.0 0.014501745157642574 -0.03855326226617507
3840000000.0 -0.04705738737333276 -0.010614010074834371
3860000000.0 0.026012753345719068 0.07113993613851972
3880000000.0 -0.08414916993142445 -0.035005675627483114
3900000000.0 0.056397867394839686 -0.08769249300749339
3920000000.0 -0.10626533796880354 -0.010374242677569858
3940000000.0 0.0913209879817134 0.05743772848512532
3960000000.0 0.064426890178765 -0.0817108680250639
3980000000.0 -0.09266000702624554 0.03067640930133704
4000000000.0 0.026785857913304185 0.08132969027973436
