!Created with skrf (http://scikit-rf.org).
# Hz S RI R 50.0 
!freq ReS11 ImS11
400000000.0 -0.7615918124869007 0.33351034940341995
420000000.0 0.054290422102302414 -0.7645690555709357
440000000.0 0.5272012587810928 -0.5241778204640147
460000000.0 -0.11841839222041943 -0.6415910482479414
480000000.0 -0.19702176446204733 -0.508802145548335
500000000.0 -0.35930581727648686 0.18178546491797323
520000000.0 -0.3762419904568409 0.24119615877826242
540000000.0 0.4485281734287412 -0.19717838918115746
560000000.0 0.31482342532632784 -0.35378474075722977
580000000.0 0.34294314737570186 -0.25030486409528496
600000000.0 -0.364531091046463 -0.019399018287126344
620000000.0 -0.2275294546506157 -0.2762277633110665
640000000.0 -0.09413089573793511 0.3514597791170935
660000000.0 -0.32744084951461877 0.14508806822973738
680000000.0 0.11618220657838628 0.3319246099696897
700000000.0 -0.1614710674321482 0.30190119600165227
720000000.0 0.07139027970892149 0.34760629624932704
740000000.0 0.24047556697670994 0.22531241666921883
760000000.0 -0.20603695718227832 -0.2506589066645667
780000000.0 -0.2885111618363698 -0.0691756703841841
800000000.0 0.25505136812450246 0.032878717422349726
820000000.0 -0.2073818817840407 0.08948877488347705
840000000.0 0.13175682150962453 -0.181577601080749
860000000.0 0.10285687182338665 0.16027939247332715
880000000.0 -0.08185248316533837 -0.17902538016789346
900000000.0 0.05441885835922369 0.1465366001062121
920000000.0 0.02718348509487138 0.13989815335122674
940000000.0 -0.11736345132204606 0.06713605611575428
960000000.0 0.1102295746742017 0.016378427169272094
980000000.0 0.002569090197160093 0.06719412594311278
1000000000.0 -0.03684711500670244 -0.006287410995107926
1020000000.0 -0.026129818222640426 0.04033878590817516
1040000000.0 -0.0009053080757056795 -0.0804947664123385
1060000000.0 0.11039163614147937 0.017286473630936938
1080000000.0 0.02213769082358732 0.15891482171575927
1100000000.0 -0.15200708261725623 -0.10698222193346066
1120000000.0 -0.20455186192811572 0.05145063559668003
1140000000.0 0.11580767299465314 -0.22174929433972823
1160000000.0 0.21441949411703945 0.18552074059111018
1180000000.0 0.2909997108245234 0.09990564162293673
1200000000.0 0.23271401887065518 0.22040713409404086
1220000000.0 0.2613177033918742 0.1902802287462005
1240000000.0 -0.20921831719043635 -0.2600565389841033
1260000000.0 -0.2918253099734716 0.18141980386170103
1280000000.0 -0.3357594694759933 0.053185735904794126
1300000000.0 0.3003554703435271 -0.17831017160967685
1320000000.0 0.3519959714494648 -0.09296341654081555
1340000000.0 -0.268169345902014 0.2561459933862267
1360000000.0 -0.13475963824862103 -0.3619534710661226
1380000000.0 0.22087551200656189 -0.31087525895649765
1400000000.0 -0.3772041185916436 -0.022901445409221014
1420000000.0 -0.010820102674990827 0.3784098738036924
1440000000.0 0.3494982394160236 -0.115445927696991
1460000000.0 0.11974617411443193 -0.33898622933416067
1480000000.0 0.08547213281198197 -0.3371943336725749
1500000000.0 -0.11874167901077791 0.31501072189836093
1520000000.0 0.1256906746504376 -0.2861619635194344
1540000000.0 -0.10961568893959713 0.25322045736591
1560000000.0 0.22009258410561514 0.10059345628250105
1580000000.0 -0.04361547316258293 -0.20880311896543846
1600000000.0 0.1251018453671246 0.1302086783612171
1620000000.0 -0.02467982902107728 -0.15940828465857657
1640000000.0 -0.10871676813560746 -0.0848959441876074
1660000000.0 0.09237673816986294 -0.049097623428840775
1680000000.0 -0.07908170775335786 -0.034533802734121585
1700000000.0 0.06710652937366517 0.04071125402330932
1720000000.0 -0.04741612846754644 0.024619924162470178
1740000000.0 -0.04775378019706723 -0.0016321880290347173
1760000000.0 0.027919774413333112 -0.05645678323659212
1780000000.0 -0.028762382355003842 0.08809911211984779
1800000000.0 0.11646837896048949 0.038167987443445316
1820000000.0 0.13953042072344746 0.06948079585784145
1840000000.0 0.17109798658668912 0.08934295880467977
1860000000.0 0.21458017229224083 -0.030456531313605335
1880000000.0 0.16208144212768813 0.17755989617880183
1900000000.0 0.2599767612506471 -0.06309343732589671
1920000000.0 -0.28574312493772275 -0.04281264839761718
1940000000.0 0.19099375191830054 0.23244297955101975
1960000000.0 -0.30760485766249324 0.06290914487366438
1980000000.0 -0.13072869010967889 -0.2889200126883578
2000000000.0 0.23733594921306522 -0.2029365551835695
2020000000.0 0.285842767082142 0.13363882461592086
2040000000.0 0.23319387742585956 0.20854147705482654
2060000000.0 0.023899037350838932 0.3066601464962123
2080000000.0 -0.28533372781720767 0.11131506673959451
2100000000.0 0.2864078202630957 0.11505855533273411
2120000000.0 -0.19556929119758876 0.23989082608095708
2140000000.0 0.010367715127893083 -0.3010835977966897
2160000000.0 -0.1419662275522687 0.2641631661951635
2180000000.0 0.2180393006658495 0.19273301941358625
2200000000.0 0.28573664353296113 0.007617792775108972
2220000000.0 0.2768535377078507 -0.004552305782282406
2240000000.0 0.09999152258986213 0.254263586371388
2260000000.0 -0.03414475154591887 0.2571186935807931
2280000000.0 -0.2280666750832067 -0.09683687661192679
2300000000.0 0.23184344540155297 0.05246072260749168
2320000000.0 -0.11338411190171967 0.20238190871281087
2340000000.0 0.10184513206984512 -0.1961369700798201
2360000000.0 -0.1882802069762426 0.11768147716222048
2380000000.0 0.18133971517949274 -0.13926031159750085
2400000000.0 -0.10786059382310446 0.22114979887101863
2420000000.0 0.19496921568977416 0.19490888462337266
2440000000.0 -0.19170618368599296 -0.23185038933659638
2460000000.0 0.14478569990086262 0.3002988299091438
2480000000.0 0.24433418467769485 -0.2754454540187726
2500000000.0 0.30611078610530035 0.2689266236777308
2520000000.0 -0.3972207357401148 0.19593018491362954
2540000000.0 -0.20755443227773754 -0.43252030972717886
2560000000.0 0.4901178463481404 0.15989051501747584
2580000000.0 -0.5252602944399476 0.14870722346907986
2600000000.0 0.39689067748078455 -0.4162959610868515
2620000000.0 0.018108951250070768 0.5999087927465472
2640000000.0 -0.36520149542468117 -0.4995263787510707
2660000000.0 0.6330713112817883 -0.04949468868371652
2680000000.0 -0.06469862423072795 0.6427223502850339
2700000000.0 -0.6338591167890061 0.16608898368925842
2720000000.0 -0.6269117006381227 -0.21137207184200824
2740000000.0 -0.613660802364951 -0.25550526403004425
2760000000.0 -0.563943675529529 -0.35421481228908774
2780000000.0 0.43680052075630466 -0.4967254653469296
2800000000.0 0.6277927356039084 -0.18179481267879113
2820000000.0 0.5816289190857376 0.2743293011340659
2840000000.0 -0.3222108806517247 0.5423973889489652
2860000000.0 -0.11114875545615194 -0.6078455963353391
2880000000.0 -0.025081296518768715 0.6016840508538572
2900000000.0 0.4737920461759618 -0.3457933199660187
2920000000.0 -0.493037257320295 -0.27829163103376675
2940000000.0 -0.3424026808246125 0.4158591312398427
2960000000.0 -0.0498386977250575 0.5159865071977928
2980000000.0 0.4535302738422421 0.20506152163323246
3000000000.0 0.0774284721548567 -0.4635209682367019
3020000000.0 -0.44487379646513553 -0.007901050943962097
3040000000.0 0.40291692670375373 0.11595630025038772
3060000000.0 -0.2626261998639279 -0.2906862392976737
3080000000.0 0.07948818068121581 0.3586703133040488
3100000000.0 -0.2262601840498256 -0.27079763810302176
3120000000.0 -0.3363716269610081 0.019652440930392864
3140000000.0 0.27485160544797876 0.18150161613773522
3160000000.0 -0.1878746467021321 -0.26999676765525726
3180000000.0 0.15838872268263493 0.2864377597537215
3200000000.0 -0.058557137372749486 -0.31683372704765594
3220000000.0 -0.28797503120920276 0.11812308132469082
3240000000.0 -0.2158302249553071 0.20465509553357342
3260000000.0 -0.2741276171683832 -0.04724880541981756
3280000000.0 -0.01913711385802732 -0.2656773707729221
3300000000.0 0.24672266881517957 -0.02900552657859807
3320000000.0 -0.10034360180120222 0.2042674350861881
3340000000.0 -0.19541020537495155 -0.06847723382634709
3360000000.0 0.11185534189002636 -0.1362975262953801
3380000000.0 -0.1414570392202388 -0.05756580726203444
3400000000.0 0.008119940608934706 0.12706942813892885
3420000000.0 -0.08169161702254234 -0.08131451169145011
3440000000.0 0.10317935063440481 0.027966457748449736
3460000000.0 0.09887168017684184 0.014253352143193152
3480000000.0 -0.04979627111303986 -0.07567454221793148
3500000000.0 -0.025190780576227857 -0.07388751372064661
3520000000.0 -0.02995072364906464 0.06238675212334088
3540000000.0 -0.06504237807027206 0.029384342772513106
3560000000.0 -0.014909073285021281 -0.0687214597527718
3580000000.0 0.02894396934048583 0.07275962051073603
3600000000.0 0.09057895143264437 0.014523509959965313
3620000000.0 -0.07687262463662402 0.0690187432913747
3640000000.0 -0.015392055298902745 0.10680859892170755
3660000000.0 0.0722437920540612 0.08668232007675816
3680000000.0 -0.0013014791491329247 -0.10629310662013894
3700000000.0 0.09867302011003629 -0.029694889872643945
3720000000.0 0.044582041488302596 -0.08166788780144149
3740000000.0 -0.012513398392003841 -0.07985329425048736
3760000000.0 -0.04240249106250076 -0.06286790299435695
3780000000.0 -0.03997715710752135 0.04964558209335183
3800000000.0 0.004622224522937481 -0.04555204798268618
3820000000.0 0.03447440185742789 0.015706566537372905
3840000000.0 0.05064596942521916 0.00613818980165252
3860000000.0 0.02729558349048719 0.06958540373245334
3880000000.0 -0.004669047822194739 -0.09307916434423191
3900000000.0 0.07661598165209514 -0.0712079026492898
3920000000.0 -0.026489965606529005 0.10233162127632142
3940000000.0 0.009637716135506506 0.10560756159774821
3960000000.0 0.003096288380356379 -0.10649135952771774
3980000000.0 0.09489956963748845 0.02204484331981751
4000000000.0 0.07279474258367828 -0.042751524800055174
