!Created with skrf (http://scikit-rf.org).
# Hz S RI R 50.0 
!freq ReS11 ImS11
400000000.0 -0.7649874689757907 0.3269457223277311
420000000.0 0.17717097396243398 -0.7432734818027965
440000000.0 0.44130747846814694 -0.5988511472054701
460000000.0 -0.0864738953161558 -0.6472367660587444
480000000.0 -0.3334153034861443 -0.432444780653674
500000000.0 -0.39934747981847374 0.04375957924652703
520000000.0 -0.3538701139025457 0.27462074780211476
540000000.0 0.4582674842718187 -0.1709809289724463
560000000.0 0.269983939256683 -0.38838884661136525
580000000.0 0.3786306755564059 -0.18577538633018353
600000000.0 -0.36080024891674917 -0.06025004698399246
620000000.0 -0.3385655635000148 -0.11361244226063989
640000000.0 -0.23568467563056042 0.2778747657736568
660000000.0 -0.240577068582448 0.2649811326128141
680000000.0 0.18522456835542445 0.299526021423987
700000000.0 -0.19866757266289028 0.27770136327454026
720000000.0 0.05577210089010044 0.3519400389000382
740000000.0 0.2062702083551372 0.25838742757478966
760000000.0 -0.18519832017544663 -0.26596764746600154
780000000.0 -0.2883185115475001 -0.07074035480950891
800000000.0 0.2550183776810016 0.01537579016555844
820000000.0 -0.22549885383690205 -0.002131413993371513
840000000.0 0.12500464013651444 -0.1883919197914482
860000000.0 0.09325118990557729 0.16745475349314587
880000000.0 -0.13084315847677913 -0.1447958514642562
900000000.0 -0.020121799225719557 0.1558372874039069
920000000.0 -0.027947281087173148 0.13994057449339556
940000000.0 -0.11032236143324173 0.07862179176205242
960000000.0 0.1096263725031645 -0.021755458227081418
980000000.0 0.03470996708515655 0.056693728443834454
1000000000.0 0.016049040534124013 -0.03446141170848137
1020000000.0 -0.019120047171564084 0.04528213713311245
1040000000.0 -0.036155287525806004 -0.07048606406713748
1060000000.0 0.10945165212600616 0.023300913992791893
1080000000.0 0.03414980940165455 0.1579449449441723
1100000000.0 -0.1397391184375365 -0.12274860664963795
1120000000.0 -0.21026028202217403 0.018644385952017343
1140000000.0 0.07289174995492438 -0.2400805545997054
1160000000.0 0.2070686234887364 0.19304166067095832
1180000000.0 0.2704458852565083 0.14762468438609247
1200000000.0 0.22503894477012332 0.22824679979233978
1220000000.0 0.2578049095404127 0.1944088727508843
1240000000.0 -0.2170314294409683 -0.2540226001797897
1260000000.0 -0.2917277400991955 0.17854527620373503
1280000000.0 -0.33975791136341216 0.01931065538044834
1300000000.0 0.25091962511109905 -0.24233627113137168
1320000000.0 0.3580275826765785 -0.06600739743253861
1340000000.0 -0.27764878326406184 0.24610761828822542
1360000000.0 -0.15324812006357452 -0.35282506285310744
1380000000.0 0.24694688768522585 -0.29234949312384745
1400000000.0 -0.3737241866501682 -0.05665110272645912
1420000000.0 0.0613728373601696 0.3732112422778732
1440000000.0 0.3631264199165615 -0.05528764222578788
1460000000.0 0.15023606418311983 -0.3261367512739998
1480000000.0 -0.04748762558871269 -0.34269037759518595
1500000000.0 -0.11823733719034148 0.3146906897367562
1520000000.0 0.17488913327200328 -0.25957658405276174
1540000000.0 -0.132755195315489 0.24185984820423523
1560000000.0 0.2010167258311275 0.1338533227470638
1580000000.0 -0.05821851082873454 -0.20546846772040647
1600000000.0 0.14440206369585665 0.10787684272207682
1620000000.0 0.023492638679686154 -0.1595104361723436
1640000000.0 -0.12018341421677603 -0.06757857125986136
1660000000.0 0.04175106549828113 -0.09665115873856049
1680000000.0 -0.052593600731222656 -0.06946559889785583
1700000000.0 0.07971690862606934 0.00400298193564162
1720000000.0 -0.053501183421442014 -0.009552773309026234
1740000000.0 -0.00893605472781566 0.04809701184146301
1760000000.0 0.042127139943092445 -0.048317612111920746
1780000000.0 -0.04409544193945382 0.08215865531336823
1800000000.0 0.12118120031965192 -0.01892269432505454
1820000000.0 0.14456649835362098 0.05960972145062383
1840000000.0 0.12821137817521508 0.14497190921703892
1860000000.0 0.2117536402241066 0.048107778381548436
1880000000.0 0.1071118388306071 0.21578961492458262
1900000000.0 0.2663459906377836 -0.0018684922132581232
1920000000.0 -0.2753277570790536 -0.08536350703609887
1940000000.0 0.16976172416386837 0.24867114911964686
1960000000.0 -0.3072283677410389 0.06193249407080951
1980000000.0 -0.12605113052331537 -0.2901741246204318
2000000000.0 0.2262244874040066 -0.21506007722101084
2020000000.0 0.2984790612294829 0.10176982474638882
2040000000.0 0.24734842147206249 0.19349451113976557
2060000000.0 0.029355957072459665 0.30739718410883327
2080000000.0 -0.2793915086726133 0.12925855393079777
2100000000.0 0.2583804462325946 0.17126610024372405
2120000000.0 -0.24235313954728846 0.1939429103208818
2140000000.0 0.0938498284613029 -0.2868689885474273
2160000000.0 -0.20843874261708695 0.21517091060455742
2180000000.0 0.19708960394063915 0.21414395282775947
2200000000.0 0.28148011939394474 0.040985971008611406
2220000000.0 0.2753203406364053 0.02162550861740485
2240000000.0 0.07981372184476679 0.26101244824790304
2260000000.0 0.033019081894671516 0.25729166910406376
2280000000.0 -0.24010503101875344 -0.06130146848376855
2300000000.0 0.23720073146866677 0.009028407854358272
2320000000.0 -0.10498406283376684 0.20680368715822842
2340000000.0 0.10747333252850781 -0.19391632651205093
2360000000.0 -0.15918815738349884 0.15543364246661467
2380000000.0 0.17178272285562135 -0.1502935789951271
2400000000.0 -0.10611533734371087 0.22269991239731451
2420000000.0 0.16189944473975257 0.22375707028204941
2440000000.0 -0.19432370318880143 -0.23055505158231052
2460000000.0 0.12952658473767262 0.30721562274903547
2480000000.0 0.29991525650016787 -0.21129614980984518
2500000000.0 0.26230352928333883 0.31122953124046937
2520000000.0 -0.4170693155762924 0.1493443020361201
2540000000.0 -0.17574826664237223 -0.4468910372125904
2560000000.0 0.4695366672768364 0.2109849198687173
2580000000.0 -0.5328957600178523 0.11605697457315858
2600000000.0 0.3627056787331922 -0.44674250007999466
2620000000.0 -0.014459133138286007 0.6002425618233422
2640000000.0 -0.2984462285423149 -0.5425860137961669
2660000000.0 0.6335193529537341 0.04318850684250846
2680000000.0 -0.10153816566229645 0.6378678018522916
2700000000.0 -0.6488282193988766 0.10055919380423903
2720000000.0 -0.6111963790153724 -0.2565951045913063
2740000000.0 -0.5264491053196685 -0.4068920330741508
2760000000.0 -0.48347235832055624 -0.45976019992972633
2780000000.0 0.5423048451863548 -0.37977506052987214
2800000000.0 0.6346405267846246 -0.15877615665527947
2820000000.0 0.5517316889301053 0.33083789921615797
2840000000.0 -0.32194544530736885 0.5427852867871992
2860000000.0 -0.03158340136798808 -0.6174620394411339
2880000000.0 -0.0584767978617361 0.5993512636064527
2900000000.0 0.4760658142301183 -0.34218849026900183
2920000000.0 -0.5101671899150158 -0.24621853202399355
2940000000.0 -0.34239168447505863 0.41708099139506616
2960000000.0 -0.047438039999578796 0.5170519383707131
2980000000.0 0.4710884026021059 0.16207514068570145
3000000000.0 -0.0019141899146353672 -0.47118550247436175
3020000000.0 -0.4465330893768754 0.017418485584153123
3040000000.0 0.41485379618902285 0.07501542627661519
3060000000.0 -0.19270672986806195 -0.34297007879471825
3080000000.0 -0.005140390148976632 0.3690172804710442
3100000000.0 -0.11320300354542825 -0.33567512236704383
3120000000.0 -0.3233548384601716 -0.0966173881071884
3140000000.0 0.19522035383355035 0.26651570796077423
3160000000.0 -0.11423311977277453 -0.3084689604768809
3180000000.0 0.08961418912189958 0.31365391100954415
3200000000.0 -0.03570874010756813 -0.3189187728000526
3220000000.0 -0.2892814479457933 0.11394163433037274
3240000000.0 -0.18978115466303103 0.22637670311150987
3260000000.0 -0.27665520912714764 0.023074042690285724
3280000000.0 -0.10536956837409692 -0.24576677520127108
3300000000.0 0.17232447097304987 -0.17713743695172746
3320000000.0 0.03930753793949955 0.22502716518195093
3340000000.0 -0.21006286833872456 0.012002438297159745
3360000000.0 0.10027351806585583 -0.150814357511616
3380000000.0 -0.15216833078072203 -0.03161248211558217
3400000000.0 -0.05760182115111129 0.11517685024104396
3420000000.0 0.024345198695760392 -0.11522726212164713
3440000000.0 0.09449798564128079 0.05360524020737995
3460000000.0 0.0760491285303935 0.06550676325793858
3480000000.0 0.012665528412801509 -0.09019037095899626
3500000000.0 0.06292564384898464 -0.04616471284825982
3520000000.0 -0.0668085178144373 0.014574433139210785
3540000000.0 -0.06615520136253811 -0.020413585290154072
3560000000.0 -0.013645739172234059 -0.06713531884065534
3580000000.0 0.07530808476931071 -0.015100091879589274
3600000000.0 0.06277028781211208 -0.0651179250486934
3620000000.0 -0.006511201726032861 0.10274944419787978
3640000000.0 0.049059012190892794 0.09729737687334696
3660000000.0 0.10396807222249545 0.04860170980653962
3680000000.0 -0.08491686197757675 -0.06539293983846971
3700000000.0 0.101298990723715 0.021480735629052394
3720000000.0 0.0831306511039245 -0.04640579619788709
3740000000.0 -0.000387038176164816 -0.08338059576379554
3760000000.0 -0.06677483916074833 -0.03865245117178787
3780000000.0 -0.03290928930765561 -0.055556685332231924
3800000000.0 0.04642079735938724 -0.014626243691111701
3820000000.0 0.00033915244648513777 -0.03992065316417858
3840000000.0 0.032316167201627666 -0.04116247108879071
3860000000.0 0.05835097224740732 0.04916238142401767
3880000000.0 -0.0718992840719278 -0.06134566625444857
3900000000.0 0.029510944692188415 -0.10012501426506241
3920000000.0 -0.08097387617488108 0.06710583872302829
3940000000.0 0.015000375130323223 0.1058681856519866
3960000000.0 -0.03157674359161236 -0.10166083190544495
3980000000.0 0.0975942587781449 -0.00015499384573791237
4000000000.0 0.08522823774350882 -0.008850728726840246
