!Created with skrf (http://scikit-rf.org).
# Hz S RI R 50.0 
!freq ReS11 ImS11
400000000.0 -0.7204536932085966 0.4153483359319909
420000000.0 0.1611697675474572 -0.7470156127373917
440000000.0 0.5057637460660923 -0.5456643571432855
460000000.0 -0.23870577475383056 -0.608562706184786
480000000.0 -0.25271247728567847 -0.4833643824711237
500000000.0 -0.3828051298520575 0.12167010072842366
520000000.0 -0.4365165188545598 0.09589337392146137
540000000.0 0.3820704342780236 -0.3067878463924362
560000000.0 0.24726292915773104 -0.4018396619085434
580000000.0 0.3143493549742947 -0.286623171460915
600000000.0 -0.3638443016171345 0.002530314498723803
620000000.0 -0.13566133391537055 -0.33358022106063095
640000000.0 -0.069140299497988 0.3579964830249715
660000000.0 -0.2807617175231831 0.21959618332629635
680000000.0 0.04343463625159285 0.34793054160805303
700000000.0 -0.13639765978593252 0.31573927279676617
720000000.0 0.07325510283767893 0.34663745513601174
740000000.0 0.2031082780673425 0.259851039322108
760000000.0 -0.22776674249500498 -0.23221619919048925
780000000.0 -0.2886746903294519 -0.06389691525962612
800000000.0 0.2407528147058249 0.0903508651411596
820000000.0 -0.19765176574809362 0.11012816176991719
840000000.0 0.16784226719076809 -0.14993685202957419
860000000.0 0.08584957455813667 0.16996291995844934
880000000.0 -0.14692628370627614 -0.12882195942862873
900000000.0 -0.0276985356706127 0.15453666645339192
920000000.0 0.06868851920233096 0.12597448345289577
940000000.0 -0.10620019027303863 0.08518719340086248
960000000.0 0.0752077977122651 0.0803775637271137
980000000.0 -0.02752753870896075 0.061296226211372574
1000000000.0 -0.032580444549901555 -0.021462251582639345
1020000000.0 0.047993044638315156 -0.00538234104441736
1040000000.0 -0.020627662728066497 -0.07623103440847162
1060000000.0 0.11161750442889169 0.018249268794859472
1080000000.0 0.06215744797071882 0.14917847164608938
1100000000.0 -0.09970523221981331 -0.15740012826578512
1120000000.0 -0.21194601842665622 -0.006632487103237406
1140000000.0 0.07199959282224605 -0.23894029212977877
1160000000.0 0.1626230225069269 0.2319347311242681
1180000000.0 0.28969921747333355 0.10577520356447431
1200000000.0 0.24710327488083006 0.2050310066040879
1220000000.0 0.22804276388508188 0.22807575402903693
1240000000.0 -0.23725470797833964 -0.2348896182324297
1260000000.0 -0.30980092011070076 0.14566220159402207
1280000000.0 -0.3379564688849374 0.04276452287023482
1300000000.0 0.2885425277392128 -0.19816104384614738
1320000000.0 0.3412630098639195 -0.1251881889828919
1340000000.0 -0.2846829557055755 0.23633254086738287
1360000000.0 -0.14110749245662757 -0.360692108597371
1380000000.0 0.19653008435686684 -0.327243180073
1400000000.0 -0.3697862655613139 -0.07730181925880421
1420000000.0 -0.03843355045970274 0.37685138927389894
1440000000.0 0.36098250645377694 -0.0677224648586725
1460000000.0 0.10771384507351867 -0.3429229586787019
1480000000.0 0.021548337330929274 -0.34588641629178035
1500000000.0 -0.13094750638133548 0.30974071101755946
1520000000.0 0.13535289637770015 -0.28221310224703705
1540000000.0 -0.10088334886584496 0.25658267458498807
1560000000.0 0.20930665202088503 0.12114390878100942
1580000000.0 -0.030617332093830534 -0.2110432282797904
1600000000.0 0.11323268150701 0.14156238149337305
1620000000.0 -0.03735334321277541 -0.1562295347881552
1640000000.0 -0.08749064831487725 -0.1049128556413486
1660000000.0 0.05624701941346594 -0.0887839253880897
1680000000.0 -0.07664298170117692 -0.04142616419159232
1700000000.0 0.05245984086536523 0.058388966590123006
1720000000.0 -0.05459057960972624 -0.003068648622321527
1740000000.0 -0.047865903970555373 0.006473129073548018
1760000000.0 0.054414897908234214 -0.03294876017837577
1780000000.0 -0.04206890270707984 0.08270356683059334
1800000000.0 0.11560638442803853 0.04021486564424997
1820000000.0 0.1356432239984843 0.07692942490108626
1840000000.0 0.13027808838486057 0.1430801387336743
1860000000.0 0.21768566254167487 -0.0027828253913003745
1880000000.0 0.12584412824091692 0.2039498400181277
1900000000.0 0.2665020568975059 -0.010412222316612624
1920000000.0 -0.27410907447944505 -0.09032572396234519
1940000000.0 0.22251999722051077 0.2032205567079583
1960000000.0 -0.30164184720219805 0.08479314214453583
1980000000.0 -0.13547306121268296 -0.28628602995745495
2000000000.0 0.25634321620893963 -0.17735892052323118
2020000000.0 0.31101147765777526 0.05441445977661396
2040000000.0 0.22622852081176287 0.21734712718418908
2060000000.0 0.06870031079674994 0.3004139850386263
2080000000.0 -0.2719092033804816 0.1417114024580265
2100000000.0 0.25233657624389133 0.17819948731335544
2120000000.0 -0.24118013706615973 0.1957598406197983
2140000000.0 -0.001983495635749947 -0.30120337664996927
2160000000.0 -0.1635484501148284 0.2508209202270133
2180000000.0 0.21022324878309284 0.20043429693672207
2200000000.0 0.28341413146300715 0.029633027634543643
2220000000.0 0.26805594466653065 0.0695190333164612
2240000000.0 0.15919325213930102 0.2224072913660812
2260000000.0 0.03443529780604112 0.256680318839353
2280000000.0 -0.2267823912949475 -0.09836337821308404
2300000000.0 0.23623567151657285 0.03500176597790922
2320000000.0 -0.11661056543711662 0.20143262031543374
2340000000.0 0.06948804206756537 -0.20885825701502822
2360000000.0 -0.1862239237446872 0.12086315887042352
2380000000.0 0.16911944637424586 -0.1539408651939373
2400000000.0 -0.11840452904897597 0.21605874215327342
2420000000.0 0.15564620883076033 0.22711343784106694
2440000000.0 -0.19162923243484514 -0.23268090758239007
2460000000.0 0.11837504179544114 0.3111516702801263
2480000000.0 0.27577932089410595 -0.24271981358789677
2500000000.0 0.3165034667136634 0.25733344799573166
2520000000.0 -0.3629441294731539 0.2551655371469293
2540000000.0 -0.20513286804626943 -0.43376686296112577
2560000000.0 0.47372694548224803 0.20220723954720987
2580000000.0 -0.5348362063949382 0.10878744218413955
2600000000.0 0.370336822166188 -0.4405584293076886
2620000000.0 -0.02008651578214512 0.5997495393243762
2640000000.0 -0.34446440614606993 -0.5137827793901764
2660000000.0 0.6343373354814763 -0.019296625941581814
2680000000.0 -0.10646495627530217 0.6370791157611476
2700000000.0 -0.6441562074836549 0.12305668744031292
2720000000.0 -0.5999856342603732 -0.27934941657296714
2740000000.0 -0.5790932291843666 -0.3266052265275712
2760000000.0 -0.5042418703155153 -0.4358354770166327
2780000000.0 0.5478501345723664 -0.3708472706600607
2800000000.0 0.642578646928854 -0.12036573100952833
2820000000.0 0.5550918075131703 0.32529035180643584
2840000000.0 -0.3107552549683811 0.5491774578429475
2860000000.0 -0.03373682844628002 -0.6175066600944726
2880000000.0 -0.04504909701895868 0.6006763601834156
2900000000.0 0.4927607885710928 -0.31783381917189885
2920000000.0 -0.5042549820510986 -0.25719881246505927
2940000000.0 -0.34438350961183695 0.413849251353087
2960000000.0 -4.209426030806548e-05 0.5181260536714009
2980000000.0 0.46102571857469227 0.18823955309611595
3000000000.0 0.011445368106650929 -0.4694045900387132
3020000000.0 -0.44550494569929716 0.025182212295814823
3040000000.0 0.41996343441815226 0.03696767458833145
3060000000.0 -0.22709236661209284 -0.3205911245703217
3080000000.0 0.008935861775343132 0.3681063253942459
3100000000.0 -0.05726405619437389 -0.34762445970832895
3120000000.0 -0.3361236475675747 -0.03173843462631973
3140000000.0 0.25537674319831255 0.20834126625379631
3160000000.0 -0.15863748417625315 -0.28783858714727467
3180000000.0 0.12903631818107564 0.2996649247220953
3200000000.0 -0.04063827507866197 -0.3180019105532837
3220000000.0 -0.2940042248740409 0.10051020854185863
3240000000.0 -0.1657627461102466 0.24567346456740913
3260000000.0 -0.26925708383176067 0.06739585890241151
3280000000.0 -0.06854353368418133 -0.2582416283614569
3300000000.0 0.23073477069540446 -0.08934040751494357
3320000000.0 -0.04818075782994531 0.22311954721475677
3340000000.0 -0.20693558009634241 0.0310566906971864
3360000000.0 0.09598976454853034 -0.15238521731625765
3380000000.0 -0.10120718324426071 -0.11713492396875608
3400000000.0 -0.05454566230405067 0.11698132758235885
3420000000.0 -0.019190447916077 -0.11594848670126692
3440000000.0 0.07244026569757486 0.08040613589028484
3460000000.0 0.04735440802052903 0.08885481418022424
3480000000.0 0.004175297108394145 -0.09039606941910132
3500000000.0 0.03703455146064571 -0.06802415939826734
3520000000.0 -0.06752831275493208 -0.014215769961273309
3540000000.0 -0.046246593318669614 0.05319742338486269
3560000000.0 -0.044182266094049905 -0.0537177113119637
3580000000.0 0.07663966736291868 -0.009526485064965331
3600000000.0 0.09115767289180508 -0.00010932983258112668
3620000000.0 -0.018442762565498733 0.10271860583804138
3640000000.0 0.036582076456497574 0.10348702790201068
3660000000.0 0.09791080397586036 0.05788611678279725
3680000000.0 0.034313329929318584 -0.10106250728060791
3700000000.0 0.1032325676072715 0.005519680826172524
3720000000.0 0.07009593521179992 -0.06322735130099748
3740000000.0 0.007819689699857003 -0.08108108634270532
3760000000.0 -0.020037250647713493 -0.0730879546143931
3780000000.0 -0.05321097640202026 -0.036938578593933624
3800000000.0 0.04586113525296889 -0.0013553542228519938
3820000000.0 0.037954342521238506 0.0038687437923487565
3840000000.0 0.047460157663726577 -0.021210057977815826
3860000000.0 0.0649569558312212 0.03791737249452434
3880000000.0 -0.038872798124831354 -0.08478757547142313
3900000000.0 0.07872189015259957 -0.0682958590312279
3920000000.0 -0.04231742578061873 0.09726464261964562
3940000000.0 0.040517735374781844 0.09789765858532333
3960000000.0 0.012102940144964373 -0.10528646827602445
3980000000.0 0.09854456420598164 0.004714799526289134
4000000000.0 0.05887679868680092 -0.0626060644977399
