!Created with skrf (http://scikit-rf.org).
# Hz S RI R 50.0 
!freq ReS11 ImS11
400000000.0 -0.7267911656631659 0.40339946589911735
420000000.0 0.1039525255521233 -0.7590222755311823
440000000.0 0.4947564672502928 -0.5539236375108555
460000000.0 -0.2086893461042541 -0.6184314149378679
480000000.0 -0.24341647542922812 -0.48849641193658355
500000000.0 -0.33690076469897356 0.21801699210320885
520000000.0 -0.38987506207999356 0.2186786828207746
540000000.0 0.4109392519928714 -0.2657584746274998
560000000.0 0.328262762571025 -0.3417784828339232
580000000.0 0.31999258978841066 -0.2799521091436972
600000000.0 -0.3617559536856589 -0.04800863766757507
620000000.0 -0.20638136604586804 -0.2936126074274903
640000000.0 -0.05526929059250202 0.35970505327361285
660000000.0 -0.34750320775594906 0.0864279209214096
680000000.0 0.11645332704208192 0.33111420284247445
700000000.0 -0.13021581313099703 0.3178964568636175
720000000.0 0.04102422811665086 0.35274829233782806
740000000.0 0.21157058945398033 0.2520375987288364
760000000.0 -0.1558334347331816 -0.284250145762323
780000000.0 -0.29481636051044974 -0.03423021422054766
800000000.0 0.25660273848423537 -0.014769234778972646
820000000.0 -0.19542555868201106 0.11549251225266331
840000000.0 0.13377429059249876 -0.1812155974889715
860000000.0 0.07009302497046631 0.17713255319461385
880000000.0 -0.09756556835045749 -0.1709857354745817
900000000.0 0.022461706225978095 0.15517964544037213
920000000.0 0.06202815495984425 0.1293565277775151
940000000.0 -0.10937968313944996 0.07959053328863472
960000000.0 0.07694383856186802 0.0805715998301188
980000000.0 -0.007280809885253824 0.06695904568490774
1000000000.0 -0.025869616620898376 0.028126112082772842
1020000000.0 -0.02232629564109011 0.04269420543913861
1040000000.0 0.006952007156867608 -0.07977838795484785
1060000000.0 0.10938143644989118 0.02248699315572008
1080000000.0 0.010647330008609302 0.16017287181142573
1100000000.0 -0.14188824740293274 -0.11955871175232113
1120000000.0 -0.205344292482365 0.05055036942659039
1140000000.0 0.06750420769372274 -0.23988212020971011
1160000000.0 0.1992593095144882 0.2016578665779087
1180000000.0 0.28928028237561415 0.10616791302505003
1200000000.0 0.23602869614423191 0.21685949473203953
1220000000.0 0.25886121538815077 0.19345120903220317
1240000000.0 -0.21747729335573357 -0.25351444079104835
1260000000.0 -0.30026392447190864 0.1664375655659142
1280000000.0 -0.3393032268658399 0.02821797576437753
1300000000.0 0.2970600781241274 -0.1833146441067768
1320000000.0 0.34871733390030246 -0.10340935925713174
1340000000.0 -0.2610546679723769 0.2627397208411441
1360000000.0 -0.13447002936226224 -0.3615012007050876
1380000000.0 0.22657509845194035 -0.3063565644729057
1400000000.0 -0.37725203278614633 0.008672066599003275
1420000000.0 0.02304550212990647 0.37745063466152007
1440000000.0 0.3202626616258284 -0.1809421874509683
1460000000.0 0.10871270632702783 -0.3424485053682669
1480000000.0 -0.04265282537737082 -0.34434205071294816
1500000000.0 -0.10654117003561857 0.31952600904027406
1520000000.0 0.1318049670753034 -0.28418151596933483
1540000000.0 -0.12725413902287241 0.24514183300408
1560000000.0 0.20929734919977955 0.12073031365844145
1580000000.0 -0.03263101572780664 -0.2108225173889279
1600000000.0 0.10492774838356608 0.14660760731782377
1620000000.0 -0.023659059843984177 -0.15941543365876254
1640000000.0 -0.1168374432436272 -0.07160576971057209
1660000000.0 0.07152472094002535 -0.07657056475295293
1680000000.0 -0.08682485836754435 -0.00425214666595668
1700000000.0 0.06693625560095513 0.0416848002507718
1720000000.0 -0.02871155374268845 0.046083358858333916
1740000000.0 -0.03934096508974481 0.02799892746046563
1760000000.0 -0.016150568912555327 -0.06169187108091111
1780000000.0 -0.0043928495976374975 0.09298752239401707
1800000000.0 0.12248534546758337 0.01285152765138649
1820000000.0 0.1520480682868874 0.036472268212637785
1840000000.0 0.14693870484877358 0.12710357880263415
1860000000.0 0.21653175322445403 -0.01845873153216897
1880000000.0 0.1267950403421435 0.20468059728511703
1900000000.0 0.26741575466434525 -0.0034083117862101003
1920000000.0 -0.2768026022188957 -0.08344873710899121
1940000000.0 0.18248328845302658 0.23904137935194644
1960000000.0 -0.3092553996317516 0.05183467965166825
1980000000.0 -0.1399632108978969 -0.2838994758275772
2000000000.0 0.23353110224789786 -0.20647689442698294
2020000000.0 0.2987749256710597 0.09973422579734156
2040000000.0 0.2468462066108679 0.1924209464121967
2060000000.0 0.07612758828392434 0.29844167265502153
2080000000.0 -0.28622546675718163 0.11014555625026949
2100000000.0 0.2687357622377082 0.1535392897530798
2120000000.0 -0.21768436122659143 0.22170296025718578
2140000000.0 0.036915238861310935 -0.2989761359408306
2160000000.0 -0.1902691427303175 0.23120396423144682
2180000000.0 0.19932234539869487 0.2114727814326592
2200000000.0 0.28409304942834007 0.027400165434050248
2220000000.0 0.2757200019513567 0.02304167939461042
2240000000.0 0.10896888985611258 0.24948212035638737
2260000000.0 -0.033452633742806805 0.25676508302986734
2280000000.0 -0.22889890294818632 -0.09383905278547378
2300000000.0 0.23609120865172545 0.026777542139794296
2320000000.0 -0.08610200933699455 0.21532739744444465
2340000000.0 0.10973359648114529 -0.1920625873180438
2360000000.0 -0.18323182760999962 0.1260216689060147
2380000000.0 0.16507173444684609 -0.15727701787844178
2400000000.0 -0.10443250516233235 0.223722314296991
2420000000.0 0.1772483746626771 0.2123258563161636
2440000000.0 -0.2250405273671138 -0.19943746899673803
2460000000.0 0.12274814188046568 0.30955278337475683
2480000000.0 0.2749392631007496 -0.2442457654980719
2500000000.0 0.34130685426657964 0.2226077561766181
2520000000.0 -0.3715860828384896 0.24075200612797093
2540000000.0 -0.19082117956360742 -0.4404809096030607
2560000000.0 0.48338636190030554 0.18021982685439294
2580000000.0 -0.5090228164840794 0.19685164486927748
2600000000.0 0.35263196757664445 -0.4547905292164979
2620000000.0 -0.014362742853273408 0.599932248330133
2640000000.0 -0.3486536396086594 -0.5115399566611879
2660000000.0 0.6311270834772996 -0.06369546184877949
2680000000.0 -0.09757534502444228 0.638206003271494
2700000000.0 -0.6361137437501955 0.15851632006156607
2720000000.0 -0.6329391545385635 -0.1926599090217535
2740000000.0 -0.5435074274623635 -0.3825662593124672
2760000000.0 -0.5042013325779765 -0.43541438446760494
2780000000.0 0.4561110251552387 -0.4800036043327845
2800000000.0 0.6160261710064752 -0.220100037131104
2820000000.0 0.5766684557968064 0.28604331774412384
2840000000.0 -0.28884166398417477 0.5616076107769696
2860000000.0 -0.06012881850569948 -0.6153581683234883
2880000000.0 -0.0446784024222421 0.6004395848256977
2900000000.0 0.4945363924471863 -0.3154705572165671
2920000000.0 -0.505500992114741 -0.25476512437165133
2940000000.0 -0.3518937405960623 0.40775874013121066
2960000000.0 -0.03574332445954542 0.5167435549384665
2980000000.0 0.4729155870952897 0.1513880511188871
3000000000.0 0.013461871403042888 -0.47043100773583163
3020000000.0 -0.4438554373890961 0.04741021487043052
3040000000.0 0.4206682598561554 0.018278211288380964
3060000000.0 -0.3033928322469999 -0.24900345554543243
3080000000.0 0.07007922508739947 0.36170706742994396
3100000000.0 -0.11147109976458237 -0.3353535132863523
3120000000.0 -0.33738171567553876 0.01804351000869569
3140000000.0 0.2743288453764701 0.18226319699312044
3160000000.0 -0.15307644301815 -0.2908640533122943
3180000000.0 0.08746632795698264 0.31451357270105973
3200000000.0 -0.017856233700823197 -0.32112726963976596
3220000000.0 -0.28723346504799097 0.12028619540447975
3240000000.0 -0.18682640098578823 0.22912610911853235
3260000000.0 -0.27621854008141344 0.012774702140943877
3280000000.0 -0.0514577989072245 -0.26163576267530664
3300000000.0 0.22559433709531837 -0.10220909062894143
3320000000.0 -0.00654911207103852 0.2277996072052869
3340000000.0 -0.2076951187964246 -0.007846615093693356
3360000000.0 0.11587518408652227 -0.1365988264803219
3380000000.0 -0.1385835316429175 -0.06838419572967945
3400000000.0 -0.024458458320930253 0.1264764040793491
3420000000.0 -0.03917906839026661 -0.1100983612038987
3440000000.0 0.0918456857325747 0.05564970262013142
3460000000.0 0.08023270725776617 0.05985141661396586
3480000000.0 0.006071381310353488 -0.09101318460684311
3500000000.0 0.018409413496291646 -0.07654640440172439
3520000000.0 -0.0409916958874192 0.0559082193550669
3540000000.0 -0.06796215647355668 0.0165409719263741
3560000000.0 0.016577946890088693 -0.06731611035246246
3580000000.0 0.0593567840180396 0.049973251855020384
3600000000.0 0.07855623210684087 -0.04953559836640027
3620000000.0 -0.010057458126708793 0.10389176668151413
3640000000.0 0.06117648886853885 0.08936645771177039
3660000000.0 0.04879632691301849 0.10308174761742027
3680000000.0 0.016815155529199988 -0.10618856464426085
3700000000.0 0.09266066075370041 -0.04773955327122101
3720000000.0 0.044054481277747706 -0.08286068511310245
3740000000.0 0.0074183253638632485 -0.08156047087933083
3760000000.0 -0.04460349825886271 -0.06198840480040012
3780000000.0 -0.06300796023646114 -0.01518130684375464
3800000000.0 0.044543106932022174 -0.013588062419280992
3820000000.0 0.024339618062924666 0.02926500855471764
3840000000.0 0.047283192660473775 0.020958147046749646
3860000000.0 0.0471491638523935 0.05864086874024683
3880000000.0 -0.0362530831324067 -0.08617425560418639
3900000000.0 0.05693790526134027 -0.08696615195669395
3920000000.0 0.023697670163364555 0.10325669286457682
3940000000.0 0.03907043053277718 0.0989697550655229
3960000000.0 -0.04741638525665733 -0.09461346834410023
3980000000.0 0.08699644408544059 -0.04573997101000809
4000000000.0 0.022060097511104666 -0.08293358496433607
