!Created with skrf (http://scikit-rf.org).
# Hz S RI R 50.0 
!freq ReS11 ImS11
400000000.0 -0.7382881246913668 0.3810642267648245
420000000.0 0.0555821446550789 -0.7648129435359101
440000000.0 0.46977737403040876 -0.5747420008268506
460000000.0 -0.14851969108173663 -0.6365823149669031
480000000.0 -0.22225195689295874 -0.5001097678469288
500000000.0 -0.3347199584375666 0.21995327795149192
520000000.0 -0.42421251553642786 0.14078397990883992
540000000.0 0.4269808287008392 -0.23657156979313204
560000000.0 0.32742268366646293 -0.3394283494088138
580000000.0 0.3306516795540843 -0.268013426770382
600000000.0 -0.36505395574056865 -0.011511298438245167
620000000.0 -0.14162889004484336 -0.3288030626281989
640000000.0 0.006013702398145676 0.36450290586899176
660000000.0 -0.3112423535840668 0.17313692328177285
680000000.0 0.060699240788385754 0.34555263967182104
700000000.0 -0.1567444630640683 0.30604301630597724
720000000.0 0.1325638483832823 0.32869506777882695
740000000.0 0.1873340088267475 0.27117568225409333
760000000.0 -0.15879642329220475 -0.2821850022532833
780000000.0 -0.2757871627537122 -0.11110262574187156
800000000.0 0.25744631523385564 -0.014232351366323746
820000000.0 -0.18734219639825495 0.12568809350626864
840000000.0 0.10086049103994069 -0.201620937606193
860000000.0 0.11419667805354632 0.15282356130092362
880000000.0 -0.07326592254989799 -0.18238097634635123
900000000.0 0.017762586049615694 0.15576457267272018
920000000.0 0.04620642653776986 0.1360813634601975
940000000.0 -0.10646598265794043 0.0839890951558894
960000000.0 0.03508117508134831 0.10461402283563732
980000000.0 -0.02282945408843106 0.06308251691113045
1000000000.0 -0.0374769504843169 0.006443078099953237
1020000000.0 -0.028307220786270564 0.039150451422579634
1040000000.0 -0.01030349253937499 -0.08008106825546639
1060000000.0 0.10872470641630042 -0.024710833286469863
1080000000.0 0.02383418665864931 0.15805513486908257
1100000000.0 -0.1006171191800594 -0.15642022326724472
1120000000.0 -0.20720823942390543 0.04090947936949276
1140000000.0 0.06322458408345692 -0.2419690193560441
1160000000.0 0.1916485108082177 0.20757562936169913
1180000000.0 0.2885599339215908 0.10879950631245004
1200000000.0 0.2563165976357607 0.1917809810478787
1220000000.0 0.2659411325549772 0.1833649664603427
1240000000.0 -0.21074688340015307 -0.25944064931990324
1260000000.0 -0.2883311232734974 0.18624013145237456
1280000000.0 -0.34059703574954836 0.00257514993942561
1300000000.0 0.29212997333731766 -0.19102166506371113
1320000000.0 0.3550289958694186 -0.0800519251010252
1340000000.0 -0.25437001059144826 0.26913328300188416
1360000000.0 -0.10004099333024465 -0.37242573908665355
1380000000.0 0.2504532368193129 -0.2873162013509011
1400000000.0 -0.3737689872683707 -0.050766811968343636
1420000000.0 -0.026055495253775773 0.3771038702916428
1440000000.0 0.3362191947594265 -0.15011207760334017
1460000000.0 0.0752837185409292 -0.3507723872979697
1480000000.0 -0.014351518862986806 -0.34612849063988577
1500000000.0 -0.1438683273060934 0.3049973797770977
1520000000.0 0.0892959164150871 -0.30003808623873024
1540000000.0 -0.10812267394841933 0.2536964339254091
1560000000.0 0.20453272041052378 0.12752581941346663
1580000000.0 0.018529662165238856 -0.21240073683697103
1600000000.0 0.12839481468748892 0.1280827663652757
1620000000.0 -0.03783319947949617 -0.15668166908551742
1640000000.0 -0.08813569267518997 -0.10464346336600144
1660000000.0 0.07331998399599865 -0.07479545121508081
1680000000.0 -0.08474923894529174 -0.019178989652266207
1700000000.0 0.046076800614053316 0.06338655208211438
1720000000.0 -0.008093525403197669 0.05386770735804806
1740000000.0 -0.04672432454456172 0.01209549704053548
1760000000.0 0.0054723654772049785 -0.06349844954047461
1780000000.0 -0.03351138656609932 0.08688617900773749
1800000000.0 0.122958115048144 -0.0029210329453457705
1820000000.0 0.13552776370141126 0.07733530699352631
1840000000.0 0.15607706357913098 0.11409151877519874
1860000000.0 0.2169277605848296 -0.008522478948839448
1880000000.0 0.13363384303727893 0.19991561260580712
1900000000.0 0.2667655435278635 -0.01685911260961216
1920000000.0 -0.27815573285283945 -0.07864418918657305
1940000000.0 0.19190561048658183 0.23199872360331691
1960000000.0 -0.3060216678711563 0.06807673859905342
1980000000.0 -0.12835357999689326 -0.2898699435857463
2000000000.0 0.25115194177641115 -0.18517346279848762
2020000000.0 0.3126592176863884 0.043494259578001584
2040000000.0 0.21279730140629172 0.22921160504346283
2060000000.0 0.07408650280174622 0.29852692009701204
2080000000.0 -0.2692602925516591 0.14718155655282195
2100000000.0 0.28465365489972705 0.11896674895916882
2120000000.0 -0.23888422132422063 0.1983596990211739
2140000000.0 0.04807228443118321 -0.2969140609501405
2160000000.0 -0.16031721922889983 0.2526799238000593
2180000000.0 0.21516697593477507 0.1950978053760456
2200000000.0 0.2838381840395654 0.019696284770671358
2220000000.0 0.27639450717050806 0.017177676175085064
2240000000.0 0.12816047893485027 0.24156681398724153
2260000000.0 0.03273822406156978 0.256517495396546
2280000000.0 -0.21368711489225056 -0.12364523268256215
2300000000.0 0.2349528971342612 0.04001783169634457
2320000000.0 -0.05866123596558263 0.22530236927251804
2340000000.0 0.07036300813590401 -0.2083382143476906
2360000000.0 -0.20769684269145114 0.07984729168352139
2380000000.0 0.16767628950591348 -0.1553797727182259
2400000000.0 -0.12742262492863102 0.2118026675424563
2420000000.0 0.1554600267382875 0.22767957439234313
2440000000.0 -0.17262205345110207 -0.24645569415818222
2460000000.0 0.11267597371137893 0.31357943685965084
2480000000.0 0.26840973224302284 -0.2503985783053176
2500000000.0 0.33004882466760577 0.2383579796360176
2520000000.0 -0.3720339622243924 0.2400970795688549
2540000000.0 -0.20716503688669646 -0.43258395686379214
2560000000.0 0.4922459543648427 0.1523425673168709
2580000000.0 -0.5211695437649905 0.1608903431235639
2600000000.0 0.36006977491601255 -0.4490995150916983
2620000000.0 -0.010160632653948433 0.6005141908820182
2640000000.0 -0.3450372889748484 -0.5140357320316667
2660000000.0 0.6349215236751774 0.005060061816232697
2680000000.0 -0.13327154216118678 0.6316761207632662
2700000000.0 -0.6489272151784157 0.09514327111673765
2720000000.0 -0.5993560328160866 -0.2800815264144085
2740000000.0 -0.5953257329865895 -0.2944730305592611
2760000000.0 -0.5134104405908259 -0.42384839737513635
2780000000.0 0.4930730211170088 -0.4408365281152438
2800000000.0 0.6324864768106392 -0.16414226666037357
2820000000.0 0.5773804707388546 0.28315836891911594
2840000000.0 -0.2791535281919785 0.5659328464973724
2860000000.0 -0.13094211220881888 -0.6046597751989898
2880000000.0 -0.026828722142230258 0.6017465027658971
2900000000.0 0.479669877811906 -0.33742274223310936
2920000000.0 -0.5073132051634845 -0.2522302441099844
2940000000.0 -0.359614604215136 0.40173921855773476
2960000000.0 -0.0477262526578308 0.516112580880543
2980000000.0 0.45200511386250924 0.2056748742121814
3000000000.0 0.09012925360470261 -0.46204480582453045
3020000000.0 -0.4455198148233335 -0.013002126181348135
3040000000.0 0.4191619213701663 0.026719657241344834
3060000000.0 -0.2581311013518989 -0.29481222755674
3080000000.0 0.03399895489079414 0.36596858222993706
3100000000.0 -0.18112390400522094 -0.30310052439925905
3120000000.0 -0.3358380665673662 0.018006151340600015
3140000000.0 0.28923520896595717 0.15776284202152333
3160000000.0 -0.18403208640890553 -0.27240085646298007
3180000000.0 0.14078200182017572 0.29449581220131177
3200000000.0 -0.0328016629405835 -0.3200320482708615
3220000000.0 -0.29082830244811847 0.11046981674840793
3240000000.0 -0.20830748110645356 0.21273663193925593
3260000000.0 -0.2774764326076842 0.018296114761835913
3280000000.0 -0.07199594328954578 -0.25602879628110786
3300000000.0 0.23764317352762354 -0.0715625271601369
3320000000.0 -0.07079627057777173 0.21749291693655215
3340000000.0 -0.20782896857918526 -0.017755786236001273
3360000000.0 0.11714808587894948 -0.13518508603873827
3380000000.0 -0.10384056064392956 -0.11454003198931352
3400000000.0 -0.057505843140005466 0.11509874676199683
3420000000.0 -0.03733202274504319 -0.11072585916727243
3440000000.0 0.045126573242875806 0.09794236351764153
3460000000.0 0.08999376646709643 0.04437630746790125
3480000000.0 -0.013535953097095774 -0.08978205379531803
3500000000.0 0.0048521935038338725 -0.07844974079622856
3520000000.0 -0.06883335489598412 -0.009875278891936663
3540000000.0 -0.06643731238776417 0.025500376312336946
3560000000.0 -0.025154483297331158 -0.06462131326537987
3580000000.0 0.07362509565188413 0.02339637255633246
3600000000.0 0.09132869140330818 0.0035438898042304224
3620000000.0 -0.026976190968904138 0.10130279768370568
3640000000.0 0.07620899810025733 0.07794086251241575
3660000000.0 0.08780519472445461 0.07152560721724903
3680000000.0 0.009844169517236911 -0.10661023954216184
3700000000.0 0.10338383442492882 0.006814265479985842
3720000000.0 0.07476416033050746 -0.05733467166415444
3740000000.0 -0.025118832154787323 -0.07740933430283926
3760000000.0 -0.041841739725067405 -0.06317892303133095
3780000000.0 -0.04445312268611202 -0.04678385101339362
3800000000.0 0.016895558606807658 -0.04372094671114447
3820000000.0 0.011940402648885172 0.035700634080872304
3840000000.0 0.0351220542407096 0.037641148677247056
3860000000.0 0.03711437329423737 0.0656590820379487
3880000000.0 -0.029439237440011083 -0.08857598386430761
3900000000.0 0.05919458207059867 -0.08536912069133071
3920000000.0 0.0013253717124032103 0.10555400380490566
3940000000.0 0.03291645341629846 0.10076494877843885
3960000000.0 -0.045074701070646074 -0.0951884137433006
3980000000.0 0.08260969554817474 -0.05286864828008331
4000000000.0 0.01880755449733131 -0.08366542668105764
