!Created with skrf (http://scikit-rf.org).
# Hz S RI R 50.0 
!freq ReS11 ImS11
400000000.0 -0.7321781154801836 0.39465591476527706
420000000.0 0.14906135252929387 -0.7490912321431445
440000000.0 0.4729810350796751 -0.5741509108685519
460000000.0 -0.049972032795768354 -0.652373800404801
480000000.0 -0.3029014199775464 -0.4537736290964142
500000000.0 -0.4016445676866549 0.0068970182487233115
520000000.0 -0.3756347008500585 0.24293482882458306
540000000.0 0.4511387018113473 -0.18796997656115766
560000000.0 0.25992893923159305 -0.39518949166279926
580000000.0 0.3670905382016429 -0.20864679045238294
600000000.0 -0.35841082875123964 -0.0774112790854529
620000000.0 -0.32597238750271407 -0.1422560322859562
640000000.0 -0.15502965017155423 0.3300837912760773
660000000.0 -0.2699541706430881 0.2362471169417478
680000000.0 0.19272512881853604 0.2946329638339075
700000000.0 -0.18864386824635546 0.2848524772062784
720000000.0 0.061720362421358095 0.3504848745103799
740000000.0 0.19478884240895855 0.266532904548537
760000000.0 -0.170483991536188 -0.2758193260717008
780000000.0 -0.2657412456106878 -0.1323366387145218
800000000.0 0.24983314077713925 0.05273379838924385
820000000.0 -0.22474854919387294 0.007114888690291335
840000000.0 0.11674158125332218 -0.19295198484660755
860000000.0 0.07980876713432765 0.1745586782725088
880000000.0 -0.13339633524448283 -0.14245154775033025
900000000.0 -0.021505190854505994 0.15595703320655788
920000000.0 -0.004606714431338448 0.1433041445469603
940000000.0 -0.1275533670682375 0.046635207109305514
960000000.0 0.10808689333738736 0.02771839238409674
980000000.0 0.03428533474733269 0.05708288488084188
1000000000.0 0.002825838917444325 -0.03810221258686621
1020000000.0 -0.01839909547961729 0.045551460651426415
1040000000.0 -0.041162170336381185 -0.0682659466805542
1060000000.0 0.11145561825929272 0.0147842888037687
1080000000.0 0.02409560262358172 0.15950853315081653
1100000000.0 -0.11567787204963385 -0.14609018109349795
1120000000.0 -0.21118386824502214 -0.01783518114377451
1140000000.0 0.1442792376598413 -0.20445631067891532
1160000000.0 0.18596492636349135 0.21285225002042202
1180000000.0 0.27559407167335653 0.137204236762103
1200000000.0 0.21294727347128808 0.2393901896967733
1220000000.0 0.2549186466914408 0.1976684097687923
1240000000.0 -0.23298508824908948 -0.23914557465661232
1260000000.0 -0.2897515647366467 0.1817353178787432
1280000000.0 -0.3400515676568743 0.024458525446164447
1300000000.0 0.26680112255583044 -0.22514073450403238
1320000000.0 0.36073089785832185 -0.05368907692644086
1340000000.0 -0.2675312650318018 0.25688284280981954
1360000000.0 -0.14783215571961175 -0.3556497892215527
1380000000.0 0.2784752544306225 -0.26191934854683524
1400000000.0 -0.3752408775025437 -0.04590748250778404
1420000000.0 0.0011340533137454102 0.3782396521423562
1440000000.0 0.36680824063382805 -0.019830459884790153
1460000000.0 0.15144927176000286 -0.32504815903676143
1480000000.0 -0.04461986202698067 -0.34362901600810647
1500000000.0 -0.11780470839430858 0.3147920270431336
1520000000.0 0.15445233474660053 -0.2720453327927567
1540000000.0 -0.1053910631464153 0.25480451899962614
1560000000.0 0.20039472340147915 0.13487560522032202
1580000000.0 -0.05772463326739402 -0.2057333741467565
1600000000.0 0.15779563329434657 0.08724343667565548
1620000000.0 0.03465960754592621 -0.15759844456758704
1640000000.0 -0.09540072889629221 -0.0997616091371118
1660000000.0 0.06538819277472711 -0.08229387427981028
1680000000.0 -0.04506075519746298 -0.07389503692751632
1700000000.0 0.0722887898702477 0.032205665352788265
1720000000.0 -0.05397700028993175 -0.0022494967885884655
1740000000.0 -0.04746868778691683 0.01134822406680327
1760000000.0 0.058814821745999 -0.02435730927386099
1780000000.0 -0.0720325651909174 0.059367154293544
1800000000.0 0.12148398503452637 0.015389132706091083
1820000000.0 0.12015226874541997 0.09952018844215532
1840000000.0 0.13947340686614065 0.13345577714380066
1860000000.0 0.21455143851963857 0.031287400000943315
1880000000.0 0.13490940509134988 0.19904109657088628
1900000000.0 0.2652100257296585 -0.023117226588224307
1920000000.0 -0.2752134208131028 -0.08588846876572898
1940000000.0 0.19727814212170539 0.22742672155647403
1960000000.0 -0.2980421113132239 0.09716174953065808
1980000000.0 -0.13587764682067371 -0.2863831925583014
2000000000.0 0.2351026880547868 -0.20497585822014638
2020000000.0 0.2946239896252869 0.11240702506301163
2040000000.0 0.2205003366275035 0.2235971799564305
2060000000.0 0.03866013828750134 0.3060413852231937
2080000000.0 -0.2961610888378371 0.08144331347867441
2100000000.0 0.26298234467822906 0.1619612807138317
2120000000.0 -0.24410595710836977 0.19052650585943715
2140000000.0 0.0595051493228924 -0.2950211466204068
2160000000.0 -0.2006743547999589 0.22160783241038057
2180000000.0 0.2121073025764767 0.19864949171165014
2200000000.0 0.2833312308656084 0.023462761652333294
2220000000.0 0.27550799086790795 0.020225859973147974
2240000000.0 0.0854115718239006 0.2594718093030988
2260000000.0 0.0486375330913864 0.2551764236568726
2280000000.0 -0.24464773448667518 -0.03816321883749017
2300000000.0 0.23717583949777127 0.013361503718108465
2320000000.0 -0.09428147566108488 0.21255629307410182
2340000000.0 0.11543066510176303 -0.1900613326097363
2360000000.0 -0.17585633991167424 0.1369011945665743
2380000000.0 0.17752265365331427 -0.14329748622506042
2400000000.0 -0.13021544715406805 0.2095929336403919
2420000000.0 0.14247192794158753 0.23655070345567783
2440000000.0 -0.1709199152415897 -0.2482786778012224
2460000000.0 0.12320005573768522 0.30977001558715234
2480000000.0 0.2954698207709613 -0.21688841122232025
2500000000.0 0.2752508943994469 0.29929521405471227
2520000000.0 -0.3846174851559344 0.21991947220940472
2540000000.0 -0.24008353884001243 -0.41557355299362425
2560000000.0 0.48090189679938056 0.1835015212063118
2580000000.0 -0.5308661715576813 0.12537367610342928
2600000000.0 0.3727607451034819 -0.43883444815634237
2620000000.0 -0.025879685011224896 0.6000917995803782
2640000000.0 -0.3555835922753872 -0.5065813260027247
2660000000.0 0.6344222458468564 -0.019694162208595715
2680000000.0 -0.13261923817839733 0.6325432851289965
2700000000.0 -0.6468370827100602 0.10688682061455729
2720000000.0 -0.6095391142244825 -0.2573695053842189
2740000000.0 -0.4839686012313389 -0.4552997339254638
2760000000.0 -0.4481971382121123 -0.492871649687623
2780000000.0 0.5412388756946762 -0.3800775873924979
2800000000.0 0.635323836923523 -0.1539735000469483
2820000000.0 0.5567484709063585 0.32196123903467383
2840000000.0 -0.3029974357036081 0.5535002566165419
2860000000.0 -0.028787300934422586 -0.6180859017344416
2880000000.0 -0.05736119895740722 0.5999380015247064
2900000000.0 0.5074767347550322 -0.2949967756427819
2920000000.0 -0.4917260137119368 -0.280635709794747
2940000000.0 -0.37889019180298156 0.3836963383403662
2960000000.0 -0.06745931863033736 0.5143036873930331
2980000000.0 0.4605381787645471 0.18867152461812636
3000000000.0 0.01806562629897132 -0.46957110148198283
3020000000.0 -0.4453905459033485 -0.026352688272262274
3040000000.0 0.41351259054891515 0.07928523602429127
3060000000.0 -0.2033565495251181 -0.33585582540378317
3080000000.0 -0.003795012153386181 0.36774515193785373
3100000000.0 -0.13135337582772727 -0.3270886998668402
3120000000.0 -0.3308715413518726 -0.06276111046402896
3140000000.0 0.255681701400313 0.20850397128148404
3160000000.0 -0.1461056943034975 -0.29397398527195273
3180000000.0 0.10607204817413338 0.308509498776897
3200000000.0 -0.04629348140255428 -0.3178519663965937
3220000000.0 -0.28992123162596073 0.11251598300138821
3240000000.0 -0.17409982114373648 0.23923408033369933
3260000000.0 -0.27757428615890756 0.02012797758404244
3280000000.0 -0.07916427983570691 -0.2557253409629533
3300000000.0 0.22156349874429915 -0.11123895685646225
3320000000.0 -0.06645566520614776 0.21843396325992276
3340000000.0 -0.2074722355672459 -0.0342888991370199
3360000000.0 0.12114479207989569 -0.1339013643083046
3380000000.0 -0.1328194923029597 -0.07989190421376997
3400000000.0 -0.09758515257026353 0.0840575118335789
3420000000.0 0.03668671570893562 -0.1121871974792651
3440000000.0 0.07922109080664455 0.07350073207121391
3460000000.0 0.019629789170115892 0.0975053785188133
3480000000.0 0.040894524670179615 -0.08030335951376959
3500000000.0 0.049580103857829766 -0.060377097770049674
3520000000.0 -0.04617180024228597 0.05015827831397842
3540000000.0 -0.0663130871255268 0.021170356041936154
3560000000.0 -0.04648454881979294 -0.05105055159278008
3580000000.0 0.07018479245865406 -0.034499869491764264
3600000000.0 0.06757185166084285 -0.06154089055123646
3620000000.0 0.0009612147092368564 0.10390960664436658
3640000000.0 0.00531743029555875 0.10902367853789674
3660000000.0 0.09811049818901282 0.05983788715454333
3680000000.0 0.006297680235395712 -0.1071649813003251
3700000000.0 0.099499207899865 0.026962915706395422
3720000000.0 0.09266176219164182 0.01867402021009111
3740000000.0 0.009412985662838613 -0.08142599356109852
3760000000.0 -0.03303821015851369 -0.06816654987059484
3780000000.0 -0.0479888108890506 -0.0409316279944427
3800000000.0 0.04662189843615399 -0.0006552605396147164
3820000000.0 0.037458753872933744 0.006939463071655094
3840000000.0 0.04296907920700801 0.027757095282147242
3860000000.0 0.029290757960752756 0.06965889534116962
3880000000.0 -0.05083990705166689 -0.07797993421848355
3900000000.0 0.02692390657489512 -0.09970547588577357
3920000000.0 -0.08606067901972982 0.06037535944299215
3940000000.0 0.006112539956293496 0.10627653091543889
3960000000.0 -0.0038371118223625737 -0.10554359254665685
3980000000.0 0.0862815583876079 0.04333470322873101
4000000000.0 0.08365286745400564 0.010741779365358908
