!Created with skrf (http://scikit-rf.org).
# Hz S RI R 50.0 
!freq ReS11 ImS11
400000000.0 -0.7356797519022709 0.3854429349137081
420000000.0 0.05993724446060067 -0.764398154999583
440000000.0 0.46562496681161597 -0.5787354780499769
460000000.0 -0.12037038621423572 -0.6407056244260524
480000000.0 -0.24188044638133396 -0.49048223816245984
500000000.0 -0.34870197419507626 0.19911856237115338
520000000.0 -0.3980614939246503 0.2024490101000164
540000000.0 0.44921107471578525 -0.19720054596616507
560000000.0 0.2650152830433816 -0.39291656769520067
580000000.0 0.2941656867141692 -0.3059476695796685
600000000.0 -0.3631116784458439 -0.026767239450053208
620000000.0 -0.1430094887291033 -0.32987103150404834
640000000.0 -0.12327222798875662 0.34315195040922375
660000000.0 -0.32849907033991427 0.14141579340694235
680000000.0 0.1324003966011585 0.32569804289636145
700000000.0 -0.16518246776683518 0.3003589065649047
720000000.0 0.024318566970075402 0.35492613049417815
740000000.0 0.2599914479849063 0.20184738421025317
760000000.0 -0.20987382378826414 -0.2472136158524158
780000000.0 -0.29262330032961414 -0.05606322537794913
800000000.0 0.2520881615608491 -0.049918523522898994
820000000.0 -0.21042357708906612 0.08074862769786091
840000000.0 0.10386196773750243 -0.19999235985961916
860000000.0 0.07256312156517727 0.17676750176232142
880000000.0 -0.06683972412567782 -0.18492315599355844
900000000.0 0.03941516371321438 0.15075063174206693
920000000.0 0.03692731827065056 0.1371722814420895
940000000.0 -0.1094144877647398 0.07977999490904666
960000000.0 0.09558494502934527 0.05657945687355739
980000000.0 0.0169042262734027 0.06515764904049837
1000000000.0 -0.028487849238427204 -0.025251184006651627
1020000000.0 0.008002251022638743 0.04719722692440678
1040000000.0 0.0225956494374399 -0.07737232412452585
1060000000.0 0.11168133194052601 0.006328344294653717
1080000000.0 0.0105581003424169 0.15983972271599362
1100000000.0 -0.1343834154742161 -0.12832888109007892
1120000000.0 -0.20190259857961318 0.05809892740387765
1140000000.0 0.0747139816074036 -0.23938908856834903
1160000000.0 0.22246451384444663 0.17585597418662186
1180000000.0 0.2953691168927354 0.08894995667480927
1200000000.0 0.2522382490453055 0.19827787509439584
1220000000.0 0.255968647906556 0.19731202624342456
1240000000.0 -0.21076512286611576 -0.25930903396644767
1260000000.0 -0.2993645105213104 0.16808708354948543
1280000000.0 -0.3387687489887794 0.029010592488582773
1300000000.0 0.3026809874728607 -0.17378857144553403
1320000000.0 0.35307554017837306 -0.0877857368092364
1340000000.0 -0.2606276698239661 0.26343597132279584
1360000000.0 -0.14179520548087754 -0.3588184599498023
1380000000.0 0.22699434156293052 -0.30644806154816717
1400000000.0 -0.3778337601983966 -0.010936202035397975
1420000000.0 -0.0304906841787202 0.3778362531591136
1440000000.0 0.351661379121106 -0.10798255354841342
1460000000.0 0.14050319277002532 -0.3316455481718455
1480000000.0 0.05553556702964304 -0.3431082369244267
1500000000.0 -0.1282859796142429 0.31163957171541284
1520000000.0 0.12497824095102274 -0.2863581756826841
1540000000.0 -0.15288349066319656 0.2295390056713587
1560000000.0 0.21032133157866056 0.11907369952911488
1580000000.0 -0.031333158015058184 -0.2107664597538645
1600000000.0 0.13124386138379346 0.12345036633332888
1620000000.0 -0.015843803073844337 -0.15986095330997638
1640000000.0 -0.12503969404886867 -0.05705178014441761
1660000000.0 0.09411975017207623 -0.04687747369966375
1680000000.0 -0.08616877648161088 0.00864044206206417
1700000000.0 0.0350675942703085 0.07011897096580226
1720000000.0 -0.017131326723105734 0.0509807286070919
1740000000.0 -0.04754315619005536 -0.009187039149455832
1760000000.0 -0.01966633271881936 -0.05975977868477804
1780000000.0 -0.048330126729377594 0.08044170503058747
1800000000.0 0.12212338067309886 0.011220299216738007
1820000000.0 0.1480774723649553 0.050679802179621966
1840000000.0 0.16202916539796625 0.1049246861170027
1860000000.0 0.2173069223432879 -0.013902793308161007
1880000000.0 0.13505157942782567 0.1994017542827667
1900000000.0 0.263110680763063 -0.04728264077416277
1920000000.0 -0.2793758886311222 -0.06994422515536687
1940000000.0 0.1663026857379489 0.2509622151945375
1960000000.0 -0.30826958531627496 0.060076928788968836
1980000000.0 -0.16580788692232373 -0.27013901065496165
2000000000.0 0.2378252399210399 -0.20200341539281097
2020000000.0 0.293042556751709 0.11726249753640479
2040000000.0 0.20896621307937002 0.23346931669016774
2060000000.0 0.08423315435610636 0.2961114947611325
2080000000.0 -0.2779132237138705 0.12977077712531737
2100000000.0 0.2919100017913328 0.09998289361834416
2120000000.0 -0.2389104539753425 0.19666034236846325
2140000000.0 0.017123547041700257 -0.30105720741177666
2160000000.0 -0.17402438580352292 0.2441207045910512
2180000000.0 0.22496642376663994 0.18477916128903302
2200000000.0 0.28482945718336095 -0.010251932320087257
2220000000.0 0.2764259238951011 0.01119231496367378
2240000000.0 0.0966411202235477 0.2555141327760667
2260000000.0 -0.03215999026658114 0.2576953883979359
2280000000.0 -0.23900252477743458 -0.0648885549313474
2300000000.0 0.23242505757871007 0.049001963653966474
2320000000.0 -0.13642241969214605 0.18774994950409393
2340000000.0 0.12390520604341151 -0.18355549697475887
2360000000.0 -0.18394855510356925 0.12525736623320685
2380000000.0 0.17291961023252952 -0.14877003653977722
2400000000.0 -0.13775005859905393 0.20347534588845764
2420000000.0 0.1814158856929496 0.2076263444209708
2440000000.0 -0.2085173511501315 -0.21699519207985463
2460000000.0 0.14098049281953648 0.3017808106797408
2480000000.0 0.24993557428062643 -0.26976271412623254
2500000000.0 0.3505750907340331 0.20926548035362627
2520000000.0 -0.36054409831342055 0.258641461997024
2540000000.0 -0.2068565782241613 -0.4328702330617224
2560000000.0 0.4935054625415811 0.1496621283571966
2580000000.0 -0.521784140881154 0.160921505238444
2600000000.0 0.3640630760846913 -0.445900730716206
2620000000.0 -0.008883523009745426 0.6004721583030128
2640000000.0 -0.38265445068035064 -0.48615742567547604
2660000000.0 0.6320065543947652 -0.06039073061400355
2680000000.0 -0.051527723438512765 0.6437464922625211
2700000000.0 -0.6270246214727522 0.19199935216121278
2720000000.0 -0.6310760378577336 -0.19856836883473966
2740000000.0 -0.6112924526307008 -0.2609560527172961
2760000000.0 -0.5568080488957682 -0.3662086160154305
2780000000.0 0.4896715317186902 -0.44489971555619917
2800000000.0 0.5971277378675462 -0.26622975587887365
2820000000.0 0.5833075908489811 0.27145602432250227
2840000000.0 -0.25056164405547054 0.5792581165833918
2860000000.0 -0.1212260989869681 -0.606537127780123
2880000000.0 -0.029277868652267617 0.6015012903395848
2900000000.0 0.47288399670024295 -0.3464496010754717
2920000000.0 -0.5032506722123111 -0.2587653221200119
2940000000.0 -0.3381771102000922 0.4184737628922673
2960000000.0 -0.01818814582209696 0.5175914652497634
2980000000.0 0.4712813191767224 0.15856123919956877
3000000000.0 -0.004797778476020208 -0.4699030485817219
3020000000.0 -0.44207403399658823 0.04972253071540756
3040000000.0 0.4035026845697908 0.11759564811149369
3060000000.0 -0.3031348174958286 -0.24893138029567521
3080000000.0 0.12213307638423843 0.3471997146083621
3100000000.0 -0.18459831282342692 -0.3009895526825078
3120000000.0 -0.3364252787714292 0.02753529864155255
3140000000.0 0.27369398546248036 0.1840608750736635
3160000000.0 -0.2051331986624212 -0.2573933540273772
3180000000.0 0.1503494599664752 0.2900211018978846
3200000000.0 -0.04907540053221921 -0.31730969124639435
3220000000.0 -0.29313804418453193 0.10423617150740967
3240000000.0 -0.21025258543452002 0.2093367919350284
3260000000.0 -0.2777565145908619 0.005791941710612917
3280000000.0 -0.035000092284904846 -0.2646129547651051
3300000000.0 0.23705290097674941 -0.07058807677669833
3320000000.0 -0.05915036341585074 0.21928287882450836
3340000000.0 -0.19443910853148924 -0.07206891496413945
3360000000.0 0.1251560929700747 -0.12531940234464997
3380000000.0 -0.1431963827866945 -0.05435115269517623
3400000000.0 0.024849863724627167 0.12433497518554465
3420000000.0 -0.011205425615994398 -0.11464061687539803
3440000000.0 0.09803233491959672 0.04475450548384883
3460000000.0 0.09913844137435016 -0.010926193126734596
3480000000.0 -0.055923005422146566 -0.0701525377647817
3500000000.0 -0.020761157216163565 -0.07456264353204474
3520000000.0 -0.05775545224896555 0.038355462686745515
3540000000.0 -0.042889924750998204 0.057962193740038435
3560000000.0 -0.029590074690595932 -0.06378779225414737
3580000000.0 0.067657432287529 0.038675870531840094
3600000000.0 0.07272510759740634 0.05534610734498035
3620000000.0 -0.04400896912936072 0.09404073513079864
3640000000.0 -0.044831018853938684 0.09869127004873275
3660000000.0 0.07021680799524464 0.0891578474169466
3680000000.0 -0.01932380418695148 -0.10531861138265401
3700000000.0 0.10179886523573352 -0.012155956733856362
3720000000.0 0.09216903517285528 -0.010282424935009082
3740000000.0 0.01270568796316052 -0.08080577036312432
3760000000.0 -0.07042354532599847 -0.027304982058250164
3780000000.0 -0.05948132993704955 0.020980424817014155
3800000000.0 0.03252406408857502 -0.03250971483571361
3820000000.0 0.036887528627401626 -0.010500823037585812
3840000000.0 0.04939781312929857 -0.010703286506955295
3860000000.0 0.006062209716962228 0.07439716507804658
3880000000.0 0.0043937694248365545 -0.09345237997802203
3900000000.0 0.0381076110446862 -0.09740362490931308
3920000000.0 -0.021448247999061122 0.10304421618394466
3940000000.0 0.019642832305817412 0.10425236326571129
3960000000.0 -0.029577707993290382 -0.10228467849194414
3980000000.0 0.08488351407636167 -0.04941572172695008
4000000000.0 0.06108581823525328 -0.05990836735324949
