!Created with skrf (http://scikit-rf.org).
# Hz S RI R 50.0 
!freq ReS11 ImS11
400000000.0 -0.7541679461081849 0.34953549234780207
420000000.0 0.07495182262515108 -0.762376321017459
440000000.0 0.4835069936759808 -0.5638987703050956
460000000.0 -0.21220575890484206 -0.616901135084446
480000000.0 -0.2368512253363665 -0.4917827825428666
500000000.0 -0.36705538507056423 0.16276844860214307
520000000.0 -0.3925680355457782 0.2134453813727067
540000000.0 0.4134508023742254 -0.2611007306841911
560000000.0 0.2733394418778254 -0.38644866318295185
580000000.0 0.3334052718826284 -0.26405172284205997
600000000.0 -0.3612184640914929 -0.04726882571633606
620000000.0 -0.20278245868560715 -0.29602262117513145
640000000.0 -0.07510484862113675 0.35669534629645033
660000000.0 -0.3493189818717315 0.07627383608568446
680000000.0 0.1414897689088684 0.3222050005430285
700000000.0 -0.14414303375588458 0.3101940702728062
720000000.0 0.01778446217978399 0.354942926785674
740000000.0 0.21009563014345267 0.25351159249611693
760000000.0 -0.17314469370700286 -0.2743543165612284
780000000.0 -0.2947681014988287 -0.034547553068237605
800000000.0 0.25690992956121 -0.0004277139208308923
820000000.0 -0.18138972348833685 0.13551147515017548
840000000.0 0.13391794256868814 -0.18084541530141945
860000000.0 0.08961291662041972 0.16783777198258013
880000000.0 -0.12844625989319003 -0.1495865743016602
900000000.0 0.023089247715042244 0.15470876711571785
920000000.0 0.04702224807980176 0.13512450719018199
940000000.0 -0.1069574624508946 0.0833112211648442
960000000.0 0.08282223223686604 0.07427851478682956
980000000.0 0.010567134087520242 0.06637764820446314
1000000000.0 0.017035987173128514 0.0347874593975154
1020000000.0 -0.008852989931892498 0.04724275987129743
1040000000.0 0.004824588428257992 -0.08020744409040942
1060000000.0 0.11089864298250927 0.012017330312515588
1080000000.0 0.01685624445750515 0.15998477543051295
1100000000.0 -0.13872152211783112 -0.1233578678337812
1120000000.0 -0.21039151771482623 0.02121316793482954
1140000000.0 0.047234634844593296 -0.24469634250085603
1160000000.0 0.19200112427415378 0.20857117375785084
1180000000.0 0.2992882937463883 0.07374185360837814
1200000000.0 0.2679536201610813 0.176261103616268
1220000000.0 0.25829686174725536 0.19467977939868075
1240000000.0 -0.2174961295415729 -0.253918766231757
1260000000.0 -0.3059354802086997 0.15542798932194676
1280000000.0 -0.33697223472415544 0.047572393774155654
1300000000.0 0.296332287905963 -0.18527063025285903
1320000000.0 0.34982875635804617 -0.09853775917672469
1340000000.0 -0.25139366839490684 0.27181867232576595
1360000000.0 -0.14788143544516272 -0.3565516635906634
1380000000.0 0.23469796132013457 -0.30009832106124623
1400000000.0 -0.3773737969084762 0.007838787190484062
1420000000.0 0.012312522465947101 0.3778987670989124
1440000000.0 0.32715950735888294 -0.16768719223331244
1460000000.0 0.125097078755819 -0.3369052684687638
1480000000.0 0.017616935636971132 -0.34667207940258044
1500000000.0 -0.1082038464265017 0.3185821939152266
1520000000.0 0.13549073536373346 -0.28198020743469404
1540000000.0 -0.13511996892958195 0.24095161367457968
1560000000.0 0.21183127303979796 0.114962487833631
1580000000.0 -0.039856312759351184 -0.20963853244815595
1600000000.0 0.10264537510226705 0.14785699215465586
1620000000.0 -0.012621371454809615 -0.16041312642203218
1640000000.0 -0.12148944063296159 -0.06377175603735616
1660000000.0 0.09097452492332246 -0.05218801366183916
1680000000.0 -0.08431540217760099 -0.01901637751401214
1700000000.0 0.047945102113426244 0.06258186417128118
1720000000.0 -0.025716832272783412 0.04774887167469726
1740000000.0 -0.04638816176838401 0.014010323745135325
1760000000.0 -0.013089080855969467 -0.061950124455383546
1780000000.0 0.0031600189106061587 0.09322064001401745
1800000000.0 0.11354852869513371 0.04735526803357906
1820000000.0 0.15566619217273078 0.013288472803745668
1840000000.0 0.14605585470470667 0.1270854354455531
1860000000.0 0.21709286673535416 -0.008702634608211962
1880000000.0 0.12477286871903863 0.20591562146361383
1900000000.0 0.2660051017292725 -0.024854451235582484
1920000000.0 -0.2787263340864529 -0.07514170261216738
1940000000.0 0.17442766593273468 0.24505011014011072
1960000000.0 -0.3090428218939505 0.05488751424425115
1980000000.0 -0.141861349135823 -0.2834924044506914
2000000000.0 0.2570940358720493 -0.1773590893891599
2020000000.0 0.29213348535620115 0.11863896933267233
2040000000.0 0.2518979330909246 0.1855820805676081
2060000000.0 0.10025791136422771 0.290782846935741
2080000000.0 -0.2685763402925635 0.1484081610311472
2100000000.0 0.2753943161726115 0.14072630222821542
2120000000.0 -0.20527447376316674 0.23253348186047007
2140000000.0 0.038522413003204053 -0.2983860947907206
2160000000.0 -0.19046246906019906 0.23081702287469585
2180000000.0 0.21473126259726608 0.19586056277457534
2200000000.0 0.28527326526588365 0.006740874013681611
2220000000.0 0.27586439750458824 0.0196869938087155
2240000000.0 0.11841509963289117 0.2457010116837626
2260000000.0 -0.03465363998645743 0.2568563998328997
2280000000.0 -0.23532726255975736 -0.07710968634168766
2300000000.0 0.23682964829719383 0.013224363932402991
2320000000.0 -0.10895429484919039 0.20480372945496417
2340000000.0 0.10513330404428989 -0.19497950690958535
2360000000.0 -0.19071518487487393 0.1151894764212053
2380000000.0 0.16877693674298028 -0.15319078092963112
2400000000.0 -0.10112893120494819 0.22502865616969514
2420000000.0 0.18969394892346958 0.20097963536034477
2440000000.0 -0.20436876108246885 -0.220762343938471
2460000000.0 0.10508400325161561 0.31599086746001837
2480000000.0 0.26821212340099715 -0.2513730534834691
2500000000.0 0.35701631855192995 0.19647717894450584
2520000000.0 -0.3690911553446772 0.24487171612471445
2540000000.0 -0.206804539242407 -0.43332301371752246
2560000000.0 0.492513506521621 0.15294009358244232
2580000000.0 -0.5221683093115538 0.15838955345944258
2600000000.0 0.3685501014806724 -0.4421894883198177
2620000000.0 -0.0016235850894476074 0.6002437453695975
2640000000.0 -0.3689444343650848 -0.4970215291720082
2660000000.0 0.6339437178854898 -0.027472665180265712
2680000000.0 -0.11682297564770312 0.6346431017287918
2700000000.0 -0.6431371039806484 0.12847393936262597
2720000000.0 -0.6207482262875939 -0.22899805942037485
2740000000.0 -0.6148686403823468 -0.25177013568548523
2760000000.0 -0.5342229957415779 -0.3984270105381
2780000000.0 0.47959347459382806 -0.45644868539621125
2800000000.0 0.6318281298625579 -0.16934629574310872
2820000000.0 0.5733094366744915 0.29248527778716743
2840000000.0 -0.3114217504568153 0.5491337787189216
2860000000.0 -0.09776109526719073 -0.6108525933654346
2880000000.0 -0.04996255896884921 0.600063464470602
2900000000.0 0.48065883050078845 -0.3357367782078395
2920000000.0 -0.5119016261061219 -0.2415897146400305
2940000000.0 -0.3578588295404148 0.4020414672441046
2960000000.0 -0.061485787679314195 0.5143899647632049
2980000000.0 0.4669341260119554 0.16789427120186678
3000000000.0 0.012374183766598558 -0.47070174954944244
3020000000.0 -0.4440349715073025 0.04141991437429881
3040000000.0 0.4195697847969986 0.03190840882773216
3060000000.0 -0.26628641405169384 -0.28842352148031203
3080000000.0 0.05012932524099068 0.3652915883207753
3100000000.0 -0.15478633806350117 -0.31753547616875616
3120000000.0 -0.3368107263071894 0.010962674400511479
3140000000.0 0.2633107136473349 0.19788318054303658
3160000000.0 -0.1421799702030731 -0.29628180171306406
3180000000.0 0.11777873689896348 0.304752511870027
3200000000.0 -0.04233650860979476 -0.31894999980732613
3220000000.0 -0.2805155892926774 0.13299739190488846
3240000000.0 -0.2176535202399369 0.20132618325337112
3260000000.0 -0.27763601222022205 -0.0011940040093404993
3280000000.0 -0.07835652097945843 -0.2547755286612819
3300000000.0 0.22956358632514567 -0.09406117120805896
3320000000.0 -0.02595300071788242 0.22607724418252859
3340000000.0 -0.20705735012782256 -0.016178687655348734
3360000000.0 0.06894804876137098 -0.16485986474505043
3380000000.0 -0.13277282644095337 -0.07973530826320709
3400000000.0 -0.017721323215309632 0.12731356921570566
3420000000.0 -0.002566443450583792 -0.1163622389207931
3440000000.0 0.06587723002478407 0.08482405861221888
3460000000.0 0.08544696750253404 0.052362287389805785
3480000000.0 -0.03582112842996059 -0.08424397908677829
3500000000.0 -0.010973477720430024 -0.0772221142252284
3520000000.0 -0.06859295774450126 0.010305460451309239
3540000000.0 -0.05495658845957576 0.04424611272054335
3560000000.0 0.009721186495161021 -0.06902589669939442
3580000000.0 0.06388534128937914 0.04454573945146689
3600000000.0 0.06800878540441063 -0.06156490476456594
3620000000.0 -0.028922516930175207 0.10037246560604536
3640000000.0 0.04293819525870824 0.09933555130150894
3660000000.0 0.05662256047264057 0.09901394560943902
3680000000.0 0.00851744362412408 -0.10714128707473144
3700000000.0 0.09446557429292836 -0.042005754631266594
3720000000.0 0.06676369429897533 -0.06472349731573801
3740000000.0 0.027065227726389144 -0.07742639474811733
3760000000.0 -0.06137010461535381 -0.044912261523729825
3780000000.0 -0.062057620247146714 -0.01494492914995268
3800000000.0 0.04598904981836862 0.003775598625178176
3820000000.0 0.0319389715728116 0.02077039120448133
3840000000.0 0.04506860572114914 0.024261816765351732
3860000000.0 0.022452632371526535 0.07152620380954944
3880000000.0 -0.04554546880671201 -0.08079016310022542
3900000000.0 0.06513856269040658 -0.08059926201537648
3920000000.0 0.02196934352547059 0.10308337401148145
3940000000.0 0.020314097790865678 0.1038673340886404
3960000000.0 -0.015980505569825654 -0.1040914826558452
3980000000.0 0.08556516619452731 -0.04665334993675226
4000000000.0 0.036134733346757784 -0.07633663555835946
