!Created with skrf (http://scikit-rf.org).
# Hz S RI R 50.0 
!freq ReS11 ImS11
400000000.0 -0.7239951449331423 0.40961359335479536
420000000.0 0.1279400619678766 -0.753428100875551
440000000.0 0.4384113479328346 -0.6004021325475787
460000000.0 0.0113644064400308 -0.653649665005513
480000000.0 -0.28509057721102365 -0.4657171775967224
500000000.0 -0.4009841590693332 0.023984203002478787
520000000.0 -0.3507667770645182 0.27720926718242705
540000000.0 0.45869107616034527 -0.16769754607790027
560000000.0 0.21615439994925958 -0.4217289179009334
580000000.0 0.36776239113858306 -0.2083864546249025
600000000.0 -0.35691092048457845 -0.08168074506158168
620000000.0 -0.32704860063972635 -0.1431390332633021
640000000.0 -0.21953220159544112 0.2911458547403111
660000000.0 -0.2747999558966004 0.22991345225903217
680000000.0 0.15228209662014147 0.3166443347215065
700000000.0 -0.15296124841821068 0.3049615932676051
720000000.0 0.04064292824970192 0.35397735101426336
740000000.0 0.20653437655229767 0.2586225962625267
760000000.0 -0.16572601749657503 -0.27812662578583325
780000000.0 -0.2698392573055708 -0.1232807366875687
800000000.0 0.24763609089787766 0.06296385786694274
820000000.0 -0.2245720308071485 0.013967924158406456
840000000.0 0.11053275163589418 -0.19699332702200725
860000000.0 0.070959246030236 0.17817838283896845
880000000.0 -0.12730376953833075 -0.14779810214869515
900000000.0 -0.007726786340194011 0.15727432635152538
920000000.0 0.0011261759768698958 0.14336613057547504
940000000.0 -0.13097977686216897 0.03497145059283205
960000000.0 0.10321644438974263 0.04424569016032897
980000000.0 0.034337872809467186 0.05717126188854707
1000000000.0 0.03253076463549344 -0.020324141485242767
1020000000.0 -0.01459542181743725 0.046796577892242626
1040000000.0 -0.03681849549045196 -0.07036207917157557
1060000000.0 0.11237268009349471 -0.011478949904990854
1080000000.0 0.026893478553548397 0.15975126763770686
1100000000.0 -0.13119035111527882 -0.1324012216420729
1120000000.0 -0.20314451780224968 -0.05810463321696976
1140000000.0 0.11434735669769416 -0.22270263076751715
1160000000.0 0.1772069716357711 0.2204193466785028
1180000000.0 0.2701025018423272 0.1471995329278624
1200000000.0 0.22605731186104472 0.22746728953162906
1220000000.0 0.2694837745202919 0.17656534549643257
1240000000.0 -0.23238645941696387 -0.2393111046222321
1260000000.0 -0.2888047202372571 0.1835299859470842
1280000000.0 -0.3394409884659264 0.03205999716487606
1300000000.0 0.26523958577759066 -0.22705551528829002
1320000000.0 0.35637265985284666 -0.07799371538182905
1340000000.0 -0.27354143478759035 0.2504548806761287
1360000000.0 -0.16015250648457394 -0.35062577912441706
1380000000.0 0.27084350443359434 -0.2704139438398942
1400000000.0 -0.3709789130273536 -0.07325258980124948
1420000000.0 -0.037528813657117015 0.37628795302813306
1440000000.0 0.36694118416551236 -0.012951783495275475
1460000000.0 0.15071019888676204 -0.3255739627748804
1480000000.0 -0.0019837324503243856 -0.346467505337645
1500000000.0 -0.12161197351301228 0.31299800840894676
1520000000.0 0.152435092791471 -0.27324846268132796
1540000000.0 -0.10711235449006919 0.25444744169123323
1560000000.0 0.21159600454433058 0.11578904995088485
1580000000.0 -0.0560699226038854 -0.2063200863540835
1600000000.0 0.15602292714761534 0.09037961677612075
1620000000.0 0.026871135869690057 -0.1589719007075257
1640000000.0 -0.11782355976478513 -0.07270151179178291
1660000000.0 0.06399105339668607 -0.08276704232380638
1680000000.0 -0.027690954395578615 -0.0824160150091984
1700000000.0 0.05457746738127959 0.05728675312714347
1720000000.0 -0.05012863381052424 -0.01963566106926388
1740000000.0 -0.048127220599418014 -0.005106965499348212
1760000000.0 0.06083670766612572 -0.01787854488911228
1780000000.0 -0.05927501642228576 0.07233405127450401
1800000000.0 0.10903148278486627 0.05417842315435888
1820000000.0 0.13420434841994566 0.0790516959014423
1840000000.0 0.1437791119161739 0.12873654829737963
1860000000.0 0.21508151748017454 0.024705341305462456
1880000000.0 0.12377849112053645 0.20593152769445808
1900000000.0 0.2629871932640015 -0.04179178745183261
1920000000.0 -0.2806527406356687 -0.065222921597659
1940000000.0 0.21407767552406898 0.2120617389830355
1960000000.0 -0.29594635241030076 0.10361223399050623
1980000000.0 -0.13752768403782098 -0.28563857673766824
2000000000.0 0.23759640582545793 -0.20229120761993416
2020000000.0 0.3064537449999182 0.07591792400208679
2040000000.0 0.20288155384921677 0.23944094053351236
2060000000.0 -6.169236852958627e-05 0.3084697662887649
2080000000.0 -0.2855520696932186 0.11325274851171965
2100000000.0 0.2557853157370409 0.1732359775678997
2120000000.0 -0.2537034196451618 0.17770167394020006
2140000000.0 0.08527036932764993 -0.2885135402236855
2160000000.0 -0.21430955778398003 0.20768297481928233
2180000000.0 0.2144007888266169 0.1967246623176138
2200000000.0 0.28350761535471963 0.019125512005020537
2220000000.0 0.27601296425627253 0.017904972137265607
2240000000.0 0.0961006856396836 0.25553421001921645
2260000000.0 0.02507890596207629 0.2585369816614921
2280000000.0 -0.23951650203741123 -0.06430865333739358
2300000000.0 0.23731654933527463 0.011757989220968112
2320000000.0 -0.10716840565298626 0.20627216406442306
2340000000.0 0.11137244924155507 -0.19191246292791453
2360000000.0 -0.17464073112738737 0.1383012401641403
2380000000.0 0.19188241201664658 -0.12368256976963772
2400000000.0 -0.13001354893634517 0.20930835116372862
2420000000.0 0.14562630140783703 0.2343157052219933
2440000000.0 -0.16679945983680491 -0.25111941057102544
2460000000.0 0.10976146154360884 0.31438936136877815
2480000000.0 0.2844661019500442 -0.23158410368590354
2500000000.0 0.2616928896992815 0.3112288831109123
2520000000.0 -0.4036994443027415 0.18221515004192895
2540000000.0 -0.2101783953792615 -0.4315514035910253
2560000000.0 0.4770968324415098 0.19347962834836147
2580000000.0 -0.5326544415419783 0.1176856164662423
2600000000.0 0.3955956130434676 -0.41825968652523404
2620000000.0 -0.059351956752504605 0.5974278724505532
2640000000.0 -0.35227535230513496 -0.5085300244714216
2660000000.0 0.6347964568447073 0.018849886197097983
2680000000.0 -0.1458709408851098 0.6296977959165376
2700000000.0 -0.6444726414365677 0.12149972593068352
2720000000.0 -0.6099492342597262 -0.2567941117236767
2740000000.0 -0.4916468615046237 -0.4472838465611553
2760000000.0 -0.44621852590281424 -0.4949114868398595
2780000000.0 0.5551993324014945 -0.3594369196389495
2800000000.0 0.6387614469664464 -0.13839965053748263
2820000000.0 0.5513304876651196 0.3309528615274336
2840000000.0 -0.32035513291493567 0.5433216442558585
2860000000.0 -0.02053732680261077 -0.6179379405660047
2880000000.0 -0.06496893328630228 0.598849640468907
2900000000.0 0.49317259203696284 -0.3178937949291979
2920000000.0 -0.491627496047004 -0.28158694530048595
2940000000.0 -0.3965454312971584 0.36558583271568174
2960000000.0 -0.08203366816331731 0.5123658445202852
2980000000.0 0.45134123252497127 0.20811442877662442
3000000000.0 0.039596813659561844 -0.4686262262850984
3020000000.0 -0.4429834515947339 -0.049794022782070124
3040000000.0 0.37834723109878465 0.18455578636243722
3060000000.0 -0.21000925927042777 -0.33159728445362663
3080000000.0 -0.02458939783047 0.3669494701580603
3100000000.0 -0.1390087057645594 -0.3233465330032341
3120000000.0 -0.33200957319322544 -0.052198151661223456
3140000000.0 0.27041243773211854 0.18819599623918157
3160000000.0 -0.1833671188853766 -0.2723889345616467
3180000000.0 0.14032097942550148 0.2948379150291842
3200000000.0 -0.07539793847554874 -0.3125320944382119
3220000000.0 -0.2823299312982937 0.13180677076250935
3240000000.0 -0.18290214270813374 0.2332555787114687
3260000000.0 -0.27812597097224273 0.020336718457648315
3280000000.0 -0.048549173392827986 -0.26396209030083656
3300000000.0 0.23349719738820912 -0.08517125825598838
3320000000.0 -0.08724881670470913 0.21110932135544067
3340000000.0 -0.19822827867043688 -0.06992770081574924
3360000000.0 0.14934973658483378 -0.10160191566891646
3380000000.0 -0.12753127478776702 -0.08777552232048451
3400000000.0 -0.09739359411836881 0.08348193243872612
3420000000.0 0.04871987928222627 -0.10716967004345004
3440000000.0 0.06890774293850487 0.08329424993739713
3460000000.0 0.031723176210422026 0.09408725803677391
3480000000.0 0.028033174802172437 -0.08524697729432248
3500000000.0 0.025057415319640744 -0.07360900544930857
3520000000.0 -0.030235354829467945 0.06160461148435349
3540000000.0 -0.06492287333808044 0.025427377822148628
3560000000.0 -0.041670735400568065 -0.05544048028411159
3580000000.0 0.07776963376256735 -0.009349587587661076
3600000000.0 0.07205627170075528 -0.05811694622066127
3620000000.0 -0.021539131602870777 0.10158834684030811
3640000000.0 -0.027853661520287627 0.10589723264185325
3660000000.0 0.07367099886760446 0.0879032383311515
3680000000.0 0.0015558692468344098 -0.10651521237028534
3700000000.0 0.09424682698882494 0.040318385198662265
3720000000.0 0.08330773857201311 -0.04358895471144228
3740000000.0 -0.006216791156511646 -0.08146668354884068
3760000000.0 -0.052375740095753014 -0.05435825605010962
3780000000.0 -0.04857248526006736 -0.04032970619775769
3800000000.0 0.04102370095902058 -0.02189590391425613
3820000000.0 0.028217185353770977 -0.02550048708346505
3840000000.0 0.0507560368449648 0.005481177308255187
3860000000.0 0.03600309426188191 0.06630617432971249
3880000000.0 -0.049240728894434475 -0.07921759166474046
3900000000.0 0.01751263244830188 -0.10172797128371001
3920000000.0 -0.07079556163287773 0.07767603722448371
3940000000.0 -0.004950400615085649 0.10638952272601374
3960000000.0 0.011423134018176703 -0.10501885649078052
3980000000.0 0.08713268209508013 0.041132724975906906
4000000000.0 0.07968358505733163 0.02715605936511837
