!Created with skrf (http://scikit-rf.org).
# Hz S RI R 50.0 
!freq ReS11 ImS11
400000000.0 -0.7268855607653408 0.40351897257475033
420000000.0 0.133722910092536 -0.7528743720521409
440000000.0 0.47357394629707805 -0.5729902701494549
460000000.0 -0.17414801221596032 -0.630413049897739
480000000.0 -0.2439406881451623 -0.4883234075693898
500000000.0 -0.38079083734075225 0.12444641879362059
520000000.0 -0.42987218965931134 0.12058277989053956
540000000.0 0.3742583739959976 -0.31591985749081514
560000000.0 0.203428000709498 -0.42555519149483934
580000000.0 0.351395357379755 -0.23904658376080543
600000000.0 -0.3641706674611484 -0.002406476139031696
620000000.0 -0.134838671522256 -0.3305579994601274
640000000.0 -0.05602842261905212 0.35981066910899073
660000000.0 -0.3062326022092592 0.18400948437775785
680000000.0 0.028311088289315726 0.35003432202802426
700000000.0 -0.12987198061098504 0.3191168824077065
720000000.0 0.02725441118326513 0.35409060488812466
740000000.0 0.2383095941335873 0.22775673681469255
760000000.0 -0.20119784098154767 -0.2548713253152882
780000000.0 -0.283656766151304 -0.0887513163900035
800000000.0 0.2513254750900655 0.05421788645277793
820000000.0 -0.20960713396867137 0.08585482376885016
840000000.0 0.1482675133572348 -0.16815066291015798
860000000.0 0.09757168474858804 0.1627552116465984
880000000.0 -0.14449067885739314 -0.13216911329616712
900000000.0 -0.0268771543424265 0.15506647211460692
920000000.0 0.08070367452833008 0.11992144611827575
940000000.0 -0.10769945175130015 0.08346398430114016
960000000.0 0.0640484483406537 0.09019776833637727
980000000.0 -0.047163115474644295 0.04733358754945496
1000000000.0 -0.03833062886019484 0.0066912126156753425
1020000000.0 0.03133747870645552 0.03714083203060661
1040000000.0 -0.009550949111386636 -0.0787634400589707
1060000000.0 0.11212235373384365 0.014182962125429419
1080000000.0 0.05634335075709181 0.15161677029990273
1100000000.0 -0.10215540042409646 -0.15559203086952988
1120000000.0 -0.2120414816264816 -0.016800605616062312
1140000000.0 0.04938819558356864 -0.24434669137866102
1160000000.0 0.16804997689624177 0.22752287976689686
1180000000.0 0.2861374481188018 0.11485585065110704
1200000000.0 0.25256716747428326 0.19753597526356742
1220000000.0 0.24058854990801412 0.21477287220956578
1240000000.0 -0.2430684623661965 -0.22950714064574895
1260000000.0 -0.30286058552516953 0.1591100213590466
1280000000.0 -0.3386695965052354 0.03724111552891131
1300000000.0 0.2858535325791653 -0.20236333940327808
1320000000.0 0.3437611277314412 -0.11851265254060572
1340000000.0 -0.2800941428295985 0.2424487292543097
1360000000.0 -0.08881663608493416 -0.3764653794980964
1380000000.0 0.2127698585186977 -0.3170362139350338
1400000000.0 -0.37047886502695754 -0.07349966683286582
1420000000.0 -0.02257893348910214 0.37753317308156614
1440000000.0 0.36065710523975025 -0.0717707677014075
1460000000.0 0.11714311394376309 -0.3394089582310273
1480000000.0 0.02650430204611839 -0.3453555824128903
1500000000.0 -0.11370490888696222 0.31609820844084036
1520000000.0 0.13745680860130757 -0.2815248806021618
1540000000.0 -0.11536102850458012 0.25055366908845034
1560000000.0 0.22050730490612605 0.09834267331291903
1580000000.0 -0.040084427338895334 -0.20926268309444052
1600000000.0 0.12419271335063242 0.13170589161742965
1620000000.0 -0.020628871111635083 -0.1593796891633339
1640000000.0 -0.09526875613769943 -0.09768834341954558
1660000000.0 0.05378926624315888 -0.09035482623200237
1680000000.0 -0.07703404788917215 -0.04078467532275458
1700000000.0 0.026771325960089524 0.073138744970688
1720000000.0 -0.04954006815305407 0.022760822204714766
1740000000.0 -0.04485145633445903 0.017178241900684975
1760000000.0 0.051450825638864314 -0.037475893189859374
1780000000.0 -0.029854717082169177 0.08825783798581144
1800000000.0 0.10505845027912804 0.062491546347491635
1820000000.0 0.1328780498247179 0.08222095555378896
1840000000.0 0.13397703520857915 0.13921354852996082
1860000000.0 0.21585475858382713 0.025562618906317367
1880000000.0 0.13340329576268709 0.199082494422289
1900000000.0 0.2668503130061521 -0.004023003948848282
1920000000.0 -0.272581578702499 -0.09411298249658354
1940000000.0 0.22409986001012192 0.20153294770546262
1960000000.0 -0.3018442865108599 0.08402291228500253
1980000000.0 -0.13190666775720872 -0.2881309456886669
2000000000.0 0.2660128266865899 -0.1634898267324927
2020000000.0 0.3058971517422523 0.07799842299189598
2040000000.0 0.2539981588676302 0.1835656312177086
2060000000.0 0.08558286115113276 0.2960972092148275
2080000000.0 -0.273336216770367 0.13921248587916668
2100000000.0 0.2656170134184978 0.1577413431895187
2120000000.0 -0.27174461858775606 0.1502344249498428
2140000000.0 0.03518057768918276 -0.29889897320295145
2160000000.0 -0.16738814548281006 0.24794433854044978
2180000000.0 0.186914436223184 0.22228539754355262
2200000000.0 0.2845295003276907 0.006382696998004163
2220000000.0 0.2584418856653627 0.09807484112464673
2240000000.0 0.1710728858915135 0.21340685501900575
2260000000.0 0.03891880642963408 0.256157345647901
2280000000.0 -0.23543624859717568 -0.07487352778516204
2300000000.0 0.23593654732171912 0.03748253402820596
2320000000.0 -0.10323685259476727 0.2082784054588457
2340000000.0 0.05809291915841079 -0.21270741760795198
2360000000.0 -0.19584051757460647 0.10584452231077805
2380000000.0 0.17364073677820124 -0.14879132603948206
2400000000.0 -0.11165133982163986 0.21962884458489737
2420000000.0 0.15351192049541154 0.2285692520158655
2440000000.0 -0.20019134919866247 -0.22525270647529683
2460000000.0 0.11441166961350076 0.3124961007817163
2480000000.0 0.2804604068520376 -0.23689764152845455
2500000000.0 0.3040937815425465 0.2710426879927044
2520000000.0 -0.36648904299647855 0.2499477119947669
2540000000.0 -0.21022979702380012 -0.4314098323096303
2560000000.0 0.47045485421252287 0.20963609701380248
2580000000.0 -0.5276553288777286 0.1390586556992526
2600000000.0 0.38014322709914744 -0.4320874140543906
2620000000.0 -0.027999531780362658 0.5996595307824986
2640000000.0 -0.3240974068928174 -0.5270110294086598
2660000000.0 0.6347057006847947 -0.01659440050286339
2680000000.0 -0.08039043819613895 0.6410234473136963
2700000000.0 -0.6360072812816138 0.15854441583397344
2720000000.0 -0.620366632730436 -0.22979278084620686
2740000000.0 -0.5849039460475157 -0.316116169959032
2760000000.0 -0.4596471324351327 -0.48253548803400226
2780000000.0 0.5316252155685178 -0.39359169235566693
2800000000.0 0.6317851877375821 -0.167575995747027
2820000000.0 0.5534618992290484 0.3279305046119271
2840000000.0 -0.31265517109876795 0.5481461311594557
2860000000.0 -0.0447071796511493 -0.6168891205274581
2880000000.0 -0.04818613729540999 0.6002930227959362
2900000000.0 0.49719220795145014 -0.31097523494453755
2920000000.0 -0.49237754353905666 -0.2794106385340672
2940000000.0 -0.36188858246071254 0.39945701539374323
2960000000.0 -0.05629845828870318 0.515240747180917
2980000000.0 0.4453104147085171 0.22149548902453234
3000000000.0 0.008575932842426108 -0.47036044009024613
3020000000.0 -0.44410341933952086 -0.04426127788350508
3040000000.0 0.4161162652063818 0.06586173135126323
3060000000.0 -0.22899482062293128 -0.3193804559918001
3080000000.0 0.015210632564700368 0.3680248189611591
3100000000.0 -0.08925032447408707 -0.34069659146070946
3120000000.0 -0.3352391818556899 -0.03534372696285911
3140000000.0 0.24246381683553944 0.22390804835739891
3160000000.0 -0.15961548453000152 -0.2874427231300019
3180000000.0 0.12197997411121664 0.3029390890170323
3200000000.0 -0.053916450058611017 -0.3160693872881518
3220000000.0 -0.29585088057484665 0.09509620548453507
3240000000.0 -0.19518296989522005 0.2233234942170752
3260000000.0 -0.272352055464386 0.05574900459819683
3280000000.0 -0.06784188434391393 -0.25872902487016014
3300000000.0 0.2323153728552034 -0.0862832429845191
3320000000.0 -0.06628415662509834 0.2183421254331855
3340000000.0 -0.20899165677076958 0.011885387092479433
3360000000.0 0.10960798183140472 -0.14287331792012006
3380000000.0 -0.10809274281191945 -0.11084923983774457
3400000000.0 -0.06275194856989863 0.1129668818922582
3420000000.0 0.013845666876987005 -0.11681102956306297
3440000000.0 0.05940345060655173 0.08961168225484732
3460000000.0 0.013671836845588117 0.09930124432204272
3480000000.0 -0.0008241040980233715 -0.0906786439462115
3500000000.0 0.03790465837972383 -0.0670272865708771
3520000000.0 -0.06462717833509801 0.022593476301864288
3540000000.0 -0.05621031872417433 0.04147920109911892
3560000000.0 -0.03084037457468583 -0.0622085075685892
3580000000.0 0.07320003915110534 -0.02579591679140002
3600000000.0 0.08493242401737823 -0.03283687879808089
3620000000.0 -0.0048247285350481815 0.10402228477231297
3640000000.0 -0.0032680548327631517 0.10937978543689231
3660000000.0 0.10400134317905833 0.047008142056640195
3680000000.0 0.049542533878875986 -0.09464128511920704
3700000000.0 0.10245758593681993 0.01331548722910826
3720000000.0 0.09370000514278407 -0.01320780114908949
3740000000.0 -0.010388249250688642 -0.08005229805647644
3760000000.0 -0.004006796933142897 -0.07549105842038756
3780000000.0 -0.05384480054725236 -0.035517994905746905
3800000000.0 0.03985639676218945 -0.022608182068925956
3820000000.0 0.03513271602226903 0.01325528055493746
3840000000.0 0.052252802237740176 0.004601294075767965
3860000000.0 0.07183610570920812 0.021881110406700707
3880000000.0 -0.031533267945395085 -0.08715381088681678
3900000000.0 0.07516687154769551 -0.07128642833224069
3920000000.0 -0.06317417218898431 0.08490367636769941
3940000000.0 0.034251432005422425 0.10014056233504715
3960000000.0 0.030139023975063604 -0.10101341687929846
3980000000.0 0.07890643259679282 0.0574073054606143
4000000000.0 0.08307869547660464 -0.017216067215355436
