!Created with skrf (http://scikit-rf.org).
# Hz S RI R 50.0 
!freq ReS11 ImS11
400000000.0 -0.7373043315366665 0.382796102688995
420000000.0 0.11322586079472377 -0.7579872165195939
440000000.0 0.5097760049377384 -0.5401219581585036
460000000.0 -0.138466127597633 -0.6374622935614044
480000000.0 -0.23848892552048037 -0.49102370286148556
500000000.0 -0.3655427334963289 0.16732021705140526
520000000.0 -0.35874539828580954 0.26523112529994686
540000000.0 0.3788793914732726 -0.3108451134679323
560000000.0 0.2640981984654927 -0.39207607843547654
580000000.0 0.3097883284766491 -0.2903581857366064
600000000.0 -0.36061548795236964 -0.056250996040174556
620000000.0 -0.1541911257247345 -0.3243348052780271
640000000.0 -0.03579032337823679 0.36261781004683774
660000000.0 -0.33876712997469954 0.11377516314726854
680000000.0 0.11534798501263782 0.3308485843377646
700000000.0 -0.2125387986387636 0.2701141648927885
720000000.0 0.019857689544102004 0.354915193281608
740000000.0 0.27452969839660246 0.1823624205613247
760000000.0 -0.18262189652571606 -0.2687163020560042
780000000.0 -0.29692353111629544 -0.009038504929382879
800000000.0 0.25076860385459726 0.05387709892714072
820000000.0 -0.20211782026481254 0.10282311687891466
840000000.0 0.09551235080243961 -0.20333353526918965
860000000.0 0.08622027723967295 0.16966865484093033
880000000.0 -0.10293898473294391 -0.16665367363836606
900000000.0 -0.014232181701269489 0.15606561589635898
920000000.0 0.048375433318540405 0.13441776203320552
940000000.0 -0.08347472923904439 0.10606926203048327
960000000.0 0.10249056184112597 0.04269965059604124
980000000.0 -0.026731010991592235 0.06115819174484929
1000000000.0 -0.03571109770197445 0.011401081166898502
1020000000.0 -0.013527846105476745 0.04572982905302712
1040000000.0 -0.012210564203898683 -0.07950578843034765
1060000000.0 0.11226190195221518 0.003154369762870173
1080000000.0 0.017381253081351203 0.15951813400881315
1100000000.0 -0.14284319752908894 -0.11854789272966515
1120000000.0 -0.20833999986316037 0.034556371888077274
1140000000.0 0.045674973486052296 -0.245697862435885
1160000000.0 0.21527158848548425 0.184718417215434
1180000000.0 0.28885731295144274 0.10685192110581633
1200000000.0 0.2350687505019099 0.21850613267554864
1220000000.0 0.260377896593385 0.19141020652205062
1240000000.0 -0.2367172944471735 -0.23520970070352892
1260000000.0 -0.3009731827567342 0.16507632353014953
1280000000.0 -0.3344159400158312 0.059521958815405424
1300000000.0 0.2832341186594789 -0.20439573933164648
1320000000.0 0.3508721245080767 -0.0961482942570907
1340000000.0 -0.2612132005830618 0.26257911994795224
1360000000.0 -0.1413572076514429 -0.3597166973158258
1380000000.0 0.23092008550802975 -0.30386159838585525
1400000000.0 -0.3709253118595349 -0.07256285081977075
1420000000.0 0.013294501818637896 0.3786874607587878
1440000000.0 0.35588535017420714 -0.09214489622101901
1460000000.0 0.11752114517979177 -0.34006117325124874
1480000000.0 0.044765829420203705 -0.3445656846035731
1500000000.0 -0.12050622877935269 0.31397140257420986
1520000000.0 0.1614856731885872 -0.26762388959865546
1540000000.0 -0.10878133053088632 0.2533978078427933
1560000000.0 0.21185297763524738 0.11631098462199956
1580000000.0 -0.06411469735662322 -0.2037041871702487
1600000000.0 0.12614287833305635 0.12956576220026017
1620000000.0 -0.04515588332900218 -0.15473352322506176
1640000000.0 -0.10299383467417776 -0.0911000418987202
1660000000.0 0.10089337201159788 -0.030031684042778665
1680000000.0 -0.07669835719748357 -0.03980193679540341
1700000000.0 0.043137034712534245 0.06491609448148632
1720000000.0 -0.053456726499008005 -0.002238066727589585
1740000000.0 -0.04715779223729296 0.005406693579927483
1760000000.0 0.018091243786902977 -0.06032689775270966
1780000000.0 -0.05060623357852879 0.07794516116282106
1800000000.0 0.11251985261955522 0.048785202371176756
1820000000.0 0.14421172561312876 0.058183814647586124
1840000000.0 0.1553030074718899 0.11445888413123678
1860000000.0 0.20690583655539763 -0.06594560300709118
1880000000.0 0.17117663179078035 0.16851553319986712
1900000000.0 0.26043901538750086 -0.06079709599633829
1920000000.0 -0.28635457633800326 -0.034768875429104694
1940000000.0 0.1851653343523332 0.23770121403271716
1960000000.0 -0.3084014480187775 0.05926512453381696
1980000000.0 -0.1300613462578904 -0.28924038424181486
2000000000.0 0.25859203407686177 -0.17552579392699186
2020000000.0 0.2945813427225466 0.11286261353953185
2040000000.0 0.23521544700984642 0.2061611320428514
2060000000.0 0.05581574032924175 0.30260894146083633
2080000000.0 -0.27397980903391206 0.1357599069626659
2100000000.0 0.2843973803781341 0.11936416679707779
2120000000.0 -0.21218068072927945 0.22546899607210433
2140000000.0 -0.012583295142672639 -0.3006109883020687
2160000000.0 -0.15906725105678698 0.25378637459813663
2180000000.0 0.22838841102248672 0.1801155319281158
2200000000.0 0.2855630699803686 -0.01285724028281482
2220000000.0 0.2767506416179582 0.0031021141479411016
2240000000.0 0.0999034801769574 0.2539383102648395
2260000000.0 -0.05408896199433369 0.25378267844961466
2280000000.0 -0.22831080682208987 -0.09713340041918357
2300000000.0 0.23592455691562841 0.030389836849765848
2320000000.0 -0.1445557436668021 0.18112614307937885
2340000000.0 0.12029427951031874 -0.18538903141243668
2360000000.0 -0.17788499608443784 0.13364281695784108
2380000000.0 0.1754490237430065 -0.14534291386427037
2400000000.0 -0.13541557091498596 0.20516764789238
2420000000.0 0.19152524507296592 0.19822635203261554
2440000000.0 -0.21479919383214546 -0.21055712680749714
2460000000.0 0.1310427434383071 0.3063753742354436
2480000000.0 0.2562616475924488 -0.2640893054437667
2500000000.0 0.319644924850631 0.25334322797052766
2520000000.0 -0.3832241390475742 0.22259948918933575
2540000000.0 -0.18554203888115148 -0.4420733218608014
2560000000.0 0.4868514652368607 0.1700489268236092
2580000000.0 -0.5145166564912868 0.18200766996729273
2600000000.0 0.36791346552029613 -0.44254307327318243
2620000000.0 -0.03139212468868125 0.5992296846096191
2640000000.0 -0.37272334734604834 -0.4938976427538534
2660000000.0 0.6315315513371078 -0.06391084508458215
2680000000.0 -0.07188050720517275 0.6418995495996872
2700000000.0 -0.6364997542828894 0.1560485282559659
2720000000.0 -0.6316956766622716 -0.19627272731670894
2740000000.0 -0.5462624648400924 -0.3786921172696409
2760000000.0 -0.5176727020404454 -0.41884183841232825
2780000000.0 0.49498519269301516 -0.43885876880757263
2800000000.0 0.6119194558932397 -0.22937891968099575
2820000000.0 0.5763713378579262 0.2848537902887188
2840000000.0 -0.2530465300944416 0.5772664744932918
2860000000.0 -0.1444150529533272 -0.6011069712005712
2880000000.0 -0.004274855810101616 0.6019489555596668
2900000000.0 0.47341067959016647 -0.3463136625454168
2920000000.0 -0.5013178484467944 -0.2634967577656958
2940000000.0 -0.35333710013967773 0.40668741652270646
2960000000.0 -0.05808396853339709 0.5152538148352388
2980000000.0 0.44037397385230503 0.2331486299423068
3000000000.0 0.09124225792475503 -0.46182912070916243
3020000000.0 -0.4410343953085466 -0.06202254590624704
3040000000.0 0.41589933106847715 0.05200867592767792
3060000000.0 -0.20949738801510415 -0.330056036887081
3080000000.0 0.07149268472606937 0.3603936592984377
3100000000.0 -0.2259550471164341 -0.27067435126343886
3120000000.0 -0.3356969433004224 0.025866339667271702
3140000000.0 0.294197080641614 0.14769873433900146
3160000000.0 -0.20860105967547476 -0.25391895372148293
3180000000.0 0.14805455914408538 0.29207998896026405
3200000000.0 -0.09593074958743691 -0.3077616764209585
3220000000.0 -0.2877909692352432 0.12142871996293497
3240000000.0 -0.2028119601484296 0.21759466601482116
3260000000.0 -0.27572725668021725 -0.0371171970191362
3280000000.0 0.015829027851398014 -0.2674649193957531
3300000000.0 0.24528376950093392 -0.039241163961626704
3320000000.0 -0.09786215644294877 0.20517985719164158
3340000000.0 -0.17399784840774943 -0.1123728086878195
3360000000.0 0.16314177269715338 -0.06970601193416331
3380000000.0 -0.134917459158734 -0.07121860513763649
3400000000.0 -0.014908294563219049 0.12612153417598804
3420000000.0 -0.057323995113813406 -0.09952666064251088
3440000000.0 0.10583013487010327 0.014372475378909916
3460000000.0 0.09976269079034872 -0.000854991241639516
3480000000.0 -0.06034344041180075 -0.06767417115968048
3500000000.0 -0.0371924496632829 -0.06860120756737949
3520000000.0 -0.0235575172480895 0.06535906436453708
3540000000.0 -0.05902388726697017 0.041064370174071815
3560000000.0 0.011357783077586602 -0.06966888271106464
3580000000.0 0.03854016490597895 0.06861240898464836
3600000000.0 0.08341199365007412 0.03932440235312646
3620000000.0 -0.08291837904983483 0.06126723646765686
3640000000.0 -0.057261118536814086 0.09124195637424865
3660000000.0 0.07854716301362208 0.08128714407192392
3680000000.0 0.007901268056686823 -0.1057414689529252
3700000000.0 0.08660226512846031 -0.054273335360374354
3720000000.0 0.0768068327727601 -0.05086210906843087
3740000000.0 -0.006832254706425442 -0.0809481784919273
3760000000.0 -0.0740996774206032 -0.013525573670495668
3780000000.0 -0.05021051572589263 0.03880374154074426
3800000000.0 0.006138999641726017 -0.045549852896803
3820000000.0 0.03471214511593304 -0.015076921321339823
3840000000.0 0.04956542694813286 -0.010222254782125097
3860000000.0 0.03385479203552656 0.06653340753790958
3880000000.0 -0.027334486555509102 -0.08932453480699089
3900000000.0 0.0650716346602142 -0.08183377928779001
3920000000.0 -0.026206062664895387 0.10236565325542278
3940000000.0 0.05787462181767024 0.08978971078909917
3960000000.0 0.012468867528037402 -0.10590366858308979
3980000000.0 0.09659104495815041 -0.015958846265007046
4000000000.0 0.07271155591576045 -0.044495234899483906
