!Created with skrf (http://scikit-rf.org).
# Hz S RI R 50.0 
!freq ReS11 ImS11
400000000.0 -0.7210612864708688 0.41427251799279613
420000000.0 0.14268623889930418 -0.750872242976529
440000000.0 0.49549246986392786 -0.5552342236673236
460000000.0 -0.23348466127667344 -0.6107132984984118
480000000.0 -0.22286167470534282 -0.49832314016416657
500000000.0 -0.3743502169055958 0.14229354290658952
520000000.0 -0.4262484890206513 0.13452542561578612
540000000.0 0.41006073845069 -0.26990646989861994
560000000.0 0.19374289170001274 -0.4293369052800868
580000000.0 0.34734519377506934 -0.24402538015722483
600000000.0 -0.3640487471127473 -0.030493569137496093
620000000.0 -0.17644668185646964 -0.3115088198613285
640000000.0 -0.008249462093150962 0.3650464401604812
660000000.0 -0.28002461180532534 0.21832497979867496
680000000.0 0.06883442345502563 0.343920343389557
700000000.0 -0.2058427213880018 0.27574065800623276
720000000.0 0.11160087253531252 0.33770328857192505
740000000.0 0.25653850962138136 0.20696851437208955
760000000.0 -0.18595672869593466 -0.26614096203571874
780000000.0 -0.27149630384653123 -0.12064673267207714
800000000.0 0.25617907400493706 0.028636554836094546
820000000.0 -0.17485582944498884 0.1442403271130524
840000000.0 0.18291795192915744 -0.12927557610243454
860000000.0 0.09747284765610807 0.16322491493183358
880000000.0 -0.13641898840388067 -0.14010926079287586
900000000.0 -0.01426326742938106 0.1561389556835609
920000000.0 0.05552081249476567 0.13271669785774678
940000000.0 -0.08810364023455819 0.1035037618664774
960000000.0 0.07401691250289878 0.08061384311433935
980000000.0 -0.024542612440501106 0.062125382101826714
1000000000.0 -0.03747789569884962 -0.012845355226104072
1020000000.0 0.02907267995030223 0.0392167786161988
1040000000.0 -0.024223453046751275 -0.07524990441577988
1060000000.0 0.11234909676689492 -0.012499351700616945
1080000000.0 0.03986834178160414 0.15564006040212192
1100000000.0 -0.07750788407777727 -0.16897982807979203
1120000000.0 -0.21173947114905597 -0.018488896031346604
1140000000.0 0.03732024914352118 -0.24714185825059945
1160000000.0 0.17051372441549284 0.22583559675596196
1180000000.0 0.2859068524742062 0.11523297758236678
1200000000.0 0.23679259679950676 0.21608781885858167
1220000000.0 0.2413843595328537 0.21392909807805027
1240000000.0 -0.232522555727162 -0.2401570384198659
1260000000.0 -0.29713115829539144 0.16943926600110043
1280000000.0 -0.33993532224631823 0.024545355760469623
1300000000.0 0.2914269115137093 -0.19421644498892573
1320000000.0 0.3356412665259654 -0.13903221648231348
1340000000.0 -0.2833565416871965 0.23832258947047094
1360000000.0 -0.10050075356759737 -0.37389620221961734
1380000000.0 0.22887787475045446 -0.30488227661670575
1400000000.0 -0.37119693883235605 -0.07029067582427707
1420000000.0 -0.016223263728599127 0.3778260153624243
1440000000.0 0.35152860289064153 -0.10776317260591198
1460000000.0 0.10226837166695997 -0.3443520320212243
1480000000.0 -0.016357180748704944 -0.34546706084306733
1500000000.0 -0.10384762298386749 0.31991401709567246
1520000000.0 0.13780678427386808 -0.28126968405991354
1540000000.0 -0.10224700736619255 0.2558629042106752
1560000000.0 0.2174766186321188 0.10435246058776482
1580000000.0 -0.012721023376216434 -0.21266585969041804
1600000000.0 0.12607958707142258 0.13038090970186875
1620000000.0 -0.03421170986023276 -0.15720897377834486
1640000000.0 -0.09202600243684762 -0.10048572332406153
1660000000.0 0.031221451948177614 -0.10027523766738901
1680000000.0 -0.07356447504552892 -0.04705707764126901
1700000000.0 0.059420653127682674 0.051549863416146965
1720000000.0 -0.04922918723671031 0.023869081430519454
1740000000.0 -0.04770543327474383 0.007484248857131068
1760000000.0 0.02662085470133758 -0.05771583355588682
1780000000.0 -0.04490989731457838 0.08175735807041275
1800000000.0 0.11659912624608197 0.03768709593739907
1820000000.0 0.1231118567930363 0.09571075753426765
1840000000.0 0.1322268502388045 0.14148950538109975
1860000000.0 0.21395733510387735 0.04060788936401123
1880000000.0 0.13812327962332388 0.19587992010363642
1900000000.0 0.26677390970079307 0.0008285057756999583
1920000000.0 -0.2760115737456485 -0.08452301806599657
1940000000.0 0.2141452529924675 0.21161093551774274
1960000000.0 -0.29857451190674933 0.09453649015520825
1980000000.0 -0.14215515564257314 -0.28299872499345763
2000000000.0 0.25672053572311493 -0.17690427259876734
2020000000.0 0.3066052213788727 0.07387440400974088
2040000000.0 0.2371285617400396 0.2054095367426833
2060000000.0 0.051241844981164145 0.30392918139392683
2080000000.0 -0.27738035281302376 0.13122546211666242
2100000000.0 0.2636387968964697 0.16122786582501078
2120000000.0 -0.2602621812226665 0.16917729184283925
2140000000.0 0.019417310555701398 -0.3005425619034075
2160000000.0 -0.16644890213357807 0.24880340879888194
2180000000.0 0.20560156729494064 0.20529067088727504
2200000000.0 0.2839417560249689 0.020454312392563026
2220000000.0 0.26677771203599127 0.07269933139181987
2240000000.0 0.15998601808873766 0.22216716612240758
2260000000.0 0.04805099741993913 0.25455758550049135
2280000000.0 -0.2295017699031447 -0.09171564531269417
2300000000.0 0.23461496066313908 0.04480039847272272
2320000000.0 -0.10700712152303082 0.2067402549883407
2340000000.0 0.05721058267692507 -0.2129508924497792
2360000000.0 -0.19132402332399376 0.11332787135015016
2380000000.0 0.19444810943152846 -0.12055689346185608
2400000000.0 -0.1074175130602867 0.22179353255510562
2420000000.0 0.1872335340463174 0.20180583806279317
2440000000.0 -0.2087922130957677 -0.21714645190381174
2460000000.0 0.1268592878585744 0.30778107933378523
2480000000.0 0.26264046617652953 -0.25674847497272163
2500000000.0 0.29238186474017475 0.28372447128371975
2520000000.0 -0.36632787988656357 0.24973495653219888
2540000000.0 -0.2126739253815611 -0.43018055181830966
2560000000.0 0.47355899700406406 0.20301471867482104
2580000000.0 -0.530435411316458 0.1290696251960487
2600000000.0 0.38617624461845085 -0.4269508917654295
2620000000.0 0.005933094162855627 0.6001071165080722
2640000000.0 -0.3311424410320213 -0.5224985647778181
2660000000.0 0.6347500168645015 -0.007791118498741594
2680000000.0 -0.06708746089118145 0.6423652217278788
2700000000.0 -0.6337640666516622 0.16634026232978183
2720000000.0 -0.6203019837825492 -0.2302285594837058
2740000000.0 -0.6021647728374424 -0.2819026575026647
2760000000.0 -0.44789269944534593 -0.4932715439096242
2780000000.0 0.5039815990804404 -0.428588501526234
2800000000.0 0.628787215349978 -0.17993572541086614
2820000000.0 0.5621054074258685 0.3134933977387241
2840000000.0 -0.32146042915445205 0.5430149356977767
2860000000.0 -0.02611209133878252 -0.6177240849021429
2880000000.0 -0.05857511914826979 0.599479868057943
2900000000.0 0.5005303543148067 -0.3053607192183231
2920000000.0 -0.4990925408262882 -0.26688825153726936
2940000000.0 -0.34272045170892557 0.41543083433774675
2960000000.0 -0.030698232196359202 0.5170058705155068
2980000000.0 0.46210042894410974 0.18452528453072953
3000000000.0 -0.019439469616338557 -0.470285770274235
3020000000.0 -0.44539504540803554 0.03433639406297689
3040000000.0 0.40764278008952565 0.10966914773835479
3060000000.0 -0.21947997780671402 -0.3262050125511028
3080000000.0 -0.018564357026242595 0.36825734934193544
3100000000.0 -0.14402954098242898 -0.3221942344579122
3120000000.0 -0.3356627011049208 -0.030120503849481887
3140000000.0 0.23989961587372974 0.22617873356144566
3160000000.0 -0.11781361838926145 -0.30705954677402253
3180000000.0 0.08534232957028473 0.3147558497028863
3200000000.0 -0.058118920244132836 -0.3154594475223881
3220000000.0 -0.2873438704590143 0.11619067613595259
3240000000.0 -0.17536755302179427 0.2385750864339511
3260000000.0 -0.27521362480168066 0.038777752595925044
3280000000.0 -0.09624686880747547 -0.24943571760042513
3300000000.0 0.22404542188331328 -0.10566945513972181
3320000000.0 -0.016613665300049752 0.22760999788680655
3340000000.0 -0.20922469690681697 0.004987510090382975
3360000000.0 0.09692642570510239 -0.1520728015200696
3380000000.0 -0.13572122417066373 -0.07483553061875034
3400000000.0 -0.03259688520321437 0.1252355575549678
3420000000.0 -0.00024067133885002343 -0.11772250361786449
3440000000.0 0.032309582752987495 0.10277941170615294
3460000000.0 0.010367697634619638 0.1002179375923894
3480000000.0 0.006331824989822486 -0.0903287333094413
3500000000.0 0.016660509533319524 -0.07539152348269175
3520000000.0 -0.06774987766313231 0.011430518549831426
3540000000.0 -0.06934089448555958 0.010115249932348601
3560000000.0 -0.016793337775352815 -0.06730925059954525
3580000000.0 0.07103871776290294 -0.031249369085823948
3600000000.0 0.08295979416753493 -0.0387083409253484
3620000000.0 -0.006236533470391266 0.10380274876952653
3640000000.0 0.007138982311109016 0.10895833553544376
3660000000.0 0.09517042738162318 0.06333597399558467
3680000000.0 0.022195600830544573 -0.10478755395156036
3700000000.0 0.10222175220043514 0.012466424939396767
3720000000.0 0.08172430214441635 -0.046198271160925786
3740000000.0 0.015148314606532614 -0.0798185265640131
3760000000.0 -0.04192268060068237 -0.0629497409820814
3780000000.0 -0.060979515226483955 -0.021673221307798033
3800000000.0 0.04314688897399505 -0.015331795633137003
3820000000.0 0.034227878428013316 0.016069966972390548
3840000000.0 0.05173209482194735 -0.005744457782868966
3860000000.0 0.06397315989071778 0.039025430457755146
3880000000.0 -0.0349725920235401 -0.08619390822136642
3900000000.0 0.07560490387221516 -0.07083447737571436
3920000000.0 -0.055306227907992896 0.09041733020837986
3940000000.0 0.05427143978643383 0.09085585815070514
3960000000.0 0.009477285537671746 -0.10511279518979093
3980000000.0 0.0962603682137208 0.018693500177196027
4000000000.0 0.06513954275404821 -0.055102014957079136
