!Created with skrf (http://scikit-rf.org).
# Hz S RI R 50.0 
!freq ReS11 ImS11
400000000.0 -0.7307496098475804 0.3952747113794418
420000000.0 0.0774486918559046 -0.762449957132658
440000000.0 0.4632690364516031 -0.5800387169164298
460000000.0 -0.15038235014640783 -0.6347998033219929
480000000.0 -0.20844287576181397 -0.5044007980218854
500000000.0 -0.35307597374980276 0.1936948047708261
520000000.0 -0.39118129579702793 0.21578392133110924
540000000.0 0.4279296720018874 -0.23727512039229348
560000000.0 0.3093854040526734 -0.3588136820392709
580000000.0 0.2681318319497032 -0.3303859004284997
600000000.0 -0.3567127418604366 -0.07417493379332442
620000000.0 -0.2286146775627761 -0.2769820484589671
640000000.0 -0.16510079550631157 0.32505434121853843
660000000.0 -0.33343547177617183 0.13235264618107176
680000000.0 0.11405819143722577 0.33281733443194406
700000000.0 -0.14553660352472833 0.30928949015244994
720000000.0 -0.022753354580709713 0.35476201556964293
740000000.0 0.27115451360219367 0.1866384598533457
760000000.0 -0.23033675615818205 -0.2287365261766538
780000000.0 -0.2948361593092571 -0.030705088123680023
800000000.0 0.25633169051611093 0.020090446859098148
820000000.0 -0.1978093685750231 0.11054706727436905
840000000.0 0.13472207108578002 -0.17961481858680592
860000000.0 0.07856615877335131 0.17349711708709808
880000000.0 -0.0782552749546055 -0.18073953449535965
900000000.0 0.01973457051173255 0.154755430389664
920000000.0 0.058289335658868645 0.1301411256943862
940000000.0 -0.11814910726983685 0.06552352679951408
960000000.0 0.10763476693774078 0.0282995070978948
980000000.0 -0.021497213703461273 0.06390143398188106
1000000000.0 -0.03303691638963614 0.01778699298483083
1020000000.0 0.002521687596169259 0.04755204215145952
1040000000.0 0.026839611245939612 -0.07573247530922253
1060000000.0 0.11090418578900157 0.015006109215830694
1080000000.0 0.028839170760980262 0.15801433246715868
1100000000.0 -0.14840149229019664 -0.11175437190384346
1120000000.0 -0.20579736866964643 0.046324555554227195
1140000000.0 0.05912811865204996 -0.24302409804526934
1160000000.0 0.21701789426756546 0.18296732755391604
1180000000.0 0.2890945257726351 0.10598768370638396
1200000000.0 0.22869744644889045 0.2243336905391862
1220000000.0 0.2500968148780217 0.20465388217241962
1240000000.0 -0.21748901907394216 -0.25319141710838416
1260000000.0 -0.30551027306691875 0.15625288351662253
1280000000.0 -0.3338350834443724 0.06394819844479568
1300000000.0 0.2970008907533354 -0.18359007686919424
1320000000.0 0.35395605446479506 -0.08452569799388521
1340000000.0 -0.25809590731869975 0.26584739728906187
1360000000.0 -0.14158886883232188 -0.3592288959541469
1380000000.0 0.21717450926979479 -0.3139718879825871
1400000000.0 -0.37386415239203596 -0.0565624522535125
1420000000.0 -0.01726038122176525 0.37887527736065324
1440000000.0 0.3520795202501565 -0.10664204593447493
1460000000.0 0.13197446054565762 -0.33483331184435455
1480000000.0 0.021469130630345147 -0.3466923077031122
1500000000.0 -0.11634256977754892 0.3155695659864901
1520000000.0 0.1598393047985045 -0.2684406143636112
1540000000.0 -0.12389056304970993 0.24686341596610803
1560000000.0 0.2161276900716982 0.10725631973722496
1580000000.0 -0.0431430328324567 -0.20886544260016005
1600000000.0 0.13133016958786445 0.12314803966208497
1620000000.0 -0.02683836297131047 -0.15891527705141664
1640000000.0 -0.12250567381834192 -0.06278055800617088
1660000000.0 0.09591452729076494 -0.04266438111760688
1680000000.0 -0.08201324316224155 -0.02920281003276749
1700000000.0 0.04312801111276035 0.06489620261157558
1720000000.0 -0.051380067022254915 0.01570114313104025
1740000000.0 -0.04730228962418981 0.008896058209468831
1760000000.0 0.023298385122478428 -0.05854731933472515
1780000000.0 -0.03631603721259209 0.08584466003056036
1800000000.0 0.10597987505024532 0.06187334485248078
1820000000.0 0.15254660012894689 0.032631862047126765
1840000000.0 0.1599649062704412 0.10763390476949494
1860000000.0 0.2158221392310981 -0.02365920840194533
1880000000.0 0.16636726332783838 0.1734229616391118
1900000000.0 0.26168339942756086 -0.05436280870125243
1920000000.0 -0.28532620535697456 -0.04382786658698886
1940000000.0 0.1974770727693923 0.2268819376235811
1960000000.0 -0.3076797792391315 0.06325791880607881
1980000000.0 -0.14926658911627208 -0.27972138953945014
2000000000.0 0.24272903588034667 -0.19668162774499526
2020000000.0 0.29372798276886614 0.11527764430262992
2040000000.0 0.23610177016204856 0.2052432592936498
2060000000.0 0.08255791565502356 0.2959717569741168
2080000000.0 -0.2912743374290387 0.0945973327995888
2100000000.0 0.29274944707673456 0.0977629024000251
2120000000.0 -0.2167986503081798 0.2208647679991084
2140000000.0 -0.029105324188076476 -0.29981603709591786
2160000000.0 -0.15622289267519102 0.2557337698550216
2180000000.0 0.21065201043561682 0.2005705057217719
2200000000.0 0.2857385518154716 -0.0029821843159674602
2220000000.0 0.2768298802437758 0.0034132190270046553
2240000000.0 0.10711140470796272 0.25135650801887155
2260000000.0 -0.03829601514460663 0.25684518821261054
2280000000.0 -0.23138440566307636 -0.08869999498605238
2300000000.0 0.23343691679343792 0.04653152317638264
2320000000.0 -0.139828200413172 0.1850847518849765
2340000000.0 0.11653810607550982 -0.18776030653778775
2360000000.0 -0.1892691055820774 0.1161859636087208
2380000000.0 0.19014953383778688 -0.12596663320145227
2400000000.0 -0.13576047655558332 0.20545771845647073
2420000000.0 0.2044659056660917 0.1845720818511772
2440000000.0 -0.19452019116749109 -0.22914913154609967
2460000000.0 0.1427138157681389 0.30108816226770047
2480000000.0 0.2560491668035513 -0.2645056399737585
2500000000.0 0.3392287871307026 0.2267566360619665
2520000000.0 -0.38407441894952227 0.2215220052897561
2540000000.0 -0.2021041426268779 -0.43526073800570636
2560000000.0 0.4888733052257394 0.16469222717684073
2580000000.0 -0.52342541855855 0.15575246128550546
2600000000.0 0.3880099860097496 -0.4248340736280045
2620000000.0 0.01211533904207356 0.5998113847342724
2640000000.0 -0.3635814727927582 -0.5005631335656552
2660000000.0 0.630801036460683 -0.06922574331641514
2680000000.0 -0.026867106782694453 0.6452006785212673
2700000000.0 -0.6361397268344697 0.15794769005262643
2720000000.0 -0.6366856204322721 -0.1798676831439337
2740000000.0 -0.5647247057698563 -0.3503355742080992
2760000000.0 -0.5470288282071215 -0.380077497951447
2780000000.0 0.4550531944048945 -0.48055500000452434
2800000000.0 0.6063745838486622 -0.24478471702308105
2820000000.0 0.5737224093361455 0.29080103414144703
2840000000.0 -0.3459180434658046 0.5277707255321985
2860000000.0 -0.04442661680559847 -0.6160501161548511
2880000000.0 -0.027531255095938068 0.6012089159009565
2900000000.0 0.47306487407531167 -0.3463917596266427
2920000000.0 -0.5098850466583947 -0.2455845773676816
2940000000.0 -0.331899201544636 0.42360140040605493
2960000000.0 -0.0351501369620191 0.5169632899402739
2980000000.0 0.4566938381187717 0.19743572663605058
3000000000.0 0.01075606612210064 -0.47020170645043785
3020000000.0 -0.44371791015187595 0.038271634634729344
3040000000.0 0.41706846020665495 0.04470650529245379
3060000000.0 -0.2741847744545749 -0.28042709533699767
3080000000.0 0.09014921887404248 0.3568109394919558
3100000000.0 -0.1458588298948403 -0.3212838260041704
3120000000.0 -0.3341453477442831 0.04524069374512036
3140000000.0 0.2764589840076657 0.1797165966656121
3160000000.0 -0.19103513747684722 -0.26791599113055153
3180000000.0 0.137408170509067 0.2965949606787948
3200000000.0 -0.057220249256302314 -0.316805824990661
3220000000.0 -0.28888694166021056 0.11738483675990585
3240000000.0 -0.19779033445200803 0.2213153420999272
3260000000.0 -0.2765396301186523 -0.027861998482189326
3280000000.0 -0.0006463799458835751 -0.2674965957745151
3300000000.0 0.2433722956503486 -0.04783494226895179
3320000000.0 -0.0835382038067704 0.21129651763271687
3340000000.0 -0.1857071950886897 -0.09195189960926542
3360000000.0 0.10384942362082533 -0.14262732985697338
3380000000.0 -0.14137753320837027 -0.05741428917177938
3400000000.0 0.0045735196267006695 0.1268804290585
3420000000.0 -0.07114300989887432 -0.09041112904361931
3440000000.0 0.09778817077044558 0.04253973625679111
3460000000.0 0.09908105295814974 0.010538550585351046
3480000000.0 -0.05550886797337033 -0.07080617282889337
3500000000.0 -0.05005805769381791 -0.05975656462176132
3520000000.0 -0.02765806355993821 0.06371724122452978
3540000000.0 -0.04605883112900792 0.05499884193232719
3560000000.0 -0.006754029351467899 -0.07038798526996506
3580000000.0 0.04994180717244374 0.06012102282598436
3600000000.0 0.08654953532438153 0.030738689164819866
3620000000.0 -0.07639895323271838 0.06999651989712168
3640000000.0 -0.018352818534640793 0.10574542983692371
3660000000.0 0.04655666076466835 0.10346740633843013
3680000000.0 0.0005549158191770694 -0.10626174028215009
3700000000.0 0.0955454878941045 -0.037856296436095824
3720000000.0 0.034413838830683066 -0.08562572653225953
3740000000.0 0.013177995417899421 -0.07964112138750043
3760000000.0 -0.06867722218969866 -0.03151075624489427
3780000000.0 -0.035399700422901 0.05259346920739743
3800000000.0 0.005439004723462207 -0.045458020371910296
3820000000.0 0.03332509208206291 -0.018268133005743554
3840000000.0 0.05035030723045818 -0.0061567124769878806
3860000000.0 0.03610363032268559 0.06532471044188772
3880000000.0 -0.007299340848952471 -0.09268301610528369
3900000000.0 0.05728618993418549 -0.08755722030317097
3920000000.0 -0.01357112017324327 0.10460914503053415
3940000000.0 0.01944315694421627 0.10445520085485285
3960000000.0 0.01667241537541349 -0.10504945138728922
3980000000.0 0.09670431057576885 0.011964193140484806
4000000000.0 0.07563912590485965 -0.03717865466132434
