!Created with skrf (http://scikit-rf.org).
# Hz S RI R 50.0 
!freq ReS11 ImS11
400000000.0 -0.7675971931366093 0.3225051816894835
420000000.0 0.07799369585570595 -0.761192013439661
440000000.0 0.4475144053250015 -0.5925228615594829
460000000.0 0.007344465940972262 -0.6534704844843593
480000000.0 -0.23860100736174075 -0.4922644720570796
500000000.0 -0.3914734356516317 0.08339872368742401
520000000.0 -0.37421798549609875 0.24414995918395993
540000000.0 0.4624516589905841 -0.16127831848100146
560000000.0 0.22817177530260255 -0.4157603108888061
580000000.0 0.3289745002340002 -0.26593877224067836
600000000.0 -0.3611140816561502 -0.054053062245357934
620000000.0 -0.30551399634674486 -0.18684932896511014
640000000.0 -0.23937681948749684 0.2763817225581141
660000000.0 -0.2582200161491667 0.24646639758262248
680000000.0 0.19213778417677735 0.2939506102101185
700000000.0 -0.22960056643558904 0.2521948859904516
720000000.0 0.0044297782728382066 0.35707416285507176
740000000.0 0.26459674553729085 0.19703034282607934
760000000.0 -0.1602965182376885 -0.2823098413779411
780000000.0 -0.29396502192979396 -0.05295348814622588
800000000.0 0.24334700777749824 0.0747255570819935
820000000.0 -0.22594671770738284 -0.017812035553693047
840000000.0 0.0735876126962271 -0.21377348898835039
860000000.0 0.12871755298830567 0.14009286359129078
880000000.0 -0.11545223364768037 -0.1576580165862801
900000000.0 0.03953601507733817 0.1525100601202992
920000000.0 -0.011707016908596948 0.14310674048745353
940000000.0 -0.11307610329224267 0.0766490660446766
960000000.0 0.10877734806377944 0.025736969835684104
980000000.0 0.03614242765210298 0.05565980961750843
1000000000.0 0.03575745420020801 0.012993384117647722
1020000000.0 -0.04354788589485979 0.023916836489315117
1040000000.0 -0.011325547992436714 -0.0794719776447754
1060000000.0 0.08352923225644024 0.07428715716490998
1080000000.0 -0.006587070607664341 0.16216690380238977
1100000000.0 -0.0975490996860528 -0.15656006316906643
1120000000.0 -0.2014156964504868 -0.06672241728896894
1140000000.0 0.06452320691927295 -0.24158922662587676
1160000000.0 0.19897525180255257 0.20173462066475398
1180000000.0 0.2804947992924231 0.12631232946545895
1200000000.0 0.2502650352850585 0.20040850381172592
1220000000.0 0.24628527547367352 0.2084600478081518
1240000000.0 -0.21830578427958877 -0.2529958030750692
1260000000.0 -0.2803210831813411 0.19743414251256947
1280000000.0 -0.3400509205731117 -0.01513706881961048
1300000000.0 0.2796641593623929 -0.2100859155529437
1320000000.0 0.3449858579519532 -0.11593599602115717
1340000000.0 -0.2673506849217252 0.25737236211981335
1360000000.0 -0.15469324140026078 -0.3537026418850128
1380000000.0 0.2916264600716079 -0.2466970905422896
1400000000.0 -0.37639564196819963 -0.039125644556174496
1420000000.0 -0.06012343991032908 0.3732979220488306
1440000000.0 0.35785563628582256 -0.08219623461664351
1460000000.0 0.1583051710171643 -0.3217170871524594
1480000000.0 -0.032154769829668924 -0.34524453462895277
1500000000.0 -0.12004884482321596 0.3140216192918455
1520000000.0 0.13786244711412574 -0.28086827323528385
1540000000.0 -0.0921010089030789 0.2597305888378377
1560000000.0 0.1908011930769794 0.14778185915352945
1580000000.0 -0.07334968536040946 -0.20095479204404976
1600000000.0 0.14767306775637326 0.10290533988163388
1620000000.0 0.001277543700475892 -0.16197046480768262
1640000000.0 -0.11127239830326552 -0.08058831531841718
1660000000.0 0.07506684632121197 -0.07403750090808381
1680000000.0 -0.05391460350845757 -0.06770883820318661
1700000000.0 0.07038187095281527 0.03426025149881165
1720000000.0 -0.052786552436250966 -0.015790862331083816
1740000000.0 -0.04803791756761877 0.004325684175545766
1760000000.0 0.057208720535751496 -0.028526205106207115
1780000000.0 -0.07267114432542042 0.05868878908733853
1800000000.0 0.1225730143544666 -0.0004434040629635227
1820000000.0 0.12571054420766195 0.09162536138250546
1840000000.0 0.14987873839103658 0.12251350109432012
1860000000.0 0.21292518405359293 0.03985541165028302
1880000000.0 0.1183052294751444 0.20903072373710427
1900000000.0 0.26474263685883204 -0.030350879832122302
1920000000.0 -0.2791485149587614 -0.07017909027643769
1940000000.0 0.2083210938524051 0.21684836817071457
1960000000.0 -0.3050313764496841 0.07378987651298496
1980000000.0 -0.1636628699519029 -0.2713712728436637
2000000000.0 0.2270999344961033 -0.21379950525533145
2020000000.0 0.29997259032438833 0.09732532449362687
2040000000.0 0.22719788861396492 0.21682526331030652
2060000000.0 0.027726962306477806 0.30712314665140383
2080000000.0 -0.28092059592999763 0.12436866925079183
2100000000.0 0.24988776919347502 0.18163160453623403
2120000000.0 -0.27229421562726214 0.1473296335345984
2140000000.0 0.04888170874450716 -0.29729323940924485
2160000000.0 -0.17241873759735385 0.2440247938200669
2180000000.0 0.20360565177606788 0.20724270921616514
2200000000.0 0.28444709037668936 0.009114544474128086
2220000000.0 0.276533609176651 0.009742927639870983
2240000000.0 0.12006702859161288 0.24438462245741016
2260000000.0 -0.00513881962013674 0.2598373914377076
2280000000.0 -0.2472616035018184 -0.020500445715370345
2300000000.0 0.23755106261680028 -0.006500472230410573
2320000000.0 -0.10640840523329681 0.20651988719844572
2340000000.0 0.13977619023388155 -0.17260004459365072
2360000000.0 -0.16644578554834397 0.14911170271725935
2380000000.0 0.1497722184903325 -0.17101096078819977
2400000000.0 -0.1761390689445534 0.17232004006703627
2420000000.0 0.14329734954155154 0.23606563604389044
2440000000.0 -0.20639723487883327 -0.21973588404711292
2460000000.0 0.1226375124755739 0.308996265377099
2480000000.0 0.31732595483773013 -0.18333118732057002
2500000000.0 0.2835814960224832 0.29220544451278285
2520000000.0 -0.377471040543222 0.2323786850346936
2540000000.0 -0.2380795313530435 -0.41637316928317575
2560000000.0 0.4669131388485426 0.2174205778282525
2580000000.0 -0.5241744453353658 0.15239063947885742
2600000000.0 0.3712718170807229 -0.4398400710800313
2620000000.0 -0.016327646871928704 0.6002360748893126
2640000000.0 -0.34214537073830215 -0.5155405024391412
2660000000.0 0.6349481311713515 0.009373000035071388
2680000000.0 -0.14700844117058492 0.6294974719469594
2700000000.0 -0.6421639735433997 0.1316048436652388
2720000000.0 -0.6104408199817873 -0.2551038221107565
2740000000.0 -0.49891320350749446 -0.43880827338335343
2760000000.0 -0.4626544469490115 -0.47946140060595155
2780000000.0 0.5405883080575735 -0.3809993379179459
2800000000.0 0.6358742302561924 -0.1517243374285673
2820000000.0 0.5558308959058874 0.3240896997701318
2840000000.0 -0.3213528618273365 0.5430986579439452
2860000000.0 -0.09169892739839419 -0.6121202837838364
2880000000.0 -0.06046928686134008 0.5992789800815193
2900000000.0 0.5047559886132734 -0.2991902179932139
2920000000.0 -0.4913071085624162 -0.2810067913787702
2940000000.0 -0.36465481847686654 0.39675715730860356
2960000000.0 -0.08719040695640101 0.5111032701050114
2980000000.0 0.45620300056663193 0.19708943955607594
3000000000.0 0.02903350195349402 -0.46907843776433056
3020000000.0 -0.44195497067825595 -0.06101706497941368
3040000000.0 0.41174080358199844 0.0889294236968711
3060000000.0 -0.22746365766058835 -0.3205192564905332
3080000000.0 -0.007300743230747647 0.36759841207132465
3100000000.0 -0.062248578815496544 -0.34707452443280024
3120000000.0 -0.33503966322920076 -0.039067123218253556
3140000000.0 0.2660658706202167 0.1948313647912658
3160000000.0 -0.1587727947423126 -0.2869713015251122
3180000000.0 0.10010966079510182 0.31025104087264044
3200000000.0 -0.04086593581439926 -0.31879630831557315
3220000000.0 -0.2862439407767393 0.12105280336283138
3240000000.0 -0.17472043302135049 0.23876973722778086
3260000000.0 -0.2768370425500217 0.02546696706152698
3280000000.0 -0.07460017717105538 -0.2575273737696161
3300000000.0 0.20663131319443329 -0.13665495615519618
3320000000.0 -0.09045617627087002 0.20939009037562087
3340000000.0 -0.20811653537355562 -0.029559451916380236
3360000000.0 0.06338304428189559 -0.1682775583957287
3380000000.0 -0.11773238351796173 -0.10055977423041673
3400000000.0 -0.07884674091333796 0.1022346501927141
3420000000.0 0.009598475013150013 -0.11771703525697039
3440000000.0 0.05174420937629676 0.09482197449746804
3460000000.0 0.015260356814730052 0.09852543605568942
3480000000.0 0.04589574289159169 -0.07787018406885221
3500000000.0 0.01284419248111617 -0.07701253010472181
3520000000.0 -0.052502233528435124 0.04280954404414781
3540000000.0 -0.044089149378878555 0.053904001371990425
3560000000.0 -0.04394322715078106 -0.05300020255894444
3580000000.0 0.07503845055081268 -0.023015400679682302
3600000000.0 0.047665542992935996 -0.0780338976603169
3620000000.0 -0.012638662463579484 0.10331705947505648
3640000000.0 0.0180748394530326 0.10706555644199303
3660000000.0 0.0630271345667706 0.09647213023237304
3680000000.0 0.006865306134537489 -0.10708391951203418
3700000000.0 0.09022213701744321 0.048348104503073114
3720000000.0 0.09397235243261377 -0.008084862526242985
3740000000.0 0.025032849080109807 -0.07817871621476322
3760000000.0 -0.03938607963058024 -0.06426021508594466
3780000000.0 -0.007631841102546276 -0.06292879639965844
3800000000.0 0.04495486675015644 -0.013228438856526137
3820000000.0 0.035503291781025834 0.012419484939401083
3840000000.0 0.042005708868476654 0.02908936741340189
3860000000.0 0.011796699763098488 0.07471047849103704
3880000000.0 -0.05464345849143215 -0.07509660963557589
3900000000.0 0.056332778248519066 -0.08661169622448486
3920000000.0 -0.0672371762316035 0.08107979885384765
3940000000.0 0.04518720564582621 0.09602927207808475
3960000000.0 -0.049654677125088115 -0.093380052920647
3980000000.0 0.09044184999574005 0.035654414004796325
4000000000.0 0.0738877260569298 -0.0436380591348124
