!Created with skrf (http://scikit-rf.org).
# Hz S RI R 50.0 
!freq ReS11 ImS11
400000000.0 -0.7739029171328875 0.3044584776626838
420000000.0 0.05460639542631681 -0.7645646683301274
440000000.0 0.4447697764515313 -0.5941252390868321
460000000.0 -0.06942080316544284 -0.6485156598587548
480000000.0 -0.22419201144006878 -0.49885049993449404
500000000.0 -0.35932130779701427 0.18171189676620614
520000000.0 -0.3629731640827831 0.2595114418599139
540000000.0 0.4547865665849353 -0.18592167678459717
560000000.0 0.26295434352123953 -0.3936550260100468
580000000.0 0.27591098307052164 -0.321836831848359
600000000.0 -0.35091332428434246 -0.10062157337947797
620000000.0 -0.1871912804445648 -0.3065407833373087
640000000.0 -0.05964742342238134 0.3597891901293114
660000000.0 -0.3263398824925922 0.14526313858816298
680000000.0 0.16755288981182662 0.30750579085587265
700000000.0 -0.2391929099572857 0.24683690336725897
720000000.0 0.07224174095551021 0.3475612465150293
740000000.0 0.24308075776639534 0.22215910016063478
760000000.0 -0.23378897685380917 -0.22576491655012113
780000000.0 -0.29528872693483943 -0.029535639527861056
800000000.0 0.2527288637741093 0.04417082257003621
820000000.0 -0.1846773775191715 0.1312748243064264
840000000.0 0.16022314599355547 -0.15740519427965444
860000000.0 0.11242109470787554 0.15400522723972257
880000000.0 -0.09324153840188962 -0.1727916917714537
900000000.0 0.03616587808747245 0.15269909133401519
920000000.0 0.054117738917715125 0.1309302014929889
940000000.0 -0.11606000291251156 0.06879532538311228
960000000.0 0.11131182295488964 0.0026279543554550565
980000000.0 0.03516413220942439 0.05685000719236419
1000000000.0 -0.028093373226264158 0.025348544494910204
1020000000.0 -0.02073311271928508 0.04382033498992817
1040000000.0 -0.016613667743071818 -0.0788227400398299
1060000000.0 0.10828796276953181 0.028428524870392942
1080000000.0 0.00828494432553354 0.1603188945173935
1100000000.0 -0.14556158394662766 -0.11498448087605835
1120000000.0 -0.21024644269520276 0.0220226407345416
1140000000.0 0.03885610763870832 -0.24670942236999546
1160000000.0 0.20691864698376447 0.1943598481033049
1180000000.0 0.2847562115118501 0.11761030465354219
1200000000.0 0.24357717655090141 0.20845765260086335
1220000000.0 0.2621687532059898 0.18887294237277782
1240000000.0 -0.21668869202777477 -0.2541883918117164
1260000000.0 -0.28723977232199743 0.18746023720759758
1280000000.0 -0.3379752628089246 0.03626989857554494
1300000000.0 0.28737621014864023 -0.19873644007829874
1320000000.0 0.35287893272948573 -0.08818730709407573
1340000000.0 -0.24696872143375634 0.27629164076462764
1360000000.0 -0.16220804367119243 -0.35086845898548963
1380000000.0 0.25694784049296004 -0.2820302699126235
1400000000.0 -0.37765867460920816 -0.020907615453851155
1420000000.0 0.010131673347070066 0.37823837325181053
1440000000.0 0.35806283100764397 -0.08360755553931865
1460000000.0 0.10939773993241139 -0.34257362101442346
1480000000.0 0.03237571635457047 -0.3459404942855214
1500000000.0 -0.09655377203064111 0.32234554317858166
1520000000.0 0.15305262088696256 -0.27179233343166925
1540000000.0 -0.11201443039690749 0.25242528000607095
1560000000.0 0.20641975151121272 0.1260352831388885
1580000000.0 -0.07227502000147001 -0.20103612043034846
1600000000.0 0.11348299435376988 0.13943587105764285
1620000000.0 0.012205679854618552 -0.16093370381610556
1640000000.0 -0.13290812047617703 -0.03697924048714014
1660000000.0 0.09475229824300996 -0.046397165714010424
1680000000.0 -0.06947129753663321 -0.05121299650160508
1700000000.0 0.06839436311091739 0.03840322655071485
1720000000.0 -0.051022648931478724 0.017445259874374997
1740000000.0 -0.04651053121980776 0.011740911877508541
1760000000.0 0.05413161431885518 -0.03162679168098723
1780000000.0 -0.04049865545565795 0.08413060654840693
1800000000.0 0.12010278392526771 0.020899973685124817
1820000000.0 0.14306646554219796 0.06167002481056434
1840000000.0 0.16173485407773638 0.10532555771947773
1860000000.0 0.21512749859314267 -0.028931533203908313
1880000000.0 0.18959953514143976 0.14860129582931758
1900000000.0 0.25715211174821173 -0.0708601457565255
1920000000.0 -0.2774706480371383 -0.0792590900365747
1940000000.0 0.18364906172605813 0.2392355242280182
1960000000.0 -0.30297238141653826 0.08251421197755411
1980000000.0 -0.14563450076568257 -0.2812080598306647
2000000000.0 0.2703011011245946 -0.15696066008641626
2020000000.0 0.29363776220846893 0.1160553979152738
2040000000.0 0.2509784519200192 0.1881195973106392
2060000000.0 0.08587986889967324 0.2951368253481287
2080000000.0 -0.27335326296574725 0.13638750225808616
2100000000.0 0.293321553028192 0.09709654724067963
2120000000.0 -0.205128727035334 0.23176674603710035
2140000000.0 -0.00855873938472634 -0.30121524477417566
2160000000.0 -0.11150466274369955 0.2789336546800319
2180000000.0 0.22234453717228933 0.18731388501806512
2200000000.0 0.28521501270337263 -0.007228021874300565
2220000000.0 0.2760974765158135 0.014417569888943594
2240000000.0 0.0758124854392663 0.2629341600560421
2260000000.0 -0.011281230884749712 0.2598188798494652
2280000000.0 -0.2408421880691793 -0.05462324151023661
2300000000.0 0.22098314908105765 0.08589118608605065
2320000000.0 -0.1661858546715061 0.1626326309667327
2340000000.0 0.06942771188673093 -0.21086733033162852
2360000000.0 -0.16236976450993737 0.15069999730223835
2380000000.0 0.19720939112848468 -0.11404233667868272
2400000000.0 -0.15728588977959132 0.18981165349575863
2420000000.0 0.21452480782611155 0.1736834131447259
2440000000.0 -0.2406129945258217 -0.18028548736227448
2460000000.0 0.11156237708977419 0.3135376537301542
2480000000.0 0.27537475128090394 -0.24456634810024816
2500000000.0 0.36388041616912187 0.18525365944842573
2520000000.0 -0.36458687189666195 0.25196538951863295
2540000000.0 -0.20221637276590568 -0.43469712910933334
2560000000.0 0.49381995323083433 0.14780300113184594
2580000000.0 -0.5233378811612972 0.15503765964113828
2600000000.0 0.35777585871224776 -0.4509807474027912
2620000000.0 -0.014404889102741559 0.6000933008813351
2640000000.0 -0.36852132120711323 -0.4973393475202151
2660000000.0 0.634152725043451 -0.037906999082330625
2680000000.0 -0.03488268169419577 0.6450545064541995
2700000000.0 -0.6366571090323914 0.15561548307477055
2720000000.0 -0.6404499007758702 -0.16422875264472342
2740000000.0 -0.6289851581090509 -0.21428764042826426
2760000000.0 -0.517285895284636 -0.419087071473006
2780000000.0 0.4487679573592538 -0.4858812795056243
2800000000.0 0.6035959083933065 -0.2504131058354724
2820000000.0 0.5836852507154987 0.2696855681714077
2840000000.0 -0.2522651835455808 0.5780054526716663
2860000000.0 -0.07809682374669086 -0.6130818683197499
2880000000.0 -0.005147823990037029 0.60238263339884
2900000000.0 0.47324867014504685 -0.3466548462833573
2920000000.0 -0.49999971584983055 -0.2650838870551
2940000000.0 -0.35862999131249357 0.40230593796071495
2960000000.0 -0.038261164249368367 0.5171247616579566
2980000000.0 0.46276146746311286 0.18213579805939875
3000000000.0 0.08536990242255851 -0.46261808153720385
3020000000.0 -0.4447127704034653 -0.023662351336464223
3040000000.0 0.3929575260597964 0.14837444938156216
3060000000.0 -0.2487065900667881 -0.30213913244397655
3080000000.0 0.1002389032776248 0.35306169330708775
3100000000.0 -0.1542296329005351 -0.31705149752004036
3120000000.0 -0.3311550699784681 0.06450112060417086
3140000000.0 0.29257118576556707 0.15175447960892616
3160000000.0 -0.22000404055765213 -0.24506727126840586
3180000000.0 0.14898235434013074 0.29124369165353386
3200000000.0 -0.05624014381077356 -0.3169980245691758
3220000000.0 -0.2979737564433176 0.0937158678134472
3240000000.0 -0.20122135265195704 0.21867350556499948
3260000000.0 -0.27658721974489614 -0.030339783165732142
3280000000.0 -0.027337223877929553 -0.2659165867601327
3300000000.0 0.24607172148987522 -0.027490694115972766
3320000000.0 -0.09922442497682415 0.2046847630558867
3340000000.0 -0.19057351825416033 -0.08242800858274384
3360000000.0 0.11374990169477531 -0.13594510344389127
3380000000.0 -0.1302297295408098 -0.07890511909018837
3400000000.0 -0.03859235582229334 0.12079190077600707
3420000000.0 -0.06784181433339072 -0.09390451214966368
3440000000.0 0.10461736823351746 -0.02366135180388805
3460000000.0 0.09508899103465687 -0.028423095178878446
3480000000.0 -0.013174643183780598 -0.08898365252170146
3500000000.0 -0.02971897145578732 -0.07281219922078697
3520000000.0 -0.02588359867517518 0.06514381910910996
3540000000.0 -0.030614468826142823 0.06489772814054337
3560000000.0 0.021208657821762036 -0.06660051870608395
3580000000.0 0.01789703403361574 0.0763903766705592
3600000000.0 0.07671412884782958 0.049964929514648634
3620000000.0 -0.0608929820080649 0.08361202778325856
3640000000.0 -0.06100542237773533 0.08929595175856585
3660000000.0 0.08226675790965456 0.0775079510617955
3680000000.0 -0.00774635672471095 -0.10594223296947354
3700000000.0 0.09994313234339354 -0.02127139853439104
3720000000.0 0.07287657580860574 -0.057569365053733966
3740000000.0 -0.026855861953489397 -0.07700959456067111
3760000000.0 -0.07337490150339218 -0.01616624413619657
3780000000.0 -0.06072378342436655 0.019242864554749925
3800000000.0 0.014441321475071555 -0.043901143297655106
3820000000.0 0.004090415657707747 -0.037503983011440416
3840000000.0 0.040200362278116464 0.030544821844299175
3860000000.0 0.0446506037066481 0.06032891073110335
3880000000.0 -0.044296868152419774 -0.08211480198529088
3900000000.0 0.049639851938528004 -0.09183049179203288
3920000000.0 -0.01958543957610979 0.1042951573144054
3940000000.0 0.019143302299821148 0.10490877401507528
3960000000.0 -0.026509330772305228 -0.10369195609109264
3980000000.0 0.0971034973340046 -0.011161490183846334
4000000000.0 0.07686051917318025 -0.03696280441862219
