!Created with skrf (http://scikit-rf.org).
# Hz S RI R 50.0 
!freq ReS11 ImS11
400000000.0 -0.7528249339047097 0.35321357666962155
420000000.0 0.04040573359515164 -0.7645174901484412
440000000.0 0.48028574401085083 -0.5663313437270788
460000000.0 -0.21629619003243364 -0.6165585678351185
480000000.0 -0.2237961425438947 -0.49783769304858166
500000000.0 -0.3653120884114397 0.1678504287481031
520000000.0 -0.394116085125914 0.21052206659313474
540000000.0 0.43976924782479343 -0.2153946478691319
560000000.0 0.2747384638183139 -0.3857626885344901
580000000.0 0.303747018126081 -0.2972855408667285
600000000.0 -0.36083790717080366 -0.05348741860839198
620000000.0 -0.24540332009602353 -0.259885189687892
640000000.0 -0.09487942371145652 0.3531010045841559
660000000.0 -0.33144742412173495 0.13368048728259987
680000000.0 0.12312190839355223 0.32815952190746855
700000000.0 -0.15566874588435883 0.3046412947425975
720000000.0 0.022237857384754083 0.3547768100900864
740000000.0 0.20700431085439883 0.255988059880111
760000000.0 -0.1568371151789436 -0.28395839054694205
780000000.0 -0.28619715293843206 -0.07823989311357653
800000000.0 0.25526625894809485 0.031285818849237895
820000000.0 -0.16070295948766747 0.15927905705658216
840000000.0 0.15172986903814412 -0.16591781693401916
860000000.0 0.07803473949685966 0.1743901001007736
880000000.0 -0.09726220716327606 -0.1706528094320688
900000000.0 -0.000378641180252535 0.1565027511742528
920000000.0 0.06032477452927543 0.129406741825508
940000000.0 -0.11724158403661154 0.06782576960737303
960000000.0 0.08949954099893165 0.06589971704079339
980000000.0 0.02378200432856692 0.06311453030293707
1000000000.0 -0.03707724208992796 0.007729660558520403
1020000000.0 -0.003598797703999318 0.048147288069783974
1040000000.0 -0.028726686643725644 -0.07466788720401452
1060000000.0 0.1120016348695994 0.007372668638615745
1080000000.0 0.02823639987541038 0.15808459846450418
1100000000.0 -0.12004436754961834 -0.14135629049281156
1120000000.0 -0.20645476298766754 0.04646632723392382
1140000000.0 0.06923227705166818 -0.23935430835456328
1160000000.0 0.20642760501905183 0.1947486051617017
1180000000.0 0.2927299020086334 0.09532874852983945
1200000000.0 0.24643751448206477 0.2048085577048134
1220000000.0 0.25564194229181236 0.19792575090572442
1240000000.0 -0.22471187828171202 -0.24683892439843488
1260000000.0 -0.3077411540029221 0.15190737957473813
1280000000.0 -0.33701430323822384 0.04708139386793208
1300000000.0 0.30744587637170545 -0.166076827532876
1320000000.0 0.34473271952011453 -0.1161892045841925
1340000000.0 -0.27547103895063296 0.2473196095376716
1360000000.0 -0.16342827848530514 -0.3498642212466925
1380000000.0 0.22039310819202437 -0.3108454782651925
1400000000.0 -0.37695441462734913 -0.01609498589433967
1420000000.0 0.015547587787027004 0.37802010333067715
1440000000.0 0.33821138611365337 -0.1430833608238072
1460000000.0 0.10391538228683761 -0.3440540470284884
1480000000.0 0.0059695504410895465 -0.34720311932416265
1500000000.0 -0.11069589463951156 0.3173684966255021
1520000000.0 0.1375145121982168 -0.2811444064154667
1540000000.0 -0.10379030524397902 0.25572753199062875
1560000000.0 0.209971526250034 0.11910438506374921
1580000000.0 -0.039189101322846615 -0.20973617681111173
1600000000.0 0.10873838361187708 0.1443557604059298
1620000000.0 -0.02000668137829452 -0.15953856637655625
1640000000.0 -0.10028800682868783 -0.09342616677220679
1660000000.0 0.08445630612505141 -0.06213354404277663
1680000000.0 -0.0862349746940314 0.007894164769243343
1700000000.0 0.061816918656013624 0.04882611166399763
1720000000.0 -0.051963803526099625 0.015649451691720558
1740000000.0 -0.044718132545608136 0.017387624111263884
1760000000.0 -0.028836472767976427 -0.056365138498516563
1780000000.0 -0.01928442845777997 0.09111024714871299
1800000000.0 0.10995133226543159 0.05464237443236068
1820000000.0 0.15398265806906963 0.025780528513598185
1840000000.0 0.14230258020667055 0.1312703909981234
1860000000.0 0.217179780982663 -0.013653481435203866
1880000000.0 0.1442173008093667 0.192454750070255
1900000000.0 0.2669118669925223 -0.015018538284758234
1920000000.0 -0.2766791124510381 -0.08378409703348358
1940000000.0 0.18883381167978042 0.23435882982173215
1960000000.0 -0.3088566214779788 0.05487490330830178
1980000000.0 -0.15337104750972386 -0.27731665551105583
2000000000.0 0.23924301157337946 -0.1998549137466312
2020000000.0 0.30776924455416355 0.068698365532741
2040000000.0 0.21708560001129604 0.2253896176762472
2060000000.0 0.07447613964926464 0.2985298167807907
2080000000.0 -0.266851759603019 0.15082091473309786
2100000000.0 0.2771983177512951 0.13730449740748135
2120000000.0 -0.22699458054586077 0.21194158242392014
2140000000.0 0.02949080484459286 -0.29933084492900314
2160000000.0 -0.18237578700379442 0.23729342649897378
2180000000.0 0.20957498061325114 0.20121835221137208
2200000000.0 0.28525446990705444 -0.005558144314695979
2220000000.0 0.27675887651069025 0.007803920033124787
2240000000.0 0.1267129698329921 0.24096498410418882
2260000000.0 -0.05748866260053789 0.253082323685186
2280000000.0 -0.22770871312478116 -0.09804565204902937
2300000000.0 0.2373004493612663 0.011531749150055847
2320000000.0 -0.10229647058440326 0.20792347196380848
2340000000.0 0.10329137640617521 -0.1955533488184706
2360000000.0 -0.18745997438730458 0.12033797801776053
2380000000.0 0.15308587454049194 -0.1691334468834693
2400000000.0 -0.0940546093849154 0.2275846869936282
2420000000.0 0.1853959293567592 0.2049308375669819
2440000000.0 -0.200720158981794 -0.22456898921200272
2460000000.0 0.11837309306303424 0.3113355268888348
2480000000.0 0.2643530164469678 -0.2551305809860333
2500000000.0 0.3186670331138562 0.2539146513552998
2520000000.0 -0.3701431929963968 0.24346054149179638
2540000000.0 -0.19993020064707215 -0.4365405064761968
2560000000.0 0.4873159926438935 0.16833157232324858
2580000000.0 -0.5203301496814365 0.16422269955636334
2600000000.0 0.39879830542398187 -0.41450644394168445
2620000000.0 -0.047527844140647604 0.5983395837786244
2640000000.0 -0.3524420759747556 -0.50886744499071
2660000000.0 0.6339287267192358 -0.03249202709167143
2680000000.0 -0.11389954177529094 0.6355448346599202
2700000000.0 -0.6357589742999873 0.16049272468558923
2720000000.0 -0.6358219728100432 -0.1833790313546348
2740000000.0 -0.5437142524636848 -0.38218079644285663
2760000000.0 -0.5050355901186646 -0.43446598281624044
2780000000.0 0.5035430781550407 -0.42938764078802866
2800000000.0 0.6200884094051085 -0.20736091444989982
2820000000.0 0.5799823926323265 0.27815154147611526
2840000000.0 -0.3044211480894097 0.5527796725098441
2860000000.0 -0.07438497696183764 -0.6139048908105501
2880000000.0 -0.030480617065407962 0.6014695611452022
2900000000.0 0.48926643876917864 -0.32375413383438806
2920000000.0 -0.49844181395867104 -0.2700123481299859
2940000000.0 -0.38252000625371124 0.37972477947868355
2960000000.0 -0.0620164077366026 0.514623312934031
2980000000.0 0.4596002943170156 0.19058351137305704
3000000000.0 0.06201248300832552 -0.4666714861637101
3020000000.0 -0.4459912171197053 -0.0199294333172911
3040000000.0 0.41709821547400494 0.05380878431856304
3060000000.0 -0.2712266385624326 -0.283276547300837
3080000000.0 0.054963330929559365 0.3642165955438344
3100000000.0 -0.1954048760738375 -0.294081299557077
3120000000.0 -0.3371577766975283 0.004180055738269832
3140000000.0 0.29326527881893005 0.15010652824740153
3160000000.0 -0.16656589282124476 -0.28320050635157373
3180000000.0 0.11050770680912163 0.3076591581765892
3200000000.0 -0.05188204123397257 -0.3177071341766967
3220000000.0 -0.27997116311769366 0.13533525990426565
3240000000.0 -0.18351688620961149 0.23164328972304168
3260000000.0 -0.2774453134171762 -0.007172860131396811
3280000000.0 -0.06147439624694708 -0.25938496323417914
3300000000.0 0.22113213127654982 -0.11140730250655372
3320000000.0 -0.03834773488443405 0.22446750850363598
3340000000.0 -0.20510128741302397 -0.029255112984719354
3360000000.0 0.11899145583480814 -0.13400674810816474
3380000000.0 -0.14090649317518625 -0.06309010446456245
3400000000.0 -0.012057790219655203 0.12781797102736042
3420000000.0 -0.02661175981491083 -0.11297601228343565
3440000000.0 0.06052733848158101 0.0881414942888125
3460000000.0 0.09653137888930681 0.02919255960427343
3480000000.0 -0.05969833335445606 -0.06920773215480484
3500000000.0 -0.0056489265114732685 -0.07808492707325315
3520000000.0 -0.06067800311230589 0.03361587960113005
3540000000.0 -0.04983112590146688 0.050437541971434914
3560000000.0 0.030537505276043767 -0.06267585436355196
3580000000.0 0.06512414731878485 0.04319919786692903
3600000000.0 0.08033647952502683 -0.04456293051841808
3620000000.0 -0.01653495331643074 0.10218609487661456
3640000000.0 0.030003963249214182 0.10399635283522936
3660000000.0 0.07051167428172635 0.08942051766116481
3680000000.0 -0.001238119038227069 -0.10733854253438652
3700000000.0 0.08498391400807062 -0.05841555962443268
3720000000.0 0.07017439193315354 -0.061302460766891595
3740000000.0 0.009292361770386759 -0.08154629755852578
3760000000.0 -0.07490894470264561 -0.013143478688108673
3780000000.0 -0.06256887141622279 0.013898445992157019
3800000000.0 0.04283277076989341 -0.01816457353997558
3820000000.0 0.03796895139168337 -0.0005239503325585508
3840000000.0 0.049535169100785495 -0.013511309558523862
3860000000.0 0.03845443167751467 0.06427941068831731
3880000000.0 -0.05604222655129907 -0.07472494597978231
3900000000.0 0.03098921962052487 -0.09930981129168734
3920000000.0 0.005455935643380034 0.10542494202095679
3940000000.0 0.03985258220445417 0.09835085310392677
3960000000.0 -0.0029811666125473413 -0.10539754689282274
3980000000.0 0.08796222632561994 -0.04198849157438793
4000000000.0 0.05685692311619976 -0.061962515792757564
