!Created with skrf (http://scikit-rf.org).
# Hz S RI R 50.0 
!freq ReS11 ImS11
400000000.0 -0.6537007717934865 -0.47662130199920233
420000000.0 0.3504609248971345 -0.6816977953417961
440000000.0 -0.6638751225955519 -0.29293999543236393
460000000.0 -0.4444235898815968 -0.4437611094127947
480000000.0 -0.5116145318608397 -0.15829166092237043
500000000.0 0.2612203495907323 -0.31358239778876384
520000000.0 0.37698906975972885 0.18104579566158008
540000000.0 0.4094626999030535 0.21081711034628675
560000000.0 0.46867582646907296 -0.025841110519652155
580000000.0 -0.4189857808449852 0.06935297607046868
600000000.0 0.016954875012269124 -0.39474813543666776
620000000.0 0.29516058750698526 -0.2376269935397885
640000000.0 -0.29165460031583273 0.22026082616096926
660000000.0 -0.04971605034031837 0.36371062973766777
680000000.0 -0.012530614753448044 0.3418685601664019
700000000.0 0.3265335335502141 0.10490866352534643
720000000.0 0.33096406942841644 -0.07252781177525211
740000000.0 -0.26237957367137177 -0.14085300361420833
760000000.0 -0.2615703851656742 -0.08012369180073449
780000000.0 -0.2683888162073884 0.04641426850488585
800000000.0 -0.16530051761456357 0.20414329837338238
820000000.0 0.20943943751796182 -0.09926546157881445
840000000.0 -0.18199639273451268 0.12161268871240595
860000000.0 -0.19421157707823472 0.03433300441561452
880000000.0 0.11675253624044807 -0.14424594136779129
900000000.0 0.0032174508697145154 0.1585398651638839
920000000.0 -0.08474621187755634 0.11649519680208453
940000000.0 0.10841202391159104 0.07630496045950877
960000000.0 -0.10549206255963411 0.004859089815678532
980000000.0 0.03915439288273654 -0.043965238644504676
1000000000.0 -0.04340579830495258 -0.034971126156980496
1020000000.0 0.0005260454377322899 0.04947279450775105
1040000000.0 0.07238928813040402 -0.00043670528399175396
1060000000.0 0.08061633481045016 0.08011337618050897
1080000000.0 0.021580766869607353 0.1410527889471202
1100000000.0 -0.027562310011120146 0.17354591723717042
1120000000.0 -0.06626519995569315 0.196344520801507
1140000000.0 -0.06316712943243738 -0.23422101795370573
1160000000.0 -0.2002162019404127 0.18307951829781144
1180000000.0 0.16095896846282423 -0.22610908706443833
1200000000.0 -0.024599913422106864 0.3029911448794836
1220000000.0 -0.02421871262503605 0.31262995234649216
1240000000.0 -0.18634460161025337 -0.2734066516278297
1260000000.0 -0.1592328711725204 0.29652341375384933
1280000000.0 -0.16579706739405578 0.3020170295900514
1300000000.0 -0.2068877566401799 0.27667141985763627
1320000000.0 0.17682288941781457 -0.3047552256127484
1340000000.0 0.31993322429110294 0.17660068692234596
1360000000.0 -0.3690264606595941 0.03980505939432985
1380000000.0 0.3520258588717686 0.12851982083927807
1400000000.0 -0.06932800090839768 -0.37218243471231266
1420000000.0 0.0063697899066199794 0.3885037419618503
1440000000.0 0.3010768210995733 -0.22515139725358685
1460000000.0 0.016352128550510176 -0.3629598267373183
1480000000.0 -0.3337037589855578 -0.10828487876680734
1500000000.0 -0.08929265182729916 0.32022624533787797
1520000000.0 0.2417832094657814 0.18636050298097173
1540000000.0 -0.13036405880361074 -0.2480805970539062
1560000000.0 -0.2145746555916901 0.13965480132893898
1580000000.0 -0.09775445943812375 -0.19788119598955298
1600000000.0 0.09537932190020297 0.16155639833947305
1620000000.0 -0.1397978059333141 -0.077059229741911
1640000000.0 -0.031022218017483297 0.13143288683991633
1660000000.0 -0.09773111198285675 -0.05158362608839652
1680000000.0 -0.0661484804961824 0.05935328727603561
1700000000.0 -0.0018914499363471512 -0.07406009376498845
1720000000.0 -0.05923207275682245 0.019809472092422904
1740000000.0 -0.007490584056185867 -0.05522674781250863
1760000000.0 0.044121371745499904 -0.056019374105053046
1780000000.0 0.09194071590559584 -0.035504013743828985
1800000000.0 0.123011356707027 -0.0007185253088175186
1820000000.0 -0.16009738135203078 0.020302187106509946
1840000000.0 -0.17195483664345285 -0.09051205701918547
1860000000.0 -0.22701807038795654 -0.012995017119891266
1880000000.0 -0.08696640513382763 0.23355197857139715
1900000000.0 0.2543542703439067 0.10971821708001979
1920000000.0 -0.2715423944093042 -0.1116247672569334
1940000000.0 0.09448301171516828 0.28788282028061213
1960000000.0 -0.29945025416055787 -0.07458385617294859
1980000000.0 0.3002322888131066 -0.07543023358956678
2000000000.0 0.062412241995664766 0.3011720551374212
2020000000.0 -0.30362444618377327 0.07851370635231897
2040000000.0 -0.2651973044519831 0.16022460627678875
2060000000.0 -0.28615862837171024 -0.09966169020104411
2080000000.0 -0.11360125354108834 -0.28160727625536963
2100000000.0 0.14131462513809231 0.2641578077238784
2120000000.0 -0.290490951288871 -0.05772346848438186
2140000000.0 0.29064012437885905 -0.013016874287466276
2160000000.0 -0.28469902981140416 -0.0013388791647045723
2180000000.0 -0.23064303422237692 0.1540296540690171
2200000000.0 0.17022881751033306 0.2127759970277829
2220000000.0 0.25262871290362293 0.07211093031875772
2240000000.0 -0.09616382900273802 0.2360233553676591
2260000000.0 -0.228183742096659 0.08193746438991667
2280000000.0 -0.03416117406625715 -0.23127645405055927
2300000000.0 0.20292659535808324 0.08565519277438587
2320000000.0 -0.048948049439019654 -0.20798256513152913
2340000000.0 0.1471508321239103 0.15136950673985747
2360000000.0 -0.20408864438753627 -0.04979886591750983
2380000000.0 0.167542713446397 0.13848281310170407
2400000000.0 -0.1853442513842679 0.13963696239041848
2420000000.0 -0.03920848562077596 0.25279504987047247
2440000000.0 0.21427551472975453 -0.18650403818346334
2460000000.0 -0.2297209362728562 0.2196960434184653
2480000000.0 0.3275333457520204 -0.12658221475941014
2500000000.0 0.08652989586661275 0.3811429096530255
2520000000.0 -0.42438781633724165 0.06301271710027359
2540000000.0 -0.04970214978142534 -0.4645822979660291
2560000000.0 0.4864478746245283 0.11977338621779644
2580000000.0 -0.5273240811696381 0.0800197643786309
2600000000.0 0.30159049981056285 -0.47539125579176617
2620000000.0 -0.06532543296124882 0.5836281362767592
2640000000.0 -0.20446337390183006 -0.5739991765548844
2660000000.0 0.6030430749345047 0.17624967005041126
2680000000.0 -0.23557537914336288 0.5963013197120286
2700000000.0 -0.652604053237342 -0.03895474724107285
2720000000.0 -0.5034407818302643 -0.4290476286090593
2740000000.0 -0.3138044813932203 -0.588496391871387
2760000000.0 -0.23374503515403375 -0.6258207920331594
2780000000.0 0.6500434737100124 -0.13601806454579582
2800000000.0 0.6493482410856248 0.10449976915434263
2820000000.0 0.3739313180491304 0.5272849454963444
2840000000.0 -0.5608777082663026 0.29523236042378376
2860000000.0 0.218468776235593 -0.5799963761494521
2880000000.0 -0.3032254566503872 0.5219413659269602
2900000000.0 0.582313027930788 0.06118608279685201
2920000000.0 -0.12457288345071103 -0.552675983542404
2940000000.0 -0.5415822510178997 -0.03498801573069761
2960000000.0 -0.3041598193671114 0.420356926775054
2980000000.0 0.3319490359388519 0.365811268936989
3000000000.0 0.41554909228155074 -0.21371737664498147
3020000000.0 -0.20242704125672947 -0.391681911331902
3040000000.0 -0.20440144521787953 0.35763666289937085
3060000000.0 0.3891197121212127 0.034163950465672735
3080000000.0 -0.36694438310653504 -0.0036062670056251343
3100000000.0 0.3457403390143209 -0.018968777214230917
3120000000.0 0.004728267022733525 -0.33332847559269096
3140000000.0 -0.005387075475607698 0.32218179655026175
3160000000.0 0.07783205520732092 -0.30630656939743534
3180000000.0 -0.2823916693993919 0.1264903230588149
3200000000.0 0.2999576621561896 0.05869434673601278
3220000000.0 0.06518025206636625 -0.28828828923867766
3240000000.0 -0.12457134000600903 -0.2598125629298168
3260000000.0 -0.23900563277983017 -0.12654612859539702
3280000000.0 -0.059975628503478984 -0.24998274231025408
3300000000.0 0.16118740827412928 -0.1720150981880241
3320000000.0 -0.07689150883057255 0.20024204867275897
3340000000.0 -0.1089177897921355 -0.1597182360728914
3360000000.0 -0.12021155268106422 0.11869387127720794
3380000000.0 0.08540126832449736 0.12065489824133353
3400000000.0 -0.07297884168773176 -0.1046286133910156
3420000000.0 -0.10839920657597629 -0.03189551786096144
3440000000.0 0.09860452211155506 -0.017466152945902695
3460000000.0 -0.030182616989455957 0.08005284716234652
3480000000.0 0.052724988622694854 0.05358113056564673
3500000000.0 -0.030746423125513664 -0.05819670401569138
3520000000.0 0.0057952098485116 0.05821859160995428
3540000000.0 -0.035868936878148135 -0.04901540820630053
3560000000.0 0.009637823410117548 0.060057762541460384
3580000000.0 0.017160745428837 -0.07022603600652443
3600000000.0 -0.04618574631019115 0.06117635033449519
3620000000.0 -0.02510573131308359 0.08574940608090262
3640000000.0 -0.013209116177737698 0.09501234597595946
3660000000.0 -0.025942887028562116 -0.09798100083434687
3680000000.0 0.0232983163306781 0.10078180678989947
3700000000.0 -0.05285097436873665 0.08229586198912678
3720000000.0 0.07622469983704315 0.05138236242165103
3740000000.0 -0.07245392901541678 0.028295957865425738
3760000000.0 -0.04296760207981845 0.04803596848175946
3780000000.0 0.044808529651901276 0.02364898753405925
3800000000.0 0.00560421423604289 -0.03647011266236551
3820000000.0 0.0022098776522464164 0.03790457733497485
3840000000.0 0.04794257296359053 0.010015154649557136
3860000000.0 0.05034573330731929 -0.04605662673742106
3880000000.0 0.005971162212122469 -0.08331681077772307
3900000000.0 -0.09689375433409819 0.02793068511198796
3920000000.0 -0.10982636065997116 -0.014779986486469674
3940000000.0 0.010854847854964815 -0.11120950433336349
3960000000.0 -0.06217925115512785 0.08828619982836616
3980000000.0 0.052336208277734414 -0.08499715199723192
4000000000.0 -0.06400771890409682 -0.05464437435259027
