!Created with skrf (http://scikit-rf.org).
# Hz S RI R 50.0 
!freq ReS11 ImS11
400000000.0 -0.7435179356096295 0.2884760280427832
420000000.0 0.5861050020112746 -0.47053069581657814
440000000.0 -0.1950035837285521 -0.7000573701009577
460000000.0 -0.1869303781532873 -0.6087861725053701
480000000.0 -0.5029969772391218 -0.16560174265326955
500000000.0 0.2676257845638658 0.3095626695230155
520000000.0 0.24963965189327475 0.3634996050424712
540000000.0 0.006648040175034276 -0.48161736973038755
560000000.0 0.02110721639840853 -0.46683001718488115
580000000.0 -0.06867160359575553 0.41965675550149023
600000000.0 -0.3900706409099131 0.014997205213104726
620000000.0 -0.32161262145229746 -0.18152994904442507
640000000.0 0.18088433343386187 0.29748841901464773
660000000.0 -0.31890428622148387 -0.12028358058628881
680000000.0 -0.0017572554052281098 -0.3417253233834182
700000000.0 -0.3388997809878608 0.041450296257884336
720000000.0 -0.2156098432461903 0.2751726763995791
740000000.0 0.24115208401013177 -0.21612726367310953
760000000.0 -0.017099898010426023 0.29001157694584023
780000000.0 0.1732959886142432 -0.21906236020140749
800000000.0 0.23876533412474546 -0.09613697618227018
820000000.0 0.1901411927542745 -0.09772025190290518
840000000.0 -0.20102145089331985 -0.07671832677486227
860000000.0 -0.05044066295899263 -0.18427087282464893
880000000.0 -0.18460221893481607 0.052420199747451685
900000000.0 0.018541236376104154 0.15884212330320502
920000000.0 -0.14086313994418906 0.008746415838723485
940000000.0 -0.08545900557366509 0.10600056227117612
960000000.0 -0.11497453471727566 0.027031510075367027
980000000.0 0.07610833364967828 0.015741255540795227
1000000000.0 -0.022931766421607255 0.0502124769323995
1020000000.0 0.01615302999668117 -0.04868382805320847
1040000000.0 0.031215552261406727 0.06013804110293175
1060000000.0 0.09653481478541916 -0.046080212648460114
1080000000.0 0.11634450089301417 0.07223125097243091
1100000000.0 0.12967616307283633 0.11716166105533365
1120000000.0 -0.15501034160246435 0.13393618930643034
1140000000.0 0.08231938523623898 -0.2221309256222454
1160000000.0 0.21212595394625075 -0.17475364974141905
1180000000.0 0.18225118197277274 -0.22781851090265343
1200000000.0 0.23714761640231954 0.20208916482256287
1220000000.0 0.26741185599388795 0.15935873634063624
1240000000.0 -0.3115652310691791 0.10182371354328482
1260000000.0 -0.16357396259580198 0.2868206903637156
1280000000.0 -0.33213101091185754 0.03057787468495229
1300000000.0 -0.33074676642848566 -0.09533575220087437
1320000000.0 0.3287460942688645 -0.1308281553635191
1340000000.0 -0.056700136694152435 0.3660184887910609
1360000000.0 -0.3757536021489634 0.05222329013781385
1380000000.0 0.37558633184475815 -0.05531219807532152
1400000000.0 -0.3502156164929919 0.15467860136131
1420000000.0 0.271753541684157 0.25954664058985955
1440000000.0 0.3605138152361724 0.06584245356024214
1460000000.0 0.3594136326911615 -0.03708243691184085
1480000000.0 -0.06472065236681641 -0.3486291772296469
1500000000.0 0.013353272015498172 0.33815561582816817
1520000000.0 0.28824363652767954 -0.11779189460873657
1540000000.0 -0.2351612957461035 0.15380313577662183
1560000000.0 0.10634962971498262 0.22139733217600946
1580000000.0 0.15926955640931773 -0.14177650061927452
1600000000.0 -0.17367002951624547 0.06620310257719876
1620000000.0 0.06441122693064412 -0.15129270349425847
1640000000.0 0.1254477482491579 0.058365771022354414
1660000000.0 -0.10654289228308075 -0.01240863550602928
1680000000.0 -0.08356607431284317 -0.033182124013518166
1700000000.0 0.07446220448972711 0.01964607856615886
1720000000.0 0.0475495128018216 -0.03203709055187698
1740000000.0 0.04961256665167022 0.021393415459121167
1760000000.0 0.06656459689904602 -0.021052130174080058
1780000000.0 -0.09353683580663148 -0.030906134000149296
1800000000.0 -0.08896457236634366 0.09604298756927193
1820000000.0 0.11995218051721575 0.1162094065793928
1840000000.0 0.07159631994915157 0.18133316570655725
1860000000.0 -0.17974455965418928 0.12892629129047933
1880000000.0 -0.07434162867128691 0.2356948807451663
1900000000.0 0.271288919866121 0.028494909025537765
1920000000.0 -0.1280976955944915 -0.25847448239204684
1940000000.0 -0.16504770555886647 0.25319073987328455
1960000000.0 -0.14953591926647883 -0.27627716708725153
1980000000.0 0.24594881752848927 -0.19735758671726789
2000000000.0 0.22021235602203473 0.21962186448887872
2020000000.0 -0.09645023473374051 0.2968517314258954
2040000000.0 -0.21049839687362304 0.2243640205246717
2060000000.0 -0.27590508975994493 -0.12430439761741145
2080000000.0 -0.14273444837809596 -0.26791598222060037
2100000000.0 0.1789402042527388 0.23880984093989643
2120000000.0 -0.27959621911047094 -0.09194351345405442
2140000000.0 0.22662707869868937 0.18383052383418527
2160000000.0 -0.26124959035541584 0.11929455398228966
2180000000.0 -0.11693119382292845 0.2510546530258307
2200000000.0 0.1101830668344301 0.2497822451262703
2220000000.0 0.24582692985561438 0.08850997998177426
2240000000.0 -0.07638910532795015 0.24444905213409532
2260000000.0 -0.233666637337442 0.06409541134394164
2280000000.0 0.02661021538856914 -0.23363499049458064
2300000000.0 0.19564379421137904 0.10730508689484441
2320000000.0 -0.14285616659041744 -0.1623538531189792
2340000000.0 0.20995399875818235 -0.009293761757452624
2360000000.0 -0.19526058709939925 -0.07164141853860956
2380000000.0 0.16753728779120147 0.1352949971610108
2400000000.0 -0.22765327048492778 -0.05011307229347565
2420000000.0 0.010313357347599725 0.2609892487892879
2440000000.0 0.18885267720647375 -0.21370458176650692
2460000000.0 -0.20443048520211526 0.2487586566873151
2480000000.0 0.2632743250111149 -0.2355857174597666
2500000000.0 0.1234534324680125 0.3720038720387834
2520000000.0 -0.4221229918833696 0.07545850706926858
2540000000.0 -0.08454749548552502 -0.4590367863651569
2560000000.0 0.46802793257151715 0.17758155293010533
2580000000.0 -0.532402093781356 0.030203264391237595
2600000000.0 0.36957702392067293 -0.4269189805427134
2620000000.0 -0.10288878958277746 0.5814747340224437
2640000000.0 -0.29049478048685073 -0.5374475907769007
2660000000.0 0.6250252556943178 0.0731893283902679
2680000000.0 -0.23054170724916923 0.5989771993891061
2700000000.0 -0.6523495897303871 -0.0400570835096635
2720000000.0 -0.4920241574515827 -0.44196224395036204
2740000000.0 -0.3831516056604416 -0.5452796353989203
2760000000.0 -0.3174066978463771 -0.5884462947036582
2780000000.0 0.6457811694635199 -0.15317553454466543
2800000000.0 0.6478259969614522 0.1076805975797439
2820000000.0 0.3513046342274164 0.5415511796967616
2840000000.0 -0.5126365774794208 0.37012742985090813
2860000000.0 0.17810874532607884 -0.5935797240205052
2880000000.0 -0.34685621043555914 0.4954212778769279
2900000000.0 0.5680270034865238 -0.1428584334930446
2920000000.0 -0.26611939389856387 -0.49859285490881705
2940000000.0 -0.5385989305411144 0.03387625047391479
2960000000.0 -0.3305675914304643 0.39605935012377097
2980000000.0 0.18868066879942108 0.4572230340513734
3000000000.0 0.46570921791443154 -0.07457734080918448
3020000000.0 -0.20291159568541337 -0.39606418902137946
3040000000.0 -0.1505566781541062 0.38910446750195216
3060000000.0 0.3537215900569548 -0.16290432118628687
3080000000.0 -0.36171105437783696 0.04758455941108741
3100000000.0 0.3331015265841557 0.08205851857354415
3120000000.0 0.21494316654722917 -0.2515044871377119
3140000000.0 -0.2253309780856318 0.22902570948582734
3160000000.0 0.16911208333725244 -0.26873693742045646
3180000000.0 -0.28869155016759035 0.12097892744809635
3200000000.0 0.2862315075207233 -0.1152039887297589
3220000000.0 -0.2138652456199611 -0.20437415174005752
3240000000.0 -0.26969427224441306 -0.09568187634765521
3260000000.0 -0.24950404892082068 -0.09600056798948839
3280000000.0 0.0786893770184431 -0.2390946909869099
3300000000.0 0.1504451678787069 0.18250955822870452
3320000000.0 -0.2029905794139358 0.0848493487608711
3340000000.0 -0.07355734811502466 -0.18290723558536912
3360000000.0 0.16737649832447166 0.03513288996589374
3380000000.0 0.03847614469404018 -0.1391935170644778
3400000000.0 -0.1026931808128194 -0.05932935077754057
3420000000.0 0.09961529874216125 -0.04057915423533795
3440000000.0 -0.0894250758262159 -0.043404537041104044
3460000000.0 -0.09023067704745136 0.008804859219165328
3480000000.0 0.019468281592178196 -0.07735437836354606
3500000000.0 0.023363836755669727 0.06438295146220327
3520000000.0 0.05493565657246831 -0.01894372013454157
3540000000.0 0.012248457564761582 0.056719406297681095
3560000000.0 0.044111423603983534 0.03956425820123827
3580000000.0 0.0294902685682252 0.06234294640430421
3600000000.0 -0.03818309082293468 0.06865904012556641
3620000000.0 -0.03828031305338166 -0.08710874791825711
3640000000.0 -0.04859762877284705 0.08845016746166462
3660000000.0 -0.10367959154373611 -0.020015659454621314
3680000000.0 0.10007411882238741 -0.025310241008704135
3700000000.0 0.04039740541968019 0.08504426483584512
3720000000.0 -0.02612687738120024 0.08270285506650886
3740000000.0 0.060149602277737614 0.04393690487847621
3760000000.0 0.06620459186020067 0.011687311730720823
3780000000.0 0.048228198377626194 0.029419577542452606
3800000000.0 0.028234061373646948 0.022331556213095193
3820000000.0 -0.025057569634337657 -0.018042944062847132
3840000000.0 0.02526386732942444 -0.04056097388844026
3860000000.0 0.014945473435615501 0.06977880507305641
3880000000.0 -0.08550439627468943 0.01940291796987275
3900000000.0 0.06642446926946431 -0.07595201369688549
3920000000.0 0.1067187109938372 0.002292352488264475
3940000000.0 -0.018403078328817993 -0.10341501914681901
3960000000.0 -0.09005151541207404 0.05473050674807541
3980000000.0 0.061038302605764046 0.07965532404782143
4000000000.0 -0.07835380226062705 -0.04624126916505492
