!Created with skrf (http://scikit-rf.org).
# Hz S RI R 50.0 
!freq ReS11 ImS11
400000000.0 -0.7625266708253727 0.23432767418865524
420000000.0 0.4698688829690741 -0.5886731807743164
440000000.0 -0.27842896272222 -0.6666657305948093
460000000.0 -0.030866072489702634 -0.6358439050205936
480000000.0 -0.3936396150591066 -0.354004307140644
500000000.0 0.23144732057539005 0.34120157464944356
520000000.0 0.3219397430087779 -0.30241750740547213
540000000.0 0.1676763076439519 -0.44034297526900523
560000000.0 0.10806045505421272 -0.4466558187146107
580000000.0 -0.2747516758709437 0.3266156472116607
600000000.0 -0.08991688265549085 -0.3818987449663644
620000000.0 -0.3556495257169652 0.10055908497043153
640000000.0 0.14671775263445092 0.3167410380247243
660000000.0 -0.30867987943922454 -0.1615985233978067
680000000.0 -0.2591621209972712 -0.21765442486370945
700000000.0 -0.30305877384517244 0.14263866663888206
720000000.0 -0.24563128502990728 -0.24606795942478898
740000000.0 0.32766853364272724 0.014293661601815364
760000000.0 0.22240706190505516 0.1930989783608288
780000000.0 0.025568718264378502 -0.28413883130502743
800000000.0 0.18924985053181395 -0.1680519944899048
820000000.0 0.21143085648378207 -0.02422829466838599
840000000.0 -0.07538827155158098 -0.19963389965918793
860000000.0 -0.07668180382401457 -0.18222397276015712
880000000.0 0.07593249364116121 0.17201256706513418
900000000.0 -0.1563072051368884 -0.007854312247391188
920000000.0 0.026367369009073105 -0.14194223987495008
940000000.0 -0.13901044780384283 0.010428838434465204
960000000.0 0.11252104689537508 -0.044003338931272666
980000000.0 -0.022613789099984048 0.07220968657647109
1000000000.0 0.04509913816985845 0.01898574460209541
1020000000.0 -0.04410433519013665 0.002542253119822983
1040000000.0 0.012102976371483828 -0.06803774270965772
1060000000.0 0.07431057894264427 0.07861067787629271
1080000000.0 0.09635163801498185 0.10194734097294521
1100000000.0 0.16949092913836097 0.04081655341393052
1120000000.0 -0.07232664305022724 0.19010784513589696
1140000000.0 0.10329480187226826 -0.21475052058661143
1160000000.0 0.16596204921971514 -0.21611299759374308
1180000000.0 0.2906665690801902 -0.004786438322462781
1200000000.0 0.21723134269192945 0.2256838300278681
1220000000.0 0.30236415597135946 0.08746893661885302
1240000000.0 -0.2061251969522154 0.25323940385875565
1260000000.0 -0.13725227359288686 0.2987930965807911
1280000000.0 -0.33243268366868073 0.0009034293525797438
1300000000.0 -0.30313434049528043 -0.16510574154114763
1320000000.0 0.3527911946987237 -0.027818583250857884
1340000000.0 0.02218414777658308 0.37044282195196687
1360000000.0 -0.31275502492021456 0.21030295646724542
1380000000.0 0.3689967648884757 -0.09244583905733257
1400000000.0 -0.36639286321309505 0.09953927717801735
1420000000.0 0.22062738316275865 0.30388549534067893
1440000000.0 0.3672790237939544 0.035621215107907424
1460000000.0 0.3397628091088778 -0.12550628605723302
1480000000.0 -0.16586847407389532 -0.3107761872883186
1500000000.0 -0.012240557242267382 0.33712399753215866
1520000000.0 0.30017694091312125 -0.07990245381895521
1540000000.0 -0.26139566214608656 0.10389030801857196
1560000000.0 0.07428040718732397 0.23737681291635507
1580000000.0 -0.002817685761987915 -0.21226955877596193
1600000000.0 -0.18178310778728546 0.028387743956635042
1620000000.0 0.14788858012804032 -0.07067772987151778
1640000000.0 0.09574689039175009 0.09997835055893436
1660000000.0 -0.09899883371150796 0.04347130956533945
1680000000.0 -0.08949278371551767 -0.008447671664472002
1700000000.0 0.06916203300034271 -0.031678102204124134
1720000000.0 0.053727379339647184 -0.016180051256809422
1740000000.0 0.012966707252134623 0.05364992540906788
1760000000.0 0.06738038288151434 0.018768711732090073
1780000000.0 -0.0971863981195668 0.005096151602509832
1800000000.0 0.0279248554584588 0.1259020579057956
1820000000.0 0.010362631785624575 0.16599621431854814
1840000000.0 0.04196276983244351 0.1910120684074054
1860000000.0 -0.10660989233057575 0.19642833249437783
1880000000.0 0.042430465828915485 0.24273528976908654
1900000000.0 0.2585233393830008 0.07913318359405293
1920000000.0 -0.09827195214009896 -0.2725508083380222
1940000000.0 -0.1298629747472548 0.27415526579571003
1960000000.0 -0.13672802508154216 -0.2816208632903761
1980000000.0 0.2527706501738837 -0.18720802775866657
2000000000.0 0.24951339982686419 0.18602517316625403
2020000000.0 -0.14675966186625491 0.27571222360651987
2040000000.0 -0.20672100421925552 0.22846832066119782
2060000000.0 -0.29697896795383466 -0.05317914273040943
2080000000.0 -0.16485757426355654 -0.25217778006779834
2100000000.0 0.13583762823591852 0.2654300011352315
2120000000.0 -0.2884937463101928 -0.06469515543647472
2140000000.0 0.2896925151648846 0.039582170782889656
2160000000.0 -0.26402387004686434 0.1093876942224437
2180000000.0 -0.0935374782091066 0.26082410997989064
2200000000.0 0.14920236540917997 0.22993932739036857
2220000000.0 0.2294536937622825 0.12510574843577899
2240000000.0 -0.0706166934391003 0.2469637089291148
2260000000.0 -0.22988304812734567 0.08224630338427873
2280000000.0 -0.06427053139312425 -0.22572350677591205
2300000000.0 0.12436650678644606 0.18548310887979466
2320000000.0 -0.15297650091992013 -0.15462097207399153
2340000000.0 0.2094171206702929 -0.015232488822892949
2360000000.0 -0.17583647028009985 -0.11144041003146277
2380000000.0 0.17117297912961793 0.1320974946513207
2400000000.0 -0.22657720800065204 -0.04972168120812225
2420000000.0 0.017993988009982316 0.25976404838890976
2440000000.0 0.18504975100567475 -0.21710628506014984
2460000000.0 -0.20672212847704194 0.24594669485287174
2480000000.0 0.2730965081523809 -0.22520226320726086
2500000000.0 0.1785824477025773 0.3488343950970407
2520000000.0 -0.42033035676670355 0.08429023364772201
2540000000.0 -0.06894787434440412 -0.46161390775671823
2560000000.0 0.46246347429107737 0.1925138110646178
2580000000.0 -0.5340999961200187 0.010484858693609992
2600000000.0 0.38736145529313204 -0.4105252353492465
2620000000.0 -0.0746654404766537 0.5858509102941181
2640000000.0 -0.3013631314395854 -0.5312907285577592
2660000000.0 0.6220501205192152 0.09469499430733914
2680000000.0 -0.23610606398796752 0.5967217707161998
2700000000.0 -0.6497239370783587 -0.0683214515637929
2720000000.0 -0.5043800436460018 -0.42802420700122146
2740000000.0 -0.4191261319559552 -0.5183227610449258
2760000000.0 -0.3406722260333577 -0.5749395760261492
2780000000.0 0.6425147234812545 -0.16740706761273122
2800000000.0 0.6513958814046146 0.0860580449683757
2820000000.0 0.3947882915551419 0.5107265257031288
2840000000.0 -0.5344760847984791 0.33755049095063383
2860000000.0 0.2316537342214408 -0.5748199010116402
2880000000.0 -0.31370225866254614 0.5156530968062811
2900000000.0 0.5652134331961831 -0.1547589441712274
2920000000.0 -0.24873104413289993 -0.5076365256843661
2940000000.0 -0.5375688960425795 0.037003849759230434
2960000000.0 -0.2870748997153676 0.429579416223452
2980000000.0 0.21212011142841658 0.4455213843972054
3000000000.0 0.46103815019247385 -0.0951342149553288
3020000000.0 -0.17875661561394887 -0.4069527055016729
3040000000.0 -0.027906729281862584 0.4168674983671938
3060000000.0 0.22496777439722632 -0.3180342915008781
3080000000.0 -0.3564358664721671 0.07792579353567389
3100000000.0 0.3368849101077036 -0.07113045475416538
3120000000.0 0.260973182023523 -0.20203610998478252
3140000000.0 -0.2683685172425997 0.17939154086370313
3160000000.0 0.1651477739479358 -0.2725106979573571
3180000000.0 -0.2907161989700545 0.1182660972152071
3200000000.0 0.2944754861524563 -0.08980775488628717
3220000000.0 -0.1615688544620669 -0.2472746818894604
3240000000.0 -0.2719563814483516 -0.08681120697632622
3260000000.0 -0.21346548107692914 -0.15831620356251405
3280000000.0 0.07110677896022834 -0.24134221388998578
3300000000.0 0.19496550120040257 0.13023022716508154
3320000000.0 -0.20259786782856903 0.0794752895722672
3340000000.0 -0.06414543429820466 -0.18620545165960598
3360000000.0 0.16891870881152138 0.024119169812597204
3380000000.0 -0.03885571664543493 -0.13793274103386116
3400000000.0 -0.09351657135582571 -0.07165267479016292
3420000000.0 0.10377093402368483 -0.021108598695217834
3440000000.0 -0.09504901199222095 0.02926158926004107
3460000000.0 -0.05483202749556262 0.07236445033064334
3480000000.0 -0.07411876340204021 -0.03063794070725554
3500000000.0 0.04034686639463828 0.05380818190296715
3520000000.0 0.05148760104833465 0.02883310790813838
3540000000.0 0.05581596633406313 -0.020924308715801837
3560000000.0 0.0429982396934642 0.041100997535611056
3580000000.0 -0.027119969681719272 0.06405591761459015
3600000000.0 -0.04289216560637968 0.06736156244594012
3620000000.0 -0.04815588754014108 -0.0818440843137802
3640000000.0 -0.09182586849811734 0.040812465285076406
3660000000.0 -0.10130089594753075 -0.02810035294031428
3680000000.0 0.10212729766724275 0.014549397294394166
3700000000.0 0.06394985700962565 0.06812735626677291
3720000000.0 -0.08500342261163485 0.0073445015422976
3740000000.0 0.07113042460201392 0.018587188039598353
3760000000.0 0.06087790091386386 0.02991300056565503
3780000000.0 0.054183482138743085 -0.014891597202942558
3800000000.0 0.02794819787121619 0.021013057084831893
3820000000.0 -0.02860968023014261 0.011101726010977302
3840000000.0 0.04646838655012587 -0.004020592029960699
3860000000.0 -0.024891419562645498 0.06603893948989786
3880000000.0 -0.08700581689278201 0.0036392485731648857
3900000000.0 0.05695893697921485 -0.08242798046013888
3920000000.0 0.09987949462207249 0.0316826822111438
3940000000.0 -0.0875288132792529 -0.056672134377884355
3960000000.0 -0.08972822510812745 0.053300706463301546
3980000000.0 0.09815214286727479 -0.01565427142143612
4000000000.0 -0.07895756121774762 0.043048871713353636
