!Created with skrf (http://scikit-rf.org).
# Hz S RI R 50.0 
!freq ReS11 ImS11
400000000.0 -0.7249744013375232 0.3325337948305881
420000000.0 0.5473699384249452 -0.5125745594562956
440000000.0 -0.11836543412988464 -0.7149996163100814
460000000.0 -0.1877403775989978 -0.6066480602317791
480000000.0 -0.46164836714189517 -0.2652099109031273
500000000.0 0.3410872200594102 0.22666466878810504
520000000.0 0.37053968797861775 0.24128162787614504
540000000.0 0.1708691162120848 -0.4522674728384729
560000000.0 0.06755058679039554 -0.452821850152678
580000000.0 -0.30900866069511423 0.29010820422692607
600000000.0 -0.1706292202552685 -0.35777741162179894
620000000.0 -0.3576958048073006 0.08495749192918267
640000000.0 0.2578368175418758 0.2332372460780953
660000000.0 -0.3417998256961965 -0.05238148401320675
680000000.0 -0.12372924336007864 -0.3122386604681289
700000000.0 -0.3081906812447084 -0.13948973947011126
720000000.0 -0.35104544033927904 -0.04369995564754928
740000000.0 0.06988590798296909 -0.3208955211791011
760000000.0 0.16220085786570826 0.24038338698873926
780000000.0 -0.044746345058475835 -0.2762003464721546
800000000.0 0.24910635321625582 0.038157182409560154
820000000.0 0.14311317330727324 0.16426084008361938
840000000.0 -0.21317186491021986 0.03501999056402099
860000000.0 -0.11078069827369875 -0.1601655939018965
880000000.0 0.14931454143857864 0.11144127044601884
900000000.0 -0.1472169375663397 -0.05892202030908778
920000000.0 -0.07381880534587791 -0.12353806732577326
940000000.0 0.05040129892466146 0.12696978514076843
960000000.0 0.01263266958549048 0.11565678892243986
980000000.0 0.031340543226460654 0.07114578679224491
1000000000.0 -0.05316080678519716 -0.012901460551937022
1020000000.0 0.013158312112565749 -0.05060862388114659
1040000000.0 0.07255019677594048 0.006458355037599921
1060000000.0 -0.0902234894857891 0.05695932624313699
1080000000.0 0.1342040130798677 -0.014797551117382656
1100000000.0 -0.137749713625788 0.10414271037939993
1120000000.0 -0.18644678728996603 0.08486141285466724
1140000000.0 0.02460208944092208 -0.23876291285051798
1160000000.0 -0.0038859409248680364 -0.27577496347066205
1180000000.0 0.28568160042518825 -0.04179450798203158
1200000000.0 0.2286095196337453 0.21582405345455527
1220000000.0 0.29267787015068547 0.10773178747257262
1240000000.0 -0.2699852490340484 0.18422246508085754
1260000000.0 -0.20470397546599572 0.25720723592029093
1280000000.0 -0.3325419420369644 0.025661976079658283
1300000000.0 -0.3375832218943762 -0.08042652189413867
1320000000.0 0.3388310202776924 -0.09695976118780562
1340000000.0 0.06240514449013609 0.3642461739493563
1360000000.0 -0.36421316545369953 0.10797257893993166
1380000000.0 0.36858065545210045 -0.08868344489639043
1400000000.0 -0.3770108868831495 0.05516389452300163
1420000000.0 0.12599319857138477 0.3547049412121948
1440000000.0 0.3549816329620813 -0.10741061386266815
1460000000.0 0.319899785625849 -0.16291104083638616
1480000000.0 -0.06502015833446219 -0.34464331231417655
1500000000.0 -0.222175657869517 0.2550906018652607
1520000000.0 0.2710261819339544 -0.16043677389982922
1540000000.0 -0.1206793629061631 0.2533802569702861
1560000000.0 0.10771559088235207 0.2198820399238908
1580000000.0 0.1895582727387375 -0.09394314143689801
1600000000.0 -0.1803167931253828 0.04249606671085792
1620000000.0 0.15340734786652105 -0.061880048760157895
1640000000.0 0.12224894605869385 -0.0654622280978091
1660000000.0 -0.10735090158218666 0.007049158022603905
1680000000.0 -0.08712956983950686 -0.022134602032605526
1700000000.0 0.055330970402019106 0.05327263751354163
1720000000.0 0.04951448253483978 0.030445736488857286
1740000000.0 0.054935515757954884 0.010546998428465865
1760000000.0 0.04639984351091545 -0.052419557048945783
1780000000.0 -0.05464871783483637 -0.0809608635013977
1800000000.0 -0.08773115627248705 0.0955402873234473
1820000000.0 0.0802424602113846 0.1506348088936509
1840000000.0 0.14902233173186188 0.12704089082797282
1860000000.0 -0.10843585567514188 0.19156994740909938
1880000000.0 -0.09857893572819329 0.22372240689549514
1900000000.0 0.1696911664319495 0.214894976517914
1920000000.0 -0.16759358890916592 -0.23887691661712612
1940000000.0 -0.00752677121815609 0.3018864382115437
1960000000.0 -0.13091676233494 -0.28139402030756994
1980000000.0 0.3069838033658014 -0.06372667059700067
2000000000.0 0.2121853797328886 0.22877724993769347
2020000000.0 -0.053206464914416614 0.30941182209216583
2040000000.0 -0.20849598522208146 0.22594271145947556
2060000000.0 -0.2969726808142366 -0.051947458420524506
2080000000.0 -0.14945476633026716 -0.2627868567537809
2100000000.0 0.14462031614087084 0.26189264764645365
2120000000.0 -0.26289439779559043 -0.13364476583371568
2140000000.0 0.27647448390289986 0.09505320137402687
2160000000.0 -0.2830735566564367 0.04684633201668022
2180000000.0 -0.136092351853478 0.24061080374089158
2200000000.0 0.16945308432436595 0.21477230001230876
2220000000.0 0.23217682063121736 0.11815419251574959
2240000000.0 -0.16295572122671317 0.19527311477391351
2260000000.0 -0.22822763716423847 0.08971637776744788
2280000000.0 -0.07365732590861986 -0.22293765607152138
2300000000.0 0.1546010666188466 0.1611123656409671
2320000000.0 -0.21263833700700607 -0.040327054476720504
2340000000.0 0.19862248160423537 0.06446286364654022
2360000000.0 -0.1746435167028335 -0.11486494209035228
2380000000.0 0.1827925614632051 0.1176481043195907
2400000000.0 -0.21126860048740326 0.0984682607383817
2420000000.0 -0.05650928977184271 0.25235384291620966
2440000000.0 0.23217602589427014 -0.1677139307217022
2460000000.0 -0.1997972059038767 0.25163213840850385
2480000000.0 0.3002834231331308 -0.18796693917292998
2500000000.0 0.1277099943272884 0.37157103737029895
2520000000.0 -0.41259014955945567 0.11595625638298475
2540000000.0 -0.04804771825351826 -0.4629373637857568
2560000000.0 0.43648906163504886 0.24482526879582195
2580000000.0 -0.5321856452269772 0.0438519299255789
2600000000.0 0.37718258713650804 -0.4202468241411086
2620000000.0 -0.09511337577611755 0.5822550820903383
2640000000.0 -0.3029962877213761 -0.5303021113887348
2660000000.0 0.6217992096006433 0.09920220693019238
2680000000.0 -0.1836369036438081 0.615082630163937
2700000000.0 -0.6516672941699194 -0.04898157581972782
2720000000.0 -0.4677766901974147 -0.46799005218297396
2740000000.0 -0.3448160049058979 -0.5708434401922615
2760000000.0 -0.24296429809249506 -0.6227663490032173
2780000000.0 0.6527586620686779 -0.12249756411403803
2800000000.0 0.6501206934306009 0.09612282014881787
2820000000.0 0.3650364297490738 0.5320934502821287
2840000000.0 -0.5296603860329173 0.3446921199130909
2860000000.0 0.24691977476624571 -0.5687054345183804
2880000000.0 -0.32854647323750585 0.5072228902470008
2900000000.0 0.5608321828240207 -0.17041636408050012
2920000000.0 -0.2272078829644908 -0.5173217315630753
2940000000.0 -0.5379038610665267 0.030265556502364385
2960000000.0 -0.33079071899455087 0.39704935539716363
2980000000.0 0.2150113021424905 0.4450811918446949
3000000000.0 0.46021930248812787 -0.10330445779536118
3020000000.0 -0.24498466709244116 -0.37181359454077695
3040000000.0 -0.14152134161153052 0.39207382868499285
3060000000.0 0.3296309963150967 -0.2065567793126288
3080000000.0 -0.36629979996709955 -0.0021397203723115352
3100000000.0 0.34014121040325024 0.046163619531446064
3120000000.0 0.21874705806123063 -0.24667517156317148
3140000000.0 -0.21466650102168705 0.23932867237729535
3160000000.0 0.19585922814002207 -0.24950530098358104
3180000000.0 -0.2869150971664937 0.12574314276524
3200000000.0 0.2751330013084839 -0.14127552874076788
3220000000.0 -0.2297527486646246 -0.18704219554575724
3240000000.0 -0.2790862346874373 -0.05704221404724065
3260000000.0 -0.22690714719470007 -0.14037231673206366
3280000000.0 0.06558942263170453 -0.24491710844237155
3300000000.0 0.2275684624415929 0.06423478353034714
3320000000.0 -0.2078566677397213 0.07084506229080849
3340000000.0 -0.018740335478889456 -0.19737029268694237
3360000000.0 0.1556973507575739 0.07333080791334166
3380000000.0 -0.005907800124878068 -0.1447503325011513
3400000000.0 -0.04604112722567025 -0.10872101732431816
3420000000.0 0.0902619375244901 0.0576355510785393
3440000000.0 -0.09269429196544715 -0.03871226819485993
3460000000.0 -0.0735342404579502 0.0518891045620864
3480000000.0 0.06349145388427212 -0.04769660462292137
3500000000.0 0.06161260734141454 0.030892116519467987
3520000000.0 0.03742498411863252 0.04405427129553012
3540000000.0 0.05711701998673296 0.009336910242642877
3560000000.0 -0.011924607440158885 0.05748683648817327
3580000000.0 0.04359551938224231 0.05515877431571984
3600000000.0 -0.0014521935477170437 0.07866406963475618
3620000000.0 -0.08002298810253995 -0.05115374743573495
3640000000.0 -0.09365790296916375 0.03632553918545301
3660000000.0 -0.09053670637051729 -0.056828057476272675
3680000000.0 0.06658640633531586 -0.07916307308500793
3700000000.0 0.02171527995468713 0.09081094462088647
3720000000.0 -0.059239230539099554 0.06279813677077209
3740000000.0 0.04325047610289451 0.06187456458291635
3760000000.0 0.060716160642758046 -0.030978008444851237
3780000000.0 0.05379425864706301 0.013905460843029602
3800000000.0 -0.030770342337714227 0.022171953739310652
3820000000.0 -0.018803810375013528 0.0231851172854386
3840000000.0 0.018627459768412492 0.04354881039022489
3860000000.0 0.0211601578274362 0.06957818302046863
3880000000.0 -0.06615245167547591 0.05802775046557001
3900000000.0 0.05083952319690445 -0.08727749279014875
3920000000.0 0.04152803491933541 0.09782395497415049
3940000000.0 -0.04313169900372728 -0.09716621846745416
3960000000.0 -0.10515609068935511 0.015165224353666847
3980000000.0 0.09328871928055943 0.035750933742556834
4000000000.0 -0.08004596744062425 -0.043211934790455944
