!Created with skrf (http://scikit-rf.org).
# Hz S RI R 50.0 
!freq ReS11 ImS11
400000000.0 -0.7598228737042123 0.23985543695980355
420000000.0 0.539859927438374 -0.5243113384404221
440000000.0 -0.21235666958729874 -0.6930653400493179
460000000.0 -0.21909101589747826 -0.5949547237184566
480000000.0 -0.37324946380189755 -0.37364547784987445
500000000.0 0.2755267570442236 0.3058449719946751
520000000.0 0.42075197366272876 -0.14527163085110242
540000000.0 0.04181757969802624 -0.47315454113595384
560000000.0 0.11967250734010329 -0.43967554351763505
580000000.0 -0.4154769268357271 0.09905951558671774
600000000.0 -0.2725354398219983 -0.28682297376571014
620000000.0 -0.2774145996261089 0.2398148890134385
640000000.0 0.09432139429068043 0.3327138667135033
660000000.0 -0.15597275045199216 -0.3143431609942568
680000000.0 -0.2546776147769376 -0.22143200057020326
700000000.0 -0.2958821288182148 0.16721965119124033
720000000.0 -0.33378794576802123 0.09466444753874889
740000000.0 0.31455028940364704 -0.07476109685025384
760000000.0 0.05047392337380959 0.2898820722916753
780000000.0 0.03315694742200931 -0.28321075605699575
800000000.0 0.20973770503942804 -0.14794607274038876
820000000.0 0.16053328090916388 -0.1404335216386756
840000000.0 -0.11553894524962127 -0.17802041452349093
860000000.0 -0.13112970818497896 -0.1451039759149249
880000000.0 0.017712000163828942 0.18675505425417527
900000000.0 -0.04315436213878735 -0.1525308884223261
920000000.0 -0.10201953358417107 -0.10685297663876386
940000000.0 -0.0018340829383438968 0.13634894788468016
960000000.0 0.02298793096939422 0.11703308295918975
980000000.0 -0.025980400361520366 -0.07310833020977253
1000000000.0 0.004520626333522636 -0.04980655051431358
1020000000.0 0.04710663095866882 -0.001468591644531288
1040000000.0 0.05176480876783607 0.042688651596129314
1060000000.0 0.05242499038229842 0.0891972293311085
1080000000.0 -0.055669449049339036 0.12805892697340462
1100000000.0 0.16537862407816606 0.06781410669373421
1120000000.0 -0.10991095198536939 0.17091966480240495
1140000000.0 0.05288130484622338 -0.2323713844712937
1160000000.0 0.026441846900209214 -0.2713030147801473
1180000000.0 0.2671463979487407 0.10864252838762184
1200000000.0 0.0975419060453665 0.30109482189723835
1220000000.0 0.3154545816722281 0.012702531978588888
1240000000.0 -0.17507289847678092 0.27391900668864105
1260000000.0 -0.11671434136490405 0.3053886083741778
1280000000.0 -0.3213225922719399 -0.08822696161812278
1300000000.0 -0.3027651877503903 -0.16451679391568327
1320000000.0 0.3516918861750765 -0.04935167867742648
1340000000.0 0.061454162085511285 0.3669062182989337
1360000000.0 -0.2762257753577141 0.25814294741033744
1380000000.0 0.3475330081137765 -0.1530542522902442
1400000000.0 -0.37478148414741 0.06638610203039634
1420000000.0 0.20639424594209854 0.3162677871772817
1440000000.0 0.36823774673945237 0.034983330909149644
1460000000.0 0.3135750237383171 -0.1813780396816729
1480000000.0 -0.15521503817601126 -0.3157722773700428
1500000000.0 -0.028453404365148663 0.3360142951017371
1520000000.0 0.3051187459778974 -0.06002737263838721
1540000000.0 -0.25735770089519866 0.1094180772908192
1560000000.0 0.053521178122107695 0.24296010930343148
1580000000.0 -0.0374829549162131 -0.21035283829987322
1600000000.0 -0.17852305656426737 0.04165028915620832
1620000000.0 0.12409106770683288 -0.10578286227257584
1640000000.0 0.03991858955559893 0.1333977182972007
1660000000.0 -0.0047294948675335345 0.10915389478930645
1680000000.0 -0.08816725505845466 0.01981546800357307
1700000000.0 0.07252564928883845 0.025808859488911352
1720000000.0 0.056407495091077245 -0.0019734337188286087
1740000000.0 0.029271356279458014 0.047375501997562304
1760000000.0 0.0693099777834059 -0.0069148855625211225
1780000000.0 -0.0948638545646453 0.02302225256491941
1800000000.0 -0.0021916311844949114 0.12980620939686008
1820000000.0 0.04468940995916689 0.1613486403586691
1840000000.0 0.03107653179233095 0.19365929294890913
1860000000.0 -0.10445307563405212 0.1957388421693957
1880000000.0 0.011410685155928635 0.24629579549234024
1900000000.0 0.2665507315315828 0.049094803833203936
1920000000.0 -0.14777947625080606 -0.24864630066357313
1940000000.0 -0.18921441820511437 0.23552944973716583
1960000000.0 -0.11710613918030052 -0.29059479774408725
1980000000.0 0.19779319504736206 -0.24363882810303994
2000000000.0 0.25485464968170984 0.179620306210297
2020000000.0 -0.10664818389977965 0.2929129246397993
2040000000.0 -0.20613830441513636 0.22978264308474272
2060000000.0 -0.2989900423252353 -0.051967547394510864
2080000000.0 -0.1611201451823859 -0.25586277265776236
2100000000.0 0.0598946835215095 0.29219384572846074
2120000000.0 -0.25719248459634386 -0.14702242229236315
2140000000.0 0.2829837583317098 0.07502729930957314
2160000000.0 -0.25986033974210837 0.1185026299594522
2180000000.0 -0.10582851739083964 0.25450775222913846
2200000000.0 0.12003753098951002 0.2472671102569211
2220000000.0 0.23947178919746884 0.10415562500406225
2240000000.0 -0.11052576647589124 0.23124388131536724
2260000000.0 -0.23176861853756173 0.07690543368256277
2280000000.0 -0.0765095735999004 -0.22179397583885546
2300000000.0 0.14454589548176078 0.1700645183360303
2320000000.0 -0.17392951304143453 -0.12987027299275802
2340000000.0 0.20946978139502123 0.012676092127948325
2360000000.0 -0.19594190682313511 -0.0726913530286785
2380000000.0 0.19211622774346254 0.09941351726667548
2400000000.0 -0.23139405432129395 0.02133463800208887
2420000000.0 -0.059127403606410986 0.25372492441180305
2440000000.0 0.20039095573152899 -0.20393410716619736
2460000000.0 -0.22609103988998347 0.22853298697566685
2480000000.0 0.3103683170675584 -0.1683825515179604
2500000000.0 0.23044375845107642 0.3173874399492184
2520000000.0 -0.4268297441984154 0.03135529865265766
2540000000.0 -0.03426252428961988 -0.46534849136501716
2560000000.0 0.4660963595509202 0.18415319406702851
2580000000.0 -0.5333421233963355 0.012962455358193035
2600000000.0 0.3648754399367454 -0.4307986901270285
2620000000.0 -0.06021454451513886 0.5873716872916044
2640000000.0 -0.297710334040409 -0.5332000540343016
2660000000.0 0.6243074701160467 0.07877830926128457
2680000000.0 -0.18569146160803293 0.6140548280935827
2700000000.0 -0.6529639161307446 -0.0193272498851794
2720000000.0 -0.4872040907472798 -0.44757821529659775
2740000000.0 -0.33929460838636516 -0.5735590457881766
2760000000.0 -0.2716585354637761 -0.6110389210964392
2780000000.0 0.6532114019399425 -0.11990483363463476
2800000000.0 0.649704044603732 0.09501431504821
2820000000.0 0.3511426079965879 0.5413489668577726
2840000000.0 -0.5313629216667388 0.3423641147090887
2860000000.0 0.2726088878233197 -0.5564478155015381
2880000000.0 -0.327567494238097 0.5073556315026755
2900000000.0 0.5665565795763418 -0.14978827695299465
2920000000.0 -0.25559761470196735 -0.5049516314992103
2940000000.0 -0.537923938749048 -0.032836050297398556
2960000000.0 -0.34934553772083465 0.3808005463957701
2980000000.0 0.22007325240619607 0.44353883879361733
3000000000.0 0.4682058514722208 -0.03914379138548955
3020000000.0 -0.16066625830966308 -0.41398800266743424
3040000000.0 -0.16740008848014137 0.3827558897910783
3060000000.0 0.20166926824866296 -0.33225848217159965
3080000000.0 -0.3573239347117616 0.06819071384666962
3100000000.0 0.3413448334568712 -0.03689610560749662
3120000000.0 0.1773675863852179 -0.27911612897870514
3140000000.0 -0.24350722349002427 0.21095159974004207
3160000000.0 0.16340170460097805 -0.27377234931472927
3180000000.0 -0.2429606339693082 0.198487260963203
3200000000.0 0.2949304089296996 -0.09163666381838656
3220000000.0 -0.17663012043783324 -0.23906798177979569
3240000000.0 -0.26435643508928214 -0.10808918773626582
3260000000.0 -0.2218732982066566 -0.14822033165015996
3280000000.0 0.09592398702923974 -0.23435104574827395
3300000000.0 0.1573567080504444 0.17484934712097364
3320000000.0 -0.20356202522035766 0.08027400441286754
3340000000.0 -0.03373063929385193 -0.19495392357282293
3360000000.0 0.1708963856037749 0.013964755850556275
3380000000.0 -0.00822128732377526 -0.14367890606874695
3400000000.0 -0.09986306693370527 -0.06466336365159203
3420000000.0 0.09988481469387978 0.03529969514817762
3440000000.0 -0.09749988672923325 -0.02592483910740094
3460000000.0 -0.027655119336209757 0.08579941246160062
3480000000.0 0.03570190618972851 -0.07030623997191596
3500000000.0 0.015386441425972742 0.06563272963022954
3520000000.0 0.055747375076710556 -0.016458428207018344
3540000000.0 0.04579042586955018 -0.035616957600461636
3560000000.0 0.024260492446898048 0.05265422140585111
3580000000.0 -0.00075917091896096 0.06998240078633858
3600000000.0 0.06401334732367228 0.046407585087025104
3620000000.0 -0.08056011698466782 -0.050833700811387286
3640000000.0 -0.06677140022584603 0.07529277180028565
3660000000.0 -0.10363508097953775 -0.026995417137014966
3680000000.0 0.07900202316167487 -0.06801587055891721
3700000000.0 0.08516165632550841 0.041046860369687174
3720000000.0 -0.05889067079330679 0.06351865621990857
3740000000.0 -0.0009778629372093628 0.07533212765784221
3760000000.0 0.06829949350848953 -0.004096736602104337
3780000000.0 0.04764355407060071 0.031108937744080065
3800000000.0 -0.005753692212024538 0.03611833982006765
3820000000.0 -0.03100258048347364 0.006213957011180254
3840000000.0 0.029976193358967847 0.038224645830743025
3860000000.0 -0.006243127326105217 0.07233731402668127
3880000000.0 -0.08583767807188365 0.01800532615560548
3900000000.0 0.10109253744807793 0.015551756604519122
3920000000.0 0.08721292359801233 0.062085548605748525
3940000000.0 0.034895921930296905 -0.09864993117018012
3960000000.0 -0.049273482120036446 -0.09286436466599866
3980000000.0 0.01715098268240248 0.09819858457524804
4000000000.0 0.018102098520876964 -0.08809294313519439
