!Created with skrf (http://scikit-rf.org).
# Hz S RI R 50.0 
!freq ReS11 ImS11
400000000.0 -0.7667104334311824 0.21829094831830703
420000000.0 0.5078664626699446 -0.5556324989193216
440000000.0 -0.28603177982285927 -0.6656359273866551
460000000.0 -0.11916392887508792 -0.6235908149228225
480000000.0 -0.42121078656183725 -0.3194251664364613
500000000.0 0.1769358004597046 0.37237542660928447
520000000.0 0.3271050115850571 -0.3025580202500099
540000000.0 -0.07819901340435005 -0.4666991502049099
560000000.0 0.04866172260956286 -0.4537439481723196
580000000.0 -0.40635785053585627 0.12834061477143535
600000000.0 -0.07675572923979217 -0.3866814445790392
620000000.0 -0.3497257541194419 0.13343545144212432
640000000.0 0.34074252777602354 0.06402445479743608
660000000.0 -0.24206895160368025 -0.2470611591841976
680000000.0 -0.2008967460605514 -0.27067142012510415
700000000.0 -0.32588063398647366 0.09574888292205462
720000000.0 -0.34860088176351095 -0.0002171121427072239
740000000.0 0.3131119569597055 -0.0907428765592011
760000000.0 0.00805554602666004 0.2940618454141838
780000000.0 0.029970174212789198 -0.28249509306665377
800000000.0 0.2064800321584591 -0.1522024161642332
820000000.0 0.15323074874605405 -0.14702024518664106
840000000.0 -0.11811525831270786 -0.17672017165795592
860000000.0 -0.09288828366149524 -0.1724082914599437
880000000.0 -0.03391655073755581 0.18492741477990407
900000000.0 -0.11472172217930873 -0.11101531855877077
920000000.0 -0.13103626357553408 -0.06550580094043414
940000000.0 0.07277336362801708 0.11638448309907085
960000000.0 0.05004226942186454 0.10657881855899597
980000000.0 0.06951943146743235 -0.03272323796674374
1000000000.0 0.018280736928219625 0.04819578930703078
1020000000.0 0.002380026469482355 0.049667223756673554
1040000000.0 0.06817685053676671 -0.0005868420374702914
1060000000.0 0.10502243538038153 -0.004552461326816324
1080000000.0 -0.02717212487791741 0.1349199355936783
1100000000.0 0.03894264586647623 0.17398799856231192
1120000000.0 -0.03135365777099859 0.2032625153797868
1140000000.0 -0.07828443926476901 -0.22355410050067118
1160000000.0 0.19500777844515516 -0.18917347598860754
1180000000.0 0.27669508825150346 0.08329121349182642
1200000000.0 0.1170275510079045 0.2942638587822685
1220000000.0 0.3162616480640619 -0.0021226168241650725
1240000000.0 -0.15479916229515506 0.2840941830475067
1260000000.0 -0.20161884572467442 0.25717034670482347
1280000000.0 -0.3107849826158644 -0.12200758376485393
1300000000.0 -0.3384848264701123 -0.07349814523013956
1320000000.0 0.30037708183661027 -0.18655604929783845
1340000000.0 -0.03297645438778796 0.3700609300416785
1360000000.0 -0.3354552181049733 0.1786517584459722
1380000000.0 0.3367529501690138 -0.1782062217701859
1400000000.0 -0.37680810834868267 0.051023776665949386
1420000000.0 0.22741008620703393 0.3014916466398224
1440000000.0 0.3560902936377076 0.09464758721562198
1460000000.0 0.3351186097257688 -0.14029876688131146
1480000000.0 -0.15094052351745613 -0.31838337002684153
1500000000.0 -0.06867254544379532 0.3306019281814384
1520000000.0 0.2780964422996164 -0.1378510673950974
1540000000.0 -0.2718279424077644 0.06715266655289245
1560000000.0 0.018681708937696627 0.24801893645646414
1580000000.0 -0.06306858286122395 -0.203411310982628
1600000000.0 -0.1719362393349932 0.06613521890110471
1620000000.0 0.12313194775781369 -0.10671785588256473
1640000000.0 0.04998161067328014 0.13018459426942972
1660000000.0 0.018555941421822476 0.10814323698015531
1680000000.0 -0.08163567526248681 0.0366988159347906
1700000000.0 0.0006368895046850153 0.07694369241557916
1720000000.0 0.020742753462579176 -0.05398093809650833
1740000000.0 0.03222296145598866 0.04352742746976074
1760000000.0 0.014212242580135467 0.06848180977637994
1780000000.0 -0.08102784128130326 0.05953522982224925
1800000000.0 0.09601296341071067 0.08580934426488385
1820000000.0 -0.020210356901704234 0.1638842651142372
1840000000.0 -0.03534329456448113 0.194215810323955
1860000000.0 -0.08278549457799281 0.207149082101407
1880000000.0 0.05395339482587988 0.23959866318183504
1900000000.0 0.2543844372062953 0.09192831621240645
1920000000.0 -0.12133937599015997 -0.2631427363716337
1940000000.0 -0.10791750553023366 0.2826879018644154
1960000000.0 -0.1394538374693292 -0.28017959832798106
1980000000.0 0.2703285251002274 -0.16003313929517532
2000000000.0 0.27104956947832537 0.15439043959834425
2020000000.0 -0.07154848165601377 0.3040179353778123
2040000000.0 -0.19164400943594914 0.24109791929727037
2060000000.0 -0.2722826162003706 -0.13371434082313696
2080000000.0 -0.18332402586053567 -0.24155479770187824
2100000000.0 0.09115494114469314 0.28444473505339096
2120000000.0 -0.24988552125775304 -0.15947969873355514
2140000000.0 0.27706742797105605 0.09427344538068624
2160000000.0 -0.2682731593521872 0.09981057146738641
2180000000.0 -0.13779451622471237 0.23909776069496827
2200000000.0 0.0891137759150175 0.2594965831841471
2220000000.0 0.24168496241826887 0.09895237958463991
2240000000.0 -0.05833657232409083 0.24954293944961217
2260000000.0 -0.2352332762422305 0.061578622165333566
2280000000.0 -0.06790337590494293 -0.22455951622208192
2300000000.0 0.17278861811660462 0.14027472786614228
2320000000.0 -0.15476196146703902 -0.15282767899868954
2340000000.0 0.2050952390864351 -0.04805443150831103
2360000000.0 -0.20124625445252112 -0.05400510972676875
2380000000.0 0.1723024341600428 0.1314458103026322
2400000000.0 -0.23293206087136953 -0.007234870871273782
2420000000.0 0.03317286451985333 0.25878168054366807
2440000000.0 0.22342311590600553 -0.17751002455640366
2460000000.0 -0.253111797724881 0.19825054823438507
2480000000.0 0.27753697907190605 -0.2201444827726513
2500000000.0 0.20944813250244448 0.33019156666771965
2520000000.0 -0.4239069567388091 0.05850897428311982
2540000000.0 -0.03785210286972881 -0.4651232848981227
2560000000.0 0.4625576901407086 0.192058008839065
2580000000.0 -0.5308305889568153 0.05392460327585008
2600000000.0 0.3598820396499821 -0.4352289229871388
2620000000.0 -0.086024991989318 0.5841463875876834
2640000000.0 -0.2801104031870579 -0.5431717985105817
2660000000.0 0.6215923363762011 0.09730720947354603
2680000000.0 -0.21710249986074023 0.6040106845610187
2700000000.0 -0.6530596832725601 -0.020180189497750523
2720000000.0 -0.4754466215178909 -0.45959896137132705
2740000000.0 -0.3163554162147146 -0.5863156603901766
2760000000.0 -0.26152177897882906 -0.6152673543651143
2780000000.0 0.6530910334364447 -0.11873592542746134
2800000000.0 0.6466439299007812 0.11383306048704131
2820000000.0 0.3707254347515901 0.5281451631527037
2840000000.0 -0.5704817642610204 0.2725350638861172
2860000000.0 0.27161365859182257 -0.556324098041075
2880000000.0 -0.30153299534005973 0.5234976825184509
2900000000.0 0.5633852265831083 -0.1605828622806157
2920000000.0 -0.2862176145151454 -0.488052231123522
2940000000.0 -0.5393941236191757 0.009581823916840669
2960000000.0 -0.3282148818255517 0.39945346680617005
2980000000.0 0.22203278838143392 0.4416391266690618
3000000000.0 0.46875012148958095 -0.0369081551730671
3020000000.0 -0.13788956424452203 -0.4219120739082087
3040000000.0 -0.1175789868732916 0.4000963544761239
3060000000.0 0.22511288622692904 -0.31736787907992237
3080000000.0 -0.3538846454399259 0.0792291392967188
3100000000.0 0.34282947644202677 -0.0035894431162766254
3120000000.0 0.19093935371965395 -0.2695553024624183
3140000000.0 -0.21247463867765748 0.24270282870489934
3160000000.0 0.1646214716932181 -0.2728559496210815
3180000000.0 -0.2564134156486605 0.1820297108770225
3200000000.0 0.2867403325547378 -0.11477056614996785
3220000000.0 -0.17520537832017619 -0.24085244818053775
3240000000.0 -0.2646319066134361 -0.11005392796718673
3260000000.0 -0.23213887276446984 -0.13197937531376971
3280000000.0 0.09489686979174387 -0.2340646629784099
3300000000.0 0.16186407221583413 0.17254832330281414
3320000000.0 -0.21093016762287276 0.05789587657931349
3340000000.0 -0.0424715183436721 -0.19355907584088147
3360000000.0 0.17136922315526934 -0.005688708651255214
3380000000.0 0.042702412700235386 -0.1380016822438872
3400000000.0 -0.10464334480507095 -0.056363777442120504
3420000000.0 0.10587795616426542 0.0040890366195342346
3440000000.0 -0.07629369818250113 -0.0648082327497691
3460000000.0 -0.026869070982466572 0.08678630930921806
3480000000.0 -0.014122793063271109 -0.07848541802188058
3500000000.0 0.04316680453731133 0.05094941748154268
3520000000.0 0.05864029660173022 0.003246209883050467
3540000000.0 0.056427174393671745 -0.014103564454612383
3560000000.0 0.0405425060936955 0.042503805475048596
3580000000.0 0.014169073855209947 0.06809219396272893
3600000000.0 0.061586213494636326 0.04832388942761601
3620000000.0 -0.08013530505474747 -0.05100197136107781
3640000000.0 -0.0856472503996288 0.05414905925826513
3660000000.0 -0.10430190886783007 0.02252154226480878
3680000000.0 0.07066768351772966 -0.07585435526893387
3700000000.0 0.043594301916758796 0.0844669417716288
3720000000.0 -0.03667175269627216 0.07914711137835605
3740000000.0 0.038410074411968184 0.06409072037985968
3760000000.0 0.052804073304899196 0.04277247496631632
3780000000.0 0.03432354788758306 0.04702868589398675
3800000000.0 0.02415984253335058 0.026830635219291847
3820000000.0 0.0008961110772861922 -0.03214725633306047
3840000000.0 0.04290423459652759 0.023556936806163248
3860000000.0 0.01676809600597672 0.07062105546192626
3880000000.0 -0.08750998170365105 -0.004819087730910107
3900000000.0 0.10159969772541597 -0.016143651545273047
3920000000.0 0.09935140800951026 0.03961029775494194
3940000000.0 0.07536527577625929 -0.07278087157216001
3960000000.0 -0.09111886558736075 -0.05389703851979049
3980000000.0 0.009577164880775996 0.09969615165721872
4000000000.0 0.057299312731907706 -0.0690231570719116
