!Created with skrf (http://scikit-rf.org).
# Hz S RI R 50.0 
!freq ReS11 ImS11
400000000.0 -0.623654314738674 -0.5122732738310993
420000000.0 0.4126051688698119 -0.6475982519825819
440000000.0 -0.5788808152985124 -0.4397477465303108
460000000.0 -0.6077991339721446 -0.17467697436495458
480000000.0 -0.5344994255978771 0.030828324428341145
500000000.0 0.4007497931282342 -0.03080601796557017
520000000.0 0.2711467770129406 0.34264718288086665
540000000.0 0.4634724341897197 -0.052210692137509576
560000000.0 0.3768196056941343 -0.25990557909424494
580000000.0 -0.4163589751928899 -0.024288802996347007
600000000.0 0.39733439353598626 -0.022622488498428413
620000000.0 0.3750191983365308 -0.06483228487518101
640000000.0 -0.18362266313252343 0.3213649700959853
660000000.0 -0.13892848368626623 0.3442767726779469
680000000.0 0.31680886589748436 0.11828083968836299
700000000.0 0.26531073517901405 0.20215018519034647
720000000.0 -0.042771605341250164 0.33441505454872017
740000000.0 -0.08215668949819788 -0.29924296531936456
760000000.0 -0.1561458333042592 0.23086268867731569
780000000.0 -0.018099897402371227 0.26998723183779777
800000000.0 -0.22769827744569793 0.10589019310307672
820000000.0 0.022847687720558275 0.23046503153658715
840000000.0 -0.18988965009783362 -0.11950038775340774
860000000.0 0.06757130690330404 0.1916363946569127
880000000.0 -0.18935874660843954 -0.017225789210352394
900000000.0 0.14708974202025943 -0.0015479535702199634
920000000.0 0.11385870408036383 -0.0849473272588146
940000000.0 0.13204645245160762 -0.04564879706994992
960000000.0 0.026803176346155644 -0.10306182987655628
980000000.0 -0.007644810208185857 -0.06336107263540318
1000000000.0 0.0500253066087878 0.01564671590891394
1020000000.0 0.01413773604372141 -0.04936456087663561
1040000000.0 -0.060887995175481484 0.03505032292693046
1060000000.0 -0.02850639774036186 0.10525856895630262
1080000000.0 -0.13390349286953837 -0.048442648088142706
1100000000.0 0.007002123040461405 0.17969303944693754
1120000000.0 -0.06934183279413057 0.1962551679036313
1140000000.0 -0.23033132873049308 -0.06310440180098831
1160000000.0 -0.26426680863952334 0.0697401229045937
1180000000.0 0.22732626439206974 -0.16502596992255392
1200000000.0 0.0720954631181583 0.29668286778665487
1220000000.0 -0.06734698222449975 0.3009803700222728
1240000000.0 -0.158341854961381 -0.28897673457314654
1260000000.0 -0.31588322630902393 0.12272914199503404
1280000000.0 -0.05340471353252711 0.33915541817132405
1300000000.0 -0.2018742427961245 0.28232254779707333
1320000000.0 -0.07619943974915831 -0.34217893332231586
1340000000.0 0.20530354993698702 0.29759839910922076
1360000000.0 -0.3173108815397124 -0.1971719616944407
1380000000.0 0.37267816247125696 0.06249022272574755
1400000000.0 -0.209150728102076 -0.31610560233413076
1420000000.0 0.010930875867681978 0.38330359965260685
1440000000.0 0.37447000846615786 -0.026495667593050443
1460000000.0 -0.01008603922186949 -0.36697336265647273
1480000000.0 -0.33757403989852997 0.0959241471646118
1500000000.0 0.025450657627497777 0.3285617036029489
1520000000.0 0.23750350251348762 0.1928200510886423
1540000000.0 -0.027581459133927365 -0.2795783353284013
1560000000.0 -0.0666329242499094 0.24765839981600146
1580000000.0 -0.04269142524673995 -0.2161257825740295
1600000000.0 -0.011548095550801364 0.18625198804388435
1620000000.0 -0.13047804589483872 -0.0957041714889359
1640000000.0 0.11367557839672673 0.07211561014209322
1660000000.0 -0.10409200804445082 0.008357222114762392
1680000000.0 0.07259596200541192 -0.051283541257408936
1700000000.0 -0.009069798210344074 0.07901491233443797
1720000000.0 0.05478862379642358 0.021780194594240927
1740000000.0 -0.036210672563545966 0.04247371048972809
1760000000.0 -0.06673014587741655 0.02632369208777667
1780000000.0 0.0971940430885618 -0.010618461570689647
1800000000.0 0.06795725802633852 -0.10295082171430109
1820000000.0 -0.16086861417806947 0.00972569604001473
1840000000.0 -0.19268520575007342 0.03634606478305051
1860000000.0 -0.22251105880447175 -0.035091336087856105
1880000000.0 -0.158506559187594 0.19424660546619696
1900000000.0 0.2753102601045767 0.0376114310950586
1920000000.0 -0.28363925120119476 -0.07215846170812457
1940000000.0 0.1398351631658666 0.26818629430673874
1960000000.0 -0.2939352565620376 -0.09442392368916179
1980000000.0 0.30455492380763194 -0.057366262801434496
2000000000.0 0.007154657951935589 0.3093773018477311
2020000000.0 -0.2732446824730425 0.1508423611470622
2040000000.0 -0.2833790511156373 0.12109537687005817
2060000000.0 -0.25453897624742133 -0.16453779233620539
2080000000.0 -0.11385098286845786 -0.28071909150393404
2100000000.0 0.04711929263517169 0.2960116983933969
2120000000.0 -0.292360902874674 -0.04758121619085634
2140000000.0 0.29127768463148557 0.003327679098710225
2160000000.0 -0.28196016823426595 0.03637019155002033
2180000000.0 -0.18422573429335606 0.20651360570093083
2200000000.0 0.16128021729839725 0.22048058364617767
2220000000.0 0.17693716416269198 0.19238209344971954
2240000000.0 -0.07362216844574548 0.24631480806705366
2260000000.0 -0.13743240808684373 0.20270901306859548
2280000000.0 -0.0304949715659325 -0.22815183043567097
2300000000.0 0.010987005167096369 0.22055648083959548
2320000000.0 -0.14552676002476114 -0.1613384439815185
2340000000.0 0.1674271421054505 0.12427235811363953
2360000000.0 -0.17078877297087583 -0.12278614213576677
2380000000.0 0.19569187464475185 0.09325918054082671
2400000000.0 -0.21894419825422384 0.07391990571911763
2420000000.0 0.06331313335247248 0.24950070537390606
2440000000.0 0.2185651398693297 -0.1794897082183866
2460000000.0 -0.2153185746351553 0.2350472709374749
2480000000.0 0.3241055397996216 -0.133450295250678
2500000000.0 0.020960480860625547 0.3901458245859774
2520000000.0 -0.42872182292628075 0.02055550998797918
2540000000.0 -0.09351067096782668 -0.45859405537064
2560000000.0 0.49424647187296866 0.08643979541989859
2580000000.0 -0.518849242104026 0.12122029861109077
2600000000.0 0.3599700498633729 -0.43248820016457146
2620000000.0 -0.15349338063392634 0.5681150824541327
2640000000.0 -0.216883054319266 -0.5692508310769191
2660000000.0 0.6055908807860515 0.16716179027037734
2680000000.0 -0.25662091461124525 0.5873767207868509
2700000000.0 -0.6520742389740731 -0.03857103315871455
2720000000.0 -0.5149566758974573 -0.4141211360038661
2740000000.0 -0.34262688623518467 -0.5711824634877259
2760000000.0 -0.27004925459802664 -0.6110113061593017
2780000000.0 0.6388779388805743 -0.18188805794214272
2800000000.0 0.6554181089561665 0.0465658624724421
2820000000.0 0.40391030506518244 0.5044099660864043
2840000000.0 -0.5069439107210384 0.3791368592479211
2860000000.0 0.213040827875333 -0.5825200179157891
2880000000.0 -0.3657996409568622 0.47911903959497154
2900000000.0 0.5834508107732526 0.06196722876255322
2920000000.0 -0.12873575135780996 -0.551752670096203
2940000000.0 -0.5390407555885439 -0.042598553349930936
2960000000.0 -0.3245361887662896 0.40383451107056273
2980000000.0 0.3105262184299663 0.3861423775686197
3000000000.0 0.4302263534139 -0.17910146682617795
3020000000.0 -0.09383789274879173 -0.430827697538394
3040000000.0 -0.1963888842157444 0.3630504033325841
3060000000.0 0.3727473403775881 -0.1072537708435035
3080000000.0 -0.36156595709021694 -0.05426522342568339
3100000000.0 0.3451479268307802 0.03474175465377144
3120000000.0 0.026039713394922538 -0.3322587085438834
3140000000.0 0.029774371688218663 0.32235376455222436
3160000000.0 0.049465107549336536 -0.3116590264941225
3180000000.0 -0.244318694605852 0.190984481011764
3200000000.0 0.2932473523115462 0.08121108589292535
3220000000.0 0.14122862788241572 -0.2588092788935484
3240000000.0 -0.06351859179843596 -0.2817345437084722
3260000000.0 -0.22282882671078222 -0.15327875656250725
3280000000.0 -0.05504587311637206 -0.24963850974918125
3300000000.0 0.13173324976274486 -0.19506548880417177
3320000000.0 -0.12638287000401702 0.17231416421051007
3340000000.0 -0.08349182367716972 -0.1732122740980079
3360000000.0 -0.0944497349737257 0.1406147226522018
3380000000.0 0.13860153965357194 0.049194889942031306
3400000000.0 -0.12202930517340105 -0.028379052172098056
3420000000.0 -0.051480513655818703 -0.10080718192537154
3440000000.0 0.0827935857707207 -0.05580918194891538
3460000000.0 0.054178025141140146 0.06607125949045509
3480000000.0 0.055399307089547586 0.050751213124167506
3500000000.0 -0.04460505355327973 -0.04857836572671174
3520000000.0 -0.008634254264208592 0.05777503462943551
3540000000.0 -0.05581135999925812 -0.027483791186657607
3560000000.0 -0.018632388427314763 0.059026701190609474
3580000000.0 0.04034657146608368 -0.05857263153334648
3600000000.0 -0.06443117018684728 -0.04249783016886147
3620000000.0 -0.05523296139999669 0.0699328692485908
3640000000.0 -0.028605817102808302 0.09132467314152057
3660000000.0 0.023150510923895203 -0.09970855999233423
3680000000.0 0.014328143400812171 0.09922881585638813
3700000000.0 -0.09592679159146518 0.02469210626345486
3720000000.0 0.0767276727448646 -0.05022693567168149
3740000000.0 -0.0027133650491983916 0.07595444095957582
3760000000.0 -0.06251719336356977 0.012531353044011581
3780000000.0 -0.027868634165600353 0.04229462655134544
3800000000.0 0.03609598736182297 0.010263664313011258
3820000000.0 -0.032104472808999786 -0.014274803305019053
3840000000.0 0.04800109324041932 0.011264347331491868
3860000000.0 0.0623581592538519 -0.02468726563821137
3880000000.0 -0.07612228228188223 -0.03446828517503603
3900000000.0 -0.09804119060298676 0.014658940439427118
3920000000.0 -0.09440931135321959 -0.05543514662188817
3940000000.0 0.012464646537745839 -0.10979039541016967
3960000000.0 0.00048080456756234715 0.10761697558223651
3980000000.0 0.027426558003138892 -0.09409564889108388
4000000000.0 -0.08137575315806228 0.02043494341301604
