!Created with skrf (http://scikit-rf.org).
# Hz S RI R 50.0 
!freq ReS11 ImS11
400000000.0 -0.5669219877008785 -0.5787306034570451
420000000.0 0.20978076313138322 -0.7366293314176813
440000000.0 -0.6327907032982535 -0.350992222773466
460000000.0 -0.38105463817257074 -0.5046194216775557
480000000.0 -0.49092662421259864 -0.20707075293432484
500000000.0 0.3796268674254131 -0.1443426480077878
520000000.0 0.14640891691222369 -0.39628730232176446
540000000.0 0.3129875108254541 0.3419044380451818
560000000.0 0.0480006951717219 -0.4609724948411817
580000000.0 -0.17533561442489592 -0.37563128919968064
600000000.0 0.24020622726453267 -0.32482197388555206
620000000.0 0.13938271092221477 -0.3553493343909845
640000000.0 0.036059447231789166 0.3696115223867558
660000000.0 0.3457467335844815 0.09823045266351775
680000000.0 -0.04411829330908514 0.3344510938886856
700000000.0 -0.15459057135519924 0.30641830599550757
720000000.0 0.30057524536203833 -0.1647039525896041
740000000.0 -0.047853127141122616 -0.2966366230262208
760000000.0 -0.0862003997742313 0.2596712135910742
780000000.0 -0.2700840746973312 0.003929332225018824
800000000.0 -0.24518865067158216 0.08753478410331389
820000000.0 0.19286289684683025 0.13318421476552103
840000000.0 -0.2184522847792564 0.006571993023880629
860000000.0 -0.18443090383309194 0.07880055161575163
880000000.0 0.12743463116292397 -0.14599146549270353
900000000.0 0.1188155680827766 -0.09688136966546644
920000000.0 -0.13165416958157927 -0.05696939552598201
940000000.0 0.019085744521765535 0.1307255647438967
960000000.0 -0.03877184870025421 -0.09957936057148942
980000000.0 0.054376799241757846 -0.02757648940806504
1000000000.0 -0.052166542239453745 -0.02182187992196171
1020000000.0 0.04966823428013011 -0.01234294139028226
1040000000.0 0.04750395281161187 -0.05643511997178944
1060000000.0 0.10739973537828504 0.035293775488353586
1080000000.0 0.07454202981809692 0.11745618910830533
1100000000.0 -0.17060187599705448 -0.04222810377597522
1120000000.0 -0.18588777578275914 0.10501309363306134
1140000000.0 -0.24294491523484144 0.007120025875566501
1160000000.0 -0.17505653289998524 0.20176841306926988
1180000000.0 0.2757354071234278 -0.01089959316517561
1200000000.0 -0.21286955584544498 0.2218227201181906
1220000000.0 0.1444427833942912 0.2790405952842531
1240000000.0 -0.31665957473047873 -0.07980269199370785
1260000000.0 -0.27987574689271455 0.1825008361655013
1280000000.0 -0.24865677457953372 0.2427155772157463
1300000000.0 -0.2142472815766542 0.2741505471207119
1320000000.0 -0.025227868611251494 -0.35118114163134956
1340000000.0 0.26302216840714365 0.2503099636520023
1360000000.0 -0.36257975378615653 -0.08274245363513712
1380000000.0 0.28573243236811335 0.24420252732379308
1400000000.0 -0.10708015503743683 -0.3660394907440267
1420000000.0 0.2007582174633473 0.3300314625971797
1440000000.0 0.3284712959455385 -0.17703512660520143
1460000000.0 0.19090335749078843 -0.3089576873156442
1480000000.0 -0.35013986223753857 0.033970098504572825
1500000000.0 0.049943616478947926 0.32644811942190133
1520000000.0 0.2653943897500662 0.14969344625397737
1540000000.0 -0.13592178207452044 -0.24516153014793649
1560000000.0 -0.19920287322167712 0.15926538010724806
1580000000.0 -0.057387997168179744 -0.2143141286804537
1600000000.0 0.05663776107064972 0.1780289432458504
1620000000.0 -0.08868283885179994 -0.13343170239473576
1640000000.0 0.060915512547304054 0.12065553287229477
1660000000.0 -0.09707499523318579 -0.04952306931935589
1680000000.0 -0.08500940139506494 -0.021096422708630925
1700000000.0 0.024906118404462028 -0.07036756704183394
1720000000.0 -0.04986743473394048 0.039357319291148565
1740000000.0 -0.026374557132640912 -0.048641498814993314
1760000000.0 0.06904189607037446 -0.0127098345461935
1780000000.0 0.09311969450896217 0.035448221613332075
1800000000.0 0.11885811683607207 -0.034351188745059165
1820000000.0 -0.08118248793804157 0.13962779538952735
1840000000.0 -0.16504333000675434 -0.09592469330359854
1860000000.0 -0.16115887949919508 -0.16087233841950066
1880000000.0 -0.031344013529496687 0.24838739677554428
1900000000.0 0.27337031432790676 0.049430388945832515
1920000000.0 -0.2537609656307845 -0.14465513071633246
1940000000.0 0.09517849564577888 0.2862491027760031
1960000000.0 -0.2826645643760558 -0.12346618027590936
1980000000.0 0.3102630580851203 -0.010889711330589249
2000000000.0 0.10548653087216342 0.29034936826000174
2020000000.0 -0.2980178425326192 0.09514130052082334
2040000000.0 -0.2806309387924637 0.12838654688538048
2060000000.0 -0.26012200021139487 -0.15544544825086454
2080000000.0 -0.12504190146536756 -0.27691374417080367
2100000000.0 0.1254084965438686 0.27228527942690073
2120000000.0 -0.26775344089662023 -0.12615967270325917
2140000000.0 0.29096302151602527 -0.02578155983167581
2160000000.0 -0.28353351361215035 0.02085168844206824
2180000000.0 -0.2157766350347873 0.17186851615330875
2200000000.0 0.09528962939627769 0.25507913646211733
2220000000.0 0.2366905434982711 0.11479936721819044
2240000000.0 -0.07757663845750265 0.24375793467853926
2260000000.0 -0.14169193657214527 0.1962453893463068
2280000000.0 0.01212613092447331 -0.23144608397987668
2300000000.0 0.16907175441329814 0.14285144002451206
2320000000.0 -0.1349698153529409 -0.16763924366941316
2340000000.0 0.17706810185611913 0.11484892247928372
2360000000.0 -0.19124632325504715 -0.08736366307597528
2380000000.0 0.17189915331912725 0.13340218524917047
2400000000.0 -0.17567544343442718 0.15197529921330757
2420000000.0 0.07447741219607218 0.2450372796479637
2440000000.0 0.263587221244447 -0.10583612979225383
2460000000.0 -0.22310143478917507 0.22926181263667372
2480000000.0 0.29812520311888585 -0.18358508977498
2500000000.0 -0.002420382934704209 0.3911019931127413
2520000000.0 -0.4241154608032476 0.07007709059539341
2540000000.0 -0.047015707687715146 -0.46423815863017787
2560000000.0 0.4853845360470781 0.12221776352685913
2580000000.0 -0.51905232956836 0.11754262872055768
2600000000.0 0.2985891169687958 -0.4770935812288021
2620000000.0 -0.03699972807565923 0.5868044637728839
2640000000.0 -0.26799558741136736 -0.547848739262782
2660000000.0 0.6096092676367637 0.1533348906558546
2680000000.0 -0.28069182996123804 0.5773568587176275
2700000000.0 -0.6474407528547294 -0.09050766524424611
2720000000.0 -0.45317795288575696 -0.48227028294985036
2740000000.0 -0.2523516475713094 -0.6170513555274161
2760000000.0 -0.24355003269294725 -0.6220102966899472
2780000000.0 0.662686974455208 -0.03608531068878492
2800000000.0 0.6380399791541588 0.15410084635199187
2820000000.0 0.3773850032519578 0.5233918097808268
2840000000.0 -0.5530603607513352 0.30911201435386565
2860000000.0 0.1883461137046287 -0.5903888280029039
2880000000.0 -0.2613634612840495 0.543562736305337
2900000000.0 0.5852081631794112 0.019351607273966908
2920000000.0 -0.13945141082588325 -0.5499850964052951
2940000000.0 -0.5434607299587113 0.01320547553101454
2960000000.0 -0.2890312659282381 0.4321832768979463
2980000000.0 0.27466904537317455 0.41073312123690037
3000000000.0 0.4450425782151721 -0.1450432376492163
3020000000.0 -0.05671337455515367 -0.4390467496492587
3040000000.0 -0.2236763017059846 0.3473997955754355
3060000000.0 0.3848089699112113 0.06842039937890586
3080000000.0 -0.3534596014880571 -0.09341738555281971
3100000000.0 0.3457559815667483 0.0017995310669694153
3120000000.0 0.14278942915809367 -0.3014084226970809
3140000000.0 -0.0254896469687967 0.3218937653512166
3160000000.0 0.08323555452535646 -0.30294928087977696
3180000000.0 -0.24378269560806426 0.18914881115900664
3200000000.0 0.2925121240484633 0.08467593229660081
3220000000.0 0.051886522774490976 -0.2910867973321194
3240000000.0 -0.19291297775517782 -0.2136780331172148
3260000000.0 -0.22389827287137956 -0.14931573876694082
3280000000.0 -0.0010200468836816983 -0.25804954209912817
3300000000.0 0.1606246550207592 -0.17278322611429775
3320000000.0 -0.06555314522840619 0.20378267936947936
3340000000.0 -0.03834553603868823 -0.18807522094911094
3360000000.0 -0.13930018233311764 0.09564686130188721
3380000000.0 0.08078030699807476 0.12491015710902809
3400000000.0 -0.07185780261585487 -0.10391509389509439
3420000000.0 -0.0823056025257281 -0.07731441564223696
3440000000.0 0.0932700816898642 -0.0349201922859507
3460000000.0 0.010150142879865213 0.08535248031437422
3480000000.0 0.07098147765208968 -0.025119944237974368
3500000000.0 -0.06075193780319344 0.023701080995394273
3520000000.0 0.015254393427433635 0.054703291819749665
3540000000.0 -0.054774784904300995 -0.029209884728661848
3560000000.0 0.04153413526757455 0.04719942203982555
3580000000.0 -0.03713033079754501 -0.061978182411889404
3600000000.0 -0.05776036331413285 0.05076442279841271
3620000000.0 -0.03806470092216603 0.08069164872406698
3640000000.0 -0.07908659492391154 0.0576622182606406
3660000000.0 -0.05744707345617728 -0.0843864745105095
3680000000.0 0.05374101499844309 0.08760333116759199
3700000000.0 -0.0793247457189893 0.05855278682463706
3720000000.0 0.0810793126646414 0.0437022414759901
3740000000.0 -0.07551946570690309 0.013801038364001211
3760000000.0 -0.06446702298365203 -0.005964294074309196
3780000000.0 0.007949426708306676 0.05042519865286478
3800000000.0 0.019118008523727643 -0.03163023310616945
3820000000.0 -0.036518117565923665 -0.009831073104620287
3840000000.0 0.049421665634158236 -0.005926837262479985
3860000000.0 0.06732136145759124 -0.011137267809423904
3880000000.0 -0.042140361863981735 -0.07304039106991898
3900000000.0 -0.09146850745356672 0.042927568602707036
3920000000.0 -0.11096757867577152 -0.0016287309208877325
3940000000.0 0.10338938098497179 -0.04174561396931944
3960000000.0 0.008015112247544668 0.10865442819716505
3980000000.0 0.061393786981696785 -0.07875554767065204
4000000000.0 -0.06623002972881913 -0.05088466698922442
