!Created with skrf (http://scikit-rf.org).
# Hz S RI R 50.0 
!freq ReS11 ImS11
400000000.0 -0.4572252218309743 -0.6706273294107717
420000000.0 0.16648725235662648 -0.7504698587570351
440000000.0 -0.7219092147382244 -0.05602983173233711
460000000.0 -0.37157638175413604 -0.5063912442637488
480000000.0 -0.48573692144446806 -0.2382445731191078
500000000.0 0.40236465064825905 0.04980989942008931
520000000.0 0.4230509982630089 -0.005704408947864694
540000000.0 0.46977386477114347 0.015826318730073268
560000000.0 0.33677761648788207 -0.3067144632113339
580000000.0 -0.38019405294886793 -0.18114414815708918
600000000.0 0.14189384285335646 -0.36962316040188675
620000000.0 0.3486601659477613 0.14743575384668756
640000000.0 -0.2526031118991932 0.27432492238166295
660000000.0 0.10798100641991576 0.35160594785119864
680000000.0 0.3003022986209649 0.15415153341499457
700000000.0 0.19780243798544525 0.27624144156816116
720000000.0 0.33044504799635954 0.052997401373891015
740000000.0 -0.010705487537763509 -0.30310019949550954
760000000.0 -0.25073561838441905 -0.1272794915156715
780000000.0 -0.19805369156680197 0.18957585058803295
800000000.0 0.23894074211338726 0.09584869483776261
820000000.0 -0.07140316135458995 0.21259240423355383
840000000.0 -0.0944818056599871 -0.20096885326783365
860000000.0 0.008786270753579658 0.20299817656921987
880000000.0 0.10009569176928856 -0.16779959947700668
900000000.0 0.1438195474589575 -0.04925001761187065
920000000.0 -0.1330975196179838 -0.03167581179903113
940000000.0 0.04625611159920947 0.1260421487374978
960000000.0 0.1096330835327538 0.017713696434981017
980000000.0 -0.01657248254900424 0.060537180504920046
1000000000.0 -0.03288400693169207 0.041445395826483045
1020000000.0 -0.02172146213009995 -0.04349943969164219
1040000000.0 0.00896268446656829 -0.07217606347637227
1060000000.0 -0.07354268517937898 0.0807896592521686
1080000000.0 -0.07369611884560805 0.12615218028412295
1100000000.0 0.0646719146567825 0.16384621884018644
1120000000.0 -0.1827895176234347 0.10385191005009986
1140000000.0 -0.18928068609784354 0.1513711727131481
1160000000.0 -0.24289855926070553 0.1091809168088623
1180000000.0 0.2646313037376569 0.09693356683076997
1200000000.0 0.06108033985980295 0.3046010163484745
1220000000.0 0.037453619939560756 0.30782843541292915
1240000000.0 -0.15290195637740917 -0.2886739062584198
1260000000.0 -0.24318378614611436 0.23345558230154823
1280000000.0 -0.23580724255574192 0.24865626110526112
1300000000.0 -0.31490855898715203 0.15351941952850845
1320000000.0 -0.2145051303328385 -0.2811887956389326
1340000000.0 0.28454524438854406 0.22396052189998078
1360000000.0 -0.2777588595810426 -0.24500890221910274
1380000000.0 0.3263417107089257 0.18879216498818813
1400000000.0 -0.16761416972278304 -0.3430689092322486
1420000000.0 0.02336285634883546 0.3844074068551664
1440000000.0 0.359715768319809 -0.10010902556828627
1460000000.0 0.03222889187297869 -0.36443891471255496
1480000000.0 -0.3502826868730901 0.04064940164204118
1500000000.0 0.05756804794825519 0.32493613486286194
1520000000.0 0.22067706334139844 0.2084704073299941
1540000000.0 -0.016239797967548614 -0.28025487711271435
1560000000.0 -0.12080355492071276 0.22498126154670595
1580000000.0 -0.06675706763986525 -0.21140856796396212
1600000000.0 0.11467085707555452 0.14645021977038317
1620000000.0 -0.1394468800595495 -0.0812088834410911
1640000000.0 0.10438127922145797 -0.08262586269938249
1660000000.0 -0.0970093752375211 -0.03823980643684165
1680000000.0 0.08704177278172649 0.026903532653918
1700000000.0 0.05845123755993885 0.05067892617204848
1720000000.0 -0.013057637238003352 0.05868731462987402
1740000000.0 0.052845395324442754 -0.021028050347549843
1760000000.0 -0.04372358313158766 -0.057034542837438314
1780000000.0 0.03842733827697173 0.09213996748593999
1800000000.0 0.10085282397196664 -0.07294392044157517
1820000000.0 -0.1468639435250626 0.062350419184259556
1840000000.0 -0.18829836572177433 -0.05354918914688006
1860000000.0 -0.22163411667897376 -0.036828813252159115
1880000000.0 -0.21438279888750983 0.1286579036462025
1900000000.0 0.27597952835011724 -0.04918585916666751
1920000000.0 -0.2890619399936107 -0.02828321798053949
1940000000.0 0.08226842467323378 0.28969239546857684
1960000000.0 -0.30508919662741524 -0.06205177269429562
1980000000.0 0.25261349359971896 -0.1791017909550042
2000000000.0 0.06570881005457058 0.30090721804789106
2020000000.0 -0.2829862444018022 0.13395152083629547
2040000000.0 -0.28010215966262836 0.1318030957629118
2060000000.0 -0.29898859494481683 -0.05142553516085828
2080000000.0 -0.16058673223508016 -0.2569743277196481
2100000000.0 0.10996531633522347 0.28099077055923033
2120000000.0 -0.28497513446137707 -0.07949006213598334
2140000000.0 0.28813916334337036 -0.03721238784872677
2160000000.0 -0.2847581709016757 -0.004840032157359378
2180000000.0 -0.21088337901083318 0.17760428330132022
2200000000.0 0.015594825385328958 0.2726186215693331
2220000000.0 0.23289637468722169 0.12371182741742143
2240000000.0 0.022054806326039286 0.2561724636556029
2260000000.0 -0.11566481625976927 0.2119702542093477
2280000000.0 0.07043373917583327 -0.22049625674447892
2300000000.0 0.10738310158890632 0.1949108761534597
2320000000.0 -0.18062503230054497 -0.12060509315269616
2340000000.0 0.18995357123998033 0.0871419465984595
2360000000.0 -0.14491489872944519 -0.15502046840948297
2380000000.0 0.21216743915617509 0.042098218295044884
2400000000.0 -0.2306993435588025 0.030565039007791006
2420000000.0 0.1061136956200511 0.23601576368033542
2440000000.0 0.19166978160562773 -0.20808124758370053
2460000000.0 -0.2490049181066477 0.20001976389933981
2480000000.0 0.34497849827918076 -0.0743038413941821
2500000000.0 0.06377642454857181 0.3873211698772997
2520000000.0 -0.4207388908000521 0.08234188627612539
2540000000.0 -0.022381834935618 -0.4657185958442658
2560000000.0 0.49764775175276943 0.06894659229612767
2580000000.0 -0.5053149591366641 0.1716023115959781
2600000000.0 0.3799258770435217 -0.41534797731341133
2620000000.0 -0.03454527073494447 0.5876502862849121
2640000000.0 -0.21670622781377724 -0.5701144439178674
2660000000.0 0.6066125761417928 0.16638757482944175
2680000000.0 -0.2757282875442746 0.5790329125928496
2700000000.0 -0.6474838929461619 -0.08719811406346147
2720000000.0 -0.47082788678444304 -0.46410734596620057
2740000000.0 -0.4002348118317665 -0.5316491558700803
2760000000.0 -0.30943810004959005 -0.5923420949149097
2780000000.0 0.6404980703614933 -0.17706306253650686
2800000000.0 0.6517509867768057 0.08197282367777832
2820000000.0 0.368531409773654 0.530061122220046
2840000000.0 -0.5066106120585764 0.37922572871567156
2860000000.0 0.0939111085654096 -0.6128063987867722
2880000000.0 -0.3249011557720875 0.5068246046437586
2900000000.0 0.5858358472134968 -0.01088506716092043
2920000000.0 -0.1464603290965027 -0.5473238589790284
2940000000.0 -0.5392770003847888 -0.035426771530203786
2960000000.0 -0.3386703584099543 0.3957260725838965
2980000000.0 0.3990887569720635 0.29414664314062744
3000000000.0 0.40585927363927676 -0.22859439552038793
3020000000.0 -0.07566429758322304 -0.434739125022826
3040000000.0 -0.2826978275140605 0.3045929016074526
3060000000.0 0.37934532179858205 -0.08953172860532732
3080000000.0 -0.36175711090859497 -0.06434539977837526
3100000000.0 0.34697603437725216 0.003801987223872485
3120000000.0 0.09658017415715257 -0.31770008399365024
3140000000.0 -0.09878219670973903 0.3073505891761155
3160000000.0 0.054613076420578145 -0.31053566544387795
3180000000.0 -0.2179296038549016 0.2197526713793896
3200000000.0 0.2963709830594689 0.0650645493921267
3220000000.0 0.07806664396056431 -0.284234038748003
3240000000.0 -0.16847961461843797 -0.2341303688433775
3260000000.0 -0.23436306986936142 -0.1349311640054472
3280000000.0 -0.08646270852421664 -0.24278687692530024
3300000000.0 0.048961098125403064 -0.23141642432894385
3320000000.0 -0.14065035626539832 0.16062638209095864
3340000000.0 -0.041679696186236244 -0.18719376290082443
3360000000.0 -0.12505337772073985 0.11477114198422873
3380000000.0 0.13529874794104343 0.05785997431376437
3400000000.0 -0.06560161666940094 -0.10651415298872771
3420000000.0 0.007393302052019363 -0.11226151119136427
3440000000.0 0.09807226737975332 -0.01523506393441571
3460000000.0 0.02958002209566319 0.08088462415017775
3480000000.0 0.07347801636198016 -0.005033397156804137
3500000000.0 -0.06333699270244127 0.013011103083559654
3520000000.0 -0.010074453902186786 0.058054860267732745
3540000000.0 -0.06205916453975874 0.012860343335058085
3560000000.0 0.01532800869025922 0.061057215402793706
3580000000.0 -0.020447065288644137 -0.0687824860425943
3600000000.0 -0.05655143999971211 -0.05381967401756769
3620000000.0 -0.07909742527234434 0.04489759136436049
3640000000.0 -0.029599829537540784 0.09303786998340961
3660000000.0 0.021721879332554837 -0.10059066959546194
3680000000.0 -0.040730134544954194 0.09441021635100641
3700000000.0 -0.08994041748650673 0.042216468290652835
3720000000.0 0.08686575206992912 0.025523985261798277
3740000000.0 -0.06952986818762745 0.030015123827663765
3760000000.0 -0.06370221627636562 -0.011156791463539178
3780000000.0 0.016845274454260536 0.04813578902698805
3800000000.0 -0.03477232774136746 0.012209366380718352
3820000000.0 -0.02082433827220754 -0.028871253713175154
3840000000.0 0.048460183614895326 -0.004639490503926765
3860000000.0 0.060849050786329184 -0.026445646720983807
3880000000.0 -0.056141863875751735 -0.06193964514266026
3900000000.0 -0.09762614907005818 0.015395542147410634
3920000000.0 -0.10919853236934558 0.014132891634572124
3940000000.0 -0.00977639941067939 -0.11111993213934299
3960000000.0 0.02987964518184012 0.10429368587775541
3980000000.0 0.06372090382821609 -0.07351886203783727
4000000000.0 -0.04277555682926985 -0.07330977715512542
