!Created with skrf (http://scikit-rf.org).
# Hz S RI R 50.0 
!freq ReS11 ImS11
400000000.0 -0.5446171930202003 -0.5979787702140434
420000000.0 0.1944457038066001 -0.7420929917164948
440000000.0 -0.5940611424312784 -0.4167463948384632
460000000.0 -0.5350441232530833 -0.3367395003022497
480000000.0 -0.348718153003464 -0.4004665144280619
500000000.0 0.35636016740123805 -0.20565706777965684
520000000.0 0.3511713539435392 -0.2319050584394718
540000000.0 0.43191575839063195 0.1802279650572635
560000000.0 0.21366821332278152 -0.4102420749538629
580000000.0 -0.285479359178261 -0.3057972443026892
600000000.0 0.0297608948343857 -0.39892156233186077
620000000.0 0.2811246314098873 -0.24783864342823742
640000000.0 -0.14089340199214953 0.352691363613653
660000000.0 0.35308609963953597 0.08075114053551723
680000000.0 -0.07225438702012829 0.3343466918407128
700000000.0 -0.14441325594786697 0.3085565410213015
720000000.0 0.3076891381616015 -0.14587431571493822
740000000.0 -0.16150347084325684 -0.25947901159389886
760000000.0 -0.1353890620124836 0.23688952558917203
780000000.0 -0.2607687736494812 0.07040109145984798
800000000.0 -0.21480977701676401 0.1373842792342826
820000000.0 -0.0037155775645587264 0.2345763077531495
840000000.0 -0.22356468589611417 -0.0067904424717865515
860000000.0 -0.012311240452633659 0.19983323492088123
880000000.0 0.10944037945506782 -0.15568260710971404
900000000.0 0.023359914375028674 -0.15067748999789823
920000000.0 0.1337323161351752 0.047146320319096394
940000000.0 0.011160447274625625 0.13924541450109196
960000000.0 -0.0858326512811855 0.06687209868218626
980000000.0 0.04444582741561872 -0.03433960138486714
1000000000.0 0.036569571766382536 -0.045557864897243915
1020000000.0 0.04203034133248262 0.026703579246019536
1040000000.0 -0.07198577962230249 -0.013147458107093201
1060000000.0 0.11362624522359684 0.015792700714805697
1080000000.0 0.08751197948622455 0.1007425460162451
1100000000.0 -0.0567670892070635 -0.16861288206242306
1120000000.0 -0.168176527200691 0.13225430219391046
1140000000.0 -0.23475317656688818 0.0643702778723053
1160000000.0 -0.06545470755278554 0.25990007143582367
1180000000.0 0.2595046582389489 -0.08050518079351382
1200000000.0 -0.30383611697066754 0.025949150017045678
1220000000.0 0.04442669380221385 0.31609503471720723
1240000000.0 -0.3090478007516824 0.10713680005850419
1260000000.0 -0.2639931952768639 0.20467243580091818
1280000000.0 -0.21315995711832492 0.27169290209468044
1300000000.0 -0.26130097862910434 0.2319682807740283
1320000000.0 -0.054385587363905315 -0.3479643909391604
1340000000.0 0.15707352521121234 0.3265370308252695
1360000000.0 -0.3653666449642958 -0.08085911059145184
1380000000.0 0.3255583852775245 0.18807294217955062
1400000000.0 -0.17441657341251854 -0.3366714745871621
1420000000.0 0.044399989034664473 0.38314784474995134
1440000000.0 0.32659167724672944 -0.18275558110387172
1460000000.0 0.10383886145113874 -0.35103441871651403
1480000000.0 -0.33326554244315293 0.10668505676312688
1500000000.0 0.0411241504328445 0.3252516897998349
1520000000.0 0.14206196642879299 0.2714985314539282
1540000000.0 -0.20122348493176956 -0.19661166701457192
1560000000.0 -0.1954888791898345 0.1621237343518881
1580000000.0 0.02320704596599368 -0.21998826542160657
1600000000.0 0.07745510571707774 0.17034462495169186
1620000000.0 -0.11902762234569715 -0.10707031981188353
1640000000.0 0.021623807294520975 0.1320192155593957
1660000000.0 -0.10736611654754595 -0.020196936102399192
1680000000.0 -0.049710220571354255 -0.0727206345659929
1700000000.0 -0.05680587189715771 -0.05021699425810605
1720000000.0 -0.04242964280918133 0.04559784688438052
1740000000.0 0.016258851041446146 0.054280563679363236
1760000000.0 -0.056396884837622015 -0.04463253837270702
1780000000.0 0.05837541051175817 0.08064955911838353
1800000000.0 0.12190144775652902 -0.021749064461005923
1820000000.0 -0.13518441256374084 0.08726808940977952
1840000000.0 -0.15513506703769173 -0.11310859997300098
1860000000.0 -0.18909591818264743 -0.12688521829864496
1880000000.0 -0.08611692994375367 0.23532676532714172
1900000000.0 0.27586070197600915 0.02512873616686997
1920000000.0 -0.24828085960832857 -0.15193942907586844
1940000000.0 0.07986116769841693 0.291343030470549
1960000000.0 -0.29926636049583893 -0.07833597611394345
1980000000.0 0.2832797481454212 -0.12564181810786654
2000000000.0 0.07794087974306672 0.2975582779931207
2020000000.0 -0.30136280086371764 0.08699017801937448
2040000000.0 -0.26354010307253345 0.1604021229935494
2060000000.0 -0.2823562700059613 -0.1128869392501668
2080000000.0 -0.10329285679786686 -0.2844308298130377
2100000000.0 0.09095601431308381 0.28682006331609927
2120000000.0 -0.2710173466853337 -0.1192802540599205
2140000000.0 0.2914667998320384 -0.006698974445693613
2160000000.0 -0.2843962360938866 0.004292646003089532
2180000000.0 -0.20640365444420677 0.18203412217740533
2200000000.0 0.06751237995749458 0.26360887668745037
2220000000.0 0.22602480553335727 0.13370108288277113
2240000000.0 -0.022759974446163265 0.254321207269504
2260000000.0 -0.19860914840020874 0.1384484585837652
2280000000.0 -0.012372358313767281 -0.23153705260675458
2300000000.0 0.21563653691691528 0.050120776397853645
2320000000.0 -0.07641469577294863 -0.20081191068137313
2340000000.0 0.16654084343885783 0.13057356664348932
2360000000.0 -0.1987348632029714 -0.07185153109443472
2380000000.0 0.18604314439825725 0.1108455913787753
2400000000.0 -0.201401025783207 0.11748058310958846
2420000000.0 0.02645110252664243 0.25535043258017276
2440000000.0 0.2585867061891431 -0.11572377636864305
2460000000.0 -0.24165750203325315 0.20815277116120476
2480000000.0 0.32117801662497286 -0.14449485335728382
2500000000.0 0.09412950203035532 0.37981390908369156
2520000000.0 -0.4242628807493742 0.059238992621534724
2540000000.0 -0.008771169648835463 -0.46586727367676883
2560000000.0 0.4610692628889552 0.19717245523960522
2580000000.0 -0.5023462694891805 0.17721386683722135
2600000000.0 0.3109628991504933 -0.46915671969907563
2620000000.0 -0.08372506685034796 0.5823186989095668
2640000000.0 -0.23552973966780993 -0.5631243213766582
2660000000.0 0.610474475968854 0.1485319294841628
2680000000.0 -0.2759775893862629 0.5793296748820359
2700000000.0 -0.6476718721041241 -0.09173592743985666
2720000000.0 -0.456858485225433 -0.47911252220186507
2740000000.0 -0.2715487468113159 -0.6094020766369823
2760000000.0 -0.2625459121423138 -0.6143047475972054
2780000000.0 0.6612477317212855 -0.0555290645983597
2800000000.0 0.6372018816765209 0.15848555327182903
2820000000.0 0.3863256561881247 0.5169124272681899
2840000000.0 -0.5718726920079471 0.2728784285867991
2860000000.0 0.20033139570568237 -0.587180264706569
2880000000.0 -0.302510164014732 0.5220917263109242
2900000000.0 0.5844786127221593 0.03441229676861356
2920000000.0 -0.17116512307117734 -0.5406913931600656
2940000000.0 -0.5424393824699233 -0.017711148661150165
2960000000.0 -0.3292716712388967 0.40339063476327935
2980000000.0 0.33142552727416447 0.36788229055028343
3000000000.0 0.42921595537690005 -0.1853044970618765
3020000000.0 -0.05588866169606574 -0.4388761193792266
3040000000.0 -0.1908706036771575 0.3672195134253906
3060000000.0 0.38018916925415264 0.08739371947171214
3080000000.0 -0.35535287162782725 -0.09115708142802974
3100000000.0 0.3378204928582497 0.07581505042007299
3120000000.0 0.08234171227074191 -0.32293796933325286
3140000000.0 0.011065585325712111 0.32196230679014637
3160000000.0 0.08742097087804374 -0.30107145923899103
3180000000.0 -0.26835102877573297 0.15229976793652739
3200000000.0 0.2905874677815872 0.09111424822936053
3220000000.0 0.055536480388122804 -0.291787073013448
3240000000.0 -0.23922854188526427 -0.15914634685085133
3260000000.0 -0.24391247399323412 -0.11391676671731131
3280000000.0 -0.0013936616697549744 -0.2569742143909209
3300000000.0 0.20130364869279652 -0.12472740941554517
3320000000.0 -0.031579208658363694 0.2134253174663739
3340000000.0 -0.10772483655305848 -0.1587375293600489
3360000000.0 -0.13396398019842884 0.10255173266840337
3380000000.0 0.05334667404471145 0.13827889657525494
3400000000.0 -0.04437361726387465 -0.11988520142389723
3420000000.0 -0.08693860923317266 -0.07237863689580012
3440000000.0 0.09787256419820811 0.014824797701577295
3460000000.0 0.057193932362547016 0.06466870263670274
3480000000.0 0.06611882272687712 -0.03177841327664798
3500000000.0 -0.04458610729257553 -0.04665552651620618
3520000000.0 0.002247915955470767 0.05747522989242264
3540000000.0 -0.057497837404983355 0.024920474476230095
3560000000.0 0.05896222917244859 0.019361631388186154
3580000000.0 -0.06314633654782785 -0.033916246610402614
3600000000.0 -0.06883500996279943 0.034827761811624995
3620000000.0 0.02295867888225163 0.08592648271019433
3640000000.0 -0.09129901334230925 0.03393034795283943
3660000000.0 -0.03087676539909473 -0.09810146543512316
3680000000.0 0.04780076499797184 0.09149397020850226
3700000000.0 -0.04212367995739381 0.08910680106473613
3720000000.0 0.003972468172641317 0.09090337022387486
3740000000.0 -0.04842771261079047 -0.06026741087556778
3760000000.0 -0.06608227779693045 -0.006649708940904268
3780000000.0 0.03414775350042138 0.03662826711897131
3800000000.0 0.03629755981734972 -0.006220418808607476
3820000000.0 -0.03132000659153946 -0.02198211318818394
3840000000.0 0.014181412301765948 -0.04740227646161073
3860000000.0 0.043026469171177285 -0.05298878652142156
3880000000.0 -0.03262160378599026 -0.07758503106451804
3900000000.0 -0.10140586779760988 0.0020242527142611227
3920000000.0 -0.10714045034193173 -0.03339165073183152
3940000000.0 0.09694036692100576 -0.05629237432214853
3960000000.0 0.0020079109059737118 0.10867659042678446
3980000000.0 0.09055355658907437 -0.042151586738617346
4000000000.0 -0.009628593656776463 -0.0838130841528176
