!Created with skrf (http://scikit-rf.org).
# Hz S RI R 50.0 
!freq ReS11 ImS11
400000000.0 -0.6024921768320859 -0.5407642137613757
420000000.0 0.2800436560377496 -0.7121335440193408
440000000.0 -0.5988772530381878 -0.4070776166795631
460000000.0 -0.4206928782672749 -0.47317948192251535
480000000.0 -0.4919965072865148 -0.20264066627755473
500000000.0 0.3885644620024012 -0.12648649632778008
520000000.0 0.23725130431719127 -0.34480536347845203
540000000.0 0.2513826548083151 0.3912527306168659
560000000.0 0.05756428623354889 -0.4591889813159221
580000000.0 -0.17943064496682098 -0.3756949680999044
600000000.0 0.15433827238130726 -0.3752926382607342
620000000.0 0.17179572280596742 -0.3384096420942479
640000000.0 0.017145576411246494 0.36862912999563724
660000000.0 0.28427697844592065 0.22238610002639744
680000000.0 -0.04530005607818643 0.33474444647680895
700000000.0 -0.04147346864760665 0.3415432388183597
720000000.0 0.32266951734106397 -0.11404100645230832
740000000.0 -0.03716777294125231 -0.29891320952367567
760000000.0 -0.11375948014592367 0.24832508750885043
780000000.0 -0.251023705354965 0.10038341436641521
800000000.0 -0.24949188548560156 0.07683214659784157
820000000.0 0.2150536034039698 0.09614940398811452
840000000.0 -0.21841932910753495 0.0002106158854874828
860000000.0 -0.16710002770407617 0.11008210274859669
880000000.0 0.1838629138579109 -0.05960232086609004
900000000.0 0.14623504571764037 -0.05066610456487387
920000000.0 -0.14334168030538524 -0.010244494322517245
940000000.0 0.015717757927589747 0.13098235111279757
960000000.0 -0.042749672306646204 -0.09787001793748731
980000000.0 0.06090024911714117 0.009517831426892397
1000000000.0 -0.0513248554271693 -0.022751036351445587
1020000000.0 0.02082656917525602 -0.04667859831293802
1040000000.0 0.036959458399004705 -0.06280835450698144
1060000000.0 0.07128737245721654 0.08780684530849628
1080000000.0 0.06832699892470613 0.12110225971025372
1100000000.0 -0.16953081673677944 -0.049991206848176796
1120000000.0 -0.13598019843633916 0.1639946274190946
1140000000.0 -0.24100710324414934 0.027114082474315147
1160000000.0 -0.24305346922424506 0.11081109703675268
1180000000.0 0.27492832038182285 -0.0319718191982646
1200000000.0 -0.19251071561205477 0.24089560831445136
1220000000.0 0.182543731703623 0.25507041546488374
1240000000.0 -0.2924433687959674 -0.1441103764899025
1260000000.0 -0.3052069387967955 0.13683301595345082
1280000000.0 -0.26788747165252463 0.22277591578293107
1300000000.0 -0.17845359439238426 0.2991334279270602
1320000000.0 -0.03979695523578222 -0.3488311514403892
1340000000.0 0.21447131182409163 0.29299243683051684
1360000000.0 -0.35481232520981126 -0.11287771978606743
1380000000.0 0.30314832141235315 0.2238180173801512
1400000000.0 -0.16237790015160028 -0.3451912081929491
1420000000.0 0.14819987259656053 0.3551430109400026
1440000000.0 0.34518120786801115 -0.14353560598977733
1460000000.0 0.14957144006356834 -0.331778501329762
1480000000.0 -0.3511436750940118 0.015522320989048032
1500000000.0 0.026847469091259228 0.3294042827717978
1520000000.0 0.2742140099646982 0.13375563126633166
1540000000.0 -0.1296764407321483 -0.24776929682213364
1560000000.0 -0.2260501264045828 0.11962163247182077
1580000000.0 -0.07504305697789622 -0.20941062107655373
1600000000.0 0.0981846079559221 0.15832073282786038
1620000000.0 -0.08073387409104059 -0.13789542850760894
1640000000.0 0.011215761323633873 0.1344432552804866
1660000000.0 -0.10347194535079533 -0.036665595315046914
1680000000.0 -0.08694275088041352 -0.014316284032593496
1700000000.0 0.01971457234875937 -0.07059776610632239
1720000000.0 -0.062482959619788364 0.011052228718713161
1740000000.0 -0.00707357590716171 -0.05599657406679228
1760000000.0 0.0369683239302215 -0.060091233838331676
1780000000.0 0.07844195717731338 0.05965985720518425
1800000000.0 0.11465902509050485 0.04612323339692743
1820000000.0 -0.10064859787292112 0.12693101297701295
1840000000.0 -0.18005981705773932 -0.06252685545881612
1860000000.0 -0.16363759508621212 -0.15783349974458127
1880000000.0 -0.0611557169580274 0.2428162442459448
1900000000.0 0.2741411574927113 0.046184154139179125
1920000000.0 -0.2766352784557437 -0.09259707705036083
1940000000.0 0.09421772314423273 0.28664831125828394
1960000000.0 -0.2951182516080571 -0.09058867104837381
1980000000.0 0.30621099669130064 -0.048621842556134366
2000000000.0 0.054477604736992404 0.303720296172294
2020000000.0 -0.29558940238398784 0.10335256784833116
2040000000.0 -0.2827395456766857 0.12416038202832193
2060000000.0 -0.2633826616313498 -0.14981444315101952
2080000000.0 -0.13088532277067438 -0.27430289284450193
2100000000.0 0.1455894456659397 0.261726435344258
2120000000.0 -0.2691340887238011 -0.12241951618674143
2140000000.0 0.29112655151497885 -0.030942178536692108
2160000000.0 -0.2808673578794644 0.04493986663440126
2180000000.0 -0.19418992886706532 0.19537556422755872
2200000000.0 0.08017313332307557 0.25978956800389275
2220000000.0 0.22093069846134217 0.14303739710477975
2240000000.0 -0.04067545251152318 0.2534551921228378
2260000000.0 -0.13676666442628954 0.19948743537963431
2280000000.0 0.010127440484296368 -0.2310495662572054
2300000000.0 0.13495250774033224 0.17552222138926846
2320000000.0 -0.1493625328283911 -0.15515994471370015
2340000000.0 0.1732063717839305 0.12054420349215589
2360000000.0 -0.19700572242344788 -0.07143552174756988
2380000000.0 0.18534726652895897 0.11320063831693208
2400000000.0 -0.20114048925250294 0.11607470875528332
2420000000.0 0.03222540247311389 0.25450310681616994
2440000000.0 0.25736492259488714 -0.11994070274802779
2460000000.0 -0.21425518926353712 0.23700892501129422
2480000000.0 0.32268530203486084 -0.13452546193887446
2500000000.0 0.01111385399133662 0.39117975205997013
2520000000.0 -0.4221826391556903 0.08076170621044894
2540000000.0 -0.065885487294432 -0.46195435675156965
2560000000.0 0.48458295371367444 0.12621913995298173
2580000000.0 -0.5197913430499482 0.1146781493068662
2600000000.0 0.30952393939101824 -0.4702221785086994
2620000000.0 -0.07169787294149219 0.5834639535045306
2640000000.0 -0.25390401541280316 -0.5545194081901808
2660000000.0 0.6103946413115854 0.15019785055972512
2680000000.0 -0.2815512238905737 0.5767750983845575
2700000000.0 -0.6477950851626924 -0.08679547816748359
2720000000.0 -0.44968188961634425 -0.48523866263048954
2740000000.0 -0.3133139387473518 -0.5881318683670327
2760000000.0 -0.27971414012919776 -0.6063271150227881
2780000000.0 0.6578440548439154 -0.08954638825681907
2800000000.0 0.6415558575330363 0.13838117524813484
2820000000.0 0.3558639126025983 0.5384689168087018
2840000000.0 -0.5074851195364704 0.37867175152187366
2860000000.0 0.19420285501288212 -0.5887987095868746
2880000000.0 -0.3060680177310389 0.5193797944795758
2900000000.0 0.5828294467326517 0.060494512075301224
2920000000.0 -0.12545918594002473 -0.5537249550850477
2940000000.0 -0.542677312600553 0.023856859937934356
2960000000.0 -0.3243032407298774 0.4054491335245199
2980000000.0 0.27402209339058875 0.412096820550479
3000000000.0 0.4478022347079404 -0.13527559835159894
3020000000.0 -0.10035018934337618 -0.43079652058971535
3040000000.0 -0.18984161229299304 0.36661997452630857
3060000000.0 0.38266108086236106 0.07500092935572276
3080000000.0 -0.3425948041734895 -0.12785541775642698
3100000000.0 0.3462413469260186 0.003890630126966634
3120000000.0 0.12647662979087393 -0.3088495086118578
3140000000.0 0.021023874138294842 0.3220962520705123
3160000000.0 0.09358869732134374 -0.2998563451247822
3180000000.0 -0.2597959532325375 0.1658811860888662
3200000000.0 0.2946719822522291 0.07725955744172443
3220000000.0 0.05551656097115691 -0.29011089814627866
3240000000.0 -0.18392882876015618 -0.22210599884180746
3260000000.0 -0.22594413827092613 -0.14790622518324403
3280000000.0 -0.04624752429971451 -0.25252038655866993
3300000000.0 0.1857596501836674 -0.14664002316215582
3320000000.0 -0.10104435958898667 0.18903328699408636
3340000000.0 -0.06970019569509353 -0.17864729007482905
3360000000.0 -0.08842470134761977 0.14366081218759402
3380000000.0 0.084900212112802 0.12124555906894456
3400000000.0 -0.0581520557558182 -0.11271142702881005
3420000000.0 -0.0938144513905533 -0.06335458345176126
3440000000.0 0.08587031794037404 -0.04991939953078951
3460000000.0 0.0020654096083199767 0.08550989568199742
3480000000.0 0.07584009108053205 0.0009788505006949014
3500000000.0 -0.04857881543569332 0.04377741949302102
3520000000.0 0.005157299473214335 0.056627822695920295
3540000000.0 -0.03704270718195386 -0.05024236634337776
3560000000.0 0.04964475121219497 0.03797797537934298
3580000000.0 -0.062063702842170373 -0.036959353253093685
3600000000.0 -0.07632273617500945 0.0038650037272885906
3620000000.0 -0.04625721787100055 0.07628209155802437
3640000000.0 -0.057591401437889156 0.07867326293344312
3660000000.0 -0.044655216047073974 -0.0914154812741088
3680000000.0 0.040360473986068145 0.09385664502106235
3700000000.0 -0.07409626588730776 0.06559652116315579
3720000000.0 0.0886019478775345 0.024117189296641927
3740000000.0 -0.07241117339515311 0.023979797414095328
3760000000.0 -0.04855809304238722 -0.04297701589196296
3780000000.0 0.0406901993586305 0.03193301930092999
3800000000.0 -0.024358898348437342 -0.027409868203988004
3820000000.0 0.0003053751940107183 -0.037770312162390074
3840000000.0 0.040116917146785544 -0.02967528013650661
3860000000.0 0.03259623684394029 -0.059717010884907655
3880000000.0 -0.01199179333504931 -0.08268481903453082
3900000000.0 -0.09467172811633723 0.035804854605417685
3920000000.0 -0.10246949010604853 0.043137258233150386
3940000000.0 0.09139377517522049 -0.06295772219806746
3960000000.0 -0.002949620697834122 0.10922375445019787
3980000000.0 0.008927522514527346 -0.10061632036014481
4000000000.0 -0.08446720894529094 -9.626363495002279e-05
