!Created with skrf (http://scikit-rf.org).
# Hz S RI R 50.0 
!freq ReS11 ImS11
400000000.0 -0.6863844904413039 0.4481159035021035
420000000.0 -0.03207175707700976 -0.772858324334946
440000000.0 -0.2724370163555188 -0.6547895422327112
460000000.0 0.3562693451556632 -0.5448812453028886
480000000.0 -0.480334732442469 -0.24308845219790162
500000000.0 0.39745299892963154 -0.16878838438453775
520000000.0 -0.32699988722931783 -0.2875695806192652
540000000.0 -0.029833052947658794 -0.4601664047377501
560000000.0 -0.43894006668832314 -0.12318536617576192
580000000.0 0.38562947027648803 0.11977974547386258
600000000.0 -0.22551220355114032 -0.3134215532859146
620000000.0 -0.33548230671635293 -0.11886620834493708
640000000.0 0.35692045069455375 0.03947214610195051
660000000.0 0.2576664956278939 0.23087516503556554
680000000.0 0.2676744656460754 0.20750387741808093
700000000.0 0.10149444176174435 0.3193086578775051
720000000.0 -0.005276815373819667 0.3220320059892038
740000000.0 -0.2968098007424481 -0.05034095323563618
760000000.0 0.22893505725374122 -0.17802105240565258
780000000.0 0.057572422291382805 0.27390596060869393
800000000.0 0.10937649669247139 -0.2432153015570428
820000000.0 0.05690542488394473 0.24084324334853163
840000000.0 -0.2082491158890892 -0.06718445148673703
860000000.0 0.18526539959185886 -0.06854823129198959
880000000.0 -0.1443311133997242 0.13807317066624827
900000000.0 -0.13634077832502256 -0.10402821743207663
920000000.0 -0.15337641348614992 0.040529862960058644
940000000.0 -0.12621200261246432 -0.0589130600908737
960000000.0 0.10610364672876034 0.018066783357387147
980000000.0 -0.07751442129464821 -0.023749032006120777
1000000000.0 0.02088653562343734 0.06279391197158053
1020000000.0 0.06082590952583187 -0.024654625323460598
1040000000.0 0.07202834398727034 0.054008655454518925
1060000000.0 -0.11755478945549774 -0.015434123065971505
1080000000.0 0.11484370170565554 0.10360143868868257
1100000000.0 0.14367362719478563 -0.12619467489774674
1120000000.0 0.19344632106941825 0.09473856097844449
1140000000.0 -0.11362924440394954 0.21917947923965406
1160000000.0 -0.25926011380811953 -0.08824231566406486
1180000000.0 -0.19261963667927628 -0.22005364886290324
1200000000.0 0.2998088484822603 0.07488301243697898
1220000000.0 0.28161403249587014 0.15667318498177402
1240000000.0 0.1433477371731935 0.288226446956265
1260000000.0 -0.11982628094418872 0.30243254464435243
1280000000.0 -0.3128869211844456 0.1023858903324389
1300000000.0 -0.12021707508103704 -0.3186685357937301
1320000000.0 0.3035501981559959 -0.17299778130928808
1340000000.0 -0.35252481072279346 -0.05621985270954977
1360000000.0 0.17183757910567657 -0.33637358291687336
1380000000.0 0.007074351463048359 0.3800751422190116
1400000000.0 -0.11449233157286474 -0.36788385388687755
1420000000.0 -0.36807451085691145 0.10572500653391421
1440000000.0 0.38235965432252084 0.02470337202070142
1460000000.0 -0.14976190424540742 -0.34078412129294583
1480000000.0 -0.33836729853139996 0.09672468822473315
1500000000.0 0.3215334484704646 0.08603313983312934
1520000000.0 0.03650844897007909 -0.30482501212712754
1540000000.0 -0.25908659747190177 -0.10278377734163328
1560000000.0 0.24859618149640442 -0.016562535200802607
1580000000.0 -0.1629601301511896 0.13781479548385242
1600000000.0 0.17378574392376972 -0.023470936700284554
1620000000.0 0.11904930304229362 -0.09574409610388936
1640000000.0 0.055216596201951455 0.11447769089588276
1660000000.0 0.09441541349005475 -0.05146215188456066
1680000000.0 -0.06670926688865153 -0.057524275561316875
1700000000.0 -0.008890384606788133 0.07374116194842657
1720000000.0 -0.02997774920236164 -0.052345821663734
1740000000.0 0.030726478358635574 0.05097950165446104
1760000000.0 0.040464575352139445 -0.05554930288278785
1780000000.0 0.041206834025485216 -0.08607529955219519
1800000000.0 -0.04242587236850997 -0.115923941806389
1820000000.0 0.15148681008700177 0.008919416017492545
1840000000.0 -0.14603552512352644 0.11919525213352886
1860000000.0 -0.07850565747176305 0.2015668841033578
1880000000.0 -0.12059303481615503 0.2100861617061035
1900000000.0 0.24723918331191905 0.09438639704071099
1920000000.0 -0.09350816336504193 -0.26693687532054033
1940000000.0 -0.2710092347157956 0.12390725543723621
1960000000.0 0.14018664386946067 -0.27621273276646385
1980000000.0 0.3080592155151993 0.07303815126633595
2000000000.0 -0.07281377812222746 0.3070682588367744
2020000000.0 -0.22785288011367466 0.2283608697400955
2040000000.0 0.026599937670007616 0.31872118624310325
2060000000.0 -0.0017073823621487417 0.31027333984045824
2080000000.0 -0.24950158218118088 0.18037220250704897
2100000000.0 0.2484909739155756 -0.1720130672889965
2120000000.0 -0.16874589391352043 0.24528218147997669
2140000000.0 -0.0041487655018878 -0.29219894124447465
2160000000.0 -0.06261609723309378 0.27890050355356755
2180000000.0 0.267417108069507 0.07005413394072944
2200000000.0 0.253404888698602 0.08437724813249402
2220000000.0 0.24101352293711367 0.09078158069237573
2240000000.0 -0.24112788222652287 0.06869699554076812
2260000000.0 -0.1496197546820344 -0.19797192677360728
2280000000.0 0.0683676776927069 -0.22962948126447066
2300000000.0 0.21029704431892499 0.0950063416549455
2320000000.0 -0.15819230081793537 0.1589879269579378
2340000000.0 0.0032406284290404388 -0.21395687512406825
2360000000.0 -0.14681136242483855 0.15273294431365428
2380000000.0 0.11871634031920483 -0.18123921252427524
2400000000.0 -0.09358655773689378 0.20961614142148596
2420000000.0 -0.017057601551267135 0.2524249802232015
2440000000.0 0.27589837139841594 0.060427966561765044
2460000000.0 -0.3161757812147759 0.00010492083955603078
2480000000.0 0.2754421261977046 0.21447799335471668
2500000000.0 -0.381841514196775 0.0585709376784149
2520000000.0 0.015947570993336463 -0.4250152054473269
2540000000.0 0.4541172319117446 -0.0977235265985319
2560000000.0 -0.21538907611782782 0.44860116495482955
2580000000.0 -0.08594509068674167 -0.5236705802498146
2600000000.0 0.4231104851766261 0.3692565331059277
2620000000.0 -0.5832512508923554 -0.07313397593551263
2640000000.0 0.5551526855434278 -0.24875929762314145
2660000000.0 -0.2315294592691956 0.583132392129196
2680000000.0 -0.5071190850772785 -0.3915291140495731
2700000000.0 0.3810479120236693 -0.5300582857933828
2720000000.0 0.6621566825239892 -0.03397330805571471
2740000000.0 0.6563325455255089 0.13085283471232234
2760000000.0 0.6239025011782582 0.25234083462284956
2780000000.0 -0.4027724188471297 0.5374957475914708
2800000000.0 -0.5208225086933322 0.41562792044839103
2820000000.0 -0.6575617299798607 0.01699356586086308
2840000000.0 -0.19771729875319663 -0.6160774724226363
2860000000.0 0.5713740596165902 0.27743622522974426
2880000000.0 -0.5897734912401059 -0.1895468080327626
2900000000.0 0.37741404763601377 0.46991985040037276
2920000000.0 0.1694704688819961 -0.5552414356176202
2940000000.0 -0.5044331354648985 -0.22783124988624925
2960000000.0 -0.48930411086815717 0.20116287476972672
2980000000.0 -0.05381113769456072 0.500417895478535
3000000000.0 0.39728726714200885 0.2728755048192332
3020000000.0 0.08679034865396903 -0.4502398008252659
3040000000.0 -0.06606052650095118 0.42733029244036996
3060000000.0 0.2637599343128118 -0.305668123699805
3080000000.0 -0.2758332494440099 0.25810323232364035
3100000000.0 0.24138607272607052 -0.26209609779074394
3120000000.0 -0.15089334807011967 -0.30556740192641907
3140000000.0 -0.06743034133799028 0.3241634894033646
3160000000.0 0.028678038555728806 -0.32600489394095533
3180000000.0 -0.2113566504632229 0.24425408121157585
3200000000.0 0.30546303074516756 -0.09704716398361787
3220000000.0 -0.2949341765152949 -0.09675608512035423
3240000000.0 -0.2961453631434899 -0.00208995519307356
3260000000.0 -0.27448119098653384 0.04038827551528247
3280000000.0 0.10783024574100185 -0.2384692961306182
3300000000.0 0.2316568643708271 0.0897564303528843
3320000000.0 -0.18390661369967554 0.13545825916630103
3340000000.0 -0.12421999742952382 -0.1661784261398309
3360000000.0 0.03906349407637612 -0.17612628194906482
3380000000.0 -0.13821182366904405 -0.06661294485869387
3400000000.0 -0.10307370685465742 0.07266244141294033
3420000000.0 -0.056911780725104534 -0.1005251626879249
3440000000.0 0.1058498640150437 0.010260151268873795
3460000000.0 0.09570924224718211 -0.018592800166999674
3480000000.0 -0.08809102879357751 0.009164393006695809
3500000000.0 0.03580124502966341 0.06858751512960778
3520000000.0 0.05799304886119 0.02962766303715011
3540000000.0 0.04594004544364017 -0.047543011601418064
3560000000.0 -0.062236221219493924 0.007632363596281862
3580000000.0 0.04954385745866374 -0.04624852609305394
3600000000.0 0.0812250799680376 0.005364270388219975
3620000000.0 0.0396773689318424 -0.08596100185666472
3640000000.0 0.10332866849355023 0.008727497253436415
3660000000.0 0.06872042501506517 0.08465873516867964
3680000000.0 -0.1078008676718456 -0.027010895221735668
3700000000.0 -0.08242413483302355 0.06574783709556654
3720000000.0 -0.016285370761197553 0.09637442195928171
3740000000.0 -0.05850723196961138 0.05474322643307439
3760000000.0 -0.05378902970618017 0.04375401606589483
3780000000.0 -0.00319988955173774 -0.057458188595685064
3800000000.0 -0.027137310954141222 0.027095639948061443
3820000000.0 -0.006381013352990371 0.03206904939397051
3840000000.0 -0.02809631330975353 -0.036071573877853244
3860000000.0 0.05717823859815052 0.04068934846838688
3880000000.0 -0.08361727334712953 -0.0268562049167122
3900000000.0 0.0199513653287557 -0.10032451632202212
3920000000.0 -0.030523496529008768 0.10235479965679453
3940000000.0 0.0777428299204654 -0.07575603560848637
3960000000.0 -0.08209220593224797 0.06686369880983954
3980000000.0 0.08522609472309241 -0.04399005752084072
4000000000.0 0.06675309794462622 -0.05223214782129252
