!Created with skrf (http://scikit-rf.org).
# Hz S RI R 50.0 
!freq ReS11 ImS11
400000000.0 -0.6770183880569419 0.46674695543155015
420000000.0 0.7315853196471972 -0.17803332004954822
440000000.0 0.5871148568447514 0.41144278109417975
460000000.0 -0.22957906745372283 0.6377918775480292
480000000.0 0.5334793621960986 0.22989906718002756
500000000.0 -0.004033700571896434 -0.4689988275419878
520000000.0 -0.2629105948347562 -0.2970634066124462
540000000.0 0.47698982033420656 0.03340668767568499
560000000.0 -0.19690780300009114 -0.42831585939393474
580000000.0 0.379558290199842 0.17035163811036605
600000000.0 -0.1209603711507612 -0.3446320141675904
620000000.0 -0.25720901423352255 -0.2706460541668455
640000000.0 0.19009955877001336 -0.3106627739242413
660000000.0 0.11847932211781216 0.32619472946192607
680000000.0 0.15105051069112935 0.3090140715121155
700000000.0 -0.024675402565394754 0.3303473212824521
720000000.0 0.32677393294660756 0.120194576944615
740000000.0 0.26808897340631 0.17194749612836357
760000000.0 -0.315394967482536 -0.02055748034203576
780000000.0 -0.2932733246772326 -0.02491265007567516
800000000.0 0.14248909561344325 -0.20014136036503813
820000000.0 -0.20758483358102903 -0.05449499227343477
840000000.0 0.006891535342641203 -0.21453206389868457
860000000.0 -0.1775944719295053 0.039109620452762194
880000000.0 0.1849710062794312 0.01017507469018805
900000000.0 -0.1203391958086508 -0.10554540699751312
920000000.0 0.1367131157026259 -0.06138485568799402
940000000.0 0.0700296108049447 0.1118891676416787
960000000.0 -0.023884033022372145 0.10835719152276925
980000000.0 0.06441156726501653 -0.028993821348166013
1000000000.0 0.001964529588533933 0.03941458915831971
1020000000.0 -0.039718052051696574 0.023654755469341406
1040000000.0 -0.03713579852984469 -0.0666597619664
1060000000.0 -0.043687123374566136 0.10311429045065475
1080000000.0 0.0848844657831058 0.13227580914310744
1100000000.0 -0.034575482757297125 -0.17498168077889253
1120000000.0 -0.20585653045120286 -0.03515539781517765
1140000000.0 0.16493735030267026 -0.19180128969807136
1160000000.0 0.19186643912953158 -0.2119590208564401
1180000000.0 0.27224376706288317 -0.1430848984394415
1200000000.0 0.22731604591915805 0.22721684694774533
1220000000.0 0.31246889220764335 0.0900979430930557
1240000000.0 -0.24872229089700734 0.22150830430745072
1260000000.0 -0.2863647599941209 0.17301067563109698
1280000000.0 -0.333925804371541 -0.036882680724814695
1300000000.0 0.31935992030243504 -0.1438781130890042
1320000000.0 0.19026026288420397 -0.30560784052195594
1340000000.0 -0.041599643193445425 0.36319309234271985
1360000000.0 -0.3324098261943842 -0.18246337420611872
1380000000.0 0.15877386498665133 -0.34272228758602835
1400000000.0 -0.2863778979422412 0.2413416867799757
1420000000.0 0.28637190848505284 0.2358165918292589
1440000000.0 0.3657852669187808 0.006500404942645838
1460000000.0 0.26548208074689655 -0.2422111857292207
1480000000.0 -0.027245746277999083 -0.3483277473195414
1500000000.0 -0.16756660656072567 0.2933841503295429
1520000000.0 0.2839495867515448 -0.1273620460801859
1540000000.0 -0.2320231033668398 0.156515756021184
1560000000.0 0.036390890068133855 0.23808133912208504
1580000000.0 0.09363038226983925 -0.19235297631617587
1600000000.0 -0.00881099043885332 0.1789739139487972
1620000000.0 0.1454078177415017 -0.061672115276662255
1640000000.0 0.02875574257374428 -0.13028110074144753
1660000000.0 -0.08522681280930865 -0.04716634589542365
1680000000.0 -0.07571313436704881 -0.04738629501752272
1700000000.0 -0.031659890982370494 0.06819790307244586
1720000000.0 0.02841633166443611 0.04375138393905026
1740000000.0 -0.0010526636955145476 -0.05072097908236391
1760000000.0 -0.06020996616249259 -0.025021359702713575
1780000000.0 -0.04264857837159797 -0.0853606133126121
1800000000.0 0.12874880843600905 -0.0019548261756178608
1820000000.0 0.0748252840132761 -0.14015298369371842
1840000000.0 0.06495395995460249 0.18325117700583515
1860000000.0 0.22461739995010566 0.005308673150958807
1880000000.0 0.1826010233106963 -0.16274922133736822
1900000000.0 0.18040741117690376 -0.19946510779262278
1920000000.0 -0.28306449174023507 -0.059811516329957334
1940000000.0 0.20707961701348615 0.22416376284895997
1960000000.0 -0.30876327439890316 0.060618338307966736
1980000000.0 -0.17311491667485007 -0.2632620340208823
2000000000.0 0.3136294561369182 -0.010680811424260906
2020000000.0 0.1591826211123082 0.2656492406747414
2040000000.0 0.03311060162501428 0.3106018397482044
2060000000.0 -0.12873935635620223 0.2780673089289523
2080000000.0 -0.3016385741511976 0.01709758806378551
2100000000.0 0.2009817972201492 0.2312787352889192
2120000000.0 -0.22098873990957277 0.21405955936819937
2140000000.0 -0.02616405075305666 -0.29884005721573137
2160000000.0 -0.11097616159373891 0.2766546481433688
2180000000.0 0.19902463626797653 0.20955034807292697
2200000000.0 0.26536503286786084 -0.09609419203973711
2220000000.0 0.2531586961994737 0.10580124685423815
2240000000.0 0.10662758830816485 0.2513195850217629
2260000000.0 -0.15594684529230754 0.2031353427225185
2280000000.0 -0.04104800576586177 -0.24168093848187003
2300000000.0 0.16169431502508044 0.18121735172146505
2320000000.0 -0.06400057569966922 0.2217310312235863
2340000000.0 0.19410707361563614 -0.10977162071000107
2360000000.0 -0.15476405104988902 0.15696494418071918
2380000000.0 0.20837552952716348 -0.09909392887857402
2400000000.0 0.2101059606129381 0.13908460294928526
2420000000.0 0.2258453008298453 -0.16078147304955717
2440000000.0 -0.23050605782477876 0.20121078833371667
2460000000.0 0.07837362557810224 -0.3277315536537995
2480000000.0 -0.36836751491544006 0.03027237306667916
2500000000.0 -0.1318842329075457 -0.38849527905389336
2520000000.0 0.4440362347200711 -0.03955925765276062
2540000000.0 -0.08207408300588895 0.47168234782702445
2560000000.0 -0.24984041700912937 -0.44951182007323065
2580000000.0 0.47566312082932466 0.2681723694886389
2600000000.0 -0.556286813348711 0.13782906844196588
2620000000.0 0.4145636568918212 -0.4275156903079439
2640000000.0 0.04330722303179817 0.6110528316966211
2660000000.0 -0.5629436551019895 -0.2748353229236271
2680000000.0 0.34170513808861636 -0.5347683564303242
2700000000.0 0.6414887804057335 0.01650785879204373
2720000000.0 0.583905837356542 0.2721688788516765
2740000000.0 0.5461896375943182 0.34357461175394616
2760000000.0 0.5018222235329688 0.401574813135871
2780000000.0 -0.6015597784888999 0.2070797558202649
2800000000.0 -0.6129448166940427 -0.13934551386105376
2820000000.0 -0.1277678861256826 -0.6025781893841943
2840000000.0 0.5616358717242099 0.22016655858677242
2860000000.0 -0.5829120422067446 -0.10848058160956017
2880000000.0 0.49627140576465806 0.2955146651719687
2900000000.0 0.14669474290308412 -0.5404505166097497
2920000000.0 -0.5198696080609935 -0.14811038040289504
2940000000.0 -0.33275241502596065 0.39392114409147805
2960000000.0 -0.09699285482656508 0.4844818424197673
2980000000.0 0.40257570133560505 0.2493863424427482
3000000000.0 0.24592134035204344 -0.3782665592724881
3020000000.0 -0.4207247364035835 -0.058703498944498396
3040000000.0 0.22609012675090778 0.3291593096829068
3060000000.0 -0.08041233299063441 -0.3676286361082986
3080000000.0 -0.015747440034297105 0.35131380058761696
3100000000.0 0.14076897264016977 -0.30310967823852303
3120000000.0 -0.12978422658031064 -0.2991553923992085
3140000000.0 0.24124698933221744 0.20463318353440096
3160000000.0 -0.008550836543936067 -0.3135622482846881
3180000000.0 -0.11269818557222826 0.2948752111183628
3200000000.0 0.023935462015739088 -0.3065024860466769
3220000000.0 -0.29304164738119115 -0.017934265656465144
3240000000.0 -0.27692941586863307 -0.02885661259375465
3260000000.0 -0.1274809123471237 -0.23133026559199596
3280000000.0 0.1042616321395396 -0.22376741422236135
3300000000.0 -0.0019180440098791067 0.23175758000106725
3320000000.0 -0.20989530818609264 -0.03672085848197067
3340000000.0 0.04731857224144798 -0.18760380624376038
3360000000.0 -0.0744250283181848 0.1524503776065675
3380000000.0 0.07966443793665985 -0.11955586466820635
3400000000.0 0.11779937278519997 0.028007273965314272
3420000000.0 0.1103626932015222 0.016683337870315278
3440000000.0 -0.0027393069150773177 -0.10217994724025055
3460000000.0 -0.0358317722134344 -0.0901015297130495
3480000000.0 0.04630930306992663 -0.07293340470128312
3500000000.0 -0.03276952308119719 0.06682478554193949
3520000000.0 -0.06711421302084287 0.009691027765953509
3540000000.0 0.019616937937339776 0.06004293720492516
3560000000.0 0.02645812629656129 0.058963131482754
3580000000.0 0.05452810056148145 -0.04978578243799499
3600000000.0 -0.0812043416597755 0.025257927925261978
3620000000.0 0.0417157015103819 0.08621670941944162
3640000000.0 0.10355724497121277 0.02012131903185475
3660000000.0 -0.037919096861069326 -0.09645853613236087
3680000000.0 0.05932505712060046 -0.08203537747340846
3700000000.0 0.08400005712416138 -0.046242612169670204
3720000000.0 0.08601178826605226 -0.0004683941147618345
3740000000.0 0.02407357017951396 -0.07104234247332511
3760000000.0 0.06701325144610804 0.019339215158763225
3780000000.0 0.02528785852935293 -0.05498465907184006
3800000000.0 0.0416786586084526 -0.018034636092719908
3820000000.0 0.033812161099457866 -0.01554112446472627
3840000000.0 -0.008756401668873632 -0.05327485123405263
3860000000.0 0.01119816540108317 -0.07378535166557078
3880000000.0 -0.09609822003177466 -0.005206984133253235
3900000000.0 -0.042888902521778925 -0.09323319709259571
3920000000.0 -0.08186661848496281 0.06614608950244648
3940000000.0 0.09112494932977551 0.054974520279223796
3960000000.0 -0.09678479740070468 -0.0451316534107363
3980000000.0 0.049158178219811756 0.08032245474251876
4000000000.0 0.08228206237572762 -0.013198134334181315
