!Created with skrf (http://scikit-rf.org).
# Hz S RI R 50.0 
!freq ReS11 ImS11
400000000.0 -0.7106849726602389 -0.4784811808211887
420000000.0 0.682119858775432 -0.3543263166348657
440000000.0 0.717122537514408 -0.15499822220457538
460000000.0 0.5556549627476054 0.23907352011472793
480000000.0 0.11058898189368814 0.6303715366732863
500000000.0 -0.5029298988340067 -0.14512849397953162
520000000.0 0.41217721813071134 -0.199332438361774
540000000.0 -0.34284804908633715 0.299687354389919
560000000.0 -0.41150270747049855 -0.18264343112979903
580000000.0 0.029500094137877193 0.39719700913931816
600000000.0 0.2038319200661075 0.2943552740117829
620000000.0 -0.2936780379826452 0.20928260201275817
640000000.0 -0.07375012607420378 -0.34311605003747137
660000000.0 0.31016512275664443 -0.13894829533994627
680000000.0 0.18610580443943517 -0.26929097258650714
700000000.0 0.12561917678077156 0.3003325269268844
720000000.0 0.33802711625701287 -0.07381402704081459
740000000.0 -0.1267099248811933 0.30733154030932547
760000000.0 -0.2404811887377202 -0.20256076542561677
780000000.0 0.25387743207344915 -0.14542402084770611
800000000.0 -0.09600709252884618 -0.2466920286646873
820000000.0 -0.11704399344128663 -0.21543120526272494
840000000.0 0.18344640647719376 0.12100707716132955
860000000.0 -0.20639905516461923 0.005130438222878704
880000000.0 0.0074586411225453335 0.1876420523394906
900000000.0 -0.14472113333114758 -0.07263461426073234
920000000.0 -0.15212183596081968 -0.009736510373652928
940000000.0 0.08873104446898814 -0.11570611109343658
960000000.0 -0.09006088251203823 0.05511174698950326
980000000.0 -0.009075476111591497 0.08553377335887921
1000000000.0 0.012637919391617649 -0.055599244571697175
1020000000.0 -0.04983078211410119 0.02686445170712823
1040000000.0 0.06674102931262772 -0.03307651963286705
1060000000.0 0.11926953348103138 -0.010971724347078052
1080000000.0 0.15562226113872824 0.04293473167978917
1100000000.0 -0.1126805437044326 0.1540232854910486
1120000000.0 -0.15697558319463667 0.16726225907206424
1140000000.0 -0.1683510149280225 0.19174131483885337
1160000000.0 0.2613280465674685 0.10682078513317758
1180000000.0 0.30123611290893315 -0.07393569315046669
1200000000.0 0.25814357997958504 0.19483833807473305
1220000000.0 -0.049133865050715264 0.3269778866955378
1240000000.0 -0.15641561317777422 0.2910911262064331
1260000000.0 -0.10713650645021734 -0.3043280703444995
1280000000.0 0.3026613562118993 0.1655887883036302
1300000000.0 0.1899677281257198 -0.30339665033904517
1320000000.0 0.349047882490517 0.056690959500641666
1340000000.0 0.05189365482940351 -0.36221365891198254
1360000000.0 0.08127953746189694 -0.3793670481420879
1380000000.0 0.3461832291228481 -0.1608919585569613
1400000000.0 -0.2602607918280101 -0.27828695693247085
1420000000.0 0.25994268120085934 0.27407898476693426
1440000000.0 0.36061661320609917 0.07422908660437945
1460000000.0 0.2633368175324992 -0.2477437915138128
1480000000.0 -0.28914440693049204 -0.20599733974785356
1500000000.0 -0.017059968977400294 0.3321989674213651
1520000000.0 0.21820278359859333 -0.22892806937960694
1540000000.0 -0.06622329015903754 0.27510856181983945
1560000000.0 -0.24156312657649726 -0.023649501778498234
1580000000.0 -0.18301017330504482 0.09441040114702418
1600000000.0 -0.11073185249327301 -0.13768127304770406
1620000000.0 -0.1269194610093008 0.07692336159343777
1640000000.0 0.12739263925484526 0.005575741601037009
1660000000.0 -0.0481666718830755 0.09356046132966084
1680000000.0 0.08678572587180804 -0.005477279007931247
1700000000.0 -0.0528105449384961 -0.040496533052516465
1720000000.0 0.044282989577208234 0.022737273298062705
1740000000.0 -0.0014925947030533036 0.042207952658644014
1760000000.0 0.05655959974551117 -0.02044901630488386
1780000000.0 0.006977258116188156 0.0934246309596532
1800000000.0 -0.10502401168669655 -0.05275722461446225
1820000000.0 0.14712964925246222 0.02753284301326117
1840000000.0 -0.07803788740856006 0.1699202816517856
1860000000.0 0.20521033346833065 0.05145462982888174
1880000000.0 0.21022218500789808 0.11784561824305428
1900000000.0 0.23793267463057396 -0.10382881648329606
1920000000.0 -0.1604089326548122 -0.23393693088408446
1940000000.0 0.2512572875374352 0.16621447894742697
1960000000.0 -0.3014542087245406 0.053987987814963535
1980000000.0 -0.11272043286507968 -0.2911693557546464
2000000000.0 0.3094972498436539 0.0008870329447937712
2020000000.0 0.208933648636381 0.2302282679125749
2040000000.0 0.11683796957086827 0.2904402826883144
2060000000.0 0.034771780691899144 0.30986962071433916
2080000000.0 -0.06218261458509453 0.3010784850550778
2100000000.0 0.301892446329563 0.04492981200115327
2120000000.0 -0.27992007773496097 0.12656042106403076
2140000000.0 0.0991031442253317 -0.2959222962024282
2160000000.0 -0.029935362435105792 0.30250582223610734
2180000000.0 0.19784171098489733 -0.21790628826670033
2200000000.0 0.2139157183315616 -0.17958707224633116
2220000000.0 0.21097532986961218 0.17053478092503938
2240000000.0 -0.1787072775515566 0.20050099969286825
2260000000.0 -0.15670336470456017 -0.20605793387336427
2280000000.0 0.23841717806557813 -0.07497857001783498
2300000000.0 0.1279226799780028 0.2089184222748016
2320000000.0 -0.21888338886846692 0.07103406709271974
2340000000.0 0.2193466002467931 -0.02508042284179882
2360000000.0 -0.10403631500094035 -0.19163160445660407
2380000000.0 0.12924166870774922 0.18246647110451544
2400000000.0 -0.15942903368111208 -0.1775026319726547
2420000000.0 -0.16705157840656903 -0.2086493764951776
2440000000.0 -0.004195543679556923 0.2970723974899925
2460000000.0 -0.27041223741437403 -0.19116529228715057
2480000000.0 0.15961151349683275 0.3266917532006525
2500000000.0 -0.3010304579681322 -0.25569164515184634
2520000000.0 0.3662715422661793 -0.2348359191504652
2540000000.0 -0.19639659150075414 0.43227303963460323
2560000000.0 -0.2928475509314816 -0.41895967657355265
2580000000.0 0.5399973601343228 0.07286923167368635
2600000000.0 -0.5013277139778862 0.2788577649173873
2620000000.0 0.43066113731231065 -0.4169307427558441
2640000000.0 -0.03746131058589033 0.6177561873072218
2660000000.0 -0.4559464115279451 -0.4429891587881153
2680000000.0 0.5600307073961556 -0.3278064685516301
2700000000.0 0.5312196700891412 0.39286660876077606
2720000000.0 0.24922330126805428 0.6217698223946297
2740000000.0 -0.007997768793864267 0.6771948105970775
2760000000.0 0.0562468426784207 0.6800627772062005
2780000000.0 -0.6801632652133519 0.04192813547102468
2800000000.0 -0.676269135209359 0.018321407251288294
2820000000.0 -0.577221165588295 -0.33410793504332603
2840000000.0 0.09631693929529848 -0.649187581514255
2860000000.0 0.44230466087585485 0.4665037886582833
2880000000.0 -0.506775776857519 -0.37079513339149844
2900000000.0 0.22520923525840514 0.5655284235381927
2920000000.0 0.39435927607169485 -0.43386855752105036
2940000000.0 -0.43985312294519874 -0.3518883726672706
2960000000.0 -0.36966625977787276 0.39086092251969135
2980000000.0 0.18529711211368716 0.4808895667761009
3000000000.0 0.39798951181197173 -0.2876831402515865
3020000000.0 -0.417741231870139 -0.2074768123194669
3040000000.0 0.2631844780004398 0.3486806850519842
3060000000.0 -0.1490296042067894 -0.38373418221076633
3080000000.0 0.031996858255868295 0.38863625372443567
3100000000.0 0.06031281047089805 -0.3632598098483978
3120000000.0 -0.2222126889925722 -0.27847855330054844
3140000000.0 0.2529255798223603 0.24272062020657822
3160000000.0 -0.12403989214821765 -0.3208506345895797
3180000000.0 0.11081081733579046 0.32241970112127655
3200000000.0 -0.05744286207858117 -0.3301258294687848
3220000000.0 -0.2980180779395258 0.11927034522560269
3240000000.0 -0.051378176262761734 0.29963608623730015
3260000000.0 -0.20947865995732157 0.19378200602033002
3280000000.0 -0.15730120990362056 -0.21961397713782568
3300000000.0 0.2400489365176824 0.08348793747852683
3320000000.0 0.13517451662481902 0.19468749624283402
3340000000.0 -0.10511404104616481 0.18674018330598552
3360000000.0 -0.0011102814487802073 -0.18823884665114646
3380000000.0 -0.09732200918481601 0.1260955136083595
3400000000.0 -0.038064592117167416 0.13689462037721503
3420000000.0 0.08958906204959886 0.0930767091999826
3440000000.0 0.05900346418061893 -0.10550903464396989
3460000000.0 -0.0062220583435002134 -0.11536038982877622
3480000000.0 -0.02825722813102168 -0.09784302477982476
3500000000.0 -0.07592329269756132 -0.04888003750881338
3520000000.0 0.05873043812409626 -0.05003301774672264
3540000000.0 -0.04892394835951716 -0.06095966866659781
3560000000.0 0.023204864558446246 0.07604476111999839
3580000000.0 0.08266821954082039 -0.027415872587719096
3600000000.0 0.03445816382538305 -0.09235967740420775
3620000000.0 0.03856297851260564 0.09989882319776812
3640000000.0 0.052821629093814326 0.09869253694277114
3660000000.0 0.11187348745460136 -0.012184076983080118
3680000000.0 0.04476853908564449 -0.09934786527526762
3700000000.0 0.032321097322480785 -0.09689219731650894
3720000000.0 -0.09064398123830525 0.031026053368321906
3740000000.0 -0.08343975316011376 -0.0003796174366206273
3760000000.0 -0.04003719345494379 0.06399455718266536
3780000000.0 -0.016611542710591107 0.0640595036278253
3800000000.0 0.03966988047909471 -0.02472488333128364
3820000000.0 0.02931895385218989 0.02550993953278817
3840000000.0 0.04457906980911281 0.018584362974974913
3860000000.0 0.06139836408168133 -0.04094341815300905
3880000000.0 -0.07982322982627517 0.03661157026130616
3900000000.0 -0.048936883165628324 0.0864136920039553
3920000000.0 -0.01602972831777596 0.10124661429234544
3940000000.0 0.029765047435463304 -0.09906962846344324
3960000000.0 -0.09629421063476501 0.03234518497477184
3980000000.0 0.09519119078276761 0.0075359597092055286
4000000000.0 -0.06075125698600423 -0.06000226658800231
