!Created with skrf (http://scikit-rf.org).
# Hz S RI R 50.0 
!freq ReS11 ImS11
400000000.0 -0.718872983893474 -0.46826385262818326
420000000.0 0.6218703281712563 -0.4509978029062947
440000000.0 0.709163779897719 -0.18903109424252235
460000000.0 0.59794503955307 -0.043487114078598045
480000000.0 -0.09712258670232637 0.635447725611404
500000000.0 -0.4300622844334445 -0.2990595958569099
520000000.0 0.34463526718303156 -0.3082676337298901
540000000.0 -0.3444721045416012 0.2880140616942682
560000000.0 -0.3417563451434399 -0.28894490583180676
580000000.0 0.0032377867931024347 0.4016877626823675
600000000.0 0.34018219044068704 0.1080633142676995
620000000.0 -0.36107036219090394 0.021431657741639933
640000000.0 -0.10184749918617761 -0.33661844354832415
660000000.0 0.31316093641777665 -0.13269391458893073
680000000.0 0.2066105392435552 -0.25674830373948687
700000000.0 0.15872793956751793 0.2806766307788351
720000000.0 0.32718128934672625 -0.10548344943737444
740000000.0 -0.19444573488577518 0.2703860574682739
760000000.0 -0.22478535408687914 -0.2178065075736354
780000000.0 0.2909660230395769 -0.052987960878889656
800000000.0 -0.17150285315880934 -0.20442652772802006
820000000.0 -0.2140769074097465 -0.1174413423307134
840000000.0 0.2132371939332912 0.04635768546984623
860000000.0 -0.13651206604659857 -0.1524777476189542
880000000.0 -0.10376843999457616 0.15684924538694686
900000000.0 -0.11550574878579827 -0.11694082318364923
920000000.0 -0.1490102317262759 0.04103684209816198
940000000.0 -0.01823106856815012 -0.14579158088093022
960000000.0 -0.07423759463863146 0.07223108651890808
980000000.0 0.004161184215854637 0.08309012667477617
1000000000.0 0.048020606797606856 -0.030844713283836346
1020000000.0 -0.043633064872403864 -0.034683831698478766
1040000000.0 0.0748862170016254 0.009586102588273243
1060000000.0 0.1034534765678692 0.05949548080283599
1080000000.0 0.1590440482957724 0.030910961202957842
1100000000.0 -0.10002507245330278 0.16326479447512585
1120000000.0 -0.149327745530431 0.17333914853593385
1140000000.0 -0.050552580592141926 0.24850706214163668
1160000000.0 0.25877136437727805 0.10996424737140949
1180000000.0 0.3036547365853534 -0.06802108424455688
1200000000.0 0.29063099265612835 0.1415335088293287
1220000000.0 -0.05985156969170577 0.3256074939538502
1240000000.0 -0.18358898296073609 0.2747059400620003
1260000000.0 -0.09465962308933587 -0.3089619260618255
1280000000.0 0.29427590215096555 0.17827697215324578
1300000000.0 0.23848770485092063 -0.2664866882092008
1320000000.0 0.3493209480067168 0.05653623054868274
1340000000.0 0.11861535400615482 -0.34522253973834777
1360000000.0 0.051489303202777954 -0.3844514754707145
1380000000.0 0.3439894427788407 -0.1645409818467448
1400000000.0 -0.2821237297301435 -0.25563693909014434
1420000000.0 0.2823089026905562 0.24918317625977415
1440000000.0 0.3664273100736207 0.02885088102991419
1460000000.0 0.2447233557825941 -0.26534906292459187
1480000000.0 -0.3046224713011253 -0.18345633136134581
1500000000.0 -0.02429797000035805 0.3329173376314762
1520000000.0 0.18740288834627514 -0.2562496923967697
1540000000.0 -0.008485613314431178 0.282310778426206
1560000000.0 -0.24211014099536565 0.012476023956378169
1580000000.0 -0.1850961474282449 0.08755499817336002
1600000000.0 -0.020120216119224307 -0.17446736002446794
1620000000.0 -0.14183298569560848 0.04254051661495004
1640000000.0 0.12816881735244778 -0.009222844424300995
1660000000.0 0.019788620652804883 0.10339683166378227
1680000000.0 0.048162936907595384 -0.07052165143433861
1700000000.0 -0.058023892147057755 -0.03254789992906902
1720000000.0 0.0002447664867006977 0.04928240312281907
1740000000.0 -0.0012873820517864483 0.042977166924115066
1760000000.0 0.06051839816408692 -0.009454577819983816
1780000000.0 0.008624788044163051 0.093330981610144
1800000000.0 -0.10278664405181455 -0.05677388739214336
1820000000.0 0.1479444628884044 0.020152950693866335
1840000000.0 -0.11296657545041958 0.15065738875129145
1860000000.0 0.20251922835307498 0.06294234262288796
1880000000.0 0.22328741875423883 0.09135152584586587
1900000000.0 0.22110837442160658 -0.13675689554628503
1920000000.0 -0.19552687649594297 -0.2050487380667802
1940000000.0 0.25085078701111807 0.16715520083696925
1960000000.0 -0.295819709621553 0.07866385087571845
1980000000.0 -0.06297864183303226 -0.3065595189136969
2000000000.0 0.3089347121598678 0.01966878300807383
2020000000.0 0.1778372302578638 0.2562580903095096
2040000000.0 0.19843811768047662 0.24143029339319078
2060000000.0 0.04444799559177089 0.3075888273569548
2080000000.0 -0.10885535687495375 0.28661323899202457
2100000000.0 0.30297662989176105 0.031012712848264172
2120000000.0 -0.25396740674811 0.1724461306041688
2140000000.0 0.05919646390829546 -0.30614989685918603
2160000000.0 0.012199404922536102 0.30301845476985684
2180000000.0 0.16958765563821238 -0.24027583084465134
2200000000.0 0.2096179821747739 -0.18532481710134366
2220000000.0 0.21371589831198468 0.16891918068748737
2240000000.0 -0.1756552964131939 0.20469913075357032
2260000000.0 -0.21078047642598718 -0.15081889507887952
2280000000.0 0.24244666195296732 -0.05870439019622841
2300000000.0 0.039951076193955534 0.24156524271088473
2320000000.0 -0.23143123071571312 0.00534457468704708
2340000000.0 0.2207678785109207 -0.02259455424816877
2360000000.0 -0.15977379626160906 -0.14781578512842256
2380000000.0 0.1053327270460086 0.19737594837481295
2400000000.0 -0.17530495609213909 -0.16017956818001652
2420000000.0 -0.1856013383477735 -0.19317019009244846
2440000000.0 0.008811502243830116 0.29782626431158754
2460000000.0 -0.2948693437800835 -0.1488980200775272
2480000000.0 0.13251359889738745 0.3384369574018274
2500000000.0 -0.29334564147496606 -0.2658789233218526
2520000000.0 0.341226543873144 -0.27105101450159774
2540000000.0 -0.1044860084254549 0.46373572736193597
2560000000.0 -0.33233232622829745 -0.38872891060362763
2580000000.0 0.5305078079000324 0.12570083064814352
2600000000.0 -0.5181535826938962 0.2470041781804323
2620000000.0 0.34277723615916916 -0.4920754315098111
2640000000.0 0.015870600983380605 0.619129795069618
2660000000.0 -0.5040159986506202 -0.3887491767124296
2680000000.0 0.4976157834780204 -0.41653392656270577
2700000000.0 0.5293919737589283 0.39629623205591624
2720000000.0 0.26746439705638947 0.6142145849681414
2740000000.0 0.18786592044173836 0.6500228969958252
2760000000.0 0.1654955999492272 0.661063716307176
2780000000.0 -0.6635698326497339 0.1492878551686621
2800000000.0 -0.6731964939842996 0.06015714140996621
2820000000.0 -0.5909420735686262 -0.30732926872279737
2840000000.0 0.05474980071691682 -0.6530371800196757
2860000000.0 0.42981672169395685 0.47612300459311613
2880000000.0 -0.5456509393708859 -0.3095081510593935
2900000000.0 0.2593853013880011 0.5510185789052146
2920000000.0 0.38207167442862283 -0.4445865182320007
2940000000.0 -0.46569189038074954 -0.3167680947558376
2960000000.0 -0.39126350647660596 0.36953452376480583
2980000000.0 0.1293666125719818 0.4989450010421974
3000000000.0 0.42489930834825124 -0.24774970510509908
3020000000.0 -0.41645622967821266 -0.21000416705974537
3040000000.0 0.21564721445345822 0.3793634211378485
3060000000.0 -0.11412954886105499 -0.3939983450097484
3080000000.0 0.04245980119241349 0.3863107855783015
3100000000.0 0.04170810276374695 -0.36436420706873884
3120000000.0 -0.2156350053670663 -0.27965113354831667
3140000000.0 0.29043742894137314 0.1950052260259507
3160000000.0 -0.16299002695262327 -0.30188576829530467
3180000000.0 0.16014551344051745 0.3024608810970053
3200000000.0 -0.08986231156394275 -0.32318695491752997
3220000000.0 -0.2551002627723409 0.1968656643025524
3240000000.0 -0.05347068899291625 0.299047845253075
3260000000.0 -0.21860499674871747 0.18392197051054027
3280000000.0 -0.15562432086631847 -0.21937183267136862
3300000000.0 0.24145891051811286 0.07517452438553848
3320000000.0 0.07695713977039789 0.2236729718003171
3340000000.0 -0.15542463565570694 0.14643542629472278
3360000000.0 0.005059533220197315 -0.1874002170230094
3380000000.0 -0.0667954255553594 0.14411245203719594
3400000000.0 -0.02665371869207833 0.13834947088374622
3420000000.0 0.09637669857955562 0.08398621008303163
3440000000.0 0.08803693406701474 -0.08228194472456189
3460000000.0 0.005941683675105616 -0.11555145950173014
3480000000.0 -0.023191946172476757 -0.09967421590341768
3500000000.0 -0.08662522900597597 -0.028744731973491238
3520000000.0 0.07621466756864365 -0.020862080198329833
3540000000.0 -0.009831390111176723 -0.0785131489627525
3560000000.0 -0.026259682165485486 0.07625638209450658
3580000000.0 0.08643670681104705 -0.010479351177707551
3600000000.0 0.09705286441903294 0.0068725706262322585
3620000000.0 -0.05187620702464386 0.09211523111107922
3640000000.0 -0.01521655366408863 0.10959273789509526
3660000000.0 0.11021880800480735 0.021396121313193094
3680000000.0 0.03512168463573023 -0.10195144970290225
3700000000.0 -0.06551852572342899 -0.07616275998159608
3720000000.0 -0.07126835507541354 0.06031373998202911
3740000000.0 -0.08195169787682277 0.008378733560446426
3760000000.0 -0.014709941295669049 0.0731420704432621
3780000000.0 0.04440955248066999 0.04786017309098774
3800000000.0 -0.03691121702380252 -0.027157490963183675
3820000000.0 -0.029187732865315088 0.023425355054499303
3840000000.0 0.007020986414132578 0.04766842939488094
3860000000.0 0.07025496305556689 0.017835377103546227
3880000000.0 -0.07093046938071061 -0.05132817269022917
3900000000.0 -0.09884713088018705 -0.0036193354640940297
3920000000.0 0.016358456809596696 0.10101675995655338
3940000000.0 -0.008073477777888909 -0.10238947686774755
3960000000.0 -0.09317274930148345 0.04007953621095548
3980000000.0 0.08965545577875338 0.03130203709538257
4000000000.0 -0.0843069217169862 -0.00553069083355671
