!Created with skrf (http://scikit-rf.org).
# Hz S RI R 50.0 
!freq ReS11 ImS11
400000000.0 -0.43259840112151404 -0.7183580558996067
420000000.0 0.6686449310999152 0.4085861524210224
440000000.0 -0.4558568840154717 0.5989824820513184
460000000.0 -0.7032099521710913 0.01766059745700465
480000000.0 -0.6166512848374769 -0.1019244800136061
500000000.0 -0.1072095700909469 -0.5093105852066511
520000000.0 -0.22240705031571248 -0.33236001014809735
540000000.0 0.351227174623875 0.27216540532949424
560000000.0 -0.27886538089990265 -0.3865035023714261
580000000.0 0.35606823392007697 -0.249119636833521
600000000.0 -0.26386176750042306 0.2773217996749437
620000000.0 -0.09059027264635938 0.3578197127147073
640000000.0 -0.28593556505041845 0.24008105876435548
660000000.0 -0.3218192654184243 -0.11424805598570874
680000000.0 0.20822040095406213 -0.25536068443649307
700000000.0 0.3090732833387334 0.12368279090466004
720000000.0 0.32895970829069987 -0.09341727429538334
740000000.0 0.310257057654366 -0.099046506883689
760000000.0 0.18289844008356035 0.2504924381134311
780000000.0 -0.217520192872132 -0.18741674056691582
800000000.0 0.2120454460458041 0.12022577856537096
820000000.0 -0.1981536517660853 -0.07985952021540298
840000000.0 -0.051082522801682684 0.18942126932736836
860000000.0 0.1800193984651799 0.03758186818281284
880000000.0 -0.05312314049309495 -0.17326478169001264
900000000.0 -0.12414794282820368 0.10496009239558975
920000000.0 0.12160078068445662 -0.08082844691748046
940000000.0 -0.09447823268051345 0.09914073835583406
960000000.0 0.07721403297072484 -0.08486175180010008
980000000.0 0.028558513610154698 -0.05731831701202142
1000000000.0 0.013603397447258213 0.03804307805183782
1020000000.0 0.039194309921624586 0.001690734554917096
1040000000.0 -0.02112753134861521 0.07583718821016391
1060000000.0 -0.11468907549827295 0.017186045084543636
1080000000.0 -0.1391639530994784 -0.0371207542664937
1100000000.0 -0.033313865113105794 -0.17843674880161933
1120000000.0 0.004616471529540509 0.23180100435923717
1140000000.0 0.14982172711800068 -0.22664108882312708
1160000000.0 0.195146219941343 -0.2215167172806976
1180000000.0 0.31789529277524436 -0.06315842279608617
1200000000.0 0.3285785001912425 0.05028729489835859
1220000000.0 0.2614327383737923 0.2169321076188833
1240000000.0 -0.05572588639058789 0.32906532699376034
1260000000.0 -0.22995159130568377 -0.24859601756392868
1280000000.0 -0.23824610610497512 -0.2529418949589873
1300000000.0 0.07546014325879705 -0.347960349085116
1320000000.0 -0.00833879598835538 -0.3513078471811573
1340000000.0 -0.16641091583032305 0.31913506297968147
1360000000.0 -0.17661558825708376 -0.33060818903803624
1380000000.0 0.3641492998544466 -0.07837601737316245
1400000000.0 -0.36498142508964043 0.10060262177729476
1420000000.0 0.28468076028645833 0.2404224433623429
1440000000.0 0.28347554314499146 -0.22840973442419185
1460000000.0 0.03667253049506985 -0.3523610284804853
1480000000.0 -0.14876646782474964 -0.3114100894589886
1500000000.0 -0.17704801842728682 0.28312757665036103
1520000000.0 0.30202290482300975 -0.0661984680919285
1540000000.0 -0.22378425428211438 -0.17397414967823516
1560000000.0 0.21827889981912957 0.12578290082729843
1580000000.0 -0.13931391192284362 0.16493045940225864
1600000000.0 0.0054735718651292824 -0.1742935119727155
1620000000.0 -0.09313999601662884 0.11776497257041035
1640000000.0 -0.11841915066529628 0.027460748063220554
1660000000.0 0.037535143221552686 0.08799715118832172
1680000000.0 0.023460083952230752 0.07365617626399508
1700000000.0 -0.0087891203428495 -0.06021569687245925
1720000000.0 0.03398129171443548 0.0350439800627361
1740000000.0 -0.018939483551390184 0.05105842669336212
1760000000.0 0.037097065726121765 -0.060558798924854655
1780000000.0 -0.07774581710804827 -0.04598081455653493
1800000000.0 -0.0887526503260605 0.0825058204021432
1820000000.0 -0.14487243102787992 -0.05077479688603019
1840000000.0 0.10802834174952178 0.1511568193618391
1860000000.0 0.18188222450339692 0.12377576316683825
1880000000.0 0.2436992297970168 0.01769495079995254
1900000000.0 -0.04708710576424019 -0.26758725458289717
1920000000.0 -0.2669927800434905 0.10972309729526113
1940000000.0 0.2683040559311007 0.1381253218996712
1960000000.0 -0.3052631946946362 0.07267397515635374
1980000000.0 0.028256317410882695 -0.31505191093028484
2000000000.0 0.21168123897319077 -0.23261995379944592
2020000000.0 0.17016598272060335 0.26298042572865804
2040000000.0 0.28172681174427366 0.1377009046055833
2060000000.0 0.18011520020041027 0.2510641944492642
2080000000.0 -0.2784869294008258 0.13193946802971712
2100000000.0 0.19284434952903806 -0.24642017395881402
2120000000.0 0.05994955242170054 0.30462963847785024
2140000000.0 -0.1727923531747663 -0.2560876261338355
2160000000.0 -0.05006315854023377 0.30010327567893996
2180000000.0 0.29344945888435825 0.05838222850283118
2200000000.0 0.2885157163341035 -0.05250132253498085
2220000000.0 0.268361421401369 0.10576288289479463
2240000000.0 0.18021837269923688 0.21249641058980198
2260000000.0 -0.12997300458911967 0.23217689810148243
2280000000.0 -0.10811507208499357 -0.22973273120891063
2300000000.0 0.23434746648675273 0.05440307332260785
2320000000.0 -0.162025980082359 -0.1662520937535817
2340000000.0 0.029450439062960177 0.22452289233842948
2360000000.0 0.08295886121916032 -0.21582635936736175
2380000000.0 0.16266454164750999 0.18184669642189913
2400000000.0 0.16223038579400814 0.20648871369185537
2420000000.0 0.28079437588748385 -0.06911568244427675
2440000000.0 -0.2323542645547224 0.21963292508816204
2460000000.0 0.10752197938579938 -0.3318725621791395
2480000000.0 -0.3727493296901935 0.0930667305180975
2500000000.0 -0.06003482530073462 -0.4166892735891876
2520000000.0 0.41114735394264695 0.2020590036200303
2540000000.0 -0.4015614434173526 0.2884335442208474
2560000000.0 0.23410411464936717 -0.4739395474022281
2580000000.0 0.19545868977810368 0.5260842848038123
2600000000.0 -0.44096429201777293 -0.3881355587612702
2620000000.0 0.593359186037433 0.14210210821995692
2640000000.0 -0.50292648905323 0.37431467149107917
2660000000.0 -0.11783321856826853 -0.6292055781240922
2680000000.0 0.6194721215137442 -0.18651258960068853
2700000000.0 0.5690754728310808 0.32283070378014633
2720000000.0 0.46520591839554787 0.46295267027579406
2740000000.0 0.3918240496292341 0.5287653795543671
2760000000.0 0.4775803646151696 0.4497045474158964
2780000000.0 -0.5377694825713915 0.3609949710822471
2800000000.0 -0.6246408399698273 0.13217329257169988
2820000000.0 -0.3635616868996162 -0.5102617312984402
2840000000.0 0.5933383875586477 -0.1587490564210135
2860000000.0 -0.5606449935958268 0.21739605762848999
2880000000.0 0.5803590123392224 0.08442358460296072
2900000000.0 0.004558083249712421 -0.570826475612646
2920000000.0 -0.5450762638589993 0.08403123743051522
2940000000.0 -0.11308624870297462 0.5147826372789557
2960000000.0 0.2921156145778108 0.4102613034212462
2980000000.0 0.2671461800307607 -0.40150426594859373
3000000000.0 -0.40240064710927026 -0.20945913228878962
3020000000.0 -0.14453812002960542 0.40236658690644217
3040000000.0 0.23870919291719417 -0.3251585357277646
3060000000.0 -0.14027749551469482 0.34590697733095094
3080000000.0 0.3150371956511467 0.1583125373883739
3100000000.0 -0.30111312003383134 -0.15254716619045125
3120000000.0 -0.2882074205809042 0.1547756644659215
3140000000.0 0.24916561594020648 0.20618532589625588
3160000000.0 -0.22290492946862858 -0.23924317994544317
3180000000.0 0.1273849184217985 0.2966147720462007
3200000000.0 0.16577732689617922 -0.27167435506183163
3220000000.0 -0.3116259299464258 0.028557793061021346
3240000000.0 0.009394792033084852 0.2935488025170427
3260000000.0 -0.22318024252613525 0.15889548915754775
3280000000.0 -0.20636318176625426 -0.14844026909044364
3300000000.0 0.19287044092413483 0.12917184065256945
3320000000.0 -0.16040043392028724 0.14374986571244916
3340000000.0 -0.0362950147320627 -0.19013573106880755
3360000000.0 0.1699821193881222 0.01189104103957421
3380000000.0 0.03739292499614832 -0.1353096106968801
3400000000.0 0.1004623043539382 -0.06777102395625619
3420000000.0 0.10275156340995946 0.04632773662632783
3440000000.0 0.011917434804939652 -0.10970477283547854
3460000000.0 -0.09775411466509491 -0.04204529712589531
3480000000.0 -0.02762061815660401 -0.09491349497822561
3500000000.0 0.05722427504167572 -0.06864472030801162
3520000000.0 -0.07240934000571905 -0.029819929268688615
3540000000.0 0.057230201509526846 -0.04082789492490134
3560000000.0 -0.002036989823484906 0.07170109787765325
3580000000.0 -0.07598070867623069 -0.009565838098097865
3600000000.0 0.07980328776209925 0.03014802764346224
3620000000.0 -0.05425345770812417 -0.08579781706058215
3640000000.0 0.00571411535453504 0.1051230478397405
3660000000.0 -0.10199450468852736 0.030427519870145765
3680000000.0 0.09247498937341672 -0.05011713363744667
3700000000.0 0.0364664750411706 -0.08876765908081585
3720000000.0 -0.08397169661978497 0.00650853353872036
3740000000.0 0.012783482836678102 0.07558116229357682
3760000000.0 0.07148304854450557 0.01888075489587391
3780000000.0 0.044812785909291095 0.04880301343886419
3800000000.0 -0.0057506198081498094 -0.04740130850536955
3820000000.0 0.0018120781301169816 -0.03999642722565105
3840000000.0 -0.019304555895942356 -0.05070341767022478
3860000000.0 -0.055775560553112634 -0.04839796102355446
3880000000.0 0.07981646430838037 0.038301782778920414
3900000000.0 -0.08282919866892485 0.05613413363163921
3920000000.0 0.09942525349668077 0.022322381260651034
3940000000.0 0.10351451865399602 -0.019220913266666285
3960000000.0 -0.1032415464812261 0.03197762132169938
3980000000.0 -0.06305677236080029 0.08096282460021866
4000000000.0 -0.006978977140011285 -0.08948000071958086
