!Created with skrf (http://scikit-rf.org).
# Hz S RI R 50.0 
!freq ReS11 ImS11
400000000.0 -0.6433760870266677 0.5179877358486111
420000000.0 0.5828568880115403 -0.4706510810691271
440000000.0 0.5505590423627097 0.455772901581963
460000000.0 -0.4619855811216009 0.4977991449706858
480000000.0 0.510103493732583 0.28194420949003773
500000000.0 -0.19382516382329795 -0.43203056754972696
520000000.0 -0.3281512512762996 -0.2209766238715055
540000000.0 0.4357202936980552 0.18092155476949928
560000000.0 0.1448441971227072 -0.4503805265894
580000000.0 0.4186307812109875 0.06532279464970922
600000000.0 -0.35958817884530286 -0.07550072419160384
620000000.0 -0.12616109435430636 -0.3411273869559854
640000000.0 0.3601736000185733 0.053899190923947085
660000000.0 0.03979301274511792 0.3489661390236502
680000000.0 0.33556775849928866 0.05806590657531415
700000000.0 -0.24377920603281952 0.22484065921069962
720000000.0 0.3500572273604513 0.027579729333793337
740000000.0 0.3105040569921742 0.06101248635616675
760000000.0 -0.27914620565652215 -0.13828029677224418
780000000.0 -0.29250021661957576 -0.019215075136163218
800000000.0 0.08163079142887153 -0.2313060111506055
820000000.0 -0.17012860116129655 -0.13209176952649923
840000000.0 0.013259550490410776 -0.2141941674611058
860000000.0 -0.13463111524279453 0.11959659991079791
880000000.0 0.14510378631877446 0.1143994470406739
900000000.0 -0.062226893185047885 -0.14588822598840362
920000000.0 0.12748540289504626 0.07912105857162234
940000000.0 0.13053239823587173 -0.02611477514877481
960000000.0 0.06686781207446867 0.08628058258925089
980000000.0 0.03639203314599514 -0.05912859733930721
1000000000.0 0.012631204309414387 -0.03713107336666273
1020000000.0 -0.038268636707797454 -0.025300946846643736
1040000000.0 -0.0005854119567257802 -0.07716227394836264
1060000000.0 -0.025661747485044305 0.11129893300671392
1080000000.0 0.088888163642726 0.12947532406510365
1100000000.0 0.1289258082084875 -0.12427215717461544
1120000000.0 -0.18823939305268986 0.09412663570180091
1140000000.0 0.09525871082546608 -0.2326508114082396
1160000000.0 0.27651574002181833 -0.06630510296852057
1180000000.0 0.2976781117186276 -0.08588162884349616
1200000000.0 0.31612617470303533 0.06657887719903141
1220000000.0 0.32342300374435246 0.02170834129264412
1240000000.0 -0.24962023115702425 0.21487594065186494
1260000000.0 -0.3332355912939007 0.036923365355302655
1280000000.0 -0.31771299304966005 -0.11812988905153068
1300000000.0 0.2182755271207905 -0.2728631641847428
1320000000.0 0.17238687993952018 -0.3131022010914359
1340000000.0 -0.09295421440050242 0.35304140076309987
1360000000.0 -0.3446215685211158 -0.1555023238706795
1380000000.0 0.15064265251875783 -0.3459848959215925
1400000000.0 -0.2968038654190791 0.22805753605275358
1420000000.0 0.3221479165644275 0.18289289698188782
1440000000.0 0.36528203722319513 -0.012785666822488254
1460000000.0 0.22329072871416317 -0.2822953442002909
1480000000.0 0.06923663713002254 -0.34141280354915715
1500000000.0 -0.1154643666518949 0.3194164564200373
1520000000.0 0.2831966521552098 -0.13072633247356583
1540000000.0 -0.22484183816021916 0.16548366193560002
1560000000.0 -0.011890231242297582 0.23977257537658972
1580000000.0 0.11438066253697289 -0.18092304244596563
1600000000.0 -0.0314042651605181 0.17739942615692783
1620000000.0 0.1405498180490469 -0.07209620556211352
1640000000.0 0.05457189252419872 -0.11997356404319143
1660000000.0 -0.09156264158905597 -0.02590189395046486
1680000000.0 0.011333281384972249 -0.08685796461883408
1700000000.0 0.007445385293790654 0.0764819227718477
1720000000.0 0.029256402610483866 -0.04207036155652209
1740000000.0 0.0033654947373145624 -0.0489748318051324
1760000000.0 -0.017975276163714828 -0.06377578580344757
1780000000.0 -0.09687019158132189 0.006123918147859892
1800000000.0 0.031980364589638544 -0.12273028193740418
1820000000.0 0.15622193115398464 0.02458274239465653
1840000000.0 0.12826942686414036 0.14935707233541093
1860000000.0 0.17053635756360205 -0.14731118083127948
1880000000.0 0.20296207222260934 -0.13201193816172524
1900000000.0 0.22715460046361577 -0.1433266583718171
1920000000.0 -0.2593039947424419 -0.1331303600748973
1940000000.0 0.28160120929406846 0.11711544585792036
1960000000.0 -0.31301964277851413 0.02185644131024629
1980000000.0 -0.13463622377803816 -0.28277164706296815
2000000000.0 0.3144360255922693 0.014992521165129715
2020000000.0 0.2604842819848562 0.16792828563230222
2040000000.0 -0.019269275267072408 0.31042543103945053
2060000000.0 -0.08372508248281614 0.2965381421511146
2080000000.0 -0.28629093411800144 0.0959355078168933
2100000000.0 0.23186754471528684 0.20185797801996633
2120000000.0 -0.2565946074569454 0.17096687656783566
2140000000.0 -0.016494222686167688 -0.299710621621816
2160000000.0 -0.16081556751234505 0.251939573310711
2180000000.0 0.23803865817498177 0.16491529942723598
2200000000.0 0.2503299291329565 -0.1284910817793511
2220000000.0 0.165792066482011 0.21800881865503247
2240000000.0 0.12259865725613694 0.2436578578797489
2260000000.0 -0.1659224461649846 0.19513126706067763
2280000000.0 -0.027335010056545848 -0.24365907258660777
2300000000.0 0.19556621032651922 0.1440684783178904
2320000000.0 -0.04536304336253571 0.22577607800651683
2340000000.0 0.19833244084352966 -0.10479437135327592
2360000000.0 -0.16033071036567728 0.15170152076461715
2380000000.0 0.21343241104518187 -0.08814213277085339
2400000000.0 0.2101638617979615 0.1404898090637292
2420000000.0 0.20164059517282787 -0.19115732834870677
2440000000.0 -0.24438031551434788 0.18471454389750508
2460000000.0 0.0882624633546915 -0.325693377098118
2480000000.0 -0.36994740248407015 0.01501925715237882
2500000000.0 -0.14406075964281115 -0.38471998510744526
2520000000.0 0.44168404952970863 -0.05633467264506617
2540000000.0 -0.06877015110831293 0.4741524530655036
2560000000.0 -0.25067204058456494 -0.4485796294819079
2580000000.0 0.5058056183930139 0.20589095239700692
2600000000.0 -0.5462738676954806 0.1745767620582116
2620000000.0 0.3656043586440848 -0.4704021582545255
2640000000.0 0.05807387549473935 0.6104861423044191
2660000000.0 -0.579970235389366 -0.2367333149638973
2680000000.0 0.2869954617100335 -0.566031201240524
2700000000.0 0.6422118495330846 0.01566135600246578
2720000000.0 0.552020834832927 0.332040183530148
2740000000.0 0.5493655065575547 0.3387900954026565
2760000000.0 0.47320893302341543 0.43511242507452297
2780000000.0 -0.5962527799503679 0.22069486630414556
2800000000.0 -0.6080160822014102 -0.15749032396683832
2820000000.0 -0.17320334141515947 -0.5905925891020889
2840000000.0 0.5737499331563106 0.1858131976858192
2860000000.0 -0.5837304700487327 -0.10210269673481995
2880000000.0 0.5064365683363655 0.27716534891253103
2900000000.0 0.11630709461596962 -0.5473451875198766
2920000000.0 -0.516300762255318 -0.15921798548280186
2940000000.0 -0.3419596854079389 0.386563441355237
2960000000.0 -0.07568868740284958 0.48802760130433637
2980000000.0 0.40353329839543384 0.24996799681724352
3000000000.0 0.21796823867167361 -0.3938220739834704
3020000000.0 -0.40834730301857963 -0.11733622608568764
3040000000.0 0.1694339854869788 0.36159487975269505
3060000000.0 -0.08721528741619154 -0.36572172169825895
3080000000.0 -0.009161402544422199 0.3515255617084589
3100000000.0 0.17101705308827234 -0.2868344603861479
3120000000.0 -0.16152743004403008 -0.28414734335119396
3140000000.0 0.2374938570709334 0.20880657726532326
3160000000.0 -0.009965230224310492 -0.31438740917838764
3180000000.0 -0.10974516064657786 0.2960389416477933
3200000000.0 0.023144679210140906 -0.3053722963799182
3220000000.0 -0.2935558095727895 -0.003426819946184173
3240000000.0 -0.27676902912109524 -0.020041533235953205
3260000000.0 -0.09647054965075212 -0.24638431617974446
3280000000.0 0.11772132772281763 -0.21827838031995955
3300000000.0 0.052223775978123055 0.22418104810954517
3320000000.0 -0.2118121340511151 -0.005815212036337089
3340000000.0 0.11254935120005773 -0.15786351539126584
3360000000.0 -0.15151471631142135 0.07712027914046345
3380000000.0 0.04770713653692234 -0.13523872866396278
3400000000.0 0.11907747618985762 0.02380074128400005
3420000000.0 0.10869379400549105 0.013952380884629816
3440000000.0 0.05069731681489525 -0.0881964423299559
3460000000.0 -0.04458220022269812 -0.08640828841510945
3480000000.0 -0.0036639229433517223 -0.085687474233138
3500000000.0 -0.04763973994514057 0.05639172739938998
3520000000.0 -0.0676178132836428 -0.0036078914445850587
3540000000.0 -0.02285446454610641 0.05982952640268938
3560000000.0 0.04707566293629012 0.04542044031785661
3580000000.0 0.015685442340568824 -0.07267053042518132
3600000000.0 -0.08117279597289825 -0.024897724092867744
3620000000.0 -0.02056070237231279 0.09447599737261893
3640000000.0 0.08827479474651048 0.05863972241388507
3660000000.0 -0.0006361138090656276 -0.10411076220827081
3680000000.0 0.05653117147194296 -0.08353471953037182
3700000000.0 0.026366643117259093 -0.09137847582016596
3720000000.0 0.08301384197380729 0.02108313085887352
3740000000.0 -0.009471207235896078 -0.07484817943258404
3760000000.0 0.010157229112536772 -0.06907471045997343
3780000000.0 0.05701850178694583 -0.01804142356349278
3800000000.0 0.04312872011680496 -0.013948440657435383
3820000000.0 -0.0007580973126213467 -0.036347933718210886
3840000000.0 -0.05406306117137317 0.002830031600573253
3860000000.0 -0.06371662132883647 -0.03746164713480782
3880000000.0 -0.09519538258941149 0.012679812823184889
3900000000.0 -0.09754055540160424 -0.03281975004456236
3920000000.0 -0.0213183727479507 0.1025418953823744
3940000000.0 0.10667488999854935 -0.01566695330478673
3960000000.0 -0.10508569266694291 -0.020769682717636427
3980000000.0 0.09591887735840961 0.003915172959490029
4000000000.0 0.014236398078163725 -0.0827424040533746
