!Created with skrf (http://scikit-rf.org).
# Hz S RI R 50.0 
!freq ReS11 ImS11
400000000.0 -0.8168346002189693 -0.40389378839201145
420000000.0 -0.46525767806102425 -0.7354101982336758
440000000.0 -0.4194040932383659 -0.7073714587406809
460000000.0 0.3046934335680544 0.7001227809423387
480000000.0 -0.6396397552805622 -0.3093945995198908
500000000.0 0.5942288698422027 -0.4097745025686731
520000000.0 -0.3961018958965776 -0.5952301343500309
540000000.0 -0.17083806584566547 0.669736441103147
560000000.0 0.45699223063325184 -0.49523119405534205
580000000.0 -0.10509363048361836 -0.5534221127288342
600000000.0 0.37357009830536914 0.454186313894149
620000000.0 -0.21085822450622924 -0.5628416279716798
640000000.0 0.41289568417742145 -0.37165572547524195
660000000.0 -0.0591389778043883 -0.5135264772261315
680000000.0 0.478351749559045 -0.13153760618161064
700000000.0 -0.13031792974959291 0.46280807353519077
720000000.0 -0.4123775540303294 0.2571126760574376
740000000.0 -0.4752142450939353 -0.0020128998258864494
760000000.0 -0.21607733456831216 -0.3977299726226645
780000000.0 0.33571157390661904 -0.26732775543370857
800000000.0 0.3758262144414566 0.12122372624916646
820000000.0 -0.024591865720836856 -0.3404660271976959
840000000.0 0.2827221406133244 -0.13452966868064667
860000000.0 0.04334998687035826 0.29345616896592985
880000000.0 -0.24656243753839557 -0.04332079956907935
900000000.0 -0.13432909998397896 0.2140160084290432
920000000.0 -0.23707227275938011 0.027190222785682873
940000000.0 0.03728111565270228 -0.20505356518160053
960000000.0 -0.15246580907577212 -0.037988354119520645
980000000.0 -0.13006708797210592 0.00752346075631853
1000000000.0 0.03162259273677564 -0.08723689689539597
1020000000.0 0.027050692304025178 -0.07818131850510193
1040000000.0 0.02412746479697658 -0.11097415263778687
1060000000.0 -0.12424107958505355 -0.07226276252055498
1080000000.0 0.1315694909558333 0.1440104502818471
1100000000.0 0.210871905338964 -0.11760624747108121
1120000000.0 0.2395098066484121 0.13706601944104138
1140000000.0 -0.14320539718638442 -0.2599945489541159
1160000000.0 0.2930885359937823 -0.11298198089277921
1180000000.0 0.07359209656402897 0.3197899145803092
1200000000.0 -0.19936178153167555 -0.2853625654281479
1220000000.0 0.34814056357042805 0.11501262113911366
1240000000.0 0.3609324059758669 -0.1109451724820503
1260000000.0 0.15482866744286938 -0.3491194884051673
1280000000.0 -0.1209925410297872 -0.3665161592341215
1300000000.0 -0.17081579635383992 -0.3318051170733644
1320000000.0 0.26004778283619345 -0.27681520779712254
1340000000.0 -0.32265357421027635 0.18590489256564743
1360000000.0 0.37894023822485556 -0.03465136583855372
1380000000.0 -0.24982679890016013 0.3097065691292238
1400000000.0 -0.2608133958319754 -0.28953904048312346
1420000000.0 0.07630112932059867 -0.37724209386045404
1440000000.0 -0.2197197047788 -0.31027053036044006
1460000000.0 -0.3847165551639759 -0.0744895192382767
1480000000.0 -0.39440336839341733 0.01653394134156751
1500000000.0 0.22084849624198685 0.3225857583468445
1520000000.0 -0.35823369943903455 -0.1303067759193583
1540000000.0 0.34925464294104536 -0.058150170842707787
1560000000.0 0.0526198096858557 0.32078996847312863
1580000000.0 -0.27655646451704013 -0.07317965414320547
1600000000.0 0.1359028691151626 -0.20594897229571033
1620000000.0 0.21763558370345895 -0.014038129363985057
1640000000.0 0.17290305115272853 0.03783533771972742
1660000000.0 -0.1411648913369462 0.05655445164646555
1680000000.0 -0.09526248089573632 0.0680782512504467
1700000000.0 0.021935886809396083 0.09480004507030843
1720000000.0 -0.016965469981914682 -0.07429574074595904
1740000000.0 -0.03465080819847209 -0.05821075187581909
1760000000.0 -0.05095152774774253 0.07366289980885288
1780000000.0 -0.029982640396535185 -0.09790693195162559
1800000000.0 0.13378504339581934 -0.0017407789754733014
1820000000.0 -0.13885284638338227 0.09691831582352171
1840000000.0 0.027755808156086748 -0.19070080757385033
1860000000.0 0.07953095516512561 0.21247274802815166
1880000000.0 0.15962752658523519 0.19229837503301445
1900000000.0 0.26605388988363476 -0.05179679772146656
1920000000.0 -0.004676569717443138 -0.2886128455181583
1940000000.0 -0.28781354538242865 0.10290065683689642
1960000000.0 0.28820023319913235 -0.10165743597662942
1980000000.0 -0.2521471434725505 0.17628811831635066
2000000000.0 0.1564115957063541 -0.2793278594824025
2020000000.0 0.24547967328357084 -0.20859752408920906
2040000000.0 0.21048382992745457 -0.23978383776155682
2060000000.0 0.32076334351751923 -0.031999840224505784
2080000000.0 0.31841329321642375 0.04438925310386029
2100000000.0 -0.31345317725434596 0.013688017962668305
2120000000.0 0.25161426434798334 0.18583122159664184
2140000000.0 -0.1571247606420728 -0.2687980909776782
2160000000.0 0.11748348725391135 0.2878554275375549
2180000000.0 0.2999741477297503 0.01979138347531904
2200000000.0 0.16173355193062516 0.24534908952821152
2220000000.0 -0.17652709916716658 0.22787229742917395
2240000000.0 0.11562892047414709 -0.2635285526411977
2260000000.0 0.2545214913244077 0.1287120948495119
2280000000.0 -0.07888810121803343 0.27089250737903714
2300000000.0 -0.188456564737597 0.21101662746527766
2320000000.0 -0.20725822421614268 0.1837821686673131
2340000000.0 -0.20489939955851666 -0.17084558405226777
2360000000.0 0.0784484457727018 -0.2503844934012303
2380000000.0 0.26803036844442024 -0.009357407261038331
2400000000.0 0.2756968405681106 -0.04092241428375531
2420000000.0 0.23414840786554778 -0.1845794371550807
2440000000.0 -0.30229445568140306 0.11623390350539863
2460000000.0 0.2885821250972988 0.19303903945683853
2480000000.0 0.28258165825291365 -0.25938096727766347
2500000000.0 -0.1474645920075879 0.3927585749974896
2520000000.0 -0.009796489075523735 -0.45894500877167427
2540000000.0 0.4614086124326059 0.18469426686981288
2560000000.0 -0.5264596022330041 0.030182647984669738
2580000000.0 0.551209079129662 -0.08044106402305409
2600000000.0 -0.5273158557610341 0.25326350477362297
2620000000.0 0.4271638744318796 -0.42707921867750676
2640000000.0 -0.22334509870816538 0.5797992085273077
2660000000.0 -0.3445435557154412 -0.5343507201983679
2680000000.0 0.6127259045496295 -0.19784462830035968
2700000000.0 0.5425992659783223 0.35897630288580684
2720000000.0 0.3888716094653927 0.5266802397314599
2740000000.0 0.4829713370310667 0.44343835807786014
2760000000.0 0.48656253666848276 0.43774547579904854
2780000000.0 -0.5451554170730876 0.3465031725350774
2800000000.0 -0.6326429148956337 0.0672247775336739
2820000000.0 -0.3592553237395111 -0.5086980519261469
2840000000.0 0.5810323834503852 -0.17565269036118172
2860000000.0 -0.5650692047958048 0.17123615505529052
2880000000.0 0.5325429187634596 0.20773710225996636
2900000000.0 0.25948188304317304 -0.48794327996276404
2920000000.0 -0.3213970898808688 -0.4186544147621357
2940000000.0 -0.4341956365698459 -0.2578674251687138
2960000000.0 -0.43416405096030175 -0.20862260226534943
2980000000.0 -0.4371455346699854 -0.13601611731601426
3000000000.0 -0.4321498883974893 0.0794066517883202
3020000000.0 -0.14388529402696743 0.39640334095557156
3040000000.0 0.38951150059339007 0.09264918295533486
3060000000.0 -0.06241851506945134 -0.3788233745864853
3080000000.0 -0.011310770408160345 0.37034237359179695
3100000000.0 0.25548748404033444 -0.24892600823898084
3120000000.0 -0.2814797653334605 -0.21774954498072377
3140000000.0 0.3302319720890951 0.11092149361865647
3160000000.0 -0.3444214337052175 -0.05274166749782358
3180000000.0 0.24823918765225542 0.240786965674589
3200000000.0 0.14461805184542198 -0.31301339783127
3220000000.0 -0.32300072282570935 0.10652659108946344
3240000000.0 -0.08446995196174568 0.3179789241337027
3260000000.0 0.03691060326371045 0.3130263776886386
3280000000.0 -0.10188787547027751 0.2838054372646477
3300000000.0 -0.08875036889365737 0.26597562965474814
3320000000.0 -0.23879441632797913 -0.09260500274311473
3340000000.0 -0.035928012517079104 -0.22840897381979755
3360000000.0 0.03322256488723825 0.20226741400996323
3380000000.0 -0.1424537103300141 -0.11676243567239772
3400000000.0 0.14032702545861292 0.08734297442249883
3420000000.0 0.1134360926126004 0.09594627383209373
3440000000.0 0.1268471856600424 -0.026919690264988885
3460000000.0 -0.011857522487191892 0.10764009387918831
3480000000.0 -0.08609897975339126 -0.041259606860147645
3500000000.0 0.04490722771782587 -0.079962773687378
3520000000.0 0.0026755725729848377 0.09045910336868046
3540000000.0 -0.09348536151364059 -0.008805334794449516
3560000000.0 -0.09546166430422123 -0.005923028352037477
3580000000.0 0.03888150179743013 0.09368803854960366
3600000000.0 0.006056672142815104 0.10723996836869946
3620000000.0 -0.11549256960712218 -0.0002531445116403464
3640000000.0 -0.1288274943068142 0.022167400206650003
3660000000.0 -0.11459185840769369 -0.08173042186610925
3680000000.0 -0.04463238219371773 0.13309301987797648
3700000000.0 -0.13514082518621756 -0.007073868972605572
3720000000.0 0.11910894591961528 0.022869028763452814
3740000000.0 -0.0854079783355695 -0.04840841964405282
3760000000.0 -0.02569533258871954 0.08259852495686613
3780000000.0 0.03715405838953693 0.050890950884560825
3800000000.0 0.026431451028221458 0.020114723223657816
3820000000.0 -0.0015760603057641482 0.0005144004191770191
3840000000.0 -0.03238390254969224 -0.01919676818288966
3860000000.0 -0.004689493930346758 -0.06885716120358841
3880000000.0 0.07439266926301943 -0.06262871670479227
3900000000.0 -0.10149743703388595 -0.046790178814481366
3920000000.0 -0.09176327939595894 -0.08418873703715221
3940000000.0 -0.13282410171742567 -0.029599378767981178
3960000000.0 -0.08722258589315972 0.10710175917524789
3980000000.0 0.11018979795071991 -0.06614536865333645
4000000000.0 0.09616648285051624 -0.049692699381330495
