!Created with skrf (http://scikit-rf.org).
# Hz S RI R 50.0 
!freq ReS11 ImS11
400000000.0 0.5861550688767174 0.12133567647885113
420000000.0 0.41279434897674977 0.13374083719982846
440000000.0 -0.04788946404651454 0.18213440352670784
460000000.0 -0.001814311471094303 0.024534459213955258
480000000.0 -0.22383835038499691 0.03675899150257851
500000000.0 0.1341821219905225 -0.30900502793580653
520000000.0 0.37811908629025 0.027686844331961245
540000000.0 -0.17767024945526103 0.46633594380255744
560000000.0 -0.53385323991606 -0.14122276496722128
580000000.0 -0.4886512195200336 0.19060008662110917
600000000.0 0.08307913102027904 -0.4768710413128031
620000000.0 -0.27411609154915045 -0.31794146706080006
640000000.0 -0.21514200219835503 0.26646364886139845
660000000.0 -0.12415200504587505 -0.15375368513511348
680000000.0 -0.1389422832421445 0.07690063455473893
700000000.0 -0.20364586957044498 -0.06169111046626432
720000000.0 0.006135619984252392 -0.2698417259836647
740000000.0 -0.11749504929957394 0.2297263675503151
760000000.0 0.04035702673405291 0.2348427081565672
780000000.0 -0.06383630439604135 -0.20134363092592625
800000000.0 0.1671451249864661 -0.10354928673003881
820000000.0 -0.19124040899049857 -0.053125426297586945
840000000.0 0.20373719034269772 0.07392761156816867
860000000.0 -0.2124102528605106 0.09713462469694038
880000000.0 -0.043150699299116226 -0.2566791404912964
900000000.0 0.06882057903155954 0.2563594754362833
920000000.0 0.24545175885645884 0.06843550841160588
940000000.0 0.14891109364155114 -0.19711069863236613
960000000.0 -0.056950939572452244 -0.22482937638165892
980000000.0 -0.02037924905137799 -0.20670162366399694
1000000000.0 -0.02820970148868771 0.18351807813311977
1020000000.0 -0.18384176370251437 0.016371405288318895
1040000000.0 -0.17714344487804884 0.029432742221897977
1060000000.0 -0.06728722328592862 -0.18050690359956634
1080000000.0 0.006176798380178061 0.17038197861536206
1100000000.0 0.07074054083485788 -0.13962087725411287
1120000000.0 -0.07044682976136393 0.13263068988691037
1140000000.0 0.02969867489020212 0.15228050102393614
1160000000.0 0.018124703017123406 -0.17073490115009562
1180000000.0 0.05095728017107196 0.17592410839756253
1200000000.0 -0.17139726953388879 0.05318721225842209
1220000000.0 -0.09758741006585309 0.13584084339810562
1240000000.0 0.11601972599177804 -0.0919123975271144
1260000000.0 -0.07349373714694625 -0.1070726312501816
1280000000.0 0.06616262295043776 -0.1001169278543286
1300000000.0 0.12500872729890244 -0.023094147389163686
1320000000.0 -0.11550927319869561 -0.07179626175220306
1340000000.0 0.1373433269318258 -0.07211787674311053
1360000000.0 0.14671488979258912 0.07697714578454437
1380000000.0 0.18516267186015617 0.03768587688965964
1400000000.0 0.13792429416685234 -0.17795730369165055
1420000000.0 -0.1433467407306641 0.21101261934648682
1440000000.0 -0.23232119792847122 -0.15062334337964792
1460000000.0 0.18405271337547044 -0.2234509294910037
1480000000.0 0.11840274358628576 0.2642453794357754
1500000000.0 -0.015550282835379584 0.27161125958597687
1520000000.0 0.20108488048166204 -0.134968564182389
1540000000.0 0.014834285819005973 -0.21318617723494346
1560000000.0 0.0039176874977316445 -0.18463247750365927
1580000000.0 -0.0358827059314362 -0.15533844374292943
1600000000.0 0.058606612237207055 0.1256022548583288
1620000000.0 0.11064631859008925 -0.06754350309029249
1640000000.0 0.044931980832339735 0.11081328604779611
1660000000.0 0.0268351312632803 0.11060730398662584
1680000000.0 0.05006794812893235 -0.09641052271573793
1700000000.0 -0.001543579883745809 -0.10593903635851214
1720000000.0 -0.0003229228454274687 0.121373443096964
1740000000.0 0.13108281278895711 -0.07053295427410743
1760000000.0 -0.18846870171914756 -0.05133131910324963
1780000000.0 0.12846555289374698 0.19935551049192385
1800000000.0 -0.12674132617760442 -0.24052683320929352
1820000000.0 0.02014889846560788 0.29304198617973426
1840000000.0 0.3020375752347684 0.04571805480756888
1860000000.0 0.25693191304190555 -0.16760587855153178
1880000000.0 0.30084381821133643 -0.013516176532941696
1900000000.0 0.12209220294671987 0.2657238155622044
1920000000.0 -0.24856113447690256 0.14357372155358075
1940000000.0 -0.2763860590882893 0.021481039856608868
1960000000.0 -0.03233137807181542 -0.2613504249936537
1980000000.0 0.21886852744033575 -0.1358158743977698
2000000000.0 0.1206424422325094 -0.22447738543025705
2020000000.0 -0.22930946452252646 0.089912950525638
2040000000.0 0.23227755374637749 -0.013668231880061495
2060000000.0 -0.20772443037726912 -0.06063067380503792
2080000000.0 -0.07529753224565512 0.18490419839939515
2100000000.0 -0.1820374558945018 0.008023302055333314
2120000000.0 0.12057061960682933 0.12376635276703477
2140000000.0 -0.0883052768753526 -0.13715655959787343
2160000000.0 -0.0884366610998249 0.13401174069639754
2180000000.0 0.1605253994903745 -0.016459779636352458
2200000000.0 -0.15954795986645842 0.011879084338156034
2220000000.0 0.15761015760108985 0.014787219734219464
2240000000.0 0.1573360973494316 0.011539488474550868
2260000000.0 0.1399938626089356 -0.06839864382580901
2280000000.0 0.09915047235655775 0.1293356239241845
2300000000.0 0.11368008333544159 -0.12716579030659075
2320000000.0 -0.16942693025288272 -0.040063627966200256
2340000000.0 0.1377940396695748 0.1099109540161075
2360000000.0 -0.17554450755058285 0.015246185569269108
2380000000.0 0.02896450219860444 -0.17430365296253897
2400000000.0 0.1620322780894488 -0.06228870407418999
2420000000.0 -0.11048676868277071 -0.12593708819025506
2440000000.0 -0.11824345042560873 0.10269833942008559
2460000000.0 0.14913538893504033 0.003294262184397102
2480000000.0 0.13753820945936412 -0.025316253668545338
2500000000.0 0.06927224042413777 0.1072360848630202
2520000000.0 0.08354988613145499 0.09331720223485446
2540000000.0 0.1098321533818943 -0.0544857138219911
2560000000.0 -0.03350550502603181 -0.12070461842812606
2580000000.0 -0.022866541677672825 -0.12661240496008577
2600000000.0 -0.06084808482387494 -0.11662368914225964
2620000000.0 0.13280148071786183 -0.011500731832446702
2640000000.0 0.06360673885365639 0.11854366392365673
2660000000.0 0.0062665267220912415 0.1293929851524922
2680000000.0 -0.09391583271470465 -0.07783950842553831
2700000000.0 -0.11009009202405434 -0.011648647403411858
2720000000.0 -0.07974717452107158 0.055485405660103404
2740000000.0 0.06677796218952313 0.054573444706966096
2760000000.0 -0.042074437904543335 -0.06921931389900705
2780000000.0 0.020298901684946153 -0.07640840569441495
2800000000.0 0.02759845994665037 -0.07721630916334878
2820000000.0 0.05860683654634065 -0.07064133512883952
2840000000.0 0.0041858486676695245 0.10051650229227693
2860000000.0 0.046522198782637685 0.10251806024574701
2880000000.0 -0.09067249618217031 0.08770536399799554
2900000000.0 -0.0880128019257773 -0.10960737544281282
2920000000.0 0.12989501571072168 0.07491185729743409
2940000000.0 -0.05003715319414224 -0.14907524205409148
2960000000.0 -0.13393561222017916 -0.09416710735554135
2980000000.0 -0.17083075387466878 0.03683860314245916
3000000000.0 0.1769119125870892 0.05155512080610495
3020000000.0 -0.1439134962576266 -0.1262247180413557
3040000000.0 0.19791008756849002 -0.009689804964391072
3060000000.0 0.005710938008320763 0.20026290469915456
3080000000.0 -0.19877711555799013 0.04431562328755364
3100000000.0 -0.17854074166426948 -0.10069540346059899
3120000000.0 -0.1792180809329276 0.1034911850593246
3140000000.0 0.17546706132027412 0.11134394645925452
3160000000.0 -0.13980547647529057 -0.15480216078438333
3180000000.0 0.013918002232119525 0.20995550122709666
3200000000.0 0.1496999784414408 0.15435284058471016
3220000000.0 0.04780660620455143 -0.21471945773339846
3240000000.0 -0.17563021609883248 -0.1419122937328562
3260000000.0 -0.16086919600837724 -0.16404641647730397
3280000000.0 0.11991670195923651 -0.20455232233548254
3300000000.0 0.1647125332479945 0.17938563440685784
3320000000.0 -0.2482669850104839 -0.02603756315410601
3340000000.0 0.2510198346631624 -0.0404451822687853
3360000000.0 -0.24504165756777088 -0.07408661947586008
3380000000.0 0.0401607737431219 0.2538346148064458
3400000000.0 0.2566423728363163 0.013637328076165585
3420000000.0 -0.08691111430562841 -0.2435758905362251
3440000000.0 -0.15339815551307398 0.20950590555544782
3460000000.0 0.25467095906432435 -0.03156544026224082
3480000000.0 -0.1848883125186418 -0.17367674868414454
3500000000.0 0.13297011826703434 0.2138419567455648
3520000000.0 -0.16872249690524566 -0.18159025849570934
3540000000.0 0.24017536407451975 0.0369375811035777
3560000000.0 0.0723579649738971 0.22502719115657785
3580000000.0 -0.08910503107772214 0.2107645945663792
3600000000.0 -0.09255677760739846 0.203290817179286
3620000000.0 -0.21698761116924575 0.03398662497345299
3640000000.0 -0.06331329950496198 0.20872789688004512
3660000000.0 0.21992586048627016 0.02963296733669032
3680000000.0 -0.07474027506673178 -0.21329243477148685
3700000000.0 -0.2338199843933879 -0.02018234718576978
3720000000.0 -0.2404219116311328 0.04823134411853062
3740000000.0 -0.14989865565647834 -0.20975350564351972
3760000000.0 0.06176045729048606 -0.26589991356040676
3780000000.0 0.2823588634807055 0.04937278553541746
3800000000.0 -0.29364305788578476 0.04506003900787228
3820000000.0 0.2984898287096553 -0.05489053114440108
3840000000.0 -0.2525996359538847 -0.17675436143388928
3860000000.0 0.08024730373005666 0.2985337088893455
3880000000.0 0.2261269373259125 -0.20843782100830466
3900000000.0 -0.265014054678462 -0.14192944564324725
3920000000.0 -0.03350241363927912 0.2849016669106287
3940000000.0 0.23840383965880946 -0.12181356391880221
3960000000.0 -0.2124467474296761 0.12392431414244308
3980000000.0 -0.008495959098371753 -0.2198526292956696
4000000000.0 0.08688152353394213 -0.16888497876444264
