!Created with skrf (http://scikit-rf.org).
# Hz S RI R 50.0 
!freq ReS11 ImS11
400000000.0 0.5966357712670832 0.03424943520864447
420000000.0 0.4087392406859816 0.14458543703158142
440000000.0 0.04257251750233155 0.1807438016079544
460000000.0 -0.024422393202390702 -0.012421263344972146
480000000.0 -0.16573745578145013 0.15284835535455027
500000000.0 0.16375813789669508 -0.2921297637622104
520000000.0 0.3762444487387617 0.03981697273704994
540000000.0 -0.14993394867865778 0.4754897356265229
560000000.0 -0.5160697338066337 -0.1928312353124967
580000000.0 -0.5017744828559124 0.15634609056376164
600000000.0 0.1551180674273195 -0.45971731546437544
620000000.0 -0.30531653321048435 -0.28908460244260087
640000000.0 -0.1899108257623807 0.284246070753674
660000000.0 -0.13417981147862826 -0.14414376152812453
680000000.0 -0.042863097331145135 0.1531656304905157
700000000.0 -0.14594280572120671 -0.153927733870939
720000000.0 0.06684615265872287 -0.261297767027301
740000000.0 -0.08641766497998093 0.24309774812725882
760000000.0 -0.018842477144043482 0.23671963487811418
780000000.0 0.08631448822877019 -0.1940135992179519
800000000.0 0.08795391461999921 -0.17890560170190203
820000000.0 -0.15394763476621012 0.1250682124055865
840000000.0 0.2141588229161625 -0.002782024782758265
860000000.0 -0.22978805017037718 0.023662468199998888
880000000.0 0.1887561775538756 -0.1797790118534561
900000000.0 -0.07811185058646355 0.257487499419428
920000000.0 0.25248285734891035 -0.048278414432192836
940000000.0 0.1600502397917124 -0.18617650835070196
960000000.0 -0.05430967635556561 -0.22477460974614252
980000000.0 -0.015593947950406407 -0.20795346865086314
1000000000.0 0.06017908993238841 0.17521599220873596
1020000000.0 -0.16743450873402835 0.07604007097512513
1040000000.0 -0.15461010776136583 0.08694339824309111
1060000000.0 -0.006833728396859309 -0.18937202024460745
1080000000.0 -0.16458108757081508 0.04164827673119923
1100000000.0 0.15991447567914505 -0.0009026773726336592
1120000000.0 -0.03403746099505912 0.15160015168245383
1140000000.0 0.1576351961357124 -0.016429333553511432
1160000000.0 -0.1695484741162917 -0.019611232764755876
1180000000.0 0.14174773100332283 0.11133266577360248
1200000000.0 -0.17141060910715838 0.040606025391780765
1220000000.0 -0.16099068637749664 0.03183733657223197
1240000000.0 0.12895465194094807 0.06959219460645297
1260000000.0 0.0837045084750968 -0.09820885177101231
1280000000.0 0.10515632099780135 0.05938675374794288
1300000000.0 0.11444297893779248 0.05927859734751508
1320000000.0 -0.10005445567573512 -0.09697534022462152
1340000000.0 0.09085057433934336 -0.12945672011607365
1360000000.0 0.16089045937815935 -0.044816820785791585
1380000000.0 0.18969965727531074 0.00287746345847833
1400000000.0 0.0314436908541793 -0.22293900958972207
1420000000.0 -0.13848986245619868 0.2125071615225601
1440000000.0 -0.21152814157563068 -0.17781934142516131
1460000000.0 0.21167235364364312 -0.195406729677926
1480000000.0 -0.011688022935030299 0.28769246870138754
1500000000.0 -0.15050280888666234 0.22699526788585173
1520000000.0 0.23401740987557948 -0.06732216401307478
1540000000.0 0.019984217754375994 -0.21444204043468088
1560000000.0 -0.06999642853120115 -0.171884470974621
1580000000.0 -0.12182421315986744 -0.10371793417232006
1600000000.0 0.13625582839789796 -0.019187888905103066
1620000000.0 0.09282760890148396 -0.0869407825894543
1640000000.0 0.004986149195298363 0.11844390333210447
1660000000.0 -0.03164653816083447 0.10859930817596579
1680000000.0 0.10877283902857707 -0.013260797749704196
1700000000.0 0.011449432491001672 -0.10825595484756091
1720000000.0 0.10195676037317755 0.0706913881279112
1740000000.0 -0.05866666177970615 -0.13641550140486935
1760000000.0 -0.19252993994569118 0.0036417525654899832
1780000000.0 0.026539645136865242 0.23347017742707724
1800000000.0 0.015103935201091887 -0.270974917828356
1820000000.0 -0.13639089437486393 0.2617791569985438
1840000000.0 0.292460223411429 0.09576524323839973
1860000000.0 0.2472019123266543 -0.18422252381402168
1880000000.0 0.28848711361279233 -0.08832995920763641
1900000000.0 0.17797808393420045 0.23100999793721683
1920000000.0 -0.23174508058057414 0.167276914469104
1940000000.0 -0.2757344410340864 8.278636328342975e-05
1960000000.0 0.031367720383057886 -0.26105579086910674
1980000000.0 0.22356878957111462 -0.12926319140979167
2000000000.0 0.07382025824957883 -0.2446120524930765
2020000000.0 -0.19870964919996775 0.14389249346479993
2040000000.0 0.22946291068934926 0.034079706059396773
2060000000.0 -0.1619170845307767 -0.14450739072970648
2080000000.0 -0.08082628370101892 0.18532389756399667
2100000000.0 -0.14118842357721897 0.11805334411409667
2120000000.0 0.1703574885393402 0.023893292057801423
2140000000.0 -0.0817410726773117 -0.13934764036000502
2160000000.0 -0.1528056641467126 0.042846839579100814
2180000000.0 0.12326474904306273 0.10491450211261301
2200000000.0 -0.16055033110197278 -0.024040904720374973
2220000000.0 0.15764712683620513 -0.02719658272726879
2240000000.0 0.15125600922812657 -0.04420309723692082
2260000000.0 0.13354634028033435 -0.07845185317416196
2280000000.0 0.11433836432320608 0.11531973111842353
2300000000.0 0.13694304775593294 -0.09938454109312551
2320000000.0 -0.15427417559959555 -0.07927080556056103
2340000000.0 0.11059490091624397 0.13689516053543277
2360000000.0 -0.164526116871259 -0.06467184688578843
2380000000.0 0.042314570399046174 -0.17319054874364076
2400000000.0 0.1164262095814691 -0.13096329276938967
2420000000.0 -0.164669909759702 0.029543868087841763
2440000000.0 -0.008894151479732857 0.15420239738960959
2460000000.0 0.14384373311617507 0.0265080076906696
2480000000.0 0.10129007613391704 0.09405623068150801
2500000000.0 -0.10803137927464505 0.06863108722025672
2520000000.0 -0.02915883411643872 0.12436622551060277
2540000000.0 0.0962550319437839 -0.08075118884931994
2560000000.0 -0.11731151278019616 -0.04736122455700731
2580000000.0 -0.11855711614964352 -0.051370043570838214
2600000000.0 -0.12836672458414417 -0.019427784674759804
2620000000.0 0.12930692851238706 -0.0218538323594441
2640000000.0 0.0019672869405194054 0.1326137830063615
2660000000.0 -0.07413756346685837 0.10605638460429646
2680000000.0 -0.009086073689440376 -0.12246094196767171
2700000000.0 -0.10178065593564993 -0.04655861545925637
2720000000.0 -0.08349138030647403 0.05379522294087767
2740000000.0 0.08286436602940593 0.02808676450070309
2760000000.0 -0.0806734308125407 -0.0019837294645019803
2780000000.0 -0.06239520950852898 -0.04791330455719667
2800000000.0 -0.02084669387017407 -0.07723703916595613
2820000000.0 0.08589654157635294 -0.02791682346247572
2840000000.0 -0.04057098009362045 0.09163965094200832
2860000000.0 -0.012584864952116552 0.11237125123437418
2880000000.0 -0.09797978980523483 0.08165460820054365
2900000000.0 -0.11254191273202598 -0.08583641022774395
2920000000.0 0.1465973588004876 0.03274050111757549
2940000000.0 -0.07053004885192274 -0.14019485324628012
2960000000.0 -0.14016392522487056 -0.08281161695828536
2980000000.0 -0.17390032895550908 -0.007259692175947522
3000000000.0 0.14745795574011827 0.11123406490058808
3020000000.0 -0.09927810581453457 -0.1649696173101841
3040000000.0 0.19912233244416877 0.008617798451379232
3060000000.0 0.030980495668940136 0.19829848537144967
3080000000.0 -0.18764870770839398 0.07838667716216245
3100000000.0 -0.18679064632721865 -0.08268757916618195
3120000000.0 -0.1898096721096868 0.07972379103170239
3140000000.0 0.1769115620387261 0.1086096371077468
3160000000.0 -0.10981124350051197 -0.17766166726923074
3180000000.0 0.024277764748119587 0.20922289433283206
3200000000.0 0.17276339692985673 0.1286055752106006
3220000000.0 0.03313721744977469 -0.21767315827105096
3240000000.0 -0.1784179742928384 -0.13900491802664422
3260000000.0 -0.1581497078734576 -0.16713576878043268
3280000000.0 0.09151000213321324 -0.2189183370518662
3300000000.0 0.17364079396954724 0.16980294627819667
3320000000.0 -0.24109312314284445 -0.06314954469275742
3340000000.0 0.2532903999607999 0.01876106403805756
3360000000.0 -0.2370206214485283 -0.09866832306534547
3380000000.0 0.04428361936279513 0.253632128651454
3400000000.0 0.2530701565094671 -0.04637195049805447
3420000000.0 -0.12541130886533125 -0.2254699223716135
3440000000.0 -0.16576841716823476 0.19809567445960113
3460000000.0 0.25413508396277223 0.034085454029132996
3480000000.0 -0.16814161617332163 -0.19121774095180458
3500000000.0 0.16958012707498346 0.18734081576603495
3520000000.0 -0.22798106643845734 -0.09824144980582782
3540000000.0 0.2363304436954694 -0.05281159979419042
3560000000.0 0.048011795252664226 0.23019180438886444
3580000000.0 -0.12648230521197393 0.1903290611087463
3600000000.0 -0.126145455544988 0.18494644804687324
3620000000.0 -0.2200373960436619 -0.007283335912509788
3640000000.0 -0.05103698929421583 0.2130460118556653
3660000000.0 0.22103767811112351 -0.020022118740777726
3680000000.0 -0.09678227537026177 -0.20343671194541182
3700000000.0 -0.23301775456464036 -0.01804482919078337
3720000000.0 -0.24454448119158093 0.01182497655012193
3740000000.0 -0.12881230417562173 -0.2236821226035972
3760000000.0 0.07617557559802679 -0.2624643723354449
3780000000.0 0.2862318828805688 0.021645279972218413
3800000000.0 -0.2855308601636455 0.08202073278671695
3820000000.0 0.2930803565851799 -0.0786659790132484
3840000000.0 -0.2555570682789061 -0.17210651673960112
3860000000.0 0.06348886870272799 0.30186677328548506
3880000000.0 0.19740229703396503 -0.2356285509571492
3900000000.0 -0.25969390482662824 -0.15216112812912475
3920000000.0 -0.057814082627897466 0.2815045960355984
3940000000.0 0.22007188000775474 -0.15417317602183325
3960000000.0 -0.18272015776657405 0.1646548800282061
3980000000.0 -0.028734021329777096 -0.21737402345646592
4000000000.0 0.09639829585443599 -0.1625587037371037
