!Created with skrf (http://scikit-rf.org).
# Hz S RI R 50.0 
!freq ReS11 ImS11
400000000.0 0.7899896259946321 0.3670894652316668
420000000.0 0.2506504001175154 0.7800292170321351
440000000.0 0.28951165564277515 0.7036432691925555
460000000.0 -0.658411330359653 -0.20967182454634845
480000000.0 -0.22913577414933278 -0.5638843703899878
500000000.0 0.6476930719373108 -0.0605400138694175
520000000.0 -0.1762605361145783 0.6481197493545687
540000000.0 0.4852067888018252 -0.47281485179835464
560000000.0 -0.14260373635364876 0.6478799813583732
580000000.0 -0.41831193315916393 0.3087254921707986
600000000.0 -0.11843720768249895 0.5715778385220817
620000000.0 -0.38030888509748767 -0.4726656667026747
640000000.0 0.026066366537641317 -0.5639239073193366
660000000.0 -0.44689743256484926 0.27905747350355636
680000000.0 -0.45456838097158275 0.1905874072014683
700000000.0 0.02613196039428968 0.4617063915736837
720000000.0 -0.24924622437248514 0.4365257114038039
740000000.0 0.4700974073218969 0.10490082861573316
760000000.0 0.4546864864189088 0.0072871348493185484
780000000.0 0.3572939335822306 0.2417186302557813
800000000.0 -0.35058565352490484 0.164999343645148
820000000.0 0.2596646236963817 0.22775262845051927
840000000.0 0.20313762811690936 0.24273635251667716
860000000.0 0.15826110337371782 -0.23785455856981916
880000000.0 -0.2623642037313853 -0.04668794009018609
900000000.0 -0.23815925839772703 -0.12331760010774895
920000000.0 0.21006103317948216 0.14548950795631868
940000000.0 -0.22119958565914047 -0.04093195419722072
960000000.0 0.1697279725525989 0.05513317620166744
980000000.0 0.038257039435443924 -0.1510344247528693
1000000000.0 0.12184130339434933 0.0745772497170749
1020000000.0 -0.047420123863148485 0.09122996815549553
1040000000.0 -0.04771105674405552 0.10546025498576903
1060000000.0 0.14463982443642132 -0.04489892959041646
1080000000.0 -0.029904310755758313 -0.1920637798808281
1100000000.0 0.11106185274062173 0.2113156027797664
1120000000.0 0.18480039489037287 0.2138975328633807
1140000000.0 -0.12312627053514413 0.28135799295686575
1160000000.0 0.30116724909079995 0.09893162767199014
1180000000.0 -0.2678097422679599 -0.193248225962209
1200000000.0 -0.3208397652821803 -0.14488874666846005
1220000000.0 0.3247868280938189 -0.13354320874553638
1240000000.0 -0.1235399948846138 0.35172057791173056
1260000000.0 0.37651967118722074 0.10464288666812536
1280000000.0 -0.29962057136882714 -0.24221220173442257
1300000000.0 0.052822380791582926 -0.37811942115420444
1320000000.0 0.1809417249073784 -0.3331585524423173
1340000000.0 -0.36462495580117665 0.08957466774738328
1360000000.0 0.3443316218160398 0.18245381314283754
1380000000.0 0.11835672849396352 0.38035671893719925
1400000000.0 0.002713006204500118 -0.388286635789269
1420000000.0 0.23871924698054392 -0.3075203180363485
1440000000.0 -0.0992210869267934 -0.3864187686723133
1460000000.0 -0.389104357394247 0.08623666008027528
1480000000.0 -0.3047528714006948 -0.2533082584804388
1500000000.0 0.02378569785269435 0.40256485370340295
1520000000.0 -0.26850205772772956 0.27818166512645354
1540000000.0 0.3572286151621826 -0.03903710509696298
1560000000.0 -0.3300002160197989 0.043888598184940536
1580000000.0 -0.14889237359819665 -0.2539809920744508
1600000000.0 -0.032294999117029106 -0.2561119710097235
1620000000.0 0.1913930033740557 -0.10327943220019316
1640000000.0 -0.13098788402720563 0.13111735755422702
1660000000.0 -0.1152266583286301 0.09634362415364342
1680000000.0 0.1117811245524351 -0.015340023841737657
1700000000.0 0.023131161307037445 -0.09935525858784237
1720000000.0 0.03745238959570933 -0.06875857179210937
1740000000.0 0.0674157868519384 -0.0459983762263461
1760000000.0 -0.06544896484123106 0.059277570263853635
1780000000.0 0.10676530276758009 -0.03917863862154168
1800000000.0 0.12318536950023945 -0.06420598898068838
1820000000.0 -0.1294855463698511 0.10651124075740297
1840000000.0 0.08617115390815241 0.1722398847049333
1860000000.0 -0.21074057696306803 -0.07643218667650364
1880000000.0 -0.02693215381418403 0.25680307037220546
1900000000.0 0.13564526427125748 0.23995882403092464
1920000000.0 0.12218261178583954 -0.2700356773527502
1940000000.0 -0.21107240728437662 0.2221716760402091
1960000000.0 0.2980252353117546 -0.06556068808576396
1980000000.0 -0.26133043189523386 -0.17347804543605838
2000000000.0 0.07889883798758549 -0.311224651976016
2020000000.0 0.31580096390077567 0.03561209252714051
2040000000.0 0.19892827011320893 0.2491089018291764
2060000000.0 0.14781783128935708 0.28337652694335397
2080000000.0 0.1392715091905476 0.2855577568934963
2100000000.0 0.10447683865855169 -0.2938380126130348
2120000000.0 0.24677898558120218 0.18570235821613312
2140000000.0 -0.24324420862297286 -0.17922326710267958
2160000000.0 -0.1685634361552712 0.24226727761712588
2180000000.0 0.0848674833790268 0.27516543825170237
2200000000.0 0.04248939549290969 0.28045274284409766
2220000000.0 -0.2398856349847351 0.14177879473302732
2240000000.0 -0.0883336034582387 -0.26107659938212635
2260000000.0 0.26870647465509245 0.04445625123510654
2280000000.0 0.2479944356542294 0.11761047023389781
2300000000.0 0.23393566656537393 0.11944081243878232
2320000000.0 -0.2588743806090462 0.01740143981181536
2340000000.0 -0.11443103684211384 -0.22379520887165455
2360000000.0 0.22089312185064128 0.12011746644487227
2380000000.0 -0.06445933041710267 0.25272142108054513
2400000000.0 0.1998114890470219 0.19311563725567538
2420000000.0 0.17311265134361778 -0.2387919499614062
2440000000.0 -0.3063861006212468 0.08327589486858135
2460000000.0 0.3192616346584576 -0.11259553378936638
2480000000.0 0.07773088474004804 -0.3627336046676544
2500000000.0 0.1808032374255583 0.366509899003897
2520000000.0 -0.4446362509918991 0.008453122926952314
2540000000.0 0.45712035020475167 -0.13554176549548966
2560000000.0 -0.39385510475014024 0.32651346609989695
2580000000.0 0.22404691028136997 -0.4940453250772085
2600000000.0 -0.13959747108439824 0.5498740262282262
2620000000.0 -0.06172536991219896 -0.5872997828480245
2640000000.0 0.22455838837184833 0.5638597967744748
2660000000.0 -0.5813111680086448 -0.2210346833641825
2680000000.0 0.34724654233826624 -0.5272123908554676
2700000000.0 0.6139767018018316 0.17912341135513185
2720000000.0 0.4546636548190182 0.45689769679324904
2740000000.0 0.4103530458650149 0.49985849197191456
2760000000.0 0.3072642900099829 0.5683938135970721
2780000000.0 -0.638271499019795 -0.034109921862952995
2800000000.0 -0.5309186925089788 -0.33852655590923636
2820000000.0 0.07573561074373909 -0.6118768630753244
2840000000.0 0.4645846624474543 0.37992356657545456
2860000000.0 -0.5089086565544485 -0.29153243431893694
2880000000.0 0.25957660734955457 0.503843247560419
2900000000.0 0.5226798621704821 -0.1572932350655859
2920000000.0 0.08985900890340913 -0.5194720442025234
2940000000.0 -0.34505179481637116 -0.3622727647957289
2960000000.0 -0.1540361974875572 -0.4512008511012226
2980000000.0 -0.1781978923906906 -0.4215966806966645
3000000000.0 -0.40831985940075877 -0.1576921357410803
3020000000.0 -0.36780622580891187 0.1986823700269555
3040000000.0 0.1471885004561297 0.3681699222839312
3060000000.0 0.30003421672940667 -0.22837716124478552
3080000000.0 -0.33459724683033665 -0.14220432641084912
3100000000.0 0.2972517743389683 0.1876335940508292
3120000000.0 0.22994835525468865 -0.2562444776965685
3140000000.0 -0.09670171034493137 0.32819644323666497
3160000000.0 0.06529422443427817 -0.3325321297279828
3180000000.0 0.04703673157466073 0.3319965806540463
3200000000.0 0.3182698612816471 -0.08536929401118962
3220000000.0 -0.08184107653321482 -0.31300609601497403
3240000000.0 -0.24150657593060393 -0.2045585337790359
3260000000.0 -0.304354951628702 0.00042151357010356574
3280000000.0 -0.28542768812416214 -0.068964146676363
3300000000.0 -0.2520627468220678 -0.1093141702716469
3320000000.0 -0.08710062058288823 -0.2355779687684101
3340000000.0 0.22717966205397472 -0.0003582223764282578
3360000000.0 -0.13221496758915155 0.15479243342465637
3380000000.0 0.08155476197471788 -0.16571297094349413
3400000000.0 0.16376935782470659 -0.011313125344904237
3420000000.0 0.13685607716764087 0.03632414070826753
3440000000.0 0.0368746028503967 0.11728917394900651
3460000000.0 -0.0813201167416141 0.06650658375068226
3480000000.0 0.06912007521199778 0.06100204090411452
3500000000.0 0.0020776153611572422 0.08380044581412224
3520000000.0 0.03138706993062022 -0.07425956695309963
3540000000.0 0.057171107320459096 -0.061164621668342606
3560000000.0 0.08546005588657847 0.022931741930179862
3580000000.0 -0.05299925988049132 -0.07700525609577649
3600000000.0 -0.08868459870224098 -0.03836340311410642
3620000000.0 0.03779215227382608 0.10100595507413673
3640000000.0 -0.12040452056481157 0.005830109807779873
3660000000.0 -0.13346137269337063 0.002970797801900055
3680000000.0 -0.003134389353794834 0.13879785596120087
3700000000.0 -0.10396124462500067 -0.08022976283923637
3720000000.0 0.017187107540854677 -0.11711314004516066
3740000000.0 0.07996874238977487 0.05744366679589365
3760000000.0 -0.07823673163623877 0.01620367527765954
3780000000.0 -0.05673489534404812 -0.026723802262492657
3800000000.0 -0.008131259397158771 -0.03681515136528304
3820000000.0 -0.0035298692285276106 -0.002913610320994493
3840000000.0 -0.03145517247530258 -0.008295582553879034
3860000000.0 0.03562693210690007 0.05017460277456928
3880000000.0 0.07966289747113099 -0.04155623405902799
3900000000.0 -0.10121170972425948 0.0393522815966545
3920000000.0 -0.046099121636897375 0.11605726530330678
3940000000.0 0.09022923823060947 0.1024266121868399
3960000000.0 0.13952991285981514 0.003037796529110026
3980000000.0 -0.10801423437522832 -0.07706255825429228
4000000000.0 -0.09648645240531781 -0.05961072406265344
