!Created with skrf (http://scikit-rf.org).
# Hz S RI R 50.0 
!freq ReS11 ImS11
400000000.0 0.7819012696655493 0.3840303169225654
420000000.0 0.288957324558428 0.7662072502708935
440000000.0 0.2811063545085645 0.7070085274120238
460000000.0 -0.6605649419587407 -0.21119171612391596
480000000.0 -0.4125302099816978 -0.4488335227051863
500000000.0 0.618496939003319 -0.20814354959275536
520000000.0 -0.26946699169174465 0.6144052544868113
540000000.0 0.5559222333239419 -0.38743376417951103
560000000.0 -0.09290923780020996 0.6600575883183091
580000000.0 -0.2454553449317626 0.4536342841133955
600000000.0 -0.147588480746616 0.5681899372994942
620000000.0 -0.4619718532415273 -0.40091220174066255
640000000.0 -0.3276566565844186 -0.4558066947366606
660000000.0 -0.4171385621449743 0.3036183071674708
680000000.0 -0.4346968179347296 -0.22379074489254314
700000000.0 0.052505466946929376 0.4613739442223637
720000000.0 -0.39263242555848354 0.3066810799615003
740000000.0 0.26887333811022146 0.40602830796601325
760000000.0 0.45654311895404404 9.28721680895588e-05
780000000.0 0.17905752561806662 0.39569845970446027
800000000.0 -0.3589635645606206 0.15334284328803194
820000000.0 0.332437538789253 0.11534625119598488
840000000.0 0.3014530626788383 0.11531998545701286
860000000.0 -0.20145013487024133 -0.20901434817547634
880000000.0 0.22237300492240303 0.13709612170138247
900000000.0 -0.25290056976701936 0.03901317849701316
920000000.0 -0.1775383082328053 0.16922853131467078
940000000.0 0.1371120048081716 -0.17393403948075387
960000000.0 0.004942745132005224 0.18127125343783804
980000000.0 0.12863075848806074 -0.08411440153835364
1000000000.0 -0.028560938293389748 0.13439293547011244
1020000000.0 0.04677972842492918 0.09002094481111925
1040000000.0 0.0036526902624348574 -0.12091594325227559
1060000000.0 0.14567611222244864 -0.0610944370005875
1080000000.0 -0.1826673073387455 -0.06852510944977219
1100000000.0 0.1774540451507561 0.16038658422783866
1120000000.0 0.25379509335270367 0.11014546972861514
1140000000.0 -0.23831069867683122 0.19088788140218388
1160000000.0 -0.11889846032861995 0.2960682720984885
1180000000.0 -0.32918033700931076 -0.0652103196235035
1200000000.0 -0.32487813276609667 -0.1430964490045385
1220000000.0 0.14289807626782156 -0.32703505778072395
1240000000.0 0.3313747324861969 0.16848565728252585
1260000000.0 0.37935043050391537 -0.05812378047700708
1280000000.0 -0.1944543600049281 -0.327388131090451
1300000000.0 0.2530083705119227 -0.2856808612211495
1320000000.0 0.2760489302126528 -0.2619276396459012
1340000000.0 -0.3544765580151324 -0.12371952157254779
1360000000.0 0.312320898112284 0.24046719167379002
1380000000.0 0.18788051547653545 0.35542551859374716
1400000000.0 -0.06924843711238972 -0.3848982532856283
1420000000.0 -0.026864531200883276 -0.38997157724615866
1440000000.0 -0.3130133810715209 -0.23972321028596405
1460000000.0 -0.3721453990660162 -0.11902636919836078
1480000000.0 -0.021087211204241584 -0.3971190574467413
1500000000.0 -0.15143934268038978 0.3742628820948305
1520000000.0 -0.39214278344684417 0.0387485738159729
1540000000.0 0.18761868297696208 -0.3137512733955708
1560000000.0 -0.13166463039748563 0.30205258458605316
1580000000.0 -0.2748715299573888 -0.09611844591558052
1600000000.0 -0.06056104740760695 -0.2463492699230994
1620000000.0 0.2115508815866386 0.03605034223068652
1640000000.0 -0.18433089870607713 0.0030607625197549963
1660000000.0 -0.15081426334612968 0.008301315932029178
1680000000.0 -0.02165023654076993 0.11278785369398753
1700000000.0 -0.008821325354324954 -0.1071137786066939
1720000000.0 -0.027760910836631025 0.07404205513370647
1740000000.0 -0.07426728706337164 -0.018009767262374167
1760000000.0 0.0744857588177625 -0.0422364053709234
1780000000.0 0.10711121641074153 -0.045296121909207586
1800000000.0 0.13950057330869872 0.0005978165042051447
1820000000.0 -0.14309959108511444 0.09098926192209479
1840000000.0 0.19096002317131264 0.037452273192059224
1860000000.0 -0.21386299899432024 0.07252433973686738
1880000000.0 0.12788364406431924 0.22209043354830238
1900000000.0 0.1653065552467285 0.218564881129145
1920000000.0 0.14485466213937262 -0.2526530442920848
1940000000.0 -0.2944482251425781 -0.07789212058919943
1960000000.0 0.25724160058998496 0.1689884753466912
1980000000.0 -0.2477631894800145 -0.19595864568345758
2000000000.0 0.13760552860252026 -0.29507966237820826
2020000000.0 0.30414221415881837 -0.11134537411670908
2040000000.0 0.2858919926138375 -0.1446686568835459
2060000000.0 0.31056507134043726 0.050656696343698814
2080000000.0 0.14130360623114538 0.28035065360086836
2100000000.0 0.07122632845029914 -0.30077166189089666
2120000000.0 0.1685186552015337 0.251789501560276
2140000000.0 0.05343928965043125 -0.2961573821247786
2160000000.0 -0.2881777826576381 0.0767494222345498
2180000000.0 0.008212978938588933 0.291873698031751
2200000000.0 -0.046351392522442206 0.2834777789245595
2220000000.0 -0.08269716312318513 0.27167024846345883
2240000000.0 -0.2728204404719328 0.02610845600478678
2260000000.0 0.2503838814943106 -0.09842458864889184
2280000000.0 0.22274935652027844 0.15327021659427734
2300000000.0 0.06338180344276284 0.2554753684575543
2320000000.0 -0.2264290359047939 -0.12384936976201137
2340000000.0 -0.07355211949303163 -0.2438094617090362
2360000000.0 0.2468714052557533 -0.05540794627864654
2380000000.0 -0.11037143428913501 0.2317643068094031
2400000000.0 0.11262129333481724 0.254856146413099
2420000000.0 0.04492742937458566 -0.2928783509445894
2440000000.0 -0.29644900583420203 0.1096512531218723
2460000000.0 0.33352907176074387 -0.06895222936134893
2480000000.0 -0.00687533071391522 -0.37261009051331795
2500000000.0 0.19669278426177925 0.3564991318942433
2520000000.0 -0.44320762766101196 -0.05150696108449355
2540000000.0 0.4353431237501864 -0.197109939431544
2560000000.0 -0.3066792749534623 0.40865572358605323
2580000000.0 0.25521225744971354 -0.47756762847766865
2600000000.0 -0.12239516998981145 0.5541274179175091
2620000000.0 -0.06771968840373735 -0.5854185826235201
2640000000.0 0.20669487075968895 0.5699381795363072
2660000000.0 -0.568026698133408 -0.2532365769945597
2680000000.0 0.3827921763138635 -0.5025237113397291
2700000000.0 0.6250509445684609 0.1383153873837881
2720000000.0 0.48660225720737404 0.4223725216480981
2740000000.0 0.38863160180063633 0.5171110341319397
2760000000.0 0.31309030770959806 0.5653487832041313
2780000000.0 -0.63866029232427 0.022425170834934453
2800000000.0 -0.5205805404414301 -0.35301402693005934
2820000000.0 0.14042150607195503 -0.6005745698406856
2840000000.0 0.4455250943190596 0.403860680404072
2860000000.0 -0.5103404570561769 -0.28855765518495663
2880000000.0 0.171381756811955 0.5427177015576606
2900000000.0 0.4497925252839488 -0.31458715763921535
2920000000.0 -0.09654907927126691 -0.5168447979981904
2940000000.0 -0.3654557680352222 -0.34033771048635036
2960000000.0 -0.22672693234041347 -0.41710751147535574
2980000000.0 -0.18046139379971646 -0.4159180939849722
3000000000.0 -0.2919943884754135 -0.3230655973086495
3020000000.0 -0.4093187112717971 0.08577120343275896
3040000000.0 0.0726207702852565 0.39360683309970185
3060000000.0 0.3118749904420939 -0.21680348383219003
3080000000.0 -0.366653334460156 -0.008657010432810319
3100000000.0 0.34972506479508697 0.042259711087056305
3120000000.0 0.1537380209340248 -0.3073512847130339
3140000000.0 -0.06188870203728144 0.33469216517422784
3160000000.0 0.045879242775525714 -0.33292360676580696
3180000000.0 0.00529730176384729 0.3339029582256425
3200000000.0 0.3268144391232621 -0.0449190046182965
3220000000.0 -0.07959981683321096 -0.31380857506783943
3240000000.0 -0.2366165491792368 -0.20979140182139971
3260000000.0 -0.30331907199225616 0.0024994453814084746
3280000000.0 -0.2798912268449968 -0.08967197766470893
3300000000.0 -0.26556759056629925 -0.07096027211111791
3320000000.0 -0.11694479451200421 -0.221017976160997
3340000000.0 0.20805795371784022 0.09406448159410317
3360000000.0 -0.11562947603544557 0.16933170096827987
3380000000.0 0.0713030790768237 -0.16978181970044723
3400000000.0 0.15946359285242676 0.042793864621298965
3420000000.0 0.12519759902652786 0.06914599458584511
3440000000.0 0.07800172016437663 0.09637575391463588
3460000000.0 0.08058888318891211 0.06785636238572577
3480000000.0 0.08232321781694701 -0.03427969854012098
3500000000.0 0.0015523656511237129 0.08182749114673493
3520000000.0 0.031059134257572812 -0.07351317023092882
3540000000.0 0.07927999568916816 0.01529282533937915
3560000000.0 0.05820507068288704 0.06664411334844964
3580000000.0 0.0645800655326943 -0.06732352368712166
3600000000.0 -0.008409305799344312 -0.09764006459880328
3620000000.0 0.013421337375701448 0.10774149572667863
3640000000.0 -0.11366318176557105 0.04738114369047351
3660000000.0 -0.13214520200745672 0.022212308628574404
3680000000.0 0.06502880492838019 0.12286104107354189
3700000000.0 -0.12476808003413635 0.03809818983261675
3720000000.0 0.007616678660870512 -0.11600517807594343
3740000000.0 0.05957190588436476 0.07630329597905013
3760000000.0 -0.06497089626519255 0.04776488966185761
3780000000.0 -0.03719968417287175 0.04962879931645555
3800000000.0 0.032303428602454394 -0.015270676785639464
3820000000.0 -0.00011819363969190533 -0.004126092376952728
3840000000.0 -0.029937707477220035 -0.012604848907375385
3860000000.0 0.05792919533951806 -0.010938081635335759
3880000000.0 0.08562202228850267 0.023255417695830526
3900000000.0 -0.10666242063451464 -0.021984312940947874
3920000000.0 -0.01662638830366497 0.12385338723416683
3940000000.0 0.09350590652396236 0.0979153447469958
3960000000.0 0.13983636520821663 0.0016992970371912679
3980000000.0 -0.12369259838593302 -0.052492396004464766
4000000000.0 -0.09943851045816833 0.052721452519873285
