!Created with skrf (http://scikit-rf.org).
# Hz S RI R 50.0 
!freq ReS11 ImS11
400000000.0 0.6938050658924486 -0.5001917141994874
420000000.0 0.5956740570302704 -0.569824302397469
440000000.0 0.6105540093294876 -0.5396199522335065
460000000.0 0.5377888203664385 0.5830262644204245
480000000.0 0.22473052940072574 0.7355775403162232
500000000.0 0.32759553894414684 0.6869728812216338
520000000.0 -0.1271263313090989 0.7340399949614661
540000000.0 -0.06772706383527134 0.71134339954781
560000000.0 -0.6983578550601099 0.1882163365938889
580000000.0 -0.6768491013240526 -0.20370292686672695
600000000.0 0.41267792019299837 -0.539832028203741
620000000.0 0.12505194985584664 0.6376622904984212
640000000.0 0.47838192839382715 -0.3098061219026248
660000000.0 0.5907283845206937 -0.011449017269431129
680000000.0 0.31242361209950403 0.5432009328740214
700000000.0 0.5132693198634407 0.31737107536433884
720000000.0 -0.05865963000867125 0.6057882696665623
740000000.0 -0.4477162347155878 0.3692524601706992
760000000.0 -0.519169355488622 -0.21323119492283124
780000000.0 -0.1355529273988487 0.5217313315913247
800000000.0 -0.32614269410666075 0.41469437715366386
820000000.0 0.35458740542812467 -0.3344279276757153
840000000.0 0.3651870976111643 0.26825966966487064
860000000.0 -0.25173057921683356 0.33895406170486786
880000000.0 0.009029793607196728 -0.39887125194177814
900000000.0 0.35108887583579046 0.058946256828124356
920000000.0 -0.1505836438255989 -0.29326750310092853
940000000.0 0.034095621518972934 -0.29655172342623026
960000000.0 -0.25673135314741635 -0.006332433665072951
980000000.0 0.218228045215901 -0.04524471969808427
1000000000.0 -0.035632458484582887 -0.20349975007382606
1020000000.0 0.04917684280600032 0.16668879296793965
1040000000.0 0.004042819940740227 0.13357507652886375
1060000000.0 0.11644472133235231 -0.09874468301775628
1080000000.0 0.12199001354854909 0.08578980697209075
1100000000.0 -0.05871178984788366 -0.16576953637856168
1120000000.0 0.10944979293709498 0.19186227250629878
1140000000.0 0.22792790720045733 -0.07814573609964179
1160000000.0 0.007043691030513799 0.2699657801515392
1180000000.0 0.20356941751931823 -0.23317429906484435
1200000000.0 -0.312693099188747 -0.11322007684036343
1220000000.0 -0.030040239117779144 -0.33407276625982335
1240000000.0 -0.284280696102161 -0.22735156187793346
1260000000.0 -0.3580578539762346 0.1301787875293442
1280000000.0 0.34896465340320587 -0.17884240577558808
1300000000.0 -0.029881513442153725 -0.3973550536528745
1320000000.0 0.1602726629941578 -0.35172367606134
1340000000.0 0.3098859165633632 0.24240333848155177
1360000000.0 -0.3998223220716944 -0.0038200301615012966
1380000000.0 0.39450262567807437 -0.004692559212500378
1400000000.0 -0.3378586801211702 0.19919982493368618
1420000000.0 -0.3151733738023508 0.23649238717888235
1440000000.0 0.12658092095172635 0.36256620452027605
1460000000.0 -0.2979310012847277 0.2284498473264027
1480000000.0 -0.30719240871597825 -0.21948151336322697
1500000000.0 -0.043421865207931974 -0.3844105639708418
1520000000.0 -0.3307975668214963 -0.21426191046233622
1540000000.0 0.28738535061801856 0.27605230338871406
1560000000.0 -0.21454574662196133 0.3316590238254286
1580000000.0 -0.33641144707107495 0.14851290795756103
1600000000.0 -0.33314075018858935 -0.04980862225015006
1620000000.0 -0.05741158619094404 0.3038614955105653
1640000000.0 -0.21365890929052883 -0.1847048083788786
1660000000.0 -0.23827138577196727 0.09088957202829628
1680000000.0 0.23174808616923664 -0.026490065276790493
1700000000.0 -0.19042819506653288 0.0897830897295394
1720000000.0 -0.10735022759719878 0.14766351641428982
1740000000.0 0.08467900725966823 0.12452132782402979
1760000000.0 -0.03384560051139303 0.11868487321878383
1780000000.0 -0.08585329136605116 0.01275629138382757
1800000000.0 -0.02013119248306476 0.04638587209639274
1820000000.0 0.04769392289307801 -0.014307628832370006
1840000000.0 0.09373220162648943 0.012957331463334618
1860000000.0 0.0548386881601952 0.13156429653182625
1880000000.0 -0.18217626649231336 -0.01194297718856476
1900000000.0 0.025419162367317193 -0.22187651567362401
1920000000.0 0.1661153865353631 0.2126744661872949
1940000000.0 -0.291733244078258 0.01932928157636763
1960000000.0 0.3153335746331577 0.01534363326688063
1980000000.0 0.007958385530332986 0.3409190736159044
2000000000.0 0.3281818323469842 0.12825004799504194
2020000000.0 0.33478090459426935 0.11312883526371348
2040000000.0 0.2903004766652761 -0.21941764366200656
2060000000.0 0.20414169102737095 -0.30236509324155114
2080000000.0 -0.09893553269906993 -0.3488649163987453
2100000000.0 0.3496852141134382 -0.09886805187232624
2120000000.0 0.13567011420139538 0.32916489734849175
2140000000.0 -0.3388283105887028 -0.07756029437877998
2160000000.0 0.32016138696981417 -0.116729788882972
2180000000.0 -0.2690345191770112 0.19179786905610532
2200000000.0 0.07867331433221654 0.3061778960421649
2220000000.0 0.12736828470833303 0.2753243977063273
2240000000.0 0.28041404680836785 -0.08147143017674305
2260000000.0 0.24804094607997065 0.10992185421044762
2280000000.0 0.16643601027948088 0.19619956506560188
2300000000.0 0.23783540229107314 -0.043600106021269146
2320000000.0 0.2169352214498757 -0.05487831461440247
2340000000.0 0.18868399675532524 -0.05414624714129046
2360000000.0 0.06768925288673698 -0.16718593943922763
2380000000.0 0.042807616544270274 0.15726787030951217
2400000000.0 0.0912401448984749 -0.11836197823775825
2420000000.0 0.022575796706619924 0.15088331106061434
2440000000.0 0.15734508649011483 -0.0347154843753814
2460000000.0 0.13140784158019267 0.13581664020909992
2480000000.0 0.12153698492138904 0.18755670138322156
2500000000.0 -0.12422657415012915 0.22779627697780855
2520000000.0 -0.28495340216476867 -0.07762954457602522
2540000000.0 0.04904105248716394 -0.3283666567071375
2560000000.0 0.3631332508856057 0.01612278466326682
2580000000.0 0.01591812499911371 0.39400842606941194
2600000000.0 -0.41606513403105283 -0.011672667751870478
2620000000.0 0.1981608595703366 -0.3867566560801914
2640000000.0 0.43219553613522127 0.12254046919866951
2660000000.0 0.050721595404871006 0.456926628654898
2680000000.0 -0.2813855585652677 0.36976245221926074
2700000000.0 -0.3367956926195666 0.32734928265069585
2720000000.0 -0.2891982214252397 0.37608934290450047
2740000000.0 -0.10742966809281385 0.46720397787659607
2760000000.0 -0.03479682465449163 0.4839582179357334
2780000000.0 -0.4670370862002388 -0.15043599505630806
2800000000.0 -0.2532115592156128 -0.4253316593839486
2820000000.0 0.3263095892076467 -0.3783953764949518
2840000000.0 0.15070658304995374 0.4774248035667193
2860000000.0 -0.13402274555221902 -0.48231236158392227
2880000000.0 -0.22747950004842488 0.4435914594006609
2900000000.0 0.35403770624983444 0.3447584296156372
2920000000.0 0.4882402239565418 0.013228957758415809
2940000000.0 0.3866066762475034 -0.29416073528857656
2960000000.0 -0.18977416533771474 -0.44044482168434407
2980000000.0 -0.4735436194330894 -0.032555745897968495
3000000000.0 0.05360382173096962 0.46709068577344603
3020000000.0 -0.0397171664154331 -0.46226655441444753
3040000000.0 0.15536477588187622 0.42223646466154907
3060000000.0 -0.25619983180956446 -0.3571013575094742
3080000000.0 0.42753829865320836 -0.0022360813528652344
3100000000.0 -0.3018818107290698 0.28779798635868464
3120000000.0 0.1678590613016031 0.3724394114906171
3140000000.0 -0.16338376629994036 -0.3677173795995068
3160000000.0 -0.1453175322774147 0.3671550152898348
3180000000.0 0.19588664560979652 0.33742527421483537
3200000000.0 0.38622087029203933 -0.012560557798565786
3220000000.0 0.37906452997349355 -0.04793157804018155
3240000000.0 0.3478019950874053 0.14178500951764808
3260000000.0 0.31102034326480293 0.19435835935598264
3280000000.0 0.29804316576328943 0.18914287447881467
3300000000.0 -0.21519940036425989 0.25550564870122555
3320000000.0 -0.1664100152745438 -0.2667580517661157
3340000000.0 0.13321650695224407 -0.2587300463911663
3360000000.0 -0.10154212131472315 0.24676524334580305
3380000000.0 0.19033074813482395 -0.15655072307667686
3400000000.0 -0.15245507620692486 0.16891390466536005
3420000000.0 0.03352283517444082 -0.21156219721148645
3440000000.0 -0.0466467814638558 0.19862634922881747
3460000000.0 -0.09939563587612303 -0.16657350660893658
3480000000.0 0.12980760153713727 -0.13949353108598603
3500000000.0 0.18754914113973348 0.020581178861066605
3520000000.0 0.186945032789459 -0.014460510964851993
3540000000.0 -0.1941644760863298 0.011038742297503259
3560000000.0 -0.17708836969922612 0.09170631428074665
3580000000.0 0.19571262168659403 0.06678626003699427
3600000000.0 0.13461836028458632 -0.1634488993855568
3620000000.0 0.05791524729292295 -0.21684408601028907
3640000000.0 -0.08894554604911266 -0.20811701450559172
3660000000.0 0.18006805436067766 -0.14592797709328875
3680000000.0 0.2329359249021167 0.0012166119684294241
3700000000.0 -0.18538222100234866 0.13253419151616663
3720000000.0 0.01388140144510515 -0.2144925317106976
3740000000.0 0.12451827470814594 0.14970277713208663
3760000000.0 0.1487133169851268 -0.09456012716384202
3780000000.0 -0.14226587050931708 -0.038094471302021364
3800000000.0 -0.1041698704341394 -0.05135298739399824
3820000000.0 -0.058075610176386905 0.06182536745169632
3840000000.0 0.02089939905160925 0.05052805896576119
3860000000.0 0.005907826387747163 0.044068574376654464
3880000000.0 -0.014025504091651028 -0.0470713290320626
3900000000.0 -0.0408448621558787 0.05556647849408279
3920000000.0 0.06319093242468676 -0.050029906214661794
3940000000.0 0.0667491770451026 0.044133494311036796
3960000000.0 0.06362506067115979 -0.03641378448774522
3980000000.0 0.016546115769449754 -0.05786436577050653
4000000000.0 0.044772005240639574 -0.015295783397576918
