!Created with skrf (http://scikit-rf.org).
# Hz S RI R 50.0 
!freq ReS11 ImS11
400000000.0 0.15652063363712476 -0.9019751871736617
420000000.0 0.2965316492915412 -0.8197971153426996
440000000.0 0.2414228168989501 -0.7937488327759629
460000000.0 -0.04572438079080758 0.7661804883202443
480000000.0 0.4508084792317214 -0.5770902715651153
500000000.0 -0.7246991402847975 -0.15111113590750283
520000000.0 -0.6986344987407197 -0.12294711098085714
540000000.0 0.6146989342487897 -0.30997447832577457
560000000.0 -0.6499853146556422 -0.02171993153773087
580000000.0 -0.26786119537026815 -0.4737165564190152
600000000.0 0.08944920605886095 -0.5723840692256046
620000000.0 -0.5435402441374587 0.13679075481222785
640000000.0 -0.4666864956973184 0.22646517203876856
660000000.0 -0.253945343315177 -0.4629906177183133
680000000.0 -0.49406948051260857 -0.19006116315747296
700000000.0 -0.4786881457334916 0.24398703233204674
720000000.0 -0.18256212103290226 0.5144310423840857
740000000.0 0.32694603343409473 -0.38380345018518397
760000000.0 -0.079899508703025 0.46595135284317135
780000000.0 -0.34630041892283947 0.29779586427721666
800000000.0 -0.40867995884997116 0.06936828176499515
820000000.0 -0.3011020777147115 -0.19911453975699964
840000000.0 0.2885544195620335 0.12012488272963767
860000000.0 -0.2102695568347758 -0.2046591619730843
880000000.0 0.1328040334270699 0.23745783702057696
900000000.0 0.1884902068534285 -0.16916209940450386
920000000.0 -0.024117761263747192 -0.22334987557928956
940000000.0 0.1901910433561308 0.08790023348026535
960000000.0 0.02864013026132348 -0.17724410631589566
980000000.0 0.0693781822553547 -0.11326928234797935
1000000000.0 0.08833857026836844 -0.05214716124890584
1020000000.0 -0.09523641166551217 -0.008547311962035332
1040000000.0 0.11380492085403461 0.02406478494122616
1060000000.0 0.037390030267925076 0.1446861826857047
1080000000.0 -0.17429823910115794 0.051043052847097384
1100000000.0 -0.04865486910249724 -0.24377245503998576
1120000000.0 0.26869040322895427 -0.0693851142506748
1140000000.0 -0.3004046435412309 0.004339036229873332
1160000000.0 0.23379221531352976 -0.21767523847434872
1180000000.0 0.3334518482865437 0.024766668683005085
1200000000.0 -0.21403005592389876 0.2856863413123984
1220000000.0 -0.35336087084180107 -0.06436986865185772
1240000000.0 -0.24858497924242948 0.2674492410977487
1260000000.0 -0.3321182477047466 -0.14581408584884273
1280000000.0 -0.2266883657662227 -0.29111356509713404
1300000000.0 -0.30177304559488854 -0.22845937758588586
1320000000.0 0.08699044570829219 -0.3595431257802523
1340000000.0 -0.08248340724060933 0.3554560917797188
1360000000.0 0.3734137318564827 0.05144095499548818
1380000000.0 0.07347664075100448 0.38135049635690244
1400000000.0 0.22646256971485282 -0.299284629610785
1420000000.0 0.2990491056671475 -0.23839274602051885
1440000000.0 0.14179465122793575 -0.34689346947575295
1460000000.0 0.31005935486829195 -0.21583816471479242
1480000000.0 -0.23706867222840755 -0.30435108536526045
1500000000.0 -0.18186648504371486 0.3309377795929337
1520000000.0 0.29531834822975506 0.23496797324977217
1540000000.0 -0.019003695504137972 0.3634907533089133
1560000000.0 -0.25529523896312967 0.219458501915467
1580000000.0 -0.020543874585912333 -0.2933090675768647
1600000000.0 -0.19700902388908179 -0.16978133937723722
1620000000.0 0.1413621199809732 -0.17333464528255746
1640000000.0 0.15287362491878256 0.11126813291713991
1660000000.0 -0.05266491886988592 0.15396037315032735
1680000000.0 -0.07130951679550394 -0.10743219066163866
1700000000.0 0.09900972082685586 0.012503170916841461
1720000000.0 -0.00782832555454555 -0.07847756540885015
1740000000.0 -0.04258980308028867 0.04238175927387997
1760000000.0 -0.07025296949887518 -0.03549073525222604
1780000000.0 0.09470454144318023 -0.03719783010385455
1800000000.0 -0.07930810860247006 0.0951391135986071
1820000000.0 0.12858968613069782 -0.07592729282155702
1840000000.0 0.07814573679123238 -0.1754997610014045
1860000000.0 -0.17134014955555749 0.14459880305761647
1880000000.0 -0.14681742919255542 0.19259278530342275
1900000000.0 -0.2626444296714498 0.01254898760686482
1920000000.0 0.28977078862037997 0.016654266805421758
1940000000.0 -0.28680281410547037 0.058073111891356444
1960000000.0 -0.04736021239038173 0.29470472300122197
1980000000.0 -0.19151873607349706 -0.25488536044870985
2000000000.0 0.12153029840026848 -0.2967519773241942
2020000000.0 0.20113153926143676 -0.2522837329410895
2040000000.0 0.25013904045345314 0.20571720713120614
2060000000.0 0.28667563940256713 0.14650294401135286
2080000000.0 0.14117214233245648 0.284562644761365
2100000000.0 0.29573982837282176 -0.10815018856873812
2120000000.0 -0.05441623133292898 0.3165096602036555
2140000000.0 -0.02176019802104983 -0.30846194156571594
2160000000.0 -0.2702393319119101 -0.14369375300547832
2180000000.0 -0.15137689168046856 0.2698844354322401
2200000000.0 0.2939937043132957 -0.051411915474574486
2220000000.0 0.2248845301322727 0.17627151827650284
2240000000.0 -0.2570695708129411 -0.10272680548486085
2260000000.0 0.27096431938602533 0.03361831308926488
2280000000.0 -0.11889428024522909 0.24596666950805376
2300000000.0 -0.25145318072118206 0.11361870416618476
2320000000.0 -0.2188622395571003 0.15557322873915422
2340000000.0 -0.25486091048253046 0.03203701925478573
2360000000.0 0.21968572541500891 -0.13175451963586896
2380000000.0 0.15707457324836038 0.20263917607247217
2400000000.0 0.1673512435084531 0.20624871241424364
2420000000.0 -0.20531501121794543 0.191747462051745
2440000000.0 0.30198379208198434 0.06912747449383001
2460000000.0 0.010598881104550704 -0.3314722382743363
2480000000.0 -0.3351853581549383 -0.14098751678971266
2500000000.0 0.40225659752699533 0.008882840788636352
2520000000.0 -0.37298552028416415 0.22958139585210105
2540000000.0 0.2097726366072955 -0.43132643722756925
2560000000.0 0.06419724416658017 0.5097779532085202
2580000000.0 -0.45213618154380414 -0.31114824542006875
2600000000.0 0.5506635941961852 0.16438023313066022
2620000000.0 -0.5844645151322284 -0.1306921854181443
2640000000.0 0.5883475821056587 -0.19845440911113665
2660000000.0 -0.2980089166099983 0.5646186244883721
2680000000.0 -0.5099460274547885 -0.40258464927327914
2700000000.0 0.2962886696984858 -0.5911142025446561
2720000000.0 0.6095134597376994 -0.2750121160604411
2740000000.0 0.6697594296211097 -0.07778944164547759
2760000000.0 0.664016505266397 -0.13038429964446402
2780000000.0 0.05430180446057546 0.671792342495375
2800000000.0 -0.025396627081384418 0.664680803350548
2820000000.0 -0.36990774088107115 0.538988700951734
2840000000.0 -0.5783719332176901 -0.26789171222720065
2860000000.0 0.6028527673287436 -0.15010506627417108
2880000000.0 -0.6005344360353275 0.05135964800570301
2900000000.0 0.42415479056167193 0.39486923626702725
2920000000.0 0.5551685284103661 -0.017921487371521237
2940000000.0 0.10536345406718091 -0.5274645017870615
2960000000.0 -0.2266831743495253 -0.4562732053582572
2980000000.0 -0.2811338937894494 -0.39794712121412423
3000000000.0 -0.4671853112847126 -0.04321935866198726
3020000000.0 -0.07465845184848645 0.4413189635991651
3040000000.0 0.2830872284723014 0.31429563472844624
3060000000.0 0.038485712831352374 -0.40682486574850274
3080000000.0 -0.06794821076237753 0.390018069832611
3100000000.0 0.19418266914549087 -0.3201797059587802
3120000000.0 -0.25671653385095944 -0.26335584229793746
3140000000.0 0.29197929275969253 0.2088688476982684
3160000000.0 -0.2223904566797374 -0.282740505187645
3180000000.0 0.14801669242787502 0.32580906818595745
3200000000.0 -0.27496450795265176 -0.22963152479529544
3220000000.0 -0.3158813153752394 0.1400352887572338
3240000000.0 0.140501916742923 0.3032630388390034
3260000000.0 0.22540464794774248 0.23590814434074941
3280000000.0 0.303940611343758 -0.037490595788739804
3300000000.0 0.12238004454986448 0.26179934264361787
3320000000.0 0.09020489587689336 0.2499660704173509
3340000000.0 -0.23389213285377816 0.04850928356626373
3360000000.0 0.18262871947719905 -0.0919262607833315
3380000000.0 -0.03438560377273146 -0.1858528140112824
3400000000.0 0.12672627613037057 -0.10993980056159765
3420000000.0 0.1506223472141481 0.021569674667816344
3440000000.0 -0.08784760255016424 0.09514969210766358
3460000000.0 -0.0758104725257941 0.08431028309448964
3480000000.0 0.10148897668210777 0.02401630612973614
3500000000.0 0.07291247692560704 -0.061795387330359414
3520000000.0 -0.0979507080307202 0.000673335329483395
3540000000.0 -0.04857477566504497 0.083578315889404
3560000000.0 -0.015462509450672825 -0.10355038851837028
3580000000.0 0.10930824800396495 0.016908728304320095
3600000000.0 0.0875092154170143 0.08140414620940505
3620000000.0 0.05023904325022353 0.12136289257602335
3640000000.0 0.13611423907715745 -0.04137925548906487
3660000000.0 -0.08050835481946075 0.12260587365739968
3680000000.0 0.13834937001905026 0.06494824791577247
3700000000.0 -0.12466436211557284 0.06446101364678881
3720000000.0 0.03433547027641432 -0.1203347881472275
3740000000.0 -0.0854835531912777 -0.059129372572642884
3760000000.0 -0.0054408412706476676 -0.08334135352448398
3780000000.0 -0.006429426734164842 -0.06148269992625975
3800000000.0 -0.033727243386612434 -0.002416713013186523
3820000000.0 -0.006331940634029322 -0.0005413326994571374
3840000000.0 0.03273842676796509 0.018553032182128417
3860000000.0 0.05836072058619199 -0.030009200536225286
3880000000.0 -0.07558703024038413 -0.05617425144502053
3900000000.0 0.026230134343099187 -0.10808288786026393
3920000000.0 -0.022417640586949672 0.12127521339678593
3940000000.0 0.010201709141729876 -0.13226478244084744
3960000000.0 0.05833024927248483 0.11661298809502679
3980000000.0 -0.01688582975026584 0.12432485917345824
4000000000.0 -0.09995740559995794 -0.004511503042378884
