!Created with skrf (http://scikit-rf.org).
# Hz S RI R 50.0 
!freq ReS11 ImS11
400000000.0 0.8043613950798479 0.3340340331312533
420000000.0 0.27801898103651385 0.7679125040424054
440000000.0 0.3644418342615399 0.6681784502037381
460000000.0 -0.5552760933570263 -0.4030333396480422
480000000.0 -0.27737968326276635 -0.5579798346551601
500000000.0 0.6415968458427558 -0.07815515921428852
520000000.0 -0.41661729975921197 0.5209880112521831
540000000.0 0.6648394681251018 0.13737212015468725
560000000.0 -0.20306049960198283 0.6436167198726542
580000000.0 0.08828938449353936 0.5121348001779689
600000000.0 -0.10457958972088853 0.5798457083304048
620000000.0 -0.2233250369094843 -0.5710204511698851
640000000.0 -0.46422851091126605 -0.31752494473189957
660000000.0 -0.12013588878326205 0.5173136563182591
680000000.0 0.09867109625104949 0.48468451258820666
700000000.0 0.4455826930278252 0.07957989959683782
720000000.0 0.025295422748122433 0.4887445811814118
740000000.0 0.4603098313191957 -0.09089712093337704
760000000.0 -0.3543442843333411 0.2566061927793343
780000000.0 -0.2211081892754247 -0.37515268472072555
800000000.0 0.08024316014780342 -0.39888878961674973
820000000.0 0.19575273025714804 -0.2999390708977308
840000000.0 0.3137266868963248 0.050122399883012626
860000000.0 0.274237214115621 -0.10283182314414602
880000000.0 -0.2496285102250942 0.10833901354226672
900000000.0 -0.07740332659995754 0.2600985121437414
920000000.0 0.24512127255313906 -0.09266129218700114
940000000.0 0.20386698478334747 0.09007627906315158
960000000.0 -0.17808275357432315 0.01155758937631942
980000000.0 -0.13985080811496958 0.02832395737089558
1000000000.0 0.01798791983211378 0.1278890253586243
1020000000.0 0.026194807332409017 -0.09863219664112524
1040000000.0 -0.08189749515555655 0.08161234326684984
1060000000.0 -0.022068549974497528 -0.14191516068205892
1080000000.0 0.16880543064833464 0.08714077136958841
1100000000.0 -0.05871050802668898 0.23445552153532515
1120000000.0 0.25160384537395375 -0.1202721756895857
1140000000.0 -0.23119992732500183 0.1961459801653522
1160000000.0 -0.2966912998421657 0.09516978268487718
1180000000.0 -0.299780770890351 -0.15627502085279088
1200000000.0 -0.29424827614934296 -0.19674329431195461
1220000000.0 0.3315242500871007 -0.13233387895330737
1240000000.0 0.15525291160364496 0.34208654942177913
1260000000.0 0.37917094793102113 -0.09383104690873638
1280000000.0 -0.27752105057950116 -0.27070698218340045
1300000000.0 -0.14672285001189372 -0.3487207552682112
1320000000.0 -0.012762305194912648 -0.38078571023267993
1340000000.0 -0.3396200791899273 0.14547785994128765
1360000000.0 0.1555892427203717 0.3538432455065199
1380000000.0 -0.17682885315883595 0.359291686935669
1400000000.0 -0.1368033729735563 -0.37158989768913575
1420000000.0 -0.07408734285637678 -0.38514559095980133
1440000000.0 -0.1399675418567183 -0.36863797579266494
1460000000.0 -0.39622938940491464 -0.005497272555400541
1480000000.0 -0.3531198951710155 -0.1852259151385818
1500000000.0 0.12838409525922656 0.37771757736619715
1520000000.0 -0.3837464717217999 0.04511521868415691
1540000000.0 0.3585156469965026 -0.05236874901946671
1560000000.0 -0.2293234633786736 0.23537013505844734
1580000000.0 -0.17251135629361905 -0.23777562822176246
1600000000.0 0.060432136107069975 -0.251307176975686
1620000000.0 0.1877223171432772 -0.10933840461518997
1640000000.0 -0.11795429267792483 0.13694379232946643
1660000000.0 -0.15372002581015987 0.0015646432940610662
1680000000.0 0.1077536655638626 -0.04120729393472555
1700000000.0 -0.06408906075810193 0.07742976575619524
1720000000.0 0.06263560412282641 -0.04755568022819869
1740000000.0 0.06755157258699157 -0.039894979083286465
1760000000.0 -0.0768170466624297 -0.045828269864508296
1780000000.0 0.09102385869797332 -0.07264908488648732
1800000000.0 0.024743518323639836 -0.137814658045768
1820000000.0 -0.13594230101205151 0.09711244683919423
1840000000.0 0.1953852931341934 -0.002708988723461839
1860000000.0 -0.197048141700737 0.10230562575979141
1880000000.0 -0.049690596834170854 0.2508134221854651
1900000000.0 0.06554575125781842 0.267276527021083
1920000000.0 0.15920372417275602 -0.2469878242067936
1940000000.0 -0.30442486031340027 -0.02585073983081841
1960000000.0 0.30880624118507877 -0.002993367630106996
1980000000.0 -0.2922005250880009 -0.11271220806856186
2000000000.0 0.08498584626134954 -0.30954127412566906
2020000000.0 0.3186896588724741 -0.03136099722925203
2040000000.0 0.3205266812280279 -0.014761342570518083
2060000000.0 0.2985579415264151 0.10255971449889123
2080000000.0 0.07669526847205287 0.305771066147965
2100000000.0 -0.03238352125359166 -0.3124190175921261
2120000000.0 0.28593352709669384 0.10447685131124436
2140000000.0 -0.1377740757127962 -0.26588267906920277
2160000000.0 -0.22087778581198692 0.19716295438404965
2180000000.0 -0.05169909236368577 0.28536449395088914
2200000000.0 -0.06762149886490891 0.27738358544987335
2220000000.0 -0.13095891323356404 0.24853597596785545
2240000000.0 -0.20662422502283287 -0.18261039511654867
2260000000.0 0.22269741080290692 -0.15566468741711253
2280000000.0 0.2430479968564897 0.12681974188109363
2300000000.0 0.25261768899660725 0.0646679572999687
2320000000.0 -0.24515937973226073 -0.06689061032300544
2340000000.0 -0.04286093057116438 -0.2494439714286065
2360000000.0 0.2538329912685239 0.019140946805077042
2380000000.0 0.1044522360820756 0.2374947969761274
2400000000.0 0.21185918799730205 0.1819184825445401
2420000000.0 -0.0013087863635734285 -0.29543319193915607
2440000000.0 -0.1991746519789782 0.24210905573541075
2460000000.0 0.3337748604556443 0.0564799309235163
2480000000.0 0.11041571790793392 -0.35545219271910533
2500000000.0 0.2074256468376851 0.34991604978159824
2520000000.0 -0.41273491507527604 -0.1659208829329517
2540000000.0 0.4543604400893399 -0.1508494081696138
2560000000.0 -0.34570406022625044 0.37549242618372985
2580000000.0 0.24686927986762078 -0.4811358159714883
2600000000.0 -0.044215107847149555 0.5649821262554028
2620000000.0 -0.06637888497200016 -0.5853077002158464
2640000000.0 0.22114781726867055 0.564033657975795
2660000000.0 -0.5733709875029749 -0.23993712685438248
2680000000.0 0.4081703600391177 -0.4816352423092706
2700000000.0 0.6183839036920604 0.16693648502080954
2720000000.0 0.3671285792379659 0.5303713914305119
2740000000.0 0.2716386644769593 0.5870872691548866
2760000000.0 0.1778360463503631 0.6213628086418477
2780000000.0 -0.6317645687139105 -0.09998680060136196
2800000000.0 -0.4505041109464273 -0.4400817266598709
2820000000.0 0.12326928878949815 -0.6049117510144794
2840000000.0 0.48022959683109395 0.36362355947387826
2860000000.0 -0.4816824461625368 -0.3354243779408022
2880000000.0 0.17826628540614853 0.5410588938139036
2900000000.0 0.4731569999960289 -0.27950223081823616
2920000000.0 -0.04333587502216051 -0.5253305273821766
2940000000.0 -0.37023345229035937 -0.33896887984349977
2960000000.0 -0.18696805216944842 -0.4390371135443677
2980000000.0 -0.2874597323717027 -0.3543849369869691
3000000000.0 -0.3179129837744006 -0.3019359333745945
3020000000.0 -0.37986010805881715 0.178664675334525
3040000000.0 0.18977592000145027 0.34935654314329573
3060000000.0 0.3718052655563832 -0.07331738777509085
3080000000.0 -0.3593378263651596 -0.06890024360913967
3100000000.0 0.3510404644557111 0.011292811092084508
3120000000.0 0.2632528927306334 -0.22454038457251102
3140000000.0 -0.08845400459895869 0.3292049884441525
3160000000.0 0.1012351027979999 -0.3225624972060786
3180000000.0 0.023349020126045058 0.3349539086469821
3200000000.0 0.32362399226910443 -0.06832226089964073
3220000000.0 -0.16469608161334537 -0.27939425858755046
3240000000.0 -0.2924014804156348 -0.12071671136641912
3260000000.0 -0.3044641957996793 0.008153266480958045
3280000000.0 -0.2881099208021252 -0.05301106937099107
3300000000.0 -0.2700703289408556 -0.05818321827681308
3320000000.0 -0.17137119770664855 -0.18337205307013493
3340000000.0 0.2158869895170701 0.07269622431052682
3360000000.0 -0.14944238392851897 0.13990657893614858
3380000000.0 0.07163264030993635 -0.17226841210114824
3400000000.0 0.16558705876028085 0.008406951093958953
3420000000.0 0.1418810056803468 -0.01072059756068188
3440000000.0 -0.032416366066563805 0.12121231512399938
3460000000.0 0.06315248505169731 0.08842505914102844
3480000000.0 -0.05019441530087448 -0.0731143448376348
3500000000.0 -0.07918124971058382 0.009588782460239005
3520000000.0 0.07422107075561564 -0.030683779069705906
3540000000.0 0.08005426588635892 -0.01985642372828765
3560000000.0 0.048557295309180626 -0.07384782862589721
3580000000.0 -0.08765537798800792 -0.027379169690866127
3600000000.0 -0.0666140123049515 -0.06941673879407895
3620000000.0 0.04227133809094347 0.10257397645362908
3640000000.0 0.07395149590756188 0.10089574225435055
3660000000.0 0.08828432048936039 0.09945118875098544
3680000000.0 -0.0008972756719644862 0.13647177767771917
3700000000.0 -0.1085295399870822 -0.07370684900343656
3720000000.0 0.041019136496071876 -0.1108900547632561
3740000000.0 -0.09224631189755808 0.03586434918148658
3760000000.0 -0.07374793858405305 -0.03814536024230067
3780000000.0 0.024354024030998307 0.06058204712893705
3800000000.0 0.022823621697878573 0.028049787327530166
3820000000.0 0.00030303330745903005 0.0024300761812249805
3840000000.0 -0.03325616163030951 0.010003495172657443
3860000000.0 -0.03438020649186461 -0.05239120650372872
3880000000.0 0.010366489247925983 -0.08696350383703623
3900000000.0 -0.06919478157552202 -0.08448907840929085
3920000000.0 -0.0492261452362293 0.1172193178628186
3940000000.0 0.12456906467587245 0.05072064798492977
3960000000.0 0.03757789092891031 0.13222028808295985
3980000000.0 0.01110296789097322 -0.13403097409931097
4000000000.0 -0.028105713882190585 -0.1108765659983829
