!Created with skrf (http://scikit-rf.org).
# Hz S RI R 50.0 
!freq ReS11 ImS11
400000000.0 0.7675386864683718 0.4119715016975566
420000000.0 0.27886763532669445 0.767378278562896
440000000.0 0.42693186648238063 0.6299458501840132
460000000.0 -0.5526570269703133 -0.4057254385490592
480000000.0 -0.06449987371507275 -0.6152751328799577
500000000.0 0.6468092349149771 -0.09916747504306311
520000000.0 -0.18002130451974868 0.6466259037117853
540000000.0 0.6127683876483048 -0.2846979400751098
560000000.0 -0.2742047050573986 0.6081067502160636
580000000.0 -0.440333501291092 0.28136578419173214
600000000.0 -0.05107158152087698 0.5929222422646206
620000000.0 -0.478687871550573 -0.38111668236489976
640000000.0 -0.4079907308856967 -0.392244405373933
660000000.0 0.33679308729425056 0.4103485451140346
680000000.0 -0.034521018247319915 0.48221233579310946
700000000.0 0.3207045786855988 0.3264464493214787
720000000.0 -0.40326951221330115 0.27933467484958985
740000000.0 0.44412538872106805 0.17137213069268423
760000000.0 0.2216232565489082 0.3903995610043703
780000000.0 -0.3900989583929137 -0.17281055682908933
800000000.0 0.08681823734246343 -0.3883615285645799
820000000.0 0.14189544710983373 0.32084133700308126
840000000.0 0.023040323680422484 0.3270487371870594
860000000.0 -0.12038447669657328 -0.27586873064813466
880000000.0 0.2635081398077331 -0.0038569101337859396
900000000.0 -0.2208790118787726 0.14990439930815916
920000000.0 0.08488380248240046 0.2437907198423221
940000000.0 0.20123297933380624 0.11497778005013648
960000000.0 -0.15783858655012853 0.08727644257658491
980000000.0 -0.049647760193905585 0.13041683306702
1000000000.0 0.0015817451777613031 0.13112065635050138
1020000000.0 0.022556866574381326 -0.09837500744998938
1040000000.0 -0.07355285371421051 -0.08207250863505693
1060000000.0 0.14182670439039027 -0.04530162335165387
1080000000.0 0.18102737452944365 -0.06394093795348296
1100000000.0 0.17827382965609925 0.1512919476493349
1120000000.0 0.26039437548764255 0.10151563771578433
1140000000.0 -0.28492906130963647 0.10127764365703719
1160000000.0 -0.2808711486548133 0.13703203761956823
1180000000.0 -0.28215379781852906 -0.18773289311343672
1200000000.0 -0.35139962591023893 -0.022304896897470002
1220000000.0 0.32781038538376844 0.1373112842875505
1240000000.0 0.20554173744403614 0.31588390608982403
1260000000.0 0.3014037951732434 -0.2524361310946451
1280000000.0 -0.3600847662110464 -0.1276053651860485
1300000000.0 0.027798637414074668 -0.37968724555553274
1320000000.0 -0.006636863659082464 -0.3834751951816725
1340000000.0 -0.31877889052767017 0.18447357123824296
1360000000.0 0.1916517250802506 0.33709467957862677
1380000000.0 -0.29174280266110714 0.2746700496931379
1400000000.0 -0.01619358095822802 -0.39600234360291264
1420000000.0 -0.07251153274600236 -0.38553514999183497
1440000000.0 -0.2102189249936406 -0.3350446975622924
1460000000.0 -0.3935261319658437 -0.028443496401405526
1480000000.0 -0.2822190761127314 -0.2780535843100048
1500000000.0 0.26983379836125804 0.29868301947063436
1520000000.0 -0.38464321811057034 0.02952017177860458
1540000000.0 0.358407355056859 0.04302335214491229
1560000000.0 -0.016429600669113684 0.3313037642397096
1580000000.0 -0.18603552072855278 -0.22504093866217656
1600000000.0 0.14997155437744636 -0.20877793690844101
1620000000.0 0.17603411440022418 -0.1287792044452298
1640000000.0 -0.10440457232768098 0.1528288081520441
1660000000.0 -0.10196188951412168 0.11424095676939416
1680000000.0 0.0908843822940882 -0.0678522129551054
1700000000.0 -0.10232300702343501 0.019297715972114292
1720000000.0 0.07792351129047301 -0.011341746119175983
1740000000.0 0.07359203912868503 0.031215590794690565
1760000000.0 -0.0523979887379379 -0.07216374844466894
1780000000.0 0.1085221726806004 -0.04282701575276725
1800000000.0 0.13810739298055943 0.006793502523710529
1820000000.0 -0.16436933140877974 0.04087823274723461
1840000000.0 0.16693241855689678 -0.10293664429440005
1860000000.0 -0.22074084928504878 -0.021239252027456447
1880000000.0 -6.057680484821884e-05 0.2547028870389777
1900000000.0 0.07872254098793678 0.26252729036992667
1920000000.0 0.2484221321601667 -0.16307808042778976
1940000000.0 -0.2992099255024381 0.055416225077883574
1960000000.0 0.3028544259060512 -0.04896110060727473
1980000000.0 -0.24902573412974535 -0.19371664371056546
2000000000.0 -0.012609876493549336 -0.3220200027277218
2020000000.0 0.3077558915133501 -0.08526540267868485
2040000000.0 0.2690316714636299 0.1775125569651275
2060000000.0 0.31757476230588905 0.028097245944354438
2080000000.0 0.18040135161918763 0.2583287907576389
2100000000.0 0.18167515183100058 -0.2557260530684584
2120000000.0 0.28016268936319993 0.12606649297858213
2140000000.0 -0.09844213822506247 -0.2812473233768797
2160000000.0 -0.2777856618951633 0.10354232148208735
2180000000.0 -0.046270493468356155 0.2860131194064121
2200000000.0 -0.054775074942021294 0.2778459758920289
2220000000.0 -0.17109016613670622 0.22533948997931383
2240000000.0 -0.21752344310172053 -0.17185346724080858
2260000000.0 0.11096766093087715 -0.24678458890884827
2280000000.0 0.2697355798188968 0.03666799221985378
2300000000.0 0.22998667897900274 0.12069310073177215
2320000000.0 -0.2400075938307056 -0.0914044271530144
2340000000.0 -0.09255577676794235 -0.23722157624013904
2360000000.0 0.2440716221480751 -0.07306411232434484
2380000000.0 0.14323177079982266 0.21584085444763534
2400000000.0 0.1652006266554696 0.2254208629790143
2420000000.0 0.10341929553317879 -0.2785477002199355
2440000000.0 -0.1987370695801439 0.2472055059968414
2460000000.0 0.330827651888422 0.0560598209212221
2480000000.0 0.2499722257295834 -0.27599316541203
2500000000.0 0.0868372049114213 0.39870954656468555
2520000000.0 -0.4235325065164048 -0.12992065486630192
2540000000.0 0.4757501877120375 -0.026101959561943375
2560000000.0 -0.36676008514578307 0.35609285502245547
2580000000.0 0.13080213651794545 -0.5246323509826544
2600000000.0 -0.05785056794996564 0.563275217831383
2620000000.0 -0.03623145042136972 -0.5882897468095986
2640000000.0 0.29800639768415854 0.5287948296464695
2660000000.0 -0.5671892291643866 -0.25676167172126746
2680000000.0 0.39561228147533256 -0.49303598817644856
2700000000.0 0.6041068553694643 0.2164014703382188
2720000000.0 0.3767694812517071 0.5249143799593978
2740000000.0 0.19719659135463388 0.6160756073385166
2760000000.0 0.14402019118315978 0.6300044775048089
2780000000.0 -0.6242980171346042 -0.142475042986033
2800000000.0 -0.46100501432461516 -0.42842428555978784
2820000000.0 0.1626863886089642 -0.5942947250139421
2840000000.0 0.4385598300518044 0.41242328219646174
2860000000.0 -0.49358173328467414 -0.319211283194397
2880000000.0 0.2572761175099889 0.5072773162029893
2900000000.0 0.47290402697971934 -0.2771803758990105
2920000000.0 0.037371190615912785 -0.5276816912000336
2940000000.0 -0.39641785260456036 -0.30860366827096936
2960000000.0 -0.23208628256593253 -0.417339592403531
2980000000.0 -0.2608154752609033 -0.3767292515089046
3000000000.0 -0.3622739928317874 -0.2465164248152664
3020000000.0 -0.4100895973355457 0.08731639563037083
3040000000.0 0.053666713433247595 0.39779158493484457
3060000000.0 0.340042767515339 -0.1683005097636175
3080000000.0 -0.3382610338376116 -0.13833836344780992
3100000000.0 0.3240677649005674 0.1372726265255371
3120000000.0 0.27721228520890273 -0.20552396806221315
3140000000.0 -0.1721792594257238 0.2929283742134452
3160000000.0 0.06622774679427601 -0.3314716086987365
3180000000.0 0.04274962066885332 0.3328032346415399
3200000000.0 0.3229648820689767 -0.06298402312576465
3220000000.0 -0.2076269855655695 -0.2492379377653542
3240000000.0 -0.28331975856340536 -0.13964298389389634
3260000000.0 -0.3005189370098968 0.05580344981177664
3280000000.0 -0.2928249730713883 -0.0032227956610999006
3300000000.0 -0.2751744029508337 -0.02632695374394069
3320000000.0 -0.14384783467969575 -0.2082896285219733
3340000000.0 0.22212117410523446 0.05182400506906458
3360000000.0 -0.18300883395416095 0.09852731813007325
3380000000.0 0.10253743977261481 -0.15689084019788854
3400000000.0 0.13805152884971342 0.0920725656430392
3420000000.0 0.11204321635814388 0.08949853815233866
3440000000.0 -0.08228696916873629 0.09504787932821118
3460000000.0 0.02262284961400151 0.10428618282597149
3480000000.0 0.07189424063646527 -0.050504679145954814
3500000000.0 -0.05309357981247272 0.059979453901978994
3520000000.0 -0.0177748947781477 -0.07629258482842413
3540000000.0 0.05817233352218915 -0.05383633511611649
3560000000.0 0.06055587356950528 -0.06393386430208682
3580000000.0 -0.08874672545527819 0.025617782253496736
3600000000.0 -0.0977334289050367 -0.012756586929376373
3620000000.0 0.10281094541425993 -0.04268353267098458
3640000000.0 0.10432524807883901 0.06771674548059459
3660000000.0 -0.003083002552539516 0.134112816106237
3680000000.0 -0.007045541913083423 0.13909311185327633
3700000000.0 -0.08533111993262131 -0.10088669298624711
3720000000.0 0.07458311235322057 -0.09209089943405249
3740000000.0 -0.0752764409824091 -0.06502195770595162
3760000000.0 -0.023356734346243815 -0.07968403877374343
3780000000.0 -0.0642240525614525 0.006528212974479412
3800000000.0 -0.03327009465967703 0.008148510263088526
3820000000.0 0.0015911094187808007 -0.00016008918182522245
3840000000.0 -0.021221604238306786 -0.02754939475715885
3860000000.0 -0.022813917118336403 -0.059564853672111395
3880000000.0 0.06657805677722686 -0.06072095309773545
3900000000.0 -0.11026327241064922 -0.014104862377949301
3920000000.0 -0.10845816757724606 0.06379118858743882
3940000000.0 0.03910814968971108 0.12947322711193462
3960000000.0 -0.013549021528866775 0.13802961754518644
3980000000.0 0.11153461046719301 -0.0742312818183096
4000000000.0 -0.073525019209658 -0.08820818373541266
