!Created with skrf (http://scikit-rf.org).
# Hz S RI R 50.0 
!freq ReS11 ImS11
400000000.0 0.7643138772380016 0.4180269293882247
420000000.0 0.28404914591479546 0.7650724134441088
440000000.0 0.452814714064438 0.6115222452938619
460000000.0 -0.6352176771915282 -0.2572586772325194
480000000.0 0.1907059172785373 -0.5903341966148076
500000000.0 0.6420568937162748 -0.10310249298922253
520000000.0 -0.25509205317597694 0.6163656286300445
540000000.0 0.6674819436076581 -0.11667204167469318
560000000.0 -0.22091954350686416 0.633827988419139
580000000.0 -0.2794575111095691 0.43203406447798304
600000000.0 0.03273228640228773 0.5910399058290094
620000000.0 -0.24809745379820827 -0.557240193324628
640000000.0 -0.2987593660080053 -0.49041921765587687
660000000.0 0.38425800592176196 0.3653648388068123
680000000.0 0.08034339929567351 0.481090761729748
700000000.0 0.3302449925006809 0.29681438416752914
720000000.0 -0.2513394553643302 0.42181208269003884
740000000.0 0.3126834235172286 0.3547054652552635
760000000.0 0.22222841402949414 0.39067978192571984
780000000.0 -0.42135452363918025 0.09047357425829948
800000000.0 -0.14827775669112825 -0.366805605916781
820000000.0 0.23292930512419052 0.2619900228009269
840000000.0 -0.0011967808636288114 0.3222434644901592
860000000.0 0.24653584467033693 -0.1743692676143099
880000000.0 0.0010320172176043578 0.2756114672793106
900000000.0 -0.005002040350242028 0.26716436285887674
920000000.0 0.25557765903418667 -0.004895097569459273
940000000.0 0.10934423463240153 0.1944666350041491
960000000.0 -0.1762942818049284 0.028719404272711156
980000000.0 -0.03810999848466012 -0.1357882933040447
1000000000.0 -0.004445832428131815 0.13529262782675539
1020000000.0 -0.09690405518261504 -0.037476652234206514
1040000000.0 -0.041125491542774194 0.1034197387961034
1060000000.0 0.13705821539910798 -0.03400170683000525
1080000000.0 0.17098771317809025 0.08996312094451542
1100000000.0 0.06507539873019512 0.23260434922629386
1120000000.0 0.15762705848332448 -0.22673589828200286
1140000000.0 -0.2754320530406092 0.10995900405058771
1160000000.0 -0.29769798234929185 0.11565165675104166
1180000000.0 -0.32396072079016175 -0.09849068057166317
1200000000.0 -0.3379530656605369 -0.09553476852305412
1220000000.0 0.33716793249266247 -0.1134250803196503
1240000000.0 0.08849270620488943 0.3643477345415098
1260000000.0 0.38239004862490095 0.0879853535236425
1280000000.0 -0.36858960934712154 -0.11579025315536057
1300000000.0 -0.07741553780759014 -0.3724720081783833
1320000000.0 -0.04438794116374632 -0.37537542164759674
1340000000.0 -0.36790548528598543 0.030397408520985637
1360000000.0 0.23480663442643912 0.3105601009696024
1380000000.0 -0.11285455685352123 0.3843859941735296
1400000000.0 -0.2162267413973072 -0.3315399002248227
1420000000.0 0.026300156152787933 -0.3915110927292356
1440000000.0 -0.2372411336212873 -0.3175185237303355
1460000000.0 -0.38719772573637584 0.07217771130625344
1480000000.0 -0.3289228447276129 -0.22175822703856152
1500000000.0 0.17992918334047583 0.35629281783534517
1520000000.0 -0.37547737946339 0.10032824114433606
1540000000.0 0.3206025783148626 -0.16644782603906916
1560000000.0 -0.26923317660177926 0.19388476341222155
1580000000.0 -0.1633831193273075 -0.24188937154039744
1600000000.0 0.10987762147496041 -0.23327553540786053
1620000000.0 0.18033999221703775 -0.1246775303341835
1640000000.0 -0.13264110718354033 0.12449162938237215
1660000000.0 -0.021093351542409523 0.1521075452579228
1680000000.0 0.07833946447994972 -0.0815026209253799
1700000000.0 -0.06431435455428247 -0.08032743097259237
1720000000.0 -0.04745130673831166 -0.06297726152784888
1740000000.0 0.07861015297045311 -0.005376373533293406
1760000000.0 -0.03457775987171386 -0.0821453944744856
1780000000.0 0.09773205588349478 -0.0622849890051139
1800000000.0 0.039324098869237246 -0.13274275584468723
1820000000.0 -0.16942702915186506 0.007666218400543855
1840000000.0 0.18334315009287797 -0.06904751428584713
1860000000.0 -0.1965193550229196 0.10242823054921432
1880000000.0 -0.03151399181594165 0.25561044019629353
1900000000.0 0.09225026233411437 0.2594105744099835
1920000000.0 0.12076866011254285 -0.26793106882615136
1940000000.0 -0.29741133096055516 -0.0729230989906738
1960000000.0 0.30745191969369084 -0.01639248212952484
1980000000.0 -0.30244923511690874 -0.0810094981922766
2000000000.0 0.0666628564351489 -0.31397906417293875
2020000000.0 0.3187994608448731 -0.034403449582760315
2040000000.0 0.31622354587853135 -0.04803056139460066
2060000000.0 0.2856665178923744 0.1368566314442374
2080000000.0 0.12428414742837086 0.28996898836067436
2100000000.0 -0.03064044770737896 -0.3115115278061273
2120000000.0 0.28514041053525035 0.10855624495330729
2140000000.0 -0.16006309696881388 -0.2531276341301393
2160000000.0 -0.17478540759058128 0.2393715846155195
2180000000.0 0.08158679641306335 0.27731979766606524
2200000000.0 -0.12149470112780282 0.25711579170945786
2220000000.0 -0.1893474667551927 0.21099880700929885
2240000000.0 -0.23728764350881623 -0.14362691418026136
2260000000.0 0.22312918272870005 -0.15238397625532135
2280000000.0 0.2715548851779022 0.005002280518501759
2300000000.0 0.17940287522799953 0.18798688631107552
2320000000.0 -0.23507710978199467 -0.09976222058459217
2340000000.0 -0.09377292695766534 -0.2377755227038959
2360000000.0 0.2243099688453502 -0.12024050518735632
2380000000.0 0.026210541843151733 0.25608057545477214
2400000000.0 0.18141102156534306 0.2113882398561448
2420000000.0 -0.0010477519312017795 -0.2960170652253619
2440000000.0 -0.14707126997151615 0.2786316639809385
2460000000.0 0.3332996974707415 -0.05390921524474647
2480000000.0 0.09341340209794283 -0.3593336486773764
2500000000.0 0.14828705960366076 0.37770592482545384
2520000000.0 -0.4164442072762589 -0.1526432575587256
2540000000.0 0.464040572346635 -0.12023121754190413
2560000000.0 -0.28198139842560505 0.4261447398368058
2580000000.0 0.1464672830940925 -0.5200229593871494
2600000000.0 -0.11263351448173696 0.5551499229415687
2620000000.0 -0.0008079147830224653 -0.5895933961813862
2640000000.0 0.21973518406892514 0.564909490604014
2660000000.0 -0.5840729680318396 -0.21265371368130892
2680000000.0 0.3905603477209957 -0.49477472843451764
2700000000.0 0.6179648712949355 0.16636700701656634
2720000000.0 0.44985585494908364 0.4611118322852939
2740000000.0 0.29012316682597966 0.5767429893414092
2760000000.0 0.26638868842807417 0.5878788438961883
2780000000.0 -0.6326376649455998 -0.09399461175872624
2800000000.0 -0.501277680565105 -0.38191065015344644
2820000000.0 0.11721949061307449 -0.6060619972438297
2840000000.0 0.5042327063764457 0.32976629657010675
2860000000.0 -0.5195269809341527 -0.2739586948412531
2880000000.0 0.17884751572150334 0.5411437954713735
2900000000.0 0.4814797833609522 -0.26398589983993387
2920000000.0 0.05307154488041443 -0.5249432533605068
2940000000.0 -0.35736909236498354 -0.3533306363684564
2960000000.0 -0.2401655411354914 -0.4124739624100767
2980000000.0 -0.26744633049561867 -0.36915161639147276
3000000000.0 -0.3444475957019199 -0.26774201872054104
3020000000.0 -0.361351759080587 0.21424084413810462
3040000000.0 0.23262531504118747 0.32223237403866656
3060000000.0 0.36726696149487714 -0.09521891049688627
3080000000.0 -0.36696192758072216 0.010527036595865583
3100000000.0 0.34056829223524676 0.08616200530764515
3120000000.0 0.258186299105298 -0.23025073058685966
3140000000.0 -0.051688659293646716 0.33740765851324395
3160000000.0 0.11749360020467049 -0.3192039148650126
3180000000.0 0.07141483474960351 0.3289601483628963
3200000000.0 0.2987368905248862 -0.13903121534355073
3220000000.0 -0.13484109973329933 -0.29410893270874705
3240000000.0 -0.26283560097938585 -0.17600154793380224
3260000000.0 -0.2958756865676554 0.07239862958075592
3280000000.0 -0.29352990558179043 -0.0038037997409695015
3300000000.0 -0.2755248133982463 0.016039733528274133
3320000000.0 -0.17027241761880935 -0.18406251806397067
3340000000.0 0.22667338603209325 -0.029020577041564258
3360000000.0 -0.15158129201007517 0.13870526796377208
3380000000.0 0.030619032370055768 -0.18337207751336715
3400000000.0 0.16466590041226148 -0.026227020164587583
3420000000.0 0.13059998093302663 0.061408682824908495
3440000000.0 0.012883408758024538 0.12466290132347971
3460000000.0 0.09859080275151871 0.041058088584795885
3480000000.0 0.06515827176483989 -0.06015612224908818
3500000000.0 -0.0799240074542489 0.01996089434918006
3520000000.0 -0.0800143556385615 -0.0003782873201769451
3540000000.0 0.0707711862428342 -0.037609621503407326
3560000000.0 0.07996149440517378 0.03506654505029876
3580000000.0 -0.07350343061556713 -0.05820393176918091
3600000000.0 -0.09238513396083112 -0.03634968888644399
3620000000.0 0.11029861498853477 0.0015779643139813722
3640000000.0 0.028805981163522378 0.12047401705827535
3660000000.0 0.010063951902424295 0.13258752457248735
3680000000.0 0.020343400784962 0.13625501736005027
3700000000.0 -0.12021050303846414 -0.05405886576170414
3720000000.0 0.049230197506477856 -0.10813112756737163
3740000000.0 -0.09845503261286433 -0.022946756875687813
3760000000.0 -0.0797237224213041 -0.023905030794267132
3780000000.0 0.03359444898883097 0.05502054297027165
3800000000.0 -0.035079943575034724 -0.007201040627784086
3820000000.0 0.002129949551997055 -0.0033358197647028846
3840000000.0 -0.009300042686746945 -0.031968623518689315
3860000000.0 0.009792290026284928 -0.06218703197607913
3880000000.0 0.0840856162099188 -0.032819476773052726
3900000000.0 -0.1088669151108359 0.013366738729263972
3920000000.0 -0.0204619643227684 0.1233494982261873
3940000000.0 0.055043975676118274 0.12252941423272995
3960000000.0 0.060291321365821916 0.12479112212147572
3980000000.0 0.04616892771553491 -0.1271034663736719
4000000000.0 -0.09094080666225005 -0.06941737689844353
