!Created with skrf (http://scikit-rf.org).
# Hz S RI R 50.0 
!freq ReS11 ImS11
400000000.0 0.8484452354634171 -0.22171242070594657
420000000.0 0.7950676232877358 -0.24669576330185852
440000000.0 0.44736585919057414 -0.6280620140424159
460000000.0 0.2268455480131821 0.6589395783178432
480000000.0 0.3973031295789278 -0.4399426750049848
500000000.0 0.5204300807553167 0.35135266115130886
520000000.0 0.3886289260731546 -0.5024861774095962
540000000.0 0.2993036459247138 -0.5253967541450087
560000000.0 0.591786950080331 0.19419972010668377
580000000.0 0.5276490891150727 0.016131092870148852
600000000.0 0.016022195668214625 0.5962879140755404
620000000.0 -0.158501280560399 -0.5798940781343535
640000000.0 -0.3206827107475718 -0.46589277096046666
660000000.0 -0.17292696682979153 0.4880514061140618
680000000.0 -0.05436616869793651 -0.4770897034179995
700000000.0 0.29739457099631467 0.39238610492524395
720000000.0 0.4652185457328179 0.18235652261903781
740000000.0 0.4191758747785053 0.22239057254155217
760000000.0 -0.0805035932777703 0.44742966137555173
780000000.0 -0.3468189534701092 -0.28516948710045
800000000.0 0.016052545287823808 -0.40845826458155315
820000000.0 0.35288193654010747 -0.06852120473536634
840000000.0 -0.2856191264799912 -0.16444256301964807
860000000.0 0.26734526988449697 -0.16523517789824288
880000000.0 0.2641193581484801 0.09980228701576609
900000000.0 0.07382546880100557 0.26226691285510556
920000000.0 -0.04341025763942129 -0.25786623258527364
940000000.0 -0.07601083516656428 -0.20808676926213898
960000000.0 0.11639243115849172 -0.11332671289055202
980000000.0 -0.0062461487130598126 -0.13582982595681775
1000000000.0 0.11669188844519975 -0.07010793414807466
1020000000.0 0.08944368458404968 0.07297247457779962
1040000000.0 0.11528946322573609 -0.06546805578367174
1060000000.0 -0.015567037504519689 -0.15131268662060995
1080000000.0 -0.1091208238991194 0.1686492719034762
1100000000.0 -0.002529455563654055 -0.2472178809551501
1120000000.0 -0.2308400518626121 -0.16267116836944143
1140000000.0 -0.16566469618734778 0.25942410395781296
1160000000.0 0.30809555479319556 0.12183731669068501
1180000000.0 0.12592502681740614 0.3127790576683887
1200000000.0 -0.3354722756921194 -0.11802085635802421
1220000000.0 0.16474870468821437 -0.32741947948831057
1240000000.0 0.378005556096949 -0.02445362049147563
1260000000.0 0.02751187776216356 -0.3951161671105457
1280000000.0 -0.17190129399855456 0.3386573696927452
1300000000.0 0.2420005085474772 -0.2694691902103865
1320000000.0 0.33202626903397153 -0.18135652100561503
1340000000.0 -0.33099700798783194 0.160072125684323
1360000000.0 0.32317103480795506 0.21032670157710104
1380000000.0 -0.06262783648536845 0.3861726349253324
1400000000.0 -0.021390705697796126 -0.3810523671649552
1420000000.0 0.36290244086714535 -0.13296504245165391
1440000000.0 -0.16060043813937647 -0.3525401098614021
1460000000.0 -0.26330745985179915 -0.2826453049258111
1480000000.0 -0.09883291104574192 -0.3800136450146029
1500000000.0 -0.28950073740871507 0.2643758089406094
1520000000.0 0.1117727562772868 -0.36853150746418034
1540000000.0 -0.08221072251343654 0.3524268870473908
1560000000.0 -0.2672770689293071 -0.1949754782320172
1580000000.0 0.2906020006295395 0.040948779183706104
1600000000.0 0.2614248512427959 -0.015307769938700767
1620000000.0 0.07036610372962915 0.20138167781941166
1640000000.0 0.05620828393647768 0.17928581261391724
1660000000.0 0.0716335996342214 -0.14043773604586188
1680000000.0 -0.1127717916676672 -0.04723238550083014
1700000000.0 0.11375009893839069 0.03032674696617914
1720000000.0 0.010450449164530924 -0.09321359542473254
1740000000.0 0.08188137459294013 -0.011042626934273136
1760000000.0 0.08030887158289875 0.04570625551420861
1780000000.0 -0.1018749309403871 0.03691706568997793
1800000000.0 0.08539178029854241 0.09618068908518419
1820000000.0 0.11889719914929432 0.10532754260773412
1840000000.0 -0.06350310193723498 -0.18166103360687216
1860000000.0 -0.046204588351980824 0.2123982266426373
1880000000.0 0.23847626242986852 0.08129998286973436
1900000000.0 0.2697635015249192 0.03445574715688919
1920000000.0 0.021047578841414907 -0.29264156064504065
1940000000.0 -0.3034319066128101 0.03637345446955368
1960000000.0 0.19946704559153763 -0.235930533684743
1980000000.0 -0.3115660889344478 -0.002515791105301971
2000000000.0 0.11562487122077325 -0.29868569107723847
2020000000.0 0.19242771459942987 -0.26104120361230887
2040000000.0 0.3226245972688574 0.005914531547361654
2060000000.0 0.20506343395898638 0.24783249711056476
2080000000.0 -0.006145071783973594 0.3275769729285785
2100000000.0 -0.1482933965826357 -0.287417310919166
2120000000.0 0.2224243699945137 0.22766513175509284
2140000000.0 -0.22862951839432133 -0.22521700467595387
2160000000.0 0.17216793648271556 0.2680332629601379
2180000000.0 0.2726071326409365 -0.14731989989347008
2200000000.0 0.2250038118326368 -0.20625489100611094
2220000000.0 0.10853754006489418 -0.27627821404728203
2240000000.0 0.2816327026467132 -0.07167371455273185
2260000000.0 0.08245046745675107 0.2629660699763657
2280000000.0 -0.1900477674353628 0.18906936948810332
2300000000.0 -0.0243290740968069 -0.24925057002405973
2320000000.0 -0.14555180693620595 0.19633301339475204
2340000000.0 -0.02512975937688683 -0.24318022618526036
2360000000.0 0.07233235424213946 0.23258237527493553
2380000000.0 -0.09805994102918153 -0.23686752112680007
2400000000.0 -0.24932682307032664 0.13264430866829466
2420000000.0 0.26701330953810404 0.1427011554440772
2440000000.0 -0.17473233475990974 -0.2772960959285109
2460000000.0 0.15354798234998274 0.3216046178833563
2480000000.0 0.20008594072930966 -0.33541037186795436
2500000000.0 0.3099966489523099 0.2943640756201213
2520000000.0 -0.44496320582835164 0.13336030908411536
2540000000.0 0.1828886598871658 -0.4602962356071994
2560000000.0 0.08619982730472996 0.5176600514758783
2580000000.0 -0.2560533186656057 -0.4894016223102787
2600000000.0 0.3118121418784389 0.48420618674273513
2620000000.0 -0.3561632152349518 -0.47718408696101133
2640000000.0 0.4751085871206096 0.3838168907549762
2660000000.0 -0.6246975869471072 0.03949563415979947
2680000000.0 0.13224359646462044 -0.6198399493894258
2700000000.0 0.6202113856252692 -0.16723670600706206
2720000000.0 0.6353879446729073 0.12496781975735363
2740000000.0 0.5733741506158804 0.3043337083105694
2760000000.0 0.544304507453245 0.3547911196919767
2780000000.0 -0.5221420358199662 0.37668015245558883
2800000000.0 -0.630477137375947 0.07293840262734276
2820000000.0 -0.3999960966485313 -0.4781199925022249
2840000000.0 0.554233345942254 -0.2553780415885386
2860000000.0 -0.41175373688416617 0.4277396948842298
2880000000.0 0.5498729527381582 -0.16399840246343206
2900000000.0 -0.26351242069589054 -0.4853612942131135
2920000000.0 -0.5264330076633278 0.045523939221717574
2940000000.0 -0.3000791105504343 0.3983749795689198
2960000000.0 -0.2959057739567275 0.3695010347916901
2980000000.0 -0.2794389394565266 0.34791235014565947
3000000000.0 -0.1259249189722163 0.407325625898653
3020000000.0 0.0698093060231731 0.3975934572592253
3040000000.0 0.26543351897110334 0.27689423322864787
3060000000.0 0.2697356251294846 -0.2519233907869063
3080000000.0 -0.34340492719693805 -0.09563508227075618
3100000000.0 0.2652447944449291 0.22501793697946967
3120000000.0 0.27636192243946134 -0.20370512115291248
3140000000.0 -0.3225818390799354 0.1154726344446904
3160000000.0 0.33887728817877233 -0.05467039039958957
3180000000.0 -0.34065098629220053 0.04191749113329755
3200000000.0 0.06033068377938354 0.3380793066984404
3220000000.0 0.25383291526825685 -0.22498905003761155
3240000000.0 0.068120253289606 -0.32691900605831226
3260000000.0 -0.19547784854955938 -0.2630031814030873
3280000000.0 -0.31745700140055855 0.001929316778101189
3300000000.0 -0.1965775343325406 0.2261078753726965
3320000000.0 -0.046724862629760756 0.2695003332177666
3340000000.0 -0.24725689997591674 0.03151747170247346
3360000000.0 -0.192519281760523 0.11075886135365877
3380000000.0 -0.0650235170205647 -0.18153331662777586
3400000000.0 0.034892178101411105 -0.16585633879508352
3420000000.0 -0.03820088781312468 -0.13760828374622355
3440000000.0 0.03262764048595746 -0.11417478985892325
3460000000.0 0.09540890369998149 0.00687637292665586
3480000000.0 -0.07617192635302386 -0.019051624648440166
3500000000.0 -0.055545714024522456 -0.046436283500111815
3520000000.0 0.028817571530090312 -0.06615918250023392
3540000000.0 -0.07436190909895822 0.02077631701255168
3560000000.0 -0.061174385068539276 0.05831085659105402
3580000000.0 0.05669950470639559 0.07639015474885347
3600000000.0 0.019396845353143198 -0.10034580428524771
3620000000.0 0.1080137499960041 0.05118408846691936
3640000000.0 -0.057998965157776056 -0.12017871217871172
3660000000.0 -0.12375518866085114 -0.07861068804855999
3680000000.0 0.12041536854293974 0.0919075969019793
3700000000.0 0.09656127035479224 0.10886562304879577
3720000000.0 0.12644351266234483 -0.028153876896087983
3740000000.0 0.09941568066935076 0.0291104526639909
3760000000.0 0.048942095077258774 -0.064592054345455
3780000000.0 0.05568844749881903 -0.02097935715800576
3800000000.0 0.026667994404509683 -0.004127349718443444
3820000000.0 0.009073993889591346 0.0020428970069420924
3840000000.0 -0.048441524909836484 -0.0027541738770208092
3860000000.0 0.03721765866927649 0.07030446769523957
3880000000.0 -0.08324283449029027 -0.06575512067959198
3900000000.0 0.11161901390967607 0.06496203619297615
3920000000.0 -0.13130391362431157 -0.060434978594565945
3940000000.0 -0.034506764309204345 0.14892628149011508
3960000000.0 0.1312105599277251 -0.08905446154462512
3980000000.0 0.14676743487388952 0.030668970939746184
4000000000.0 -0.11924982255356897 -0.039936502455981876
