!Created with skrf (http://scikit-rf.org).
# Hz S RI R 50.0 
!freq ReS11 ImS11
400000000.0 0.8218433960427113 -0.30713352967688784
420000000.0 0.7785514748920674 -0.2933833455997071
440000000.0 0.4715068468933077 -0.6115145794269237
460000000.0 0.2878429893679073 0.6342114435305563
480000000.0 0.43711072634611287 -0.39973989638890095
500000000.0 0.5765098883932449 0.25007497581568616
520000000.0 0.4553944801659532 -0.4479451253769619
540000000.0 0.14417465143000346 -0.5881096826069946
560000000.0 0.49308325104152184 0.3820314653830537
580000000.0 0.5018194655569179 0.15206907574231848
600000000.0 -0.13140294898346783 0.5805943012820874
620000000.0 0.012853179183221373 -0.6039242138487897
640000000.0 -0.49175247251601806 -0.27831318097852814
660000000.0 0.12138205258571905 0.5008442660996247
680000000.0 0.4334618913100194 -0.20637231765206737
700000000.0 0.29202143227510385 0.40205352869749816
720000000.0 0.49785965382579633 0.013218948786290914
740000000.0 0.2138458092598169 0.4278471948981648
760000000.0 0.13963063631450168 0.43816529725705544
780000000.0 -0.43887024253218354 -0.08298213506401776
800000000.0 -0.158933577759954 -0.3669668510518063
820000000.0 -0.17247416442983296 0.31761462130254225
840000000.0 -0.3322625571380874 0.057548832480814924
860000000.0 0.20516249331635186 -0.23698841170612964
880000000.0 0.27746915066278327 -0.04081851896312096
900000000.0 0.2681351016845698 -0.05286614911267935
920000000.0 0.02044127226596348 -0.25072897834072894
940000000.0 0.17557595651782598 0.13167440506799594
960000000.0 0.02582497722465112 0.1693542212566416
980000000.0 0.06409544604720656 0.1306163673359619
1000000000.0 -0.1326157962559942 0.007932240313377135
1020000000.0 -0.05639164680634244 -0.09413363708755589
1040000000.0 -0.08537249215127403 0.0871914823320576
1060000000.0 0.09358696030493902 -0.12343845729448634
1080000000.0 -0.16327752504814164 0.11689870137417432
1100000000.0 0.01838354023184489 -0.24827802490797274
1120000000.0 -0.17126987706133356 -0.22762493222426103
1140000000.0 0.016198247740966027 0.3095344137964385
1160000000.0 0.30892337037736933 0.10401299304590761
1180000000.0 -0.031052676223802488 0.3387264567822158
1200000000.0 -0.35085611359551017 -0.05116222742969292
1220000000.0 0.29917832314324655 -0.21403736572972562
1240000000.0 0.37133371049108305 -0.08290303712123512
1260000000.0 -0.03474267530974234 -0.3935648163478486
1280000000.0 -0.24395644710395098 0.2865892852939444
1300000000.0 0.17359791264246283 -0.3220655269862909
1320000000.0 0.3265489244195415 -0.18543286070534637
1340000000.0 -0.34891211210830125 0.11870942181554303
1360000000.0 0.22918073016232937 0.3119182147162527
1380000000.0 0.024892277517780538 0.390319758504303
1400000000.0 0.08370293579925005 -0.37252501720741427
1420000000.0 0.3541057158040386 -0.1546938113389312
1440000000.0 -0.1774960289445036 -0.3439049317999465
1460000000.0 -0.29286169424131553 -0.24977493265844083
1480000000.0 -0.01385238633314208 -0.39209675541876593
1500000000.0 -0.32345407610930443 0.22274201195218976
1520000000.0 0.06286782163744085 -0.38002322212324957
1540000000.0 0.06419410548922494 0.35489577726042465
1560000000.0 -0.22941719555059806 -0.23604003295032416
1580000000.0 0.28271149319086947 0.08264623670840285
1600000000.0 0.2541876566112414 -0.06760021180128124
1620000000.0 0.0669989523254795 0.20142779389668547
1640000000.0 0.04526794191839226 0.18275562592486763
1660000000.0 0.15115341252630746 -0.05237806101209665
1680000000.0 -0.026766801440397427 -0.11858566027208756
1700000000.0 0.10999962080893444 0.04528246460004822
1720000000.0 -0.014346134097314342 -0.0910858659511828
1740000000.0 0.001671781525017168 -0.08331100256333591
1760000000.0 -0.08518704286165299 0.033391247127084946
1780000000.0 -0.07504413767109071 0.07843623008003243
1800000000.0 0.09263796152188383 0.09009234050275094
1820000000.0 0.1410641902830626 0.07429096572645859
1840000000.0 0.0479376738782169 -0.186654213826426
1860000000.0 0.03720657111456752 0.2153598928604936
1880000000.0 0.19168082514530638 0.1642364438668507
1900000000.0 0.27085813475869513 0.02939195372081849
1920000000.0 -0.0701846117558294 -0.2843848743216776
1940000000.0 -0.3027080172266992 0.02698436998864463
1960000000.0 0.26194106124048727 -0.1662572520330253
1980000000.0 -0.3027147471215108 0.08074176083814219
2000000000.0 0.07016359509901926 -0.31241514238644613
2020000000.0 0.2960756053308379 -0.1281965589812883
2040000000.0 0.32377618014561976 0.006516198987632086
2060000000.0 0.20982640520290896 0.24483574991209048
2080000000.0 0.097889457896365 0.31158761597438056
2100000000.0 -0.020080344777716214 -0.32145531677834627
2120000000.0 0.2121440149063849 0.23853940671074772
2140000000.0 -0.20952951413679557 -0.24314222500346128
2160000000.0 0.1724083703629768 0.26676900984745716
2180000000.0 0.2412482862537869 -0.1916678805382836
2200000000.0 0.2671209362701116 -0.14393089605531084
2220000000.0 0.11970358864151005 -0.27447024425605526
2240000000.0 0.2555232122184539 -0.13470626968971552
2260000000.0 -0.03603724375775727 0.27150260026268097
2280000000.0 -0.2114867460205279 0.1663809629549454
2300000000.0 -0.09256832501507326 -0.23239465521638333
2320000000.0 -0.1255571630334835 0.2084300467763998
2340000000.0 0.03941377797670204 -0.24118371233597263
2360000000.0 0.1355965320572714 0.20384097792578734
2380000000.0 -0.09285084449729657 -0.23842253742070052
2400000000.0 -0.2826573170548021 0.003652227516420384
2420000000.0 0.25399196880265296 0.16553066609882672
2440000000.0 -0.17922287540557366 -0.27490874702440127
2460000000.0 0.16182028984588068 0.31692280637878795
2480000000.0 0.27022087437047787 -0.2816150072731958
2500000000.0 0.15119024435216996 0.39953375686801057
2520000000.0 -0.46118590764011036 0.045294958124461375
2540000000.0 0.21143323600054173 -0.4469157575433878
2560000000.0 0.0747785810751934 0.5187062371069109
2580000000.0 -0.18863747346577142 -0.5191798372511615
2600000000.0 0.25244798946994645 0.5179395113445522
2620000000.0 -0.40213724617512575 -0.43835026695646107
2640000000.0 0.478477118486436 0.37962581984620203
2660000000.0 -0.6245434067349505 0.04163056755735794
2680000000.0 0.12163780019328807 -0.6227048462436403
2700000000.0 0.6275415853557753 -0.14151269263550792
2720000000.0 0.6184174208116017 0.19315830838700118
2740000000.0 0.5817834053776784 0.28868538553253165
2760000000.0 0.5389661038502467 0.3627395602257062
2780000000.0 -0.5244276610587506 0.37384412782153015
2800000000.0 -0.631962479474254 0.05834847917178839
2820000000.0 -0.38007423571081583 -0.49387389372168417
2840000000.0 0.5742884206027943 -0.20289986147981662
2860000000.0 -0.4001225068883924 0.4385910119538334
2880000000.0 0.5616580924551247 -0.11596274438284243
2900000000.0 -0.27513704777800696 -0.4788046446906565
2920000000.0 -0.522736010022016 0.07760307996148524
2940000000.0 -0.2812022357570781 0.4119628506121381
2960000000.0 -0.3160568831293554 0.351539787749941
2980000000.0 -0.33843902883152893 0.29365712616798456
3000000000.0 -0.17966699290475588 0.38723575226859785
3020000000.0 0.041221838380201416 0.40147199249162413
3040000000.0 0.29333618357334557 0.24864612596108784
3060000000.0 0.2798904903366393 -0.24112975026074518
3080000000.0 -0.3503578886292497 -0.07292749613688389
3100000000.0 0.24146317334780718 0.2515204671431997
3120000000.0 0.2791752708920256 -0.2017733944516128
3140000000.0 -0.34023159662577035 0.04102309013414258
3160000000.0 0.3420897525779261 0.013888574141437432
3180000000.0 -0.34153833388038474 -0.04338524447113808
3200000000.0 0.0011449324865033133 0.342729325768318
3220000000.0 0.27507915554065465 -0.19859597838286325
3240000000.0 0.09979452801522863 -0.31747078234973747
3260000000.0 -0.1458057033536068 -0.29177879491913455
3280000000.0 -0.2949774486133226 -0.11393446942528478
3300000000.0 -0.1922984418044029 0.2284931255789889
3320000000.0 -0.03470359897466233 0.26878598152641897
3340000000.0 -0.22823034199115919 0.09203590001163725
3360000000.0 -0.21658873808350185 0.04475852869081365
3380000000.0 -0.09708977150832986 -0.16696203955672742
3400000000.0 -0.07599487601254129 -0.1494466749912963
3420000000.0 -0.01668673349932811 -0.139882508921433
3440000000.0 -0.011688864406180388 -0.11785648618141022
3460000000.0 0.08183415866291242 -0.04511691789996277
3480000000.0 -0.07299229499454694 0.026109983370409002
3500000000.0 -0.0682362194699572 0.027321438272424673
3520000000.0 -0.07144039938833768 0.0009634406166097569
3540000000.0 0.006793960588100116 0.07785844504592006
3560000000.0 -0.043176406823750076 0.07368485452044242
3580000000.0 0.08257015795525627 0.04983198313027891
3600000000.0 0.03939677297085191 -0.09644613987476981
3620000000.0 0.09320227539074176 0.07745537735438363
3640000000.0 0.03181503241922589 -0.13075955127841973
3660000000.0 -0.06399000555013723 -0.13151749729591278
3680000000.0 0.10441240443295237 0.10912771551099688
3700000000.0 0.07734193893426673 0.12054958080967913
3720000000.0 0.11447340681886659 0.05690730472089091
3740000000.0 0.10140569237826351 0.015564472016356546
3760000000.0 -0.061462439377256574 -0.050713406099081815
3780000000.0 0.054713076992912585 -0.021349055369045442
3800000000.0 -0.026036917429784073 -0.003959610725628065
3820000000.0 0.007309263505831823 0.008747416902709493
3840000000.0 -0.024414252238546374 0.04147537968858408
3860000000.0 -0.032971482617208045 0.07067067253160408
3880000000.0 0.00666016254911052 -0.10518885828578169
3900000000.0 0.08769611712605695 0.09531707220116355
3920000000.0 -0.14231094711823425 -0.02045029934048735
3940000000.0 -0.042534394487836746 0.1452989868793686
3960000000.0 0.14386152334431515 -0.05983190579406084
3980000000.0 0.13273750103052592 0.0617671873699017
4000000000.0 -0.12000426126697825 0.0381053889235862
