!Created with skrf (http://scikit-rf.org).
# Hz S RI R 50.0 
!freq ReS11 ImS11
400000000.0 0.7750546756693133 0.39834545976847247
420000000.0 0.28508066769795704 0.7653050809918176
440000000.0 0.393253785777266 0.6500580113324905
460000000.0 -0.6009197863145163 -0.3344694194941178
480000000.0 -0.09890632302360018 -0.6101681085162484
500000000.0 0.6446868621490349 -0.11769273061900705
520000000.0 -0.31419436148655455 0.5900959597681528
540000000.0 0.6572311151238438 -0.1714687763592607
560000000.0 -0.3540083437996609 0.5688309226247782
580000000.0 -0.18091627088512965 0.4884343726738201
600000000.0 -0.11916436725556423 0.5789726908747658
620000000.0 -0.3375650601596809 -0.5132170622116259
640000000.0 -0.450819977105585 -0.35009515893524695
660000000.0 0.20568692590524085 0.4809755150268698
680000000.0 0.22027547217943663 0.4420013508740996
700000000.0 0.4254351820599363 0.14304435520813305
720000000.0 -0.3967266972503885 0.28581833370279447
740000000.0 0.3762439588953121 0.28800613993999846
760000000.0 0.20081288620589868 0.399990509920394
780000000.0 -0.42527015086069553 -0.0704832960292195
800000000.0 0.1281881078137189 -0.3760773699188885
820000000.0 0.2979913781864951 0.18521806174127814
840000000.0 -0.06444527959014205 0.3169477528475968
860000000.0 0.16385831779617283 -0.25307417092452883
880000000.0 0.2065833322899065 0.17667215075844822
900000000.0 -0.1399750620863591 0.22899556774130533
920000000.0 0.22331198767291338 -0.132148959404456
940000000.0 0.028616426584535837 0.22293709585476407
960000000.0 -0.17985691128645567 0.010752718222861312
980000000.0 -0.12590184503629945 -0.070379612755799
1000000000.0 0.11211361685635741 0.06855165156032647
1020000000.0 -0.09684935235523963 0.026348723029596968
1040000000.0 -0.024722708308075596 0.10902692257059803
1060000000.0 0.11760077716940401 0.08252776614283469
1080000000.0 0.17603802549088324 0.08545782140782521
1100000000.0 0.11415417442507599 0.21303582773946747
1120000000.0 0.18327407024830067 -0.2065984673336836
1140000000.0 -0.29711401941147747 0.03363454956644002
1160000000.0 -0.31368661723949515 -0.05301782672666474
1180000000.0 -0.335894599140202 -0.04398875070109647
1200000000.0 -0.3361881123589514 -0.10421861594525028
1220000000.0 0.35373719971983897 0.010790788881912134
1240000000.0 0.0985011768081673 0.36410550738535186
1260000000.0 0.36471412426482347 -0.1488635005437541
1280000000.0 -0.370859248761786 -0.10226008963513535
1300000000.0 -0.0794996134905626 -0.370436043605843
1320000000.0 -0.1253498976742494 -0.35898264391563295
1340000000.0 -0.3664146066543077 0.03197982897479063
1360000000.0 0.22573759836849105 0.3206185052005326
1380000000.0 -0.10436404116685687 0.38677845317940224
1400000000.0 -0.08886272491397448 -0.3854240772580567
1420000000.0 0.13720944915819802 -0.36746514315988676
1440000000.0 -0.22045065650015946 -0.3299202948546948
1460000000.0 -0.39501241612436394 -0.02397752706133941
1480000000.0 -0.35835852599371315 -0.16553051224979712
1500000000.0 0.04819542531051404 0.39573361675228225
1520000000.0 -0.38221096947486516 -0.054679152002222564
1540000000.0 0.3397801243701059 -0.1283325856376933
1560000000.0 -0.13923441882049684 0.2970973262181382
1580000000.0 -0.11453627956192194 -0.2688968165116293
1600000000.0 0.053473623446108266 -0.25363469522236837
1620000000.0 0.18040194409148952 -0.12140933126412416
1640000000.0 -0.16865627508273612 0.07612631241464632
1660000000.0 -0.04715968049190746 0.14636413846947954
1680000000.0 0.07916694221642312 -0.08199258244859024
1700000000.0 -0.030450505649371174 -0.09754871811145188
1720000000.0 0.02083299648546092 -0.08014662756694428
1740000000.0 0.052349835472938325 -0.05692485096173832
1760000000.0 0.05860381409317121 -0.06817768758208873
1780000000.0 0.10660991775419576 -0.049415062954965124
1800000000.0 0.027172960739916915 -0.13572525204893854
1820000000.0 -0.167540866221317 -0.008924861372597456
1840000000.0 0.18764451022824655 -0.05910143880349921
1860000000.0 -0.21536875426774044 0.05340429921515227
1880000000.0 -0.04227056452306027 0.2511604002381271
1900000000.0 0.05106316207254955 0.2697402449611071
1920000000.0 0.18207732610870442 -0.2310518591206273
1940000000.0 -0.3035569993145519 0.021357529944350553
1960000000.0 0.2901113148105669 -0.10269397930607109
1980000000.0 -0.2789692472853503 -0.1424198114536148
2000000000.0 0.06292710655500044 -0.31561002349853107
2020000000.0 0.28598039231999667 -0.14732317575393064
2040000000.0 0.31943592241210433 0.028429634794849622
2060000000.0 0.26488076686460055 0.17502367275074304
2080000000.0 0.03546602054082965 0.3155982288144226
2100000000.0 0.043173837195868335 -0.3117490508721003
2120000000.0 0.2675394660760318 0.1440866190535507
2140000000.0 0.00014951736555122056 -0.2992998680728357
2160000000.0 -0.2658871397743168 0.13199714621365027
2180000000.0 -0.011674419061962156 0.28815211662012874
2200000000.0 -0.1522078085124951 0.23877588873357453
2220000000.0 -0.16393830506205817 0.22954611618173654
2240000000.0 -0.1699536934210378 -0.21625803487022494
2260000000.0 0.14440084413612034 -0.228905792536091
2280000000.0 0.2722256198808547 -0.004689120309009516
2300000000.0 0.2595844777181241 0.00972914619500115
2320000000.0 -0.25043399805663236 -0.0433647490833053
2340000000.0 -0.06024062227449504 -0.24958073820981036
2360000000.0 0.20336374274994212 -0.15636680617841545
2380000000.0 0.11178755407174391 0.2331504145390539
2400000000.0 0.20329728699417865 0.19166927471973558
2420000000.0 0.1400175646870155 -0.262717279340089
2440000000.0 -0.24887295010125707 0.19474986518700305
2460000000.0 0.3195549078838207 0.11260911689814722
2480000000.0 0.18891303880540125 -0.3201483855941797
2500000000.0 0.008032803770150365 0.405780214631852
2520000000.0 -0.34015600658628137 -0.28420419042564815
2540000000.0 0.47151361604167497 -0.07889090557213795
2560000000.0 -0.3210388479431474 0.3961424037354502
2580000000.0 0.18582564940453009 -0.5069887936442041
2600000000.0 -0.05944669333643633 0.5632612637971881
2620000000.0 -0.057147154861832694 -0.5869085259586069
2640000000.0 0.26504066444921504 0.546010673761731
2660000000.0 -0.5673641409175604 -0.257775562151092
2680000000.0 0.44006380845826776 -0.45504219668122614
2700000000.0 0.6165246525016361 0.17778369844986028
2720000000.0 0.3576168910415673 0.5392784591037132
2740000000.0 0.12426736434129035 0.6356394241265503
2760000000.0 0.06817898424171372 0.6432580084763988
2780000000.0 -0.597555869483152 -0.2280370803260211
2800000000.0 -0.42330601609859686 -0.465313916649337
2820000000.0 0.18540829722624588 -0.5881592757984587
2840000000.0 0.41767557446087666 0.43320599336688087
2860000000.0 -0.4807570858782612 -0.33743737722699135
2880000000.0 0.22103376380507564 0.5249816962409285
2900000000.0 0.4055447903536623 -0.3697241508233352
2920000000.0 0.03852896648481544 -0.5261425690055832
2940000000.0 -0.3567732453162826 -0.3554835631433858
2960000000.0 -0.20312857898637002 -0.43477516235006675
2980000000.0 -0.3332364485602071 -0.3148903766316499
3000000000.0 -0.3448444299881214 -0.26895365076891664
3020000000.0 -0.4167541942295891 0.0630676890573831
3040000000.0 0.06275421094314888 0.3957754863857199
3060000000.0 0.36368677413225026 -0.11185984892235712
3080000000.0 -0.3427053526203694 -0.12771914344457752
3100000000.0 0.29043243166888094 0.19660938859743307
3120000000.0 0.3074947808567908 -0.1560694511625583
3140000000.0 -0.17950134176954488 0.28890219741875656
3160000000.0 0.08882335110631562 -0.32508016453182487
3180000000.0 0.06353890375067303 0.3287699830556265
3200000000.0 0.3124831360715171 -0.10429404645701773
3220000000.0 -0.21558797939675364 -0.2422418378340376
3240000000.0 -0.3014257393391289 -0.09737831030854681
3260000000.0 -0.2838058432805361 0.1125872738616024
3280000000.0 -0.29222397785616167 -0.03646115309268771
3300000000.0 -0.2747530779745362 -0.03758065190827036
3320000000.0 -0.15952908813615752 -0.1980292480594113
3340000000.0 0.22252013116798947 0.05206837763059367
3360000000.0 -0.1911061692077106 0.08015885262937476
3380000000.0 0.13058360323735152 -0.13567950899540837
3400000000.0 0.14627368612170233 0.08122673526349504
3420000000.0 0.10391459067177732 0.09839601396726576
3440000000.0 -0.07716643435837339 0.09830671847981567
3460000000.0 -0.0715747500240113 0.07927295540464376
3480000000.0 0.0786221690300662 -0.040516058503429875
3500000000.0 -0.007239066685352575 0.07970892977487988
3520000000.0 -0.041467641026762175 -0.06482147304501595
3540000000.0 0.05029537668262021 -0.05901931101148596
3560000000.0 0.0788695460336533 0.03962403353112931
3580000000.0 -0.06924826192356234 0.06400326237787857
3600000000.0 -0.030409316953910172 0.093073199814679
3620000000.0 0.09216314712944826 -0.060001924538435336
3640000000.0 0.04024859396167138 0.11865638477205902
3660000000.0 -0.018918221362559846 0.13486529337916506
3680000000.0 0.07824668736842802 0.11705003262055513
3700000000.0 -0.12320138612529839 -0.04540323583821779
3720000000.0 0.11143114167939001 0.04204882151566393
3740000000.0 -0.03861045642946893 -0.09338596966427701
3760000000.0 -0.014443817005030335 -0.08264292678037106
3780000000.0 -0.04705312397426446 0.042267281708863576
3800000000.0 0.013436669547423969 -0.0301259036694504
3820000000.0 0.002328719353237878 0.0004301608485166939
3840000000.0 -0.033656958463987634 0.007708040599407034
3860000000.0 0.05590103292230281 -0.03204822227916292
3880000000.0 0.09106707297487346 -0.01834280582499964
3900000000.0 -0.1080816085600696 0.030895266085087643
3920000000.0 -0.10209798845810521 0.07226855907834251
3940000000.0 -0.1331498794105735 0.026387376921851894
3960000000.0 -0.10684509660653534 0.09175116647746846
3980000000.0 0.04574511273117761 -0.1260663806132068
4000000000.0 0.07935686798865363 -0.07914962253308086
