!Created with skrf (http://scikit-rf.org).
# Hz S RI R 50.0 
!freq ReS11 ImS11
400000000.0 0.7864334310417518 0.37523434075697326
420000000.0 0.19037359284904481 0.7937160309145348
440000000.0 0.34186998132374974 0.6833135023756325
460000000.0 -0.6514319137686994 -0.22552246051077132
480000000.0 -0.3904175123731431 -0.479585508710811
500000000.0 0.6470655590416274 -0.05550806450872668
520000000.0 -0.26516017662300767 0.6174254581337661
540000000.0 0.5987364330786874 -0.3165578850557996
560000000.0 -0.37576231796066895 0.5427958733313666
580000000.0 -0.5187325925182497 -0.0034864345730673285
600000000.0 -0.4534512313777093 0.3886481876273896
620000000.0 -0.1512770716478957 -0.6034886969445823
640000000.0 -0.5749572431616311 0.09558278443497288
660000000.0 0.49880854875667807 -0.17488691489906966
680000000.0 0.2795172804905611 0.39011839944336174
700000000.0 0.3060488116127698 0.3198921359982577
720000000.0 -0.4893362676294186 -0.028421169303532303
740000000.0 0.20685746269155778 0.43382930042293294
760000000.0 0.3187325368464682 0.3123776695686203
780000000.0 -0.4154050230977529 0.08947747189617505
800000000.0 0.3750103972828745 -0.128906952721027
820000000.0 0.23894760317339023 0.27381789820998376
840000000.0 0.3296447467277706 0.026034422037880863
860000000.0 -0.2615362397829704 -0.13483736472241473
880000000.0 0.26161376142441733 0.021004668007087966
900000000.0 -0.237398309163462 0.11815514776722746
920000000.0 -0.07203658872964075 0.25009397731425936
940000000.0 0.1557238199665417 0.1685461932831784
960000000.0 0.10872950760070028 0.14799929035268208
980000000.0 -0.13281436824227041 0.02226580055692069
1000000000.0 -0.07286561822789428 -0.10116251428568014
1020000000.0 0.034122797676069495 -0.09664823525764824
1040000000.0 -0.023640055218884213 -0.12147854065470122
1060000000.0 0.1253835031768404 -0.08164836293806303
1080000000.0 -0.09706064088025224 -0.17610506971748024
1100000000.0 0.23382571039554467 -0.04062878158517434
1120000000.0 0.15079840184151794 -0.22998681825040138
1140000000.0 -0.28335569027387214 0.09170164668829146
1160000000.0 -0.2257389316506518 -0.21913231323028956
1180000000.0 -0.2206443024442768 -0.26045259003892374
1200000000.0 -0.343257846548428 0.09250157619049945
1220000000.0 0.3380410939904167 -0.09587802272617305
1240000000.0 -0.13315176033407305 0.3522386562693514
1260000000.0 0.3912686040777853 -0.06616446648199914
1280000000.0 -0.3882413281076345 0.03256639322845927
1300000000.0 -0.33310220672836816 -0.1768858109316764
1320000000.0 -0.06797347151817866 -0.3696537093625232
1340000000.0 -0.2967819296884403 -0.22089757441441216
1360000000.0 0.19321642604952394 0.3417608761051113
1380000000.0 -0.12326902110753972 0.3815184579430117
1400000000.0 -0.05857790204601341 -0.39267071765243045
1420000000.0 0.007435818854688628 -0.3919569610495744
1440000000.0 -0.2329557522324335 -0.3207201327946345
1460000000.0 -0.3657161771830341 -0.15564635577722147
1480000000.0 -0.3920696519952344 -0.04141607815726397
1500000000.0 0.102834265061744 0.38285390152083243
1520000000.0 -0.3573565763429409 -0.14851041629172282
1540000000.0 0.3622220987397874 0.028624154639976297
1560000000.0 0.0014946493859707122 0.32914624876516607
1580000000.0 -0.1998421094147614 -0.21350515530632824
1600000000.0 0.0434881134121039 -0.2536768241529572
1620000000.0 0.16869435108245462 -0.13606803508714826
1640000000.0 -0.11571820305604757 0.14243418344448963
1660000000.0 -0.1400977539096558 0.06762524602675035
1680000000.0 0.045024347345080665 -0.10390632273260811
1700000000.0 -0.08441321194199387 -0.05749148326820422
1720000000.0 0.08084945340268444 0.0022409438537847794
1740000000.0 0.05664993998886698 -0.056735029113439174
1760000000.0 0.04331724216468322 -0.07743696360326764
1780000000.0 0.09323795837453935 -0.07183363799348422
1800000000.0 0.0751871979192994 -0.11776450441267672
1820000000.0 -0.16421217999028848 -0.031035351281044024
1840000000.0 0.18875176085120177 0.050835182914368546
1860000000.0 -0.2033739075136082 -0.09393773056316432
1880000000.0 0.12227006453272994 0.22668827910988026
1900000000.0 0.11288560848482783 0.24622175073657399
1920000000.0 0.23863444105262263 -0.16995073456246695
1940000000.0 -0.3000066737595814 -0.05320218315947359
1960000000.0 0.3029871104453811 -0.05636957041005882
1980000000.0 -0.30918458387158576 -0.0608930240820147
2000000000.0 0.07031899169786987 -0.31370533544616547
2020000000.0 0.24885476377264482 -0.20517362269909467
2040000000.0 0.316012279652241 -0.06208690736540239
2060000000.0 0.3138621549022035 0.029109267022557183
2080000000.0 0.020021141743567235 0.3145790022473091
2100000000.0 0.2140271235225116 -0.2312973857752794
2120000000.0 0.27443007617836807 0.13657701595058885
2140000000.0 -0.052564077690534255 -0.29526539087981624
2160000000.0 -0.2917509998228693 0.05574365940835068
2180000000.0 0.07704948565937243 0.2786899226565592
2200000000.0 -0.10532570167827034 0.2611350200578723
2220000000.0 -0.20054557371934853 0.19351977595374464
2240000000.0 -0.12148457595436671 -0.24754271686179913
2260000000.0 0.17651656118388895 -0.20479739233929786
2280000000.0 0.27216188155859017 0.012032535911359906
2300000000.0 0.23777467800520724 0.10906190232719032
2320000000.0 -0.2008568109630412 0.1601130087868801
2340000000.0 -0.11475824840461812 -0.2273821950059304
2360000000.0 0.24414289491079205 -0.07267357667089709
2380000000.0 -0.006462087316618008 0.2587326124697662
2400000000.0 0.0892774709159117 0.2668467905664537
2420000000.0 0.03686782931958056 -0.29698850652344183
2440000000.0 -0.19953846989333657 0.24558856639839532
2460000000.0 0.32059158735879095 0.10698130703979876
2480000000.0 0.24268539374588838 -0.28182292726341096
2500000000.0 -0.009433926221094902 0.40691831410695045
2520000000.0 -0.39654468615230326 -0.1987015708147001
2540000000.0 0.46359060211055164 -0.11323360991763473
2560000000.0 -0.29778113282288887 0.41317253171961454
2580000000.0 0.2166579286088315 -0.49427547745491124
2600000000.0 -0.09132451122894397 0.5596942095208665
2620000000.0 -0.12469803917104089 -0.5766188716911387
2640000000.0 0.2669824956950569 0.5464090517429661
2660000000.0 -0.5971601195135583 -0.1795241939016203
2680000000.0 0.3644763206299546 -0.5175531228194992
2700000000.0 0.5948499521873911 0.24115135405146904
2720000000.0 0.2962054599823024 0.5741818105043031
2740000000.0 0.2653034840158987 0.5904456164284952
2760000000.0 0.15107883007574235 0.6288791686046916
2780000000.0 -0.6075934336466219 -0.19854339332304025
2800000000.0 -0.4079686438165389 -0.47870445626226527
2820000000.0 0.19126923910357366 -0.5861458225034626
2840000000.0 0.4417106694201516 0.40904715199524744
2860000000.0 -0.49374113866037245 -0.31629022243540506
2880000000.0 0.20965675428898822 0.5296158998626326
2900000000.0 0.4211163503026617 -0.3523498203111057
2920000000.0 -0.05294943698845409 -0.5241098716985324
2940000000.0 -0.346397395499524 -0.3651431382990847
2960000000.0 -0.22280966973174798 -0.4233933569416992
2980000000.0 -0.26974420143768996 -0.36835241726934037
3000000000.0 -0.29727700231829857 -0.32339894303111455
3020000000.0 -0.4127711626138418 0.08798597936971451
3040000000.0 0.04135644240027529 0.3993230021039691
3060000000.0 0.36918561772574987 -0.0943753681548209
3080000000.0 -0.34101104818861866 -0.13200931250435735
3100000000.0 0.2923850007221903 0.1930142794439526
3120000000.0 0.2796964656594388 -0.20071354482809875
3140000000.0 -0.2534400986478037 0.22687365572380785
3160000000.0 0.14002811924208783 -0.3077374664715873
3180000000.0 0.018743842447402428 0.3341087949521268
3200000000.0 0.30303660759072915 -0.12993597085405062
3220000000.0 -0.22383488987121494 -0.2341964556588957
3240000000.0 -0.30052831207543346 -0.09583468754352861
3260000000.0 -0.27713001980228597 0.1280956529532243
3280000000.0 -0.2931676001483306 0.0158367099007811
3300000000.0 -0.27721799434030475 0.0005078602454637405
3320000000.0 -0.1672279798022051 -0.19096249324921089
3340000000.0 0.21448184972961767 0.08217693835451713
3360000000.0 -0.1690602737676189 0.11877051077559446
3380000000.0 0.12836957933301754 -0.1383204194452344
3400000000.0 0.09792313721011603 0.1363770288581413
3420000000.0 0.11364796977493123 0.08709339875190705
3440000000.0 -0.07980346174372749 0.09625729195168475
3460000000.0 -0.08533999374498676 0.06201568416385519
3480000000.0 0.08476795368687912 0.025510552076454637
3500000000.0 -0.04050422465141942 0.0692709422682501
3520000000.0 -0.018560661252338007 -0.07514208708383542
3540000000.0 0.03139307739611435 -0.07095357447046108
3560000000.0 0.08693879054359399 0.0011571996482697168
3580000000.0 -0.09285368403829455 -0.014279617721558738
3600000000.0 -0.0443129217718845 0.08856621012523982
3620000000.0 0.06055940677062217 -0.09355288941212543
3640000000.0 0.11841822407907152 0.04050561006197939
3660000000.0 0.04295921013372066 0.12657105605801852
3680000000.0 -0.06824962200334937 0.12169832299579861
3700000000.0 -0.07068935171445516 -0.11268953793608392
3720000000.0 0.11658717643286083 -0.030061998731427307
3740000000.0 -0.02315088803194468 -0.09797171182040207
3760000000.0 0.012686884145786403 -0.08234235986487629
3780000000.0 -0.06134708731580724 -0.020490678482499945
3800000000.0 -0.034014316979813476 -0.006233863280287767
3820000000.0 3.9328064792433185e-05 3.629735615355009e-05
3840000000.0 -0.03688580153906254 -0.010440204409063505
3860000000.0 -0.04770966926804127 0.04277828296056372
3880000000.0 0.06941876353541013 -0.05756814868244943
3900000000.0 -0.07905473529109598 -0.07758076629756408
3920000000.0 -0.12286871269792453 0.030547072658376886
3940000000.0 -0.08020634628656494 0.11038540840823279
3960000000.0 -0.11048364595467589 0.08652784139021631
3980000000.0 0.06436926812643845 -0.11775008626592857
4000000000.0 0.0705261472546715 -0.08855051414785203
