!Created with skrf (http://scikit-rf.org).
# Hz S RI R 50.0 
!freq ReS11 ImS11
400000000.0 0.7840241351455577 0.37906817888900957
420000000.0 0.25539035100507307 0.7761697925789908
440000000.0 0.4649680743368139 0.6027875845965806
460000000.0 -0.5862505458525012 -0.3589718954628253
480000000.0 0.007714785202750893 -0.6193244420944807
500000000.0 0.6350527251665944 -0.13725628741092252
520000000.0 -0.19019178546783555 0.6420742205703538
540000000.0 0.6389220840533215 -0.21835240803148753
560000000.0 -0.48619696093550596 0.4625280107866235
580000000.0 -0.3003476087387172 0.4312129438748267
600000000.0 0.35855481760110103 0.46982043948178404
620000000.0 -0.39330656573906897 -0.45744796703478524
640000000.0 -0.171886058638091 -0.5388650341738268
660000000.0 0.029998567988820557 0.5282436952843891
680000000.0 0.14056235231642458 0.47698434206064744
700000000.0 0.4274358422119369 -0.1436370973738433
720000000.0 -0.0622146782605498 0.4835285538610767
740000000.0 0.27467316726022645 0.3807170495128322
760000000.0 -0.2636474624798657 0.3639120894964994
780000000.0 -0.3918788348958841 0.18376897547477777
800000000.0 -0.08611851961716863 -0.386902715246735
820000000.0 0.3315849700525058 0.11776085471635557
840000000.0 0.018692526992261774 0.32537668371634415
860000000.0 -0.06053112133660326 -0.28898164952264843
880000000.0 -0.07481568260240622 0.2605478782941386
900000000.0 -0.06493682206055418 0.2624474427080334
920000000.0 0.23914082145122043 0.08025367322282852
940000000.0 -0.0026202363110982884 0.22626482918578
960000000.0 -0.1564749028213218 -0.09711829451697575
980000000.0 0.14562547184327473 0.008286974620581773
1000000000.0 0.08596561649602087 -0.08296790936312547
1020000000.0 -0.06357997052010275 -0.07456672171221668
1040000000.0 0.02342504217581288 -0.11477967625537586
1060000000.0 0.028472405702106688 -0.14688005442072197
1080000000.0 0.0740406286559489 -0.17579256680324823
1100000000.0 0.03797514191579662 0.23336324141042283
1120000000.0 0.27176437987483865 0.05287427430021762
1140000000.0 -0.2820216117302061 0.10835437287691424
1160000000.0 -0.2829997484966484 0.14022162687164064
1180000000.0 -0.3346890546365067 -0.041937526471078415
1200000000.0 -0.25158736834828455 -0.24888042087461984
1220000000.0 0.33864234696277956 -0.1105959598736449
1240000000.0 0.13015270046859 0.35413444178744397
1260000000.0 0.33682553995031933 -0.2033363970616059
1280000000.0 -0.3753217833984939 -0.07631748590539043
1300000000.0 0.15138011956170133 -0.34681034158801627
1320000000.0 -0.016938840836730664 -0.3842802238632718
1340000000.0 -0.36029511286356997 0.07121355735362421
1360000000.0 0.2871719086029585 0.2618028017797555
1380000000.0 -0.13304066839691464 0.37544048766775207
1400000000.0 0.04450863555911338 -0.3918014764649271
1420000000.0 -0.15522266295231946 -0.3629063616710377
1440000000.0 -0.333336251868812 -0.20753077046049928
1460000000.0 -0.393862636105987 -0.04689150812061811
1480000000.0 -0.38527191705271496 -0.09339078810469854
1500000000.0 0.14853406553993753 0.3703241475358701
1520000000.0 -0.3828378388990599 0.06552341554194226
1540000000.0 0.36051709112997865 -0.0047316354238414226
1560000000.0 -0.23128592574305165 0.23681259499816518
1580000000.0 -0.20857391074580978 -0.20732753811753457
1600000000.0 0.0784429580684126 -0.24401373011855138
1620000000.0 0.19435737388142382 -0.09488257216403916
1640000000.0 -0.15799524875817827 0.09428679968655009
1660000000.0 -0.13091819781179845 0.08167906092315226
1680000000.0 -0.00022964562273089 -0.11151169844008763
1700000000.0 -0.04531577161564605 -0.09099396919523225
1720000000.0 -0.016379246411284378 -0.07676037030403225
1740000000.0 0.046435051098734144 0.06255132297991205
1760000000.0 -0.08980443778025207 -0.004660262462385667
1780000000.0 0.07926060688973649 -0.08468369312404019
1800000000.0 0.04124208004085655 -0.13279670597260843
1820000000.0 -0.1393289731521914 0.09439288686847598
1840000000.0 0.17266722522811467 -0.08996804319368523
1860000000.0 -0.20621597378269005 0.08640803042035701
1880000000.0 0.002255869330108245 0.25554332993437423
1900000000.0 0.06182952632282871 0.2679474922626991
1920000000.0 0.1362201201623375 -0.26050040315511674
1940000000.0 -0.29068604134431814 -0.09304999284269858
1960000000.0 0.3077708670989729 0.0342969332453988
1980000000.0 -0.30631984681350855 -0.07267400653794234
2000000000.0 0.1133137564607806 -0.29918810127667994
2020000000.0 0.31909892358597364 0.015585997733996125
2040000000.0 0.31571604360964955 0.05467828321083306
2060000000.0 0.3082676478883322 0.07211919274125095
2080000000.0 0.16200582657389367 0.27061087303882403
2100000000.0 -0.031542500139071485 -0.3104316264910454
2120000000.0 0.28535921995770075 0.1074551265583224
2140000000.0 -0.12192849994695569 -0.2745728861745425
2160000000.0 -0.1781310279635712 0.23674813307782339
2180000000.0 -0.04382988178302431 0.2857183918592389
2200000000.0 -0.04589782301095446 0.281927026236538
2220000000.0 -0.20396769621466412 0.19507578905134462
2240000000.0 -0.21678836843199595 -0.17279018333374585
2260000000.0 0.21772478957189534 -0.16089571935411712
2280000000.0 0.25561044419931145 0.09493440466294807
2300000000.0 0.22946473377716844 0.12148957903347993
2320000000.0 -0.22743932572697612 -0.11347972999089524
2340000000.0 0.016638157247450214 -0.25516568864562605
2360000000.0 0.2068954986714158 -0.14621826412911926
2380000000.0 0.056703536374124903 0.251012725552565
2400000000.0 0.19138498035433033 0.20294324801799205
2420000000.0 0.035138250895383166 -0.2930502366918433
2440000000.0 -0.15787914353809232 0.27183601653171824
2460000000.0 0.3363954342323463 0.03110832920853542
2480000000.0 0.03279589923818516 -0.3704064654359032
2500000000.0 0.18795039511085274 0.3603426712008722
2520000000.0 -0.42184363980547396 -0.14071642455951303
2540000000.0 0.45854373789138303 -0.13729129379294247
2560000000.0 -0.30933258767126426 0.4069942174788543
2580000000.0 0.2409577776935876 -0.483919377419692
2600000000.0 -0.0643989055019125 0.5633682539226248
2620000000.0 -0.03244772096832477 -0.5874941391187082
2640000000.0 0.23832792068724115 0.556502869596164
2660000000.0 -0.5580809712988842 -0.2739024830159366
2680000000.0 0.4161035855692017 -0.4744045452646072
2700000000.0 0.6168621139480844 0.1706722268300363
2720000000.0 0.42766201665561226 0.48226910561695635
2740000000.0 0.34546897199708826 0.5461770701310497
2760000000.0 0.27333075109703325 0.5859609640509237
2780000000.0 -0.6357474140717189 -0.06827104209402678
2800000000.0 -0.49881263676432697 -0.38413149154262816
2820000000.0 0.10560522845284531 -0.6085496983402121
2840000000.0 0.4716444113001486 0.37572238314403966
2860000000.0 -0.501611291041471 -0.3056154611329601
2880000000.0 0.2226279209881977 0.524455366039898
2900000000.0 0.46088415685374423 -0.2973811620418226
2920000000.0 0.04661142943865757 -0.5242124094385094
2940000000.0 -0.331693920336996 -0.3791075713932137
2960000000.0 -0.26369162109501715 -0.3976790914398
2980000000.0 -0.31934272756048676 -0.32382182935793996
3000000000.0 -0.3263215580799828 -0.29019929296578634
3020000000.0 -0.3981056743630105 0.12859430619199425
3040000000.0 0.18512427962821737 0.3538948407313114
3060000000.0 0.2733024766877893 -0.26239057422769524
3080000000.0 -0.3662318999741664 -0.014818303633617457
3100000000.0 0.3353244349352897 0.10120723620959292
3120000000.0 0.22168919502926274 -0.26491511020810043
3140000000.0 -0.12381688784095125 0.3182732756762571
3160000000.0 0.037498461069052684 -0.3375054614792766
3180000000.0 0.03649854572205011 0.3333527391549664
3200000000.0 0.3261840844088529 -0.05559230168393153
3220000000.0 -0.12410108222979545 -0.3001092944459694
3240000000.0 -0.27832529084116586 -0.1502387134972893
3260000000.0 -0.3030482405126989 0.03150172196993673
3280000000.0 -0.28138427518883513 -0.07871922293041139
3300000000.0 -0.26824873811884214 -0.0630916068578394
3320000000.0 -0.1714368237865487 -0.18366742641830935
3340000000.0 0.22605030439874077 0.028167264053136132
3360000000.0 -0.13645371955090568 0.15165796224968492
3380000000.0 0.08245165240702453 -0.16738679826975486
3400000000.0 0.15844765416047563 -0.050692473840007635
3420000000.0 0.14143202339094585 -0.0153038382898585
3440000000.0 -0.014641665591113852 0.12491065693260743
3460000000.0 0.031200236238013636 0.10358395924280436
3480000000.0 -0.033496443980602975 -0.0836022300451788
3500000000.0 -0.04215455707822641 0.06899854865075043
3520000000.0 0.0026436123527568737 -0.07947820551685071
3540000000.0 0.06745917330964184 0.04338609141023694
3560000000.0 0.07997640050140327 0.038434279531510726
3580000000.0 -0.08599001634200548 -0.036220270433679806
3600000000.0 -0.09188838986415883 -0.029960923452890673
3620000000.0 0.10466273226992022 0.03515100522924188
3640000000.0 0.03553530423114844 0.11762841834778774
3660000000.0 -0.06923777966260149 0.11392955229285427
3680000000.0 0.08546435601962636 0.1094013893812134
3700000000.0 -0.1295856689858767 0.002448520271308804
3720000000.0 0.09221872881843704 -0.07058790483683641
3740000000.0 -0.09853098567805166 0.018812665101129982
3760000000.0 -0.08137744400661213 -0.015613216482088146
3780000000.0 0.03268284389184863 0.055811791996353034
3800000000.0 0.018601085906788883 0.03048299429217606
3820000000.0 -0.0018159791745175299 0.002150673195514044
3840000000.0 -0.024428568002499238 -0.02363153991215972
3860000000.0 -0.050610798365596246 -0.037241666630637514
3880000000.0 0.01792302719098004 -0.08639204449581162
3900000000.0 -0.09868279734725899 -0.046834208686820596
3920000000.0 -0.09485888432519568 0.08208716626479917
3940000000.0 0.11777217475791593 0.06767085824507946
3960000000.0 0.09601248911030803 0.09861465838166118
3980000000.0 -0.008245194682344525 -0.13271875353925203
4000000000.0 -0.06531829568256617 -0.09353754886962404
