!Created with skrf (http://scikit-rf.org).
# Hz S RI R 50.0 
!freq ReS11 ImS11
400000000.0 0.7757577713509324 0.3970026741170585
420000000.0 0.25276962293400623 0.7771560138357096
440000000.0 0.45112391108705063 0.6130568430628962
460000000.0 -0.6300655791116863 -0.2692263426335548
480000000.0 0.24154358172874507 -0.5746698527762484
500000000.0 0.6447423842691858 -0.0567389581436757
520000000.0 -0.17644940162435996 0.6448929683178268
540000000.0 0.663660156554895 -0.13482018043685884
560000000.0 -0.20502714182128487 0.6377675035445186
580000000.0 -0.22853260173377699 0.4592086806926849
600000000.0 -0.09375855630425455 0.5841200252379479
620000000.0 -0.19003739312441448 -0.5806388564274778
640000000.0 -0.4189267561968891 -0.38966336486363307
660000000.0 0.39067511084764 0.35784858476092035
680000000.0 0.04100832897840191 0.4849106513037973
700000000.0 0.3378011585011508 0.29252427895800076
720000000.0 -0.32720266319384156 0.3646229610546896
740000000.0 0.3289658994401651 0.3462133478966258
760000000.0 0.2764920623514017 0.352894270281799
780000000.0 -0.41031222176585436 0.12981585260103878
800000000.0 0.04774109640028714 -0.3878278924936581
820000000.0 0.22011197267450702 0.2794033657744706
840000000.0 0.11588017443280238 0.30362421536496337
860000000.0 0.24092555586376335 -0.1763105587476288
880000000.0 0.0870052742206906 0.26160846793039716
900000000.0 -0.08506549312630676 0.2562008622344543
920000000.0 0.24982746149381332 0.030402191480800707
940000000.0 0.12946172224891603 0.18162344886909218
960000000.0 -0.14314235200485848 -0.11665799608583027
980000000.0 -0.1295355092048459 0.06177393687008523
1000000000.0 0.07506085025758207 0.10748970493905818
1020000000.0 0.05397832124076801 0.08901536055697211
1040000000.0 0.025264247239195632 0.10932620069270804
1060000000.0 0.020673290054029743 -0.13804196462463303
1080000000.0 -0.006794719136409888 0.19157818901750417
1100000000.0 -0.07235341732155645 0.22955037130300662
1120000000.0 0.09857670371901549 -0.2613330168071846
1140000000.0 -0.28776398132958253 0.06974780742422161
1160000000.0 -0.30839709736516113 0.06587516452925922
1180000000.0 -0.32725788973375597 -0.09299765136813773
1200000000.0 -0.34736780656991245 -0.06305277732102986
1220000000.0 0.35513917961618524 0.023415149730219267
1240000000.0 0.13723530584653124 0.3503966198412221
1260000000.0 0.39409182419471134 -0.011818395812608533
1280000000.0 -0.3490201801142904 -0.15793812450858297
1300000000.0 -0.06555199716453368 -0.3746715678521455
1320000000.0 -0.10535353560871404 -0.3667623643716284
1340000000.0 -0.36839830013329516 0.025834818051195828
1360000000.0 0.244723699191163 0.30218989544029573
1380000000.0 0.021788968996479616 0.40065853522811956
1400000000.0 -0.05746136602245271 -0.39141967694067853
1420000000.0 -0.07759442170021821 -0.3850395244090408
1440000000.0 -0.34460929505398696 -0.19570861560082556
1460000000.0 -0.38983342436459967 -0.058414595919857495
1480000000.0 -0.3888297277031737 -0.07209748922007851
1500000000.0 0.18466462431182434 0.356095674585288
1520000000.0 -0.38219876672274017 0.07624905929584062
1540000000.0 0.32839778176748796 -0.1436585917097639
1560000000.0 -0.17884260165353083 0.27885770373598984
1580000000.0 -0.12836018999860577 -0.26354155501610477
1600000000.0 0.09449203702504734 -0.23892813714734298
1620000000.0 0.06043287620268234 -0.20869032517626493
1640000000.0 -0.04834047400102372 0.17690835332659038
1660000000.0 -0.12095105659569576 0.09213858660451398
1680000000.0 0.04133675583308339 -0.10219625543867834
1700000000.0 -0.07679864158161866 -0.07000030495302405
1720000000.0 -0.04030385482889417 -0.06884177507431981
1740000000.0 0.07668790397882361 -0.007939130006959557
1760000000.0 -0.004251653876472095 -0.08766400841716425
1780000000.0 0.005306214558746736 -0.11851995804067683
1800000000.0 0.11080014355616367 -0.0829113302804662
1820000000.0 -0.1631725975008441 0.04821691502819802
1840000000.0 0.1516895056147164 -0.1262741705197125
1860000000.0 -0.2071367502440732 0.0794800654218534
1880000000.0 -0.06198629657195422 0.24909766157740076
1900000000.0 0.13599857075036864 0.24029385072482357
1920000000.0 0.17023431487521723 -0.24112895746242044
1940000000.0 -0.30462462892630987 -0.022697733580957103
1960000000.0 0.298259754054196 -0.07794694051118095
1980000000.0 -0.2813869156203556 -0.13715876647010444
2000000000.0 0.08201402317721232 -0.31062274340157786
2020000000.0 0.3055896261485449 -0.09940538906865021
2040000000.0 0.3198356018896581 0.022858074980907726
2060000000.0 0.2874637438373423 0.13191907542608766
2080000000.0 0.18210482670487174 0.2586088441996506
2100000000.0 -0.06751622484271672 -0.3054037983741335
2120000000.0 0.2564692166661851 0.1641083054345695
2140000000.0 -0.10137376940582823 -0.28238246857015964
2160000000.0 -0.18571010895699203 0.23242769207260877
2180000000.0 0.08686171705980202 0.2759543348977383
2200000000.0 -0.10578951199563431 0.2635874930417216
2220000000.0 -0.17212916780443607 0.22536406520926305
2240000000.0 -0.20288816663305484 -0.18865419439276618
2260000000.0 0.19446995553639387 -0.1890019663871826
2280000000.0 0.27083197661500535 -0.014427198116374171
2300000000.0 0.12865141674436903 0.2246130077126539
2320000000.0 -0.21537642881950664 -0.1403414911355132
2340000000.0 -0.11896398274322936 -0.22553159008111998
2360000000.0 0.22763118137696595 -0.11024332040235658
2380000000.0 0.009124754675548033 0.2571625402640293
2400000000.0 0.18737638730693074 0.2073032143195067
2420000000.0 -0.12400837838991313 -0.269321104315097
2440000000.0 -0.09793351442983045 0.2988230042326926
2460000000.0 0.33096810618711314 -0.06108870562424644
2480000000.0 0.059414507985671106 -0.36706906784111276
2500000000.0 0.15207238455182728 0.3768449774815069
2520000000.0 -0.4386088294873182 -0.07356801237899857
2540000000.0 0.41771953295820174 -0.2353934227661453
2560000000.0 -0.32163244889043807 0.3969079702339838
2580000000.0 0.22883132728208314 -0.48964094211112286
2600000000.0 -0.06227264972412005 0.5632336904696612
2620000000.0 -0.04848673039959791 -0.58656721880756
2640000000.0 0.26876123799189505 0.542327198305106
2660000000.0 -0.5833236068002784 -0.21392804756926023
2680000000.0 0.4317566975975304 -0.46029907975720447
2700000000.0 0.6339287475935693 0.08650462029381763
2720000000.0 0.4660029728233305 0.446522809321879
2740000000.0 0.3014599423274441 0.572273345572615
2760000000.0 0.19489117399117037 0.6164298860425164
2780000000.0 -0.6272478459422429 -0.1234926749700175
2800000000.0 -0.5098889150919186 -0.36875582112393207
2820000000.0 0.15141113496274564 -0.5978689619647032
2840000000.0 0.4659968651874574 0.381424761209565
2860000000.0 -0.48113317374694853 -0.3374388084871798
2880000000.0 0.21618915248156798 0.5270480998657548
2900000000.0 0.4496177115884436 -0.3149534438856798
2920000000.0 -0.024548053690742675 -0.5261263869668781
2940000000.0 -0.3544766945245904 -0.3562928703890066
2960000000.0 -0.2657524091788935 -0.396122442859554
2980000000.0 -0.27959112628119653 -0.360280498501256
3000000000.0 -0.3218844879455145 -0.2940462077914741
3020000000.0 -0.38774195992200877 0.15905937647892687
3040000000.0 0.1447679206370145 0.3714731784986414
3060000000.0 0.3136808426289956 -0.21305918304454924
3080000000.0 -0.36399220275175287 0.025691758361188012
3100000000.0 0.3285799275208447 0.12290058213240988
3120000000.0 0.22817546045591192 -0.2603792588009408
3140000000.0 -0.07372167186578031 0.33264043147493844
3160000000.0 -0.02377465381285354 -0.33857844389594355
3180000000.0 -0.052307874865461866 0.33096663443677227
3200000000.0 0.3006928428827105 -0.13744009322260597
3220000000.0 -0.23264144852425336 -0.2262233846648948
3240000000.0 -0.27240298673192603 -0.15934537965874893
3260000000.0 -0.29861407804106405 0.05777859104806355
3280000000.0 -0.28856119600793034 -0.056483320064682985
3300000000.0 -0.2737272908041812 -0.039699368962636455
3320000000.0 -0.20906669562624908 -0.13703654133781226
3340000000.0 0.2264360505100829 0.00610906758754518
3360000000.0 -0.1635065487278854 0.12219658978438445
3380000000.0 0.08692701497993403 -0.16452418502691712
3400000000.0 0.1517925670106095 -0.0669785721755296
3420000000.0 0.14215453843592113 0.017345180926762377
3440000000.0 0.018484880681299082 0.12311505437129075
3460000000.0 0.10399771090175385 -0.02506355645599904
3480000000.0 0.07230465138976097 -0.05172077081241966
3500000000.0 -0.06759509118199546 0.04685122224704315
3520000000.0 -0.05454187354840894 -0.0585866561046912
3540000000.0 0.07767296966608957 0.02784747561791692
3560000000.0 0.07557791949973426 0.046698641728403434
3580000000.0 -0.08813879298164261 -0.02858829598040949
3600000000.0 -0.09552029341559717 -0.015209848661995696
3620000000.0 0.018696230966005405 0.10763293208995571
3640000000.0 -0.043893205051012255 0.11576881745174687
3660000000.0 0.03482328232509729 0.12950710981026672
3680000000.0 0.1293721256251537 0.04555752267767217
3700000000.0 -0.12945672064480518 0.0058601387566445135
3720000000.0 0.06866681344468935 -0.09560870749798979
3740000000.0 -0.09096721476470054 -0.04114277354841222
3760000000.0 -0.08270360863745511 0.005950629691024255
3780000000.0 0.05615056825135467 0.03394687714759809
3800000000.0 0.01241482419868301 0.03456431177286769
3820000000.0 -0.002136614941095289 -0.0006071618582360673
3840000000.0 -0.032881006542464 0.00998175792424587
3860000000.0 -0.05104874702563823 -0.036561714403818724
3880000000.0 0.0713946478048898 -0.053560843966872565
3900000000.0 -0.10746242989458267 -0.011895224599712331
3920000000.0 -0.06209447551485108 0.11001058384775915
3940000000.0 0.09971360143431696 0.09316831178280172
3960000000.0 0.1012430820081529 0.09353436449980737
3980000000.0 0.018094255176948338 -0.13364706289377634
4000000000.0 -0.1086882842697384 -0.041782728153679484
