!Created with skrf (http://scikit-rf.org).
# Hz S RI R 50.0 
!freq ReS11 ImS11
400000000.0 0.7809289575429157 0.38541322427062513
420000000.0 0.2753792427017651 0.7686741635403954
440000000.0 0.4605016886780721 0.6040746618241687
460000000.0 -0.5825021770749582 -0.36445515711308096
480000000.0 -0.18400310401465142 -0.5922069282914901
500000000.0 0.6244294778609379 -0.19304248935116014
520000000.0 -0.3654880494287883 0.5596914825963571
540000000.0 0.6785918268254845 0.02759028972062359
560000000.0 -0.20099999316476114 0.6438835973039407
580000000.0 -0.10653465300774322 0.509803140419431
600000000.0 -0.20414889074132989 0.5527202346238073
620000000.0 -0.35155069788871834 -0.5044840426431687
640000000.0 -0.4657006774769405 -0.32906387287265515
660000000.0 0.26287211065817523 0.45569855237763435
680000000.0 0.29636419096135064 0.3953250619433137
700000000.0 0.29146165538966967 0.3392606973971556
720000000.0 -0.29129234942169197 0.3972732917101945
740000000.0 0.3657868854103642 0.29704596240114933
760000000.0 0.10817185820103284 0.4342625741909005
780000000.0 -0.425832258018529 -0.06851913908321738
800000000.0 0.15220963316398325 -0.36676975264426126
820000000.0 0.29296831625087866 0.1923481973782269
840000000.0 0.09522122494021495 0.3073841930572799
860000000.0 0.29414455277222984 -0.05057439300884314
880000000.0 0.22524696346572778 0.16225822114218488
900000000.0 0.18137450870420352 0.19502492147124068
920000000.0 0.25377930219896017 -0.028089840479247227
940000000.0 -0.19502606438437617 0.1129397946100804
960000000.0 -0.16466828880329332 0.07692382719107618
980000000.0 -0.04922736980870502 -0.1357050365389691
1000000000.0 0.13011824720382661 0.012849174315166965
1020000000.0 -0.09770830135128714 -0.018322146071654808
1040000000.0 -0.06024939369848228 0.09421558465444427
1060000000.0 0.1302893000670095 0.0676636398659338
1080000000.0 0.1670590464950069 0.10167523023376075
1100000000.0 0.12838168779580747 0.20463230055895992
1120000000.0 0.2560488311409723 -0.10286181403138271
1140000000.0 -0.28734942672927205 -0.08461145596936041
1160000000.0 -0.31335315562501953 -0.06041461216221177
1180000000.0 -0.3348751488950689 -0.034867516746758795
1200000000.0 -0.28297397767080934 -0.20641719844485829
1220000000.0 0.35220810413327885 0.0429867913376458
1240000000.0 0.1977490625859747 0.3205424338623824
1260000000.0 0.3081816181654996 -0.24466010677414265
1280000000.0 -0.3441111584845079 -0.17067534305963492
1300000000.0 -0.06384083608268899 -0.37376042486893335
1320000000.0 -0.09122482199017767 -0.3700956304928764
1340000000.0 -0.35108591626639385 0.1180725617305917
1360000000.0 0.22183782681784273 0.32070453403649285
1380000000.0 -0.197337976801834 0.3495569685106392
1400000000.0 0.00024802656439743367 -0.39600576581103036
1420000000.0 0.143996276779457 -0.36606213902398954
1440000000.0 -0.16103105232652046 -0.36095892966024
1460000000.0 -0.3757273423943509 -0.12619012009215827
1480000000.0 -0.3240030662672934 -0.22724782544829936
1500000000.0 -0.012464322109845154 0.3992207358461246
1520000000.0 -0.38394510417943023 0.05470024044583866
1540000000.0 0.35584221862238086 -0.06126471130147841
1560000000.0 -0.26264613520445135 0.19679603228047055
1580000000.0 -0.19761031584031863 -0.21744626389605165
1600000000.0 0.009009426311996152 -0.25755525007805335
1620000000.0 0.18508734158857318 -0.11339236074351995
1640000000.0 -0.18519229655926173 0.008761630759003934
1660000000.0 -0.06560971329827861 0.14049931358885148
1680000000.0 0.10529548056854592 -0.042116817988324236
1700000000.0 -0.03733378367782525 -0.09529083721486568
1720000000.0 0.05345761175848361 -0.062075351005288944
1740000000.0 0.0496879701159582 0.06085137945951695
1760000000.0 0.06256402273893345 -0.06506483721504541
1780000000.0 0.10265726580934674 -0.05625819789153263
1800000000.0 0.1384290253087368 0.016674004595093925
1820000000.0 -0.16791567131710616 0.006200526011528068
1840000000.0 0.17667159488430845 -0.08186251439583608
1860000000.0 -0.21532699449608406 -0.052245307330741814
1880000000.0 -0.03720269182085922 0.2524753598630151
1900000000.0 -0.014877124835852275 0.2721414351248483
1920000000.0 0.22399689717959054 -0.19053381492107982
1940000000.0 -0.30149246369503596 0.039934208951420504
1960000000.0 0.305172375401732 -0.03448836281757965
1980000000.0 -0.29827154773942394 -0.09706365429386418
2000000000.0 0.05372636973598526 -0.3159461729255888
2020000000.0 0.3112158284897592 -0.08644465149013628
2040000000.0 0.32060709414578026 -0.023841581968616188
2060000000.0 0.24452572078401152 0.20182984086005767
2080000000.0 0.0292798778662391 0.31655491334657515
2100000000.0 0.13282621023203262 -0.28531805412397787
2120000000.0 0.2592444569444806 0.16183384661844796
2140000000.0 0.005190623709592948 -0.2992310400308976
2160000000.0 -0.29586412061805645 0.005944020673910574
2180000000.0 -0.1442661358952622 0.24927626860789634
2200000000.0 -0.15107844936160483 0.23889837217786342
2220000000.0 -0.2391346373701454 0.14572724381382202
2240000000.0 -0.2081137797443265 -0.1803614910171491
2260000000.0 0.11801936206771102 -0.2426505146437296
2280000000.0 0.270808040953583 0.008318537707824585
2300000000.0 0.2602951992263828 -0.01398609646845479
2320000000.0 -0.25419756272859106 0.0128763724225311
2340000000.0 -0.06726623921424148 -0.24778162546769963
2360000000.0 0.1876147440038835 -0.17508348180253563
2380000000.0 0.12243422200271252 0.23063937825203096
2400000000.0 0.18974510007570955 0.20738922021212877
2420000000.0 0.10589288775573816 -0.27936068516307044
2440000000.0 -0.31035853628640386 0.06045228478407883
2460000000.0 0.26730796137235274 0.21097863042812745
2480000000.0 0.205490374762372 -0.3108498430798175
2500000000.0 -0.049578563563660215 0.4023318776504387
2520000000.0 -0.335557520065692 -0.2897971672613088
2540000000.0 0.4765163068105907 0.00018459254663545275
2560000000.0 -0.3257796796758676 0.3918895380046662
2580000000.0 0.1756758888025858 -0.5100846462788342
2600000000.0 -0.011240342359362183 0.5658584177547494
2620000000.0 -0.13439893359450664 -0.5742158957651902
2640000000.0 0.29002772019292355 0.5345128953485725
2660000000.0 -0.5894098906071437 -0.2062543825420281
2680000000.0 0.39377646065780575 -0.4972383834741355
2700000000.0 0.5720890328558208 0.2941495133745578
2720000000.0 0.2854018506402622 0.5810941474237382
2740000000.0 0.14421077407156502 0.6317766380804921
2760000000.0 0.06321969097307172 0.6439033813700904
2780000000.0 -0.5848112785309464 -0.25715466618364796
2800000000.0 -0.36375372879530354 -0.5121641780853443
2820000000.0 0.20102768896019435 -0.5817611994687547
2840000000.0 0.45028984623434065 0.39810726751993386
2860000000.0 -0.4758934476584212 -0.34257947351997436
2880000000.0 0.2626498489754459 0.5055431379020869
2900000000.0 0.4000422276381834 -0.37630207504513663
2920000000.0 -0.004574490554235798 -0.5279831222150146
2940000000.0 -0.39670150365130247 -0.31116841646657656
2960000000.0 -0.2566029119127866 -0.4049068503093532
2980000000.0 -0.21507966427638225 -0.40573798067055356
3000000000.0 -0.33688478753523027 -0.2828971863012151
3020000000.0 -0.42053232673588725 -0.011465098585011825
3040000000.0 -0.1084905246865386 0.3857174326828342
3060000000.0 0.37870753845284444 -0.038194618514528225
3080000000.0 -0.29439239431333764 -0.21690419487650664
3100000000.0 0.27948597413222215 0.21245112346375913
3120000000.0 0.31660246271101233 -0.1341229834590049
3140000000.0 -0.22605109601096798 0.2545008762658445
3160000000.0 0.10163411678607649 -0.3217922038845959
3180000000.0 0.012981726110339062 0.3336300013392106
3200000000.0 0.31151939153771724 -0.10593049651993999
3220000000.0 -0.20442546279607388 -0.25125225292709985
3240000000.0 -0.3114946719040027 -0.056045640085043126
3260000000.0 -0.2852707792115015 0.10995605922673182
3280000000.0 -0.2947734076869632 -0.011030919260287228
3300000000.0 -0.2779950838882161 -0.0033981492856059695
3320000000.0 -0.15033128297120785 -0.20445816845760303
3340000000.0 0.21393515558327875 0.08342020482437001
3360000000.0 -0.19248072528009974 0.07708614100376845
3380000000.0 0.11983164632423994 -0.14644917497908616
3400000000.0 0.08642105285352861 0.14246246452184158
3420000000.0 0.0013548398669598694 0.143724085584026
3440000000.0 -0.07555012493082955 0.10044157820300308
3460000000.0 -0.09096131333337307 0.05371393333123871
3480000000.0 0.079171160737151 0.03973972777683402
3500000000.0 -0.06748632558733061 0.04207420067126249
3520000000.0 0.004602764845497615 -0.07713499122839847
3540000000.0 0.06355839359744195 -0.042840531172487185
3560000000.0 0.07457618148230657 -0.045190664314512706
3580000000.0 -0.060161004634782723 0.07096832833552155
3600000000.0 -0.04090056705909271 0.08889832289928742
3620000000.0 0.012472320192266639 -0.11032970175682202
3640000000.0 0.1126643055610089 0.05390228496084469
3660000000.0 0.03223079395258707 0.13303973234189587
3680000000.0 0.0003382031285380556 0.1412922931373067
3700000000.0 -0.07610571248426312 -0.10997309930719619
3720000000.0 0.11339826748738184 -0.039581262835133475
3740000000.0 -0.02363991122022137 -0.09818364439154582
3760000000.0 0.08177831792083641 -0.0183286802143445
3780000000.0 -0.04781285445381336 -0.04332184673349651
3800000000.0 0.02651821518499361 -0.02235934585890482
3820000000.0 -0.0019753201007610436 -0.00012515061980623672
3840000000.0 0.029245374408431394 0.021828261567923352
3860000000.0 0.01765334121815872 -0.06268727527428737
3880000000.0 0.09204797241344419 -0.013473308515133042
3900000000.0 -0.06846226184466941 -0.09008376109962746
3920000000.0 -0.12658036324991603 -0.017036000552866186
3940000000.0 -0.08953733251221668 0.10288942715738406
3960000000.0 -0.13083132924533347 0.04722900084754222
3980000000.0 0.13163171682723082 -0.025261614953995884
4000000000.0 0.08401567652945038 -0.07676466191652101
