!Created with skrf (http://scikit-rf.org).
# Hz S RI R 50.0 
!freq ReS11 ImS11
400000000.0 0.8026894766455965 0.33793980467750595
420000000.0 0.30225121565388674 0.7594307040967486
440000000.0 0.45158049349004803 0.6127161051795956
460000000.0 -0.6172973661301338 -0.2975219334031726
480000000.0 0.14911989901945616 -0.6033696827030937
500000000.0 0.6460487498441693 -0.05298571716276902
520000000.0 -0.3827813276101103 0.5464980103525943
540000000.0 0.6378880054496622 -0.2317185716199118
560000000.0 -0.1894445715945471 0.6417941655197282
580000000.0 -0.0804140115143463 0.5091880174880213
600000000.0 0.006399955191361024 0.592461873966874
620000000.0 -0.346865442801693 -0.500213493884329
640000000.0 -0.22595506634290466 -0.5250461430407313
660000000.0 0.384506373170355 0.36826736009771543
680000000.0 0.19495334795780936 0.4463378568815036
700000000.0 0.4155436169217204 0.15998419844210685
720000000.0 -0.28658719250440223 0.39377721487172945
740000000.0 0.09630631378047752 0.4642266785439374
760000000.0 0.22815909828931796 0.3883248210237168
780000000.0 -0.37941757227319384 0.20564996962273088
800000000.0 -0.12681978400921182 -0.37620880839394566
820000000.0 0.164768591325737 0.3081784059444176
840000000.0 0.08273734774653049 0.31314921854288413
860000000.0 0.2787337990428108 -0.11177029590625423
880000000.0 0.06805685410661454 0.26768728870213476
900000000.0 -0.060345069380534196 0.2586823769965556
920000000.0 0.2532363568701878 0.05468037955238774
940000000.0 0.1910552060036118 0.11707834509894134
960000000.0 -0.07011624908956833 0.16191923950408652
980000000.0 -0.12372945233188802 -0.06343889589680957
1000000000.0 -0.1131291547730621 0.07126933905875286
1020000000.0 0.07573776490407998 0.07301915781368479
1040000000.0 0.1175562875478411 0.007110315702571185
1060000000.0 -0.024221109699515637 -0.1376544944843203
1080000000.0 0.11208930330459102 0.15562849329490583
1100000000.0 0.06438582062470989 0.22956223033864176
1120000000.0 0.25116509577051715 -0.11772025791554436
1140000000.0 -0.24245704806424775 0.17185562120833364
1160000000.0 -0.2494097619627935 0.19902698862508703
1180000000.0 -0.3109198046354964 -0.1294586764055412
1200000000.0 -0.3263400315340714 -0.13437131648931913
1220000000.0 0.3525551235960065 -0.05028423436215114
1240000000.0 0.1527574996920425 0.3456263455679166
1260000000.0 0.39046396517884807 -0.022726237975530916
1280000000.0 -0.30395802486605694 -0.2347982152093451
1300000000.0 -0.04122772827487493 -0.3795113553708856
1320000000.0 -0.08671188737045962 -0.3697452325513085
1340000000.0 -0.35628688452694 0.09291086612608294
1360000000.0 0.17983695378575387 0.34504777331927705
1380000000.0 -0.18688435465228245 0.3547700229289662
1400000000.0 -0.2164539183989077 -0.3308687978185291
1420000000.0 0.0013175219956526902 -0.39204901457595426
1440000000.0 -0.2642529978522995 -0.2936063016501848
1460000000.0 -0.3884305786939696 -0.06392845607022367
1480000000.0 -0.36457312359593935 -0.160912920484262
1500000000.0 0.09813644278636141 0.38680743438471077
1520000000.0 -0.3830526514662682 -0.06319662123509912
1540000000.0 0.3210479170003003 -0.16746440224336828
1560000000.0 -0.25448838557899617 0.21341813596452447
1580000000.0 -0.1823008436624123 -0.22728041065534235
1600000000.0 0.10496987206659497 -0.23501011196236846
1620000000.0 0.1976527308820093 -0.09296838032532193
1640000000.0 -0.16447446421560433 0.08460014785424093
1660000000.0 0.02986865924514651 0.15068234587768706
1680000000.0 0.1045517466900802 0.03885887056123716
1700000000.0 -0.07281529435172045 -0.07255373929222744
1720000000.0 -0.04763650334264854 -0.061993750257836405
1740000000.0 0.031102810540565382 -0.07045006258068778
1760000000.0 -0.0334044803799696 -0.08143622313770305
1780000000.0 0.002196317369865864 -0.11576776985558988
1800000000.0 -0.05537530901561568 -0.12454816377392217
1820000000.0 -0.15828246287892345 -0.05805350541707314
1840000000.0 0.1667634420674432 -0.10506048935603049
1860000000.0 -0.13053625589847584 0.17779595188637354
1880000000.0 -0.03728844970630317 0.253419865036704
1900000000.0 0.05680516408903319 0.26918236614759017
1920000000.0 0.1482580643255456 -0.25528690243466634
1940000000.0 -0.3057095807076191 -0.008581749464077642
1960000000.0 0.3071374178072125 -0.0238813595002649
1980000000.0 -0.30616080832760423 -0.06462585885012538
2000000000.0 0.12044354604212958 -0.29787347827437605
2020000000.0 0.3095984246268546 -0.0833801573516555
2040000000.0 0.31909700956219506 0.026497128331858674
2060000000.0 0.2866102699062037 0.13404224399958123
2080000000.0 0.16450151603957072 0.2683091772498258
2100000000.0 -0.0828892662079971 -0.3022765439098323
2120000000.0 0.2885412439260081 0.09543591319761086
2140000000.0 -0.12872493262311543 -0.268711520816157
2160000000.0 -0.18975923367769287 0.22798662279376558
2180000000.0 0.148806842526634 0.2481661237696734
2200000000.0 -0.008343113519723357 0.28324654160302026
2220000000.0 -0.22861079552821953 0.16622718535028044
2240000000.0 -0.21186967056078385 -0.18227251522158033
2260000000.0 0.12694109614931945 -0.23958562475031178
2280000000.0 0.2682165581362561 0.0390637137973996
2300000000.0 0.15548721986327338 0.20895767441083538
2320000000.0 -0.2388504882511318 -0.09435598526933543
2340000000.0 -0.012302746419129403 -0.25372012059337445
2360000000.0 0.24700163262206046 -0.054295610095825356
2380000000.0 -0.002634318935742446 0.2579252025230464
2400000000.0 0.22626899282744 0.16079013208460086
2420000000.0 -0.07533972118498887 -0.2841490388153212
2440000000.0 -0.1295328551755052 0.2856523590957922
2460000000.0 0.33666586566210865 -0.016319974852892966
2480000000.0 -0.0011622454528857744 -0.372955372059594
2500000000.0 0.3079991468183317 0.2646071682603908
2520000000.0 -0.4258027737022478 -0.12626653812436808
2540000000.0 0.459982106561513 -0.13309470335187282
2560000000.0 -0.2996080480370942 0.4145583093299378
2580000000.0 0.2054908218022083 -0.5006642248342894
2600000000.0 -0.0916948512915713 0.5590961694312682
2620000000.0 -0.044299953196250075 -0.5869731358263559
2640000000.0 0.19643056467545408 0.5727327587921744
2660000000.0 -0.570004854569887 -0.24634248823428787
2680000000.0 0.360225727860752 -0.5174440493620117
2700000000.0 0.610149043605579 0.191888577746556
2720000000.0 0.457770212552476 0.4537543701815505
2740000000.0 0.28851612806533034 0.578222724319822
2760000000.0 0.3038003030606691 0.5699873566283837
2780000000.0 -0.6385385512528124 -0.022112107281129945
2800000000.0 -0.5018770277346294 -0.38008977125858506
2820000000.0 0.09386184317760067 -0.6102823638256376
2840000000.0 0.4754134211431937 0.37119722983983927
2860000000.0 -0.4740172054540305 -0.34782635197451073
2880000000.0 0.17323441046728802 0.5432929516205328
2900000000.0 0.45740330493169656 -0.3041204816322173
2920000000.0 0.03801688916653461 -0.5258976274150436
2940000000.0 -0.2575914974138915 -0.43001892012450343
2960000000.0 -0.26262686767622506 -0.399178481456113
2980000000.0 -0.33703535682771724 -0.30711299348129073
3000000000.0 -0.33756207835511337 -0.2772737142543034
3020000000.0 -0.3818727084978518 0.17200998760998942
3040000000.0 0.12586915278325478 0.3776437106919506
3060000000.0 0.2864022405466659 -0.24775209307900306
3080000000.0 -0.3469713741539721 0.11383482899268661
3100000000.0 0.33626728371246334 0.10590231167811415
3120000000.0 0.12264040664729456 -0.32312654997539303
3140000000.0 -0.15607695347350745 0.3037636282265641
3160000000.0 0.022465273128626 -0.339236662206069
3180000000.0 0.10208737732822944 0.3202746610342642
3200000000.0 0.3246967000921464 -0.062387993979431726
3220000000.0 -0.1847711138989937 -0.2669940416132927
3240000000.0 -0.2514364181470741 -0.19054900233566927
3260000000.0 -0.3002089710748743 0.04568440214594475
3280000000.0 -0.28958053948935497 -0.04076770486525425
3300000000.0 -0.2759810210481784 -0.01021084299367073
3320000000.0 -0.1797425244866014 -0.1745184212653358
3340000000.0 0.22739840079786144 0.002897654211369126
3360000000.0 -0.16865448555332133 0.11625567940048964
3380000000.0 0.03036162139096471 -0.18446269660369113
3400000000.0 0.1423159747896278 -0.08505626558091907
3420000000.0 0.1425243579482055 0.00848499134199409
3440000000.0 0.05820286035456151 0.11131023006057862
3460000000.0 0.10770880880879355 -0.0010497620049730616
3480000000.0 0.012047791215888984 -0.08827504556483665
3500000000.0 0.059319456215524036 0.057588652641089304
3520000000.0 -0.06659736994234992 -0.043621978819710756
3540000000.0 0.06152793424205842 0.054227198000763865
3560000000.0 0.04267168519070253 0.07846048262498191
3580000000.0 -0.03840983837593025 -0.08580073620053602
3600000000.0 -0.05015163251958747 -0.08420542407523579
3620000000.0 0.06438467912031645 0.08756578744057435
3640000000.0 -0.019233072007383945 0.12182087762118285
3660000000.0 -0.035570349065290385 0.12810449278786953
3680000000.0 0.0018660668527794946 0.13757467685597563
3700000000.0 -0.09827047329632392 -0.08472649470971748
3720000000.0 0.04927033250576133 -0.10536493336808604
3740000000.0 -0.07740472487350514 0.0616485051872265
3760000000.0 -0.08170996090528941 -0.015234555667909324
3780000000.0 0.06313925039590221 -0.010545208967795304
3800000000.0 0.029080216661252385 0.02009210862202636
3820000000.0 0.0022390503441094118 -0.0024472686002239537
3840000000.0 0.021235163597688768 -0.025664585304980128
3860000000.0 0.0460097255069505 -0.0419416547003261
3880000000.0 0.05985818345265107 -0.0641940185814328
3900000000.0 -0.10608822311619823 -0.015729305334704197
3920000000.0 -0.011497452489818885 0.1258265621523075
3940000000.0 0.13352984359553183 0.008348601884162582
3960000000.0 0.06586636625901351 0.11932946198333583
3980000000.0 0.050110501592886394 -0.1266048898403145
4000000000.0 -0.1118721090316837 0.029092803051909293
