!Created with skrf (http://scikit-rf.org).
# Hz S RI R 50.0 
!freq ReS11 ImS11
400000000.0 0.7894434378173797 0.3679047320637461
420000000.0 0.23340535841760754 0.7822173809114457
440000000.0 0.47487497371377396 0.5930390426983324
460000000.0 -0.586013884761072 -0.35716158395016356
480000000.0 -0.12074046675024964 -0.6096153495150073
500000000.0 0.576471192634858 -0.31362991642185656
520000000.0 -0.2628159280367423 0.6088268503773925
540000000.0 0.6719268688569231 -0.09391961947261816
560000000.0 -0.40001655157253063 0.537783293912146
580000000.0 -0.21979372963525767 0.47580853249402916
600000000.0 0.0553301259729865 0.5893761112851433
620000000.0 -0.4193324314947961 -0.4438843669366703
640000000.0 -0.5133427345118249 -0.24201392504856029
660000000.0 0.05769386024726132 0.5185842293433583
680000000.0 -0.05761884104042552 0.4948086081141265
700000000.0 0.4472503580246325 -0.0480782690829234
720000000.0 -0.2044531847171749 0.4424460118204234
740000000.0 0.26069252543956084 0.39432934539141307
760000000.0 0.25445694244147243 0.3691739610739704
780000000.0 -0.38799558297922043 -0.1799945918685126
800000000.0 0.24205236502312857 -0.3199765298603456
820000000.0 0.3452369152721293 -0.06622188878665432
840000000.0 0.13445392632573427 0.2962774403959266
860000000.0 0.2611558087409304 -0.13487379797141558
880000000.0 -0.15475658899999414 0.2254971643894643
900000000.0 -5.37140668024092e-05 0.2724577108422982
920000000.0 0.2292423763274137 -0.12385785897184207
940000000.0 0.22193320020552135 0.00753062098401304
960000000.0 -0.17558574216054365 0.0055077846587317575
980000000.0 0.04910528724425193 -0.13659322432663862
1000000000.0 0.015008193456063024 0.13213518431217575
1020000000.0 -0.09969898867173574 -0.0337586979190716
1040000000.0 0.04079834802438386 -0.10637828885371908
1060000000.0 0.13589901826288864 0.02635339459504887
1080000000.0 0.14296805886961544 0.13448901277585495
1100000000.0 0.033067824439263004 0.23890100258388777
1120000000.0 0.25430241748254684 -0.10864608138684465
1140000000.0 -0.2901235299442348 0.0811721472178466
1160000000.0 -0.2821714672836316 0.14438979337678706
1180000000.0 -0.26552087497389376 -0.20939886939421493
1200000000.0 -0.327440993957153 -0.1251126325723894
1220000000.0 0.3557781710419655 -0.009235530511458794
1240000000.0 0.1948988976102516 0.3220726019155616
1260000000.0 0.38149462815015 -0.0954258961738794
1280000000.0 -0.3546575932201736 -0.1485247253009611
1300000000.0 -0.17036204169091299 -0.3406341205779003
1320000000.0 -0.021801404331174556 -0.3772166914554396
1340000000.0 -0.3682179747523195 0.044758076753936026
1360000000.0 0.19731902818128225 0.33587924555371745
1380000000.0 -0.07623197510254498 0.39475669813782277
1400000000.0 -0.06000586918491025 -0.39037994219904076
1420000000.0 0.16877937745129218 -0.35525431284995274
1440000000.0 -0.25120584072283886 -0.3062205077503469
1460000000.0 -0.38826134664457246 -0.07656850215476166
1480000000.0 -0.3400361095970323 -0.20116317474277123
1500000000.0 0.04701965003071397 0.39629144525528365
1520000000.0 -0.37846485206621255 0.08690305203111597
1540000000.0 0.3580183963372756 -0.045832685304308465
1560000000.0 -0.16996451038606336 0.2826216073986024
1580000000.0 -0.18212558739040863 -0.22783991991581526
1600000000.0 0.06477211814988211 -0.24912516736145116
1620000000.0 0.19631410858736437 -0.09229844006247816
1640000000.0 -0.11835271156216659 0.14357876779141085
1660000000.0 -0.009037540297608756 0.15388788285384386
1680000000.0 0.09662144430044027 0.05664568675762109
1700000000.0 -0.08641116493651256 -0.05642590152316669
1720000000.0 0.04136924116490235 -0.06912466357084303
1740000000.0 0.03373016679022213 -0.07168604374381593
1760000000.0 0.07756234829202668 -0.04516576918000975
1780000000.0 0.10374337834748903 -0.051943434613885675
1800000000.0 0.09987797574715665 -0.09947177576129229
1820000000.0 -0.1639519643681051 0.0307030041173947
1840000000.0 0.19406326458112275 -0.021683619764324338
1860000000.0 -0.21787938501655943 -0.041921275818633766
1880000000.0 -0.01673305522961188 0.25606616054630554
1900000000.0 0.14901546202934274 0.22761506538729834
1920000000.0 0.22059141252598832 -0.19544641363488527
1940000000.0 -0.30185078366846546 -0.040218559050147304
1960000000.0 0.30132950110574824 -0.06259705984969521
1980000000.0 -0.29714086547859486 -0.1022060308890044
2000000000.0 0.051991788968753075 -0.31702083189549957
2020000000.0 0.31494878812878296 -0.0613143973113707
2040000000.0 0.3143198133333492 0.06745451180082712
2060000000.0 0.28306796116419186 0.14666088652351736
2080000000.0 0.1327692306347607 0.28774476719769315
2100000000.0 0.10634161754208206 -0.2951863990886672
2120000000.0 0.2300654233085279 0.2003682124240955
2140000000.0 -0.02154156103318794 -0.29850999626513236
2160000000.0 -0.2940170140103508 0.03466339526855899
2180000000.0 0.03263950371495298 0.28752189884901797
2200000000.0 -0.1133744428967243 0.2584214395516176
2220000000.0 -0.18071466596404967 0.21618466253772148
2240000000.0 -0.15489557408950533 -0.2283069720564442
2260000000.0 0.17000224996278984 -0.21180993475490928
2280000000.0 0.2621948230942069 -0.06990314090646522
2300000000.0 0.2492912749469064 0.07324280233805558
2320000000.0 -0.2461602861119018 -0.0676512778537601
2340000000.0 -0.038083357193075325 -0.25287886292716927
2360000000.0 0.1875753868478639 -0.1742710696037403
2380000000.0 0.08863979491758067 0.242724415752697
2400000000.0 0.16700855336282755 0.2243272005575117
2420000000.0 0.10450543668839159 -0.27682092462752883
2440000000.0 -0.29402470856631907 0.11840289587685192
2460000000.0 0.33364176314468125 0.05914948315276275
2480000000.0 0.18313309277236983 -0.32334546059846564
2500000000.0 0.007090265693957675 0.4058946372581695
2520000000.0 -0.3696086052413732 -0.24533350157793513
2540000000.0 0.4726638965917629 -0.061855541072540134
2560000000.0 -0.3357928048684746 0.38433963959259076
2580000000.0 0.1706500068087852 -0.512651585556155
2600000000.0 -0.04382412208679566 0.5650968803653988
2620000000.0 -0.12730597026769835 -0.5747616868073866
2640000000.0 0.25369689115844457 0.5514174502462903
2660000000.0 -0.5704656595513314 -0.25145988632818383
2680000000.0 0.39052744180419235 -0.4982208805792202
2700000000.0 0.6007402881894415 0.22635094355259777
2720000000.0 0.3190574841355681 0.5623584235184829
2740000000.0 0.22948579916308776 0.6057669675320504
2760000000.0 0.15668425481768725 0.6277054929327297
2780000000.0 -0.6101394858512089 -0.19169805397688022
2800000000.0 -0.4144925515201834 -0.4736184821914699
2820000000.0 0.144855315360946 -0.5993036697328578
2840000000.0 0.4376400598124367 0.41251113377974225
2860000000.0 -0.465051218465328 -0.35856518828022527
2880000000.0 0.22151656032244837 0.5252212577247716
2900000000.0 0.4297051711003381 -0.3406766208379597
2920000000.0 0.04705860480734419 -0.5257272617056065
2940000000.0 -0.384840838389866 -0.324744951203102
2960000000.0 -0.2480925093918987 -0.40841349020121004
2980000000.0 -0.2689837410220453 -0.37115462820005524
3000000000.0 -0.3532913293768616 -0.2604751211456267
3020000000.0 -0.4076550002861438 0.10208720596791479
3040000000.0 0.04062941677211169 0.3994464967477518
3060000000.0 0.3653398880828839 -0.10631894262764607
3080000000.0 -0.33971258822137107 -0.1353786190400244
3100000000.0 0.26860229228725757 0.22643691739199207
3120000000.0 0.3081266538053038 -0.15770624117520132
3140000000.0 -0.1409848260983249 0.3090558926777598
3160000000.0 0.14706048435618257 -0.30257235761166973
3180000000.0 0.0451778194201225 0.3316020524082702
3200000000.0 0.31546044645329474 -0.0937664799569912
3220000000.0 -0.2022908812623252 -0.2544720790261382
3240000000.0 -0.3138525658589525 -0.040783223133526975
3260000000.0 -0.28139083655525443 0.11599739943867018
3280000000.0 -0.2915905608729961 -0.03932874903105354
3300000000.0 -0.2771213755089031 -0.030460488625856277
3320000000.0 -0.19708820239810595 -0.15945098920156936
3340000000.0 0.22638337160109925 0.028250258774747242
3360000000.0 -0.19840516994355528 0.06148863551083285
3380000000.0 0.12158808756678129 -0.1442207407205339
3400000000.0 0.12615550207590226 0.1089152477297318
3420000000.0 0.10640344155697097 0.09578170774502182
3440000000.0 -0.10774607870773087 0.06412905278897299
3460000000.0 -0.07972818090271423 0.06995079619202214
3480000000.0 0.08069987793748139 -0.0361642205831395
3500000000.0 -0.021614121108138176 0.07658774960547969
3520000000.0 -0.039099911019801654 -0.0669371961735735
3540000000.0 0.055898722717454455 -0.05427763412594888
3560000000.0 0.08802360176203732 -0.0023078556195661923
3580000000.0 -0.0828294758283613 0.045247877929628796
3600000000.0 -0.0649668738726026 0.0742670895226975
3620000000.0 0.0664227956585036 -0.0876180580220353
3640000000.0 0.05467939503814766 0.11221462122688339
3660000000.0 -0.02162282663726378 0.13514237178536462
3680000000.0 0.08844948788384568 0.1090187632465191
3700000000.0 -0.11796896426390942 -0.05772986500828664
3720000000.0 0.10995999441354198 0.04622005901259161
3740000000.0 -0.05204576810997762 -0.08725263364716035
3760000000.0 -0.06032140331853244 -0.05705607510275107
3780000000.0 -0.06121270811447996 -0.016493745735222016
3800000000.0 0.01951784511255623 -0.028051605851157707
3820000000.0 0.001164858197831727 0.00044190635934614176
3840000000.0 -0.027044657038579237 0.021970316947598153
3860000000.0 0.023190893107533243 -0.061150684358107346
3880000000.0 0.05351986293425414 -0.07490736928064803
3900000000.0 -0.09129998724156446 -0.06478413475727393
3920000000.0 -0.10859626962886794 0.06563678501917765
3940000000.0 -0.05666136615096519 0.12278225688331029
3960000000.0 -0.10095945898663451 0.09577618426118456
3980000000.0 0.11019725416130058 -0.07879968296164258
4000000000.0 0.0033757901313828235 -0.11363607687086928
