!Created with skrf (http://scikit-rf.org).
# Hz S RI R 50.0 
!freq ReS11 ImS11
400000000.0 0.7951170291204329 0.3562239483837597
420000000.0 0.2816212797592565 0.765831265162279
440000000.0 0.37131904809537364 0.663854015303651
460000000.0 -0.5811261854921624 -0.3667444738419506
480000000.0 -0.12442627296249613 -0.6053583377530325
500000000.0 0.6483213022602755 -0.085227967644534
520000000.0 -0.445567128992829 0.5007017475357213
540000000.0 0.6028886868499259 -0.31068681205839915
560000000.0 -0.21213434825741773 0.6320892786306397
580000000.0 -0.36214389041303463 0.37167833395500616
600000000.0 -0.0677813965658746 0.5912397663615975
620000000.0 -0.49628483568669896 -0.36114684349182125
640000000.0 -0.5020708059513852 -0.26488707606694734
660000000.0 0.2172159202078051 0.4742975330320958
680000000.0 -0.31315039409440626 0.3834418536334885
700000000.0 0.40882473127626145 -0.19424668953057034
720000000.0 -0.2651296466231354 0.41103961959870156
740000000.0 0.44364126763356665 0.1598965989621228
760000000.0 -0.2555218768174263 0.36488773795132434
780000000.0 -0.42522422617011896 0.07622827731084468
800000000.0 0.16893752537266488 -0.3591367564062137
820000000.0 0.3433954764242745 0.09608452080326539
840000000.0 0.18013349188599306 0.26857496581590795
860000000.0 0.14998820025603374 -0.2599631539274904
880000000.0 0.2299467687551685 0.13586446181881845
900000000.0 -0.2501570430552206 0.08535276267029819
920000000.0 0.2569044760119956 0.06819294051434348
940000000.0 0.21650127864111057 0.06460264079323236
960000000.0 -0.042395998868872686 0.17257074252524476
980000000.0 -0.06268945769246573 -0.12754818400194076
1000000000.0 -0.002937960826163626 0.13563313124107904
1020000000.0 -0.03586902091202505 0.09476089448827907
1040000000.0 0.0022749986650312842 0.11471531444814631
1060000000.0 0.140106616984921 -0.01682429900968062
1080000000.0 0.1851290153702385 0.056706138402178335
1100000000.0 0.06589423608664886 0.2312322583658208
1120000000.0 0.24195895914328677 -0.13561202077479248
1140000000.0 -0.30001918062961835 -0.01874243239818991
1160000000.0 -0.31865797300356646 -0.009621391076106843
1180000000.0 -0.33664956039830835 0.045829975785726576
1200000000.0 -0.343642115835379 -0.0577961908386809
1220000000.0 0.351298202614415 0.04362044793236955
1240000000.0 0.06475899112489245 0.37103619427912526
1260000000.0 0.3500524204839429 -0.18608691762140855
1280000000.0 -0.3818618370071366 -0.0350394467551145
1300000000.0 -0.0614586663271715 -0.3734272571304936
1320000000.0 0.037234389453449354 -0.37844228328471635
1340000000.0 -0.3620397212450867 0.07800341132746344
1360000000.0 0.3062746573061443 0.23922436586341905
1380000000.0 -0.16352757561467107 0.3641368967276054
1400000000.0 0.03311631391332839 -0.3951113507103334
1420000000.0 0.035620732429317466 -0.3918978562772973
1440000000.0 -0.17691890957591097 -0.3538640107891964
1460000000.0 -0.3939700403139059 0.03231448855169342
1480000000.0 -0.26819456974510614 -0.2929560339424327
1500000000.0 -0.00301982811575559 0.40001736297277635
1520000000.0 -0.38527553828354405 0.0415195629450771
1540000000.0 0.34578991784209984 -0.10529677789526151
1560000000.0 -0.17854948197430584 0.2756519331615642
1580000000.0 -0.1384810347017586 -0.25837946311963034
1600000000.0 -0.0006115590840915652 -0.25879624979281896
1620000000.0 0.14164271106952697 -0.1637146523284888
1640000000.0 -0.17299228508915243 0.060389099705176905
1660000000.0 -0.11498776621208684 0.10432284992252662
1680000000.0 0.09850224096815793 -0.056817277659213884
1700000000.0 -0.09989815636215041 -0.016479699997829406
1720000000.0 0.07630067021368482 0.02278883373339174
1740000000.0 -0.04143202707562687 -0.06825502512553938
1760000000.0 -0.03571000235408813 -0.08051798333651224
1780000000.0 0.10476780145645041 0.050188067795314116
1800000000.0 0.03447085266775557 -0.1358412161205091
1820000000.0 -0.1310351225334526 0.10327667925841387
1840000000.0 0.1956858016901157 -2.367577987509763e-05
1860000000.0 -0.22125839017661036 0.020721961587593495
1880000000.0 -0.036015574503101236 0.25308520197212003
1900000000.0 0.0872682342897036 0.26010595624035826
1920000000.0 0.17334580683574108 -0.23718474913037635
1940000000.0 -0.30134371373780605 -0.04754404660773479
1960000000.0 0.28217477648261474 -0.1232638268716681
1980000000.0 -0.29387989231006106 -0.11105142907494085
2000000000.0 0.04914645328554362 -0.31701579045226747
2020000000.0 0.3080529950908293 -0.08604900757152974
2040000000.0 0.31775257965887443 0.05470177281676495
2060000000.0 0.31678587518468265 0.02202552208703267
2080000000.0 0.07840758673274481 0.30639565206133373
2100000000.0 0.059127032432748305 -0.30857702278459553
2120000000.0 0.2815750897436163 0.1156371645228435
2140000000.0 0.024784660225980484 -0.29763127319433513
2160000000.0 -0.2752845418254536 0.11267533556087202
2180000000.0 0.11016479429103805 0.26721016657471947
2200000000.0 -0.13762172888459834 0.2458859707744389
2220000000.0 -0.22255030635283227 0.1741005776474219
2240000000.0 -0.18340976879979412 -0.20834091017133546
2260000000.0 0.12292686740247658 -0.24047924288854022
2280000000.0 0.27153297706313334 -0.009559962928779921
2300000000.0 0.24071086882510484 0.09620533903027907
2320000000.0 -0.24934916947711674 -0.05723234904014899
2340000000.0 -0.0732485911184268 -0.24539906798703892
2360000000.0 0.21658716166972453 -0.13515071517462826
2380000000.0 0.0663961754736375 0.2494719566901438
2400000000.0 0.15153496041405115 0.2353375100214671
2420000000.0 0.030631018477423194 -0.29687450642408525
2440000000.0 -0.19370975408470462 0.24856697131491828
2460000000.0 0.3152290293246757 0.1223351094964325
2480000000.0 0.16561992953436622 -0.3336331263675527
2500000000.0 0.1380393513561897 0.3818606400469675
2520000000.0 -0.397749555082699 -0.19936035098549357
2540000000.0 0.46299200148394243 -0.11783468020433753
2560000000.0 -0.32202536240168494 0.3957986087155394
2580000000.0 0.22419612801650876 -0.4908137369460684
2600000000.0 -0.07792532630622843 0.561313089946458
2620000000.0 -0.13162005105510396 -0.5747447628483842
2640000000.0 0.25044775058521346 0.5529155922567646
2660000000.0 -0.5608649156465408 -0.27191264661335485
2680000000.0 0.40115590338736146 -0.48943860666182776
2700000000.0 0.6128178260064513 0.19028059073412149
2720000000.0 0.3491823041406502 0.543774271868815
2740000000.0 0.20342829453602473 0.6149168269403773
2760000000.0 0.133780935716366 0.6324947725260174
2780000000.0 -0.6139215045702477 -0.17819335359748828
2800000000.0 -0.4047207660202625 -0.4819208761974926
2820000000.0 0.1532752373221635 -0.5975773684572503
2840000000.0 0.4586809909173663 0.3898949836989236
2860000000.0 -0.4800283540623779 -0.3373713423546123
2880000000.0 0.217569923344125 0.5270093116292013
2900000000.0 0.40721582860907823 -0.3683593265446184
2920000000.0 0.01529682157437743 -0.5266539306366315
2940000000.0 -0.3370292212680372 -0.37488868696075717
2960000000.0 -0.285322983485195 -0.38463994543135405
2980000000.0 -0.27695258387908306 -0.3628345328468319
3000000000.0 -0.3164486062579326 -0.3041634354394461
3020000000.0 -0.40298016835365574 0.12078237291631658
3040000000.0 0.049452545541726865 0.3963617169922819
3060000000.0 0.36877235245331985 -0.09358001609464432
3080000000.0 -0.34357441741298556 -0.12767386480479573
3100000000.0 0.3288374336432865 0.1242553896212617
3120000000.0 0.27416349212618274 -0.20873123790207143
3140000000.0 -0.16336225025293033 0.29896127419368074
3160000000.0 0.06958533418933327 -0.33011937481501435
3180000000.0 0.06952951058905592 0.327545654247529
3200000000.0 0.31911411855745636 -0.08291511552896061
3220000000.0 -0.2359148110985416 -0.223455279769113
3240000000.0 -0.30981528286561627 -0.06374070027242411
3260000000.0 -0.2928266948414563 0.08535551098733947
3280000000.0 -0.28809614175594583 -0.059618926942094266
3300000000.0 -0.27718803508923856 -0.011403745719598587
3320000000.0 -0.17374771915726586 -0.1847299114742525
3340000000.0 0.20485415648554975 0.1004602112508717
3360000000.0 -0.18410989106871037 0.09588272745695445
3380000000.0 0.08830016075009973 -0.1651249815733275
3400000000.0 0.12687560216428148 0.10682408911980844
3420000000.0 0.0884734762300115 0.11248070738916208
3440000000.0 -0.062301151457932795 0.10839359541573157
3460000000.0 -0.02512064349699262 0.10292204925566216
3480000000.0 0.07042009171790227 -0.052998724708076456
3500000000.0 -0.009021451600481688 0.07989534081008434
3520000000.0 -0.013861560185746698 -0.07708459718931072
3540000000.0 0.056876921132864376 -0.053027182113645384
3560000000.0 0.0856352576274886 -0.02057238685193077
3580000000.0 -0.09089090942685905 0.02282660746708674
3600000000.0 -0.07186493488847492 0.06676186048147006
3620000000.0 0.08760973238730617 -0.06814244010599586
3640000000.0 0.027065330506889362 0.12212456050129944
3660000000.0 -0.02296184527579363 0.13339222556275013
3680000000.0 -0.020520880098926254 0.1374944380143633
3700000000.0 -0.1255897935230571 -0.04156609066880538
3720000000.0 0.10660573378658034 -0.04982354198850985
3740000000.0 -0.0641977399250104 -0.07733277280907698
3760000000.0 -0.0379265160113116 -0.07349921702260676
3780000000.0 -0.05428937811838658 0.03359957871944635
3800000000.0 -0.0338506666464998 -0.002395028585476156
3820000000.0 -0.0011373544066707552 -0.0017393805493109223
3840000000.0 0.008938046216611989 -0.03334788451682309
3860000000.0 0.04684138521334668 -0.044497627007373676
3880000000.0 0.050042685646199556 -0.07688419423755063
3900000000.0 -0.10988219480634523 -0.011600793471642857
3920000000.0 -0.10541987302362485 0.06821934249191965
3940000000.0 -0.09114086469907903 0.10074249362966702
3960000000.0 -0.07329598870984662 0.11762753971959436
3980000000.0 0.08140744348304808 -0.10588047861078366
4000000000.0 0.01537531515756522 -0.11214404202109243
