!Created with skrf (http://scikit-rf.org).
# Hz S RI R 50.0 
!freq ReS11 ImS11
400000000.0 0.7836579637387014 0.3816475292516924
420000000.0 0.24753256667746176 0.7784889965607056
440000000.0 0.3377002899535848 0.6821564747391011
460000000.0 -0.601437664328897 -0.33351158943003173
480000000.0 -0.18770651023356036 -0.5887213051387911
500000000.0 0.6506546801872348 -0.002936541638101715
520000000.0 -0.152370602965811 0.6549596491133247
540000000.0 0.6219932166571023 -0.26307809119846964
560000000.0 -0.5026449968896871 0.43964226483728536
580000000.0 -0.37078179040526366 0.36954058138777734
600000000.0 -0.12665449323574443 0.5852564132976881
620000000.0 -0.607927984206084 -0.08029238887246422
640000000.0 -0.5300105469263983 -0.18136161808554752
660000000.0 -0.05127703170756141 0.5202527676522825
680000000.0 -0.14354134399523027 0.47160612451080053
700000000.0 0.4376515595531785 0.12123792197526483
720000000.0 -0.10315275384781109 0.48226667383409444
740000000.0 0.4479471147892456 -0.14362036382934754
760000000.0 -0.225058517706747 0.37992008160810226
780000000.0 -0.4272460047126405 -0.08665634107461058
800000000.0 -0.05286694366516544 -0.3957661800121102
820000000.0 0.3083060654883772 0.16798363955084814
840000000.0 -0.027533776341784517 0.32218231369311545
860000000.0 0.281437014246192 -0.09458640316511195
880000000.0 0.17583583466365557 0.21453421678753568
900000000.0 0.2645512541277127 0.061051032983292675
920000000.0 0.22785371278268923 -0.0941618219489585
940000000.0 -0.12875633854155133 -0.17905750579098445
960000000.0 -0.12201090554864875 -0.14684322231160185
980000000.0 -0.009907825502539705 0.14828105493084728
1000000000.0 0.09821734633978446 -0.0846110545293144
1020000000.0 -0.09382314937599337 -0.02393292258678999
1040000000.0 -0.05310961313297849 -0.09720739416933019
1060000000.0 0.11095381046736172 0.09343092147507086
1080000000.0 0.18782650123804345 0.047325315613111055
1100000000.0 0.1706249676663311 0.17034342942430275
1120000000.0 0.17457432921664037 -0.21330218176718044
1140000000.0 -0.2975387601161027 -0.020425047790967214
1160000000.0 -0.3123557737387875 -0.05831930615165686
1180000000.0 -0.34113081313358884 -0.00480402585163952
1200000000.0 -0.3268630164027058 -0.12518585985011257
1220000000.0 0.3535286125270976 -0.047021156123803025
1240000000.0 0.08778773625455726 0.3647703958939463
1260000000.0 0.38455789425612563 -0.08546796204268492
1280000000.0 -0.34175102960593456 -0.17646807795796368
1300000000.0 -0.071149371876509 -0.3733048974725691
1320000000.0 -0.12856232733807965 -0.3569984720567796
1340000000.0 -0.35928862684421586 -0.08759911178359436
1360000000.0 0.23885831417595135 0.30954130724382395
1380000000.0 0.018374668080553165 0.39874122926683575
1400000000.0 0.11351857458032064 -0.3775413822487071
1420000000.0 -0.00217155895488759 -0.3947071669644723
1440000000.0 -0.3849882299049633 -0.08807505329582632
1460000000.0 -0.38468197876775934 -0.0867610890147599
1480000000.0 -0.33664498762844675 -0.21394150776459636
1500000000.0 -0.006592097424415117 0.39936973349175825
1520000000.0 -0.3625739553857395 0.14526657384937555
1540000000.0 0.3419461029340367 -0.10865793890846988
1560000000.0 -0.19468709163955755 0.26345175029203555
1580000000.0 -0.11069442601638635 -0.27072239769733586
1600000000.0 0.10470658323022737 -0.23761483299469383
1620000000.0 0.14217972713953736 -0.16365010799239263
1640000000.0 -0.14601692593383134 0.11018934941590162
1660000000.0 -0.12724415108961057 0.08836843932396987
1680000000.0 0.1106997132683162 -0.02260100877500102
1700000000.0 -0.09213184651747405 -0.04139875493215605
1720000000.0 0.04207376634284361 -0.06829896562448198
1740000000.0 0.0634894867708881 -0.04925970822227873
1760000000.0 -0.026109557000489263 -0.08318738650979564
1780000000.0 0.07726963521445873 -0.08668865216687231
1800000000.0 0.06603035314722729 -0.12304725517225107
1820000000.0 -0.16757007855198036 -0.017366087779676534
1840000000.0 0.16349580743938164 -0.10760960771847607
1860000000.0 -0.20299948892744218 0.08749447969151183
1880000000.0 -0.005681617161066596 0.25510335778535004
1900000000.0 0.044517762444929845 0.26991492726851696
1920000000.0 0.1954704336414313 -0.22150398977434366
1940000000.0 -0.30581912803941813 0.011340688028422809
1960000000.0 0.2986795794245789 -0.07592794908080615
1980000000.0 -0.2759727516866516 -0.1493295212481882
2000000000.0 0.0939697802365333 -0.3075700287421585
2020000000.0 0.3008096994069361 -0.10969525279740619
2040000000.0 0.3038688796841083 0.09964052399111735
2060000000.0 0.2795165853382972 0.1507660022577753
2080000000.0 0.1727065219921315 0.26502552428798953
2100000000.0 -0.004481477153331963 -0.31320232580712454
2120000000.0 0.27267619993122816 0.13340968394943567
2140000000.0 -0.05680819689457575 -0.29393226652459253
2160000000.0 -0.24551060077446096 0.16491663058341846
2180000000.0 0.03541534814650947 0.2878563628890228
2200000000.0 -0.09989605997693599 0.26768015578367976
2220000000.0 -0.18865678668273003 0.21016158801713636
2240000000.0 -0.20911442239061978 -0.18114612558863852
2260000000.0 0.1490058410683264 -0.22541295445844706
2280000000.0 0.2525194321078838 0.10170077179167404
2300000000.0 0.20208153431262413 0.16527111588624868
2320000000.0 -0.22597463137286172 -0.11960463806693486
2340000000.0 -0.12134019603304148 -0.22590438072770375
2360000000.0 0.1762071788599462 -0.18079150431777052
2380000000.0 -0.05567313235080124 0.2505244237326359
2400000000.0 0.11508284968751889 0.25511419188750784
2420000000.0 0.06056900617580175 -0.29246197177808725
2440000000.0 -0.07010600260255707 0.3073627031013732
2460000000.0 0.33359793593343445 -0.05061189569996691
2480000000.0 0.08988024520203707 -0.3599305230170982
2500000000.0 0.1079927574023325 0.39245571361517895
2520000000.0 -0.40833948221187427 -0.1792810908598565
2540000000.0 0.4596104437113616 -0.13524493492533435
2560000000.0 -0.2967353691568528 0.41622405856985517
2580000000.0 0.20703431887022647 -0.49912959199856394
2600000000.0 -0.05980203777750296 0.5629502096153365
2620000000.0 -0.07727611424997122 -0.5836646337227291
2640000000.0 0.1869238021480686 0.5768877196348798
2660000000.0 -0.5649108140518125 -0.2602573118352817
2680000000.0 0.3700116617895756 -0.5117805306569903
2700000000.0 0.6107611625691105 0.19358194581729665
2720000000.0 0.4108756861506829 0.49754582909223305
2740000000.0 0.33794752851831117 0.5515928897997763
2760000000.0 0.24305024653128338 0.599017223569327
2780000000.0 -0.6299722569561291 -0.10979734555266907
2800000000.0 -0.4645339283779661 -0.4250779828303144
2820000000.0 0.14076240166160714 -0.6006588254685675
2840000000.0 0.45232540474745836 0.3984716814628588
2860000000.0 -0.4869297885303381 -0.32765822985688475
2880000000.0 0.24382071620979137 0.5145825163295946
2900000000.0 0.4350724347142954 -0.3322064628612494
2920000000.0 0.04182793716546069 -0.5245571489701027
2940000000.0 -0.32815901145449866 -0.3823897049842523
2960000000.0 -0.2702142023186731 -0.39484452152325333
2980000000.0 -0.33871687220788865 -0.30494941283390287
3000000000.0 -0.28655288444287624 -0.3286899190853896
3020000000.0 -0.36862796250987 0.2013182207896252
3040000000.0 0.12225590151690213 0.38023872301366285
3060000000.0 0.35489706945804694 -0.13426602018969652
3080000000.0 -0.3611392079622062 -0.05774659629792402
3100000000.0 0.32446573171144827 0.13583472215165118
3120000000.0 0.22996732025020686 -0.25817275514613097
3140000000.0 -0.10016467100831908 0.3248449236061015
3160000000.0 0.1417056508915779 -0.30748567722944103
3180000000.0 0.013926131039168652 0.3350563885256223
3200000000.0 0.3199676667571747 -0.0787110577128735
3220000000.0 -0.19419581673146596 -0.2605222183813685
3240000000.0 -0.29200018698470914 -0.12058772364437108
3260000000.0 -0.2983567443469675 0.06031313472926504
3280000000.0 -0.289914004823934 -0.040900466185679774
3300000000.0 -0.2709523675080035 -0.052681910312318864
3320000000.0 -0.15146245589825907 -0.20125087572013317
3340000000.0 0.2063866451971906 0.09732850418823709
3360000000.0 -0.14343900996759848 0.14856306075280454
3380000000.0 0.05979246318640725 -0.17742775316439485
3400000000.0 0.1624813694009496 0.03132494879348776
3420000000.0 0.14208470030157966 0.017920850771086932
3440000000.0 -0.0076481997473618795 0.125109274182382
3460000000.0 0.005585842887219917 0.10581800532175435
3480000000.0 0.08398318211723543 -0.027909496171132753
3500000000.0 -0.0131665918563251 0.08082352767636322
3520000000.0 -0.04605045382066318 -0.06589460469014972
3540000000.0 0.07345580424985663 -0.030710548759221332
3560000000.0 0.08776082354360708 0.004232630310616177
3580000000.0 -0.08403811116833744 -0.04097911013898913
3600000000.0 -0.08578931228832383 -0.047295330573318486
3620000000.0 0.11061705243778397 -0.006911689716819004
3640000000.0 -0.0019460795854634118 0.12343171567796354
3660000000.0 -0.0021402782083502596 0.13471153116863413
3680000000.0 0.05581864327141104 0.1262986519065374
3700000000.0 -0.09602003321901949 -0.08540864381254054
3720000000.0 0.11221458771626118 -0.03580107740156362
3740000000.0 -0.09847013154203141 -0.012403451769729385
3760000000.0 -0.08271748784135097 0.006508780451513528
3780000000.0 0.020407752441404223 0.06039898168815377
3800000000.0 -0.01664760967383998 0.03084830280274989
3820000000.0 0.0006239396870203366 -0.00225709605470087
3840000000.0 -0.001830281820664828 -0.03466706438333268
3860000000.0 -0.019913248408106987 -0.05901629812326349
3880000000.0 0.08284893591270141 -0.03417730659071545
3900000000.0 -0.1066744068506624 0.02694079785723259
3920000000.0 -0.052404998487631534 0.11324965369292532
3940000000.0 0.03578888341533853 0.12922000266235167
3960000000.0 -0.015392794604041403 0.13795941211402415
3980000000.0 0.02868368849332443 -0.13128074210713972
4000000000.0 -0.0969120111619747 -0.060988682749926644
