!Created with skrf (http://scikit-rf.org).
# Hz S RI R 50.0 
!freq ReS11 ImS11
400000000.0 0.8362893958479529 -0.2670856315660952
420000000.0 0.7750610061511901 -0.29657407660242624
440000000.0 0.47988599680971294 -0.6050090631248669
460000000.0 0.23448032010912656 0.6573675630034975
480000000.0 0.3164268840398648 -0.499034467161623
500000000.0 0.4866077214328389 0.38985331733344925
520000000.0 0.42164746944617343 -0.482972829361772
540000000.0 0.32369992509225254 -0.5123940605084816
560000000.0 0.6230434492803084 -0.018179816878435583
580000000.0 0.4970403800976321 0.16552545457206277
600000000.0 -0.09511642359989343 0.5897171824964244
620000000.0 -0.38098635940021053 -0.4688795960702438
640000000.0 -0.4173308061652177 -0.3735201349851063
660000000.0 -0.12711157585361288 0.5009435855850786
680000000.0 0.4218999865937963 -0.22683338284615703
700000000.0 0.2879097248278879 0.40942933365438045
720000000.0 0.4945777622942263 -0.07450060449707764
740000000.0 0.4678972005827245 -0.04648351298234747
760000000.0 -0.24271576034841813 0.3813522274318418
780000000.0 -0.12425993328392336 -0.4332309158435954
800000000.0 -0.030003316361985957 -0.4103945298343665
820000000.0 0.3584002920705865 -0.05063982657947233
840000000.0 -0.29802195775166573 -0.1418556344801585
860000000.0 0.293854078540362 -0.10092644781202767
880000000.0 0.24742786675882714 0.14353919144889365
900000000.0 0.2731767844422936 -0.01985411349147033
920000000.0 0.04269443198870123 -0.24945172599423393
940000000.0 0.20424347194681858 0.083516836429557
960000000.0 0.14803752305902435 -0.0830792161711364
980000000.0 -0.028905080838277933 0.13278571114406754
1000000000.0 -0.08134303477324754 -0.10525265025033771
1020000000.0 0.06679998266159329 0.08960941150344111
1040000000.0 -0.052561309597692285 0.1190014759858594
1060000000.0 0.039573283004055826 -0.1524042975226361
1080000000.0 0.0029491167390488142 0.20384065088652512
1100000000.0 -0.23320974332190555 -0.07872483388204837
1120000000.0 -0.11736810538975238 -0.25081415935750917
1140000000.0 -0.3091814090837033 -0.009282132439450638
1160000000.0 0.2950925355530459 0.15949763353091193
1180000000.0 0.2707416492041579 0.2023991185780506
1200000000.0 -0.34735591174696484 -0.05310808345579286
1220000000.0 0.3096948051130169 -0.19958122960058267
1240000000.0 0.37638124707830434 -0.05368923080768771
1260000000.0 0.018088011514395513 -0.396607761249297
1280000000.0 -0.21442629999659976 0.3116503605318737
1300000000.0 0.11963204171104873 -0.3440547964945232
1320000000.0 0.3652760412494485 -0.09212307484252623
1340000000.0 -0.37005403087314814 0.01904680288587047
1360000000.0 0.31822946799267887 0.21410872650271326
1380000000.0 -0.13434351853015306 0.36996560758350167
1400000000.0 0.02369898151511274 -0.3800713617993825
1420000000.0 0.3314041118657112 -0.1958090002816731
1440000000.0 -0.10031273976602507 -0.37445385244751755
1460000000.0 -0.31807397068038784 -0.2215503706438343
1480000000.0 -0.17827279601865276 -0.3488115174772553
1500000000.0 -0.3526181261349525 0.1737506722466771
1520000000.0 0.12350465825505533 -0.36577958957021256
1540000000.0 0.0026601933636063854 0.36172036872749164
1560000000.0 -0.27389539899780524 -0.18075087192059586
1580000000.0 0.2583483517676702 0.1404695117911853
1600000000.0 0.26060713524130996 -0.04344620132555759
1620000000.0 0.12288035874515654 0.17152861187952886
1640000000.0 -0.011959439582545838 0.18771509389056606
1660000000.0 0.14404359126346275 -0.07068951505875183
1680000000.0 -0.1212281816250559 -0.012850563530279845
1700000000.0 0.10889419540102012 0.04170155939958621
1720000000.0 0.09063722980110604 -0.02331703287199003
1740000000.0 0.0659130406650841 -0.05057723284636611
1760000000.0 0.05132246481040249 0.07576823883833049
1780000000.0 -0.08532980427756094 0.06750909493283251
1800000000.0 0.018440172658874997 0.1277384155203344
1820000000.0 0.08015270737729507 0.13737429319565045
1840000000.0 0.04873635333758803 -0.18626027452967167
1860000000.0 0.11146259395489103 0.18551282134003474
1880000000.0 0.23603492766676296 0.0864247822454441
1900000000.0 0.2714255564199648 0.025162554831779604
1920000000.0 0.013040299278703581 -0.29216698579606726
1940000000.0 -0.2937454075695221 0.08536234416760852
1960000000.0 0.22212979628154303 -0.21569039378361338
1980000000.0 -0.31243358782847575 0.017262551252663356
2000000000.0 0.09780589938554579 -0.30497434105961296
2020000000.0 0.2908871317099013 -0.1406924998149755
2040000000.0 0.32423898561457515 0.0061548441597656135
2060000000.0 0.2499327408698497 0.20331169302706814
2080000000.0 0.08411957811427927 0.31507009403136965
2100000000.0 -0.08530148479855108 -0.31082736944097994
2120000000.0 0.22696972473891466 0.22487143099620105
2140000000.0 -0.25396873195423525 -0.196972022849578
2160000000.0 0.20157855170472075 0.2453262146505822
2180000000.0 0.26578018128098235 -0.1583796431904456
2200000000.0 0.2131982596448296 -0.21869177901960818
2220000000.0 0.07073712446690968 -0.28945314464010685
2240000000.0 0.2854942685057502 -0.043089624983193936
2260000000.0 0.0994807275702076 0.2578642752174071
2280000000.0 -0.15563098496225886 0.218855685401562
2300000000.0 0.032212839222087064 -0.24722153288158663
2320000000.0 -0.145621053039062 0.19831205201901544
2340000000.0 0.015126983544182977 -0.24316924992381084
2360000000.0 0.04990286900750237 0.23834165740046764
2380000000.0 -0.12080055975403145 -0.226609310563135
2400000000.0 -0.2797650712373227 0.03948916945382929
2420000000.0 0.24958707775425837 0.17168261483342145
2440000000.0 -0.1635398344066026 -0.2833065624179212
2460000000.0 0.1316091022403521 0.3303079699783195
2480000000.0 0.28967750721467217 -0.26380369263801223
2500000000.0 0.24781223044683962 0.3476615799931393
2520000000.0 -0.44117043500216424 0.14140320997630684
2540000000.0 0.23137890412568082 -0.43616187354729397
2560000000.0 0.023346918703147413 0.5239875819497682
2580000000.0 -0.1897473836113962 -0.5194993769651237
2600000000.0 0.3000277826180421 0.4914248996724034
2620000000.0 -0.3823363688577598 -0.4557165871066461
2640000000.0 0.4606322711836796 0.4016232907066352
2660000000.0 -0.6214996662006526 0.06912785498010997
2680000000.0 0.09889828264404618 -0.6262748092914024
2700000000.0 0.6272756068686159 -0.13907601680805304
2720000000.0 0.621943084091506 0.18015369107080928
2740000000.0 0.599511969167004 0.24889008909966295
2760000000.0 0.5673820988963928 0.3169180128519172
2780000000.0 -0.5316551101721193 0.36249270214200036
2800000000.0 -0.6282420018179593 0.08957895467171972
2820000000.0 -0.387808974267552 -0.48731970957501297
2840000000.0 0.5746300531342283 -0.20188991464667166
2860000000.0 -0.42735988823258914 0.4113862128129538
2880000000.0 0.5490502712839498 -0.16635146796676065
2900000000.0 -0.2740995757705977 -0.47923056212383014
2920000000.0 -0.5184932889220202 0.10180931717306953
2940000000.0 -0.3183219717680752 0.38413457037462967
2960000000.0 -0.32954155305255073 0.34081804658252385
2980000000.0 -0.2739096833512475 0.35453656154103963
3000000000.0 -0.2158512267522415 0.3677500734682347
3020000000.0 0.030307153664420137 0.40353296714448955
3040000000.0 0.2693202590102037 0.2744958494585327
3060000000.0 0.2697872548306127 -0.2516330983147485
3080000000.0 -0.32883727891593467 -0.13672917084526315
3100000000.0 0.21215463624307979 0.274437007379198
3120000000.0 0.27648334772412747 -0.20442717587542822
3140000000.0 -0.3045740978396537 0.15636529463750218
3160000000.0 0.3404019997819134 -0.022148643056026658
3180000000.0 -0.34286456500513207 0.01739557417743613
3200000000.0 0.10156186236207086 0.32790083479782484
3220000000.0 0.21259798607893693 -0.26366724024322136
3240000000.0 0.0800738096327248 -0.3246003574410749
3260000000.0 -0.18114608356109882 -0.2740027420266413
3280000000.0 -0.3136801070536364 0.043906430497520875
3300000000.0 -0.15464122366567515 0.25691037377524284
3320000000.0 -0.06539227746578744 0.26519637135098345
3340000000.0 -0.2453057595280983 0.046865912553393306
3360000000.0 -0.20331744268416244 0.09114839291505866
3380000000.0 -0.07441532377991422 -0.17859751809474478
3400000000.0 0.01254362732939862 -0.16833972293535832
3420000000.0 0.010875889109596562 -0.14224064918325843
3440000000.0 0.07052344174347866 -0.09686797185694895
3460000000.0 0.08303067856289244 -0.047596764810274236
3480000000.0 -0.07836537785005451 -0.00797336054445173
3500000000.0 -0.03179097723421823 -0.06501311701677079
3520000000.0 0.022532144171890818 -0.06858686361701828
3540000000.0 -0.026740945025917024 0.07396134966346453
3560000000.0 -0.06508633205735422 0.052276753237388444
3580000000.0 0.05620904746289243 0.07760566363075234
3600000000.0 0.012754442132646789 -0.10173523304239283
3620000000.0 0.0985138968838306 0.06646637000747486
3640000000.0 0.003153156949318706 -0.13370876101084161
3660000000.0 -0.12356106185171115 -0.0777971925987835
3680000000.0 0.13779934132484442 0.06126600461089514
3700000000.0 0.11449035884876936 0.08715156733349624
3720000000.0 0.11674789846533927 -0.056065379285597426
3740000000.0 0.09648575242304765 0.04052278719798112
3760000000.0 0.0021343390344334225 -0.08044044240677886
3780000000.0 0.054044814826462596 0.024554027274230603
3800000000.0 0.023538007571407178 -0.013709755821811092
3820000000.0 -0.009266987445403984 0.0025551083839200333
3840000000.0 -0.04654699836870058 0.008303204815656674
3860000000.0 0.010935632844938302 0.07838886973231757
3880000000.0 -0.10508708051836146 -0.01638248432690878
3900000000.0 0.12797614909714686 0.004936461163710044
3920000000.0 -0.1111563837704908 -0.09138951356421704
3940000000.0 -0.019073700632892703 0.15277372441212783
3960000000.0 0.0320384943363469 -0.15606021677502044
3980000000.0 0.13546558733754321 0.06039452212516055
4000000000.0 -0.08183889688752365 -0.09785085713815193
