!Created with skrf (http://scikit-rf.org).
# Hz S RI R 50.0 
!freq ReS11 ImS11
400000000.0 0.7964692182562478 0.3535044892649259
420000000.0 0.26153803733730624 0.7726235284914545
440000000.0 0.3226647205902184 0.6889469234390788
460000000.0 -0.616224909083955 -0.3072781880657264
480000000.0 -0.27024397901706193 -0.5554893412072385
500000000.0 0.6452437938092456 -0.10175249955716804
520000000.0 -0.3975431633929109 0.5403180087287961
540000000.0 0.6148434010000761 -0.28347181509164837
560000000.0 -0.3614124633749369 0.5592891783799063
580000000.0 -0.44121076340225507 0.2796454229897566
600000000.0 0.04749297787385574 0.5955555282591074
620000000.0 -0.543812542417433 -0.2828767387741789
640000000.0 -0.559500755951111 -0.06650071584706363
660000000.0 -0.2092068504781119 0.4795096683589386
680000000.0 -0.06513787349947388 0.4943841087372316
700000000.0 0.3943847304376122 -0.21232496670950785
720000000.0 -0.37970334813336637 0.3059308256252518
740000000.0 0.35595321866466756 0.31274813319076883
760000000.0 -0.1822766290927982 0.4097282867965977
780000000.0 -0.409690510581189 0.14143553760750255
800000000.0 -0.03184082312268766 -0.39652058656235
820000000.0 0.3361302941556572 0.09233222437714854
840000000.0 -0.07125061787473062 0.3143833661823443
860000000.0 0.24989404520644615 -0.16799117078500914
880000000.0 0.16619935010133496 0.2139766818820945
900000000.0 -0.07785544324474902 0.2561760266476144
920000000.0 0.17355665519327704 -0.19586291698571212
940000000.0 0.14598314330161716 0.16882950042141034
960000000.0 -0.17094920101659103 -0.037637470625159326
980000000.0 -0.07454536110474386 -0.12306538091047432
1000000000.0 0.13222977637556485 0.03129381150921513
1020000000.0 -0.09212201610687437 -0.031354112618656456
1040000000.0 -0.11500044028792006 -0.009566214191553948
1060000000.0 0.14199398611995775 -0.016459877028263372
1080000000.0 0.18134319950712724 0.07900702472259648
1100000000.0 0.18898262590698897 0.14496248800633726
1120000000.0 0.23843634671237696 -0.1386697779895552
1140000000.0 -0.3003375677399774 -0.008859905766789397
1160000000.0 -0.2895336989535673 0.12578958336146276
1180000000.0 -0.26293759255712473 -0.21384999055125312
1200000000.0 -0.3515749015239662 -0.037353116570017594
1220000000.0 0.33414804036878004 -0.11477200398683766
1240000000.0 -0.03561855493381424 0.37342538834016403
1260000000.0 0.38155834152755036 -0.10254353806370857
1280000000.0 -0.38304146079115503 -0.04274949661494049
1300000000.0 -0.16260282997886874 -0.3417616046312692
1320000000.0 0.11330607423143875 -0.3597108775410123
1340000000.0 -0.3733019318457634 -0.0022516033272225026
1360000000.0 0.2507458521092173 0.2972100800274787
1380000000.0 -0.1577840774168215 0.3673163491509728
1400000000.0 -0.002856192003451563 -0.3947515892142483
1420000000.0 0.11989018325508916 -0.3746065794810605
1440000000.0 -0.23411879138160377 -0.3205537757656378
1460000000.0 -0.3889751932487443 0.05863465873657424
1480000000.0 -0.19750616215007044 -0.34363063385293946
1500000000.0 0.03572672177586741 0.4001193559250259
1520000000.0 -0.37608891135985395 0.0994116218693831
1540000000.0 0.2875632847102509 -0.2185461514632428
1560000000.0 -0.22017415989804442 0.24139704942994616
1580000000.0 0.050542532956749854 -0.2898679848647387
1600000000.0 -0.051828842026355855 -0.2548729815558713
1620000000.0 0.05133198447751668 -0.20966197094625436
1640000000.0 -0.1397328084315678 0.11718927475188019
1660000000.0 -0.14945478609521237 0.036694935089214516
1680000000.0 0.05232503683452267 -0.1029549732372587
1700000000.0 -0.09789277927309371 0.024972514541161745
1720000000.0 0.06956244172648138 0.038707245030851774
1740000000.0 0.05258737879971964 -0.06217652803928805
1760000000.0 -0.08878115460289583 -0.0031202080191597174
1780000000.0 0.10647878882097324 0.04201197652229966
1800000000.0 0.1369283684255851 -0.03677521811419672
1820000000.0 -0.11734604797621591 0.11913201832280591
1840000000.0 0.15989129961008963 -0.11172937321981873
1860000000.0 -0.2179143274280673 -0.03816700060518901
1880000000.0 -0.08972472085600074 0.2406461685354648
1900000000.0 0.11600199731142222 0.24809274145705362
1920000000.0 0.2171122759628978 -0.19858275559592878
1940000000.0 -0.302662416308504 -0.027188636077840767
1960000000.0 0.29963770983486665 -0.07084377845906326
1980000000.0 -0.2954927012751912 -0.10790752716214232
2000000000.0 0.014833060416134256 -0.320214693420988
2020000000.0 0.31848789697566887 -0.03605068200814894
2040000000.0 0.31717347471814344 0.05598467020948227
2060000000.0 0.31202039861354924 0.06096742766701897
2080000000.0 0.05446427727422654 0.3112204996699906
2100000000.0 0.11804394036702787 -0.29146590920345145
2120000000.0 0.2900830931621013 0.09641996289186701
2140000000.0 0.01528594934887409 -0.2984412259685678
2160000000.0 -0.27671756600840963 0.10738805431723425
2180000000.0 0.0028239089682966503 0.2890440952241
2200000000.0 -0.06862926229426558 0.27362053009681714
2220000000.0 -0.24405989339947085 0.1427885268731454
2240000000.0 -0.2418008887429568 -0.13376453798848534
2260000000.0 0.12395353647673828 -0.23997693210418783
2280000000.0 0.27096241389225884 7.51376500151984e-05
2300000000.0 0.24492157991005203 0.08925931687177768
2320000000.0 -0.25457116619259873 -0.016856016395548186
2340000000.0 -0.06879826765124378 -0.24692132780090972
2360000000.0 0.2096875003905375 -0.14529307440610148
2380000000.0 0.02610150819833277 0.2574291352065024
2400000000.0 0.18593625286247317 0.21039369002067107
2420000000.0 0.04646598590511762 -0.2942644535942549
2440000000.0 -0.2355389860969584 0.20972093988251672
2460000000.0 0.307412290736156 0.14187432346171858
2480000000.0 0.17413060909288383 -0.3293754071881232
2500000000.0 0.10469295128597905 0.3925386659955783
2520000000.0 -0.3660337195565657 -0.25102473638558
2540000000.0 0.46260043380522914 -0.11872315037305681
2560000000.0 -0.3250436989625968 0.392540846449926
2580000000.0 0.22365093359577437 -0.4911987012120919
2600000000.0 -0.019410400738670983 0.5664476106349804
2620000000.0 -0.14409637551882074 -0.5716181886069641
2640000000.0 0.2612203026842682 0.5475433626543221
2660000000.0 -0.5687172627193251 -0.25480224923645417
2680000000.0 0.38392123514068616 -0.5032603573183354
2700000000.0 0.5948818293140398 0.24067533484932363
2720000000.0 0.31884811276626285 0.5622720922471203
2740000000.0 0.2553595590007861 0.5951369082207393
2760000000.0 0.16896783915118413 0.6245104651932452
2780000000.0 -0.6104573160710949 -0.18992584707835558
2800000000.0 -0.42535733127048336 -0.4637438726862913
2820000000.0 0.1373714234843964 -0.6011615572324873
2840000000.0 0.4386630626252744 0.4123144498636352
2860000000.0 -0.4770031365664638 -0.341360465055848
2880000000.0 0.21833206861965251 0.5267077908742142
2900000000.0 0.4276022518729656 -0.34438914920325764
2920000000.0 0.009955458779740953 -0.5268920791096042
2940000000.0 -0.3393784558275461 -0.3724653847116106
2960000000.0 -0.2689841252083176 -0.39652382608924464
2980000000.0 -0.27998617160642997 -0.3626224591434088
3000000000.0 -0.3238663376922237 -0.29668719877966476
3020000000.0 -0.41290680578167116 0.07551793290941101
3040000000.0 0.025496039920418025 0.39947804969765743
3060000000.0 0.359765536195936 -0.1263419498463068
3080000000.0 -0.34508411312049475 -0.121555859289325
3100000000.0 0.3153579124804673 0.1558964246364318
3120000000.0 0.29219099272168486 -0.1817155921937873
3140000000.0 -0.20596525733259843 0.2711790572665041
3160000000.0 0.12721575761092827 -0.31400763076345223
3180000000.0 0.0970947146392753 0.32020683642674574
3200000000.0 0.3254868790310126 -0.04520106372902572
3220000000.0 -0.19864534325816682 -0.25684888188280036
3240000000.0 -0.3087322321575578 -0.06919723297829522
3260000000.0 -0.29595952602670933 0.07507944693018619
3280000000.0 -0.29274617764836347 -0.012690623769263542
3300000000.0 -0.2727398732532389 -0.0503643277625866
3320000000.0 -0.18084681275443826 -0.17948698546904374
3340000000.0 0.22782253007941064 0.00858230790353704
3360000000.0 -0.19590235350389934 0.06702920056792029
3380000000.0 0.11171642402776111 -0.15219632316920237
3400000000.0 0.15860721315162185 0.0506774523946218
3420000000.0 0.07003820145327305 0.12490065057061049
3440000000.0 -0.08219852695767657 0.09432720122487934
3460000000.0 -0.06382019257688298 0.0858470783898202
3480000000.0 0.07919390271450309 -0.04045902246776344
3500000000.0 0.00662537857183513 0.07909459342135212
3520000000.0 0.022926321143411036 -0.07425082101589103
3540000000.0 0.07622026345696085 -0.01962348179798109
3560000000.0 0.08050166806291117 -0.035282884014178936
3580000000.0 -0.08197957486965772 0.04542460874842598
3600000000.0 -0.08139786328059107 0.05354096616582254
3620000000.0 0.059802515546887695 -0.09301572857140289
3640000000.0 0.07737537603536672 0.09866298023393978
3660000000.0 -0.018659090431550864 0.13435277553550254
3680000000.0 0.020729633780316607 0.13844036826759432
3700000000.0 -0.08867993170049514 -0.09807497247825389
3720000000.0 0.11880122559171219 -0.0045610361564986076
3740000000.0 -0.07166631964596375 -0.07120822567182775
3760000000.0 -0.024243219535290468 -0.0789260698781591
3780000000.0 -0.0635526546595181 0.005489679196149546
3800000000.0 0.01668228136353156 -0.03023366650580699
3820000000.0 -0.002024208737345681 0.00015242092044760904
3840000000.0 -0.03352346929545991 -0.012846389616531234
3860000000.0 0.04448138772301368 -0.04599690713192505
3880000000.0 0.08102860722972235 -0.04296631355374778
3900000000.0 -0.10557008188237375 -0.03903560098366962
3920000000.0 -0.07817555661710926 0.09852754515815286
3940000000.0 -0.08703006896519141 0.10354416851287522
3960000000.0 -0.10820437917557224 0.08786958444902009
3980000000.0 0.10485856109490786 -0.08219727662735621
4000000000.0 0.035755852611537166 -0.10745828806430158
