!Created with skrf (http://scikit-rf.org).
# Hz S RI R 50.0 
!freq ReS11 ImS11
400000000.0 0.8663652952059002 -0.1553254274084122
420000000.0 0.8128866812031597 -0.17812693720684733
440000000.0 0.4731426405877704 -0.6160536630134973
460000000.0 0.5183124067328195 0.4703561983960178
480000000.0 0.25867714760368893 -0.5329167378884828
500000000.0 0.5827197447106999 -0.21926168062665674
520000000.0 0.3210183188688622 -0.5604451259512001
540000000.0 -0.5846078650443887 -0.11732915279640467
560000000.0 0.6079444433337073 0.04288379301970943
580000000.0 0.4012243063771647 0.33049553673694126
600000000.0 0.4524173358420362 0.3786117185337348
620000000.0 -0.19209258222381925 -0.5417911678882488
640000000.0 0.5471440394146841 0.05117126565844552
660000000.0 -0.5232348780987564 0.03664580181178026
680000000.0 0.4697050403233694 0.0058552488550345765
700000000.0 -0.4927567058511582 0.06708549135213125
720000000.0 -0.28491348628667296 0.4351186246485706
740000000.0 0.3674266481105254 0.3224165940792887
760000000.0 -0.4098523045325284 0.22508614466015983
780000000.0 -0.2938417083835013 -0.3594661136073453
800000000.0 -0.12254467299010195 0.40489403319366046
820000000.0 0.2831926360722519 -0.2244651559198858
840000000.0 0.011986038803600782 0.33949706617307973
860000000.0 -0.18048504063997686 0.2525747902419158
880000000.0 -0.2636571690356867 -0.024865654805225193
900000000.0 0.25225892313588255 -0.061177205715442017
920000000.0 -0.11786228725406117 -0.21524797534250875
940000000.0 -0.06805689949524199 -0.1950480730593989
960000000.0 0.10113311034973638 -0.11918354718829098
980000000.0 -0.021291084108412517 -0.124239553224493
1000000000.0 -0.09065397278163152 0.08952428150643492
1020000000.0 0.08628481607736317 -0.05476005355637777
1040000000.0 0.030459345313732115 0.1173523067025743
1060000000.0 0.01675145285800876 0.15466538536540403
1080000000.0 0.0014823366738970771 0.20425573530618316
1100000000.0 -0.08975753507963477 -0.22039405285439245
1120000000.0 0.14154079083895948 -0.23767261360547753
1140000000.0 -0.2182770735848877 -0.21727155185313793
1160000000.0 0.20150575177511199 0.26241920639972166
1180000000.0 -0.3172643184244217 0.11300563739115682
1200000000.0 -0.18502720807882064 -0.3104942061624122
1220000000.0 0.2922353387383386 -0.23647227495956533
1240000000.0 0.3550369756098863 -0.14389964002397077
1260000000.0 -0.057713942384433066 -0.3926889743159609
1280000000.0 -0.3609733900964121 0.13396687770710758
1300000000.0 -0.23774177249485076 -0.28543862020942345
1320000000.0 -0.13512178936010968 -0.3531831490371321
1340000000.0 0.12133649107279028 0.34339708899134364
1360000000.0 0.3272799124510107 0.18556173128143885
1380000000.0 -0.04032767141191034 0.38755958214904285
1400000000.0 -0.15830030833021833 -0.34175651067113116
1420000000.0 0.3748575905402822 0.03126551913006823
1440000000.0 0.10298877708061473 -0.36949305926146775
1460000000.0 0.09533884104543915 -0.3712796185296049
1480000000.0 0.36595740716552694 -0.1432688573805716
1500000000.0 -0.39540666050733425 -0.052801019517467136
1520000000.0 0.31411934357951854 -0.23351064609449487
1540000000.0 0.1778794949281357 0.3302120202584889
1560000000.0 -0.23763572087399443 0.23847705192543678
1580000000.0 0.15017242984557416 -0.25213722388486126
1600000000.0 0.19587378823385143 -0.17735811584266523
1620000000.0 0.2057579756201125 -0.05432024216224024
1640000000.0 0.1454852549724201 -0.11310064957226296
1660000000.0 -0.14637648784321536 0.0501833164482945
1680000000.0 -0.058132052161372766 0.09339855950806795
1700000000.0 0.06094315009249171 -0.09030655646299007
1720000000.0 -0.05151145082339681 -0.07765076256715024
1740000000.0 0.07282470425264376 -0.049532399376166276
1760000000.0 -0.05506770180183975 0.07790281049031379
1780000000.0 -0.09893586641403969 -0.057193396974241764
1800000000.0 0.0024874347675993176 -0.1348288625675907
1820000000.0 -0.03334597691995036 -0.15461360829608534
1840000000.0 -0.1480419431172977 0.11141116311877369
1860000000.0 -0.049238105341713495 0.20694523827463107
1880000000.0 -0.01823681541472415 0.2465465514535643
1900000000.0 0.2732764353156316 0.007642731700135716
1920000000.0 0.04160278795697015 -0.28371560847205235
1940000000.0 -0.22310256860656996 -0.20692623529420198
1960000000.0 0.31035576995783126 0.019900715202611816
1980000000.0 -0.3172871777931063 -0.0003002849088536636
2000000000.0 -0.0037029274208321885 -0.32149016326750013
2020000000.0 0.3163421281034244 0.055669261697301214
2040000000.0 0.27645214071573077 0.17551734964052765
2060000000.0 0.27560351602591615 0.17690859371993162
2080000000.0 0.06770872079045541 0.32265422977877023
2100000000.0 -0.1898827106583196 -0.26735035053719314
2120000000.0 0.23070777809785267 -0.22421002202299853
2140000000.0 -0.2970193231432649 0.10481227582024297
2160000000.0 0.11868295640134081 0.2899355213960314
2180000000.0 0.27808754345470077 -0.13081298306567068
2200000000.0 0.17237261891102884 -0.24981048420457463
2220000000.0 0.03754875439128946 -0.293774106293968
2240000000.0 0.2828379652431328 -0.00011900889174797014
2260000000.0 -0.27223712299398684 0.03118880783108555
2280000000.0 -0.26604509879350746 -0.03980989743956994
2300000000.0 0.2543159685974552 -0.05063433848577841
2320000000.0 0.14153765526796294 0.2090200395932541
2340000000.0 -0.23219506788063832 -0.07860977462415797
2360000000.0 0.2431698561828082 -0.023790740425467097
2380000000.0 -0.228302288428058 0.10673048179060272
2400000000.0 -0.26926556735434026 0.049083167243967524
2420000000.0 0.10921201154839194 0.27884433154368693
2440000000.0 -0.004252198140661525 -0.322941695491326
2460000000.0 -0.1722255083941395 0.3096089622141061
2480000000.0 0.33016090581736907 -0.21808506775029055
2500000000.0 0.34277467154925667 0.25966890344469895
2520000000.0 -0.41429034527757125 0.21166962698046077
2540000000.0 0.17480401964857 -0.4633726276672754
2560000000.0 0.1799298620106187 0.4943060338826309
2580000000.0 -0.2664259186569692 -0.4832931969335258
2600000000.0 0.31989506695085723 0.4790527482603034
2620000000.0 -0.4169292028908005 -0.4274643599652648
2640000000.0 0.5375545192751091 0.28834968073646106
2660000000.0 -0.6185208134742789 0.08424876665037426
2680000000.0 0.11826543229288956 -0.6220717199265632
2700000000.0 0.6330583148318462 -0.10728688343143727
2720000000.0 0.6136856552921325 0.20559617976111344
2740000000.0 0.6176993344461702 0.19716199587233194
2760000000.0 0.5942088189013032 0.2620611542822108
2780000000.0 -0.4308831938472371 0.47833766308049597
2800000000.0 -0.6107705926050464 0.17309971294114523
2820000000.0 -0.4715629675977592 -0.4062682219194298
2840000000.0 0.5618768450131026 -0.23531231624380666
2860000000.0 -0.3630174691569583 0.4695717887534026
2880000000.0 0.53199851373286 -0.21256306610201933
2900000000.0 -0.21739971949569753 -0.5062943830107036
2920000000.0 -0.5269903768408857 -0.010818843922392189
2940000000.0 -0.4553568206427386 0.20557054496942084
2960000000.0 -0.38361427270666915 0.28287231518274664
2980000000.0 -0.19856216986714767 0.4031520976876296
3000000000.0 -0.08503623087843094 0.4149330378662261
3020000000.0 0.13721389165448505 0.3797781467882248
3040000000.0 0.38089856316280485 0.027630652522705506
3060000000.0 0.18820526129729973 -0.30960362307134814
3080000000.0 -0.25634405437944646 -0.24099748014311032
3100000000.0 0.15660727523796744 0.30920742768426257
3120000000.0 0.29596155912853855 -0.1731070860772623
3140000000.0 -0.3388624651643952 -0.060641206681526054
3160000000.0 0.34732193704457 2.726785628219759e-05
3180000000.0 -0.2744003692742203 0.21210671242919815
3200000000.0 0.15417698821709355 0.30580317694333004
3220000000.0 0.2763790312220041 -0.1998859911964354
3240000000.0 -0.018108010356165275 -0.3350340029544759
3260000000.0 -0.2836206269649244 -0.15942977599851926
3280000000.0 -0.3121937886913886 -0.01889250742401512
3300000000.0 -0.27733459832187374 -0.10673514551316883
3320000000.0 -0.1951711590705074 0.1969805325146056
3340000000.0 -0.2236854329618088 0.1148033741488447
3360000000.0 -0.17210417089268923 0.13940243515652645
3380000000.0 -0.15794236300415296 -0.1108417492279483
3400000000.0 -0.12271970508089243 -0.1157852027044348
3420000000.0 -0.0883884035718509 -0.10723119356977562
3440000000.0 0.11437548655862463 -0.011607354570829294
3460000000.0 -0.08980598357755684 0.03600036716317316
3480000000.0 -0.07523745780802016 -0.031611609817300074
3500000000.0 -0.020696779564005462 0.07148654435786694
3520000000.0 0.052049893293321846 -0.05068135583590559
3540000000.0 0.07739217093625803 0.024801777206903144
3560000000.0 0.07468518533225621 -0.03690739784247673
3580000000.0 0.04820065792559784 0.07781585495433517
3600000000.0 0.0802991803842699 -0.06448686074638504
3620000000.0 0.08781626040522379 0.07857907356162
3640000000.0 0.0327308259191879 -0.12878903017333193
3660000000.0 -0.026093473099458767 -0.1428397568694369
3680000000.0 0.049758251010956225 0.14346062159432213
3700000000.0 0.0347360360859048 0.1408503770294152
3720000000.0 0.1276564630152366 0.01833729715642062
3740000000.0 0.10628170955771035 0.007145443591993612
3760000000.0 -0.06508959622255477 -0.05341391263540384
3780000000.0 -0.05498749070234374 -0.022937355728978613
3800000000.0 -0.00389117422985059 0.028024203638063957
3820000000.0 -0.008414376279222483 -0.009203113371652404
3840000000.0 0.034845709620104574 0.03843287654454367
3860000000.0 0.018608423727354998 0.0832372841891374
3880000000.0 -0.0019893274734450886 0.10851904817949592
3900000000.0 -0.005159754657180372 -0.12448403866211229
3920000000.0 -0.09148077474408517 -0.10653114464613253
3940000000.0 -0.08443715726663889 0.12474922241772363
3960000000.0 0.1233155203478096 0.0935888444005921
3980000000.0 -0.13432919764824564 0.06026907968325021
4000000000.0 0.0945682120572012 -0.08180282331006346
