!Created with skrf (http://scikit-rf.org).
# Hz S RI R 50.0 
!freq ReS11 ImS11
400000000.0 0.7927210143184357 0.36750818251654604
420000000.0 0.31216934391780815 0.7524075216317617
440000000.0 0.3368110509878302 0.6753713542907371
460000000.0 -0.5638475287658091 -0.38807541177631943
480000000.0 0.03540032716007734 -0.6274018832113537
500000000.0 0.44068011282860436 -0.48842314635303746
520000000.0 -0.06919601645071707 0.6647658627681948
540000000.0 0.5505370940184097 -0.38227814577557157
560000000.0 -0.6142372583894528 0.2445982917456032
580000000.0 -0.40812665541062804 -0.33444569174393624
600000000.0 -0.014139985566164694 0.6042406432924916
620000000.0 -0.597699382484726 -0.1467415581993696
640000000.0 -0.5442888240085627 0.1354909063497513
660000000.0 -0.01779362975579241 0.5170242977972104
680000000.0 -0.45925084086826456 0.18045020286597702
700000000.0 0.2174858932476766 0.4088440100858015
720000000.0 -0.13435983864246864 0.4828793026137776
740000000.0 0.4742869431220307 -0.06828963045703819
760000000.0 0.4295001150799735 0.12772556322816941
780000000.0 -0.07086428165901835 0.41956879168591216
800000000.0 -0.2731053175946493 -0.26701305099738837
820000000.0 -0.30339571573411955 0.13720041110410025
840000000.0 0.157499013243072 -0.28650698784125317
860000000.0 0.07650533679087523 -0.3004135388491541
880000000.0 0.2504067758858508 0.11470536133921096
900000000.0 0.20827164850862837 0.1712544468447912
920000000.0 0.13845670193392476 0.21104824938500846
940000000.0 -0.22910241926281297 -0.02216045249014689
960000000.0 -0.18367421024117708 0.04490315696940523
980000000.0 -0.03079743167397292 0.14355876154600372
1000000000.0 0.09746688657940177 -0.0881540508545948
1020000000.0 -0.09785640933529258 0.01760656387193789
1040000000.0 -0.11240208302274005 -0.025027070057809055
1060000000.0 -0.020463741098907234 -0.13839537797269222
1080000000.0 0.11378321871386061 0.1584022993551392
1100000000.0 -0.09866021356031586 0.22329537333817304
1120000000.0 0.2753316498035832 0.07256198518332885
1140000000.0 0.06852865939105529 0.2957289969628275
1160000000.0 0.023776848466664273 0.3142602495375058
1180000000.0 -0.26695784469189465 0.1896644753470561
1200000000.0 -0.014402677961350188 -0.34184055356979764
1220000000.0 0.14790855176587261 0.32249613979066455
1240000000.0 -0.11683598893856875 0.3609918786001014
1260000000.0 0.3933885007972333 -0.04204176635655845
1280000000.0 -0.26444398052904 -0.2857148293252797
1300000000.0 -0.23794223952754653 -0.30381816508447196
1320000000.0 -0.26684270586969655 -0.2689815233265509
1340000000.0 -0.360649070070264 0.07711914041695472
1360000000.0 0.057171957121272 0.3817776215366608
1380000000.0 -0.29633369518003255 0.2716398382484422
1400000000.0 0.23629981066457015 -0.3213043166324676
1420000000.0 0.04967315403318976 -0.39100325660623686
1440000000.0 -0.18305584798595642 -0.3500673438882226
1460000000.0 -0.36651005381878266 -0.15416013776950593
1480000000.0 -0.38548981292787676 -0.10728491011867297
1500000000.0 0.36436359165484583 0.15170725238102326
1520000000.0 -0.3709699084564678 0.08461627074868634
1540000000.0 0.29349183593371775 0.19745891636529714
1560000000.0 -0.2962403077520166 -0.14027442579401952
1580000000.0 0.1537332347880481 -0.2527368368335416
1600000000.0 0.17814092256905198 -0.1974073854649088
1620000000.0 0.11438026052079976 -0.19586666442213468
1640000000.0 0.1912406265782518 0.009053698794772727
1660000000.0 0.1282933934421931 -0.07956815979985003
1680000000.0 -0.06751610005074275 -0.08383975508857686
1700000000.0 0.0973614419194241 -0.019129017192163235
1720000000.0 -0.06529604709819405 -0.04686409568900657
1740000000.0 -0.034724378945646873 -0.06500506489542446
1760000000.0 -0.05536634898886763 -0.0780556206006129
1780000000.0 0.002632421830946627 -0.12418667117407509
1800000000.0 -0.029585302505647913 -0.13942502363642933
1820000000.0 0.1050449322434004 0.12922788033192478
1840000000.0 0.112323435747647 -0.1513582430014597
1860000000.0 -0.11109138926068547 -0.1875627925894033
1880000000.0 -0.253437977000819 0.03388892716910619
1900000000.0 0.03296466810764999 0.2747171073902353
1920000000.0 0.10361215086783122 -0.27312342122444433
1940000000.0 -0.28897006716501755 -0.09228580741534326
1960000000.0 0.2874734966512242 0.1146914025093613
1980000000.0 -0.2446372440437524 -0.20044760759960994
2000000000.0 0.004796216947071859 -0.32373893714524093
2020000000.0 0.22770369549678285 -0.22892218147026153
2040000000.0 0.24581489393150852 -0.20790958201751628
2060000000.0 0.2907190573737073 0.12137453745336667
2080000000.0 0.08315457817063578 0.30382576037454706
2100000000.0 0.2495048280955865 -0.1882032455827378
2120000000.0 0.1273131583384248 0.2797946521805483
2140000000.0 -0.018565120790533587 -0.30213053682335256
2160000000.0 -0.2813983564071572 0.0849737406582081
2180000000.0 -0.22424881856624057 0.17786805354286309
2200000000.0 -0.1849409609616816 0.2150550085155961
2220000000.0 -0.13619588988057343 0.24707904414713547
2240000000.0 -0.24774756047950253 -0.11697126229562448
2260000000.0 0.1950476901351687 -0.18060344288292063
2280000000.0 0.23091424625254264 0.14586762223182778
2300000000.0 0.23843265800348562 0.11310430894570452
2320000000.0 -0.16560975960163984 0.19612260753945557
2340000000.0 -0.1723641184249757 -0.18807805034167543
2360000000.0 0.2537985886207647 -0.02531111300356549
2380000000.0 0.06358230039766802 0.25376970035101937
2400000000.0 0.24517681801935948 0.1388558184547082
2420000000.0 0.19523643524754974 -0.22341782369514976
2440000000.0 -0.309926291117926 0.07338338728258163
2460000000.0 0.3168669092795012 0.12012075665044333
2480000000.0 0.3331838131825113 -0.1641359932563928
2500000000.0 -0.09594474831756952 0.397047261324966
2520000000.0 -0.36248271968259704 -0.2616481239791039
2540000000.0 0.4604887622228404 -0.12572701394739855
2560000000.0 -0.2760101409098292 0.4284407468720691
2580000000.0 0.058495766336404735 -0.5362124282481946
2600000000.0 0.05675110589525554 0.5613397187157897
2620000000.0 -0.1797153835966439 -0.5604506816823599
2640000000.0 0.24807765917848476 0.5541306152745593
2660000000.0 -0.561069631074778 -0.27512740615348713
2680000000.0 0.38921136950146035 -0.501566111034307
2700000000.0 0.5947795489617683 0.24704144582093507
2720000000.0 0.24897117380928366 0.5977552820548595
2740000000.0 0.2122407149263529 0.6124204209367144
2760000000.0 0.10420134556753688 0.6383997148578987
2780000000.0 -0.5950636609043716 -0.2316883427871508
2800000000.0 -0.39420468610825404 -0.4891073845222082
2820000000.0 0.1634327944197904 -0.5931307507042208
2840000000.0 0.47157404894544325 0.3725565909930313
2860000000.0 -0.5289111392599933 -0.25276084113726094
2880000000.0 0.36297422272536667 0.4377737047184008
2900000000.0 0.3845856643490875 -0.39026911538809644
2920000000.0 -0.04118222378371683 -0.5243377406633623
2940000000.0 -0.2849229287636676 -0.41342602655785377
2960000000.0 -0.05635685684724981 -0.4757475446161641
2980000000.0 -0.22840782508614993 -0.39873458146207225
3000000000.0 -0.30530191730594164 -0.3196017888208295
3020000000.0 -0.3953652116590436 0.14741050113572762
3040000000.0 0.014513748826825502 0.40124607895291
3060000000.0 0.32754996765385536 -0.1903895059860011
3080000000.0 -0.3399811779931998 -0.12719982923915396
3100000000.0 0.174529253074042 0.3019255836741861
3120000000.0 0.3167726028435053 -0.13093212952312308
3140000000.0 -0.28762096969078826 0.1786850782034139
3160000000.0 0.2560928019326939 -0.22109250269904687
3180000000.0 0.046598254528994486 0.33286032198302684
3200000000.0 0.317386101793015 -0.08717266893078392
3220000000.0 -0.1136704631207492 -0.3053363902527451
3240000000.0 -0.31912162462420707 0.002609187668297755
3260000000.0 -0.20889724998902728 0.2222309875159183
3280000000.0 -0.24354755484708634 0.16174278207766188
3300000000.0 -0.27368086534145913 0.0015013216771228959
3320000000.0 -0.01776210308887091 -0.24984859734438708
3340000000.0 0.15104479260108192 0.17334665236174535
3360000000.0 -0.20826096994005705 -0.01153263098786696
3380000000.0 0.1853939269954914 -0.041606369730936364
3400000000.0 0.15925970173490017 0.06132922209842257
3420000000.0 0.13014990339739813 0.06228336709449583
3440000000.0 -0.005519082847447476 0.1250988520685258
3460000000.0 -0.09115766865048346 0.051138035372181666
3480000000.0 0.08668749325030563 0.01761668580885603
3500000000.0 -0.028098664024584743 0.07357980467235935
3520000000.0 0.07375407963019791 -0.006546744894775498
3540000000.0 0.005777164467117042 0.0765456043231804
3560000000.0 0.07024650576569302 0.05158220949319718
3580000000.0 -0.09071332853361691 0.02624987188602858
3600000000.0 -0.09119503562752926 0.042612536708701264
3620000000.0 -0.03294053523960521 -0.10816574964953428
3640000000.0 0.10505512760516465 -0.06962836141537299
3660000000.0 0.10910440432041736 0.07824811930409781
3680000000.0 0.029581426763291015 0.13680703621891852
3700000000.0 -0.11511002989052324 -0.06309609134135036
3720000000.0 0.0465926073114993 0.10677572623395669
3740000000.0 0.0976533407332166 0.029201326632828397
3760000000.0 0.08658628212896184 -0.00031108899912393447
3780000000.0 -0.0012715718261603693 0.06718804487352378
3800000000.0 -0.004042566474049348 0.03265174061572958
3820000000.0 0.00011101950795203199 -0.0010017719654553153
3840000000.0 -0.02289937355532688 -0.03099772303674457
3860000000.0 0.06588669976638838 0.007569241342100431
3880000000.0 0.09044456917431616 -0.026127264623766112
3900000000.0 -0.07248240153999914 0.08689334415494189
3920000000.0 -0.12470138038737842 0.01143691771203456
3940000000.0 -0.13177442645236906 0.024928264019223673
3960000000.0 -0.09578342109052429 -0.1004125194861604
3980000000.0 0.13572944998206785 -7.285012780897072e-05
4000000000.0 0.07074976486203556 -0.08754415331139571
