!Created with skrf (http://scikit-rf.org).
# Hz S RI R 50.0 
!freq ReS11 ImS11
400000000.0 0.8411405802534722 -0.2479853955601349
420000000.0 0.7805370095863184 -0.2842926022359937
440000000.0 0.44708582414576004 -0.6305648990538089
460000000.0 0.14429239051273432 0.678472708071997
480000000.0 0.37653249065576316 -0.45741132744983853
500000000.0 0.5554308276640645 0.2945228242562227
520000000.0 0.26163284894085764 -0.5849714198195283
540000000.0 0.12263187122040031 -0.586677442165456
560000000.0 0.5901819680738652 0.19328078205899255
580000000.0 0.33509765091225996 0.40738359088797577
600000000.0 0.046109308274305406 0.5958299022094479
620000000.0 -0.2408264759017671 -0.5518108863026009
640000000.0 -0.11592463155001881 -0.5531465134378805
660000000.0 0.2552720573544535 0.4522217027982877
680000000.0 0.41376336497329674 -0.23057009011676693
700000000.0 0.30715960136302994 0.3920726921806597
720000000.0 0.4077004324203808 0.2953724760306194
740000000.0 0.4733292182776887 0.06469627700478323
760000000.0 0.040535237820418867 0.45379156087604167
780000000.0 -0.31127540646336066 -0.3195757521595335
800000000.0 0.04008734658542428 -0.4051221131053222
820000000.0 0.21754508175382017 0.2878004404715352
840000000.0 -0.3196868129730534 0.09707279264661618
860000000.0 0.13037178067383492 -0.28545415171064403
880000000.0 0.27339456617112473 0.032504971849221735
900000000.0 0.054005505104233624 0.26827142397512665
920000000.0 0.12727209328877767 -0.22498783585291507
940000000.0 -0.14199441991896464 -0.17161236009523942
960000000.0 0.16537150922387897 0.025848596178250652
980000000.0 0.062214207069950955 0.12219851843610932
1000000000.0 -0.07403682336741091 -0.11179089454079551
1020000000.0 0.10575760554586837 0.03196091840161394
1040000000.0 -0.05694256535509127 -0.11568135356509496
1060000000.0 0.14190917741204745 -0.07815888977417514
1080000000.0 0.1891383610564775 0.06739749920605763
1100000000.0 -0.20090293042185065 -0.13283250168852262
1120000000.0 0.04136495164379973 -0.27720410289274683
1140000000.0 -0.20814634658890993 0.23412483121927033
1160000000.0 0.33169289981120587 -0.009923371993895555
1180000000.0 -0.14326945447859732 0.3048663842812342
1200000000.0 -0.35317145062273936 0.0021211205028553535
1220000000.0 0.3197229816667919 -0.18562586930169675
1240000000.0 0.37566720089952477 -0.06162695476270771
1260000000.0 -0.18819459656106616 -0.34510525422668065
1280000000.0 -0.33892778710072236 0.1660622067938563
1300000000.0 0.26900322171153035 -0.2458242578230299
1320000000.0 0.3288829071893007 -0.18826897159716952
1340000000.0 -0.2728565924450542 0.24700384416249396
1360000000.0 0.12571568427463115 0.3602489430819072
1380000000.0 -0.20422068452334904 0.335867357825499
1400000000.0 -0.048233824999474276 -0.37899752577437074
1420000000.0 0.3439408961669161 -0.172460831024546
1440000000.0 -0.17478662418233007 -0.34595692818144713
1460000000.0 -0.265482061023486 -0.27917327990428786
1480000000.0 -0.01464099054142574 -0.39436370084371436
1500000000.0 -0.2947883991682284 0.25732614113056
1520000000.0 0.18120142208185644 -0.33952682185998145
1540000000.0 -0.03351092991291502 0.3626610043987423
1560000000.0 -0.31715539613240595 -0.08568242969827154
1580000000.0 0.23777846237386918 0.17047265523504784
1600000000.0 0.2591572747075997 0.05299670511279225
1620000000.0 0.1753199026866727 0.11970589186518957
1640000000.0 0.009892043909522927 0.185040354057145
1660000000.0 0.1337921459344939 -0.08927211387207602
1680000000.0 -0.10059657936786068 -0.07112503002245463
1700000000.0 0.08953018127469435 -0.07437325987548601
1720000000.0 0.09072782102310681 -0.015121962491037338
1740000000.0 -0.019091653037881184 -0.08285812168522279
1760000000.0 0.09142009308898104 0.001616127630874073
1780000000.0 -0.09562948349414521 -0.05285402082551735
1800000000.0 -0.01527138126651328 0.12822314907458277
1820000000.0 0.14131462722988797 0.07759608031565357
1840000000.0 0.07806216884896394 -0.17478831875628034
1860000000.0 -0.021367178733592982 0.21691776604706303
1880000000.0 0.18373816151245165 0.17281938688318726
1900000000.0 0.2643725053324064 0.06151465831523648
1920000000.0 -0.006068120344014755 -0.2943045859610108
1940000000.0 -0.30012310764868777 0.050120492225711105
1960000000.0 0.26478047667995036 -0.15731875027004047
1980000000.0 -0.3066611433968258 0.06459504444413079
2000000000.0 0.025767608630070868 -0.31812195790865144
2020000000.0 0.3224177024035304 -0.029135434978338672
2040000000.0 0.325702825385734 -0.010821018348226864
2060000000.0 0.3109206786247352 0.08630485662947618
2080000000.0 -0.016461408890171864 0.3240285981596576
2100000000.0 0.058965066827496165 -0.32024954010566287
2120000000.0 0.31295026786738733 0.06971994603928089
2140000000.0 -0.1656004843253851 -0.2730473013530442
2160000000.0 0.09100335911672362 0.30508565362768286
2180000000.0 0.2878432939001755 -0.1135450281797993
2200000000.0 0.2544237905126201 -0.16734094170699135
2220000000.0 0.046880572443697685 -0.29336983233423936
2240000000.0 0.28707937039925285 -0.034074296591874914
2260000000.0 0.07753126327243308 0.2639699860389084
2280000000.0 -0.22111158498650274 0.15006313456194062
2300000000.0 0.0179315241473384 -0.25196336161283434
2320000000.0 -0.03913322459394887 0.2407185839363924
2340000000.0 0.12113758264452085 -0.21162693829827886
2360000000.0 0.0328226801102153 0.2437105408238306
2380000000.0 -0.17879046357869965 -0.18258279487434267
2400000000.0 -0.25906579303081806 -0.10914802457361446
2420000000.0 0.25735688305415727 0.164020611065132
2440000000.0 -0.2477070187260236 -0.21216392966123185
2460000000.0 0.03146560969308727 0.35399678055719036
2480000000.0 0.20160316154503866 -0.3373561422985026
2500000000.0 0.29405614245353834 0.30937966037936154
2520000000.0 -0.4519111729242421 0.10486546442754316
2540000000.0 0.23277998549421813 -0.43671255228217704
2560000000.0 0.04602707872547725 0.5240815716942618
2580000000.0 -0.21752685248132528 -0.5075723804658928
2600000000.0 0.26045073308538247 0.5135640453237957
2620000000.0 -0.3627082877122071 -0.4729644278134815
2640000000.0 0.45502770382556434 0.4074159057257784
2660000000.0 -0.6245279051273221 0.030587314374436066
2680000000.0 0.13657311036318484 -0.6191557405782782
2700000000.0 0.6251134861223401 -0.14787526320541405
2720000000.0 0.6161562966164484 0.19732445418118277
2740000000.0 0.5528020437672277 0.3406622257387606
2760000000.0 0.5585236669273795 0.33245840494472345
2780000000.0 -0.496625499818984 0.4095117857543525
2800000000.0 -0.6298284326448047 0.07846407282777496
2820000000.0 -0.4166689772289723 -0.46364169027166957
2840000000.0 0.5712324222240944 -0.21429890839968982
2860000000.0 -0.43405521428804056 0.40603692951359993
2880000000.0 0.5674476193018738 -0.07922819249826715
2900000000.0 -0.22587410143119555 -0.5037289851394668
2920000000.0 -0.5284111399328055 -0.019967173113283925
2940000000.0 -0.318520546151427 0.38163920141900554
2960000000.0 -0.35002646070506815 0.31713068230707153
2980000000.0 -0.2514059141240445 0.36968173244222563
3000000000.0 -0.24869821315481536 0.34418614634254835
3020000000.0 0.06732824918222864 0.39801835903197164
3040000000.0 0.2895132266080668 0.2521986279082287
3060000000.0 0.1518043083278702 -0.3360133963700298
3080000000.0 -0.3428914368712957 -0.10100139048173798
3100000000.0 0.2185599134680199 0.27347153920187905
3120000000.0 0.27120533602680497 -0.212399578607546
3140000000.0 -0.339943931395094 0.036223110469447144
3160000000.0 0.344623483805069 0.014287827948212522
3180000000.0 -0.3425570820404422 0.010616739431444342
3200000000.0 -0.06398763140038703 0.3370946600246422
3220000000.0 0.3082664194839271 -0.1416996966358894
3240000000.0 0.12275133832972536 -0.30999246432573024
3260000000.0 -0.1301105445261162 -0.29978887935681636
3280000000.0 -0.3126604965564816 -0.0420107898744239
3300000000.0 -0.2301900591351851 0.19126381304940018
3320000000.0 -0.06918345404740839 0.2627178149650283
3340000000.0 -0.2388317529942196 0.07190643452646568
3360000000.0 -0.19214259271997494 0.10763704578696916
3380000000.0 0.008200393743819 -0.19175162654142883
3400000000.0 -0.034023476773386525 -0.16514327678834928
3420000000.0 -0.02716786140817399 -0.1382842919128603
3440000000.0 0.0006978515304064529 -0.11863125993622178
3460000000.0 0.0865602341013867 -0.034613792891789896
3480000000.0 -0.07224882880958375 -0.02765458998360161
3500000000.0 -0.0691422818794107 0.02433890601458654
3520000000.0 -0.02045456028141344 -0.06649566599788333
3540000000.0 0.012470161884094525 0.07728708871726997
3560000000.0 -0.04113799543205419 0.07362159013308123
3580000000.0 0.0702041441450813 0.06633690892760831
3600000000.0 0.009298519097729864 -0.10282012827006816
3620000000.0 0.11140114036564525 0.043892741590375664
3640000000.0 0.05938904845957223 -0.11971729114356057
3660000000.0 -0.09312622957778845 -0.11454068803185043
3680000000.0 0.10348221744353896 0.11082061826687709
3700000000.0 0.049328997088999946 0.13600273015622807
3720000000.0 0.10968125055143203 0.06642542902184395
3740000000.0 0.09438638758334487 -0.040626324194142416
3760000000.0 -0.054839776708562195 -0.058817054229449404
3780000000.0 0.058576051792941855 0.005626209950160618
3800000000.0 0.02007402538004585 -0.018068239940888516
3820000000.0 -0.009861555291312054 -0.004875116969094144
3840000000.0 -0.04628038173342531 -0.01014149800516269
3860000000.0 -0.06191447326924813 0.04973743862841169
3880000000.0 -0.05255131486499157 -0.09256389862053549
3900000000.0 0.11847951469378475 0.04752647446177643
3920000000.0 -0.10020790495019122 -0.10292195111920002
3940000000.0 -0.03898692006496506 0.147137001978561
3960000000.0 0.1168273141482271 -0.10671898039180903
3980000000.0 0.1436609102737761 -0.03350712599244278
4000000000.0 -0.12393951371581628 -0.006991848172596695
