!Created with skrf (http://scikit-rf.org).
# Hz S RI R 50.0 
!freq ReS11 ImS11
400000000.0 0.7869762042400564 0.3732128417796986
420000000.0 0.23279500086388957 0.7829663377930086
440000000.0 0.4134931158693987 0.6387753074635532
460000000.0 -0.6269664474943238 -0.27784805475032226
480000000.0 -0.16665655158723652 -0.5986440575417952
500000000.0 0.5844248685350081 -0.285551247845128
520000000.0 -0.5228423966410038 0.4176244679261467
540000000.0 0.6649387425716795 -0.151861449110676
560000000.0 -0.1591031782047527 0.6496213704903834
580000000.0 -0.34898252064437674 0.3855197981029406
600000000.0 -0.03927007973046204 0.5902277445729414
620000000.0 -0.4728137693472891 -0.3922160648053529
640000000.0 -0.333888626924533 -0.4594996367788822
660000000.0 0.27382044425809354 0.45542008968792386
680000000.0 0.18993993020543717 0.4540989800288398
700000000.0 0.349656336339909 0.28016505460339935
720000000.0 -0.35166725457057724 0.3440581404884191
740000000.0 0.18374313192944758 0.4366621691211979
760000000.0 0.0002472357365771848 0.4481817839089088
780000000.0 -0.36267732207108694 0.23388233492065777
800000000.0 0.09462302169745779 -0.38089117510388343
820000000.0 0.08486860289223612 0.3440329080087282
840000000.0 0.16933020296787396 0.2754052393417033
860000000.0 0.18550283428220213 -0.23546209794213804
880000000.0 0.21410742851611905 0.17170334837370696
900000000.0 0.024715146821760736 0.2672640404419985
920000000.0 0.25386386787512355 -0.03872500692784787
940000000.0 -0.07275677472000402 0.2107706721044847
960000000.0 -0.1252936384845534 -0.13462357539341574
980000000.0 -0.14246187195915755 -0.020504629675371373
1000000000.0 0.12365396530626474 0.03780587966684664
1020000000.0 -0.0927859381463697 -0.03379556447224502
1040000000.0 -0.11012087355723416 -0.004353078424957211
1060000000.0 0.14448057145732232 -0.021921817845778905
1080000000.0 0.15738608975661614 0.11856026119980587
1100000000.0 0.17536972281621502 0.16380532340327844
1120000000.0 0.27650912103080216 0.0179938763841536
1140000000.0 -0.28971990278960086 -0.0742154825034569
1160000000.0 -0.3172814788257353 0.01664568747518351
1180000000.0 -0.3257770728941021 -0.08454612523830593
1200000000.0 -0.30190249451485074 -0.18142303725736458
1220000000.0 0.355723944519912 -0.014122221845078163
1240000000.0 0.21400123163336432 0.3074668786708819
1260000000.0 0.3687333624715915 -0.13598997798513066
1280000000.0 -0.34760210222388166 -0.1669044878688564
1300000000.0 -0.12124630248376436 -0.35951027644472194
1320000000.0 -0.11000262027695781 -0.3658802366776784
1340000000.0 -0.37049869477853714 0.00233464346938124
1360000000.0 0.23134670643331057 0.314762064249295
1380000000.0 -0.1600208452140682 0.3682597315333098
1400000000.0 0.042574095383088095 -0.39370193802266423
1420000000.0 0.026838780166669757 -0.3918442806189971
1440000000.0 -0.1344103486262456 -0.3715471810735894
1460000000.0 -0.3625333824897618 -0.16252465021893064
1480000000.0 -0.3138745983786623 -0.241357935374058
1500000000.0 0.023878512490148166 0.3965618854292256
1520000000.0 -0.3894780279495183 0.011336602774174375
1540000000.0 0.3218680539945679 -0.1618348423947516
1560000000.0 -0.2775129540020535 0.17541876590848152
1580000000.0 -0.23256691785666775 -0.18121326779254052
1600000000.0 0.005651876686537351 -0.2563987545986398
1620000000.0 0.2050237757236356 -0.07553715540440496
1640000000.0 -0.16416783575887658 0.08824795786080152
1660000000.0 -0.05302333827666681 0.14395703215624725
1680000000.0 0.10940932299398914 -0.034597881793625725
1700000000.0 -0.054571641241588906 -0.08732284206158858
1720000000.0 0.06380611814849405 -0.04996535365938746
1740000000.0 0.06661621358033788 0.0429595684998541
1760000000.0 0.008957993807687399 -0.09101670058799287
1780000000.0 0.11559703374753684 -0.005758689764091286
1800000000.0 0.13658824362436106 -0.02666409776150707
1820000000.0 -0.16946659325660288 -0.003956759825504895
1840000000.0 0.19038464935524835 -0.03833817348393449
1860000000.0 -0.19243913831566192 -0.11140815654829642
1880000000.0 -0.03082032602860989 0.25195797914570145
1900000000.0 0.026307486719378718 0.2721828645652119
1920000000.0 0.2299731266550823 -0.1826441638684954
1940000000.0 -0.30328959429777513 0.025267968884349803
1960000000.0 0.28767625969100424 -0.10725141203348659
1980000000.0 -0.27119630586883403 -0.1577290522204966
2000000000.0 0.06027330281592863 -0.3162994280935983
2020000000.0 0.293315761921388 -0.1329333129552468
2040000000.0 0.3207603428881303 0.014046850416066261
2060000000.0 0.2635944720528805 0.17852883604367775
2080000000.0 0.027982029601457816 0.3167064198737926
2100000000.0 0.09386667310504608 -0.30081515722190577
2120000000.0 0.21312466658945545 0.2181292154509964
2140000000.0 0.05031562742918097 -0.2952489481566354
2160000000.0 -0.2928650616173408 0.04704739782488433
2180000000.0 -0.03859426336968196 0.28503868450062464
2200000000.0 -0.1993505633950675 0.20108255221030555
2220000000.0 -0.20070349205824373 0.1945827884024881
2240000000.0 -0.2044713374375753 -0.18503898073525074
2260000000.0 0.09137517521252914 -0.25379063822875847
2280000000.0 0.27110052484623653 0.006834010535773612
2300000000.0 0.2602299717324165 -0.006237224883835553
2320000000.0 -0.2516703558953559 -0.044051097403115684
2340000000.0 -0.10162903143390657 -0.23574062881721433
2360000000.0 0.17879426772568247 -0.18173916815858573
2380000000.0 0.05714755033597466 0.2552261431818035
2400000000.0 0.247283221283107 0.13374330774919543
2420000000.0 0.14126258169849784 -0.2617102926086323
2440000000.0 -0.31513209215017896 0.03658091534665965
2460000000.0 0.3100681230255205 0.13898003411677448
2480000000.0 0.2115055002518065 -0.3047747390878469
2500000000.0 -0.07431094244766875 0.398783693250184
2520000000.0 -0.3321827733436259 -0.2930826805521538
2540000000.0 0.4708359747119477 -0.07429609160907716
2560000000.0 -0.36012918871666855 0.3603270617589268
2580000000.0 0.1939370334862643 -0.5039927237835464
2600000000.0 0.014375843521117622 0.5662637315788077
2620000000.0 -0.0846918106001646 -0.5835678819684319
2640000000.0 0.2787784781480208 0.5404751585227912
2660000000.0 -0.5831342803065975 -0.22293782609928992
2680000000.0 0.4574675271193767 -0.4393194516014193
2700000000.0 0.6057521772862849 0.21569919075244662
2720000000.0 0.23516758154244827 0.6022164284718756
2740000000.0 0.09926318156730456 0.6406774509373963
2760000000.0 0.0023037797220508915 0.6462987546906359
2780000000.0 -0.5668542422604871 -0.29539428659259886
2800000000.0 -0.39022416608554233 -0.49342815830543746
2820000000.0 0.17078764071856142 -0.5919201639841574
2840000000.0 0.43944117226563345 0.41019079397903463
2860000000.0 -0.4909109970880005 -0.32194689545984995
2880000000.0 0.2568040194962157 0.5086403036127601
2900000000.0 0.40859375875797443 -0.36598677932066004
2920000000.0 0.004951421580463688 -0.5280356499222421
2940000000.0 -0.36685824602119466 -0.3453749615524991
2960000000.0 -0.21947246013286403 -0.42738764332497087
2980000000.0 -0.2689218446642725 -0.3708736016676878
3000000000.0 -0.32703063307616526 -0.29481196387735825
3020000000.0 -0.42028290750246133 0.02004389427473669
3040000000.0 -0.0190948616915878 0.4000956992233012
3060000000.0 0.380780362405588 -0.004364978971153436
3080000000.0 -0.33277184609089555 -0.151937406280647
3100000000.0 0.23675789871590538 0.25920405071074
3120000000.0 0.33162726549422994 -0.09320513954200775
3140000000.0 -0.2088766887979802 0.26714116496664464
3160000000.0 0.16414429127388397 -0.2943752184880174
3180000000.0 0.04225161044488446 0.33216974574693703
3200000000.0 0.3035945043193952 -0.1251305453325489
3220000000.0 -0.15914038202954767 -0.28228216559220143
3240000000.0 -0.3145350099587202 -0.03610854449837791
3260000000.0 -0.27141438214885183 0.14002098587707734
3280000000.0 -0.29279185762759335 0.034024112680719996
3300000000.0 -0.2781459481198183 -0.011142516747352855
3320000000.0 -0.13820141713474288 -0.21320278741601084
3340000000.0 0.22850938439669166 0.03272566558560292
3360000000.0 -0.1965235620053094 0.06557363340326498
3380000000.0 0.16233347138034265 -0.09695344649071742
3400000000.0 0.10650650256351396 0.12919792539638064
3420000000.0 0.025784819771229886 0.1407191314399597
3440000000.0 -0.11017036111181801 0.06179202726169566
3460000000.0 -0.081362188451398 0.06737274157915571
3480000000.0 0.08470800890328771 0.018394851081087626
3500000000.0 -0.07978817536910486 -0.004680930589286179
3520000000.0 -0.06263608386364423 -0.04546916015589526
3540000000.0 0.01573917415003921 -0.07469776913436137
3560000000.0 0.07131528997056838 -0.049172197140889606
3580000000.0 -0.037632732673391435 0.08627748949630648
3600000000.0 -0.048322278581748784 0.08636218966606765
3620000000.0 0.04694037761445905 -0.1020603502997424
3640000000.0 0.10600642779655514 0.06706962626013545
3660000000.0 -0.010567631032645334 0.1360117628136753
3680000000.0 0.017317853206762705 0.1407489167032422
3700000000.0 -0.06084175183762127 -0.11796302580451132
3720000000.0 0.11826087512473615 -0.022033184050749527
3740000000.0 -0.02565224437349133 -0.09703624427073208
3760000000.0 0.07134083470092044 -0.043262682890720744
3780000000.0 -0.060738488215727804 -0.022628056904658342
3800000000.0 0.029374390330300742 -0.017957414327762846
3820000000.0 9.232695939211695e-05 -0.001672187517449868
3840000000.0 -0.023548079369895537 0.02922892456462424
3860000000.0 0.01337605196723917 -0.0634885478720896
3880000000.0 0.0903497403714959 -0.020962305740517016
3900000000.0 -0.07792935318635831 -0.08097958981344577
3920000000.0 -0.12669276014326217 -0.014585148902615034
3940000000.0 -0.08528946101675422 0.10557649751330515
3960000000.0 -0.10384242655183068 0.09258386020050705
3980000000.0 0.13376064828649148 -0.003265366946652628
4000000000.0 0.06542288892330328 -0.0936631467467091
