!Created with skrf (http://scikit-rf.org).
# Hz S RI R 50.0 
!freq ReS11 ImS11
400000000.0 0.7985445833262532 0.3484897156235551
420000000.0 0.2719400936489883 0.7706601574521188
440000000.0 0.4186411093497716 0.6365434534059292
460000000.0 -0.6172055221804346 -0.2978519667745885
480000000.0 -0.043735315023242564 -0.6193568047566742
500000000.0 0.6400268509601821 -0.11579669888318878
520000000.0 -0.19210715409579335 0.638268385663009
540000000.0 0.6722641616985683 -0.08610875803637674
560000000.0 -0.2703226768420328 0.6170238591057383
580000000.0 -0.017019285847179825 0.5201185401589282
600000000.0 -0.11122741133151273 0.578257768230699
620000000.0 -0.12006066013939375 -0.5975704588612242
640000000.0 -0.1902767000850602 -0.5398484378589936
660000000.0 0.2593060159155506 0.46517788631971524
680000000.0 0.24908478263532938 0.42120807504121827
700000000.0 0.4411548860247892 0.04945596377798074
720000000.0 -0.4095173024415002 0.2698547580239847
740000000.0 0.47286866098209546 0.04095474983451916
760000000.0 -0.1623216256947714 0.4170481764173102
780000000.0 -0.4325218544162405 0.047306374645412215
800000000.0 -0.10720922663568275 -0.38364940306201284
820000000.0 0.2635312757936703 0.22688703197809326
840000000.0 0.06352115789207116 0.3181146342119639
860000000.0 0.16309330367311867 -0.2506215791353558
880000000.0 0.033457436761306275 0.2722836707843934
900000000.0 0.14044007686698481 0.22659982955171662
920000000.0 0.169314586065125 0.19586484847671337
940000000.0 0.13656641428946126 0.17875306153323756
960000000.0 -0.1429303664142554 0.11483098378491109
980000000.0 -0.017227318588383906 0.1381397852517731
1000000000.0 -0.06771072813761334 0.10616093041581369
1020000000.0 -0.04194723161159765 0.09593856470738397
1040000000.0 -0.05203452846363375 0.10697692969809096
1060000000.0 -0.13459810734327354 -0.05419600052987661
1080000000.0 0.18749470708863508 0.004364411436823424
1100000000.0 -0.11600457509839997 0.20932709381121403
1120000000.0 0.273243329464243 -0.05033140455385261
1140000000.0 -0.29051947503380177 0.08161635113857868
1160000000.0 -0.24046630153253085 0.20502056533238064
1180000000.0 -0.3217788516068989 -0.10120858112564991
1200000000.0 -0.28883778398616305 -0.20184717904414912
1220000000.0 0.354196882745428 -0.038039222887642186
1240000000.0 0.18422599735960668 0.33062839159214147
1260000000.0 0.3593742246247913 -0.1585762272767066
1280000000.0 -0.3303853191046592 -0.19448323898359787
1300000000.0 0.009804839343895899 -0.38005745016422354
1320000000.0 -0.049523191962933276 -0.3785284614940935
1340000000.0 -0.36065968924540326 0.08381217390461555
1360000000.0 0.21467065108619138 0.3221408522164328
1380000000.0 -0.09044947992392299 0.3888239430101661
1400000000.0 0.026882697774489817 -0.3943108121219434
1420000000.0 -0.12847631898210204 -0.37229625876831557
1440000000.0 -0.2949998319709637 -0.2596396890528576
1460000000.0 -0.37669013189430955 -0.11541825112546257
1480000000.0 -0.3552428155559679 -0.1800250834130823
1500000000.0 0.2503572366303471 0.3111861154877768
1520000000.0 -0.3830048739141452 0.053746334344753635
1540000000.0 0.3562138285916817 0.054700523639554674
1560000000.0 -0.24931611043037064 0.21646609771596417
1580000000.0 -0.21329799586209822 -0.2012815335754858
1600000000.0 0.10895148373147752 -0.23448379690925156
1620000000.0 0.12389254185654458 -0.17815915870064195
1640000000.0 -0.15956539360099375 0.08714315329473851
1660000000.0 -0.1246084683222843 0.09088914089757093
1680000000.0 0.11298134376681968 0.005536922851917104
1700000000.0 -0.09179865376255353 0.044445383909046524
1720000000.0 -0.030002756549460514 -0.07196392186693999
1740000000.0 0.06834244042830435 0.036215167699015414
1760000000.0 -0.033246130727283565 -0.0838797601290783
1780000000.0 0.04989631060868523 -0.10528181139620267
1800000000.0 0.02977989606358358 -0.13539621271917826
1820000000.0 -0.16250285356974747 0.04344719370410614
1840000000.0 0.1911772497527606 -0.04162010384219079
1860000000.0 -0.18180762560978833 0.1274585473487868
1880000000.0 -0.0464877213878945 0.25158402591711043
1900000000.0 0.059419381926176934 0.2676732748526513
1920000000.0 0.18353047839773098 -0.23003541912373493
1940000000.0 -0.30469257257547105 -0.014360887486013232
1960000000.0 0.30864350054698303 0.003838655496108706
1980000000.0 -0.307520084503544 -0.06360870923155292
2000000000.0 0.1023120501712192 -0.3041597009019102
2020000000.0 0.31442187673520544 -0.05968230821651976
2040000000.0 0.31923603346447404 0.03898959848192928
2060000000.0 0.31154962875851566 0.05905461110065134
2080000000.0 0.12431885688901288 0.2885270456478964
2100000000.0 0.02961811926010624 -0.3114057451506976
2120000000.0 0.27586010526820015 0.1300446554000657
2140000000.0 -0.13826480581669787 -0.2665478203741919
2160000000.0 -0.18232622805132467 0.23253553618458214
2180000000.0 -0.015462301633973717 0.28811809324915355
2200000000.0 -0.09199523319251958 0.2700979022456946
2220000000.0 -0.17377879509805388 0.22128273495108752
2240000000.0 -0.21809566116601745 -0.17241068546774072
2260000000.0 0.1645058341076481 -0.21522894413849591
2280000000.0 0.267287010648949 0.057344828878486256
2300000000.0 0.23103337404014998 0.11776352638296558
2320000000.0 -0.24321500565646953 -0.07795279435014603
2340000000.0 0.009547598389569562 -0.2540742780755559
2360000000.0 0.2548189432749277 -0.01775184760511744
2380000000.0 0.14552675553646358 0.21407743992876987
2400000000.0 0.17580591893547587 0.21613553173980435
2420000000.0 0.05536674218843566 -0.289513994422696
2440000000.0 -0.12207109073616317 0.2889662105959893
2460000000.0 0.3283769236947811 0.07871100392666186
2480000000.0 0.06774163201003292 -0.3668572861556814
2500000000.0 0.28179334795564626 0.2944564050498858
2520000000.0 -0.42404736168538376 -0.13092592195478028
2540000000.0 0.4642137465748417 -0.11228390487375255
2560000000.0 -0.3746811546607359 0.3484140687323997
2580000000.0 0.1530985865846394 -0.520215141731122
2600000000.0 -0.023292043449860748 0.5667244230279783
2620000000.0 -0.053718760201760744 -0.5862249423668758
2640000000.0 0.18327461205808582 0.577027727904258
2660000000.0 -0.5340363015814545 -0.3193100013857837
2680000000.0 0.37631422209279575 -0.506611484085665
2700000000.0 0.6072783939538966 0.20239163792794035
2720000000.0 0.44564243641643375 0.4655165258281647
2740000000.0 0.3057160730941725 0.570126661606052
2760000000.0 0.2258023180665312 0.6056863401696435
2780000000.0 -0.6384175408944974 -0.04191114608772594
2800000000.0 -0.4632917566397337 -0.42630061388039064
2820000000.0 0.11935409395065875 -0.6056686147853119
2840000000.0 0.4363732691782318 0.4165031296981458
2860000000.0 -0.48663909282151296 -0.33096273597824727
2880000000.0 0.2033850448535208 0.5321581352820252
2900000000.0 0.4533747059098134 -0.30852793288387115
2920000000.0 0.07760199781281991 -0.5212803272620692
2940000000.0 -0.30088087525391133 -0.40230780090060825
2960000000.0 -0.22512746313890514 -0.42064650748178917
2980000000.0 -0.3363434580238666 -0.30987457110934996
3000000000.0 -0.38167970205543184 -0.2133264603370908
3020000000.0 -0.3694446152677127 0.19538872887006242
3040000000.0 0.09298153000284809 0.3883718618865512
3060000000.0 0.35595941009302 -0.13325400908618612
3080000000.0 -0.3649019270542226 -0.030249501468627923
3100000000.0 0.35065317870494195 0.028805459025504642
3120000000.0 0.2081584642295648 -0.2746095176185933
3140000000.0 -0.1450496762850417 0.3077432671497924
3160000000.0 0.11087644351513887 -0.32108223476214076
3180000000.0 0.02946691160632903 0.33418053746248677
3200000000.0 0.31912444622772396 -0.08500415472175826
3220000000.0 -0.18768900862432641 -0.26421477508318525
3240000000.0 -0.28632013404742424 -0.1321342435274474
3260000000.0 -0.3048738231553807 0.012068516636261331
3280000000.0 -0.29250002695376814 0.010691672708808437
3300000000.0 -0.26894697314870625 -0.062045375631855464
3320000000.0 -0.15583790197349773 -0.19692991931848805
3340000000.0 0.22694289209217797 0.03168575445365783
3360000000.0 -0.1334296037807253 0.15513483590015734
3380000000.0 0.08829824679505713 -0.16412416753589434
3400000000.0 0.16133635958388468 0.04135446489803447
3420000000.0 0.13893612244254225 0.031744419484773106
3440000000.0 0.0013068646468214168 0.1253385185621697
3460000000.0 0.03920529119072218 0.0985066526120341
3480000000.0 0.03844876651263165 -0.08043836599916726
3500000000.0 -0.021734329628440484 0.07794438630563846
3520000000.0 -0.022880111157018806 -0.0767530423449506
3540000000.0 0.0566561721524667 -0.056786554593982345
3560000000.0 0.08355177427225256 0.024983497729762053
3580000000.0 -0.030052215931861446 -0.08819333090382545
3600000000.0 -0.08780177941154656 -0.04644594779768171
3620000000.0 0.08566483216476224 -0.06964949878294881
3640000000.0 0.03878499180331742 0.11555181069086437
3660000000.0 -0.04881582021054051 0.12364812550087614
3680000000.0 -0.03457060901070125 0.1337729287464434
3700000000.0 -0.12213507379486443 -0.049549925378291365
3720000000.0 0.031607351453514024 -0.11248633476300773
3740000000.0 -0.09751721250689566 0.005248443565292738
3760000000.0 -0.07397653865543766 -0.036642170229832245
3780000000.0 0.05980816022111693 0.024117488560411696
3800000000.0 -0.013732537234504474 0.03302950713929013
3820000000.0 -0.0022364851519032797 0.0031355521579576624
3840000000.0 0.028923688743450752 0.01863810971257158
3860000000.0 0.037374623322845635 -0.05039714656155573
3880000000.0 -9.173667724516266e-05 -0.08925705299580215
3900000000.0 -0.09988855320104206 0.04413082277028291
3920000000.0 -0.035812797670372716 0.11909500954301576
3940000000.0 -0.00944766917280974 0.13378178030750526
3960000000.0 0.048957832086018296 0.1306188900515897
3980000000.0 -0.059281465097543895 -0.1205867503110319
4000000000.0 -0.07751942503111735 -0.08201779501410528
