!Created with skrf (http://scikit-rf.org).
# Hz S RI R 50.0 
!freq ReS11 ImS11
400000000.0 0.8031131126673078 0.3374369080494644
420000000.0 0.2055010590022174 0.790203166623341
440000000.0 0.3733147948679583 0.6675860136577693
460000000.0 -0.6618910550289502 -0.1892352076482611
480000000.0 -0.3394481155374328 -0.5182431031010942
500000000.0 0.6468551221145626 0.05611054106714447
520000000.0 -0.21743686538024046 0.6341182607497234
540000000.0 0.6227581690001796 -0.2662307008567576
560000000.0 -0.5198364561150048 0.4109493269190787
580000000.0 -0.5093001497764166 0.11691247459352307
600000000.0 -0.19550609978286126 0.5634874509506881
620000000.0 -0.32404097275746385 -0.5288436058797408
640000000.0 -0.5777069084591239 0.025769220405537564
660000000.0 0.5114138964509439 0.11619681532622061
680000000.0 0.1836653037059116 0.44876943734649544
700000000.0 0.41702402212950196 0.15614147036359
720000000.0 -0.48031654110237576 0.0821091880156494
740000000.0 0.17084753219323465 0.4493601881637838
760000000.0 0.2062751088066391 0.3953338294686504
780000000.0 -0.42764959283247206 0.005107110947176574
800000000.0 0.3428648109143241 -0.20248525142033322
820000000.0 0.3347724091156989 0.14756217131030383
840000000.0 0.2578694716062301 -0.20149403510073968
860000000.0 -0.2531046543066812 -0.13861558469303653
880000000.0 0.11813878813371384 0.23086291607071432
900000000.0 -0.19385761200450613 -0.18450512645519054
920000000.0 0.06775719471075956 0.2533736039361948
940000000.0 0.1336201311018389 0.187559892378219
960000000.0 0.06356969681537405 0.17768646170020974
980000000.0 0.016195286541868425 0.13565219110666893
1000000000.0 -0.04791723386622377 -0.11357412883704958
1020000000.0 -0.07094525819219054 -0.0740696840066086
1040000000.0 -0.1144832744736785 0.038746308778494006
1060000000.0 0.13201484623889465 -0.06532609601921538
1080000000.0 -0.19863054198601499 -0.011322661770542277
1100000000.0 0.19658484017381625 0.12456442551997346
1120000000.0 0.27581112215878617 0.003148382762329551
1140000000.0 -0.2976056747225427 -0.043993465094307176
1160000000.0 -0.2949594333022641 -0.10990724877128831
1180000000.0 -0.2308104328990628 -0.25307179874056046
1200000000.0 -0.3167956188592563 0.1612468331127349
1220000000.0 0.3459857412673972 -0.04559623823350722
1240000000.0 0.007827964308072893 0.3759599394708634
1260000000.0 0.3948774815454907 -0.04240827098172093
1280000000.0 -0.37570259658567684 0.09720938596816836
1300000000.0 -0.32825505119112275 -0.18294102455581987
1320000000.0 0.0868551100151254 -0.3655125424850049
1340000000.0 -0.2745267590612498 -0.25243704958387736
1360000000.0 0.2411675335374533 0.3121100892965325
1380000000.0 0.06409179683208532 0.3931242546515003
1400000000.0 0.06274757988999144 -0.3912740958604844
1420000000.0 0.0012443330404475464 -0.3925513245426879
1440000000.0 -0.28483543159192215 -0.27257630692003215
1460000000.0 -0.3376406203352904 -0.20533372107861314
1480000000.0 -0.2605480617597631 -0.30218135121860035
1500000000.0 0.20736083976006814 0.3412672110718929
1520000000.0 -0.38635621915615864 0.0005467249339301452
1540000000.0 0.36076476416346764 -0.02065701361316075
1560000000.0 -0.08330645748978695 0.3200861723194643
1580000000.0 -0.193155585020254 -0.2207373218754106
1600000000.0 0.018513980081209892 -0.2561146622060105
1620000000.0 0.1452109976808265 -0.1619550581637152
1640000000.0 -0.10163257414753095 0.15420856567731636
1660000000.0 -0.134446730355057 0.07506044999189415
1680000000.0 0.07943090556428949 -0.0792918389894054
1700000000.0 -0.06345249852500617 -0.08218267756639057
1720000000.0 0.06511144773756551 -0.04622617129891714
1740000000.0 0.003583215955500257 -0.07714419049875186
1760000000.0 0.08918945525369296 -0.004723995506210109
1780000000.0 0.10486734504212933 -0.05558773194836936
1800000000.0 0.10275160307293564 -0.09596459795382212
1820000000.0 -0.11022252840872654 0.1261320367062404
1840000000.0 0.1939678021569949 -0.011437394859386498
1860000000.0 -0.18918023653549532 -0.11752626699183043
1880000000.0 0.00855813232738983 0.2566341753239409
1900000000.0 0.052945596759912915 0.26779287799777163
1920000000.0 0.19532402451793032 -0.22080704062483433
1940000000.0 -0.304975182531 0.0070706638396872004
1960000000.0 0.2648807209187118 -0.15721925357385794
1980000000.0 -0.3033600318190258 -0.0773458935134081
2000000000.0 0.15083397881192223 -0.2828065898104884
2020000000.0 0.29377758898488676 -0.13439010976754767
2040000000.0 0.32032961575934926 0.03746688067804796
2060000000.0 0.3069175439910662 0.07715350887996976
2080000000.0 0.08150424758203378 0.3047541935332796
2100000000.0 0.19538274914917644 -0.24712963338159746
2120000000.0 0.24425776001765612 0.18564083778675367
2140000000.0 -0.09843668767835684 -0.28406690438210885
2160000000.0 -0.2616450002900972 0.13714101960370947
2180000000.0 -0.021175000519065686 0.2853965225171009
2200000000.0 -0.2197986500656583 0.17795094136126724
2220000000.0 -0.23281847240937 0.15829581283343533
2240000000.0 -0.18015631873407773 -0.21192406400130173
2260000000.0 0.06148739640864852 -0.2636371252128444
2280000000.0 0.2547377285735437 -0.09261611935426915
2300000000.0 0.22767894051641663 0.12258153022607497
2320000000.0 -0.2524162346582216 -0.03520782884696818
2340000000.0 -0.032219835317105906 -0.25462970514107364
2360000000.0 0.22720424670451214 -0.12011583605491466
2380000000.0 0.14975986318595133 0.210141480829014
2400000000.0 0.12987463296972154 0.24880813221859596
2420000000.0 0.11373513573714583 -0.2751533070067083
2440000000.0 -0.21033547822507329 0.23710479084005184
2460000000.0 0.31923252433945565 0.11180044716132256
2480000000.0 0.21336292522618855 -0.30455902397630347
2500000000.0 0.0725656101319896 0.4011370567554085
2520000000.0 -0.39063547574784796 -0.20957226020727732
2540000000.0 0.47345871483325064 -0.05987077974431968
2560000000.0 -0.34259414947803446 0.3776614211848501
2580000000.0 0.23176235072726767 -0.4883215226190879
2600000000.0 -0.03311036845358593 0.565558814078436
2620000000.0 -0.1287247259048484 -0.575078202694447
2640000000.0 0.2783903058808751 0.5396558156817398
2660000000.0 -0.5868023087285087 -0.2101825994300976
2680000000.0 0.3514236544008027 -0.5262503739770159
2700000000.0 0.5898632770528867 0.2527566252035086
2720000000.0 0.26909687052273784 0.5882443688267395
2740000000.0 0.13835422466549957 0.6327222517478663
2760000000.0 0.03294172833415524 0.6455812346200207
2780000000.0 -0.6106272817182066 -0.18980670884130912
2800000000.0 -0.3849043218673158 -0.49791654341893354
2820000000.0 0.1322241499934093 -0.6021046011247305
2840000000.0 0.4893935183867143 0.34981539245630255
2860000000.0 -0.48411759536779075 -0.33071034460415916
2880000000.0 0.23254802909448832 0.5196178826754931
2900000000.0 0.4486838784907005 -0.31580039501110174
2920000000.0 0.028753099441390505 -0.5266980718756924
2940000000.0 -0.3178279283222475 -0.3922459662502483
2960000000.0 -0.2483295773911452 -0.4099867262096175
2980000000.0 -0.30736029879560867 -0.33844107790923467
3000000000.0 -0.32852265305953715 -0.290498936554435
3020000000.0 -0.41434832584157644 0.06768705197998222
3040000000.0 0.07080600323137635 0.3950637584431339
3060000000.0 0.3362694974269739 -0.17909745836819
3080000000.0 -0.33015359038902 -0.15510035246054232
3100000000.0 0.2659875212147045 0.22836199787298875
3120000000.0 0.25971647664708825 -0.2283061188885164
3140000000.0 -0.19175846889801806 0.28079229698276603
3160000000.0 0.10997776051143446 -0.31966446705654056
3180000000.0 0.021930728739708354 0.3333292059923627
3200000000.0 0.31702674430536554 -0.08852981380500148
3220000000.0 -0.20703072518742618 -0.25017788527667933
3240000000.0 -0.30307186862290764 -0.09052669568632615
3260000000.0 -0.27090452736207693 0.14041674359222017
3280000000.0 -0.29243409289685174 0.02582028808645531
3300000000.0 -0.2650752213322851 -0.07918482643841351
3320000000.0 -0.1513929932095325 -0.2040882896883924
3340000000.0 0.22516203103443763 0.04749912331926022
3360000000.0 -0.1723206403219391 0.11344821386301089
3380000000.0 0.11153161225624182 -0.15155268348961903
3400000000.0 0.1237715141159677 0.1130689365880015
3420000000.0 0.09249534258408143 0.10960195737071546
3440000000.0 -0.09372831756713641 0.0827012484536892
3460000000.0 -0.07482322345902362 0.07406614657022415
3480000000.0 0.08625261677164313 0.019400142605588526
3500000000.0 -0.04643753168679128 0.06666935848972722
3520000000.0 -0.02206182187267763 -0.07475680023771711
3540000000.0 0.030649800283977992 -0.07199485224297897
3560000000.0 0.0659538223869722 -0.056788762902033385
3580000000.0 -0.08874505337624326 0.028802882476489863
3600000000.0 -0.0873596251025552 0.04459617861417383
3620000000.0 0.07905131596780933 -0.0787972554485635
3640000000.0 0.08872204905211159 0.08828729575696646
3660000000.0 -0.015144571149394203 0.13433704443612327
3680000000.0 -0.019590616607068987 0.13866382164547175
3700000000.0 -0.08327986831553992 -0.1033601510754838
3720000000.0 0.1203195863744308 -0.0004730011480027493
3740000000.0 -0.0638000547392415 -0.07735764677264217
3760000000.0 -0.018945071347453473 -0.08105555850839387
3780000000.0 -0.02332248011095784 0.058863991774974596
3800000000.0 0.03166662617684119 0.01181563442456726
3820000000.0 0.002608293475063679 -0.0016959070656580653
3840000000.0 -0.03449693182527757 -0.0026431907953668927
3860000000.0 0.058681749322849065 -0.025870125771451192
3880000000.0 0.08935926672527346 -0.02259932640224965
3900000000.0 -0.1065106063865149 -0.03558006927472675
3920000000.0 -0.112065680330138 0.06012246613045134
3940000000.0 -0.09137157089127293 0.09998861785869241
3960000000.0 -0.0811595556845871 0.11292495562976174
3980000000.0 0.11751846598151927 -0.0624774310962682
4000000000.0 0.09152929686002279 -0.0645799608895282
