!Created with skrf (http://scikit-rf.org).
# Hz S RI R 50.0 
!freq ReS11 ImS11
400000000.0 0.8105589423158963 0.31890168628313353
420000000.0 0.223222652921432 0.7854802746722244
440000000.0 0.4629556333566003 0.6033089610864241
460000000.0 -0.5760433964996912 -0.37322009927291366
480000000.0 -0.10119405139278446 -0.6129774144124169
500000000.0 0.5807574154557101 -0.29911333962998915
520000000.0 -0.34882835318545835 0.5720858610503002
540000000.0 0.6743976177944416 -0.041211982581322956
560000000.0 -0.3745383281500361 0.5596266998825933
580000000.0 -0.3250641840407041 0.4127130321694521
600000000.0 0.15624839443210398 0.5698346683540291
620000000.0 -0.41041136001290124 -0.4503473497681438
640000000.0 -0.4185803222947234 -0.38473844342264185
660000000.0 0.1295410965019979 0.5088751614226907
680000000.0 0.10243277411282457 0.4892801496601488
700000000.0 0.4304645323612361 -0.12059745504417528
720000000.0 -0.32731280818178543 0.36413056703480295
740000000.0 0.3420496695449313 0.32423623659516193
760000000.0 -0.07662103343917956 0.44452305800130965
780000000.0 -0.4276599347026865 0.062011811378244644
800000000.0 0.04099452331577052 -0.39263084971490947
820000000.0 0.2601176519602985 0.2368500974168037
840000000.0 -0.1447858904263127 0.2910694835850495
860000000.0 0.15121050111625858 -0.2568429326158786
880000000.0 0.21048839804693958 0.17333455060747993
900000000.0 0.009292439447296501 0.2688541909408157
920000000.0 0.2573591367459236 -0.028327320831071926
940000000.0 0.0328680635980153 0.22402591895334253
960000000.0 -0.17503427021452675 0.03937115670772753
980000000.0 0.0012207441383359362 -0.1406392921214077
1000000000.0 0.11841027577107932 0.059510074895946535
1020000000.0 0.06788064382212347 -0.07513514956930412
1040000000.0 0.06437609216445024 0.09625444771278643
1060000000.0 0.05878789953722694 -0.1306107754451803
1080000000.0 0.167195499183411 0.09485940376080733
1100000000.0 -0.03885392818754543 0.23721227617925614
1120000000.0 0.27900814227123605 0.027067372482630237
1140000000.0 -0.26735079252780164 0.13932766652902054
1160000000.0 -0.28873414438168093 0.1292580538482316
1180000000.0 -0.2798212090921933 -0.18684437082738584
1200000000.0 -0.23250804992937574 -0.2636425862846771
1220000000.0 0.35603876009856333 -0.003562212344491675
1240000000.0 0.25182315184049187 0.2781133643778569
1260000000.0 0.36093240392456144 -0.15316025366873645
1280000000.0 -0.3619315741045006 -0.12612729059674918
1300000000.0 -0.05866519588397149 -0.37694053038549663
1320000000.0 -0.15178601820543092 -0.3511870152915477
1340000000.0 -0.36312616627672667 0.06625250540193554
1360000000.0 0.19753485700375495 0.3344368604748211
1380000000.0 -0.24511183449925636 0.31939471559185423
1400000000.0 -0.029101731144787715 -0.3960191064753362
1420000000.0 0.1524706970132558 -0.36101332061211916
1440000000.0 -0.20737446659008915 -0.3364277796391213
1460000000.0 -0.3515660777678332 -0.18187722975536863
1480000000.0 -0.2660648074096494 -0.2973771141734782
1500000000.0 0.08285932666192324 0.3877154783130037
1520000000.0 -0.37377106499197726 -0.10646499461253889
1540000000.0 0.3462108700357558 -0.10910267397293426
1560000000.0 -0.19329613648737107 0.26380016764669806
1580000000.0 -0.16730446278767083 -0.24025206294749463
1600000000.0 0.08424634447156906 -0.2447559087296238
1620000000.0 0.1444934133280753 -0.16325346798954418
1640000000.0 -0.1722956131494311 0.06791665825113018
1660000000.0 -0.056230157339459214 0.14362118076173244
1680000000.0 0.10885814663919693 -0.03500810832813796
1700000000.0 -0.039060830441267506 -0.09627984185892834
1720000000.0 0.07186340409459958 -0.031350487688008105
1740000000.0 0.08005080251871367 0.005991991307760756
1760000000.0 0.0034259835176487304 -0.09007325192219472
1780000000.0 0.108947149102241 -0.04347332622065525
1800000000.0 0.12667963213452102 -0.058795252749635776
1820000000.0 -0.16739082452576778 0.005991665495135848
1840000000.0 0.1960827255406857 -0.003898832661968685
1860000000.0 -0.22022072020797331 -7.603392707711826e-05
1880000000.0 -0.10323489316095072 0.23342666186680716
1900000000.0 0.008236424644248343 0.2738678130532995
1920000000.0 0.1769497716604557 -0.2338213365417769
1940000000.0 -0.30382008212996703 -0.004441117172552066
1960000000.0 0.3073877829675512 0.01578560573644908
1980000000.0 -0.31397476999745827 -0.019739963151854622
2000000000.0 0.06084711349798906 -0.31379300350722705
2020000000.0 0.3139474975032095 -0.06799710886332706
2040000000.0 0.32178952330451993 0.024312673267180753
2060000000.0 0.295874445615828 0.11485926062117201
2080000000.0 0.027310787474493538 0.3161739416957746
2100000000.0 0.14088559277532456 -0.2826553869570994
2120000000.0 0.22136196574748443 0.20929688211161163
2140000000.0 0.10622721679711057 -0.27977205767871016
2160000000.0 -0.29275288795669174 0.04348587004646592
2180000000.0 -0.10990210344620562 0.26539288907369013
2200000000.0 -0.12333193081461481 0.25391933273169764
2220000000.0 -0.22520650083260377 0.16904054106639543
2240000000.0 -0.20382291755710027 -0.1851390946570355
2260000000.0 0.12090249557662056 -0.2404311743056975
2280000000.0 0.2691509072709618 -0.03332188044673111
2300000000.0 0.24638883650903837 0.08437321883015562
2320000000.0 -0.25107265845997295 0.04472952748730795
2340000000.0 -0.07501074266689832 -0.24589340282600916
2360000000.0 0.1881932393535463 -0.17392919788984573
2380000000.0 0.093418532153388 0.24293912763981088
2400000000.0 0.16041727514686424 0.230687967568294
2420000000.0 0.1244366689633032 -0.27229400534365056
2440000000.0 -0.24954309748518666 0.19320335971282943
2460000000.0 0.23974263902041829 0.24067321310761355
2480000000.0 0.20645098975633644 -0.31046180723736494
2500000000.0 -0.027332107727414966 0.4043019427297117
2520000000.0 -0.33457319678983466 -0.2917960150480267
2540000000.0 0.4731570946626321 -0.05509640727154722
2560000000.0 -0.33283101048017866 0.38540203677856105
2580000000.0 0.23129043604910432 -0.48765804315148714
2600000000.0 0.008850861111360214 0.5666601197490246
2620000000.0 -0.17803274691362808 -0.5622297376592454
2640000000.0 0.2845395342610349 0.5365026103457781
2660000000.0 -0.5812325580229936 -0.22863675829252078
2680000000.0 0.3716857910010043 -0.5141049013115733
2700000000.0 0.5943994851886623 0.24429025675258217
2720000000.0 0.24519793262639478 0.5988622429243766
2740000000.0 0.06244552038328021 0.6453687311234951
2760000000.0 0.01882779090239161 0.6465097764215385
2780000000.0 -0.6081096958977471 -0.19622371017843324
2800000000.0 -0.36078694787758125 -0.5143797905692681
2820000000.0 0.20851810659224113 -0.5792383110362276
2840000000.0 0.4313482775720506 0.41880803050025484
2860000000.0 -0.4890488210488959 -0.32363315929093656
2880000000.0 0.27286216876537517 0.4997469824044324
2900000000.0 0.3939859259047011 -0.3826171477574354
2920000000.0 -0.05357463814500702 -0.5242001617482533
2940000000.0 -0.34629902326465034 -0.36697054275864305
2960000000.0 -0.2804806397713259 -0.3903797632911953
2980000000.0 -0.30095165030991505 -0.3451492557092949
3000000000.0 -0.2906126121957302 -0.32954474245192145
3020000000.0 -0.4222855763351668 0.015272633743725708
3040000000.0 -0.023452744786443876 0.400023975028578
3060000000.0 0.36962595375965757 -0.08980592633067497
3080000000.0 -0.32490153748542555 -0.16888683376791952
3100000000.0 0.2529379998219266 0.2425233485585092
3120000000.0 0.33334378988233776 -0.0875582597610628
3140000000.0 -0.2369710816565799 0.24335289427461382
3160000000.0 0.08748117562881906 -0.3251188781475955
3180000000.0 0.027409148230777666 0.3326374708911686
3200000000.0 0.30938312027485665 -0.11209302564205026
3220000000.0 -0.191562414911237 -0.2618430615517541
3240000000.0 -0.31246170845917004 -0.05037982139450244
3260000000.0 -0.28381114221346343 0.11296960260105464
3280000000.0 -0.2944148137044265 0.01956021392561264
3300000000.0 -0.2777000321011737 -0.005133003212673477
3320000000.0 -0.16035734997496764 -0.19739277599053623
3340000000.0 0.2195804746853157 0.06850532176765248
3360000000.0 -0.19700198624779966 0.0643241661587661
3380000000.0 0.12660170647209684 -0.14109465460588225
3400000000.0 0.08988298360818679 0.14054131350481983
3420000000.0 0.0724766088257831 0.12327179883752433
3440000000.0 -0.11717688269297924 0.04472837137021531
3460000000.0 -0.0932251599974621 0.05129609210147403
3480000000.0 0.08733146190286369 -0.0015653285118086703
3500000000.0 -0.07897074432819935 0.01303457512839269
3520000000.0 -0.02921506452321986 -0.07215489647653182
3540000000.0 0.051921987107473325 -0.05584025821090508
3560000000.0 0.06600449437254162 -0.05725207414573839
3580000000.0 -0.08241196511975972 0.04385940916461544
3600000000.0 -0.04233049528904467 0.08895837487895869
3620000000.0 0.03441243501932998 -0.10549513774038576
3640000000.0 0.12323765412424055 0.023100618294300896
3660000000.0 -0.05025720136271196 0.12639068185003802
3680000000.0 0.013157282348517792 0.1411371222904097
3700000000.0 -0.1221280541012421 -0.05473886977552503
3720000000.0 0.11733750857948144 0.019194557848018438
3740000000.0 0.04229501206451667 -0.0915883814804368
3760000000.0 0.03204639715582566 -0.07836412817446725
3780000000.0 -0.05781987693645435 -0.026079409499276028
3800000000.0 0.03227220748548312 0.010644772822142058
3820000000.0 0.0021615410892966984 0.0009121877354506269
3840000000.0 -0.036566052634019186 0.004976810223102108
3860000000.0 0.001457062166063279 -0.06585316258878435
3880000000.0 0.08968318208532496 -0.01972685535967377
3900000000.0 -0.05118181514135279 -0.1007504201249713
3920000000.0 -0.12690232266107268 0.014941465907496758
3940000000.0 -0.11987297616928824 0.06246908912076358
3960000000.0 -0.13385309775179544 0.03670992364389268
3980000000.0 0.13074000513028258 0.02797687372061932
4000000000.0 0.07499586406323484 -0.08321719009219533
