!Created with skrf (http://scikit-rf.org).
# Hz S RI R 50.0 
!freq ReS11 ImS11
400000000.0 0.7669932073069362 0.4074297824362993
420000000.0 0.48120044552392843 0.6658779425239795
440000000.0 0.3440542391631561 0.6788078450617995
460000000.0 -0.4666709586873289 -0.5091581292467575
480000000.0 -0.509339098614211 0.39916618150137934
500000000.0 -0.6387797297319677 0.08600972747442602
520000000.0 -0.44906530961924257 0.479396873923015
540000000.0 0.5478694008561837 -0.381380198765396
560000000.0 -0.027122228833909173 0.6553912974977238
580000000.0 0.3282882662734497 -0.4186708529107346
600000000.0 -0.4780011472527827 0.3308887026522419
620000000.0 -0.1943020915192603 -0.5937876984408443
640000000.0 -0.24777755337538238 0.5109466850972731
660000000.0 0.2521327759315825 0.45086193365254085
680000000.0 -0.40783087204495866 -0.23449024005498317
700000000.0 0.23228345194607466 0.4092759337642539
720000000.0 0.16402443104818415 0.453871154569763
740000000.0 0.35410159636038635 0.3087999251596868
760000000.0 0.03327395636141313 0.44615681014485487
780000000.0 -0.382254386315321 -0.2192579854166126
800000000.0 -0.3990928357646939 0.030170677628465436
820000000.0 0.2812399305480295 -0.20679499856379352
840000000.0 -0.15668100052661807 0.2777405242814616
860000000.0 0.24452254090882605 0.16794763808500898
880000000.0 0.0733302440022994 0.2712284887493237
900000000.0 -0.09544444320587997 0.2596886841392605
920000000.0 -0.22811634799567268 -0.11683320260842052
940000000.0 0.18334273011150276 -0.12781816210068378
960000000.0 0.17873328115074263 -0.009687062084004374
980000000.0 0.12423696648036116 0.044993487008591064
1000000000.0 -0.10810239605160094 0.05903917143100087
1020000000.0 -0.08350948497640986 0.057320087882946236
1040000000.0 -0.07140080496649553 -0.08727748311991325
1060000000.0 0.08110039576908208 -0.12139809554570725
1080000000.0 0.04722639774006402 -0.19090451994433666
1100000000.0 0.22382030524954025 -0.06577152522679307
1120000000.0 0.2216406182917818 -0.16332693917315785
1140000000.0 0.07967679361571033 0.2791728944198718
1160000000.0 -0.22489656785264725 -0.21167006709110525
1180000000.0 0.08047686244280321 -0.33293368495487047
1200000000.0 -0.27518303001351874 -0.2184023389058295
1220000000.0 0.3548117142815863 -0.0772403733116255
1240000000.0 0.22212960381795738 0.302459989548086
1260000000.0 0.3867030528636907 -0.07512238104153153
1280000000.0 -0.358802764890409 -0.13289597861462327
1300000000.0 -0.21095659412613024 -0.31416412839081026
1320000000.0 0.05855461376055913 -0.3724158456146222
1340000000.0 -0.36069715731665425 -0.08318197642517823
1360000000.0 0.3594946267060094 0.14785107087521684
1380000000.0 -0.013179971052016752 0.39942921606179216
1400000000.0 -0.02592012834926822 -0.3946093754023077
1420000000.0 -0.3178424660296294 -0.23606039991031696
1440000000.0 -0.33737003865407983 -0.20523869463931116
1460000000.0 -0.36838873742072165 0.13762209476121642
1480000000.0 -0.36829531500949747 -0.1423199803025535
1500000000.0 0.0890203052481259 0.39022149199568223
1520000000.0 -0.3892812170454916 0.03216220376488485
1540000000.0 0.35019053588618304 -0.07783685249044468
1560000000.0 -0.2973057220435542 0.14290656538694088
1580000000.0 0.03243597850302903 -0.29423343137733277
1600000000.0 0.12099234317531393 -0.23218504296643055
1620000000.0 0.07090871443524291 -0.2058923968485839
1640000000.0 -0.08776615867605533 0.1629453391719484
1660000000.0 -0.022973964723783425 0.1512923683579062
1680000000.0 0.08790736684323605 -0.07137523230812352
1700000000.0 -0.10638409528634658 -0.007167987756031641
1720000000.0 0.05645591101027548 0.053379589360251244
1740000000.0 0.026590121637392588 -0.06731895731629885
1760000000.0 -0.020118267888293715 -0.08157552897350322
1780000000.0 0.09427845123075956 0.06670603702860943
1800000000.0 0.06334889052177584 0.1236670825556835
1820000000.0 -0.15398018964174423 -0.07736844627765889
1840000000.0 0.14036586702170276 -0.14177304929771015
1860000000.0 -0.17501656287197775 0.1396812571782881
1880000000.0 0.01855758815164606 0.2567693760738399
1900000000.0 0.21659518578415465 0.16965670634691934
1920000000.0 0.24524234202879577 -0.16715618007179253
1940000000.0 -0.2998951245299473 0.061902213879661036
1960000000.0 0.275713125130922 -0.1411301244512719
1980000000.0 -0.3100545318868377 -0.03351705310281978
2000000000.0 0.0971980340490589 -0.30359416618509105
2020000000.0 0.31719121090372354 -0.0548695102365857
2040000000.0 0.3170553323052916 0.044143439995565095
2060000000.0 0.27101809633673163 0.1685250658113263
2080000000.0 0.24292664612791012 0.20206740233285397
2100000000.0 -0.13919779596229875 -0.27854923050435215
2120000000.0 0.289412186053499 0.0952250238425384
2140000000.0 -0.19955189773993726 -0.22316852061029596
2160000000.0 -0.08764497326288134 0.2835289731621552
2180000000.0 0.1088658899822601 0.2670413998398911
2200000000.0 -0.062180131527292265 0.2780403547551046
2220000000.0 -0.18628003283084138 0.21236307466185314
2240000000.0 -0.22548484522552412 -0.1600410163184124
2260000000.0 0.25116072895730784 -0.10693314016175187
2280000000.0 0.2716308323786127 0.023230696451365638
2300000000.0 0.2044525851092253 0.16268849398678897
2320000000.0 -0.24231703722026493 -0.08045832345826755
2340000000.0 -0.17611583387378787 -0.1840726470919445
2360000000.0 0.18563244376323515 -0.1695757029791559
2380000000.0 0.06291872142241704 0.24735530379750395
2400000000.0 0.1782784878200537 0.21224700435086596
2420000000.0 0.009100556966726374 -0.29384270033195004
2440000000.0 -0.17917256128308215 0.2555186973167945
2460000000.0 0.32956408437726364 -0.07076988139260187
2480000000.0 0.1316490491806547 -0.34629018691227575
2500000000.0 0.24430818693976444 0.3266107242737547
2520000000.0 -0.4031479389337981 -0.18954540310114562
2540000000.0 0.4403552220500508 -0.1932128400345457
2560000000.0 -0.2428116029663997 0.4506381440091394
2580000000.0 0.1940602190680323 -0.5054067276980937
2600000000.0 0.029330315782106972 0.565458640115671
2620000000.0 -0.07773960027888135 -0.5821994738535832
2640000000.0 0.20304064848171574 0.5694436964920415
2660000000.0 -0.5656509053566235 -0.2556124997613828
2680000000.0 0.35763861345826875 -0.5188703228576923
2700000000.0 0.6232072678245661 0.14241616331704546
2720000000.0 0.45175295136499005 0.460536972176911
2740000000.0 0.4562450706267716 0.4585132650177409
2760000000.0 0.360779583313506 0.536558096710029
2780000000.0 -0.6389941465068857 -0.009017436354441931
2800000000.0 -0.5282204839602693 -0.34365366626307203
2820000000.0 0.08380184856088523 -0.6135545451809276
2840000000.0 0.4932583992315561 0.34898908741705814
2860000000.0 -0.5048488220016724 -0.30279608011893167
2880000000.0 0.2496540075107481 0.5137650625429371
2900000000.0 0.4306066268760572 -0.3433615769509382
2920000000.0 -0.1479333705625603 -0.5058864161085587
2940000000.0 -0.43252689120003557 -0.25328859676201365
2960000000.0 -0.35224508195641774 -0.3196345565239702
2980000000.0 -0.3185147209266234 -0.323411724204234
3000000000.0 -0.385647557215567 -0.19816949516612362
3020000000.0 -0.3688127533203692 0.19456103051333185
3040000000.0 0.16792366872504672 0.35992989218318167
3060000000.0 0.3577662077966097 -0.12031790688515907
3080000000.0 -0.3629732088443465 -0.04954503236203156
3100000000.0 0.34890669468520125 0.05451995449682399
3120000000.0 0.18167408199371135 -0.2963831522436498
3140000000.0 -0.027087966148464846 0.34026073932842715
3160000000.0 0.06057818881154546 -0.33480050300880015
3180000000.0 -0.06459114740821743 0.3302803467533703
3200000000.0 0.3295214827661814 -0.03316454322967421
3220000000.0 -0.10760339113735275 -0.30892141252817057
3240000000.0 -0.30921224017441795 -0.08102284833162691
3260000000.0 -0.2588317523245136 0.15859222891850824
3280000000.0 -0.28975706484884783 0.044426559106366746
3300000000.0 -0.2748873243454555 0.008788262356855958
3320000000.0 -0.22781609185285806 -0.10326454848552212
3340000000.0 0.20028786311518487 -0.10295868029794743
3360000000.0 -0.18526564499454196 0.08197802912373335
3380000000.0 0.06284670608863208 -0.17414418349831487
3400000000.0 0.13235943957485574 -0.09813776103271546
3420000000.0 0.13056136705287616 -0.05541800003683193
3440000000.0 0.06079654422461999 0.10835100591798981
3460000000.0 0.10350865576538022 0.017072023413748496
3480000000.0 0.07185026982865238 0.053064397797767386
3500000000.0 -0.08251934032637172 0.007957400006275367
3520000000.0 -0.034565167479266114 -0.07263868705988558
3540000000.0 0.0333383643952637 0.07447134520847484
3560000000.0 0.028963298015464402 0.08563871518005037
3580000000.0 -0.08826008680538512 -0.03395899987191821
3600000000.0 -0.09439020772922425 -0.03040673789125857
3620000000.0 -0.01632013092081438 0.10873030897018054
3640000000.0 0.05981674946750503 0.10975016076072182
3660000000.0 0.07271431449484568 0.11255647555972469
3680000000.0 0.1229015760804614 0.06210744910184596
3700000000.0 -0.12066105013546385 0.044883116013785335
3720000000.0 -0.028366673400529327 -0.11395511364936148
3740000000.0 -0.0325846117364084 0.09345679748340763
3760000000.0 0.013696083806112126 0.08077993182390214
3780000000.0 0.06230061912615365 0.010547276999742278
3800000000.0 0.023698234820065292 0.026167788035856735
3820000000.0 -0.001181957951059421 -0.0004496675607609103
3840000000.0 0.03375845510615865 0.004317272052075282
3860000000.0 -0.062472514635990135 0.0008454467104541636
3880000000.0 -0.08923860420930776 0.010486849983578886
3900000000.0 -0.004105661016115061 0.10854846192687227
3920000000.0 0.11149113500321817 0.05223482763618951
3940000000.0 0.08338726571024897 0.10275119012070277
3960000000.0 0.09071455440893506 0.10323465083401459
3980000000.0 -0.062378413405641625 -0.11688294468360699
4000000000.0 -0.10813279146155322 -0.03911644901811701
