!Created with skrf (http://scikit-rf.org).
# Hz S RI R 50.0 
!freq ReS11 ImS11
400000000.0 0.8280075101535599 -0.2922119595779314
420000000.0 0.7619931461513252 -0.33214940343835236
440000000.0 0.3577806828895619 -0.6831616631245468
460000000.0 0.09574019635894665 0.6890870276552244
480000000.0 0.45234691759297363 -0.38215627606252883
500000000.0 0.5521538883744769 0.29874751573239383
520000000.0 0.15701735281274182 -0.6209505847346941
540000000.0 0.16047036937464812 -0.5802606237267013
560000000.0 0.615473260741582 0.0551695963404108
580000000.0 0.22729528660665266 0.47369041834571113
600000000.0 -0.18296082218108423 0.5754653751610992
620000000.0 -0.5276344086503265 -0.3008345430581998
640000000.0 -0.4973111506630733 -0.2601399569566599
660000000.0 0.07404873477110269 0.5076602994480099
680000000.0 0.47678701261839124 0.01271764846249237
700000000.0 0.27493316736887596 0.4175180370412468
720000000.0 0.49211230219538843 0.08929927795029181
740000000.0 0.47295979358174955 0.08234216188714741
760000000.0 0.051349302226775695 0.44702122587539483
780000000.0 -0.3734413338144176 -0.24404001887817242
800000000.0 0.3294636337033403 -0.23844152211228162
820000000.0 0.3340796654357548 0.15476554160322575
840000000.0 -0.3200597385371977 0.0788906208051662
860000000.0 0.27138400681384217 -0.1548971573847537
880000000.0 0.27141658086117815 0.07770479045496381
900000000.0 0.2496201456382149 0.11280136034598595
920000000.0 0.215705374557727 -0.13284945034880927
940000000.0 0.1711351271959419 -0.14542509444749324
960000000.0 0.12676073125002474 -0.1108899216472777
980000000.0 -0.06176343951444897 0.12158349813134667
1000000000.0 -0.06454040806621396 -0.11541199073102572
1020000000.0 0.06569541200926503 0.09112932394298796
1040000000.0 -0.04385326429780154 0.12426780328207204
1060000000.0 0.03787169675238642 -0.15183768954246818
1080000000.0 -0.11259391631549111 0.1684925132164802
1100000000.0 -0.20301433894587748 -0.14362727586450466
1120000000.0 -0.22030498431143905 -0.1676649731863011
1140000000.0 -0.27940200479729244 0.13041000255095866
1160000000.0 0.26722304773918326 0.19751703091122097
1180000000.0 0.181721293938008 0.2851795400280391
1200000000.0 -0.3518061245806668 -0.01574805539075486
1220000000.0 0.307139871838274 -0.20461373083027587
1240000000.0 0.34325636118553904 -0.1627232188100585
1260000000.0 -0.05176631793655288 -0.39142245873491716
1280000000.0 -0.32117296154159697 0.19753552945626526
1300000000.0 0.13364350129765426 -0.3402576557564854
1320000000.0 0.29508894442263617 -0.2365401904328843
1340000000.0 -0.34886420417843333 0.11860380712650156
1360000000.0 0.2383804127817423 0.29914282591483227
1380000000.0 -0.13811707900460024 0.36928261888403313
1400000000.0 -0.016657550178458238 -0.38177093449577976
1420000000.0 0.312453981747752 -0.22420116551514152
1440000000.0 -0.11756954990745093 -0.3692376357304139
1460000000.0 -0.2945943868308208 -0.2487509659097395
1480000000.0 -0.05422102505498403 -0.38948021057679344
1500000000.0 -0.23090868362989372 0.3170605121045155
1520000000.0 0.08096722933689626 -0.3763922081687069
1540000000.0 -0.0021074992042937153 0.3607725937853997
1560000000.0 -0.270475094706537 -0.18964183293371925
1580000000.0 0.28684755563477926 0.06806854011392373
1600000000.0 0.26316334286486515 0.004057954803173147
1620000000.0 0.13826485782923134 0.16094653723095828
1640000000.0 0.030857348455577888 0.1842225731138903
1660000000.0 0.1478689033673226 -0.06070512886081702
1680000000.0 -0.10192122810377102 -0.06615602169613044
1700000000.0 0.11903665172599831 -0.006343995206421967
1720000000.0 -0.02686161482981 -0.08730062547274303
1740000000.0 0.07549124481041304 0.03736521019210148
1760000000.0 0.08037800539488527 0.044283641354613615
1780000000.0 -0.08330853962507641 0.06981699907403051
1800000000.0 0.0471058014714185 0.11889013026469157
1820000000.0 0.10459182965301572 0.1213300601051125
1840000000.0 0.025260295820513347 -0.18996744187103337
1860000000.0 0.08013792202759502 0.20291029991192397
1880000000.0 0.22316410495382885 0.11538683017804816
1900000000.0 0.27226781384913334 0.01075873633518414
1920000000.0 -0.016382557735587014 -0.2919966171105562
1940000000.0 -0.2998551569626454 0.05848043357485298
1960000000.0 0.24071733420964014 -0.19304927087608
1980000000.0 -0.3111308564861741 0.036420839006577485
2000000000.0 0.058961691380314485 -0.31425018561931384
2020000000.0 0.2617068280262326 -0.1891419492806044
2040000000.0 0.309026836770355 0.09566132653735716
2060000000.0 0.21658480794356927 0.23937077621312203
2080000000.0 0.07734189087904454 0.31749722151277576
2100000000.0 -0.05963815798051357 -0.31560810354259233
2120000000.0 0.15849115714011927 0.2780377509967766
2140000000.0 -0.26707955038043424 -0.17978244765483006
2160000000.0 0.24758498961491437 0.19780738196848316
2180000000.0 0.29509378045668605 -0.09032790137123248
2200000000.0 0.2515713540516737 -0.1740009471509151
2220000000.0 0.004660613311282427 -0.29889171534533227
2240000000.0 0.2723702625243429 -0.09447803560594016
2260000000.0 0.009677165013568677 0.2761737471314972
2280000000.0 -0.1334530198841636 0.23224061032230106
2300000000.0 0.04697432915564484 -0.24582275867015357
2320000000.0 -0.14538875164808363 0.19864468528031978
2340000000.0 -0.020899822712139617 -0.24330256345655454
2360000000.0 0.11391333321373781 0.21369529664297854
2380000000.0 -0.009979156513333521 -0.256616636967302
2400000000.0 -0.2807514558030087 0.036211706564227654
2420000000.0 0.2702732434659173 0.13675158756864608
2440000000.0 -0.20063539452709922 -0.25744846922399645
2460000000.0 0.04938495528450089 0.3521177667373119
2480000000.0 0.21999962253014854 -0.32402423784769696
2500000000.0 0.22361219001495194 0.36284684585872656
2520000000.0 -0.45370001803025406 0.09668184897758152
2540000000.0 0.18614599002956853 -0.4573003124160493
2560000000.0 0.05079264372111158 0.5223639666258744
2580000000.0 -0.22113863158591177 -0.5062889957093429
2600000000.0 0.2886394822408463 0.4983102935245523
2620000000.0 -0.34024665048875 -0.48877823686482136
2640000000.0 0.4544954338957731 0.4084285316845294
2660000000.0 -0.6235246204978115 0.04877065131319744
2680000000.0 0.15389443128590644 -0.6149259451083944
2700000000.0 0.6121091978456703 -0.19419934254904556
2720000000.0 0.6289017147984972 0.15502088802820413
2740000000.0 0.552560640132273 0.34021322697790946
2760000000.0 0.5122924899761301 0.3987933178075831
2780000000.0 -0.5516666046146531 0.3313628408503173
2800000000.0 -0.6242038883216513 0.112886688919231
2820000000.0 -0.3887576797378899 -0.4869762700213167
2840000000.0 0.573664554307779 -0.2065889118567323
2860000000.0 -0.4217963363181872 0.418403909297851
2880000000.0 0.5523218512971859 -0.15262031257002773
2900000000.0 -0.2176096039859208 -0.5075821434745462
2920000000.0 -0.5208240207347985 0.0909799818701926
2940000000.0 -0.26680342578837085 0.4216167829216349
2960000000.0 -0.2940284004988844 0.36952727352429166
2980000000.0 -0.34926950528752027 0.27983559171529293
3000000000.0 -0.1839871844073163 0.386178217365579
3020000000.0 0.11080184441603567 0.38908234166529765
3040000000.0 0.24137402284493628 0.2973356401365576
3060000000.0 0.35323472368517106 -0.10523548619441526
3080000000.0 -0.33482943663986076 -0.12612786740674395
3100000000.0 0.2621767717382962 0.22876546288041186
3120000000.0 0.23978432257595703 -0.2454683938449887
3140000000.0 -0.33246619181893666 0.07771616070967538
3160000000.0 0.3428751905910004 0.002734844797794386
3180000000.0 -0.3307998696046498 0.09131694676137171
3200000000.0 0.06135178116757482 0.3366979267163862
3220000000.0 0.25105538828922835 -0.2280240824745411
3240000000.0 -0.016138855265944364 -0.3343950242518861
3260000000.0 -0.20977567542360132 -0.25259216045718497
3280000000.0 -0.31659934320425753 0.017068557230244367
3300000000.0 -0.16997873930737736 0.2467191658852823
3320000000.0 -0.03605628129892653 0.2705889100294873
3340000000.0 -0.23010892206284803 0.09707382232330286
3360000000.0 -0.18971127458424603 0.11547945950833402
3380000000.0 -0.037102238523227284 -0.19068097540500753
3400000000.0 0.008272151838111847 -0.1693374218598778
3420000000.0 0.0045765448070016704 -0.14273408589197437
3440000000.0 0.044319215813358605 -0.11159907747599201
3460000000.0 0.0945507682940556 0.00845386317573293
3480000000.0 -0.0780861587991884 -0.01048881863239609
3500000000.0 0.00956003449585774 -0.07197201912278334
3520000000.0 -0.001999279616230356 -0.07130865716439991
3540000000.0 -0.019720535312029733 0.07546829834524779
3560000000.0 -0.06556450439039786 0.0510418225678455
3580000000.0 0.012674573953591926 0.09437416422975779
3600000000.0 0.014567712585302622 -0.10156239564910136
3620000000.0 0.10697827775964654 0.05328063032706213
3640000000.0 -0.03793126925325108 -0.12782927985009793
3660000000.0 -0.12064665364926985 -0.08234472071076462
3680000000.0 0.13034405066012011 0.07587686197500743
3700000000.0 0.060145232320988264 0.13137574829090112
3720000000.0 0.11974342458059549 -0.05151105519709161
3740000000.0 0.10200540722417023 -0.01683018279112458
3760000000.0 0.022617748465472494 -0.07649666344890549
3780000000.0 0.03454503869149055 0.049012066202914824
3800000000.0 0.013109318239098668 -0.024413067440629647
3820000000.0 0.00902995253517263 0.0061758323712545506
3840000000.0 0.016353715117539244 0.044796032465402175
3860000000.0 0.007773190605088672 0.07734462145627706
3880000000.0 -0.06941047011665603 -0.08156675348159788
3900000000.0 0.11779211145699309 -0.05329081095598641
3920000000.0 -0.11778049796715225 -0.08106734153152909
3940000000.0 -0.03098976861244261 0.14961242026590188
3960000000.0 0.13707607099208016 -0.08145569991874481
3980000000.0 0.14722853500847183 -0.020451604126218152
4000000000.0 -0.09903770263159159 -0.07672505345620115
