!Created with skrf (http://scikit-rf.org).
# Hz S RI R 50.0 
!freq ReS11 ImS11
400000000.0 0.8551895629889136 -0.19867012876908927
420000000.0 0.7718355231018785 -0.30842425652695227
440000000.0 0.43107309786033055 -0.6408315541541735
460000000.0 0.17518324661098927 0.6731496934441085
480000000.0 0.2437974044988977 -0.5377980804022242
500000000.0 0.4496464329390847 0.4377985463540938
520000000.0 0.3461590697669956 -0.5384057835429696
540000000.0 0.27133476014590246 -0.5413958053953773
560000000.0 0.6206252740818051 -0.039166239451404135
580000000.0 0.4630391859098761 0.2369775838739346
600000000.0 -0.29003612732605316 0.5208461704213411
620000000.0 -0.3581065623625872 -0.48915649972452013
640000000.0 -0.4012111943521105 -0.3915833094772717
660000000.0 -0.24478756374624547 0.4566871718899073
680000000.0 0.3184367056248975 -0.3612345505189695
700000000.0 0.45713515428348184 0.18067290056289717
720000000.0 0.4738334051705387 0.15781731138561542
740000000.0 0.29580560612911055 0.36945557562361153
760000000.0 -0.18948960867413095 0.41724478387468683
780000000.0 -0.4498866737431904 0.043407045837552186
800000000.0 -0.08756080129866876 -0.3941057108148823
820000000.0 0.2520474049694884 0.2554727108885765
840000000.0 -0.3054674533128592 -0.13780964114035238
860000000.0 0.08574977247048383 -0.30057114941462737
880000000.0 0.178789003874094 0.21198352270880713
900000000.0 0.05223167047939123 0.26985671081082674
920000000.0 0.04528783378650864 -0.25668528742016383
940000000.0 -0.10084227406710221 -0.19654243778270397
960000000.0 0.05548382044833422 -0.1550729860379167
980000000.0 -0.12677486291750165 0.04537460599846363
1000000000.0 0.1345824116470279 -0.023818802945964817
1020000000.0 0.07413454429429214 0.08547374028873071
1040000000.0 -0.0372377352165735 0.12505066385198535
1060000000.0 -0.054063471635105075 -0.14731123201993437
1080000000.0 -0.19959758542884118 0.022119518272503375
1100000000.0 -0.18584999609349917 -0.1656976737134863
1120000000.0 -0.2168223759650377 -0.17783259706675825
1140000000.0 -0.21302803401259726 0.2230908967677096
1160000000.0 0.27698439530387914 0.18220826450316702
1180000000.0 -0.08084896110586248 0.32902544978922693
1200000000.0 -0.3440574600778756 -0.09664086940881218
1220000000.0 0.16409964151614692 -0.3297570564256409
1240000000.0 0.3423483156432729 -0.1576140166040377
1260000000.0 0.048522321041110796 -0.3901188430914767
1280000000.0 -0.3514434204755447 0.14560876757580707
1300000000.0 0.011649016988440552 -0.36641091622739325
1320000000.0 0.27934030582062724 -0.25334265638628284
1340000000.0 -0.35434214561610483 0.09563719142753441
1360000000.0 0.16536752866190157 0.34623959202695703
1380000000.0 -0.16825956005804546 0.3559541242470803
1400000000.0 -0.0013066183148781804 -0.38286282576579606
1420000000.0 0.32999563619524885 -0.19298962722197047
1440000000.0 -0.07266651587039659 -0.38158686534615693
1460000000.0 -0.2570255876722808 -0.28916396123984284
1480000000.0 0.026283547680086578 -0.3923412521165099
1500000000.0 -0.33964969924474636 0.19548925274450676
1520000000.0 0.14878845773406557 -0.3563020699364059
1540000000.0 0.006787969632921454 0.36031883751101956
1560000000.0 -0.19186589359430195 -0.2670938558764824
1580000000.0 0.29214829723191094 0.04311076395636503
1600000000.0 0.26238169716597004 -0.009167489335371995
1620000000.0 0.1730562950609814 0.1220570580235856
1640000000.0 -0.05426420314760658 0.17875413054412284
1660000000.0 0.12851274629664158 -0.0969881058042475
1680000000.0 -0.07075850340145237 -0.10006620067060441
1700000000.0 0.11404177353039158 -0.02433120939115537
1720000000.0 0.08601557269134368 -0.034774219601663416
1740000000.0 0.0777301335657643 -0.031928927502065926
1760000000.0 0.0856837453851443 0.033039781343779176
1780000000.0 -0.10468624312452192 -0.030403734015120105
1800000000.0 0.01178230202441148 0.12894353029962238
1820000000.0 0.11659640845569477 0.10879352458481686
1840000000.0 0.06067130721268462 -0.18297572234284776
1860000000.0 -0.015643469510302363 0.2167431510291516
1880000000.0 0.22136385998086078 0.12102057247544498
1900000000.0 0.26581912907968386 -0.05541036318810504
1920000000.0 0.10743361671725535 -0.2713220741321341
1940000000.0 -0.2939578651107039 0.08576919028190252
1960000000.0 0.17422232211917266 -0.2549690944851588
1980000000.0 -0.31165893568107383 0.00972611756715881
2000000000.0 0.10354885276885491 -0.3037674525270369
2020000000.0 0.25268200655321504 -0.2042883259711547
2040000000.0 0.32167997469629817 -0.036414735469599564
2060000000.0 0.1850544496527947 0.2637388647042549
2080000000.0 -0.01514864673807535 0.32686513506566583
2100000000.0 -0.0762321312818034 -0.31460326502434266
2120000000.0 0.16325936809133643 0.27338934481996535
2140000000.0 -0.23873460958605822 -0.21468350902069597
2160000000.0 0.14568003924928677 0.2824873496923809
2180000000.0 0.2674325255357418 -0.15449781268012427
2200000000.0 0.23586244907405693 -0.193847178678774
2220000000.0 -0.017246774173931743 -0.29650792212201005
2240000000.0 0.28869038163943606 -0.01256207102418603
2260000000.0 0.12700336350670616 0.24498930812285435
2280000000.0 -0.1887189788354744 0.1921109270857547
2300000000.0 0.004199529905522495 -0.2494342682556912
2320000000.0 -0.1959583033530466 0.14939982950197797
2340000000.0 0.0232129440420029 -0.2436481023826558
2360000000.0 0.02832358308046442 0.24202742687205173
2380000000.0 -0.017657647478228514 -0.2557643567334166
2400000000.0 -0.28251683360521973 -0.0026209042930132437
2420000000.0 0.2758334940270348 0.12265436673544029
2440000000.0 -0.19692797675803364 -0.2596136181714134
2460000000.0 0.17265461700845472 0.31232395815792524
2480000000.0 0.21325446020639968 -0.32758608419296864
2500000000.0 0.31158482911558394 0.293447472379675
2520000000.0 -0.4444821703273156 0.13106786113251426
2540000000.0 0.20513382774925729 -0.4507268382780632
2560000000.0 0.02056702664025721 0.5252812283699314
2580000000.0 -0.23565539024508933 -0.500730696333886
2600000000.0 0.31018036243312114 0.48571103190094
2620000000.0 -0.3390623062062252 -0.48921687923827584
2640000000.0 0.43895864455804406 0.42517747090107655
2660000000.0 -0.6221590995093814 0.061206868129882366
2680000000.0 0.16571355148940034 -0.6119207508288026
2700000000.0 0.6377011084558397 -0.08439605419933341
2720000000.0 0.6071034829207624 0.2252581354640922
2740000000.0 0.5565319264881444 0.3336744173773281
2760000000.0 0.5093419977753982 0.4028346974493025
2780000000.0 -0.5035171133840439 0.40104720296270335
2800000000.0 -0.6129644535701049 0.16661184477521687
2820000000.0 -0.39764613415574795 -0.4801842561871307
2840000000.0 0.5776579768806126 -0.19360936638831847
2860000000.0 -0.4467910606652825 0.39101917312784545
2880000000.0 0.5524072035837163 -0.15524416888502074
2900000000.0 -0.258077884259678 -0.48784956720839096
2920000000.0 -0.527791017690744 -0.006006151468730154
2940000000.0 -0.36357619839137434 0.3403520463002009
2960000000.0 -0.3377861465479263 0.3308798597085201
2980000000.0 -0.25950899255045823 0.36442574212323775
3000000000.0 -0.2402797362263227 0.3497122966554628
3020000000.0 -0.014626853253364071 0.403379220942829
3040000000.0 0.2902976107823972 0.2504563756546042
3060000000.0 0.29804399803723775 -0.21806927002851587
3080000000.0 -0.3324037309367305 -0.13285888377466668
3100000000.0 0.23861233929733427 0.25401553024348855
3120000000.0 0.28184070968498776 -0.19825830517003884
3140000000.0 -0.33308838728998635 0.07937919387654302
3160000000.0 0.34238580275732317 0.02864833198516392
3180000000.0 -0.34273118396144364 -0.02630322777318019
3200000000.0 -0.0005510544107708588 0.342663007628091
3220000000.0 0.30536493382160157 -0.14588989682880862
3240000000.0 0.09289815024734195 -0.32035344327414317
3260000000.0 -0.15611367328045592 -0.28696128608944355
3280000000.0 -0.3095153310430328 -0.06358546673629556
3300000000.0 -0.23351798350056988 0.18601857074891232
3320000000.0 -0.019824635075713432 0.2699204340616122
3340000000.0 -0.240103573388331 0.05945445721255232
3360000000.0 -0.19820622854853068 0.0976948005980932
3380000000.0 -0.11943027952921016 -0.14956503314855496
3400000000.0 -0.10299630147560741 -0.1322569952836572
3420000000.0 -0.048713435001777806 -0.13180762298350668
3440000000.0 -0.03916741536565532 -0.11279428796983716
3460000000.0 0.08144873867098602 -0.04701261211344668
3480000000.0 -0.04766190593450575 0.06143070870698416
3500000000.0 -0.07216424596597323 -0.007142787612823005
3520000000.0 -0.04377442153447773 -0.055221817030740514
3540000000.0 0.06883860985844538 0.03840232147868252
3560000000.0 -0.06841786409259776 0.05126537748734962
3580000000.0 0.07696858315957825 0.05933169248816092
3600000000.0 -0.009401789180132639 -0.10319410516080331
3620000000.0 0.06961051658484359 0.09682304532594004
3640000000.0 0.10773173680560044 -0.08131410598712376
3660000000.0 -0.1163586891103008 -0.08866599930307652
3680000000.0 0.09582582763117753 0.11530652785486702
3700000000.0 -0.007878164441951174 0.14281060311484525
3720000000.0 0.12895520780006178 0.0009702121694494596
3740000000.0 0.05980926474002689 -0.08379673490273952
3760000000.0 -0.0036260627000253296 -0.07856678533449106
3780000000.0 0.046930583244481607 0.03631895156198594
3800000000.0 -0.027407143696511493 0.004720130543113779
3820000000.0 0.006972642521683847 -0.00889832122786935
3840000000.0 -0.04140223694110888 -0.025807203191592014
3860000000.0 -0.01151873914582515 0.07800868010478615
3880000000.0 -0.05690791381329369 -0.08723856667460336
3900000000.0 0.0741923747455483 0.10358631165649146
3920000000.0 -0.10955387108901679 -0.09264747041222417
3940000000.0 -0.015421082119096555 0.15215304034624436
3960000000.0 0.056619969321661724 -0.1470161743233905
3980000000.0 0.14382663575731286 -0.0339985459141852
4000000000.0 -0.11592109293554725 0.049648275433958416
