!Created with skrf (http://scikit-rf.org).
# Hz S RI R 50.0 
!freq ReS11 ImS11
400000000.0 0.8359595847789049 -0.26746714160265195
420000000.0 0.7555923557763544 -0.3471775102279749
440000000.0 0.4248183821224758 -0.6434109809317412
460000000.0 -0.03194897796518941 0.6944984038607116
480000000.0 0.3054885978628937 -0.5095619119904082
500000000.0 0.5506526227163688 0.30079702068027747
520000000.0 0.25911566488586335 -0.5863131009353628
540000000.0 0.12519019066409906 -0.5859928489052347
560000000.0 0.5908228441504142 0.19477956500550572
580000000.0 0.24716828973726043 0.4673476444069169
600000000.0 0.0028695248203501503 0.6028692615582387
620000000.0 -0.5347231607135582 -0.28235842326529786
640000000.0 -0.3743041924309334 -0.4117563342951383
660000000.0 -0.3852690813229364 0.3419590366890391
680000000.0 0.38716536412910046 -0.29515035053478844
700000000.0 0.49314366753826355 -0.020079677499567915
720000000.0 0.41409365638117596 0.2741447257289139
740000000.0 0.29604184568058756 0.37726952194644164
760000000.0 -0.07975728536771579 0.44807267697064346
780000000.0 -0.44601816521347804 -0.01852581688552468
800000000.0 0.30235467574708685 -0.2674665385049532
820000000.0 0.3321773718293697 0.15500343465509622
840000000.0 -0.31550508811601263 0.10357786027381073
860000000.0 0.14853740669917 -0.2724646126417275
880000000.0 0.24230022597778725 0.1377458159741543
900000000.0 -0.07138723467361305 0.26815639587772544
920000000.0 0.15750619454804413 -0.20689708132404386
940000000.0 -0.1460849232087468 -0.16659649069689725
960000000.0 0.0345976153342533 -0.16198889214190246
980000000.0 -0.12308302711793945 -0.05777201535732226
1000000000.0 0.09095811508913387 -0.10171189112811171
1020000000.0 0.054448943413078904 -0.10163688587545523
1040000000.0 0.12277933105591925 0.029786763439451205
1060000000.0 0.13171090671646632 -0.08446604667526296
1080000000.0 -0.1302482149983307 0.15274907903862578
1100000000.0 -0.2122634697695841 -0.13404188573978806
1120000000.0 -0.27365811072174506 -0.060727954587173824
1140000000.0 -0.22473767660976887 0.20807928766386777
1160000000.0 0.15631943378269111 0.29478681358219266
1180000000.0 0.08013787090333369 0.32875829059532463
1200000000.0 -0.3261797410600054 -0.14089008808968703
1220000000.0 0.11006656915680017 -0.35197626696384204
1240000000.0 0.36877771835495243 -0.07951308568238719
1260000000.0 0.09028491660332252 -0.38468696909332
1280000000.0 -0.31624794486223023 0.20877479776210828
1300000000.0 -0.019776041295672776 -0.3640907856889846
1320000000.0 0.3353000159472114 -0.16902098799293372
1340000000.0 -0.3653337564464973 0.052999703025137075
1360000000.0 0.2781094154378273 0.26463478805996443
1380000000.0 -0.17941474880432423 0.34990707926986175
1400000000.0 -0.03132470869692853 -0.3795901869689728
1420000000.0 0.3219768588649179 -0.20937901448044346
1440000000.0 -0.18490084102052598 -0.3411869747361912
1460000000.0 -0.2623321744528699 -0.2831162727546753
1480000000.0 0.013244517544762338 -0.3953006983650053
1500000000.0 -0.23411899120982632 0.3141569341936259
1520000000.0 0.1773869139122363 -0.34148845658648314
1540000000.0 -0.1162584434022157 0.34268420087385976
1560000000.0 -0.3107259037175226 -0.11305998327579098
1580000000.0 0.29361595521649 -0.020122830001443076
1600000000.0 0.23067010310755426 0.12017887542359473
1620000000.0 0.05896299167821259 0.20447336900429655
1640000000.0 0.09149231124044754 0.1647949234532606
1660000000.0 0.0009118345129058586 -0.15916072581722102
1680000000.0 -0.021988458506992402 -0.11941272885667804
1700000000.0 0.10165783600394127 0.05950954257456112
1720000000.0 0.0632191354367068 -0.07057885071484014
1740000000.0 -0.04533459118496124 -0.06902004275426275
1760000000.0 0.03878784027250638 0.08328991622084973
1780000000.0 -0.10872486809259607 -0.010262155649662172
1800000000.0 0.07517663647661842 0.10707562558709373
1820000000.0 0.14367516762351729 0.06840912979917192
1840000000.0 0.08369419860967113 -0.1722383872601566
1860000000.0 -0.07870299313198349 0.20412797616422504
1880000000.0 0.2405632380347497 0.08146442687920454
1900000000.0 0.25596522923192155 -0.08721351805643097
1920000000.0 0.12436667685304988 -0.26460219717849703
1940000000.0 -0.29899117793727203 -0.061535485008335236
1960000000.0 0.15843936048467488 -0.2673175323620878
1980000000.0 -0.2989605578775066 0.08704465306419999
2000000000.0 0.12710697684635777 -0.29253955732136017
2020000000.0 0.303607621586677 -0.11206014871166513
2040000000.0 0.32466526816937535 -0.017591189350972154
2060000000.0 0.26156274480793057 0.1884043397378296
2080000000.0 0.024423765514700123 0.325742204284107
2100000000.0 -0.04256671502089049 -0.3206339952419383
2120000000.0 0.23284226070306147 0.2191142273290247
2140000000.0 -0.20311916072783948 -0.24730837488469506
2160000000.0 0.016946826858797524 0.31800269709324674
2180000000.0 0.21378333343766873 -0.22435921040495602
2200000000.0 0.2308095554180233 -0.1975386509551854
2220000000.0 0.04658751261687756 -0.2935167693728546
2240000000.0 0.28821515813358123 0.026566208628578357
2260000000.0 0.0087180772333927 0.2767068431636656
2280000000.0 -0.10408404566341431 0.2466043816492926
2300000000.0 -0.0037370829879695812 -0.24869889740289813
2320000000.0 -0.20671568098847048 0.1336050061874656
2340000000.0 0.0021011756485145652 -0.24419354334460366
2360000000.0 0.06879830478817166 0.2349279603350914
2380000000.0 -0.13052995653322208 -0.21977545470175855
2400000000.0 -0.2662950926899231 -0.09265795278328305
2420000000.0 0.24620240476011143 0.17812183763708545
2440000000.0 -0.16966029002272828 -0.27952196512623284
2460000000.0 0.1389105437282245 0.3282616351337247
2480000000.0 0.25977299186357616 -0.2941505941467305
2500000000.0 0.25531559334032855 0.34150225060157985
2520000000.0 -0.4603091032934505 0.05311768593821678
2540000000.0 0.2522637380803433 -0.42589398748089347
2560000000.0 0.03254854172934594 0.5245803465920321
2580000000.0 -0.23589709623295105 -0.4998708054011407
2600000000.0 0.2586522409663529 0.5137315724965325
2620000000.0 -0.30438605284625514 -0.5120811186010334
2640000000.0 0.4421487163124801 0.42198890810653605
2660000000.0 -0.623366284297678 0.05158762473089117
2680000000.0 0.22139261650834768 -0.59414876228623
2700000000.0 0.6047853207017133 -0.21536789809810036
2720000000.0 0.6229589581470815 0.17777093288031795
2740000000.0 0.5361156707626668 0.3661829816336623
2760000000.0 0.5284972642599778 0.37704568866162186
2780000000.0 -0.5269668981324636 0.3697274942762676
2800000000.0 -0.6217979470239098 0.1276686136587261
2820000000.0 -0.38102634658027373 -0.49347048690771955
2840000000.0 0.5757963067240921 -0.19957203175483007
2860000000.0 -0.44621056900404404 0.3926967777559524
2880000000.0 0.5571300620072154 -0.13351725938651374
2900000000.0 -0.20723804553172712 -0.5120111694545368
2920000000.0 -0.527137080198951 0.03319022818234302
2940000000.0 -0.3182724850263633 0.38234174229184653
2960000000.0 -0.3689184332750688 0.29646325483594843
2980000000.0 -0.28385939762462803 0.34486666915497227
3000000000.0 -0.22806299558956458 0.3591550430596652
3020000000.0 0.11169406942168149 0.3868166349083586
3040000000.0 0.2793786507497773 0.26321454049378823
3060000000.0 0.24223943816338533 -0.27916583050506066
3080000000.0 -0.3385375618566874 -0.11315992855070328
3100000000.0 0.25654220104011544 0.23487711369087663
3120000000.0 0.2562672296315986 -0.230704202523441
3140000000.0 -0.3302514449408235 0.0900481568037304
3160000000.0 0.3432491137990185 -0.017682381005661833
3180000000.0 -0.3428674589775701 0.03363966350417079
3200000000.0 -0.002992669193763202 0.3430195167101024
3220000000.0 0.30308147440715677 -0.15200700752210705
3240000000.0 0.13843697563224416 -0.3046811216235826
3260000000.0 -0.15433997152453102 -0.28851397190790246
3280000000.0 -0.2948123087682974 -0.1130030604110799
3300000000.0 -0.23604814690695128 0.185348709465723
3320000000.0 -0.04692606023517414 0.2673950171443014
3340000000.0 -0.24566705348437665 0.032275686282996166
3360000000.0 -0.20082088021695793 0.09133804400674898
3380000000.0 -0.023774238362302188 -0.19037421858340647
3400000000.0 -0.0562240561641326 -0.1579822411463819
3420000000.0 -0.01579525838981706 -0.14043594817776783
3440000000.0 0.004782686541609491 -0.11886339480570353
3460000000.0 0.07977166641148804 -0.048419663428716564
3480000000.0 -0.061264080579488914 -0.04833176700576312
3500000000.0 -0.06855269085240552 0.027059896460990832
3520000000.0 -0.056263561849045136 -0.04024741955590076
3540000000.0 -0.040700510089712816 0.06616363464777485
3560000000.0 -0.08161877941814599 0.026847987868105237
3580000000.0 0.09522145268998437 -0.018230259875686022
3600000000.0 0.0537474586527968 -0.08713063983550716
3620000000.0 0.08677568400289243 0.08320612127120901
3640000000.0 0.03371686305201314 -0.12964862453267112
3660000000.0 -0.06334303995237948 -0.13270260826695798
3680000000.0 0.09475637307874633 0.11851932394231193
3700000000.0 0.05988456182123645 0.1313656871636168
3720000000.0 0.12738407300354604 -0.001312166021595539
3740000000.0 0.0968121574343943 -0.033668033953795584
3760000000.0 -0.017247204913626402 -0.07832601135873934
3780000000.0 0.0576742538465052 -0.014359536366079388
3800000000.0 -0.025901010896708467 -0.008168943603999234
3820000000.0 0.007333764882680355 -0.007455540012375855
3840000000.0 -0.02775609211424095 0.03776696394993557
3860000000.0 -0.04557870526645349 0.06443834594975593
3880000000.0 -0.03715994019413004 -0.10002794288478017
3900000000.0 0.10932976486002431 0.06624723609960073
3920000000.0 -0.09177412124626168 -0.11025014356246726
3940000000.0 -0.0023987062953527614 0.15319265255379313
3960000000.0 0.05555996687292164 -0.1475542750834573
3980000000.0 0.1443640332810245 0.029170877657668782
4000000000.0 -0.1265077388749844 0.0010232748844618915
