!Created with skrf (http://scikit-rf.org).
# Hz S RI R 50.0 
!freq ReS11 ImS11
400000000.0 0.7674175243183948 0.4083660269021274
420000000.0 0.09372623779500643 0.8124243163231687
440000000.0 0.021332257952704374 0.7600608497255809
460000000.0 -0.46456551482639347 -0.5207100243462981
480000000.0 0.08470066909263048 -0.6265334492785728
500000000.0 0.6331458085005139 -0.1440484505622222
520000000.0 -0.5561849341453281 0.3882095513349703
540000000.0 0.6885291552150334 -0.12315027023159769
560000000.0 0.6402169753907484 0.2641362499509532
580000000.0 0.06063004739020921 -0.5234448221289357
600000000.0 0.2755856647862775 -0.5192052228663949
620000000.0 0.34492783190317283 0.4848424971363833
640000000.0 -0.13001803313209756 0.5231816353534531
660000000.0 0.24586543544611897 0.4292084708484221
680000000.0 -0.2663784203659226 0.37783938465608513
700000000.0 -0.05896912512366513 0.43179576667645864
720000000.0 -0.26086462601164256 -0.39462207346363287
740000000.0 -0.35821107638026667 -0.29283206378416893
760000000.0 -0.23461029222303595 -0.37945209527653784
780000000.0 0.41610389278417576 -0.1323676931329763
800000000.0 0.37777001848200953 0.16973793704115608
820000000.0 -0.2626044549829392 0.2701044280362522
840000000.0 -0.16764446217329962 0.305768692585082
860000000.0 -0.28097944372219036 -0.15551415067191862
880000000.0 -0.2709366416979187 0.10280619400345059
900000000.0 -0.27503231287389224 0.05442567922705957
920000000.0 0.23612088244426688 -0.06917294074827103
940000000.0 0.02648075224806331 0.21347375532059842
960000000.0 0.15115292036873398 -0.06624230919379945
980000000.0 0.09238111955402578 -0.0851294016895225
1000000000.0 -0.11999742398955754 0.013452053578450422
1020000000.0 0.04629693166459513 -0.07453097318241736
1040000000.0 -0.07608022376144224 0.05333785328819106
1060000000.0 -0.08981572104841173 -0.08258491720719223
1080000000.0 -0.1004023221865638 0.1344644023867504
1100000000.0 0.042930436022963155 -0.21566009803319902
1120000000.0 0.1224484623905921 -0.23923964649003907
1140000000.0 0.23079346305899662 0.1965150329616358
1160000000.0 0.13557451886432925 -0.301356053872102
1180000000.0 -0.050011949058071034 -0.3551644033524459
1200000000.0 -0.2126046139736252 0.3075144285691661
1220000000.0 -0.3150859705174755 -0.18727191823926667
1240000000.0 0.19460643003415085 -0.321345005148509
1260000000.0 0.025813881112005065 -0.3858038740201137
1280000000.0 -0.3636202302057396 0.09424496927431131
1300000000.0 -0.2184956595388218 -0.3091965216808549
1320000000.0 -0.08208907871832537 -0.35985054094840174
1340000000.0 -0.3387017521129267 -0.12664027838454997
1360000000.0 0.15112812112408272 0.350130162706087
1380000000.0 -0.3944823954948128 -0.016518911825454296
1400000000.0 0.3499901976573812 -0.18871047248933853
1420000000.0 0.12532098492304333 -0.37512934189597363
1440000000.0 0.007508916848580862 -0.3997957815668601
1460000000.0 -0.3839680376959537 -0.1129641986441545
1480000000.0 -0.40474724693241093 0.04852707276696739
1500000000.0 0.3904381645402135 0.11629475057277446
1520000000.0 -0.06507459663873945 0.3843562339236348
1540000000.0 -0.07918907623656307 -0.34678568623386274
1560000000.0 -0.23744900673976344 0.2129796237596169
1580000000.0 0.2510896132798487 -0.13975851095589176
1600000000.0 0.25152976959298584 -0.04722629799307545
1620000000.0 0.061332687289434584 0.21131496502451058
1640000000.0 -0.16790002435724738 -0.08621469124143279
1660000000.0 0.01998578733449275 0.15528555997138418
1680000000.0 0.07059183378760449 -0.09432160351952901
1700000000.0 0.039720782481067314 0.10054081648304214
1720000000.0 -0.04267562386311011 0.06148696789730096
1740000000.0 -0.058240499188503075 -0.03695784480396089
1760000000.0 -0.06074811119181114 0.06001814913887261
1780000000.0 -0.1157240386997517 0.018104919878466547
1800000000.0 0.11467682823049563 0.08734238114753502
1820000000.0 -0.17823701962905397 -0.003363291603937996
1840000000.0 -0.08437781182797917 -0.18586928953026272
1860000000.0 0.21504247504555618 -0.07299311398120834
1880000000.0 0.1704683320913697 -0.1820112128783614
1900000000.0 0.21428719202086605 0.1520786032439266
1920000000.0 0.27884513282652496 0.05128316799384589
1940000000.0 -0.062012012940396814 -0.2942728301695384
1960000000.0 0.02603221692371887 0.3070623725666105
1980000000.0 0.08315798672188576 -0.30173330467156634
2000000000.0 0.3215316146189795 0.045591695696254195
2020000000.0 0.20021670017364385 0.2601408722951722
2040000000.0 0.32884941175769644 0.03338227401075344
2060000000.0 0.31923011084744257 -0.057689448685418615
2080000000.0 0.2955528149773549 -0.12768372029530353
2100000000.0 -0.30704189299439344 -0.06468097669368138
2120000000.0 0.10449541527299706 -0.28599195387726445
2140000000.0 -0.2860013823316678 0.06531811457879572
2160000000.0 -0.05431984317337386 0.28344954720599025
2180000000.0 -0.01732825678343675 0.28255460798377835
2200000000.0 -0.20526136373544812 0.1895229313673103
2220000000.0 -0.2776772838946124 -0.051444504040746505
2240000000.0 -0.02864782172555011 -0.27814877192420023
2260000000.0 0.27273035143986835 -0.021539495741082933
2280000000.0 0.16224120172280937 0.21891853083441273
2300000000.0 0.021153065869749486 0.2660264161570402
2320000000.0 -0.2618207375294924 -0.02246139974627767
2340000000.0 -0.24792912445588755 -0.07746590112658794
2360000000.0 -0.05078760191627529 -0.24661651323184536
2380000000.0 0.22151145538730896 0.12579521594993998
2400000000.0 0.2684829066892519 0.05163123598347134
2420000000.0 -0.14626782425301785 -0.25140238930204833
2440000000.0 -0.18033758037099304 0.2528895293220296
2460000000.0 0.32992855014637135 0.037458852083451205
2480000000.0 0.3326711219945985 -0.1621496904898266
2500000000.0 0.009576875389790813 0.4077245616064629
2520000000.0 -0.4216353991801195 -0.14753834080843398
2540000000.0 0.47820800686365117 -0.042552294544437416
2560000000.0 -0.3273144264072262 0.3963058477404595
2580000000.0 0.15500914397430884 -0.5214646896748636
2600000000.0 -0.02987636262300581 0.5679612470485348
2620000000.0 -0.1320988366215179 -0.574645328350913
2640000000.0 0.30750233615465417 0.5223163356817565
2660000000.0 -0.6117384597660606 -0.11101075730256249
2680000000.0 0.27924019543111067 -0.5647315289080579
2700000000.0 0.6378566154414842 0.03901398248412839
2720000000.0 0.5064206590436188 0.39694686689977543
2740000000.0 0.37248738705941187 0.5273787413741686
2760000000.0 0.25120317907564127 0.5941517474562965
2780000000.0 -0.6315028891594064 0.09669233939803622
2800000000.0 -0.5552520339762839 -0.29222654452541935
2820000000.0 0.0573674436684317 -0.6126368505636143
2840000000.0 0.4749247462289089 0.36710919101781864
2860000000.0 -0.45793016377134976 -0.36389797342779345
2880000000.0 0.09040679101328426 0.5602755171220156
2900000000.0 0.5444213400664318 -0.06359939463197743
2920000000.0 0.28367305665889303 -0.44540294872486436
2940000000.0 -0.17426048325543847 -0.4746341682775359
2960000000.0 -0.20225044961759142 -0.43910893158349884
2980000000.0 -0.3895063867648768 -0.24734905501537352
3000000000.0 -0.425568423722252 0.10288350311712945
3020000000.0 -0.17628108321411246 0.37765398929864097
3040000000.0 0.3575472677348828 0.16689179551167962
3060000000.0 0.019619186946230296 -0.37281820801001003
3080000000.0 -0.3578712537124153 -0.019444552980412238
3100000000.0 0.27644032882697445 0.21140477830815807
3120000000.0 0.3110328625948734 -0.14405114922510776
3140000000.0 -0.29415176457732933 0.1716745908390621
3160000000.0 0.22023874850790656 -0.2620258981894958
3180000000.0 -0.14833234871673712 0.30417248802423813
3200000000.0 0.3323097795306804 0.04713036441090183
3220000000.0 -0.1781237767696892 -0.27829916343212135
3240000000.0 -0.3103968003979369 0.07803741586942357
3260000000.0 -0.144577671858005 0.26708240450376275
3280000000.0 -0.19288598171124763 0.21527647215705936
3300000000.0 -0.256932850980777 0.08262973082587244
3320000000.0 -0.08820043538204526 -0.230307452777457
3340000000.0 0.18699011831089635 0.12238041927083886
3360000000.0 -0.17682699775464253 -0.09886054609912544
3380000000.0 0.17743128652864032 -0.06236932576712808
3400000000.0 0.16285615924247365 -0.04401268382321239
3420000000.0 0.14405025975948801 -0.010348541160326666
3440000000.0 0.11610285979273106 0.0541468177151677
3460000000.0 -0.010493120668636155 -0.10807831339816343
3480000000.0 -0.06837008156910836 0.05718799475197338
3500000000.0 0.07598356161739235 0.01731593805533688
3520000000.0 0.033562290116715944 -0.06748154573752964
3540000000.0 -0.07563893632695451 0.023239007119361985
3560000000.0 0.022087671145359165 -0.0861466527039606
3580000000.0 0.07417057449652713 -0.06238940856642238
3600000000.0 -0.04157691496436173 -0.09168446694541318
3620000000.0 0.10683626708720745 -0.034501309374132226
3640000000.0 0.11978046281257808 0.023301076234432717
3660000000.0 -0.042621068905433115 0.1237802600758787
3680000000.0 0.07736683294711018 0.11412753396527173
3700000000.0 -0.1162866698244328 0.05689660484796861
3720000000.0 -0.08382081207313204 -0.08148833137327662
3740000000.0 0.05133169825492409 0.08094010341221525
3760000000.0 -0.068557127410206 -0.04022007323823585
3780000000.0 -0.016875977859587835 0.059966206673780074
3800000000.0 0.02011462878550567 0.029846681900840017
3820000000.0 0.002525015925163467 0.006838349258818803
3840000000.0 -0.024990610622254918 0.014357676115229805
3860000000.0 0.022338826497754764 0.052545799003197405
3880000000.0 8.707050930092101e-05 0.08738145131562015
3900000000.0 0.009234755559586593 -0.11032793593810539
3920000000.0 -0.05648344737848737 0.11272837087747793
3940000000.0 0.06114128237970358 0.12096133049943958
3960000000.0 0.0781273818472841 0.1155217255494399
3980000000.0 -0.12111732194261651 -0.062402024639239294
4000000000.0 0.01771435998107338 0.11414502710309003
