!Created with skrf (http://scikit-rf.org).
# Hz S RI R 50.0 
!freq ReS11 ImS11
400000000.0 0.7825189075302869 0.3847431538824715
420000000.0 0.287841383668632 0.7645055320393842
440000000.0 0.4003797872588099 0.6464174021919222
460000000.0 -0.5710037610851808 -0.3799978131243899
480000000.0 -0.22406172699037175 -0.5762216832388138
500000000.0 0.6487114493054186 -0.0947894336308879
520000000.0 -0.43702658765322394 0.5076706187502825
540000000.0 0.5860327812770442 -0.35110495757867694
560000000.0 -0.19877731132370535 0.6363653548795526
580000000.0 -0.4591405682874279 0.24383388927334154
600000000.0 -0.1867607507403757 0.5641964994066839
620000000.0 -0.5629419006868968 -0.2521806193006206
640000000.0 -0.4910133041522248 -0.2876790643020205
660000000.0 0.4030149973105435 0.332980024369614
680000000.0 -0.04636290700458109 0.48953395863434773
700000000.0 0.36502885148527864 0.27294435982089865
720000000.0 -0.2110158399010754 0.44305903393509577
740000000.0 0.3817152703226323 0.27421693875901565
760000000.0 0.011566467869411226 0.4445062613460379
780000000.0 -0.4296863254634767 0.03569382519227012
800000000.0 0.2576337269731412 -0.3042154283256616
820000000.0 0.3382546430488997 0.10016711104122591
840000000.0 -0.007915409023747091 0.32172324110923095
860000000.0 0.19633338770064926 -0.22545762342130726
880000000.0 0.15616246310878504 0.2237561543605752
900000000.0 0.012949029457582459 0.2681233345119135
920000000.0 0.23381202526474268 0.10393298170349177
940000000.0 -0.09155841965618215 0.21127967210604992
960000000.0 0.020756781796926204 0.18086119604621184
980000000.0 -0.02325805852438278 -0.13571369683270498
1000000000.0 -0.1248586998919175 0.03978258928607157
1020000000.0 -0.08420394074716107 -0.06365896931238291
1040000000.0 0.10934267317671773 -0.036574009678974395
1060000000.0 0.07602036492068624 -0.11833204450518545
1080000000.0 0.16847195901098552 0.09611959715974071
1100000000.0 0.049736079484605546 0.23468555158305146
1120000000.0 0.27790960870050135 0.01193370119320308
1140000000.0 -0.29914218776143 0.045564179272998065
1160000000.0 -0.291011996760209 0.12719704559613734
1180000000.0 -0.25215541866509955 -0.2211730594354607
1200000000.0 -0.30327242617796657 -0.17873290667161304
1220000000.0 0.34065687387199456 -0.10362676136552997
1240000000.0 0.17347079074628863 0.33333039204499293
1260000000.0 0.3793805670841603 -0.10336257404307991
1280000000.0 -0.37206377968689963 -0.0913481347323904
1300000000.0 0.009410864527957093 -0.38030580401944436
1320000000.0 -0.07773067682054088 -0.3722687047245775
1340000000.0 -0.3503504877299068 0.1184333055373263
1360000000.0 0.217811214017572 0.32312781120060285
1380000000.0 -0.198933439427397 0.3488759845104684
1400000000.0 -0.04437310956110883 -0.3936841125232407
1420000000.0 0.08245935872463837 -0.3835177759413563
1440000000.0 -0.24811631701602016 -0.3076492446627951
1460000000.0 -0.3755058202940325 -0.12882369392940582
1480000000.0 -0.34047134132159 -0.19909235668398997
1500000000.0 0.07077155039906473 0.3940181923729593
1520000000.0 -0.37210678438542755 0.11118996515233702
1540000000.0 0.3582786325296925 -0.03610337896639244
1560000000.0 -0.20469005053192593 0.2582830590096353
1580000000.0 -0.24301766876631523 -0.1633817723524798
1600000000.0 0.008227237434329055 -0.2571825419974102
1620000000.0 0.17113179775236825 -0.13490639318387038
1640000000.0 -0.1421210767793506 0.11881326807968917
1660000000.0 -0.1363244228024359 0.07218988072711578
1680000000.0 0.09110774217968301 -0.0706398681141336
1700000000.0 -0.10076286074464355 -0.02034879041583618
1720000000.0 0.07723403642048234 -0.021075904985937702
1740000000.0 0.0660922558022368 0.045061437632892776
1760000000.0 -0.05175634444293167 -0.07367264369591538
1780000000.0 0.11535680866322333 -0.010388736117131767
1800000000.0 0.13992939659856074 -6.368118947468903e-05
1820000000.0 -0.16300793746262038 0.044742950265343355
1840000000.0 0.19304363237224187 -0.029750876291591375
1860000000.0 -0.2211728708354724 -0.01977392799528886
1880000000.0 -0.08521295573785893 0.23974653831672624
1900000000.0 0.04078244785943424 0.27156047047605036
1920000000.0 0.15453488707283927 -0.2499084439466839
1940000000.0 -0.30224828324094594 0.03870611464601389
1960000000.0 0.30280185167566387 -0.04899526491361476
1980000000.0 -0.28660696585479123 -0.13078248986011062
2000000000.0 -0.01997562727405378 -0.32094529039765274
2020000000.0 0.3137318041724762 -0.06834798516329245
2040000000.0 0.3190985863751093 0.04052889917972588
2060000000.0 0.2924711097749457 0.1262020239926869
2080000000.0 0.12298461815243485 0.29212147401395216
2100000000.0 0.17632193879912192 -0.2601782128494161
2120000000.0 0.26735567265083093 0.14831986361132196
2140000000.0 -0.048655789309117764 -0.2954782131014997
2160000000.0 -0.288429717983481 0.06583011063532855
2180000000.0 -0.0647695263909474 0.28112081648960235
2200000000.0 -0.11474540292650559 0.258837938840879
2220000000.0 -0.19255749918062623 0.20358410187563114
2240000000.0 -0.1916127760768047 -0.19861264753070518
2260000000.0 0.1445499394951571 -0.22898872084202307
2280000000.0 0.2629907970665694 -0.06840402629557929
2300000000.0 0.2566455216444395 0.03379103865764971
2320000000.0 -0.20531364356925189 -0.15439165744466216
2340000000.0 -0.12989606262531234 -0.22121047103025138
2360000000.0 0.2103684069859577 -0.14331205527299273
2380000000.0 0.07315762878841557 0.25028070930083274
2400000000.0 0.17002534625030516 0.22259797952818045
2420000000.0 0.14597866714882451 -0.25909353746923713
2440000000.0 -0.2852929428833479 0.14039826990245216
2460000000.0 0.33489378190221863 0.041728571266439425
2480000000.0 0.29027956958701917 -0.23149033678603323
2500000000.0 0.020459177606084792 0.4073753197963988
2520000000.0 -0.40392117692532525 -0.18521770062632084
2540000000.0 0.4668742385563192 -0.0920561703816496
2560000000.0 -0.3897554820448404 0.32955975268408055
2580000000.0 0.17346976441110862 -0.5119524117755244
2600000000.0 0.0025479833194599257 0.566085012310686
2620000000.0 -0.10401865043913112 -0.5803812105142687
2640000000.0 0.2785198421064552 0.5405256782300016
2660000000.0 -0.5887650969427418 -0.20504908427241844
2680000000.0 0.36907096190339533 -0.5147011971949614
2700000000.0 0.579523895528971 0.27739956936627636
2720000000.0 0.3161292585471401 0.5647501359660413
2740000000.0 0.22301448688213346 0.6084288993169176
2760000000.0 0.13495259232287596 0.6328800477145309
2780000000.0 -0.6044945067447672 -0.20885901139160826
2800000000.0 -0.4053184574839052 -0.48142952685371065
2820000000.0 0.18420576704407182 -0.587850627526345
2840000000.0 0.41390587730835776 0.43645767844226124
2860000000.0 -0.4831108159940658 -0.3344544011234696
2880000000.0 0.28071018118365704 0.4955423051644123
2900000000.0 0.43117812494686153 -0.33840584237764837
2920000000.0 0.02525432884358146 -0.5278592584167949
2940000000.0 -0.42456539141366123 -0.2723291076237946
2960000000.0 -0.2567325301909542 -0.40456521184199007
2980000000.0 -0.26728758437889555 -0.3725823633733232
3000000000.0 -0.3681299329964697 -0.23952956361574657
3020000000.0 -0.41988476679003156 0.03624158819305158
3040000000.0 -0.02253335083144978 0.40116112769307855
3060000000.0 0.36630082814705367 -0.10237859057207546
3080000000.0 -0.31547711585755583 -0.18430408744731114
3100000000.0 0.2734266453141183 0.22054705316027992
3120000000.0 0.2968693439885868 -0.1761487468180881
3140000000.0 -0.18188997373140614 0.2867747281505884
3160000000.0 0.1492156183988713 -0.3020339875880024
3180000000.0 0.05819291290460681 0.3294868041823502
3200000000.0 0.30631555373322017 -0.11989608895571952
3220000000.0 -0.23488581463423325 -0.22389280821409427
3240000000.0 -0.31128167536558793 -0.05567538907905252
3260000000.0 -0.2626648823275548 0.15584910081086562
3280000000.0 -0.2936704705528623 0.01224698469121443
3300000000.0 -0.27779071425617463 0.004915556978367138
3320000000.0 -0.1718957594393071 -0.1876530804893646
3340000000.0 0.22590239413296254 0.04230894968128676
3360000000.0 -0.1911376240773039 0.08292419307107611
3380000000.0 0.10888813822393872 -0.1538930211603327
3400000000.0 0.0677292521649621 0.15226377721884168
3420000000.0 0.06152783163768403 0.13025680991693434
3440000000.0 -0.05569470569099692 0.11241125101248717
3460000000.0 -0.07997035266687699 0.06909088301529755
3480000000.0 0.08324469492644414 0.029944753176152025
3500000000.0 -0.017567086088393614 0.07763602899492768
3520000000.0 -0.05033077198557933 -0.05748046426413409
3540000000.0 0.06508159518646182 -0.043702550912671195
3560000000.0 0.0747301395444143 -0.04658047288101953
3580000000.0 0.0015158742908772261 0.09270743852388412
3600000000.0 -0.09296040631955911 0.02969718473651254
3620000000.0 0.06532134876298203 -0.09140076665228557
3640000000.0 0.11996560072945926 0.037165960817083975
3660000000.0 0.0009737114770186863 0.13534914423403735
3680000000.0 0.03541199222619354 0.1360053871075428
3700000000.0 -0.0648971060821252 -0.11644481100951165
3720000000.0 0.1159420246070713 -0.031048158196490386
3740000000.0 -0.04337658211477326 -0.09074221730216814
3760000000.0 0.06294406830463158 -0.05417820423490369
3780000000.0 -0.05152458157130735 -0.03853654689427781
3800000000.0 -0.03327978284201745 -0.008641088518183253
3820000000.0 -0.001453127916934989 0.001327974712844079
3840000000.0 0.0035934567636508115 0.035137713600304016
3860000000.0 0.05924427254125801 -0.025306474764225692
3880000000.0 0.09082775178492253 -0.02131110027758381
3900000000.0 -0.11279778304095156 5.814071516480728e-07
3920000000.0 -0.12516515178170393 -0.010892358709273834
3940000000.0 -0.10075234534905432 0.09327493289583645
3960000000.0 -0.08319002093374071 0.11253293341696873
3980000000.0 0.10939786447825721 -0.07506620167278494
4000000000.0 0.09127600468360786 -0.06840992600321612
