!Created with skrf (http://scikit-rf.org).
# Hz S RI R 50.0 
!freq ReS11 ImS11
400000000.0 0.7528642394270331 0.4388016663059785
420000000.0 0.2344789884791081 0.7813418253080221
440000000.0 0.3754530014411093 0.6631702420999341
460000000.0 -0.6084720976249226 -0.3180751625911891
480000000.0 -0.08972043648477125 -0.6154405669147359
500000000.0 0.6474022428329964 -0.02675756571577302
520000000.0 -0.3334327850011694 0.5783609134617659
540000000.0 0.6650144062074806 -0.1400570294627868
560000000.0 -0.18072154376123448 0.6436289971932829
580000000.0 -0.3351314669848137 0.3957163706708552
600000000.0 0.19010656497213954 0.5643337530748623
620000000.0 -0.4983701094628954 -0.3504991024878012
640000000.0 -0.4311630028672273 -0.3620507887607054
660000000.0 -0.06841242612808501 0.5220527405943606
680000000.0 -0.10081229596783364 0.48396793899665164
700000000.0 0.38133375555589977 -0.24973491183111218
720000000.0 -0.2020662647697067 0.4413160595170112
740000000.0 0.3833772437683168 0.27506297292276005
760000000.0 -0.2569029501827911 0.36434802012354234
780000000.0 -0.42764972878508084 0.07877411380774409
800000000.0 -0.14123374908298514 -0.3719357419834088
820000000.0 0.3407352962420738 0.0837972286350896
840000000.0 -0.24243610461214332 0.21613868031814754
860000000.0 0.1887029940261257 -0.2370725500045522
880000000.0 0.2628309556924607 0.0723225028667642
900000000.0 0.05255075169843713 0.26101732435756275
920000000.0 0.2303987529688098 0.10700500995162533
940000000.0 -0.1628561214566258 0.1552744524948139
960000000.0 -0.11917642258109387 0.1377701942860831
980000000.0 -0.098519916645539 0.10489400276298612
1000000000.0 0.07955368592664581 -0.10126139732876088
1020000000.0 0.0880854218568005 -0.0471449033291475
1040000000.0 -0.0940509131456161 0.06797824648746868
1060000000.0 0.14228474103419464 0.03082001784658126
1080000000.0 0.1943279065152454 -0.004951252216687844
1100000000.0 0.055959326301482856 0.23224724069997618
1120000000.0 0.25634372914788617 -0.10281625902951004
1140000000.0 -0.2821987866020806 0.10327964090366376
1160000000.0 -0.3198739052772953 -0.003061696979701364
1180000000.0 -0.3345438515462907 0.04454971326763903
1200000000.0 -0.25953930315077445 -0.2350389145493947
1220000000.0 0.3492495022372831 -0.07966317517645985
1240000000.0 0.1674194979529376 0.3385954250706835
1260000000.0 0.34987248149281275 -0.177052720510341
1280000000.0 -0.3284885485609337 -0.20082714163436735
1300000000.0 -0.11876583388556597 -0.36203090996146525
1320000000.0 -0.13742639250073177 -0.3541764746866889
1340000000.0 -0.364309449555891 0.05063524708593292
1360000000.0 0.2517867923266524 0.2977766118096954
1380000000.0 -0.13444394501907295 0.37799675530118126
1400000000.0 -0.06994818011766873 -0.38862161808121687
1420000000.0 0.02926334546462694 -0.3906129420481296
1440000000.0 -0.20802753414469088 -0.3361472015924211
1460000000.0 -0.3947038828634776 -0.02107932578694146
1480000000.0 -0.3295219135807908 -0.22208583773196774
1500000000.0 0.0849376454752016 0.3898965343385302
1520000000.0 -0.38078235980884406 0.06904636664628952
1540000000.0 0.36123470197050517 0.00019740537817424287
1560000000.0 -0.15591782545635305 0.2908705288330203
1580000000.0 -0.1788167013194242 -0.23305443615699756
1600000000.0 -0.00012142227019277808 -0.25742268224783804
1620000000.0 0.20230546479642136 -0.08057433640554457
1640000000.0 -0.185220496309761 0.002895834058001686
1660000000.0 0.04005126036946144 0.14943817486100028
1680000000.0 0.10749178300501466 0.027425333734959874
1700000000.0 0.03277776743214656 -0.09834532499095612
1720000000.0 -0.06460018160919292 -0.045252946011444674
1740000000.0 0.07690975825485467 -0.0003734267186852815
1760000000.0 -0.008658899325012185 -0.0885895007222816
1780000000.0 0.031975450544357735 -0.11301586533746051
1800000000.0 -0.01951352435343297 -0.13637818342113164
1820000000.0 -0.16753838686110964 -0.015066468840257705
1840000000.0 0.19241232340169626 -0.03560538614435583
1860000000.0 -0.14860742807289049 0.1639843383777994
1880000000.0 -0.12569418625165973 0.22225541070912383
1900000000.0 0.09781515801670504 0.2581075783608254
1920000000.0 0.1136445024725201 -0.27103142099114746
1940000000.0 -0.3027778666547288 -0.026224767754974766
1960000000.0 0.308383097092188 0.01912086475420326
1980000000.0 -0.31042537919373203 -0.03975207952489356
2000000000.0 0.14629197486088474 -0.28476796014329075
2020000000.0 0.309107667632694 -0.09108961538747201
2040000000.0 0.31841736739402915 0.039319734179272564
2060000000.0 0.2932093845232236 0.12092696313177465
2080000000.0 0.10758779137532092 0.2965102933886903
2100000000.0 0.025029662933022254 -0.31154766354003827
2120000000.0 0.26338936743583197 0.15521892096557202
2140000000.0 -0.12119864148527557 -0.27378205475281653
2160000000.0 -0.23987007253652903 0.17374906009648375
2180000000.0 0.07378517794657821 0.27786325306341336
2200000000.0 -0.16688903657561996 0.23067295594131987
2220000000.0 -0.11530299525462734 0.2572514612107733
2240000000.0 -0.19205105723603108 -0.19857337361285082
2260000000.0 0.19570752206644149 -0.18886242277123827
2280000000.0 0.2722681865317164 0.023140564026351174
2300000000.0 0.2543534784576143 0.05071582901618048
2320000000.0 -0.22995529246908628 -0.10752957706098684
2340000000.0 0.017010950265470552 -0.25534338850456445
2360000000.0 0.23602201411167076 -0.0955512807116827
2380000000.0 0.07391427065644929 0.24743901423714273
2400000000.0 0.17758325238704128 0.21549135535505007
2420000000.0 -0.03818030257490172 -0.2923601268012183
2440000000.0 -0.2775857772704328 0.14558484675130362
2460000000.0 0.33623269897914043 0.04141802986939242
2480000000.0 0.10730241560399449 -0.3569229653501449
2500000000.0 0.2376223185447419 0.3299707306722787
2520000000.0 -0.4134837605066897 -0.15944130665815157
2540000000.0 0.4706293837063036 -0.08288609282161846
2560000000.0 -0.34056190380594986 0.3807404034855435
2580000000.0 0.22449269526084753 -0.4919880997903872
2600000000.0 -0.05830378151180231 0.5636641044968121
2620000000.0 -0.10850486120960431 -0.5784330640113285
2640000000.0 0.22236125627466588 0.563583593485373
2660000000.0 -0.5662128602433881 -0.2577074133670217
2680000000.0 0.39138564866489234 -0.49563989719993096
2700000000.0 0.598637885483798 0.22956358684876382
2720000000.0 0.3889782851896329 0.5155944466728383
2740000000.0 0.2877115640413358 0.5794779002390693
2760000000.0 0.18304786348025856 0.6200625353342062
2780000000.0 -0.6290595622708604 -0.11013471731137829
2800000000.0 -0.46831189683894386 -0.4194976107010459
2820000000.0 0.14436311903079013 -0.5994830838995304
2840000000.0 0.45166069142021303 0.3988416962346545
2860000000.0 -0.48822073179495384 -0.32677662203065605
2880000000.0 0.21221056710033226 0.528514708245831
2900000000.0 0.4435400515159461 -0.3239470206197999
2920000000.0 0.013458021498902378 -0.5276100695159307
2940000000.0 -0.31655878888949757 -0.3910047206118556
2960000000.0 -0.24192317128597868 -0.41201287047325225
2980000000.0 -0.3275901611285484 -0.3185877484510765
3000000000.0 -0.3475542907982882 -0.26657359880201187
3020000000.0 -0.38566326163155823 0.1658273979072383
3040000000.0 0.07942979308600066 0.39114585084490744
3060000000.0 0.3439245826144652 -0.15909466367705333
3080000000.0 -0.36601062940202084 0.0019411464184593684
3100000000.0 0.3398128312616688 0.08941743172528349
3120000000.0 0.21925236525978153 -0.26752800892886985
3140000000.0 -0.19525528244393478 0.27927490838949043
3160000000.0 0.025706110609072814 -0.3378327743966923
3180000000.0 0.1182306379742179 0.31288643744644296
3200000000.0 0.29898919158136333 -0.14030968858804221
3220000000.0 -0.16409095263027088 -0.2804833414251807
3240000000.0 -0.2841003022858782 -0.13798446241234927
3260000000.0 -0.285344266714282 0.10579486225147602
3280000000.0 -0.2934728712192186 0.020993786392876492
3300000000.0 -0.2729682973171831 -0.040955430812684414
3320000000.0 -0.14611335727411648 -0.20630727433951065
3340000000.0 0.22759952778069947 -0.020006431417500668
3360000000.0 -0.17501116002438796 0.10784795481014804
3380000000.0 0.06379958030937137 -0.17570731574672244
3400000000.0 0.13682695205899476 0.09475389679596245
3420000000.0 0.13130507179716724 0.05926125274961305
3440000000.0 0.09332697480231372 0.0837211432133828
3460000000.0 0.02077570510403549 0.10335625083119691
3480000000.0 0.05381997864159292 -0.07245685093772808
3500000000.0 0.03518620168968921 0.07349555472426116
3520000000.0 -0.04481518624438124 -0.06665355223440597
3540000000.0 0.07956448140525843 -0.0027774626950815002
3560000000.0 0.02454545587187679 0.08465505193972936
3580000000.0 -0.07967001989367319 -0.051211287301032596
3600000000.0 -0.09646414026413797 -0.016563583931451336
3620000000.0 0.09116488498512927 0.06113660029969975
3640000000.0 0.0348711764435932 0.11954185334603981
3660000000.0 -0.06510796888029446 0.11677020060839177
3680000000.0 0.02882748317445767 0.1355009803457668
3700000000.0 -0.06315347975179195 -0.11468304823960168
3720000000.0 0.08060809520573549 -0.08655917042529554
3740000000.0 -0.09656196162493226 -0.025937632354611898
3760000000.0 -0.08303409957709658 -0.006742657417911411
3780000000.0 0.035726850945337375 0.05218495662451774
3800000000.0 -0.019819670593150773 -0.02971376963869966
3820000000.0 -0.0015253894226963116 -0.0027035144738706994
3840000000.0 -0.011849914173607205 -0.03211208405579239
3860000000.0 0.03363475161013403 -0.05483882237345228
3880000000.0 0.056191928523147555 -0.07040789442900602
3900000000.0 -0.10892765140653062 -0.00903029759618229
3920000000.0 -0.05125169145216373 0.11564040779768225
3940000000.0 -0.017485077799330635 0.13333532967610048
3960000000.0 -0.09082954353872515 0.10490716093959157
3980000000.0 0.11015728481968806 -0.07747746788072797
4000000000.0 -0.007940204343498772 -0.11232402041402473
