!Created with skrf (http://scikit-rf.org).
# Hz S RI R 50.0 
!freq ReS11 ImS11
400000000.0 0.8451452792565493 -0.2408021002633447
420000000.0 0.7723317270761652 -0.30947215256072075
440000000.0 0.3877703932407082 -0.667447613583651
460000000.0 0.22229693327332894 0.6576067109887067
480000000.0 0.4010543592630924 -0.4372034566425203
500000000.0 0.5024715123748341 0.37313240423384375
520000000.0 0.47848085882466196 -0.4309212100463608
540000000.0 -0.07254889183656542 -0.6003120288090193
560000000.0 0.6117549481917562 0.10657811428912323
580000000.0 0.4236632158254138 0.30749991166492646
600000000.0 -0.3281068033546746 0.49736744096267127
620000000.0 -0.19161265871701225 -0.5745001786240713
640000000.0 -0.37503028640872776 -0.41896045698469103
660000000.0 0.07023637717702673 0.5159115030739212
680000000.0 0.3141042311599883 -0.3577396756958584
700000000.0 0.41710894518603614 0.26298831777837883
720000000.0 0.45974327839980655 0.18925476893765755
740000000.0 0.23650907619321135 0.4128128157000349
760000000.0 0.011615638425215515 0.45806555737438853
780000000.0 -0.4336119326446631 -0.1273216878828218
800000000.0 -0.2549610602562875 -0.31419192243347704
820000000.0 0.23565191867512866 0.27148404882472127
840000000.0 -0.3302386284483106 -0.03888976753751874
860000000.0 0.3073387974221087 0.045533054451240645
880000000.0 0.26915127893225443 0.10625836234427512
900000000.0 0.26641164772673276 0.061825840608226705
920000000.0 -0.030346871396511182 -0.25264761037641936
940000000.0 0.19826293876197099 -0.09378338839244284
960000000.0 0.09775884016945621 -0.13856343440822963
980000000.0 -0.11913955735003211 -0.06131970369993615
1000000000.0 0.10307548140962335 -0.08521498587543658
1020000000.0 -0.1017046277949394 0.05762484918934917
1040000000.0 0.05764347979599775 0.12118091561758994
1060000000.0 -0.14151765115209394 -0.059485428184684025
1080000000.0 0.01954541223778221 0.1985220474783415
1100000000.0 -0.0984020524576403 -0.22520194193417709
1120000000.0 -0.05889988838363805 -0.27432978252805623
1140000000.0 -0.19290169435447557 0.24267087040889357
1160000000.0 0.30144524872640477 0.13805931398038754
1180000000.0 0.17619465072907356 0.28767361112970996
1200000000.0 -0.3350629597697647 -0.11481542859158024
1220000000.0 0.3254945381189086 -0.17743053944931916
1240000000.0 0.22155085865402807 -0.3047096344258391
1260000000.0 0.12832984419691962 -0.37072954239628597
1280000000.0 -0.36170548439492345 0.11872067771788637
1300000000.0 -0.025527661837762314 -0.36636567744726944
1320000000.0 0.23690028243165348 -0.29104792550243946
1340000000.0 -0.35765044010363023 0.07690721831445362
1360000000.0 0.062466165961109724 0.3802821475599886
1380000000.0 -0.07110856402059071 0.387971261089663
1400000000.0 -0.0847207213358248 -0.3743665186538405
1420000000.0 0.32391971019967825 -0.20142751550537227
1440000000.0 -0.020567571103206457 -0.3877194053058592
1460000000.0 -0.32350878216881684 -0.213896332793317
1480000000.0 -0.15245449499649844 -0.3614988840820905
1500000000.0 -0.36079072480109264 0.15368308793256444
1520000000.0 0.0857613860093088 -0.3781078452931113
1540000000.0 0.08547914050416712 0.3505584601036672
1560000000.0 -0.1702741528229718 -0.2811874910170732
1580000000.0 0.2733555400409858 0.11353260277563779
1600000000.0 0.22081800078049363 -0.14230004945760372
1620000000.0 0.03611309491651446 0.20924151720497286
1640000000.0 0.002327760163117067 0.18676340735057173
1660000000.0 0.10094762261613494 -0.12641104299395398
1680000000.0 -0.12002531729003468 0.009075581401733037
1700000000.0 0.05965112293515868 0.10115887170881961
1720000000.0 0.022657588932410048 -0.09092058442229088
1740000000.0 -0.0518079006093313 -0.06519912577573878
1760000000.0 -0.03566027947075874 0.08390999172011607
1780000000.0 -0.10247667594817197 0.03725194642471989
1800000000.0 0.08168757306696486 0.10012052165818693
1820000000.0 0.12211581723889435 0.10423158169501422
1840000000.0 0.027640827644250722 -0.1892100108336021
1860000000.0 0.004802006053475989 0.21837737587954878
1880000000.0 0.1780422154727002 0.1800688093341592
1900000000.0 0.25036063184487384 -0.11063813932235132
1920000000.0 0.009487485046700191 -0.29059531337605055
1940000000.0 -0.3052401554173947 -0.006151767529981829
1960000000.0 0.22796065025914397 -0.2108413216286695
1980000000.0 -0.2833131752892029 0.1310925327643671
2000000000.0 0.1212399738484562 -0.2951950412226931
2020000000.0 0.25969846173585515 -0.19360899756159403
2040000000.0 0.32291819225473234 0.002156470326141288
2060000000.0 0.23719171157043814 0.21772718587083795
2080000000.0 0.044725203168835596 0.3242323219634475
2100000000.0 -0.07678048321984578 -0.315096118077153
2120000000.0 0.23726543729682914 0.21299434545478182
2140000000.0 -0.24483870684580347 -0.20490172794766573
2160000000.0 0.0913541866154477 0.30406447321095487
2180000000.0 0.26221343132166314 -0.1654112138574482
2200000000.0 0.24482941696820318 -0.18123710723154735
2220000000.0 0.02059495275873333 -0.29710987756530494
2240000000.0 0.28870357972706223 -0.021543036752728086
2260000000.0 -0.015640289510000644 0.27338920677674916
2280000000.0 -0.19160620180339336 0.18822671753210268
2300000000.0 0.010666051215764909 -0.252360133437107
2320000000.0 0.013715658334984242 0.24273456650708486
2340000000.0 0.07561609410491749 -0.2295596101541244
2360000000.0 0.027532558745474188 0.24358410594022536
2380000000.0 -0.1385257928066716 -0.21760524585903848
2400000000.0 -0.27020703215006864 0.07790671400070347
2420000000.0 0.24428832936183315 0.17985321828600978
2440000000.0 -0.20706387210544872 -0.2532413264346693
2460000000.0 0.08605797078218787 0.34480097926348985
2480000000.0 0.22847148429637118 -0.31880920406763086
2500000000.0 0.2778435255516202 0.3246789148280384
2520000000.0 -0.45425810077361106 0.09079035804214285
2540000000.0 0.21195373166837211 -0.4466533753629615
2560000000.0 0.034357899128066416 0.5243071641643814
2580000000.0 -0.20384319666154463 -0.5138341438300412
2600000000.0 0.26514914065018863 0.5116797701677971
2620000000.0 -0.3443065522510609 -0.4852238739096072
2640000000.0 0.4791239115847137 0.37875526641119767
2660000000.0 -0.6225958756127371 0.06061937459442516
2680000000.0 0.08023873071567823 -0.6282490611545726
2700000000.0 0.6050832544853408 -0.21574251005277806
2720000000.0 0.6250953755411467 0.16810685111571377
2740000000.0 0.5466003833421323 0.3506372126041331
2760000000.0 0.5743982160897593 0.30254107881546377
2780000000.0 -0.47953979989849327 0.43085043857682565
2800000000.0 -0.6241522448563914 0.1167451442809102
2820000000.0 -0.3900076314627187 -0.4861772383215989
2840000000.0 0.5824371528563387 -0.1787898064290476
2860000000.0 -0.42770931967403025 0.41192470793877106
2880000000.0 0.5550868670630665 -0.14413241844668478
2900000000.0 -0.24778307366069796 -0.4933388692499447
2920000000.0 -0.5232424863513909 0.07485861632657255
2940000000.0 -0.28922825487567394 0.40614614690726075
2960000000.0 -0.3818367465342375 0.27875863536446477
2980000000.0 -0.3084908944747323 0.3253894087115999
3000000000.0 -0.19134267303075106 0.3811566279193952
3020000000.0 0.08803302824196198 0.39441069302483744
3040000000.0 0.2835795474317281 0.2578490016296028
3060000000.0 0.27470299172296414 -0.24787186892927765
3080000000.0 -0.3544388887806171 -0.05372427387467985
3100000000.0 0.25968018540048826 0.22931124817095327
3120000000.0 0.30332739716503254 -0.16490203268292475
3140000000.0 -0.3171918514406206 0.1291333026843949
3160000000.0 0.34092794279586563 -0.02865453963657224
3180000000.0 -0.3405388041990624 -0.04669070089523018
3200000000.0 0.048249522320042475 0.3397398920048346
3220000000.0 0.2664719924461906 -0.20832814760552978
3240000000.0 0.06965357182726878 -0.32696734118547016
3260000000.0 -0.1949922259048071 -0.2630220596555147
3280000000.0 -0.31472194719409236 -0.030605607312600515
3300000000.0 -0.21920658838039422 0.20406191227143836
3320000000.0 -0.0869883776450965 0.25828157540283453
3340000000.0 -0.22940384406698094 0.09706165152519759
3360000000.0 -0.1756864505788001 0.13534699964702537
3380000000.0 -0.04624608079338716 -0.187495346565505
3400000000.0 -0.002317088917920355 -0.17010148554912513
3420000000.0 -0.003532555388822907 -0.14227960659136948
3440000000.0 0.028685073209523848 -0.11350802215285691
3460000000.0 0.07258443799116078 0.06131827745391605
3480000000.0 -0.072148097922214 0.030452048750102743
3500000000.0 -0.07061443176385483 -0.01562610705365625
3520000000.0 -0.027245562885600618 -0.06533737489919693
3540000000.0 0.01365948684036155 0.07682203733734931
3560000000.0 -0.0497205326175809 0.06769691322390523
3580000000.0 0.08061354616622074 0.053334476552450584
3600000000.0 0.01789173422575328 -0.10175936503781238
3620000000.0 0.11795312051159548 0.022451359302875257
3640000000.0 -0.027544238039980663 -0.13083068567023035
3660000000.0 -0.07504142048775593 -0.12526724710235684
3680000000.0 0.09772323239709287 0.11762040352336274
3700000000.0 0.11511555627694292 0.08720730545556535
3720000000.0 0.12841240603749068 0.016287952196440185
3740000000.0 0.09901432588664592 -0.026328856795799004
3760000000.0 0.01275567805427622 -0.07949399812362982
3780000000.0 0.057992818497447765 -0.016177157645621842
3800000000.0 -0.015062342549178208 -0.02149479742307368
3820000000.0 -0.0053802864481603775 -0.008790777641029897
3840000000.0 -0.044375791978654204 0.018162319473327887
3860000000.0 -0.005080454342723146 0.07838397837571269
3880000000.0 -0.05097218581833209 -0.0935877881326524
3900000000.0 0.12864592353808552 0.01675858463646192
3920000000.0 -0.1278313995662706 -0.06757619433286638
3940000000.0 0.012002269560825866 0.1521600947112057
3960000000.0 0.11816504126095133 -0.10460313709363644
3980000000.0 0.11079346025979053 0.09876536759779173
4000000000.0 -0.10115115361510689 -0.07547493805985223
