!Created with skrf (http://scikit-rf.org).
# Hz S RI R 50.0 
!freq ReS11 ImS11
400000000.0 0.7692238808853562 0.4091197779786914
420000000.0 0.27733329979140703 0.7692084897671903
440000000.0 0.47078030454620134 0.5973339626163156
460000000.0 -0.646375739875608 -0.22811928177848406
480000000.0 0.22950141098502844 -0.5786877654666237
500000000.0 0.6373223326144342 -0.12812696652504987
520000000.0 -0.2612395739988097 0.6142458815907894
540000000.0 0.6340136682145714 -0.23194647178705072
560000000.0 -0.3835847584842672 0.5488795662168084
580000000.0 -0.23307597372979041 0.46215496734252826
600000000.0 0.07077318733585236 0.5873974154119994
620000000.0 -0.2516714938616303 -0.5552978853534688
640000000.0 -0.38267947178725115 -0.42702228567590717
660000000.0 0.4341244223560182 0.30327448686352726
680000000.0 0.10393379653381604 0.4738222453446348
700000000.0 0.23488213158849347 0.37993562727974645
720000000.0 -0.3403548094641161 0.35604681888418677
740000000.0 0.45707666108398737 0.12771948826459664
760000000.0 0.24899932525248586 0.3684498806988357
780000000.0 -0.42130874626851883 -0.089713418251605
800000000.0 -0.11304310150574454 -0.3816823171461594
820000000.0 0.30175873056243746 0.1819129496409408
840000000.0 0.029575493564476977 0.31913043759281234
860000000.0 0.26881840204339846 -0.13456884175826617
880000000.0 0.08515640834766434 0.26452241381632163
900000000.0 0.10629634922228247 0.2445449565895427
920000000.0 0.2465142014626688 0.0775296174518693
940000000.0 0.040496137049888546 0.21786873639043772
960000000.0 -0.16833343434549747 0.06067722279798968
980000000.0 -0.048209906545206405 -0.1356658068713436
1000000000.0 0.04121797857815676 0.1272209701376927
1020000000.0 0.015598835200730318 -0.10050184473087466
1040000000.0 0.08944891768884909 0.06955667095433954
1060000000.0 0.09847671961924341 -0.09904612016155699
1080000000.0 0.12607416779110028 0.14607329078938772
1100000000.0 0.10943760694433423 0.2155763195511182
1120000000.0 0.19467692234042577 -0.19749196437734498
1140000000.0 -0.23349121721656216 0.1824140761317412
1160000000.0 -0.29843620065209786 0.11000146989452109
1180000000.0 -0.30220332459333865 -0.15104642329919196
1200000000.0 -0.3238472191462358 -0.13495575133023818
1220000000.0 0.35175677898910895 -0.05460263638023496
1240000000.0 0.08118507160192176 0.36758253122356727
1260000000.0 0.39222584944086 0.012425424905487535
1280000000.0 -0.3607582309780221 -0.13570282465688302
1300000000.0 -0.05657216326989165 -0.37599437236643035
1320000000.0 -0.07211366220757062 -0.3734516582832107
1340000000.0 -0.3571113351412803 0.0911588529326363
1360000000.0 0.1835715630470296 0.3438730359536236
1380000000.0 -0.2426587338603687 0.31990685424075843
1400000000.0 -0.10030208612945819 -0.3829806037635551
1420000000.0 -0.056148337830936056 -0.38885048371071035
1440000000.0 -0.19013148308406844 -0.34639155611078154
1460000000.0 -0.39116552716279746 -0.055721923285357106
1480000000.0 -0.36232528048838686 -0.1659136949255836
1500000000.0 0.15568238500326217 0.369185458584705
1520000000.0 -0.3725085882114398 0.10760518231500597
1540000000.0 0.3316266281762063 -0.13912877014159733
1560000000.0 -0.27577854306805977 0.18481198076794392
1580000000.0 -0.1330280090867745 -0.26081751309275486
1600000000.0 0.05453555437485417 -0.251810764572171
1620000000.0 0.17336205478728658 -0.1337157549883722
1640000000.0 -0.09286173667141401 0.15826096319966892
1660000000.0 -0.008627793636593063 0.15286790613569987
1680000000.0 0.10588390904122731 -0.042396540281579034
1700000000.0 -0.031578935042012576 -0.09840073726106234
1720000000.0 -0.07815383276220134 -0.012115705293787374
1740000000.0 0.029564645869946955 -0.07330196532200646
1760000000.0 0.0049857392726705505 -0.08846535639593492
1780000000.0 0.08833475715850937 -0.07534512898449224
1800000000.0 0.04183464008183806 -0.13137615876538405
1820000000.0 -0.16223453037115787 0.05233745921973085
1840000000.0 0.1701858923029429 -0.09594065016107621
1860000000.0 -0.21150664205475803 0.06384146072710464
1880000000.0 -0.07976604964813878 0.24442960534959304
1900000000.0 0.11728636793575001 0.2490676509656688
1920000000.0 0.14287472048065264 -0.25494401713461196
1940000000.0 -0.28734682696668823 -0.1023348093107702
1960000000.0 0.30719859951483225 -0.03469103051603756
1980000000.0 -0.30720679202954015 -0.062107880242610033
2000000000.0 0.053519856017070225 -0.3168109175702435
2020000000.0 0.31370193380851663 -0.06651496901996566
2040000000.0 0.319919565330614 -0.0058608864200235585
2060000000.0 0.29199996456186883 0.12428718604886253
2080000000.0 0.16910001504995006 0.26853130421067734
2100000000.0 -0.03484247193403526 -0.31172413145272826
2120000000.0 0.275584680313364 0.1290112401430907
2140000000.0 -0.1005517610495132 -0.2818836950165542
2160000000.0 -0.2236048666198049 0.19458077473250318
2180000000.0 0.07183212966410776 0.28010678286862695
2200000000.0 -0.14931077256024974 0.24015020199307557
2220000000.0 -0.2160513036784095 0.18223371873892127
2240000000.0 -0.2034898133330936 -0.18985732494420704
2260000000.0 0.1655924115358346 -0.2135678847665747
2280000000.0 0.26729777559957574 -0.04368943175545286
2300000000.0 0.17079476149643225 0.19391975107653214
2320000000.0 -0.24162601123774455 -0.08679603933303837
2340000000.0 -0.1043997424875934 -0.2333725262586605
2360000000.0 0.21314506264466648 -0.14027891377924454
2380000000.0 0.08381533376665948 0.24307105385192035
2400000000.0 0.1496804305677263 0.23445653196174093
2420000000.0 0.043422497776947476 -0.29265613501558724
2440000000.0 -0.20031510758321533 0.2456158518461595
2460000000.0 0.3334115459099467 -0.055142710951080566
2480000000.0 0.11477082489958611 -0.35212354918637745
2500000000.0 0.15460743860618012 0.37566168092707436
2520000000.0 -0.40845033568260725 -0.17388794201790614
2540000000.0 0.46034551274441976 -0.1319872346861602
2560000000.0 -0.28301828660837947 0.42517561797901304
2580000000.0 0.20294213855999393 -0.5002826124114871
2600000000.0 -0.0571357087335526 0.563288571258066
2620000000.0 -0.0812818745968218 -0.5837207317785248
2640000000.0 0.2831524939838935 0.5356085935989556
2660000000.0 -0.5740722618235948 -0.23994884619389564
2680000000.0 0.36336902364407475 -0.5157953280428935
2700000000.0 0.6049412250886056 0.21096174634477957
2720000000.0 0.41701724887511943 0.49172823940127586
2740000000.0 0.35160173949088985 0.5417904838851824
2760000000.0 0.2681433298309186 0.5876703792017184
2780000000.0 -0.6340573751226362 -0.0848537438478266
2800000000.0 -0.48207738747661183 -0.40577840912277724
2820000000.0 0.12443174268197497 -0.6043245550323596
2840000000.0 0.46631335124258677 0.380693232114522
2860000000.0 -0.5029863094888748 -0.3036720229129017
2880000000.0 0.18642510483604108 0.538430254240608
2900000000.0 0.45065904351417324 -0.3142390716260711
2920000000.0 -0.02946454549579547 -0.5268352447056786
2940000000.0 -0.36146456354400547 -0.34945875754746386
2960000000.0 -0.22455028584103762 -0.42231821785856405
2980000000.0 -0.28163679947259573 -0.35919246462797055
3000000000.0 -0.33807305974695256 -0.2774577367654101
3020000000.0 -0.33363428315902455 0.2542671843916614
3040000000.0 0.10363718793080232 0.3849246648274479
3060000000.0 0.32343782890997735 -0.1993612051769072
3080000000.0 -0.36392673218740296 -0.04023740286289746
3100000000.0 0.3166545108160755 0.15198604328969487
3120000000.0 0.2334788225213302 -0.25471957312403176
3140000000.0 -0.1363211113135171 0.31206225393360504
3160000000.0 0.08561919798818059 -0.32802606773052884
3180000000.0 0.0372747955219369 0.3333282473189246
3200000000.0 0.29986437272338895 -0.1365348768211074
3220000000.0 -0.15464961094326396 -0.28530119408422555
3240000000.0 -0.2917498054589366 -0.12196702907647197
3260000000.0 -0.28497774996929054 0.10571197083669183
3280000000.0 -0.2927695574387533 -0.01820837449292788
3300000000.0 -0.2762750128177495 -0.018436556711446596
3320000000.0 -0.19344777994672024 -0.16202177607260512
3340000000.0 0.2271674600616685 -0.027255207918936764
3360000000.0 -0.16456970988761505 0.12204996323806838
3380000000.0 0.05719973706101729 -0.17767581626692758
3400000000.0 0.16371454481817124 0.03470154568208573
3420000000.0 0.14171049600914867 0.02481585596066815
3440000000.0 -0.04713258798341645 0.11535529056743157
3460000000.0 0.02936683991110272 0.10299718339194529
3480000000.0 0.07846662432350295 -0.04137274142678831
3500000000.0 -0.022184110405861292 0.07836536363056508
3520000000.0 -0.06887034307965094 0.03988680615797894
3540000000.0 0.07637115553125819 0.01692828520443354
3560000000.0 0.051237301181049376 0.07072528873675094
3580000000.0 -0.08725072070946673 -0.03590100361546407
3600000000.0 -0.06599316377857078 0.07607388507610616
3620000000.0 0.09914432539553074 -0.04834125573584426
3640000000.0 0.023674647938827956 0.12117426896794807
3660000000.0 -0.06248137007443098 0.11858442077737366
3680000000.0 -0.005539812623682597 0.1396290765463137
3700000000.0 -0.1306333797132058 0.02004403496545014
3720000000.0 0.10012621041832624 -0.06508243402694276
3740000000.0 -0.09344950643262866 -0.03880803952064259
3760000000.0 -0.0834787462600469 -0.008282248778348928
3780000000.0 -0.03682887969744066 0.05286315043135422
3800000000.0 -0.019417502543763007 -0.030073027700966065
3820000000.0 0.002420239371911829 -0.003243129141435017
3840000000.0 -0.026456897505686045 0.019913636166887513
3860000000.0 0.05381254842512366 -0.03389959752978096
3880000000.0 0.07790101904542077 -0.04911281482329703
3900000000.0 -0.08389693224813043 0.07095959770744706
3920000000.0 -0.04563574661614564 0.1179337487178631
3940000000.0 0.06111183443307478 0.11999660481082913
3960000000.0 0.019522657594836894 0.13796477640062182
3980000000.0 0.0597184088148191 -0.12182161834872839
4000000000.0 -0.02065261928758904 -0.11322054448960565
