!Created with skrf (http://scikit-rf.org).
# Hz S RI R 50.0 
!freq ReS11 ImS11
400000000.0 0.7810753554944236 0.3855230465848468
420000000.0 0.23335568291239595 0.7826196066233432
440000000.0 0.42935084755219394 0.6279963710571119
460000000.0 -0.5428849285035107 -0.4196253259161151
480000000.0 -0.04786536963708348 -0.6166230834522858
500000000.0 0.6499082167574342 -0.07857130976632229
520000000.0 -0.1616120352666977 0.6521501561618268
540000000.0 0.6162017193316657 -0.2760440963563989
560000000.0 -0.27155291950335514 0.6092407152081624
580000000.0 -0.4480963059798066 0.2679318490056185
600000000.0 -0.023317757747907866 0.5948587836620537
620000000.0 -0.4805119007410378 -0.37810749967303997
640000000.0 -0.44190681321822617 -0.3555572256602951
660000000.0 0.33702994493268323 0.4097337568311741
680000000.0 -0.04767729753042734 0.48085944403802994
700000000.0 0.3333511589160702 0.3118526009217254
720000000.0 -0.38568833052271073 0.30418045179892894
740000000.0 0.4483525221811601 0.15918749595879406
760000000.0 0.21108058088325624 0.3971152322553903
780000000.0 -0.4091662589443826 -0.11780284013937753
800000000.0 0.14538463456703765 -0.3701016005785689
820000000.0 0.1743730845211303 0.3044093239660576
840000000.0 -0.018485382101896687 0.3278333772506781
860000000.0 -0.14231487282647332 -0.2645534136260441
880000000.0 0.25780561895399273 0.04968948516626247
900000000.0 -0.24508850724378592 0.10733724499004013
920000000.0 0.11835602465025456 0.2296062676802555
940000000.0 0.1942102616696547 0.12821492972698514
960000000.0 -0.16281549441962775 0.07603275565059844
980000000.0 -0.09387730679015496 0.10471194581560002
1000000000.0 -0.031192312076140146 0.1273313513844947
1020000000.0 -0.06169028201178439 -0.07779453322113222
1040000000.0 -0.03889844263153672 -0.10387056846249915
1060000000.0 0.14865261924564965 -0.008476605042958704
1080000000.0 0.18758203531012207 -0.05085535145179015
1100000000.0 0.17564355281853283 0.15369674843844824
1120000000.0 0.25181359074256504 0.12138607545850075
1140000000.0 -0.29240059211707314 0.07739025687935323
1160000000.0 -0.2840470960964022 0.13332576961039388
1180000000.0 -0.2972083250376776 -0.16280282819313896
1200000000.0 -0.35049140798253003 -0.03202074466841463
1220000000.0 0.3384771571898806 0.1072205958260505
1240000000.0 0.19493198495211572 0.32325050875468525
1260000000.0 0.3145885373241985 -0.23497306570554502
1280000000.0 -0.3639090686375765 -0.1154299619156756
1300000000.0 0.0734985695578891 -0.3735725699882046
1320000000.0 -0.036135772612808204 -0.3815344192087001
1340000000.0 -0.3247432165866161 0.1744654585722742
1360000000.0 0.19029559410065278 0.33732266940356526
1380000000.0 -0.2883752786155575 0.2785513197025333
1400000000.0 0.014263669757627022 -0.39680362904561195
1420000000.0 -0.029803648337642753 -0.39102909670100355
1440000000.0 -0.2548664697725581 -0.3036430911312817
1460000000.0 -0.3935802918960849 -0.027647855309500233
1480000000.0 -0.29704892645772074 -0.2617509499053088
1500000000.0 0.24121071930934274 0.3221482824684202
1520000000.0 -0.3803566272261627 0.06364783804520846
1540000000.0 0.3580385415868759 0.04782090224136702
1560000000.0 -0.01960955057282673 0.33123309419487185
1580000000.0 -0.17671301306696138 -0.23261387016363508
1600000000.0 0.15849913937793148 -0.20272927417017458
1620000000.0 0.1895208287041072 -0.10829762312587027
1640000000.0 -0.10097877648621216 0.15463329713515145
1660000000.0 -0.09591156630276858 0.11902163159051643
1680000000.0 0.08005820282141071 -0.08060183669725395
1700000000.0 -0.09840440797309145 0.03322547745636429
1720000000.0 0.07424263788882844 -0.026986257991856773
1740000000.0 0.06041707263507654 0.052172497893675854
1760000000.0 -0.06193248823050988 -0.0640243209649155
1780000000.0 0.09728595169441778 -0.06448155932532426
1800000000.0 0.13824276402293847 -0.012597885268843147
1820000000.0 -0.16914394273140768 -0.0005670663551663373
1840000000.0 0.159191422925223 -0.11511127924615085
1860000000.0 -0.22150236649437602 -0.019481009115120025
1880000000.0 -0.04116695674411353 0.2513347526708024
1900000000.0 0.07163692976374383 0.26409440132879314
1920000000.0 0.24420205897793004 -0.16929614309794622
1940000000.0 -0.2993026828417947 0.05491526914726171
1960000000.0 0.29511205546909036 -0.08286571292057182
1980000000.0 -0.24760185263660814 -0.196515170086155
2000000000.0 -0.049422816239650946 -0.3187039519451331
2020000000.0 0.3029552810946148 -0.09983494988453644
2040000000.0 0.28139679648505755 0.15686601292799374
2060000000.0 0.3182625036836292 0.02399040493216104
2080000000.0 0.16775482560869198 0.2674984368790723
2100000000.0 0.18390787105272813 -0.2535609554466163
2120000000.0 0.26399040689230485 0.15665629236564463
2140000000.0 -0.05903859949471688 -0.2921684595644697
2160000000.0 -0.26432998702812355 0.13346172005663748
2180000000.0 -0.05340457805780421 0.28383927715443613
2200000000.0 -0.11144118739334988 0.2606476438716316
2220000000.0 -0.17886165988056574 0.2187026987849683
2240000000.0 -0.22810323321071324 -0.15550021407039594
2260000000.0 0.11249135514191214 -0.24631644976143277
2280000000.0 0.2692750064898386 0.041353424783461185
2300000000.0 0.22783072387090472 0.12390072577425879
2320000000.0 -0.2500056662144931 -0.0591691859188134
2340000000.0 -0.10499292805145914 -0.23189850987771207
2360000000.0 0.2526543314306031 -0.032372107883117944
2380000000.0 0.1386313601125262 0.21958830893158415
2400000000.0 0.2036940206850048 0.19113211592854487
2420000000.0 0.13011096301431763 -0.2664068375208797
2440000000.0 -0.176207369423469 0.263749764687633
2460000000.0 0.3318959023391373 0.055681735721562584
2480000000.0 0.21971033179833124 -0.3008021203527682
2500000000.0 0.1536126999713132 0.3777898339750904
2520000000.0 -0.4192676309916998 -0.14492694991702104
2540000000.0 0.47265433713583654 -0.06293024616214778
2560000000.0 -0.35078441793057835 0.37179750822213287
2580000000.0 0.1422166841843624 -0.5210309554272591
2600000000.0 -0.02915011672454595 0.5653745022781438
2620000000.0 -0.09614490635482295 -0.5819232385771248
2640000000.0 0.2797198009929394 0.5386701429229266
2660000000.0 -0.5747770072359671 -0.2393572124548345
2680000000.0 0.3776451861882889 -0.507475069243935
2700000000.0 0.6015785953608351 0.2235577497748627
2720000000.0 0.3634288014018142 0.5343839115481583
2740000000.0 0.2934346376701888 0.5765771037620762
2760000000.0 0.18443033203504347 0.6196469083815306
2780000000.0 -0.6012038446391067 -0.21794928440785924
2800000000.0 -0.44849624204682126 -0.4412842579892255
2820000000.0 0.139924632639541 -0.6000216330215229
2840000000.0 0.4223829921501507 0.4289556484585486
2860000000.0 -0.5288198346075409 -0.2548686941024875
2880000000.0 0.23729506457937954 0.5168550882634675
2900000000.0 0.46457259259846073 -0.2923392897029808
2920000000.0 -0.003369573841481233 -0.5288336422652423
2940000000.0 -0.38229683058476727 -0.32677002268205513
2960000000.0 -0.217113660682949 -0.42530978603357167
2980000000.0 -0.2248010143735613 -0.40025067141217163
3000000000.0 -0.37029333684373766 -0.2320120829895757
3020000000.0 -0.40807690200363445 0.09879430076258543
3040000000.0 0.02793592715486307 0.39939199622747523
3060000000.0 0.36589463905214753 -0.0997819772213274
3080000000.0 -0.3439154177925423 -0.12755611657113566
3100000000.0 0.3363486752289615 0.10069012662038662
3120000000.0 0.2995136700701409 -0.17127618716531853
3140000000.0 -0.19769124926503834 0.2759040683852705
3160000000.0 0.09915259900862304 -0.32351787587990033
3180000000.0 0.10445322001205007 0.31861218627236815
3200000000.0 0.32334130889797164 -0.060362387726974394
3220000000.0 -0.19936653080931044 -0.25609611641031227
3240000000.0 -0.2804945168201146 -0.14677107165005013
3260000000.0 -0.28802002617899886 0.10239952792617335
3280000000.0 -0.2919667300498421 0.019467409719004364
3300000000.0 -0.26558328186394486 -0.07576148990659384
3320000000.0 -0.14041781532431885 -0.2118505298113952
3340000000.0 0.2270561933962911 0.027164464695022705
3360000000.0 -0.18330432639421268 0.0962076717752424
3380000000.0 0.12492868366307146 -0.13952512579399345
3400000000.0 0.13208256037779115 0.10179892388034728
3420000000.0 0.10938781831777478 0.09245557237459613
3440000000.0 -0.08230047497614118 0.09454175650520619
3460000000.0 0.0305678025537225 0.10195400069809658
3480000000.0 0.07505271388812504 -0.04585403607284008
3500000000.0 -0.04032823029648768 0.06948848911362845
3520000000.0 -0.03513363501520899 -0.06922125506032353
3540000000.0 0.026343357590377356 -0.0747282487815626
3560000000.0 0.06383255296469542 -0.05905156119025939
3580000000.0 -0.09361110117183544 0.0010202959886061987
3600000000.0 -0.0985359368043797 -0.003938115604661912
3620000000.0 0.07195455981287267 -0.0850351148323433
3640000000.0 0.0961413971352133 0.07805899064965034
3660000000.0 -0.04176037704387084 0.12810053414626513
3680000000.0 -0.005387015036634456 0.1394729893984279
3700000000.0 -0.11374550307635461 -0.0672269088306535
3720000000.0 0.11220022244914352 -0.036734818410449246
3740000000.0 -0.06689648901632855 -0.07427047046481472
3760000000.0 -0.005545785491957091 -0.0826197722717335
3780000000.0 -0.05515448757039373 0.03258339372174849
3800000000.0 -0.031753163266465566 0.012310647947968588
3820000000.0 -0.0008068136807870866 -0.0002740962374018062
3840000000.0 -0.035077743058703224 0.00311179726418293
3860000000.0 0.002914635368310562 -0.06303666815650164
3880000000.0 0.09099818988128627 0.00887722838535698
3900000000.0 -0.11065073178502725 -0.01751961992344519
3920000000.0 -0.10498836692650991 0.0676930122792578
3940000000.0 -0.07416529190558556 0.11280880103283865
3960000000.0 -0.08557244035291837 0.10937709196872451
3980000000.0 0.09646060705669682 -0.09278730599990635
4000000000.0 -0.060581010286813564 -0.0953316438699785
