!Created with skrf (http://scikit-rf.org).
# Hz S RI R 50.0 
!freq ReS11 ImS11
400000000.0 0.7982084914852523 0.3497456602780985
420000000.0 0.31969233268278296 0.7520844574334025
440000000.0 0.38128158501620146 0.6567722874923376
460000000.0 -0.5204831328437125 -0.45157048933357036
480000000.0 -0.1322734419749275 -0.6047180979282519
500000000.0 0.6201604865851236 -0.21713144105738147
520000000.0 -0.23329997780471906 0.6256208373203663
540000000.0 0.6739602963440973 -0.01949414392360396
560000000.0 -0.5409998306491122 0.3976374619625229
580000000.0 0.023183657536908646 0.5270367364579477
600000000.0 0.10862767586041894 0.5796306536548721
620000000.0 -0.33378035655835503 -0.5107127964662898
640000000.0 -0.4021780516798574 -0.40672845599209967
660000000.0 0.1956083298411373 0.4853849708989926
680000000.0 0.029017800358770045 0.4968931579538962
700000000.0 0.43092836341745744 0.1176329585816893
720000000.0 -0.3209841445844614 0.37080383436819636
740000000.0 0.44096600977121364 0.1698365986450807
760000000.0 0.03857565234987652 0.4469840039259514
780000000.0 -0.41768953935930536 -0.09959240052659926
800000000.0 0.3130654531225473 -0.24842907348380758
820000000.0 0.29942882493855355 -0.18731444784202803
840000000.0 0.015438846635972774 0.32239927990141803
860000000.0 0.2942768271159667 0.03816182910668446
880000000.0 0.09584171567084088 0.2543363220597737
900000000.0 0.045759632448631786 0.2681152799749918
920000000.0 0.19928007403408315 -0.16536631763046103
940000000.0 -0.010507939500382453 0.22237767045110748
960000000.0 -0.1690124522571539 0.06369765537724771
980000000.0 -0.055627604057016805 -0.13326575739734098
1000000000.0 0.11146924197958237 0.06952687877523736
1020000000.0 -0.06622132901586829 -0.07319404435214513
1040000000.0 -0.10721445504562314 0.041958076782154775
1060000000.0 0.08267818969336357 -0.11709251313397669
1080000000.0 0.19427621985338717 0.03416814074832003
1100000000.0 0.19873332688466605 0.12679484894257922
1120000000.0 0.2782780268119723 0.010075753201597678
1140000000.0 -0.3015758780145419 -0.01349925068804199
1160000000.0 -0.29977073734091947 0.11107756569646408
1180000000.0 -0.3353458573745758 -0.03135524869729845
1200000000.0 -0.32352511291167074 -0.13799651362085594
1220000000.0 0.33624465932113123 0.11412289709897429
1240000000.0 0.155518259152507 0.34471891922755826
1260000000.0 0.3209806007827443 -0.22581536872343877
1280000000.0 -0.3780596695122172 -0.06872829218440002
1300000000.0 -0.039344208098603534 -0.37693935967414
1320000000.0 -0.05792177266746716 -0.37723177157341126
1340000000.0 -0.3645507951170598 0.06525356981517218
1360000000.0 0.20918367581854877 0.3274326915510846
1380000000.0 -0.1876890024385436 0.3541094003084416
1400000000.0 -0.009200731835179039 -0.39645917797312713
1420000000.0 0.050285412223984215 -0.38915582665475906
1440000000.0 -0.2043175171145267 -0.33827883284847626
1460000000.0 -0.3953266093213466 -0.029061137887671937
1480000000.0 -0.27105735900265693 -0.29107772155579603
1500000000.0 0.11530331332207386 0.38086553042681465
1520000000.0 -0.3824521479950464 -0.06054997500145119
1540000000.0 0.3613632990750395 -0.026259303069276596
1560000000.0 -0.10699963024819159 0.3092127046288593
1580000000.0 -0.14500514990058777 -0.25370574724553857
1600000000.0 0.04172306143749139 -0.25485524326309106
1620000000.0 0.17553315995770769 -0.12755055008054134
1640000000.0 -0.12178533738160117 0.13830714396036597
1660000000.0 -0.14136669198303747 0.06357404801656565
1680000000.0 0.09930613777770471 -0.05421094538720431
1700000000.0 -0.09406880394232647 -0.042872733515104754
1720000000.0 0.043539545650403126 -0.06585779416563159
1740000000.0 0.05178918251017872 0.0608293117402208
1760000000.0 -0.046776171581914223 -0.07741061583045104
1780000000.0 0.11508226694880162 0.01364317148707657
1800000000.0 0.10570837614833585 -0.09288284157110409
1820000000.0 -0.15905571077716435 -0.05364651915121721
1840000000.0 0.19088533896508011 -0.041676393419855844
1860000000.0 -0.20948146209450313 0.07007507129142251
1880000000.0 -0.12613996385364185 0.2216565052354352
1900000000.0 -0.037858467988053805 0.27130730767068906
1920000000.0 0.12122473339254175 -0.26747264517775676
1940000000.0 -0.3028800102188534 -0.020669010469461433
1960000000.0 0.30185359069497636 -0.06236690886744313
1980000000.0 -0.3108272003117044 -0.044265629892952005
2000000000.0 0.057886627653713774 -0.3151774954512317
2020000000.0 0.31835227391203463 -0.04733589013196975
2040000000.0 0.32248533267768337 -0.010925015233970227
2060000000.0 0.3004754095012525 0.10141754281090892
2080000000.0 0.03366664315153532 0.31479947015385606
2100000000.0 0.12795422958371525 -0.28749318073151636
2120000000.0 0.2472162724435407 0.1795151103800799
2140000000.0 -0.012860880806601459 -0.2988736725593565
2160000000.0 -0.2756969415867323 0.10597972439132276
2180000000.0 -0.05857753423015439 0.28220278035728685
2200000000.0 -0.145317528691851 0.24215893243036363
2220000000.0 -0.21042293546116006 0.1867925023872422
2240000000.0 -0.23145026544316738 -0.15219516430087193
2260000000.0 0.08005310871700054 -0.2574672826057064
2280000000.0 0.2704281134305333 0.02303096485797783
2300000000.0 0.2195261929777161 0.1417206558624457
2320000000.0 -0.24646661681166743 0.07043740072945283
2340000000.0 -0.12084185757082615 -0.22435436096841674
2360000000.0 0.2536288419626095 -0.03430357538412075
2380000000.0 0.0687524472677249 0.25131846401166286
2400000000.0 0.18268270425939725 0.21303069026741414
2420000000.0 0.15604887557616862 -0.2526465214591773
2440000000.0 -0.2542983492246425 0.18922566831839902
2460000000.0 0.3273888546375607 0.08291179612949842
2480000000.0 0.20846006167287567 -0.3085898064944112
2500000000.0 0.0439711785336259 0.4044634863402599
2520000000.0 -0.3897839009701575 -0.211090195949096
2540000000.0 0.46723285696270117 -0.09507531216032572
2560000000.0 -0.3623001485015474 0.3593350682801922
2580000000.0 0.19311040792174491 -0.5049329554925969
2600000000.0 -0.03175311605618179 0.5665107035195562
2620000000.0 -0.1579110584557895 -0.5676788986553031
2640000000.0 0.2833181369954367 0.536604639224224
2660000000.0 -0.574682058782905 -0.24162011158298558
2680000000.0 0.43669772566519877 -0.4589849569002968
2700000000.0 0.6191921772699115 0.16827223552611656
2720000000.0 0.24132750965059088 0.5995713690665992
2740000000.0 0.1690417553404487 0.625269338316468
2760000000.0 0.05914913593058808 0.6437871775611299
2780000000.0 -0.5961761484028326 -0.23079043686730458
2800000000.0 -0.42974581939386725 -0.4598418699601162
2820000000.0 0.1751133238523161 -0.5913434559526415
2840000000.0 0.4285081142539171 0.42215307026554594
2860000000.0 -0.4725037748983648 -0.3482005293694083
2880000000.0 0.21555464999864807 0.5269746613136749
2900000000.0 0.42266823634435824 -0.34990614661737424
2920000000.0 0.014600606536502922 -0.5267237716682375
2940000000.0 -0.3444918722376069 -0.36782465495835914
2960000000.0 -0.2335006847855956 -0.4181753153510375
2980000000.0 -0.32931167475971446 -0.31754286550874206
3000000000.0 -0.33339631194838376 -0.28463852489424407
3020000000.0 -0.41104392809643026 0.09321246191011236
3040000000.0 0.02250528791888163 0.39993954020855443
3060000000.0 0.3713732674425634 -0.08273747498750748
3080000000.0 -0.3304150059813138 -0.1570847558759894
3100000000.0 0.31394783644619273 0.1572652834651145
3120000000.0 0.32281379475891553 -0.12027587339899036
3140000000.0 -0.229200312618411 0.25265069997819767
3160000000.0 0.10403835087716906 -0.32014976783745414
3180000000.0 0.04066479226216363 0.33187187586066835
3200000000.0 0.3215607988032492 -0.0689092582336566
3220000000.0 -0.22331012921432128 -0.23551322187022905
3240000000.0 -0.31367600208694074 -0.03460719279367872
3260000000.0 -0.2846156195120533 0.10811323227256642
3280000000.0 -0.2940336239716489 -0.01979503726683815
3300000000.0 -0.27676374927709424 -0.02225971902294442
3320000000.0 -0.17995237062836203 -0.17905661415139665
3340000000.0 0.21867118842205388 0.06809693929419627
3360000000.0 -0.18986903286716683 0.08405014083926508
3380000000.0 0.13411055207089043 -0.13343553567369273
3400000000.0 0.14326425239952612 0.08632389697949172
3420000000.0 0.028557925027675485 0.1395489703581677
3440000000.0 -0.11130726912998681 0.05947563547391733
3460000000.0 -0.03382971686335855 0.10059813344441149
3480000000.0 0.08666403305705213 -0.011440826635010731
3500000000.0 -0.03585635768585031 0.0708074915639985
3520000000.0 -0.002775719383228207 -0.07745266166238164
3540000000.0 0.016811038189367404 -0.076464910502422
3560000000.0 0.06875223791901024 -0.053915591514957305
3580000000.0 -0.0880631384487408 0.03240597366515531
3600000000.0 -0.07004881498801337 0.06978128265034918
3620000000.0 0.09469651599906473 -0.05849960604653871
3640000000.0 0.09351167388240922 0.08389222668014924
3660000000.0 -0.0316443119921757 0.13179121905956945
3680000000.0 -0.025224810340238334 0.13820610764593255
3700000000.0 -0.06260601654642817 -0.11644187532100489
3720000000.0 0.11226107785596932 -0.03799447726545457
3740000000.0 -0.02878458276502151 -0.09609745638581753
3760000000.0 0.029152189920851536 -0.07742248376533978
3780000000.0 -0.06148978941376624 0.016343961543630825
3800000000.0 0.021960468151968306 -0.026063156605499776
3820000000.0 0.0013797371371325991 -0.0005553886412073067
3840000000.0 -0.026229707844539003 -0.02444724945395408
3860000000.0 0.008873495663720086 -0.06452273451563913
3880000000.0 0.08681195599973157 -0.028949002879356405
3900000000.0 -0.0938136123870663 -0.05964589252697109
3920000000.0 -0.12422557583303827 0.021941807428283295
3940000000.0 -0.09609360523044483 0.09532960872678524
3960000000.0 -0.1076774302459196 0.08763508815500236
3980000000.0 0.05688772551744559 -0.1199028813823423
4000000000.0 0.08239094052837473 -0.07558052245950374
