!Created with skrf (http://scikit-rf.org).
# Hz S RI R 50.0 
!freq ReS11 ImS11
400000000.0 0.787293177512905 0.3720065914409581
420000000.0 0.2958923843064447 0.7611485029008596
440000000.0 0.4361566706127745 0.6230838176321555
460000000.0 -0.5311333379777005 -0.434221103707261
480000000.0 -0.010338471767072926 -0.6179604854554107
500000000.0 0.6498296577330055 -0.07597816215560974
520000000.0 -0.13509247885451825 0.6578129010689798
540000000.0 0.6247244335567201 -0.25526101132967427
560000000.0 -0.23555298602105168 0.6235425097977366
580000000.0 -0.4824190882064386 0.1986592929507517
600000000.0 0.0585728631055757 0.593409196046669
620000000.0 -0.3815579796810792 -0.4787816305427024
640000000.0 -0.42554204130612855 -0.372726503627495
660000000.0 0.3955464167654605 0.35171822389958074
680000000.0 -0.053516921978342284 0.4811812476638217
700000000.0 0.24585363703873966 0.38513394100517706
720000000.0 -0.34418255590516805 0.3493942770735988
740000000.0 0.4560137889197514 0.14026454565982596
760000000.0 0.24259128117443463 0.3768787199386767
780000000.0 -0.41027538066404584 -0.11714070119819113
800000000.0 0.16818232547561796 -0.3620084184794704
820000000.0 0.1709049220641443 0.30536483386309987
840000000.0 0.10439122820615908 0.3115304374699972
860000000.0 -0.0517744421280907 -0.2966444364550233
880000000.0 0.2639123485573314 -0.015775611888493114
900000000.0 -0.1283901528226198 0.2345019625784161
920000000.0 0.022892635505451297 0.25842260950143703
940000000.0 0.16636349768904343 0.15948142586299613
960000000.0 0.0020628644333763944 0.18146354193469585
980000000.0 0.0006882277753395551 0.14111261632724809
1000000000.0 -0.008469925051388931 0.12887831459888496
1020000000.0 0.015017555246861528 -0.10074694462862849
1040000000.0 -0.04953485087805182 -0.10102007886286823
1060000000.0 0.14637824816631312 0.021834776403556858
1080000000.0 0.16462865018588252 -0.09949963354576845
1100000000.0 0.08398121905123146 0.21902993739192514
1120000000.0 0.274338137449176 0.051874054423785385
1140000000.0 -0.263144674854933 0.15120573472590948
1160000000.0 -0.27703510121394853 0.14525014941065179
1180000000.0 -0.24827245470474438 -0.22988477969932944
1200000000.0 -0.35296160073730853 -0.00893923115244227
1220000000.0 0.33920132864737923 0.10980421022560857
1240000000.0 0.16905044101734484 0.33675526048557325
1260000000.0 0.2992515513969987 -0.2549088663932159
1280000000.0 -0.3589047246436331 -0.13096219953919042
1300000000.0 0.04863529978854643 -0.3774474540469201
1320000000.0 -0.04669977952469698 -0.3792141412673346
1340000000.0 -0.31636417413989304 0.18854910284925835
1360000000.0 0.1472141969131226 0.3580016577023647
1380000000.0 -0.23191800915653818 0.3255324722930133
1400000000.0 0.010543235661458459 -0.3960126934528902
1420000000.0 0.024104963924683614 -0.3916307170759686
1440000000.0 -0.2788233212406495 -0.27839326880251747
1460000000.0 -0.39226830946370794 -0.04166612119402546
1480000000.0 -0.21414466382788866 -0.3332886357424084
1500000000.0 0.2522767507296477 0.3139200124438747
1520000000.0 -0.37381758300110296 0.08745176977761701
1540000000.0 0.3479134193815798 0.10048927162673822
1560000000.0 -0.06733556497786027 0.3246908742150303
1580000000.0 -0.1976397909054698 -0.21380452430198613
1600000000.0 0.13888284593611905 -0.21602606828932344
1620000000.0 0.2067666037743252 -0.06931836434881407
1640000000.0 -0.10312140884957012 0.1530004596819384
1660000000.0 -0.05685661560249149 0.14156812179580924
1680000000.0 0.10916349527274527 -0.02845085654180234
1700000000.0 -0.10013349408703981 0.021889959387800657
1720000000.0 0.05299303570296064 -0.05832758345270399
1740000000.0 0.0786174254105393 0.017636271269865552
1760000000.0 -0.021158756705750258 -0.08555556269328615
1780000000.0 0.08317606296730856 -0.08051025167672571
1800000000.0 0.11642559404773688 -0.07540467029391977
1820000000.0 -0.16683315999252266 0.028578840443643127
1840000000.0 0.16640513800977905 -0.10238784615374001
1860000000.0 -0.22119466994819387 0.018135298880979443
1880000000.0 0.018404006872229237 0.254163871972129
1900000000.0 0.09007853343381386 0.2587604331805602
1920000000.0 0.23836464112619837 -0.17635692959225052
1940000000.0 -0.2877817054772849 0.09933029451574578
1960000000.0 0.30532629475682543 -0.025355297721157532
1980000000.0 -0.2506148806267159 -0.19157903138366453
2000000000.0 -0.015574609597996404 -0.3216073535306428
2020000000.0 0.31653236033414756 -0.0361386089647199
2040000000.0 0.2908341994182523 0.13786164525609754
2060000000.0 0.3181449540830433 0.014308866997571551
2080000000.0 0.1490752110542531 0.27659128284637063
2100000000.0 0.15676418087740085 -0.27139163840603403
2120000000.0 0.2865840546691456 0.11043493670102714
2140000000.0 -0.15868347221441362 -0.252659299109875
2160000000.0 -0.2823654980782981 0.08583495012908943
2180000000.0 -0.07518291814729282 0.279728455426219
2200000000.0 -0.06502380695102987 0.276736327012743
2220000000.0 -0.17285102059909144 0.22233316465194983
2240000000.0 -0.16927887105250014 -0.2191272906702753
2260000000.0 0.11490534618873387 -0.24641892089225453
2280000000.0 0.2709052735124094 -0.010735197389235262
2300000000.0 0.1998782830829853 0.16602065228207927
2320000000.0 -0.2475715965548542 -0.06642094835318968
2340000000.0 -0.10015100369671132 -0.2344720193726559
2360000000.0 0.25257174713248953 -0.03132459207515711
2380000000.0 0.1355845936510209 0.22161637714944837
2400000000.0 0.2106456028040616 0.182387019350697
2420000000.0 0.13872241200919036 -0.2624121406163998
2440000000.0 -0.2119925368881924 0.23654321345527005
2460000000.0 0.33635768549475487 -0.003888132417865082
2480000000.0 0.22304922794811313 -0.29766091024096775
2500000000.0 0.14377100515665578 0.38230758241160034
2520000000.0 -0.4311818256568789 -0.10694781428230649
2540000000.0 0.4690193400506436 -0.0851571193253882
2560000000.0 -0.3619432393704995 0.36073841626682346
2580000000.0 0.1777232471537265 -0.5107217606728167
2600000000.0 -0.003987316856665805 0.5663232246631434
2620000000.0 -0.10223184660598589 -0.5803454660570341
2640000000.0 0.2597728744568498 0.5482749160582477
2660000000.0 -0.5783724050000856 -0.23027898462815255
2680000000.0 0.33241688255724816 -0.5371696447758408
2700000000.0 0.6084776599427149 0.2033281190257193
2720000000.0 0.3946800372594134 0.5115894566250274
2740000000.0 0.33709804863406967 0.5523477637415106
2760000000.0 0.21734114653845693 0.6088953541883121
2780000000.0 -0.6265234074340874 -0.13005661748382666
2800000000.0 -0.46415942873420807 -0.4250881454754889
2820000000.0 0.10359883959967035 -0.6073183547132097
2840000000.0 0.43131922956581653 0.4201161796823824
2860000000.0 -0.5105724013010251 -0.2894689843758706
2880000000.0 0.2504858569016228 0.5113478825489044
2900000000.0 0.4650206990871031 -0.29104665444401134
2920000000.0 0.020882068907456062 -0.5277891519219717
2940000000.0 -0.3784306364276462 -0.3306483770899522
2960000000.0 -0.17172190604391607 -0.4458414185661679
2980000000.0 -0.312140937005674 -0.3363029290953313
3000000000.0 -0.3706609858433819 -0.23180091779876594
3020000000.0 -0.41348289683240813 0.07034493326870138
3040000000.0 0.05316581626254707 0.39791275596807446
3060000000.0 0.342921880098234 -0.16143524028552783
3080000000.0 -0.34377888573867094 -0.12310896038336736
3100000000.0 0.3114611292478211 0.16342164447266308
3120000000.0 0.27076255299093843 -0.21365090106796567
3140000000.0 -0.14705816019274365 0.306786273495817
3160000000.0 0.10558996175436029 -0.32080461436904917
3180000000.0 0.05997152156850779 0.32989121979350217
3200000000.0 0.31677619244362154 -0.09001002694185238
3220000000.0 -0.18881437727215344 -0.26415538572509717
3240000000.0 -0.2811548081368221 -0.14512628822195767
3260000000.0 -0.29886994861706606 0.06332470532507908
3280000000.0 -0.29155416289969965 -0.031104560433992963
3300000000.0 -0.2715799310621851 -0.04938239413488637
3320000000.0 -0.1706145249019153 -0.18741374421775414
3340000000.0 0.219151465342082 0.062373116138557685
3360000000.0 -0.18403241075939097 0.09439062434593554
3380000000.0 0.07271909270575316 -0.17245926231715003
3400000000.0 0.13227851840617041 0.09958642804115284
3420000000.0 0.12313585077693495 0.07288096342818748
3440000000.0 -0.03291262588945502 0.12104853672190362
3460000000.0 0.01941047148999334 0.10497295975631576
3480000000.0 0.0684853147339324 -0.05585804059013785
3500000000.0 -0.043248671445636724 0.06836824002505879
3520000000.0 -0.018319574170179723 -0.07671839100821883
3540000000.0 0.05245662647147039 -0.05895864883765213
3560000000.0 0.08621972417507624 0.016753666686912277
3580000000.0 -0.08695046949944443 0.03519976346611073
3600000000.0 -0.0913287000703618 -0.03590541999886543
3620000000.0 0.09545941898546262 -0.056923134358429786
3640000000.0 0.04494378274259541 0.11551217887418451
3660000000.0 -0.030298024483566104 0.13143549283583472
3680000000.0 0.008505517154559978 0.13832986400113723
3700000000.0 -0.11110967405803696 -0.07156217556409455
3720000000.0 0.09997262903577035 -0.06228548728764842
3740000000.0 -0.08328220151898083 -0.05424960038786645
3760000000.0 -0.04918138313368927 -0.06717446156709528
3780000000.0 -0.008412548945604415 0.06388406580450953
3800000000.0 -0.025697275095520236 0.023003205818828917
3820000000.0 -0.0006234000098254431 0.001715470617632626
3840000000.0 -0.03278494259697574 0.008260151324043006
3860000000.0 0.03859077888397405 -0.04935288104861272
3880000000.0 0.03548259833446667 -0.08527809821750383
3900000000.0 -0.07470794541251692 0.08171470709807017
3920000000.0 -0.10940859950766228 0.0586027605850478
3940000000.0 -0.050252671075764796 0.12645672980977418
3960000000.0 0.028608582303684855 0.13695681567279602
3980000000.0 0.06818239175691797 -0.11387793869556834
4000000000.0 -0.003587251115010119 -0.11284651227703388
