!Created with skrf (http://scikit-rf.org).
# Hz S RI R 50.0 
!freq ReS11 ImS11
400000000.0 0.7750048963072671 0.3983048671223038
420000000.0 0.27163164873122286 0.7701661989266327
440000000.0 0.44918157455576935 0.6126309401197343
460000000.0 -0.5924767509740624 -0.3488732447276593
480000000.0 -0.16081600126503323 -0.5983572930940935
500000000.0 0.6159619424741724 -0.22391507937222332
520000000.0 -0.401418092363508 0.5350351117541954
540000000.0 0.6798342152883312 0.009976420311918272
560000000.0 -0.19004904108190548 0.6453270145800214
580000000.0 -0.25420603736335284 0.45169719005035175
600000000.0 -0.25402920190052963 0.533531719195297
620000000.0 -0.4151565777383771 -0.4558177195631591
640000000.0 -0.5193017676813219 -0.23342050787631874
660000000.0 0.2213236105687679 0.47433058578139453
680000000.0 0.08966562616917331 0.48821324964855606
700000000.0 0.43810067703007327 0.1086207397207174
720000000.0 -0.22491981692781823 0.4353448246469044
740000000.0 0.2692164956319532 0.38566332387392166
760000000.0 0.04943979916027568 0.44743263816875606
780000000.0 -0.4325583790697041 -0.016980762167536734
800000000.0 0.008118194849695622 -0.3949766979431248
820000000.0 0.14807078079947078 0.3170134726720249
840000000.0 -0.030795844914231704 0.3254057524758104
860000000.0 0.1328596282201044 -0.2670529029869562
880000000.0 0.21082240126556046 0.1742216219052051
900000000.0 -0.20067669242646186 0.17516069229962547
920000000.0 0.2113755486401242 -0.15389769275938092
940000000.0 0.19491059412365877 0.11515344393369585
960000000.0 -0.151604542779422 -0.09096916403238055
980000000.0 0.03570068321448282 -0.14202238814094467
1000000000.0 0.1124010500599781 0.06984389056221098
1020000000.0 -0.07910136968657301 0.06597908040791156
1040000000.0 0.058528348374985 0.09239172844048868
1060000000.0 0.022611850870923884 0.14158755068398787
1080000000.0 0.17527213385941462 0.09021506156703533
1100000000.0 0.07987452032371631 0.22797609514432274
1120000000.0 0.16371998426418616 -0.22432653734450053
1140000000.0 -0.2963943895928179 0.03682944220509713
1160000000.0 -0.2940637390505512 -0.11825179886398475
1180000000.0 -0.32664492738235956 -0.0862349809425763
1200000000.0 -0.3134645886614075 -0.1581875336613259
1220000000.0 0.34580331405253745 -0.0839552042269369
1240000000.0 0.09929087132635761 0.3615694855825838
1260000000.0 0.372053750096378 -0.12871630713055607
1280000000.0 -0.3268527781095229 -0.20529539099181976
1300000000.0 -0.14379105643300055 -0.3513279343110369
1320000000.0 -0.14967774188812905 -0.34916198435404566
1340000000.0 -0.360349847044856 0.07800669980286257
1360000000.0 0.17463195428458264 0.3510815343836108
1380000000.0 -0.12702456497760453 0.3819118305595779
1400000000.0 -0.06397247837304165 -0.3892420599643565
1420000000.0 0.2237361241893435 -0.32309270905348814
1440000000.0 -0.18566096488891962 -0.3503875095833991
1460000000.0 -0.3920661302697827 -0.05561066426605163
1480000000.0 -0.3139057150449134 -0.2373710337242601
1500000000.0 0.061353707647257796 0.39610178184717126
1520000000.0 -0.3819613863107947 0.04774861428769669
1540000000.0 0.3600465425042538 -0.04539175315600932
1560000000.0 -0.11587564052334881 0.30688683805274
1580000000.0 -0.15667036373756144 -0.24676254746744164
1600000000.0 0.007474770441781097 -0.25841250127520976
1620000000.0 0.11525757993832512 -0.18483757107207985
1640000000.0 -0.18396005549062258 0.02172366717466335
1660000000.0 -0.09534857421542471 0.12318374159957013
1680000000.0 0.062461758211289325 -0.09537327637908277
1700000000.0 -0.08281415138822312 -0.05847583531509499
1720000000.0 0.08050340659970437 -0.021438633748174386
1740000000.0 0.07695874592997577 -0.01390535493079074
1760000000.0 0.0076744910722942265 -0.09021201514047408
1780000000.0 0.11648801824288171 0.00495808176014756
1800000000.0 0.1335416088674982 -0.045040889028244824
1820000000.0 -0.164389236724846 0.029966273576579248
1840000000.0 0.1947477771159411 -0.01543379278895771
1860000000.0 -0.2105467889098628 -0.07202226679552444
1880000000.0 0.016765210865195397 0.25363547322150504
1900000000.0 -0.034743228106853645 0.27104607834698585
1920000000.0 0.22256950121513627 -0.1903004090552112
1940000000.0 -0.3014856315344906 0.04204627199166776
1960000000.0 0.2933410344747055 -0.0915316456797331
1980000000.0 -0.3003189736860131 -0.08884198821517035
2000000000.0 0.06579734462512901 -0.3138571224615472
2020000000.0 0.29865749517201207 -0.12133126934915779
2040000000.0 0.3207074001194622 -0.02191165219919907
2060000000.0 0.27466442834432897 0.15981614500338107
2080000000.0 -0.029240290511272395 0.3175908581892501
2100000000.0 0.10972083657331 -0.29515459417811335
2120000000.0 0.16066907393322413 0.2593975003092964
2140000000.0 0.06781095734461152 -0.29285151893144445
2160000000.0 -0.27913214033693534 0.09708630167094795
2180000000.0 -0.15012969816215596 0.2444272183647478
2200000000.0 -0.167536466170126 0.2283938344754405
2220000000.0 -0.18982728368092636 0.2078370288134459
2240000000.0 -0.21483037833390387 -0.1712560710597595
2260000000.0 0.12922569021131985 -0.236537131858498
2280000000.0 0.27137763009711957 0.0104822886357777
2300000000.0 0.25798712598231194 0.04033554818220178
2320000000.0 -0.2443852421340527 0.07318079995410424
2340000000.0 -0.04686453001999089 -0.2514876549733782
2360000000.0 0.22987179784795012 -0.11411469679122792
2380000000.0 0.13054185698860674 0.2254448039094026
2400000000.0 0.1525879864385815 0.23710244741809527
2420000000.0 0.07006706418341743 -0.28947613507477404
2440000000.0 -0.3066673893145224 0.07494137139265979
2460000000.0 0.26176279281227205 0.21683392072064087
2480000000.0 0.19910048408207645 -0.3152246697080224
2500000000.0 0.06156679121684698 0.40132662313612005
2520000000.0 -0.3334793444862272 -0.2917195868813953
2540000000.0 0.4764694195675696 -0.009213787132892429
2560000000.0 -0.32819055798442104 0.3902594664185435
2580000000.0 0.22400467582470043 -0.4912334876623429
2600000000.0 0.010724723010677674 0.5661233186029366
2620000000.0 -0.1486674013757102 -0.5701332426314094
2640000000.0 0.28268092727868993 0.537801612724983
2660000000.0 -0.5706047290575431 -0.2530334356621927
2680000000.0 0.3899595412073167 -0.5003600571187055
2700000000.0 0.5844709477205611 0.2685336151809833
2720000000.0 0.30703643543052395 0.5696760924486486
2740000000.0 0.1574883785631308 0.6287181107042809
2760000000.0 0.07164361363581667 0.6435492699042602
2780000000.0 -0.5919119889755099 -0.2417207069747347
2800000000.0 -0.3653303248694889 -0.5115855747843837
2820000000.0 0.2228548448389189 -0.5745674131133833
2840000000.0 0.43387691208653845 0.416377833555133
2860000000.0 -0.4585565665230461 -0.36600501718323036
2880000000.0 0.2261240508082976 0.5230556493943954
2900000000.0 0.40172836238247633 -0.37490990202396773
2920000000.0 -0.0072077187650178174 -0.5278020584327977
2940000000.0 -0.37114597534014654 -0.3408807999256059
2960000000.0 -0.1963973444551834 -0.43899939110031483
2980000000.0 -0.3307598870966396 -0.31617447906006824
3000000000.0 -0.285264377388075 -0.33517208646716035
3020000000.0 -0.4198276766290685 0.04634353302333259
3040000000.0 0.0011497870689303653 0.4004096675746528
3060000000.0 0.3768618128687117 -0.0563767373819438
3080000000.0 -0.3001407085017475 -0.21016504487328022
3100000000.0 0.2535239718901089 0.242658110260996
3120000000.0 0.2918969794347044 -0.18286193758139835
3140000000.0 -0.2724966066150252 0.2028680838634841
3160000000.0 0.08831457913589988 -0.3259621245748498
3180000000.0 0.05208239103196157 0.3292021800603256
3200000000.0 0.31339707648598825 -0.10066211144930942
3220000000.0 -0.2198583049054037 -0.23821111744197754
3240000000.0 -0.3156106151729816 -0.013473380022838578
3260000000.0 -0.28305813897975657 0.1157227538955643
3280000000.0 -0.2939152663018505 0.02411513007849004
3300000000.0 -0.2780531210672784 -0.014955673888798874
3320000000.0 -0.17845442082447613 -0.18091626002075367
3340000000.0 0.21237937370534915 0.0913928574280372
3360000000.0 -0.18949555514003608 0.08395385561069736
3380000000.0 0.15376486934486838 -0.11108324397629252
3400000000.0 0.10915271892630247 0.1263047690148898
3420000000.0 0.0012278032274010686 0.14355053999577902
3440000000.0 -0.10459686351327495 0.07045473936380921
3460000000.0 -0.08125755344543346 0.06715306609186286
3480000000.0 0.08759693040401814 0.004950331852709818
3500000000.0 -0.06771447559270899 0.04019362454438086
3520000000.0 -0.018427434315751515 -0.07488072456801445
3540000000.0 0.02534669914430049 -0.07304088537702644
3560000000.0 0.05120768857373762 -0.07040490632783176
3580000000.0 -0.054994615864214384 0.07599427435911373
3600000000.0 -0.02270118368584873 0.09564215304418779
3620000000.0 0.08221153167323275 -0.07562901061350051
3640000000.0 0.11958312524732088 0.039735408439261086
3660000000.0 0.00012449130973774718 0.13685336254406927
3680000000.0 0.0025521147704934462 0.1408735652349071
3700000000.0 -0.07084447223510736 -0.1126777017083651
3720000000.0 0.11933355907038136 0.013873795521930889
3740000000.0 -0.05974419559385849 -0.08112643070257067
3760000000.0 0.08001627172371446 -0.024739348408503597
3780000000.0 -0.0570217470426169 -0.027015096453139684
3800000000.0 0.027270335030270224 0.020372230239498784
3820000000.0 0.0002745254784166452 -0.0014639812589180602
3840000000.0 -0.024490197312379263 -0.027449200793751575
3860000000.0 -0.03116696604791418 -0.058414969275290204
3880000000.0 0.07660720115657878 -0.0507583055249396
3900000000.0 -0.07181046227691044 -0.08647712419504251
3920000000.0 -0.12801417415422375 0.008830533798446331
3940000000.0 -0.07621323207375881 0.11262541668468733
3960000000.0 -0.09664645971191062 0.10127425275425954
3980000000.0 0.13402116976380732 -0.0024775840644240305
4000000000.0 0.09403482113475252 -0.06458492003741723
