!Created with skrf (http://scikit-rf.org).
# Hz S RI R 50.0 
!freq ReS11 ImS11
400000000.0 0.8038378242529248 0.33620574644392315
420000000.0 0.23767492919115035 0.7813916579557626
440000000.0 0.48485835534045946 0.585464547570081
460000000.0 -0.5800828800850455 -0.36768893670443026
480000000.0 -0.04304415673592971 -0.6176652477371462
500000000.0 0.5960452398337687 -0.27533740830267395
520000000.0 -0.31606227800876346 0.5886987995238546
540000000.0 0.6774334446587014 0.04721617175257079
560000000.0 -0.09825343005099746 0.6628409024088784
580000000.0 -0.492514163707337 0.15893773560458674
600000000.0 -0.11413621220299346 0.5862140994329478
620000000.0 -0.5211991855673089 -0.3246417607351681
640000000.0 -0.5364100626766616 -0.19084283683302106
660000000.0 0.26477622295703807 0.448317675320397
680000000.0 -0.22487187664072045 0.44187199551511497
700000000.0 0.45188475520074034 -0.008157858746137309
720000000.0 -0.3989212524202402 0.2865856075927196
740000000.0 0.411602613446841 0.23560796932944886
760000000.0 0.028975943593542098 0.4462466606786799
780000000.0 -0.4091075200868386 0.13324151718827615
800000000.0 0.33228460688026806 -0.2098442015954478
820000000.0 0.1610397920562791 0.32043190695900525
840000000.0 0.21727448725387685 0.24228926453368077
860000000.0 0.1255969395007826 -0.2675965174234816
880000000.0 0.1478101325298895 0.22431403204433387
900000000.0 -0.22620849875313756 0.14602285247719232
920000000.0 0.2213957236504279 -0.1416487585342183
940000000.0 0.1711481675421673 0.14098898532444973
960000000.0 -0.1669296553431339 -0.06850431666020251
980000000.0 -0.0012921352109208743 -0.14346967362071394
1000000000.0 0.1010415484904604 0.0858227345455571
1020000000.0 -0.10074265599999228 -0.00830485861642243
1040000000.0 0.09077894687342562 0.06420369377786773
1060000000.0 0.12981422399412343 0.058377261265553024
1080000000.0 0.1193624136759935 0.15651138066223508
1100000000.0 0.06197098361135732 0.2345981932167209
1120000000.0 0.2660839842575219 -0.07871580818043152
1140000000.0 -0.27752926211957374 0.11013782481566417
1160000000.0 -0.26791638255548705 -0.16888339959405976
1180000000.0 -0.3206472447980074 -0.11016682232630379
1200000000.0 -0.3196310392620512 -0.14446741849656142
1220000000.0 0.34999641853191354 0.05726745552676162
1240000000.0 0.19518502296536303 0.3213595006404941
1260000000.0 0.3758475271883523 -0.11766643280509927
1280000000.0 -0.3771192908575645 -0.07373841905615121
1300000000.0 -0.061946471996191334 -0.37433943689108895
1320000000.0 -0.16211647944728858 -0.34609954229879736
1340000000.0 -0.37004490278373475 0.01769240018643364
1360000000.0 0.2119876996449718 0.32704349515988623
1380000000.0 -0.18017324243266178 0.3594564273098213
1400000000.0 -0.05949446909226108 -0.3907592674026609
1420000000.0 0.17208235273827674 -0.3540579069423846
1440000000.0 -0.25235978178393015 -0.3064182292745383
1460000000.0 -0.3548215035433722 -0.17303834090242043
1480000000.0 -0.30656688845348573 -0.24891214840448705
1500000000.0 0.14294060438959863 0.3731494150888648
1520000000.0 -0.383329800474903 0.054478756507546085
1540000000.0 0.3611398947590385 0.012674310436552564
1560000000.0 -0.1972981066869211 0.26189006559042777
1580000000.0 -0.19537887148332722 -0.22010161803974232
1600000000.0 0.012689728762086145 -0.25765192666110304
1620000000.0 0.17294854935971798 -0.13195126312395364
1640000000.0 -0.18212254749811863 0.03415860889439595
1660000000.0 -0.06643048728427854 0.14101012295259138
1680000000.0 0.07759712376951887 -0.08313326391256642
1700000000.0 -0.08252674372055592 -0.059915838648199486
1720000000.0 0.08188240195229124 -0.000214416298576245
1740000000.0 0.07936143097820601 0.00070288339898151
1760000000.0 0.050031754241161866 -0.07407343881965327
1780000000.0 0.0957069405653496 -0.06883932858901617
1800000000.0 0.13179646366505476 -0.0481057013753008
1820000000.0 -0.1662646924072173 -0.017225519377842488
1840000000.0 0.18428271280018374 -0.06708598484354253
1860000000.0 -0.19735781187826296 -0.09958152093196466
1880000000.0 0.0031335487740407277 0.25561334766464544
1900000000.0 0.02134552475199446 0.2722663079323863
1920000000.0 0.2224786631453204 -0.1909337281527751
1940000000.0 -0.30029881690036136 -0.04051026590276492
1960000000.0 0.29896938925982314 -0.07842967208165876
1980000000.0 -0.31235497022681763 0.0037107991805926813
2000000000.0 0.10240341273806855 -0.3038249348344733
2020000000.0 0.29451818503040333 -0.13032576594310774
2040000000.0 0.3211855153252316 0.024261041983054434
2060000000.0 0.2772390154798449 0.15700817356989447
2080000000.0 0.04632071833110379 0.3146907201483874
2100000000.0 0.15001350387540227 -0.27624365807634527
2120000000.0 0.16861885929788442 0.25496167091772787
2140000000.0 0.04471305336721306 -0.2968123152882633
2160000000.0 -0.29475405841346985 0.006972970695856956
2180000000.0 -0.12535966154228642 0.25848150289030125
2200000000.0 -0.1884932246595994 0.21103025623792465
2220000000.0 -0.14983066354764876 0.23638318473545844
2240000000.0 -0.17652519402505815 -0.21050027439711944
2260000000.0 0.14569839089161576 -0.22805402071153802
2280000000.0 0.2611828655464981 -0.07393444541880494
2300000000.0 0.2542750723493059 0.04824236564075819
2320000000.0 -0.25082044076848187 -0.054379221819441444
2340000000.0 -0.18727447954385787 -0.17530971624315422
2360000000.0 0.22556021703373164 -0.11940247496739131
2380000000.0 0.05180899361005078 0.2559815408586027
2400000000.0 0.17310741273961647 0.22331397598308786
2420000000.0 0.15681999473629774 -0.2539832119678627
2440000000.0 -0.29773656683493793 0.10467774466752991
2460000000.0 0.25520095034562335 0.2241079758841777
2480000000.0 0.24388373451839448 -0.28181176752666814
2500000000.0 0.021711579788253152 0.40546237394488954
2520000000.0 -0.3662637695414873 -0.24941654509988337
2540000000.0 0.47469182441529306 -0.032480343959254046
2560000000.0 -0.35749299734918366 0.3635145401271164
2580000000.0 0.1846091611785397 -0.507691732110298
2600000000.0 0.002716473562482086 0.566218660605628
2620000000.0 -0.14104306302598785 -0.5728893948850152
2640000000.0 0.2675209256971992 0.5459154648642873
2660000000.0 -0.5888667432403691 -0.20718749437040768
2680000000.0 0.3807009360818807 -0.5069924198792216
2700000000.0 0.5799370068194433 0.2784271981775838
2720000000.0 0.2841045305011385 0.5817557188242344
2740000000.0 0.17446508192126586 0.6241861136241568
2760000000.0 0.09994613682357605 0.6391069624523397
2780000000.0 -0.563342261866298 -0.3007191634868117
2800000000.0 -0.3702431532967217 -0.5079100056151027
2820000000.0 0.21799368580370085 -0.5759399186615002
2840000000.0 0.4419826893514965 0.40778351072847624
2860000000.0 -0.4751562407604114 -0.3445201907502274
2880000000.0 0.26403758439514424 0.504120293075401
2900000000.0 0.4353546846894645 -0.3341295428416527
2920000000.0 0.02176373817145337 -0.5282851122038522
2940000000.0 -0.3608433922636421 -0.35169102974586114
2960000000.0 -0.2363330908052461 -0.4175693841641359
2980000000.0 -0.2388745942647245 -0.39105309660294907
3000000000.0 -0.3194093782116796 -0.3017955729971862
3020000000.0 -0.42222858446775297 0.0021565555834998024
3040000000.0 -0.11032573880845228 0.38480332408283513
3060000000.0 0.3754817785296647 0.06423747962386588
3080000000.0 -0.32710053730482186 -0.1652700000038909
3100000000.0 0.2518797005265427 0.24316597784645877
3120000000.0 0.316746814475207 -0.13541239006085531
3140000000.0 -0.25073986758100136 0.22980750183065837
3160000000.0 0.1377362896746833 -0.30829740109225207
3180000000.0 0.024578578944214603 0.33313453796765485
3200000000.0 0.30740834683245843 -0.11420336007116798
3220000000.0 -0.13969193351458198 -0.292310539641492
3240000000.0 -0.31692012854825646 -0.005573686731893465
3260000000.0 -0.28824439235966104 0.10103496267696949
3280000000.0 -0.2922823168755644 0.03701689311532031
3300000000.0 -0.2775735513179086 -0.007057091319368328
3320000000.0 -0.15918983734786898 -0.19778894351457194
3340000000.0 0.22727192656989573 0.039838443789375955
3360000000.0 -0.1975862954908184 0.06320264673904663
3380000000.0 0.13109652914239583 -0.13710159708370612
3400000000.0 0.11543877497508279 0.12037029672864419
3420000000.0 -0.02402001861607596 0.14186558395330454
3440000000.0 -0.09238806796034146 0.08683915174731106
3460000000.0 -0.08456754358499577 0.06234469835157824
3480000000.0 0.06764343791396915 0.054136505280104275
3500000000.0 -0.08022544137101686 -0.008383348488379457
3520000000.0 -0.02057689448342059 -0.07361464060557844
3540000000.0 0.0760011848156966 -0.009267391292353861
3560000000.0 0.05394542710170211 -0.06839613190546033
3580000000.0 -0.014670675612559879 0.09177645832739777
3600000000.0 -0.07853853184013541 0.058282939691787904
3620000000.0 0.0383749919304438 -0.10464089101788145
3640000000.0 0.12415397242019341 0.016926629198724927
3660000000.0 0.042686266337839264 0.13029978722338845
3680000000.0 0.04414203038213608 0.1339089963500934
3700000000.0 -0.05978042573231817 -0.11963264434421389
3720000000.0 0.11400403204300626 0.036571420489777184
3740000000.0 0.0009267899052849586 -0.10101478762437045
3760000000.0 0.026216670343112775 -0.0800324629638269
3780000000.0 -0.02581524565623157 -0.0584889334032932
3800000000.0 0.03406897400359348 0.004364955203604918
3820000000.0 0.0020415949343875494 0.0009680246036981619
3840000000.0 -0.02927678556302806 0.021518991791219164
3860000000.0 0.009790373265306195 -0.06431766322108005
3880000000.0 0.09324255612572414 -0.0021903073599435136
3900000000.0 -0.08218456165988569 -0.07835016308711218
3920000000.0 -0.12635374967499888 0.011470241521800397
3940000000.0 -0.12471840183744629 0.05324696640761685
3960000000.0 -0.116153307430098 0.07723520089832513
3980000000.0 0.12475009707934807 -0.05002751009862905
4000000000.0 0.07526219240243669 -0.08399560108580549
