!Created with skrf (http://scikit-rf.org).
# Hz S RI R 50.0 
!freq ReS11 ImS11
400000000.0 0.8007104607133401 0.3439122097842885
420000000.0 0.2440825696919718 0.7795231534582813
440000000.0 0.48427836875744606 0.5862528778405759
460000000.0 -0.5883311219620168 -0.3539574597351545
480000000.0 -0.05559060702571771 -0.6174166856774937
500000000.0 0.6019634473579253 -0.2600730596608879
520000000.0 -0.33653103851947 0.5774969111536817
540000000.0 0.6792634507209271 -0.007675046299914642
560000000.0 -0.011659462549231515 0.6692882087961113
580000000.0 -0.5088189361478404 0.09177196189425449
600000000.0 -0.10174928831366514 0.5887396739870581
620000000.0 -0.5262379976085363 -0.3164656545038697
640000000.0 -0.5376359469599021 -0.19058704270993654
660000000.0 0.31609811946228245 0.4131344678420433
680000000.0 -0.250587546532828 0.42702571716796056
700000000.0 0.45199683070681673 -0.008278395286347807
720000000.0 -0.3871017560893622 0.30102690026365936
740000000.0 0.3927201021037047 0.26524230830707
760000000.0 0.09631338763969277 0.43705294555240043
780000000.0 -0.39728597923901066 0.16646664640390318
800000000.0 0.3075372936252439 -0.24420271779373234
820000000.0 0.11789959211659605 0.3380292687659703
840000000.0 0.17018779069854237 0.27846541674906994
860000000.0 0.059554607145717836 -0.2888066750774059
880000000.0 0.15732182902966713 0.21787287679448572
900000000.0 -0.23205683759939105 0.13809692310892965
920000000.0 0.22908418358648852 -0.12919504980967886
940000000.0 0.1903286457346872 0.11471079930305585
960000000.0 -0.15618381857740846 -0.08942221867363624
980000000.0 -0.006423880439645612 -0.14355372526843385
1000000000.0 0.12957752669342987 0.027919022233711458
1020000000.0 -0.09926478202410544 -0.021967303631723004
1040000000.0 0.043486034233662346 0.10081697930375888
1060000000.0 0.13247126516233113 0.0554130403426192
1080000000.0 0.15934077137417232 0.11398291002237326
1100000000.0 0.06587531302729603 0.2337243942557352
1120000000.0 0.26719842299085406 -0.07480676165430054
1140000000.0 -0.2839747449263471 0.09655844032239706
1160000000.0 -0.29068817330980073 -0.1256925862679769
1180000000.0 -0.30991809641875084 -0.13652779619855204
1200000000.0 -0.3098612903447152 -0.16418333024268233
1220000000.0 0.34874570605292815 0.06447211936337982
1240000000.0 0.21439054716303826 0.3090284152920239
1260000000.0 0.36810965727502143 -0.13934895472839598
1280000000.0 -0.3751035559142552 -0.08477455768684264
1300000000.0 -0.059518224727266505 -0.3748200071392553
1320000000.0 -0.13873647011732385 -0.3553902753572365
1340000000.0 -0.37100467736983317 0.00726995451868005
1360000000.0 0.23992961774991084 0.30678391655945186
1380000000.0 -0.17705555713809212 0.36025229971782446
1400000000.0 -0.024358627547280173 -0.3949699272338448
1420000000.0 0.17221298027772883 -0.3534832897739674
1440000000.0 -0.2287495614711299 -0.3237841313258747
1460000000.0 -0.3609933179069815 -0.1603085501804577
1480000000.0 -0.21525797679306966 -0.33462028408975575
1500000000.0 0.13437610789938123 0.3746021057415095
1520000000.0 -0.3864205425193373 -0.022931040142560692
1540000000.0 0.3610109544745428 -0.026778372005516873
1560000000.0 -0.19835527171791106 0.26073362403354666
1580000000.0 -0.1997818152166613 -0.21526426757070452
1600000000.0 0.027344754864125864 -0.25601894093959804
1620000000.0 0.15151471653330487 -0.15587393753472584
1640000000.0 -0.18403285241536912 0.022689663900766776
1660000000.0 -0.06498009056842227 0.14221154179184373
1680000000.0 0.07970221125586772 -0.08031773399175225
1700000000.0 -0.016044683729538118 -0.10072439738715962
1720000000.0 0.08110732745166356 -0.006750663404917436
1740000000.0 0.06416122817751527 -0.04652079162162994
1760000000.0 0.0713498933622129 -0.05402239144427547
1780000000.0 0.09162504654825164 -0.07399814696982708
1800000000.0 0.14029580236204817 -0.00637380439161651
1820000000.0 -0.16646701677888978 0.01067763115610504
1840000000.0 0.1953624686463586 -0.010842939641309496
1860000000.0 -0.20303055772201026 -0.0869499285976116
1880000000.0 0.010137241431082113 0.25523457112736764
1900000000.0 0.03770892407949464 0.2708378656258371
1920000000.0 0.2144062209033206 -0.1994345051387271
1940000000.0 -0.3039239964328189 -0.014363483195067913
1960000000.0 0.30505044827937045 -0.04595753956518703
1980000000.0 -0.313195562019591 -0.012529829081308064
2000000000.0 0.0866896658593523 -0.3084316263979089
2020000000.0 0.2956444027738441 -0.12754114253979604
2040000000.0 0.32203397038659665 0.0005659798734647306
2060000000.0 0.25702712482473977 0.18684634452032628
2080000000.0 0.06866532297094147 0.3103190031897428
2100000000.0 0.11323651085308098 -0.2930739900017408
2120000000.0 0.217968807509173 0.21380943854638243
2140000000.0 0.03891632677716514 -0.29714130716959786
2160000000.0 -0.28307281110054533 0.08120919256014524
2180000000.0 -0.131289988756247 0.2555790481890014
2200000000.0 -0.1607406359631021 0.23372269670507934
2220000000.0 -0.1544414804802475 0.23386461759172508
2240000000.0 -0.17583151707516986 -0.2100568565047259
2260000000.0 0.15121875641235058 -0.22505924451898077
2280000000.0 0.25807752187618643 -0.08438314125213957
2300000000.0 0.25427439988156414 0.04981769832442611
2320000000.0 -0.253485852023208 -0.04043516653929864
2340000000.0 -0.14603299419437296 -0.21223865558683988
2360000000.0 0.2106880485168809 -0.14345944561810578
2380000000.0 0.023731223298621904 0.25938440617668806
2400000000.0 0.18178701525659066 0.21576740357577237
2420000000.0 0.11352940190752356 -0.276100357723379
2440000000.0 -0.28231592231193064 0.14026257970331812
2460000000.0 0.2838907101371429 0.1863804571750433
2480000000.0 0.2339237034925086 -0.2905094813626059
2500000000.0 -0.010902958939255598 0.4060910410242609
2520000000.0 -0.3576331470149325 -0.26274069395523253
2540000000.0 0.4753491106114738 -0.031258839579041776
2560000000.0 -0.34608278970798717 0.37377003352942245
2580000000.0 0.21979937338564073 -0.49336016848656894
2600000000.0 0.009338544503428713 0.5664184756029821
2620000000.0 -0.16132338578737918 -0.5671131856764109
2640000000.0 0.32008498995863566 0.5165033151998634
2660000000.0 -0.5704339450063941 -0.2530776419078123
2680000000.0 0.3882788253909709 -0.5010336335242072
2700000000.0 0.5828777315537352 0.2717299593081441
2720000000.0 0.2816412440260295 0.5829894816967242
2740000000.0 0.17222377802288558 0.62508282223478
2760000000.0 0.08621195580620829 0.6414581802136414
2780000000.0 -0.589824193989182 -0.24576814541997738
2800000000.0 -0.35889033388645836 -0.5160714106128451
2820000000.0 0.2390775686637578 -0.5674438487609673
2840000000.0 0.4296685896739603 0.42022102645264076
2860000000.0 -0.45883677804039624 -0.3655761644438021
2880000000.0 0.28438407848633096 0.49297538947729935
2900000000.0 0.4317621467608607 -0.33838448813758726
2920000000.0 -0.01566740311252017 -0.5278048306405132
2940000000.0 -0.4094718536458368 -0.29326941626613645
2960000000.0 -0.23830667269985056 -0.41621983937610935
2980000000.0 -0.2633940401249956 -0.37534297471762956
3000000000.0 -0.3367774923266621 -0.2817786367038713
3020000000.0 -0.41991583159310614 0.0445129775503234
3040000000.0 0.03656119325314867 0.3988250631202076
3060000000.0 0.3803424042217097 -0.01936628162452207
3080000000.0 -0.29830979610435737 -0.21218015326289563
3100000000.0 0.2518594864191034 0.2446137202578639
3120000000.0 0.3103555530363278 -0.1495975601290752
3140000000.0 -0.23713161443048586 0.24255962076087736
3160000000.0 0.18025700280550122 -0.28473595244710276
3180000000.0 0.07064532944133999 0.32697089293286874
3200000000.0 0.3024911239750467 -0.12718628709067464
3220000000.0 -0.1808351734654345 -0.26927280656087216
3240000000.0 -0.31379654456910316 -0.04210638250365623
3260000000.0 -0.2810230145252675 0.12016197340519887
3280000000.0 -0.2948143371853689 0.020651827495453922
3300000000.0 -0.2779782586234071 -0.00023275315170029237
3320000000.0 -0.1540441589961939 -0.20267469647924297
3340000000.0 0.22494531584661634 0.04481167291300256
3360000000.0 -0.20544510153873366 0.03458541077892445
3380000000.0 0.10301378209669383 -0.15952791341358957
3400000000.0 0.11296132697948229 0.12202427509587992
3420000000.0 -0.0038009374838851484 0.14334544812815236
3440000000.0 -0.10106132447276885 0.07556495192638255
3460000000.0 -0.0923206906048508 0.052561362288464204
3480000000.0 0.08677875569917771 0.004239861627357176
3500000000.0 -0.07891831411316354 -0.011823748281446436
3520000000.0 -0.053897060551420656 -0.05455874690314283
3540000000.0 0.07227849544626166 -0.026292132837886784
3560000000.0 0.05753312408073882 -0.06547850276927568
3580000000.0 -0.042166832358263504 0.0842240926512908
3600000000.0 -0.05808786269546106 0.07829535470554745
3620000000.0 0.0777553026354009 -0.07983217655233972
3640000000.0 0.11982400772120276 0.03838878996852761
3660000000.0 -0.04492873419731764 0.12902355982793354
3680000000.0 0.06124438959586552 0.12717571633375577
3700000000.0 -0.09665576239135247 -0.09131325678223336
3720000000.0 0.11250656815443003 0.04012943900876233
3740000000.0 0.039619164859460834 -0.09280798056859756
3760000000.0 0.024426031212057858 -0.07998403932778275
3780000000.0 -0.05215545518172812 -0.03664170930350752
3800000000.0 0.02651638100400665 0.021132651108934516
3820000000.0 0.0006476408695441254 -0.0014066965883899481
3840000000.0 -0.03553832498951768 0.009791631307035743
3860000000.0 -0.004995857745720337 -0.06470018411772359
3880000000.0 0.08644737582969361 -0.03330795131139295
3900000000.0 -0.05552651340955077 -0.0991533329112914
3920000000.0 -0.12370132448154894 0.030909595566515666
3940000000.0 -0.10195858079843298 0.08893100867880302
3960000000.0 -0.13136846388603265 0.045857245598727156
3980000000.0 0.13463805113719757 0.001622864168346788
4000000000.0 0.03917506592620283 -0.10647185872858853
