!Created with skrf (http://scikit-rf.org).
# Hz S RI R 50.0 
!freq ReS11 ImS11
400000000.0 0.7760803747590952 0.39602212957508365
420000000.0 0.21230954890978096 0.7885712440653141
440000000.0 0.4156542953717522 0.638001854646613
460000000.0 -0.6094208540303813 -0.3138164393019822
480000000.0 -0.015088982272410763 -0.6232279755884227
500000000.0 0.6174183502828211 -0.19517132368380166
520000000.0 -0.3991175266843759 0.5330865215670751
540000000.0 0.663886423919935 -0.1432212865291458
560000000.0 -0.30858333968656043 0.5931031839841685
580000000.0 -0.30588251326966653 0.42014090885442196
600000000.0 0.18062103505221547 0.5681269987698052
620000000.0 -0.5600730476996496 -0.24029021853034752
640000000.0 -0.4463809504809055 -0.3393812170185746
660000000.0 -0.031078142531048434 0.5239670712243876
680000000.0 -0.3517267962163394 0.3472826926911247
700000000.0 0.39474875906623047 -0.22849991492554503
720000000.0 -0.16912916959890445 0.4566433694262194
740000000.0 0.42304806631761266 0.20440592777427935
760000000.0 -0.2281130744116549 0.383046992165393
780000000.0 -0.42973290891684773 -0.050609855512815285
800000000.0 -0.06593075280959934 -0.394370173265044
820000000.0 0.3526673564129795 -0.013874412508011037
840000000.0 -0.24393026972879167 0.21307138184231453
860000000.0 0.25988492413097203 -0.1515538928054747
880000000.0 0.24501977294349123 0.12373671501767344
900000000.0 0.10071909292467747 0.24569513988451985
920000000.0 0.19742482394704558 0.15653187681109787
940000000.0 -0.20271906405481627 0.1018802749523943
960000000.0 -0.14857913750759805 0.11132111876047418
980000000.0 0.03959941447334509 0.1383399143759467
1000000000.0 0.027463419815990105 -0.12517531769639936
1020000000.0 0.09785262485199288 0.010370722322280125
1040000000.0 -0.1164366969192774 -0.012904848517531849
1060000000.0 0.1154533056446008 -0.08946509457215791
1080000000.0 0.18607926774795033 0.04979589096088879
1100000000.0 0.05722284861274781 0.22995182062445546
1120000000.0 0.2766594278189983 -0.017802769852201455
1140000000.0 -0.28181579321758526 0.10643896704305172
1160000000.0 -0.2450593092470858 0.20504442443198637
1180000000.0 -0.33474363246406696 -0.02567148743157103
1200000000.0 -0.22638100740520328 -0.26730921485365905
1220000000.0 0.3594618078391692 0.0041431306486323875
1240000000.0 0.2303667737514994 0.2969787855572804
1260000000.0 0.3685535030870309 -0.13603194977058097
1280000000.0 -0.31449667286857397 -0.21988596963149754
1300000000.0 -0.12079035502498284 -0.3607857468948147
1320000000.0 -0.13024937062894917 -0.355671906183224
1340000000.0 -0.36097810241740114 0.07701914612710511
1360000000.0 0.20267148228460946 0.33284176744382116
1380000000.0 -0.0478283313020327 0.39692370388744364
1400000000.0 -0.08387704233574174 -0.3864592487219441
1420000000.0 0.02188712662644589 -0.3926538167429722
1440000000.0 -0.3008238899555244 -0.2568155983189654
1460000000.0 -0.3893033652526844 0.06098402958134252
1480000000.0 -0.2929925060179075 -0.26648779772209075
1500000000.0 0.0502417234647107 0.39840028595529914
1520000000.0 -0.3815931447751523 0.07268761527076441
1540000000.0 0.34319168228447944 -0.11225002881095847
1560000000.0 -0.25602215177832266 0.20727142658967426
1580000000.0 -0.14597939047793598 -0.25450642632346226
1600000000.0 -0.0141473143188526 -0.25751526376746
1620000000.0 0.1980126344554896 -0.08787022069672065
1640000000.0 -0.18318207014856497 0.030547330169369922
1660000000.0 0.01837967747922472 0.15456492871323982
1680000000.0 0.10518112829902797 -0.030073569792309202
1700000000.0 0.021233736114648197 -0.10174055989961675
1720000000.0 -0.023228942094132902 -0.07469976417961974
1740000000.0 -0.01019426424943388 -0.07707757584516314
1760000000.0 0.04975412859375777 -0.073262118430904
1780000000.0 -0.036369161370977475 -0.1110444088959353
1800000000.0 0.05947284950511771 -0.12283236184856057
1820000000.0 -0.17029993590989068 -0.0038524216646989005
1840000000.0 0.1464481561039153 -0.13012898591483216
1860000000.0 -0.19796537322153143 0.09620991682078552
1880000000.0 -0.11806634260016627 0.22766257970282902
1900000000.0 0.11206898410443623 0.25244947858470157
1920000000.0 0.11179725665018911 -0.2717970139646309
1940000000.0 -0.2988869048086398 -0.057234296488051374
1960000000.0 0.30382954149256514 0.05370057950585099
1980000000.0 -0.3073492777112483 -0.06804223709397796
2000000000.0 0.02339590236724537 -0.3192162777968915
2020000000.0 0.31909584597085733 -0.028561174839619508
2040000000.0 0.3157141295704522 0.05686177602845705
2060000000.0 0.27792624833076873 0.15385496273628277
2080000000.0 0.17370888025104356 0.26468959152303495
2100000000.0 -0.005607968962126548 -0.31221161921741253
2120000000.0 0.26503905243294124 0.14776635556881804
2140000000.0 -0.03949295492472517 -0.2972985148894637
2160000000.0 -0.20755958691367107 0.21243585442047433
2180000000.0 0.12654315322531787 0.25831437781126226
2200000000.0 -0.12848856677571366 0.2530767587393862
2220000000.0 -0.16640703017288372 0.22888811489049668
2240000000.0 -0.2326428302337485 -0.15227179464608864
2260000000.0 0.14836941754849386 -0.22572159566561642
2280000000.0 0.27219757114354187 0.017168940488508498
2300000000.0 0.16613432912087286 0.20026636039958523
2320000000.0 -0.2365900861346037 -0.09476716394809016
2340000000.0 -0.08896765319983257 -0.23838030551360773
2360000000.0 0.2500338230157378 -0.044019186731439175
2380000000.0 0.004335345501919251 0.2579276569212697
2400000000.0 0.23177189692611141 0.1530569978943801
2420000000.0 -0.0437890205176029 -0.2923651425557947
2440000000.0 -0.18362117052686622 0.2543234789480915
2460000000.0 0.33804264924796273 -0.0037072424232724435
2480000000.0 0.04996393675022123 -0.36807809582729195
2500000000.0 0.23804894104243013 0.3296231148636297
2520000000.0 -0.4153346671164619 -0.15740451661188326
2540000000.0 0.4663679179050358 -0.10894602730761903
2560000000.0 -0.2834688989367334 0.42484680961747384
2580000000.0 0.23167436578439876 -0.48843445887477277
2600000000.0 -0.07712077372322973 0.5610224472077229
2620000000.0 -0.06905094845948691 -0.5845965118818446
2640000000.0 0.23339649789218753 0.5592323922564727
2660000000.0 -0.5750020558297193 -0.23633666039735743
2680000000.0 0.3648448725757528 -0.514934114198225
2700000000.0 0.6019522078384727 0.21940068553185818
2720000000.0 0.4219416576555198 0.48850373811443637
2740000000.0 0.3293915829102144 0.5561079582468896
2760000000.0 0.23767386199334034 0.6009006079870624
2780000000.0 -0.6326136923945508 -0.08690066375815317
2800000000.0 -0.4807713170641556 -0.40626436593237364
2820000000.0 0.1048579560630616 -0.6082547806708551
2840000000.0 0.47230976911908173 0.374521602930652
2860000000.0 -0.5078901600728002 -0.2939266222128455
2880000000.0 0.18071371108051593 0.5404140738842192
2900000000.0 0.46463184138456703 -0.2948996719741069
2920000000.0 -0.030049818307241086 -0.5260677081973352
2940000000.0 -0.3033275325132213 -0.4005716426310447
2960000000.0 -0.2196796642531446 -0.4246460760690742
2980000000.0 -0.29521728004764514 -0.3488856426141191
3000000000.0 -0.35640458936678776 -0.2536320529468412
3020000000.0 -0.4057453832741545 0.10380729453330981
3040000000.0 0.051417392337572115 0.39612638392281857
3060000000.0 0.2738431869567973 -0.2618282517173655
3080000000.0 -0.36096786185732616 0.06219630980054256
3100000000.0 0.34855668462448003 0.04023246254990975
3120000000.0 0.2634061757225078 -0.22293725256338076
3140000000.0 -0.18330219455977156 0.2893254183890876
3160000000.0 0.0015534834132697802 -0.33910673177412026
3180000000.0 0.11329399727787022 0.3156362331693202
3200000000.0 0.29411795502883875 -0.14824445809528858
3220000000.0 -0.1024809365409016 -0.3080213725532573
3240000000.0 -0.2870321198068245 -0.13493848148974205
3260000000.0 -0.2874024898682832 0.10146812041492399
3280000000.0 -0.2908120786108907 -0.037498877578615
3300000000.0 -0.27481347290450947 -0.02429739274023573
3320000000.0 -0.14838926841308678 -0.2043255158429884
3340000000.0 0.22743061497984146 -0.017405340168993932
3360000000.0 -0.1628584316338564 0.12434476779538044
3380000000.0 0.06752264822967384 -0.17456198248153018
3400000000.0 0.16429271902097645 0.02165729933389566
3420000000.0 0.11621097187611631 0.08310985271102572
3440000000.0 0.03926268706039452 0.11959237456656988
3460000000.0 0.1070127381021287 0.00534644459969095
3480000000.0 0.04319597883833064 -0.07660934118801757
3500000000.0 -0.026939104459850333 0.07785794915465409
3520000000.0 -0.06711051278521823 -0.04450744950978923
3540000000.0 0.07892524027672718 -0.014095233030772937
3560000000.0 0.07758204188174835 0.04329172450141473
3580000000.0 -0.04960488395815036 -0.07977193363889402
3600000000.0 -0.08287303657114646 -0.051508458418910094
3620000000.0 0.10872085016859204 0.01836692480955753
3640000000.0 -0.0075274733235613485 0.12355596733010034
3660000000.0 -0.032325735097056746 0.1291991721431077
3680000000.0 0.04386819483947444 0.13111437702042472
3700000000.0 -0.09053642114758939 -0.0936046192496047
3720000000.0 0.09977211249613066 -0.06316019622549032
3740000000.0 -0.09711971096855898 0.024273229872311317
3760000000.0 -0.08092602738130375 0.014667376888704297
3780000000.0 -0.01026884847294811 0.062483233899898544
3800000000.0 -0.034344056450220296 -0.013141456017148981
3820000000.0 -0.0038052580163226483 0.0003225499124300473
3840000000.0 0.03429901904934079 -0.005940546632879526
3860000000.0 -0.00876411962819284 -0.06473133147928967
3880000000.0 0.06882447144376781 -0.05700041035842131
3900000000.0 -0.10122797938176112 -0.03794750913556201
3920000000.0 -0.08160301214659604 0.09628625222320866
3940000000.0 0.08968678461771494 0.10094452656843284
3960000000.0 -0.011184978780769825 0.1379722510179249
3980000000.0 0.0686990647177308 -0.11662588869441902
4000000000.0 -0.05277497701758442 -0.10268624268247169
