!Created with skrf (http://scikit-rf.org).
# Hz S RI R 50.0 
!freq ReS11 ImS11
400000000.0 0.8348226984008142 -0.2715435913887651
420000000.0 0.7752240941360835 -0.2973196721593711
440000000.0 0.4508788726230312 -0.6273399784353407
460000000.0 0.2301490290095252 0.6571413603619481
480000000.0 0.3484130606014719 -0.4787336045894184
500000000.0 0.46139425897988695 0.4187214411654024
520000000.0 0.4747389507604427 -0.4338318659712156
540000000.0 0.1537458417039202 -0.5868891370402318
560000000.0 0.6163251753229434 -0.08875725640476871
580000000.0 0.4910133099313685 0.17829512925068422
600000000.0 -0.179479543926255 0.5669171917175854
620000000.0 -0.22720684956313872 -0.5599445856253551
640000000.0 -0.3125457263348456 -0.46990091307599063
660000000.0 0.02299458810216769 0.519654045857498
680000000.0 0.3050689490056575 -0.36445033340515437
700000000.0 0.36754668744319063 0.33668991022713407
720000000.0 0.4953101816561927 -0.035395099603245654
740000000.0 0.23804690136507548 0.4066813571435628
760000000.0 -0.0941452012882134 0.4471987085891661
780000000.0 -0.2915700280883635 -0.3413032304649121
800000000.0 -0.04145873000142286 -0.40804938242403793
820000000.0 0.35126993354104896 -0.09276399087500906
840000000.0 -0.326450873482189 0.027719172867713224
860000000.0 0.3044820039986808 0.04770964273407534
880000000.0 0.10147099096714088 0.2712876761996877
900000000.0 0.27692675540771455 -0.017584187039568294
920000000.0 -0.034189853650737866 -0.2507157900963802
940000000.0 0.16683523750289808 -0.14227966053386248
960000000.0 0.13966017784161638 -0.09441901574266677
980000000.0 -0.1340253633120554 0.007663819116140795
1000000000.0 -0.02965388424461864 -0.13078797992751642
1020000000.0 0.05639245243373836 0.09526211702666938
1040000000.0 -0.10335019634500839 0.07964348517810195
1060000000.0 -0.110542820027395 -0.11114447695397592
1080000000.0 -0.09825039667457175 0.1783598809973434
1100000000.0 -0.2445677945753213 -0.03833215393195359
1120000000.0 -0.17210695756440283 -0.2168868729981372
1140000000.0 -0.2667654171099209 0.1537683659029047
1160000000.0 0.23334380348013273 0.23508269632245124
1180000000.0 0.12428143689506119 0.3156652163360961
1200000000.0 -0.3498827890524756 0.052450799342616365
1220000000.0 0.26657986014741597 -0.2530429681228251
1240000000.0 0.3653068088943641 -0.09669767829572866
1260000000.0 -0.012883924465949645 -0.39669595568908134
1280000000.0 -0.24565563498214354 0.2863574867782369
1300000000.0 0.18119787916552513 -0.3166911770070378
1320000000.0 0.3348757098449275 -0.176458581323186
1340000000.0 -0.3387005523521817 0.14721229336579783
1360000000.0 0.30089060651407207 0.23621328407795034
1380000000.0 -0.16154879533016958 0.358626803003907
1400000000.0 0.10106815462430396 -0.3679159712200395
1420000000.0 0.2571276848811995 -0.2881631206714752
1440000000.0 -0.10709243666125248 -0.37123338405978296
1460000000.0 -0.2933313258815283 -0.2518587972784131
1480000000.0 -0.07550048160204123 -0.38461330953681344
1500000000.0 -0.28746608853291966 0.26942482700084863
1520000000.0 0.025798355150555986 -0.38400602479770357
1540000000.0 -0.0025114248074042953 0.3614566169335007
1560000000.0 -0.24771410289522375 -0.21799689609262946
1580000000.0 0.2769253998844978 0.10036702188694707
1600000000.0 0.2599451310324436 -0.041865348409733966
1620000000.0 0.10931851896131697 0.1818741171593899
1640000000.0 -0.018343081439745647 0.1864896771767314
1660000000.0 0.1352194868120937 -0.08424869042891188
1680000000.0 -0.10624023226055399 -0.05954724316104273
1700000000.0 0.09903117447235389 0.06361669641422041
1720000000.0 0.03873270663182187 -0.08558858283983461
1740000000.0 0.06381828227076076 -0.05157738510299955
1760000000.0 0.042486969704518755 0.08249537065949782
1780000000.0 -0.10164674266387555 0.037369800287993665
1800000000.0 0.08328961579132374 0.09975281898625579
1820000000.0 0.10497371572216894 0.11812458896431222
1840000000.0 0.04726394049468905 -0.18622866187999362
1860000000.0 0.08602693295612908 0.20042198478335102
1880000000.0 0.22822909564700894 0.10545174898468462
1900000000.0 0.272724006902057 0.008740644473987017
1920000000.0 0.014606293505647534 -0.2922236622598404
1940000000.0 -0.3012579097585404 0.04321272129646199
1960000000.0 0.22380796374250517 -0.21458586187042275
1980000000.0 -0.29799254791622415 0.09416848886789826
2000000000.0 0.11960872768821754 -0.2960993257823187
2020000000.0 0.2910467296397153 -0.1405301454019932
2040000000.0 0.32351022510181476 0.025805905640708466
2060000000.0 0.26849192085199963 0.17853819292675008
2080000000.0 0.1153609150180104 0.30451022895046265
2100000000.0 -0.03424319417188602 -0.32008606290231295
2120000000.0 0.20867178391381072 0.24205517585152342
2140000000.0 -0.2767618482116049 -0.16347387147714368
2160000000.0 0.1589684328496107 0.27469580224980705
2180000000.0 0.29366816390009676 -0.09819267972252077
2200000000.0 0.15447596878212913 -0.26375777162506675
2220000000.0 0.009348340686478456 -0.29672619749141194
2240000000.0 0.28594532314548077 0.04335969721640444
2260000000.0 0.05308942863354474 0.2723181120524509
2280000000.0 -0.12290430194724503 0.23814033009825286
2300000000.0 -0.09483390796584686 -0.2303636741175158
2320000000.0 -0.19299005291878674 0.15080084492796486
2340000000.0 0.0628163742076252 -0.23584023718497854
2360000000.0 0.10578792384818488 0.22097300595713723
2380000000.0 -0.148463763307519 -0.20792626390551444
2400000000.0 -0.2819340390824699 -0.007252666055417572
2420000000.0 0.2120547106901552 0.21716242687225273
2440000000.0 -0.2216777148940518 -0.24141714236783907
2460000000.0 0.11186379352641312 0.33724270565859904
2480000000.0 0.23284399665602412 -0.31443853491188395
2500000000.0 0.2816836252079825 0.32078287428205826
2520000000.0 -0.44565390916301717 0.12542165116912551
2540000000.0 0.2258747218589968 -0.4394752328814298
2560000000.0 0.03744755295315308 0.5232210208537349
2580000000.0 -0.20608232011661584 -0.5129919228857298
2600000000.0 0.3098952480514339 0.485273869317309
2620000000.0 -0.32483670371910445 -0.4993308268566837
2640000000.0 0.44609675773778895 0.41762374837139427
2660000000.0 -0.6220527013581133 0.06406649704293746
2680000000.0 0.19341483687196467 -0.6039512109541445
2700000000.0 0.6075489198779387 -0.20796230617029401
2720000000.0 0.6312499350122066 0.14480133085133515
2740000000.0 0.5569974490841627 0.33268194536747725
2760000000.0 0.49523704240699623 0.4192090734211678
2780000000.0 -0.5563182534806571 0.3237827434088849
2800000000.0 -0.621169136340859 0.12930017701977134
2820000000.0 -0.39980251347860474 -0.4776987521237941
2840000000.0 0.5704706819436136 -0.21500141892842223
2860000000.0 -0.42928893978303617 0.41097305499157594
2880000000.0 0.5521228157599569 -0.15642706490338995
2900000000.0 -0.24438664948775185 -0.4951891521988507
2920000000.0 -0.5223014342106096 0.07959487401511249
2940000000.0 -0.30132363044739097 0.3975627836908076
2960000000.0 -0.35633544873443235 0.3131803632910391
2980000000.0 -0.2788407262471496 0.3501483104213576
3000000000.0 -0.20229450749158762 0.3755427260021007
3020000000.0 0.01088295718253967 0.4038818948229942
3040000000.0 0.22043342784478562 0.3143856541054763
3060000000.0 0.29223320686670257 -0.22529952768120423
3080000000.0 -0.34533908129552277 -0.08879317614992516
3100000000.0 0.17865534305728126 0.2974141374724433
3120000000.0 0.26986644160449647 -0.21362563867539416
3140000000.0 -0.3193823675971302 0.12135047690545635
3160000000.0 0.34148142201746984 -0.02565227490033268
3180000000.0 -0.3371458889752234 0.0623638467467722
3200000000.0 0.046738514957525436 0.3395801424322766
3220000000.0 0.23971078179824307 -0.24127929067149145
3240000000.0 0.050327193474999164 -0.3304578684557091
3260000000.0 -0.22231615963229942 -0.2407117733414319
3280000000.0 -0.3157417652591783 -0.0233093692256046
3300000000.0 -0.16512931410988116 0.2510312680336313
3320000000.0 0.010917676501171246 0.27225444445464103
3340000000.0 -0.23935662978251213 0.06862263383466474
3360000000.0 -0.2129577487255345 0.06229974083758079
3380000000.0 -0.04095593906351912 -0.19050559644806295
3400000000.0 -0.0363341891576845 -0.16489171894652904
3420000000.0 0.007197983066616713 -0.14199653119345818
3440000000.0 0.0834898372379712 -0.08597035777579198
3460000000.0 0.0955066218294245 -0.005776650605446605
3480000000.0 -0.07944120792823045 0.0036132313372872244
3500000000.0 -0.014893902958966495 -0.07040139725064937
3520000000.0 -0.0017061619733348978 -0.07140078143709098
3540000000.0 -0.06318491365411354 0.046764745987779195
3560000000.0 -0.06660141809094795 0.05003855165181896
3580000000.0 0.04948576845774887 0.08156510647834138
3600000000.0 0.022257298890878248 -0.10030612471599024
3620000000.0 0.09481527407576301 0.07164826700260718
3640000000.0 -0.020488217624923418 -0.1317304052523109
3660000000.0 -0.13311563184205494 -0.06260330118653823
3680000000.0 0.12667887456465357 0.08220327390288538
3700000000.0 0.10223434747732268 0.10088699502136399
3720000000.0 0.13020691943174206 0.0028442766649539424
3740000000.0 0.0893282059973525 -0.053845722240338664
3760000000.0 0.0266683875399152 -0.07497820873599827
3780000000.0 0.0417403205669635 0.04260204037075314
3800000000.0 0.026329244044078597 -0.00982264583076676
3820000000.0 0.000854461089128047 0.011274240027905214
3840000000.0 0.015570489053293569 0.0450231530814321
3860000000.0 0.048246220545256235 0.06132730345422624
3880000000.0 -0.06535230145996015 -0.0834840516081241
3900000000.0 0.1260766573492977 0.029362622570538333
3920000000.0 -0.13056564689767372 -0.06068243150699233
3940000000.0 0.028749351821136943 0.14997811341288778
3960000000.0 0.10617289562791067 -0.11749040907836693
3980000000.0 0.13339282850668602 0.06537922210643472
4000000000.0 -0.10822015033305016 -0.06584238652519597
