!Created with skrf (http://scikit-rf.org).
# Hz S RI R 50.0 
!freq ReS11 ImS11
400000000.0 0.7928629882241347 0.3611096937562451
420000000.0 0.2913718087678731 0.7627711529452156
440000000.0 0.4190499975553789 0.6341440489900233
460000000.0 -0.5105532774123338 -0.46239238473234645
480000000.0 -0.17384539984981973 -0.5957696482527944
500000000.0 0.6397084519924032 -0.10571426938274125
520000000.0 -0.3817111779632815 0.5510159587422369
540000000.0 0.6460561692719422 -0.2040462215846097
560000000.0 -0.287707672460996 0.6025851943841373
580000000.0 -0.4005410739603143 0.331476146325212
600000000.0 0.20489478557339544 0.5590115563591875
620000000.0 -0.4559630262665431 -0.4049004982461848
640000000.0 -0.4731786852785918 -0.3087781046336047
660000000.0 0.20257156975427376 0.4848513513869863
680000000.0 -0.22202480373969907 0.4372517924506944
700000000.0 0.45119195962088077 -0.044098880029737546
720000000.0 -0.19261764051990846 0.4509757180437664
740000000.0 0.43473621010163976 0.18399539183878683
760000000.0 0.04121937710306184 0.44342256305857203
780000000.0 -0.4297300690970407 0.02424029090217573
800000000.0 0.11062731945386275 -0.38158431376660956
820000000.0 0.3246576131867731 0.14630622349059422
840000000.0 0.058476705777565814 0.3173898417483193
860000000.0 0.24274474978893817 -0.1762081082096067
880000000.0 0.1267855165695105 0.24114059286446093
900000000.0 -0.17115448265999758 0.2062205546229822
920000000.0 0.21812739515130256 -0.13421472459285327
940000000.0 0.113963845561149 0.18987184972179155
960000000.0 -0.15367505828156114 -0.08866871529629362
980000000.0 -0.10686368602164927 -0.10276119071286698
1000000000.0 -0.07888816771738658 -0.10721226035404743
1020000000.0 -0.0882197895670953 -0.0494490083491448
1040000000.0 -0.03480531170625902 0.10562474057730602
1060000000.0 0.034570709193625156 0.1394070503487267
1080000000.0 0.18863369329776652 0.04165059772525768
1100000000.0 0.0631483119136398 0.23108459569951995
1120000000.0 0.2519678988973014 -0.1123628192508018
1140000000.0 -0.2990706256460362 0.041845781644951
1160000000.0 -0.2761056922496368 0.16199569375151343
1180000000.0 -0.3361090412400492 0.017398400435733073
1200000000.0 -0.2914311629344694 -0.1946797951250166
1220000000.0 0.35368832198161987 0.039779503589921536
1240000000.0 0.13972929903911252 0.3519314044360643
1260000000.0 0.3739602174780756 -0.12642940629369553
1280000000.0 -0.37346203674090606 -0.09033149466380211
1300000000.0 -0.1069918758889757 -0.3626737607142239
1320000000.0 -0.04986165114054707 -0.3781138094440838
1340000000.0 -0.36711615400264674 0.023832589617549152
1360000000.0 0.23356010007583503 0.30812633142234797
1380000000.0 0.001344731487314701 0.40064725513277716
1400000000.0 -0.11117019113137955 -0.37815766094173403
1420000000.0 0.00011076257337694565 -0.39352954291857417
1440000000.0 -0.2668110084864349 -0.2917011010361602
1460000000.0 -0.3880409371317101 0.0736755178042784
1480000000.0 -0.27951415865119034 -0.2799556848664822
1500000000.0 0.13549359940627084 0.377103504446923
1520000000.0 -0.373175204008624 0.11031230990820175
1540000000.0 0.3609562204026626 -0.009150548943776121
1560000000.0 -0.24869953637381642 0.21819326826413357
1580000000.0 -0.16743689537385859 -0.24086008591318844
1600000000.0 0.0805588284298632 -0.2443096859032307
1620000000.0 0.16629651658004677 -0.13874827202423692
1640000000.0 -0.18448317404014827 -0.010982138460195925
1660000000.0 0.033338808051938076 0.15016338022643275
1680000000.0 0.1107923587519831 0.00012905657247258134
1700000000.0 -0.09108292248177328 -0.04487844397081075
1720000000.0 0.011334374518199452 -0.08020824490957734
1740000000.0 0.07599422460392616 -0.01481186885310255
1760000000.0 -0.06522363822234432 -0.05983081278858446
1780000000.0 0.09510588144926267 -0.06642250331428279
1800000000.0 -0.0017123597462106125 -0.13864960693948117
1820000000.0 -0.1582656068783331 0.055479781371954515
1840000000.0 0.15092735267967117 -0.1236427114981305
1860000000.0 -0.18591556927376093 0.11945620174346092
1880000000.0 -0.0507872794203397 0.2521408450731912
1900000000.0 0.12704899430605668 0.24440625334876276
1920000000.0 0.15204787209778287 -0.2535958292064033
1940000000.0 -0.30404534916838094 0.014354257481004197
1960000000.0 0.3046250296322725 0.0580517641784752
1980000000.0 -0.293952656591854 -0.11051181698035942
2000000000.0 0.11146298848459595 -0.29977240144076306
2020000000.0 0.3205303674131429 -0.015152677000310397
2040000000.0 0.31361524110468203 0.06315440559103626
2060000000.0 0.31080130091694863 0.0604360720941778
2080000000.0 0.21172815567430878 0.23211187490646892
2100000000.0 0.057919342120085586 -0.3068198178890354
2120000000.0 0.2942342462531294 0.08383105210478256
2140000000.0 -0.13869177655601297 -0.26448884742165546
2160000000.0 -0.21941641867708078 0.20070609333396153
2180000000.0 0.06304143648233353 0.28230503559571696
2200000000.0 -0.15203446603504392 0.2409912919867151
2220000000.0 -0.16873832750629228 0.22606814029840372
2240000000.0 -0.1808810718226435 -0.2102940691070387
2260000000.0 0.19411024979421326 -0.1905437552621979
2280000000.0 0.2721213267250346 0.02478194693971939
2300000000.0 0.21837079779780602 0.1395272158782698
2320000000.0 -0.18040644936009326 -0.17953318415359104
2340000000.0 0.026182154321324726 -0.2546186304314953
2360000000.0 0.1896578535308261 -0.16725120758046022
2380000000.0 0.07504299989693992 0.2459158788870879
2400000000.0 0.17375650571151707 0.2173807117181128
2420000000.0 0.007556504320377462 -0.2951246560196688
2440000000.0 -0.17131618118737427 0.26329293331644144
2460000000.0 0.3373074796511172 -0.009344693283725357
2480000000.0 -0.011425317557706016 -0.3721984555798538
2500000000.0 0.23346629925703322 0.33291049677299683
2520000000.0 -0.40228143085223855 -0.188454460599239
2540000000.0 0.46314803090673484 -0.12044952040181996
2560000000.0 -0.3300652689472716 0.3905240447801056
2580000000.0 0.24399825098264102 -0.48340404718724184
2600000000.0 -0.08125051287677348 0.5610219632846718
2620000000.0 -0.05164341452594396 -0.5858119606143203
2640000000.0 0.20726941029168244 0.5686223421260035
2660000000.0 -0.546629138688586 -0.2940946169770529
2680000000.0 0.35360248819369766 -0.5214254143448187
2700000000.0 0.630815472377466 0.10709789017006421
2720000000.0 0.42925305534607866 0.4810836609599068
2740000000.0 0.27130779645121256 0.5868420041776283
2760000000.0 0.3085110723719493 0.5678810903312648
2780000000.0 -0.6397008130374093 -0.025201786166439453
2800000000.0 -0.5015880991772504 -0.3815320534597537
2820000000.0 0.09765216062860903 -0.6101135601424142
2840000000.0 0.461812509327096 0.38814368295925517
2860000000.0 -0.48944401490267725 -0.3251791895549253
2880000000.0 0.20992292908357466 0.5299660033793189
2900000000.0 0.46741962436408585 -0.2875195101929512
2920000000.0 0.04066692034762161 -0.5244258372182826
2940000000.0 -0.3319541786494231 -0.37722921680184124
2960000000.0 -0.21855328437256166 -0.4248867296552905
2980000000.0 -0.3262547344351136 -0.3180193428493122
3000000000.0 -0.34549066263551337 -0.26583216660878617
3020000000.0 -0.3794930070925903 0.17725223052406178
3040000000.0 0.1460208510188026 0.3701061143617089
3060000000.0 0.3077217795804221 -0.22285712221827447
3080000000.0 -0.3610505838977849 0.054831514158892584
3100000000.0 0.32864719392568087 0.12181266261518699
3120000000.0 0.22782272003974582 -0.2620333296843405
3140000000.0 -0.05692035724259013 0.3361457259711863
3160000000.0 0.08196556889609459 -0.3290089587870112
3180000000.0 0.03773354332188208 0.33403805634468164
3200000000.0 0.3252534809975074 -0.058495192087259465
3220000000.0 -0.17209242983897938 -0.27539000584223705
3240000000.0 -0.27060610092629095 -0.16331475105662369
3260000000.0 -0.30467291529482055 0.010469346282396652
3280000000.0 -0.2886905933275556 -0.04843596302972417
3300000000.0 -0.2682655439438001 -0.060839379134322955
3320000000.0 -0.16057731992658036 -0.19315044650200383
3340000000.0 0.22602765015735257 -0.02643868293031927
3360000000.0 -0.16117464721484026 0.1257410284149182
3380000000.0 0.04205364844569954 -0.18095479500865227
3400000000.0 0.16286305057561726 -0.03021957632128588
3420000000.0 0.13883681723367336 -0.032474554675219286
3440000000.0 0.061958339435870216 0.10878008624309228
3460000000.0 0.05621010336049215 0.09152374188086365
3480000000.0 -0.03955400798617891 -0.08160319045984908
3500000000.0 0.003922152002848504 0.08228095416654475
3520000000.0 -0.04888646556146834 -0.06241776907482063
3540000000.0 0.03415213075576239 0.07285335290564707
3560000000.0 0.06689503007758364 0.0592403337130855
3580000000.0 -0.06775892364004792 -0.06581927918487843
3600000000.0 -0.0616550209181858 -0.07452235395613532
3620000000.0 0.09255374572806543 0.058851470863807764
3640000000.0 -0.014721216028459674 0.12266372331319673
3660000000.0 -0.043175029836282845 0.125587148825174
3680000000.0 0.02160460979477475 0.13562120429515745
3700000000.0 -0.12927434202831622 -0.008334737133651916
3720000000.0 0.06464368495764569 -0.09629004898249899
3740000000.0 -0.08340651964695386 0.05456786613541813
3760000000.0 -0.06857792202852685 0.04515843997932819
3780000000.0 0.06451824547022987 0.0003548537143950907
3800000000.0 0.027480230309296274 0.023105885128527803
3820000000.0 -0.003499329506155586 -0.002007256177311163
3840000000.0 0.001358638953849411 -0.033136284768907745
3860000000.0 -0.014254873880705636 -0.05964345977266862
3880000000.0 0.06309054266379681 -0.06223469698124122
3900000000.0 -0.09264507677045786 0.0574010586724238
3920000000.0 0.013864022367324678 0.12435086237681468
3940000000.0 0.08369941387498166 0.10398627853683307
3960000000.0 0.00905750185607998 0.13788273642745913
3980000000.0 -0.03551893469341718 -0.12988523542252212
4000000000.0 -0.0809301720456193 -0.07811066526040568
