!Created with skrf (http://scikit-rf.org).
# Hz S RI R 50.0 
!freq ReS11 ImS11
400000000.0 0.7748581659680479 0.3976071660447196
420000000.0 0.33344073855633805 0.7459843268492445
440000000.0 0.42974237569313595 0.6262896457771597
460000000.0 -0.5437004461874092 -0.42083185686375446
480000000.0 -0.31279611770951077 -0.5356467025812266
500000000.0 0.6508264710726498 -0.05869637152773702
520000000.0 -0.3638280659584519 0.5617864598631672
540000000.0 0.6792613810460251 0.007816136364897036
560000000.0 -0.25614822077941307 0.6239358926044984
580000000.0 0.025585389243496466 0.5175752129422644
600000000.0 -0.3627647308588045 0.4629024084694832
620000000.0 -0.36993827771902776 -0.49678239619408593
640000000.0 -0.5527593801630651 -0.13958927649546485
660000000.0 0.26512667474769774 0.45141043086806754
680000000.0 0.14681593577285798 0.4697910121631097
700000000.0 0.3942572189881387 0.2166967023916753
720000000.0 -0.295597670502453 0.3944806835594709
740000000.0 0.32017497414617324 0.343954762505982
760000000.0 0.003125146794287143 0.4497336560091226
780000000.0 -0.42751959400241174 0.06714097998101606
800000000.0 0.13214934763280803 -0.37282857988290796
820000000.0 0.19626989203429854 0.289106477673206
840000000.0 -0.15706648939954793 0.28716490681375134
860000000.0 0.09478978160403327 -0.28381020083296843
880000000.0 0.21547096067388635 0.16920645718150687
900000000.0 -0.023441108140354376 0.2643506923377794
920000000.0 0.1761360464374961 0.19149431133142314
940000000.0 0.19739680534974527 0.11555790933293719
960000000.0 -0.14207536984280172 0.10857015917617391
980000000.0 0.10541844472033012 -0.0974315687208555
1000000000.0 0.12962341582062858 0.026149152075326844
1020000000.0 -0.09921022170001224 -0.02380985837958859
1040000000.0 0.002244153892941011 0.11161371463428686
1060000000.0 0.12561167808223456 0.07210980296992381
1080000000.0 0.15741059731442153 0.1159910004476362
1100000000.0 0.06074437845728785 0.23349212316247922
1120000000.0 0.20314438419463335 -0.18907571930316924
1140000000.0 -0.2963195233740653 -0.04443328536986293
1160000000.0 -0.3152836074785246 0.02772846926061522
1180000000.0 -0.29017191496529393 -0.1733408278832303
1200000000.0 -0.3273420034700838 -0.1277389052500932
1220000000.0 0.3550589060135413 0.000720058343734779
1240000000.0 0.19417637774614244 0.32177862012296427
1260000000.0 0.3775343577984498 -0.10995964994540126
1280000000.0 -0.3319745299974857 -0.19461176518135442
1300000000.0 -0.172036623673976 -0.33984936380607866
1320000000.0 -0.14618749407196094 -0.3505365937680961
1340000000.0 -0.36798948950810134 0.03360980434476285
1360000000.0 0.185938603273639 0.34374936510172976
1380000000.0 -0.16544793997820767 0.3668022712450235
1400000000.0 -0.03389921599549302 -0.39465257859785374
1420000000.0 0.10727279408059572 -0.3781651925884909
1440000000.0 -0.10124672645790739 -0.38333648028784206
1460000000.0 -0.39338504030094684 -0.04946967808367745
1480000000.0 -0.30601233632436475 -0.25091111850795256
1500000000.0 0.0024046727912915085 0.40057938321243036
1520000000.0 -0.36808236570477904 0.11953280273542886
1540000000.0 0.3603892008551901 0.008352920936140595
1560000000.0 -0.2405405703510185 0.22607968682270863
1580000000.0 -0.2307812423069492 -0.18027485843305102
1600000000.0 0.017815368290907845 -0.25600731636490015
1620000000.0 0.14028522113051453 -0.16802574542479348
1640000000.0 -0.18340724121385335 0.028465096719381
1660000000.0 -0.07049259302112763 0.13903937177598394
1680000000.0 0.07470800010512756 -0.08600571621556476
1700000000.0 -0.06472885945751733 -0.07928628629421962
1720000000.0 0.07564473052528708 0.030620557037808957
1740000000.0 0.05257636902885333 -0.059474906335950255
1760000000.0 -0.010377914496087534 -0.08854301159616945
1780000000.0 0.10672666467472634 -0.05152314630651402
1800000000.0 0.14051428155919873 0.006622266713622989
1820000000.0 -0.1665126892797481 0.021990647477850577
1840000000.0 0.1946596721280728 0.0017865564558284426
1860000000.0 -0.2101276857674416 -0.07390487872927252
1880000000.0 -0.08070400831407912 0.2422262218164139
1900000000.0 0.0184210116266874 0.2714239239193504
1920000000.0 0.18001891789875338 -0.2317693918191126
1940000000.0 -0.2997947950492048 0.05007768955530467
1960000000.0 0.3003491329744783 -0.06917271813742819
1980000000.0 -0.30497786186210596 -0.07275798857302108
2000000000.0 -0.0011964484224902749 -0.32056852787891926
2020000000.0 0.30191499640770303 -0.11390514229025632
2040000000.0 0.3156606174903311 0.06154765200606199
2060000000.0 0.24442920841036103 0.2037150749440921
2080000000.0 0.0634941549281386 0.3122979328597479
2100000000.0 0.04064815771366959 -0.31269771677035907
2120000000.0 0.22829668748997548 0.2000315086863702
2140000000.0 0.11389306531875928 -0.2775972784300769
2160000000.0 -0.2950260870356106 0.03097772469754701
2180000000.0 0.013784273863535942 0.28792351143509753
2200000000.0 -0.15914266203853067 0.23200488437168978
2220000000.0 -0.21453010591708352 0.1801312821620757
2240000000.0 -0.1953384954301038 -0.19374265139096872
2260000000.0 0.14218013787210734 -0.22995581407418217
2280000000.0 0.1994414117590451 -0.1859942770370231
2300000000.0 0.25632905605877393 -0.00021908581990087172
2320000000.0 -0.21000649232261007 -0.14716935321882482
2340000000.0 -0.11846067764897857 -0.23061613905013204
2360000000.0 0.04188057392228761 -0.25235513892282146
2380000000.0 0.08471985394616788 0.24394978947220736
2400000000.0 0.006717131603303998 0.2814819970829734
2420000000.0 0.07731122526719561 -0.28981930171253095
2440000000.0 -0.2246457640776275 0.22232359930340356
2460000000.0 0.2993894786565104 0.1578945335569681
2480000000.0 0.25421236206137965 -0.2719053504417572
2500000000.0 -0.010705556769055808 0.4062766629413928
2520000000.0 -0.3437681693413338 -0.2811761737654086
2540000000.0 0.46473224584699485 -0.10589666674356377
2560000000.0 -0.3433264562970146 0.3752855614004019
2580000000.0 0.24170665902298075 -0.48246905452849137
2600000000.0 0.007290692426098248 0.5665879131943953
2620000000.0 -0.16442947183825798 -0.566481512283312
2640000000.0 0.29873188432142816 0.529099697618447
2660000000.0 -0.5805285205880186 -0.22826626888498303
2680000000.0 0.38835015815020996 -0.5010106615317027
2700000000.0 0.580431229517745 0.2774993135474207
2720000000.0 0.2765448517782396 0.5855450464310646
2740000000.0 0.1750464469829114 0.624480859504483
2760000000.0 0.08581824833855414 0.6415326595748966
2780000000.0 -0.5961105770906789 -0.23022625108175432
2800000000.0 -0.3524374369620411 -0.5206250572238418
2820000000.0 0.2145444208978144 -0.5778502500990385
2840000000.0 0.43840207001825127 0.4122691996427523
2860000000.0 -0.4907592964117242 -0.3206741890508573
2880000000.0 0.25443302313100485 0.5091324928093168
2900000000.0 0.4217319586477939 -0.35173031105826846
2920000000.0 -0.013825761190454245 -0.5282124692194287
2940000000.0 -0.39468597660243226 -0.3143622870531001
2960000000.0 -0.2655191040576427 -0.3993994287348538
2980000000.0 -0.25758324885828654 -0.3803273153771541
3000000000.0 -0.34184910740615243 -0.276553597377442
3020000000.0 -0.41593061798741543 0.06879195641152207
3040000000.0 -0.02164665492897502 0.4007895523725907
3060000000.0 0.3736659553754404 -0.07207729007620761
3080000000.0 -0.2737334519387472 -0.24378733662351015
3100000000.0 0.2930366214609307 0.19436712547567037
3120000000.0 0.3239567632046117 -0.11602456058476074
3140000000.0 -0.20820305732824076 0.2685097138084918
3160000000.0 0.13554956766765963 -0.30879191976896603
3180000000.0 0.05843643839828507 0.3283490388065706
3200000000.0 0.3026280170405206 -0.1293115438458965
3220000000.0 -0.18362317621591895 -0.26747259662140316
3240000000.0 -0.3147542715155551 -0.03322459504496544
3260000000.0 -0.28502644306645586 0.11058117204513628
3280000000.0 -0.28745953798603924 0.06402572830866365
3300000000.0 -0.27755161145038915 -0.010364183743879422
3320000000.0 -0.19283471588542042 -0.16651971017325867
3340000000.0 0.22654748690974594 0.04413131642308885
3360000000.0 -0.2056711549503388 0.034056889658018945
3380000000.0 0.11386768388416606 -0.1513172940410812
3400000000.0 0.08059537016907324 0.1457890448865767
3420000000.0 -0.004631584864547668 0.14358175339219945
3440000000.0 -0.11183379693967962 0.058181289770358816
3460000000.0 -0.09030649261773224 0.05616110270679383
3480000000.0 0.0709060414184791 -0.05046900042396047
3500000000.0 -0.07700298635086639 -0.013486622986265061
3520000000.0 0.02734517799097968 -0.07171445032418221
3540000000.0 -0.01125445313346451 -0.0774604622649598
3560000000.0 -0.004843940598195187 -0.08646641012682903
3580000000.0 -0.05449230901849965 0.07512847832104814
3600000000.0 -0.047913809318467684 0.08551448394933628
3620000000.0 0.04839151489780241 -0.10153911458934377
3640000000.0 0.12294797422253302 0.029196194271024465
3660000000.0 0.014248321798936156 0.1355368567554346
3680000000.0 -0.0052744688302478766 0.14071898219983228
3700000000.0 -0.07101653289771322 -0.11329289191219913
3720000000.0 0.11699024951272899 0.031488913131096266
3740000000.0 -0.025180078131547996 -0.09766500003640996
3760000000.0 0.07236134711857632 -0.040774382761077144
3780000000.0 -0.0012031471302084804 -0.06301994389041386
3800000000.0 0.01370475295644219 0.032703575535403165
3820000000.0 0.0004362560020706712 -0.0004318660605678734
3840000000.0 -0.007640257097965197 0.03755278650417816
3860000000.0 -0.01370190053422105 -0.06401227870967123
3880000000.0 0.08986411072168048 -0.019465445132390298
3900000000.0 -0.061536005979266256 -0.09425665573791955
3920000000.0 -0.12731276725502758 0.012181372297350872
3940000000.0 -0.10715604112569725 0.08303135261161682
3960000000.0 -0.11470804579473089 0.07980499563142612
3980000000.0 0.10964529268124432 -0.07815942253367171
4000000000.0 0.08874982590814401 -0.0690722255759341
