!Created with skrf (http://scikit-rf.org).
# Hz S RI R 50.0 
!freq ReS11 ImS11
400000000.0 0.7794694164256397 0.38884198649838564
420000000.0 0.23303365005788002 0.7829202419058706
440000000.0 0.48899009263748566 0.5814007358180397
460000000.0 -0.5917794894921244 -0.3495405552532586
480000000.0 -0.17608826168275482 -0.5950404847255036
500000000.0 0.6038912286558453 -0.25193794279699633
520000000.0 -0.3776826805938297 0.549450675426334
540000000.0 0.6710539473476103 0.1136932678800942
560000000.0 -0.1727184286517888 0.6520250129946753
580000000.0 -0.06416554513266004 0.5160645775966755
600000000.0 -0.17865174254938485 0.5608505582426534
620000000.0 -0.30988094319579507 -0.5314373338456821
640000000.0 -0.43271463820836514 -0.372580458920683
660000000.0 0.3226715044201633 0.41894425698047705
680000000.0 0.287562689424247 0.40048237143713017
700000000.0 0.23494953268548688 0.38001751369097453
720000000.0 -0.37442321889019203 0.32185219241743074
740000000.0 0.3628499715993444 0.3019535933640804
760000000.0 0.13810538240916198 0.4242817989597814
780000000.0 -0.42054262729065944 -0.09622237929569277
800000000.0 0.07268258606662976 -0.39084803397454015
820000000.0 0.2483769068814968 0.24612874256446426
840000000.0 0.0841866306639725 0.3103577544935189
860000000.0 0.2976318141852716 -0.03770539941195052
880000000.0 0.2535159033919668 0.11260797616307286
900000000.0 0.16438750386587547 0.2076307710425939
920000000.0 0.2548184430011325 0.02460092476943156
940000000.0 -0.17148972517491465 0.14720179720455834
960000000.0 -0.17365513422860981 -0.05122417738624733
980000000.0 -0.10025943995898748 -0.10558147870285126
1000000000.0 0.1289349908228556 -0.020733819843290563
1020000000.0 -0.08344559443749516 0.05392670310496835
1040000000.0 -0.08679500961531955 0.0669839333879613
1060000000.0 0.13167426981155944 0.06613619554411405
1080000000.0 0.1358090701393317 0.14051150090475203
1100000000.0 0.16617899370136477 0.17683006685141134
1120000000.0 0.26804026639308914 -0.06202481675733366
1140000000.0 -0.29427802496485095 -0.05473771875667793
1160000000.0 -0.31697366576609454 -0.03214607212304825
1180000000.0 -0.33427991119847894 -0.04826722358883118
1200000000.0 -0.2941513041527709 -0.19065792193144288
1220000000.0 0.3499902755063534 0.06115533701684275
1240000000.0 0.22197191686310708 0.30371212930261016
1260000000.0 0.3136950198749423 -0.23642227117317285
1280000000.0 -0.3478737059792623 -0.1627422525124078
1300000000.0 -0.06941560084416873 -0.37344980307505193
1320000000.0 -0.04814353813153053 -0.3790227101128875
1340000000.0 -0.36119417158182376 0.08072709245042217
1360000000.0 0.2113588246030737 0.32779107545545105
1380000000.0 -0.22759536010013878 0.3307639456591532
1400000000.0 -0.0070374529180813475 -0.3961562516532227
1420000000.0 0.18178162128040584 -0.34837650360799444
1440000000.0 -0.17544025526986404 -0.35367262958600265
1460000000.0 -0.37730915783593116 -0.12144085903450999
1480000000.0 -0.33534245063639057 -0.2103883444147784
1500000000.0 -0.0019020027125577661 0.3994079583119538
1520000000.0 -0.38776152987878926 0.006835561256824687
1540000000.0 0.3503181876407723 -0.08672259635288575
1560000000.0 -0.24367833657919374 0.22050473758869585
1580000000.0 -0.16514066529683688 -0.24325672724130787
1600000000.0 0.006734587952903567 -0.2574974699090583
1620000000.0 0.19073741897463217 -0.10293879960332177
1640000000.0 -0.17787036782809715 0.05235829814223995
1660000000.0 -0.05588699185050378 0.14414489416793808
1680000000.0 0.11343807298761627 -0.008657971177389262
1700000000.0 -0.06739791845496708 -0.07748385860754496
1720000000.0 0.07870881710316362 -0.02189342962764798
1740000000.0 0.0705880222133845 0.03458131786492512
1760000000.0 0.0530559181560598 -0.07239998905686322
1780000000.0 0.08845071419660927 -0.07751620959715547
1800000000.0 0.13611558088410403 0.03212953376096536
1820000000.0 -0.167347200606668 -0.011802892199784792
1840000000.0 0.18271863514316738 -0.06860075159087058
1860000000.0 -0.21916080747878275 -0.032196358754804345
1880000000.0 -0.02551620244406345 0.2540208722574583
1900000000.0 -0.01958883272491147 0.2717449511317973
1920000000.0 0.21842279896091887 -0.19717513647086735
1940000000.0 -0.30172497390171255 0.03600995266183642
1960000000.0 0.3071114550707314 -0.01636225394077197
1980000000.0 -0.3066777714291538 -0.06428381977311695
2000000000.0 0.05554849567205266 -0.31588016791795054
2020000000.0 0.3152995655484827 -0.07034966664436544
2040000000.0 0.3207129236972778 -0.02280649939046299
2060000000.0 0.24648088774012084 0.19976989421989882
2080000000.0 0.01952741187639897 0.31755932637877454
2100000000.0 0.1342613331944944 -0.2843013030133182
2120000000.0 0.22952643442506365 0.20252275266672293
2140000000.0 0.037516335103524694 -0.2970061142822701
2160000000.0 -0.29548786265705007 0.005877164995544298
2180000000.0 -0.1151481660175677 0.26401295002452124
2200000000.0 -0.13145829309274168 0.2504370163925296
2220000000.0 -0.2552684053292042 0.1140780472501237
2240000000.0 -0.17970460250506837 -0.20917551505149978
2260000000.0 0.09424513704465347 -0.25247017253447396
2280000000.0 0.26995737704038913 -0.012303424302148199
2300000000.0 0.2557553194167208 0.0496084202805521
2320000000.0 -0.2544390943606107 0.024151442579147604
2340000000.0 -0.14025950691095507 -0.21426149533172903
2360000000.0 0.18391281384482838 -0.17813612017497765
2380000000.0 0.041551785338667255 0.25772045575450003
2400000000.0 0.17890756537131408 0.21776073036746824
2420000000.0 0.08233875679147011 -0.28715438647392333
2440000000.0 -0.2994940070412807 0.10022973061765428
2460000000.0 0.24374501776131016 0.2359700303265224
2480000000.0 0.2795499984047382 -0.24773663677249338
2500000000.0 -0.016500515060996347 0.4056680398224858
2520000000.0 -0.3453557803916037 -0.27622821333699826
2540000000.0 0.4761195428255532 0.013935847113455661
2560000000.0 -0.3429350377549655 0.377074366740522
2580000000.0 0.14384193353017305 -0.5206212398870164
2600000000.0 -0.00777137651454402 0.5660736299140234
2620000000.0 -0.09907883635531087 -0.5813239257509214
2640000000.0 0.29467450626521224 0.5318912317633124
2660000000.0 -0.5843023904036211 -0.22069833332471994
2680000000.0 0.40850320783937033 -0.48492845234955273
2700000000.0 0.5896592308548929 0.2577688149207455
2720000000.0 0.2785766335147129 0.5845395845007806
2740000000.0 0.027519901817274064 0.6474781379696467
2760000000.0 0.05192789163362485 0.644154832520536
2780000000.0 -0.5917939026903185 -0.24134364090718322
2800000000.0 -0.36080559170742177 -0.5144624651892814
2820000000.0 0.20431455858651143 -0.5808592982646384
2840000000.0 0.43004520440455796 0.4198672499740505
2860000000.0 -0.47974316909112974 -0.3364555771207384
2880000000.0 0.28929697909589885 0.49035469499555334
2900000000.0 0.43056841046294947 -0.3424194963851149
2920000000.0 -0.04444440995614731 -0.5260389813297225
2940000000.0 -0.36722826611280557 -0.3456936498908602
2960000000.0 -0.19596296421137743 -0.43824497237154436
2980000000.0 -0.22356669805106588 -0.4010541778867395
3000000000.0 -0.33513971712277013 -0.285217327503575
3020000000.0 -0.4174210196520768 0.05086191309779995
3040000000.0 -0.11925299539659161 0.38247528721531454
3060000000.0 0.3803287574966426 -0.019432899292778305
3080000000.0 -0.2951965578198011 -0.21649653833359325
3100000000.0 0.27825317331884786 0.2136532758990363
3120000000.0 0.3324881945962071 -0.08635255310202421
3140000000.0 -0.22638325598297687 0.25436376177851716
3160000000.0 0.09942347695887507 -0.32202759474706827
3180000000.0 0.03277315881483422 0.33241842676121097
3200000000.0 0.31405946744215246 -0.09735983194158887
3220000000.0 -0.17408475987709135 -0.2742493983984723
3240000000.0 -0.31390596899072026 -0.03677971269082395
3260000000.0 -0.2867770981412012 0.10600659840280964
3280000000.0 -0.29348129157643793 0.018416635437716652
3300000000.0 -0.27436278340820447 -0.04224471351867538
3320000000.0 -0.15850341494193873 -0.1987531239099339
3340000000.0 0.2250076866158209 0.04624200894444734
3360000000.0 -0.18486011089168203 0.09283419530146769
3380000000.0 0.1291917437390702 -0.13795724945357005
3400000000.0 0.08426828069527544 0.14388766744916956
3420000000.0 0.013899969183887648 0.1431747892313657
3440000000.0 -0.0689693549121832 0.10504702786647534
3460000000.0 -0.05910245103222668 0.08747948919539328
3480000000.0 0.07791172806842221 0.04097230083300067
3500000000.0 -0.0785544011792872 -0.014293761003468203
3520000000.0 -0.03335930035212596 -0.07040593828456308
3540000000.0 0.056364123487719756 -0.051405277869892706
3560000000.0 0.08128528264477694 -0.030042191119401887
3580000000.0 -0.059449010323150454 0.07210486466290732
3600000000.0 -0.03994832998387301 0.08946512284657526
3620000000.0 0.051124199882493816 -0.09939742698586605
3640000000.0 0.12195789362853537 0.02950018836504655
3660000000.0 0.026966100315816643 0.1339435893373536
3680000000.0 0.014373959244141733 0.1402918800196093
3700000000.0 -0.06879474639493677 -0.11452632639490364
3720000000.0 0.11822565749966207 0.023716744098073058
3740000000.0 -0.040545681582946934 -0.0924927179581178
3760000000.0 0.08261182972123547 0.0038994683753941373
3780000000.0 -0.04914282001890661 -0.04142749103581805
3800000000.0 0.03350638044457598 0.007073142194816547
3820000000.0 0.0007229715399072712 -0.001235048094930822
3840000000.0 -0.023308055575456326 0.02881844829414397
3860000000.0 0.022412150854527964 -0.06157620884136195
3880000000.0 0.08906822633770071 -0.026365662719351386
3900000000.0 -0.08790431819792005 -0.07064035938998893
3920000000.0 -0.11494048537228292 -0.05492948365536509
3940000000.0 -0.11811634904336431 0.0691647075462182
3960000000.0 -0.11492816048153082 0.07908649073007419
3980000000.0 0.13022687781128775 -0.030261207223036053
4000000000.0 0.09075371651655477 -0.068290322785774
