!Created with skrf (http://scikit-rf.org).
# Hz S RI R 50.0 
!freq ReS11 ImS11
400000000.0 0.7991672431618493 0.34581176565563515
420000000.0 0.21844259982021705 0.7872190582213754
440000000.0 0.42844459681578745 0.6299837191946879
460000000.0 -0.5671203293889606 -0.3852498986579399
480000000.0 -0.18570826957921138 -0.5926656206752022
500000000.0 0.6479011448036286 -0.0038929299820290595
520000000.0 -0.41635445706164553 0.5236506836170032
540000000.0 0.6269591787136277 -0.2572395000759485
560000000.0 -0.16079234468445572 0.6495769478830985
580000000.0 -0.17626161347846442 0.4890155387002484
600000000.0 0.044985292010720365 0.5940708382069307
620000000.0 -0.45157593556296527 -0.40916037243858855
640000000.0 -0.371911085696639 -0.42381584973154507
660000000.0 0.03675404023564982 0.525867611688567
680000000.0 -0.0835110488446389 0.48753987135158644
700000000.0 0.354438696713388 -0.27991026574916883
720000000.0 -0.3088327821854183 0.3786926079076532
740000000.0 0.45533470654561375 0.12005490464741934
760000000.0 -0.16271465511038863 0.4150974582471338
780000000.0 -0.4333982028709381 0.011874081151356311
800000000.0 -0.09942386433881228 -0.3842561854169374
820000000.0 0.35232106909642646 0.04462617117714038
840000000.0 -0.10113186773847031 0.3061132781447607
860000000.0 0.21412184468079973 -0.2111641241380914
880000000.0 0.19971618455264137 0.18471835882769708
900000000.0 -0.025728918543754014 0.2660582165427769
920000000.0 0.25214284778465984 0.04272874078342246
940000000.0 0.06591418175152514 0.21445061176559488
960000000.0 -0.17237759022311547 -0.052692961200905525
980000000.0 -0.1316774058471173 0.0651553352524802
1000000000.0 -0.05255622016143135 -0.11801038321163364
1020000000.0 0.023454906446612495 -0.0970924110008392
1040000000.0 -0.10247549824246627 0.04829388051161399
1060000000.0 0.03470997210892692 0.14153429477719137
1080000000.0 0.19324956256034426 -0.020099713457268565
1100000000.0 0.06399640572894903 0.23017087842969067
1120000000.0 0.25354136480725986 -0.10797008467626279
1140000000.0 -0.2960562935352467 0.05520441915400811
1160000000.0 -0.3101885677517278 0.08256878227972947
1180000000.0 -0.33441114837723895 0.041352893907390435
1200000000.0 -0.2757801081661298 -0.21531999426800336
1220000000.0 0.3547915662599602 -0.04023887400984578
1240000000.0 0.1168284118152878 0.3595267903314018
1260000000.0 0.36414235984988996 -0.1502344520849894
1280000000.0 -0.36285482943281056 -0.12689702864633828
1300000000.0 -0.14431580359227725 -0.34995700005248365
1320000000.0 -0.0258408635628887 -0.37975586317769977
1340000000.0 -0.36522215697198646 0.04699174617347277
1360000000.0 0.22356047590611194 0.31649402968760393
1380000000.0 -0.07912668229364131 0.39178381932010575
1400000000.0 -0.12105621942011068 -0.3759199284199053
1420000000.0 0.00897522501975501 -0.39289120788830845
1440000000.0 -0.2969580716451654 -0.2601591715269325
1460000000.0 -0.3952722939160478 -0.016336532049340935
1480000000.0 -0.39083104015149533 -0.07034035734088624
1500000000.0 0.13536973856377107 0.3744519137368524
1520000000.0 -0.3790160100062301 -0.0829891011931214
1540000000.0 0.3520003170608241 -0.09010337719750801
1560000000.0 -0.15644788826291853 0.29082932284221863
1580000000.0 -0.1436080346436933 -0.25460326736193273
1600000000.0 0.08319270668827546 -0.24332471675499734
1620000000.0 0.16864179131461884 -0.1368327706045251
1640000000.0 -0.18322259077921887 -0.009754589621963647
1660000000.0 0.031128923904028223 0.15052464818172084
1680000000.0 0.078598052591786 -0.07959838622692239
1700000000.0 -0.08594315070619062 -0.053398460114549476
1720000000.0 0.014567442839031088 -0.07820486008020672
1740000000.0 0.0329379150608206 -0.06950823359195672
1760000000.0 -0.05517233698318079 -0.07051707454946227
1780000000.0 0.010368010397464086 -0.11526056689434001
1800000000.0 0.01218066935950876 -0.13808137278532184
1820000000.0 -0.14228731137315778 0.08918387940895733
1840000000.0 0.17383644982778645 -0.08977192663596745
1860000000.0 -0.13689614291859747 0.17433012766574557
1880000000.0 -0.07925649391364784 0.24427344311672908
1900000000.0 0.176689796435353 0.212078551043135
1920000000.0 0.1543252707488975 -0.2519068318475507
1940000000.0 -0.2993253319129846 -0.05405055197434564
1960000000.0 0.303164735513762 0.0664885364232055
1980000000.0 -0.29029808207359675 -0.11926973295748851
2000000000.0 0.07959794945595496 -0.309749647421919
2020000000.0 0.32045126873686247 -0.004232993723576917
2040000000.0 0.31535826880234724 0.051225389225502224
2060000000.0 0.3082919909622167 0.07009258511399168
2080000000.0 0.14797761398917106 0.2780148783170827
2100000000.0 0.041338244513869415 -0.30931603138522457
2120000000.0 0.2930620921551795 0.08543638302001855
2140000000.0 -0.19965772495752754 -0.22311482612700206
2160000000.0 -0.2073166033173493 0.21249455019805258
2180000000.0 0.07100583376801134 0.2795626434840112
2200000000.0 -0.16158725871162377 0.23492917016385237
2220000000.0 -0.14871888009280626 0.24065025461126618
2240000000.0 -0.18262107121923257 -0.20801332905801
2260000000.0 0.2100587836155737 -0.17313705336154572
2280000000.0 0.27155579060025486 -0.032536419284963425
2300000000.0 0.19389871200860576 0.16968248938545458
2320000000.0 -0.13811714218696014 -0.21352185569067492
2340000000.0 0.02216986585918119 -0.2562828802454021
2360000000.0 0.16324379768912464 -0.1952903806375433
2380000000.0 0.12255011768209616 0.2250965405126195
2400000000.0 0.12576987541993137 0.24658246719260332
2420000000.0 0.013168260535541345 -0.29627034484788023
2440000000.0 -0.19446938103832584 0.24766237666151475
2460000000.0 0.32570413439890034 -0.08991471246981314
2480000000.0 0.03258477399173921 -0.3708686377862719
2500000000.0 0.2744841859702168 0.29880881968893935
2520000000.0 -0.371781873278654 -0.2434790611768985
2540000000.0 0.47032558361808935 -0.09488466947060395
2560000000.0 -0.30790014630359663 0.4086691077121091
2580000000.0 0.24441621024596294 -0.48251218680503516
2600000000.0 -0.07300868400718061 0.5618151256483402
2620000000.0 -0.03491879412754894 -0.5874849239260075
2640000000.0 0.20740333583836204 0.5685708068291221
2660000000.0 -0.5463844418672936 -0.2955558481154502
2680000000.0 0.3628894134428448 -0.5156704016332094
2700000000.0 0.617804802426771 0.16466650524199836
2720000000.0 0.3861709931904654 0.5167590136046626
2740000000.0 0.39305123597061126 0.5134549574452218
2760000000.0 0.27333580432397375 0.5860788126642431
2780000000.0 -0.6362793489340397 -0.06375096753428536
2800000000.0 -0.4806560221440466 -0.4070570097179318
2820000000.0 0.14099080161293095 -0.601629755134704
2840000000.0 0.503712254459152 0.3321747156438231
2860000000.0 -0.5188847315969644 -0.2759196412429092
2880000000.0 0.19013543578674763 0.5365213685432819
2900000000.0 0.47230066150609734 -0.27923619570655883
2920000000.0 -0.018158263810873987 -0.5263313138008059
2940000000.0 -0.30656431745635626 -0.3979781313135178
2960000000.0 -0.21328361677766663 -0.42811009599868804
2980000000.0 -0.31618039242784973 -0.3270067385484534
3000000000.0 -0.3633465971086364 -0.24254400795939476
3020000000.0 -0.403882575528673 0.11245421046933411
3040000000.0 0.21611682565322 0.33487116867794064
3060000000.0 0.3330490153335225 -0.1811017371204969
3080000000.0 -0.36472276715782637 -0.02622816985574322
3100000000.0 0.343372689342608 0.07477730767905051
3120000000.0 0.2516049869117464 -0.2359360396399221
3140000000.0 -0.12186600732887848 0.3194481995566034
3160000000.0 0.08785494243141413 -0.3273582322031181
3180000000.0 0.0847296462515299 0.32483601745905677
3200000000.0 0.32635957225339307 -0.04723790703786469
3220000000.0 -0.12413097282258324 -0.2998836455241357
3240000000.0 -0.2759557315790661 -0.15530832235646985
3260000000.0 -0.3028519138478688 0.03352282995032333
3280000000.0 -0.2917120157886901 -0.01815966709672582
3300000000.0 -0.2633070270677813 -0.07827568840475871
3320000000.0 -0.12540821084296055 -0.21798538925576177
3340000000.0 0.22558776462313196 -0.028470991300444188
3360000000.0 -0.1478041001180793 0.14069818313566504
3380000000.0 0.043869609892955505 -0.1810937495409714
3400000000.0 0.16518502176278957 -0.016283333979349626
3420000000.0 0.13889159591114664 -0.030423613201414363
3440000000.0 0.04499616463328984 0.11733440080833038
3460000000.0 0.045059243624344186 0.09705909153249638
3480000000.0 -0.022935756777217667 -0.08699760168883883
3500000000.0 0.023220045009663064 0.07861509755722096
3520000000.0 -0.036325520084006545 -0.07084264831738181
3540000000.0 0.04853057999564143 0.06423780694961577
3560000000.0 0.071816912862419 0.052249945882896214
3580000000.0 -0.03789872813874919 -0.08587148328010606
3600000000.0 -0.059997127143448216 -0.07664104042001624
3620000000.0 0.10660926203250835 0.022819659534773645
3640000000.0 0.01618281899098406 0.12156818485344495
3660000000.0 -0.06126299647763094 0.11778602022502477
3680000000.0 0.041285811818975116 0.13151139823573954
3700000000.0 -0.12569834026108023 0.030567424086815235
3720000000.0 0.05667276209656529 -0.10045539490042242
3740000000.0 -0.09981808502487279 0.0014879028244817996
3760000000.0 -0.02901972632085157 0.07764004901403253
3780000000.0 0.06381999969086664 -0.0010131298183034536
3800000000.0 0.030958226446664173 0.01775015735451966
3820000000.0 0.0022725335414769334 -0.0032020981842872834
3840000000.0 0.032675920507852604 -0.004049810646327031
3860000000.0 -0.025195468626758203 -0.05642124751412116
3880000000.0 0.031684385401642694 -0.08203706616062628
3900000000.0 -0.09546401199795353 -0.052659611040894366
3920000000.0 -0.004011798957066813 0.12590464340145252
3940000000.0 0.10712692730054531 0.0791028658475461
3960000000.0 0.02353576523571566 0.13565584495007502
3980000000.0 -0.024480727891013163 -0.13290725714588947
4000000000.0 -0.0942519533833178 -0.06344706786552776
