!Created with skrf (http://scikit-rf.org).
# Hz S RI R 50.0 
!freq ReS11 ImS11
400000000.0 0.834096765002708 -0.27539517181316997
420000000.0 0.7585220431360093 -0.3395249543938069
440000000.0 0.37558094471597 -0.6753579875789397
460000000.0 0.11012610546707399 0.6843666958811606
480000000.0 0.4524716442574142 -0.3850213759334799
500000000.0 0.4291566061461086 0.4571171306976225
520000000.0 0.44295776313988705 -0.46892205856675656
540000000.0 -0.049107946243591966 -0.6030597430325634
560000000.0 0.6167490065470514 0.051689895538802405
580000000.0 0.23915138292592558 0.4676027507000543
600000000.0 -0.3485907812859386 0.4855864842770621
620000000.0 -0.22333783095868653 -0.5640397682090057
640000000.0 -0.4803554358405882 -0.2942427392521376
660000000.0 0.2304751408913397 0.4662283203653302
680000000.0 0.2890196903236482 -0.37888568118756133
700000000.0 0.29694914516677073 0.39904421332271417
720000000.0 0.43900473909720744 0.2397479856197515
740000000.0 0.24256679627391456 0.41565823828723353
760000000.0 -0.022792443019919312 0.45528407720421266
780000000.0 -0.19936374597981263 -0.40757981748804506
800000000.0 -0.22246472603976053 -0.3360597717114946
820000000.0 0.14515613999617305 0.32539542096030827
840000000.0 -0.31416195394086494 -0.1089449500827924
860000000.0 0.30540693134487934 -0.06432090548444475
880000000.0 0.23356266662991212 -0.17219475030389397
900000000.0 0.26690894204395404 0.0579661429001509
920000000.0 -0.029647606408017804 -0.25405951090789425
940000000.0 0.21722563988003768 -0.039926939282122514
960000000.0 0.16981621188642126 -0.02371076880843781
980000000.0 -0.08709517707915765 -0.10304875700280376
1000000000.0 0.12988685846644082 0.029402986614004298
1020000000.0 -0.08989631299177932 0.07369719757371176
1040000000.0 0.13248280023637185 -0.010036606667944306
1060000000.0 -0.15088900296836208 0.0059835016854440344
1080000000.0 0.039748661398341545 0.1984972112747539
1100000000.0 -0.07092346395605925 -0.23722895171617786
1120000000.0 -0.04458422071645913 -0.2788424089748923
1140000000.0 -0.2643320778687621 0.1651906243295242
1160000000.0 0.2621261029976181 0.20368388806510532
1180000000.0 0.14798609621409695 0.3032563352043287
1200000000.0 -0.27970459102470574 -0.2140607729830052
1220000000.0 0.35739578917382636 -0.0966246626604122
1240000000.0 0.2990875926130771 -0.2308323900518587
1260000000.0 0.08427419439256044 -0.38475640767862784
1280000000.0 -0.29690788913215055 0.23511858064007912
1300000000.0 0.009432222300167901 -0.3659985656318365
1320000000.0 0.26891424927589175 -0.2635809212900053
1340000000.0 -0.359489489630585 0.07531626875117683
1360000000.0 0.15185296142602947 0.3532100733510559
1380000000.0 -0.07932961411904153 0.3879759577334853
1400000000.0 -0.07703230481080149 -0.3754448691976097
1420000000.0 0.3321501649314456 -0.1897735852760841
1440000000.0 0.006849177015180867 -0.3871344045252867
1460000000.0 -0.26053236912390887 -0.28772903169291203
1480000000.0 -0.26187338490706913 -0.28931358094544607
1500000000.0 -0.3683411912185751 0.1333544755595928
1520000000.0 0.09554034776635938 -0.3751383852533155
1540000000.0 0.060411626938607015 0.35559702521845465
1560000000.0 -0.20663396948797694 -0.25431898060597535
1580000000.0 0.2870170431308377 0.07329818050499448
1600000000.0 0.21388247962404466 -0.15333522512724998
1620000000.0 0.08805538345131621 0.19265087769848577
1640000000.0 -0.016936441404058564 0.1870825501685598
1660000000.0 0.12664404821838743 -0.1001296634296615
1680000000.0 -0.10380697249623096 -0.062358816260783115
1700000000.0 0.08561743640717177 0.08027346618115881
1720000000.0 0.06358354699573367 -0.07038247828304951
1740000000.0 0.029440863258101777 -0.07648989997818025
1760000000.0 -0.03981248289503493 0.08272900646808662
1780000000.0 -0.09107223421306412 -0.060441699937241126
1800000000.0 0.11294145407533951 0.06120373051333597
1820000000.0 0.07030960532011964 0.1434951022965845
1840000000.0 -0.02837362138622214 -0.18965626533300697
1860000000.0 -0.021153682427965673 0.21628893042706385
1880000000.0 0.21985340246099658 0.12387590995050013
1900000000.0 0.27209347505460346 -0.019979758489145925
1920000000.0 -0.04906124989310341 -0.28648746392926183
1940000000.0 -0.30325485909381933 0.0389030702770023
1960000000.0 0.23314529730115097 -0.20450477022758268
1980000000.0 -0.27647932152557125 0.14649829448876717
2000000000.0 0.11378020077116745 -0.2978089397536403
2020000000.0 0.29645335418327207 -0.13163833991842833
2040000000.0 0.3201394202382337 0.04791973071978627
2060000000.0 0.2238967493803826 0.23165364098181784
2080000000.0 -0.035317387022788464 0.3243784206415263
2100000000.0 -0.07784465196176935 -0.3136186293081969
2120000000.0 0.23146350571885918 0.2173857909075229
2140000000.0 -0.22864716511906197 -0.2225443508863493
2160000000.0 0.09281055866991579 0.3039508801835854
2180000000.0 0.23949899971531274 -0.1969351033326772
2200000000.0 0.17897812791690226 -0.24610278074569386
2220000000.0 -0.007741281022625789 -0.2964381252080298
2240000000.0 0.27106297334279283 0.1009646534519769
2260000000.0 0.018830415987338475 0.27645611076267396
2280000000.0 -0.12415439584363563 0.23851772542229716
2300000000.0 -0.08137171755752372 -0.23671042931749664
2320000000.0 -0.18416627818326245 0.1591527936868016
2340000000.0 0.11740198868084993 -0.21457352191087595
2360000000.0 0.07058396087872164 0.23570647416564003
2380000000.0 -0.20733964198227411 -0.1515940911755988
2400000000.0 -0.2786831099354706 -0.024700653229708196
2420000000.0 0.2224145401173609 0.20625199965821575
2440000000.0 -0.16099740527208867 -0.2846767948744086
2460000000.0 0.11697737255084585 0.3356552790640413
2480000000.0 0.22327576666259538 -0.32117042828795267
2500000000.0 0.28162413186228896 0.32035713250660597
2520000000.0 -0.4351748542317371 0.15674015781995126
2540000000.0 0.2549550296734453 -0.4221706104886553
2560000000.0 0.053806971422699815 0.5230996493153084
2580000000.0 -0.18340857410253714 -0.5215072825083477
2600000000.0 0.34548590821422975 0.46059696088617536
2620000000.0 -0.3805174352661356 -0.4574018430545278
2640000000.0 0.45360370847762055 0.4092846763458266
2660000000.0 -0.6248575260043567 0.03932289556440782
2680000000.0 0.06682741650151337 -0.6305576153887162
2700000000.0 0.6284973877940903 -0.13440162875813186
2720000000.0 0.5927362855315544 0.2609042328524611
2740000000.0 0.5806406839473354 0.2902446938084316
2760000000.0 0.552392492406077 0.3407986124404503
2780000000.0 -0.5252177246513959 0.3715576611599591
2800000000.0 -0.6257542075384072 0.1029558028760843
2820000000.0 -0.35417863239743336 -0.5118193811563495
2840000000.0 0.5824250508792701 -0.17828888249435665
2860000000.0 -0.4197290257993241 0.42079421953038326
2880000000.0 0.5405706609917398 -0.1917207417068104
2900000000.0 -0.268108141619713 -0.48225049277132964
2920000000.0 -0.5257450653725233 0.05899167337430523
2940000000.0 -0.3644906790928493 0.3407343446108439
2960000000.0 -0.354367580108392 0.3163239352980758
2980000000.0 -0.2958376528302588 0.33673973721663897
3000000000.0 -0.19111043857663393 0.37974251727876884
3020000000.0 -0.0374069423506029 0.40222211473861713
3040000000.0 0.18529086168531847 0.33654606021674244
3060000000.0 0.31168637199178967 -0.19912873562955852
3080000000.0 -0.3294511983785537 -0.1383216063934508
3100000000.0 0.2155684228072315 0.2693923422411801
3120000000.0 0.327390630783319 -0.1052661172563293
3140000000.0 -0.3262609488070095 0.10155539333653159
3160000000.0 0.33281522782927586 -0.07589254864097021
3180000000.0 -0.3428101113955757 0.016939543662204216
3200000000.0 0.06670166677017846 0.3364503839453739
3220000000.0 0.24958071337955856 -0.22963225510621227
3240000000.0 0.03826673183331133 -0.3325289701399943
3260000000.0 -0.18399961364193973 -0.2727366602433899
3280000000.0 -0.31316016466307967 -0.05193741940705599
3300000000.0 -0.2383887002799372 0.18341966082073635
3320000000.0 -0.13349404625961545 0.2376299866111938
3340000000.0 -0.24828194083288277 0.03156132076437144
3360000000.0 -0.20672013456076305 0.08158305015718806
3380000000.0 0.03926847583668517 -0.18855064427369486
3400000000.0 0.05431287215984226 -0.1597860691097719
3420000000.0 0.051820505572191186 -0.1322575919571867
3440000000.0 0.05741149285979336 -0.10182217549179721
3460000000.0 0.0937886979229205 -0.0003158398744524369
3480000000.0 -0.07597752746158923 0.003622651114508813
3500000000.0 -0.07142895972872795 -0.0018901772843047345
3520000000.0 -0.06730285756424918 -0.022321405179330817
3540000000.0 0.015628551090369543 0.07607575155013566
3560000000.0 0.039321922124334135 0.07497106615268453
3580000000.0 0.09602221383985107 -0.0030837457781361295
3600000000.0 -0.013187365303894024 -0.10322263148189477
3620000000.0 0.11290900412881205 0.04678742302717901
3640000000.0 0.003929031981563219 -0.13492007617070534
3660000000.0 -0.06285843250809339 -0.13403256320942067
3680000000.0 0.0788977190608765 0.1302789429773938
3700000000.0 0.03947959539523887 0.13856216784655193
3720000000.0 0.06901697877574182 0.10911586115010162
3740000000.0 0.09515382365119358 0.03799468825475715
3760000000.0 0.047261433808264176 -0.06437481667526375
3780000000.0 0.056432879828790604 0.015988394012250433
3800000000.0 -0.015597216851938378 -0.020457803479376077
3820000000.0 0.011472310456673691 -0.0012524074742527116
3840000000.0 -0.04609640833577898 0.015183454077449003
3860000000.0 0.009376519669656434 0.07851920214751112
3880000000.0 0.003792161079737467 -0.10607443322011645
3900000000.0 0.07087673100782248 0.10831097108332005
3920000000.0 -0.07311072390496047 -0.12528814077098416
3940000000.0 -0.0405840047390508 0.14683605724809465
3960000000.0 0.13699268858076563 -0.07527446595593187
3980000000.0 0.09877490725075931 0.11017332104770848
4000000000.0 -0.09624183400526465 -0.08081658038928097
