!Created with skrf (http://scikit-rf.org).
# Hz S RI R 50.0 
!freq ReS11 ImS11
400000000.0 0.8336515056882725 -0.27439601546830683
420000000.0 0.7822086883686833 -0.2829081982856098
440000000.0 0.44751463955832715 -0.6278510352220524
460000000.0 0.15543821501536126 0.6794943075202423
480000000.0 0.32761792403410567 -0.4911449871727367
500000000.0 0.43123633522467875 0.45608112431733444
520000000.0 0.4067971823362278 -0.49437711051066674
540000000.0 0.023433961540069794 -0.6071312600174334
560000000.0 0.6173274589682862 0.0413246852211081
580000000.0 0.3983240451803052 0.33718814890975574
600000000.0 -0.2442537089865354 0.5459099821424661
620000000.0 -0.3812338088775627 -0.47222545598950944
640000000.0 -0.3938931157821826 -0.40148167294349474
660000000.0 -0.04717039944168436 0.5155366838838875
680000000.0 0.237485456979704 -0.4144086931430614
700000000.0 0.4047268651267553 0.28188385029588764
720000000.0 0.44725531231259363 0.2114517009693126
740000000.0 0.13880633233478398 0.45861285690991216
760000000.0 0.05064874197095509 0.4530197811808108
780000000.0 -0.4441447716688456 0.05712644694055161
800000000.0 0.11558447935483654 -0.3844759590003223
820000000.0 0.2892284830674922 0.22044440666027162
840000000.0 -0.33122456510011355 -0.02124792522050187
860000000.0 0.3019029790769785 -0.08449509396265613
880000000.0 0.27924928488967177 0.052860755661373764
900000000.0 0.20079090290035786 0.18451376655469015
920000000.0 0.10681882885407137 -0.23101875675612155
940000000.0 0.08542938944960828 -0.20516551613048647
960000000.0 0.12975791806782852 -0.10325281097431738
980000000.0 -0.12524763205451278 -0.055191554647897635
1000000000.0 0.09068612381774477 -0.09778357129315267
1020000000.0 0.07973151308979944 0.08323502601098848
1040000000.0 0.1271128279684469 -0.03056631416110763
1060000000.0 0.10278045541914825 -0.11390871732956463
1080000000.0 -0.11552078009335913 0.16807353559390636
1100000000.0 -0.16848619101268691 -0.17861278865037006
1120000000.0 -0.17380046320121204 -0.22033938764240293
1140000000.0 -0.16724829407748565 0.2586917866135373
1160000000.0 0.15328201538060435 0.2948095807338186
1180000000.0 0.12442802534043329 0.31381028642043374
1200000000.0 -0.34732154860078257 -0.07359320917065473
1220000000.0 0.18758609055983974 -0.3152557875864733
1240000000.0 0.37199362424460697 -0.07223175136265929
1260000000.0 0.012330593349882152 -0.39399534569204164
1280000000.0 -0.33021859099132694 0.18895508088297952
1300000000.0 0.06831372024174805 -0.35900760033800483
1320000000.0 0.28596301974336163 -0.24522893131424123
1340000000.0 -0.36051377329826695 0.06475661857990538
1360000000.0 0.26551932107010234 0.2798039767495473
1380000000.0 -0.036307485303119766 0.392648537512772
1400000000.0 -0.08548408640033703 -0.3723273315391343
1420000000.0 0.3261541481877997 -0.20252938045850308
1440000000.0 -0.06528983222094646 -0.38352938150942845
1460000000.0 -0.2983075924630371 -0.24760061862108526
1480000000.0 -0.13658217063227118 -0.36765263062326814
1500000000.0 -0.3285542429498373 0.21457165721961668
1520000000.0 0.11970721846775789 -0.36651526971195947
1540000000.0 -0.0009615912246819564 0.36120584597428856
1560000000.0 -0.24491205421272746 -0.22268428423477724
1580000000.0 0.29314205033545615 -0.0033472816158537657
1600000000.0 0.26150295334090046 0.009802788092999093
1620000000.0 0.10005135640485018 0.18715469361651027
1640000000.0 0.04577271748452897 0.18236992032634713
1660000000.0 0.06035898053848668 -0.1470063404532026
1680000000.0 -0.1111993944213746 -0.04785598810571096
1700000000.0 0.10635760767586434 0.050614629386078525
1720000000.0 0.0648678468278055 -0.06911242806285944
1740000000.0 0.029495013819082923 -0.0752837928041837
1760000000.0 0.052284212872848575 0.07668400189213602
1780000000.0 -0.0964911307978612 0.050424807841722236
1800000000.0 0.05858722316938585 0.11624309235179708
1820000000.0 0.12482254846651308 0.09742971514016918
1840000000.0 0.05370847596734457 -0.18435137475797567
1860000000.0 0.03331581898294915 0.21568473191245666
1880000000.0 0.23858015377339623 0.08336991533433351
1900000000.0 0.2658614420409058 -0.05053049878589335
1920000000.0 0.09622324762139453 -0.27687764792792824
1940000000.0 -0.30108768052454105 0.0532837139397135
1960000000.0 0.1838104753446468 -0.2495764300856898
1980000000.0 -0.31228521408351145 0.010695171521448802
2000000000.0 0.09169690301517797 -0.30656681575587025
2020000000.0 0.25242869413042984 -0.20294837307533717
2040000000.0 0.3171840519697828 0.05999729048490978
2060000000.0 0.2250318585874981 0.23129850827475085
2080000000.0 0.11196788025087084 0.3068180250539898
2100000000.0 -0.10044056325814663 -0.30693734397901395
2120000000.0 0.23452201935829328 0.21715104556703463
2140000000.0 -0.26260660282070275 -0.18356808624882526
2160000000.0 0.16313044028194018 0.2726221451436305
2180000000.0 0.27469578165855424 -0.14280680293115253
2200000000.0 0.19272150894472198 -0.2377037159446886
2220000000.0 0.033104336652990854 -0.29557625203872645
2240000000.0 0.2853723874704343 -0.046055535249410876
2260000000.0 0.07427208615415622 0.26637132187325496
2280000000.0 -0.19545739535864617 0.18357338944881635
2300000000.0 -0.011947640441153816 -0.24983819635459031
2320000000.0 -0.11943719796492727 0.21471496187087813
2340000000.0 -0.014050292834510435 -0.24317294343788318
2360000000.0 -0.0020342370646536673 0.24286650944104188
2380000000.0 -0.07680103441789514 -0.24510994422284238
2400000000.0 -0.27136513763566855 0.08091281045527995
2420000000.0 0.2766562117723271 0.12176676953012128
2440000000.0 -0.17652236909326788 -0.27500507588950646
2460000000.0 0.13560001801186616 0.3298699710784668
2480000000.0 0.22647140565722015 -0.31890197620609173
2500000000.0 0.3099488358938262 0.2946670946067219
2520000000.0 -0.4365988019257052 0.15649666803470286
2540000000.0 0.22085702456417391 -0.44327425789745756
2560000000.0 0.07435180393699416 0.5195464888681921
2580000000.0 -0.1682449753900875 -0.5264749110932875
2600000000.0 0.3133817690236639 0.4832861921383394
2620000000.0 -0.3667701584858887 -0.4691906872521017
2640000000.0 0.46637999025147875 0.39359427356062154
2660000000.0 -0.6242481407344853 0.03676128181440443
2680000000.0 0.09615853448925367 -0.6264991574440029
2700000000.0 0.6101768828713747 -0.19981115333340085
2720000000.0 0.6261349933347841 0.16445484122105064
2740000000.0 0.6109651607941323 0.21947381537320942
2760000000.0 0.5821557282069504 0.28974451111096033
2780000000.0 -0.5011820239238004 0.40442171985994946
2800000000.0 -0.6243298411750234 0.11456707846600665
2820000000.0 -0.39468158510442614 -0.48264820475571785
2840000000.0 0.5737707871279799 -0.20689699681260398
2860000000.0 -0.4173061545353042 0.42349026829345177
2880000000.0 0.5482906479447692 -0.1666914498300296
2900000000.0 -0.24900587223500614 -0.4923658180447156
2920000000.0 -0.5242147931017578 0.06263238364569773
2940000000.0 -0.2617930444287767 0.4241193648524389
2960000000.0 -0.3163314911418007 0.35165684504711825
2980000000.0 -0.3292077673415325 0.3026219797565729
3000000000.0 -0.09070237202619401 0.41664604681891226
3020000000.0 0.08901935590644529 0.3938120269032361
3040000000.0 0.27641737296318114 0.2670883861077743
3060000000.0 0.26696292889829376 -0.2537089830922047
3080000000.0 -0.3382309409484144 -0.11530856177493755
3100000000.0 0.2645559307010331 0.22500118558048668
3120000000.0 0.2952880996849272 -0.17439410250297338
3140000000.0 -0.32492742511499495 0.10809093066678795
3160000000.0 0.341556649293049 -0.027191381342181613
3180000000.0 -0.33351326506220835 0.08134533314354246
3200000000.0 0.05646934029045538 0.3376056673520571
3220000000.0 0.271151285120564 -0.20505725880094453
3240000000.0 0.034763374658354246 -0.3324828650042008
3260000000.0 -0.18238505313655295 -0.271074945557369
3280000000.0 -0.31736628447799625 0.003822166773332499
3300000000.0 -0.17080584418945818 0.24635825268305697
3320000000.0 -0.029531192477007532 0.2706884152504206
3340000000.0 -0.24792630021466722 0.03133302165328816
3360000000.0 -0.20367370905938967 0.08924612670689949
3380000000.0 -0.07417123108950609 -0.17834815978447083
3400000000.0 0.057177637253372174 -0.1592133955589001
3420000000.0 -0.0051011193370588594 -0.14285747251471273
3440000000.0 0.037199677237868475 -0.11290260654158822
3460000000.0 0.09381987376469948 -0.015165295224265227
3480000000.0 -0.07118071308533407 -0.033087298762330186
3500000000.0 -0.030025186378249104 -0.06635425979005628
3520000000.0 0.049011998428313594 -0.05289750848382165
3540000000.0 -0.00904442060162635 0.07682348471669669
3560000000.0 -0.07707922854984384 0.033670922995155034
3580000000.0 0.06775446331705433 0.06691171221983427
3600000000.0 0.020525949703368074 -0.10071686430011094
3620000000.0 0.11098996776331554 0.0460456803985467
3640000000.0 -0.03546522515597726 -0.1276693166907294
3660000000.0 -0.1047734888002282 -0.10266314905649988
3680000000.0 0.13659776785459626 0.06607188756437857
3700000000.0 0.11825135756355758 0.08247697874510068
3720000000.0 0.12935754839151442 -0.004067589165911119
3740000000.0 0.10154383064417828 0.021411849561498022
3760000000.0 0.030517431392778977 -0.07552322954416998
3780000000.0 0.043707674073776924 -0.03957381082368951
3800000000.0 0.010003793703619448 0.02482503360335794
3820000000.0 0.0063267312200829574 0.007869272311644679
3840000000.0 -0.029600530915484445 -0.03770970280367996
3860000000.0 0.014197481635217155 0.07853078480505503
3880000000.0 -0.09305093702996041 -0.05049689085753129
3900000000.0 0.11435959064379224 0.05735703861167935
3920000000.0 -0.10736449423442995 -0.09717276929480953
3940000000.0 0.01772303875892626 0.1515851053058346
3960000000.0 0.09466769520627667 -0.12595411094136696
3980000000.0 0.12053776267545228 0.08739420716709212
4000000000.0 -0.12612591077482502 -0.013143953952457398
