!Created with skrf (http://scikit-rf.org).
# Hz S RI R 50.0 
!freq ReS11 ImS11
400000000.0 0.8269975241651231 -0.2949480123478361
420000000.0 0.7630791054850008 -0.3292993193544726
440000000.0 0.3525787639986151 -0.6863875906934953
460000000.0 0.12857208653180016 0.6832271922661892
480000000.0 0.47954087066573364 -0.34803424728229204
500000000.0 0.5658490328515255 0.27069751436153866
520000000.0 0.23815537929623137 -0.5951476287757995
540000000.0 0.07842275798753676 -0.5955821492594949
560000000.0 0.6100373529897216 0.1049528976394102
580000000.0 0.2666570519641737 0.4533954750779295
600000000.0 -0.19962138590128192 0.5688377256167904
620000000.0 -0.4648149939050659 -0.39034670770089525
640000000.0 -0.4988590840219581 -0.2575966419624716
660000000.0 0.11983610986701654 0.49947550915238714
680000000.0 0.47490362771614236 0.02181812657352018
700000000.0 0.2633115008124092 0.42596334107048217
720000000.0 0.49925542219578123 0.031102684609043505
740000000.0 0.45505017556644517 0.14929305065846374
760000000.0 0.029112219883625085 0.45078155800874165
780000000.0 -0.32393323883857167 -0.307034051582434
800000000.0 0.23109675547147193 -0.3350891403249324
820000000.0 0.29763430928912393 0.21438764776532573
840000000.0 -0.3280255675004484 0.0336085183142438
860000000.0 0.28842184418476713 -0.12315960476410948
880000000.0 0.2822257465684143 0.010707306688355598
900000000.0 0.25635952349623425 0.09541646769868045
920000000.0 0.1786479955808111 -0.18009459919051124
940000000.0 0.21110360457822983 -0.07136267937768805
960000000.0 0.06544428711646853 -0.1566789010584427
980000000.0 -0.09053126547735468 0.10060852966583782
1000000000.0 0.010963917414371109 -0.13278602076607463
1020000000.0 0.08668424968032087 0.07319129231224272
1040000000.0 0.0319211468679686 0.12738974569636086
1060000000.0 0.0552120579113946 -0.1448444213365276
1080000000.0 -0.09197878929081228 0.17938381818922258
1100000000.0 -0.1508701442282062 -0.19888248409896506
1120000000.0 -0.24101693651509676 -0.1382733259756003
1140000000.0 -0.25161504147496033 0.17771976656089608
1160000000.0 0.2885066796269115 0.1636191952514601
1180000000.0 0.15713858172295625 0.29850740158333144
1200000000.0 -0.34128515193507514 -0.09124903868337736
1220000000.0 0.27812068524932476 -0.24243908095132158
1240000000.0 0.3537185021270159 -0.13589457707437508
1260000000.0 -0.006873553307727531 -0.3957446035525599
1280000000.0 -0.2911751992263335 0.23922010810789623
1300000000.0 0.11933446802518989 -0.3450979443336157
1320000000.0 0.30922433727812026 -0.2169140734650487
1340000000.0 -0.3623411220585105 0.06731020918567844
1360000000.0 0.26537672487894726 0.27736875063491634
1380000000.0 -0.10278193715515077 0.3794345338871668
1400000000.0 0.06410242323233167 -0.3773499438930898
1420000000.0 0.3188114011264714 -0.2147419176123359
1440000000.0 -0.08560031656462072 -0.3781570110281918
1460000000.0 -0.31015735075476053 -0.22998289247622028
1480000000.0 -0.043090051754801593 -0.39102721647186306
1500000000.0 -0.25290305162541465 0.30055397866509814
1520000000.0 -0.003919211263836024 -0.38507195615579976
1540000000.0 -0.06486121630202323 0.3555685434203565
1560000000.0 -0.2800117184866245 -0.17715664946882284
1580000000.0 0.29201719345524035 0.03963244679948744
1600000000.0 0.2581631360535306 0.044978380690504034
1620000000.0 0.10587579182912098 0.18481381239174507
1640000000.0 0.04758089895244531 0.1806406548417381
1660000000.0 0.14468307235179548 -0.06821970752717527
1680000000.0 -0.1185593935204884 -0.02512784139537152
1700000000.0 0.11311459804416128 -0.03594221170428283
1720000000.0 0.032885365477029284 -0.08559018026558401
1740000000.0 0.08468888711846946 -0.003257736362754032
1760000000.0 0.08021069591304425 -0.044167708916949794
1780000000.0 -0.10486328189270287 0.02770103302603091
1800000000.0 0.023786023912517253 0.12617594947220898
1820000000.0 0.12195870279068458 0.10374920551000422
1840000000.0 0.010321775596500913 -0.19042375939679587
1860000000.0 0.09269872617045476 0.1969047441792182
1880000000.0 0.21275671815851446 0.1339003563786812
1900000000.0 0.27277760691202496 0.0036736372581901953
1920000000.0 -0.008677940710644375 -0.29222788720576176
1940000000.0 -0.2994870021127242 0.05762466318330001
1960000000.0 0.25440243936976864 -0.17484134527222145
1980000000.0 -0.3123502116073616 0.02613204730073207
2000000000.0 0.08289870368360958 -0.3087539869776569
2020000000.0 0.2653987759188941 -0.1849443619423279
2040000000.0 0.3232396627274158 0.01685038967530324
2060000000.0 0.24914394085769095 0.20398099274854095
2080000000.0 0.04700070596166156 0.32300233824263447
2100000000.0 -0.048452602945495096 -0.3188948155634086
2120000000.0 0.21221789407511205 0.23907145301526997
2140000000.0 -0.27579842103837665 -0.16549167503144127
2160000000.0 0.21003798175970897 0.23650147077379743
2180000000.0 0.2900787089601061 -0.10760254617464309
2200000000.0 0.22732332795282564 -0.20421850414885856
2220000000.0 0.03505379184712541 -0.2978300160914628
2240000000.0 0.2620893079494836 -0.12056573430492872
2260000000.0 0.008812538235297965 0.2752026247371184
2280000000.0 -0.18996823629340764 0.18911376842659583
2300000000.0 0.02741027925712051 -0.2493348546593335
2320000000.0 -0.06494989850851679 0.2370950513272793
2340000000.0 0.034486512954146814 -0.24074823779729165
2360000000.0 0.037556491270459874 0.24061436952211185
2380000000.0 -0.06756078229036803 -0.24700587973149132
2400000000.0 -0.28238179343348513 -0.011331995240201195
2420000000.0 0.27135417375741244 0.13729876192539262
2440000000.0 -0.24577426313068984 -0.21545490891635535
2460000000.0 0.08929180258968106 0.3434559385004551
2480000000.0 0.22313202786509703 -0.3222899569584841
2500000000.0 0.2445294309409193 0.349935261602483
2520000000.0 -0.4514499480745683 0.10472499675321226
2540000000.0 0.17892941885743166 -0.4603230473998927
2560000000.0 0.027887759619113633 0.5245671004837724
2580000000.0 -0.1924476857672696 -0.5173471924962705
2600000000.0 0.29491462079858377 0.49452778824941074
2620000000.0 -0.32790131856415566 -0.4971684945851518
2640000000.0 0.4559443465862731 0.4068996634302354
2660000000.0 -0.6231199308206078 0.05254776911137091
2680000000.0 0.1739399350935996 -0.6096895867341721
2700000000.0 0.609898097118892 -0.20117618596778059
2720000000.0 0.623674388496116 0.17444765720676753
2740000000.0 0.5467447839385956 0.3494158719219407
2760000000.0 0.5206860069442046 0.3881971150637101
2780000000.0 -0.5368881026625479 0.35528958971072866
2800000000.0 -0.6181783664120757 0.14292047761326102
2820000000.0 -0.4036899128059488 -0.4741951488929267
2840000000.0 0.5627368150582568 -0.2356780355126809
2860000000.0 -0.39420104157920366 0.4442373550967411
2880000000.0 0.5510175313663834 -0.15950764647268587
2900000000.0 -0.22650191640548628 -0.504151694689837
2920000000.0 -0.5164365207812586 0.11268831623135703
2940000000.0 -0.341102996272074 0.3643407463759298
2960000000.0 -0.3064496918928334 0.36093294480962856
2980000000.0 -0.3034946082079914 0.3283552262604209
3000000000.0 -0.23788960790713987 0.35537695338074604
3020000000.0 0.13882751674757612 0.3799557916773503
3040000000.0 0.26455169518200455 0.27667145558329403
3060000000.0 0.33400548115050643 -0.15649834325408904
3080000000.0 -0.340002708991679 -0.1092451426879345
3100000000.0 0.219448218696753 0.2695348826457926
3120000000.0 0.26530596603626855 -0.2178938708308595
3140000000.0 -0.3202550560383938 0.11714668316108025
3160000000.0 0.34301490343030855 0.008333435609809018
3180000000.0 -0.33426384631821243 0.07665904161425305
3200000000.0 0.08192136591776714 0.3327512736507303
3220000000.0 0.2440759719638344 -0.2355674358223457
3240000000.0 0.05577468620911837 -0.33036896553633316
3260000000.0 -0.2080157221010713 -0.25408098764079873
3280000000.0 -0.3143776516510112 0.03894683764730469
3300000000.0 -0.19621545528100323 0.22622784737611246
3320000000.0 -0.059670603156282434 0.2666404026714782
3340000000.0 -0.2308023089517578 0.09501950295503997
3360000000.0 -0.1920453838917529 0.11132106285576845
3380000000.0 -0.03557125283209615 -0.19006846280726852
3400000000.0 0.005820925422044277 -0.1696586614940758
3420000000.0 -0.019745285693876003 -0.1416864300987293
3440000000.0 0.042451573340557984 -0.11215191039437035
3460000000.0 0.09499245597200903 0.0018443629940646381
3480000000.0 -0.07291835092586156 -0.030801736841574938
3500000000.0 -0.04188136290171351 -0.06014264127640879
3520000000.0 -0.013944986531606791 -0.07029700105538106
3540000000.0 -0.06247351916514054 0.047149984629345505
3560000000.0 -0.07295294496346082 0.040788154850872706
3580000000.0 -0.03215885876579169 0.08992954740992584
3600000000.0 -0.003857364434635452 -0.10239010655779476
3620000000.0 0.10244067540323783 0.060811041967604645
3640000000.0 -0.015743261163840214 -0.13134773085218368
3660000000.0 -0.12164082995512641 -0.0803722795538471
3680000000.0 0.114243552717684 0.0996874015740579
3700000000.0 0.14097496903487144 0.03430060278913046
3720000000.0 0.1188706077052911 -0.04893421153479424
3740000000.0 0.10152534205615127 0.025316204671826107
3760000000.0 -0.021446306098004263 -0.0782036180611044
3780000000.0 0.05833981192881399 0.014783888431501547
3800000000.0 0.010520715904474667 -0.024825620506524367
3820000000.0 0.0003861412685535259 -0.009245464708763314
3840000000.0 -0.0452474651573012 0.0115598451464538
3860000000.0 0.019902536049512275 0.07641690440846677
3880000000.0 -0.10354511076587841 0.026246971578504186
3900000000.0 0.11722487154354512 -0.05162712071247713
3920000000.0 -0.0976448857111054 -0.10632832412432822
3940000000.0 0.03601876593159523 0.14926145561496318
3960000000.0 0.06027064394733946 -0.14764029257233138
3980000000.0 0.14541767307794634 0.03440345834876715
4000000000.0 -0.08619655268832208 -0.09220060152797857
