!Created with skrf (http://scikit-rf.org).
# Hz S RI R 50.0 
!freq ReS11 ImS11
400000000.0 0.7456174445691619 0.45251986752107176
420000000.0 0.3078521367811156 0.7567408935397167
440000000.0 0.428788315748319 0.6271913919644211
460000000.0 -0.5469159784868178 -0.4124864035820215
480000000.0 -0.14498074713935868 -0.6027488817519568
500000000.0 0.6139193996856466 -0.2317891649924387
520000000.0 -0.5208335865410344 0.4197866868585833
540000000.0 0.6129789362492322 -0.29743286393494284
560000000.0 -0.18292496942812378 0.6404366401990448
580000000.0 -0.46075614147232585 0.23623440610517085
600000000.0 -0.23910523461708338 0.5480921672556732
620000000.0 -0.5804801846749789 -0.2034579333304684
640000000.0 -0.5419921572559246 -0.16690385242969394
660000000.0 0.02224618201895932 0.5229425855765755
680000000.0 0.046792982235626 0.4929052116656252
700000000.0 0.4371693546800995 0.1129013434818294
720000000.0 -0.34598822296083254 0.34858422431518377
740000000.0 0.3580908754658042 0.30512517622684027
760000000.0 -0.036377297536928976 0.44471046972956435
780000000.0 -0.4156545385057001 0.1179010294343096
800000000.0 0.2536448000141116 -0.3055405266953517
820000000.0 0.3362182617747697 0.11198448748868053
840000000.0 0.08846613847997421 0.3105221317799635
860000000.0 0.22440007326245867 -0.19263969426299368
880000000.0 0.10911786570329848 0.2517425971108775
900000000.0 0.011209252955046756 0.27131083990293925
920000000.0 0.16917875712574676 -0.19294142399027028
940000000.0 -0.09123000011167051 0.2034705597696812
960000000.0 -0.180241535004628 0.018193855050059667
980000000.0 -0.1450988640450572 -0.02033863966975731
1000000000.0 0.12914839181401122 0.009550556944534314
1020000000.0 -0.05126454601127179 -0.08670131334764611
1040000000.0 -0.11236010713538677 0.008931264024475954
1060000000.0 0.13769532166740148 -0.044161733569398766
1080000000.0 0.16427359851611345 -0.10519823334979467
1100000000.0 0.14925410532795594 0.18535891396775497
1120000000.0 0.27802132437313243 0.0042465780312950585
1140000000.0 -0.3032214337004737 0.022870679640168128
1160000000.0 -0.2575095191920665 0.18715329674029585
1180000000.0 -0.2910220470609365 -0.16681484164285176
1200000000.0 -0.24365534220847326 -0.25379623346624636
1220000000.0 0.35645989726261146 -0.004281150269159924
1240000000.0 0.22676380874143237 0.29885279553146327
1260000000.0 0.36726899386607254 -0.13844798022611599
1280000000.0 -0.37184377601528074 -0.0933469043551656
1300000000.0 -0.029777913880956852 -0.3793256821643614
1320000000.0 -0.05245296786490074 -0.3782886468096935
1340000000.0 -0.3469662319532964 0.12573873126321186
1360000000.0 0.16689483082998724 0.35203818468686693
1380000000.0 -0.09654866013335711 0.38873747973027195
1400000000.0 0.04962046269541303 -0.3942400876920138
1420000000.0 0.017677415630378477 -0.3939920395620713
1440000000.0 -0.21065740783842754 -0.33218341360434805
1460000000.0 -0.3408484266549018 -0.20386130581076975
1480000000.0 -0.3584505066501649 -0.16908226314135583
1500000000.0 -0.004905410326750397 0.39889226647845627
1520000000.0 -0.3880532165684241 0.012344360026562097
1540000000.0 0.3492194220696329 -0.08931389075648355
1560000000.0 -0.23231525920299587 0.23218959845890236
1580000000.0 -0.18966898028724263 -0.22334056068967892
1600000000.0 -0.008509812629185997 -0.2575955445656458
1620000000.0 0.17246509390438142 -0.1326304334857448
1640000000.0 -0.15186071261838452 0.10576244195406867
1660000000.0 -0.11011987769572698 0.11122952652839865
1680000000.0 0.11263285097647649 0.005585897600101633
1700000000.0 -0.08238473831852329 -0.06344341545712263
1720000000.0 0.052893799794282235 -0.06103094393081852
1740000000.0 0.06027471377980421 0.05112588895594141
1760000000.0 -0.032889280826220724 -0.08463052086066357
1780000000.0 0.09322135205257814 -0.06951708056088658
1800000000.0 0.13850845380861793 -0.020953794831685548
1820000000.0 -0.16465122281475617 -0.03477208791848519
1840000000.0 0.1804624947517167 -0.07554684148956725
1860000000.0 -0.2146726472216179 -0.05006947888945176
1880000000.0 -0.09524281413617178 0.236870832464247
1900000000.0 0.09005548738911283 0.2585981386714173
1920000000.0 0.19837650023942321 -0.2162498906280569
1940000000.0 -0.30256670108664924 -0.02563489774274972
1960000000.0 0.2991521093587531 -0.0736920879493333
1980000000.0 -0.30527454218202577 -0.07310318356570096
2000000000.0 -0.00878351217618711 -0.32076633756246636
2020000000.0 0.30044069958313846 -0.1151720440064986
2040000000.0 0.314892236132914 0.06658184198731434
2060000000.0 0.28925094051887923 0.13355771985783213
2080000000.0 0.08300052909919864 0.3072373923176486
2100000000.0 0.13478220253920706 -0.2834183104655179
2120000000.0 0.20775254945633445 0.22330291118437937
2140000000.0 0.0685587440126873 -0.2919833395430991
2160000000.0 -0.2885096293578273 0.0639642343393387
2180000000.0 -0.029465497467096414 0.286343400217855
2200000000.0 -0.1549967120325026 0.23622168924472486
2220000000.0 -0.20625991656355072 0.18873894392603865
2240000000.0 -0.19890122136857635 -0.19193433736915688
2260000000.0 0.09474930857493351 -0.2538945055955164
2280000000.0 0.22899611102586057 -0.14418136349371855
2300000000.0 0.2328786897068987 0.11112433461200502
2320000000.0 -0.2482666082603015 -0.07077851332812682
2340000000.0 -0.18473970537983883 -0.17977506663021306
2360000000.0 0.21796431439000444 -0.1315965023775997
2380000000.0 0.030595425297009954 0.25792680399447704
2400000000.0 0.17257153479492315 0.22193446464691832
2420000000.0 0.10414683830442034 -0.2803156789404267
2440000000.0 -0.24974534542466417 0.1933129612705479
2460000000.0 0.2833949147658641 0.1838148317410314
2480000000.0 0.28010827600045574 -0.24485449434574622
2500000000.0 0.03339455979009016 0.4061596688005025
2520000000.0 -0.3934021412396181 -0.20464904136702247
2540000000.0 0.4710808996592664 -0.06715540963814005
2560000000.0 -0.3680548177439071 0.35304202511736055
2580000000.0 0.21305858144729606 -0.4964668485218835
2600000000.0 1.643582740074227e-05 0.5667151505866426
2620000000.0 -0.12796737084253057 -0.5753866773578261
2640000000.0 0.31115735932496963 0.5215802216507965
2660000000.0 -0.5661398865070916 -0.26214984805849406
2680000000.0 0.38424681786221065 -0.5040059776261627
2700000000.0 0.585333589053745 0.26579634827298526
2720000000.0 0.30660694944394695 0.5696819768608045
2740000000.0 0.11666348140856762 0.6376069982347691
2760000000.0 0.08945739568862994 0.6412153752937785
2780000000.0 -0.5782836730580114 -0.2736141708630851
2800000000.0 -0.33699270019476585 -0.5313589311825111
2820000000.0 0.21997314517123168 -0.5759442784119573
2840000000.0 0.45610292579739736 0.3923917390149933
2860000000.0 -0.46257957283306766 -0.3612302508734952
2880000000.0 0.24941136699899016 0.5127772628666922
2900000000.0 0.40113145388483873 -0.3746934134033078
2920000000.0 0.04494213344890493 -0.5258180478095548
2940000000.0 -0.37202329752553626 -0.3413480927526499
2960000000.0 -0.263443130899491 -0.4008845643235262
2980000000.0 -0.24572838798067123 -0.3871339929735956
3000000000.0 -0.3485003825720287 -0.2679006532381982
3020000000.0 -0.4153284611431014 0.0757473696950775
3040000000.0 0.02725300293495238 0.40073698599657787
3060000000.0 0.37060818634339493 -0.08746992899691554
3080000000.0 -0.29356453248181397 -0.2193405825929548
3100000000.0 0.28265670131774423 0.20971021276657092
3120000000.0 0.29074131348385834 -0.18498744700798816
3140000000.0 -0.24617300295366953 0.2345495560129352
3160000000.0 0.11721617158904037 -0.3167260218145046
3180000000.0 0.03997690723808413 0.33106339374795335
3200000000.0 0.31965058871964824 -0.0776767713923784
3220000000.0 -0.27020473063743067 -0.17840831224696455
3240000000.0 -0.31101281007234993 -0.0551682721438004
3260000000.0 -0.27524221107807 0.13445432364140358
3280000000.0 -0.29424161383490455 0.017670910440286347
3300000000.0 -0.27478292839940255 0.042294702722748864
3320000000.0 -0.1752430835207711 -0.18540029650793569
3340000000.0 0.2214116377544989 0.0621417880337976
3360000000.0 -0.20706344626644577 0.029199934348829986
3380000000.0 0.1269804321394238 -0.13972127720510466
3400000000.0 0.10297400337598914 0.1317687484802138
3420000000.0 0.055493382846768934 0.1321516644372656
3440000000.0 -0.11946557777417229 0.03997419234091978
3460000000.0 -0.10163002130366904 0.031648104855654065
3480000000.0 0.08515010652010574 0.02117005027926111
3500000000.0 -0.00587072768487919 0.07862115982995403
3520000000.0 -0.04318192657442205 -0.06230593971302444
3540000000.0 0.07721484022483494 -0.008461919551710821
3560000000.0 0.002408236395924345 -0.08854763597691609
3580000000.0 -0.02408428207213726 0.08982884123420468
3600000000.0 -0.04118245291982137 0.08791947899377935
3620000000.0 0.09385873657091845 -0.06285658077871689
3640000000.0 0.08669739290537516 0.09255749826608806
3660000000.0 0.06265222836886936 0.12119313192860824
3680000000.0 -0.00034986532632182236 0.14041783853706985
3700000000.0 -0.03672248993274941 -0.12821959211989703
3720000000.0 0.12011372964638457 -0.005204870841033168
3740000000.0 -0.005621277341842681 -0.1006258810957515
3760000000.0 0.07066909114431957 -0.043291539137974254
3780000000.0 -0.06371767866271556 -0.0006852749035972292
3800000000.0 0.032856336219576884 0.0056982554013749066
3820000000.0 -0.0018547672698419994 -0.0013557253780635242
3840000000.0 -0.009213850572579986 -0.03474534322172798
3860000000.0 0.05720809428066781 -0.03213516739176309
3880000000.0 0.08647132709907318 -0.03460894596902428
3900000000.0 -0.08868967986191743 -0.068275337407595
3920000000.0 -0.11858480766497968 -0.04109603504412258
3940000000.0 -0.13361838453833697 0.029465300907608412
3960000000.0 -0.08772301363480248 0.1086311870825084
3980000000.0 0.10697253890105372 -0.07829329195771478
4000000000.0 0.10472313725466476 -0.0417557955463933
