!Created with skrf (http://scikit-rf.org).
# Hz S RI R 50.0 
!freq ReS11 ImS11
400000000.0 0.783995997032315 0.378695824835775
420000000.0 0.27866023099692205 0.7673483531020227
440000000.0 0.4312781858741396 0.6267919042489781
460000000.0 -0.5446649460420762 -0.4168375938416786
480000000.0 -0.044601636074176824 -0.6168545605304718
500000000.0 0.6423245714228132 -0.12306153753375358
520000000.0 -0.17213310390448897 0.6489390701181379
540000000.0 0.6220100577338936 -0.26367197609282184
560000000.0 -0.294737698860945 0.5982032545220723
580000000.0 -0.43473439959511945 0.2899710314779983
600000000.0 -0.04421659171082804 0.5932695098030962
620000000.0 -0.49287702642821807 -0.3622907648046037
640000000.0 -0.4135584772117571 -0.3872339882473104
660000000.0 0.3568233158265989 0.3923321702585622
680000000.0 -0.019042539232540883 0.48299118072820973
700000000.0 0.3075385857997987 0.3386174759842421
720000000.0 -0.3861371157619631 0.3021723685324967
740000000.0 0.4488049154729901 0.16008698172962776
760000000.0 0.20730590280300293 0.3977729496140713
780000000.0 -0.3921600496653661 -0.16795061480299336
800000000.0 0.11809435555714445 -0.3795626450396988
820000000.0 0.17411292349819252 0.30452219674249725
840000000.0 0.027446462980378308 0.3267997337365762
860000000.0 -0.1387403393398695 -0.26646809760443896
880000000.0 0.2615346053617592 0.03261976690080751
900000000.0 -0.25834145358532234 0.06849490400346721
920000000.0 0.10091268202365501 0.2371865838203936
940000000.0 0.18784130170563518 0.13522182800011665
960000000.0 -0.12575484036364085 0.1276511768225824
980000000.0 -0.018660354206888892 0.13880492343192663
1000000000.0 -0.020072293095085004 0.12947875717045404
1020000000.0 -0.013618427597206127 -0.09984990799832726
1040000000.0 -0.08597950323525096 -0.07075007022816833
1060000000.0 0.14746483116212397 -0.014814068033495104
1080000000.0 0.1812267082709926 -0.0665221782735754
1100000000.0 0.15320439810390407 0.17582843243798482
1120000000.0 0.26835045409531555 0.07702261771366267
1140000000.0 -0.2843817284031726 0.10328633320455681
1160000000.0 -0.26830045619528964 0.16121985816676496
1180000000.0 -0.2841765922611302 -0.18473084705909507
1200000000.0 -0.35235464950459394 -0.004788423772448627
1220000000.0 0.34025896226837005 0.10183345529867605
1240000000.0 0.17562080478826234 0.3338278485302974
1260000000.0 0.32065116322319925 -0.2268438175628229
1280000000.0 -0.36033627976325555 -0.1269944343532228
1300000000.0 0.05189746368234298 -0.3768341100747468
1320000000.0 -0.020305109475579626 -0.38253904787558196
1340000000.0 -0.31570490726110007 0.1898025618559691
1360000000.0 0.1892852321545131 0.3381724725784512
1380000000.0 -0.2878507578965475 0.27877902228958273
1400000000.0 0.010577570896087032 -0.3962419147837486
1420000000.0 -0.03072153039490245 -0.3917373621347671
1440000000.0 -0.22001902182914168 -0.3290231205800991
1460000000.0 -0.3891521167008132 -0.06417651850347623
1480000000.0 -0.20332901716983304 -0.34266083280655973
1500000000.0 0.2614937638976988 0.3062810830693676
1520000000.0 -0.3843316012577675 0.02176841737173717
1540000000.0 0.3594462173675534 0.035781880893254125
1560000000.0 -0.03463821670604808 0.33034069990905723
1580000000.0 -0.17940880357765215 -0.23020620534878208
1600000000.0 0.1399971222074607 -0.21501352168069376
1620000000.0 0.19065639158729317 -0.10573093222292534
1640000000.0 -0.09018523690694963 0.161335200564178
1660000000.0 -0.046073733503866905 0.14482049701760885
1680000000.0 0.07283545621751486 -0.08688301189934389
1700000000.0 -0.10324062867043596 0.006588755999375827
1720000000.0 0.07867518570473991 -0.008423345560183789
1740000000.0 0.06144462100833928 0.051079847218019024
1760000000.0 -0.04469529949493205 -0.07723916601123157
1780000000.0 0.1061492422366142 -0.04811147059634137
1800000000.0 0.13815029413270025 0.007556101073622104
1820000000.0 -0.16777214384094538 0.025010473860662224
1840000000.0 0.16880386667905312 -0.10021556515167299
1860000000.0 -0.2221133976258112 -0.012593572725473215
1880000000.0 -0.03068937602443487 0.25284909649608933
1900000000.0 0.06729629137521448 0.26539852550640725
1920000000.0 0.2466681729627759 -0.16492924251136995
1940000000.0 -0.2991525811431086 0.0558985841895146
1960000000.0 0.30227047737913776 -0.05230453232606761
1980000000.0 -0.26829211960312005 -0.1657230701737038
2000000000.0 -0.026368731301319805 -0.3214535246350996
2020000000.0 0.30883104858381133 -0.0824223093069879
2040000000.0 0.2763395200687483 0.16585220480281523
2060000000.0 0.31700720331291843 0.03334119294475206
2080000000.0 0.1058886332090461 0.29690383526551156
2100000000.0 0.15848578702431884 -0.27045353630415386
2120000000.0 0.2705718438959241 0.14544077096716845
2140000000.0 -0.11035028645753497 -0.2765377064651136
2160000000.0 -0.2797520241704496 0.09687718528036131
2180000000.0 -0.04836053790405989 0.28563007141888513
2200000000.0 -0.0740714926585846 0.27296640863388216
2220000000.0 -0.19744783177407133 0.20158874464324575
2240000000.0 -0.22415341672618214 -0.1627523471950844
2260000000.0 0.10919086751188904 -0.2478162235525689
2280000000.0 0.26871843237503407 0.0443381472912304
2300000000.0 0.23748602009125988 0.10437285757748598
2320000000.0 -0.24221462337166258 -0.08484120685719679
2340000000.0 -0.08306230766471993 -0.241232889676937
2360000000.0 0.24710934939659102 -0.06289767510887635
2380000000.0 0.13660915596586776 0.22017621583680516
2400000000.0 0.1505625056736254 0.23553899274446946
2420000000.0 0.12476644463178645 -0.2698071865015939
2440000000.0 -0.16401453371711447 0.27156125768421124
2460000000.0 0.32913511286845465 0.06527599322654212
2480000000.0 0.26319597281202384 -0.2634785985473764
2500000000.0 0.16881246460469254 0.37191015357214063
2520000000.0 -0.42426091797040094 -0.127798205696418
2540000000.0 0.4671407172765012 -0.0972323513400555
2560000000.0 -0.35613428846193007 0.36658222944780244
2580000000.0 0.14793602424489474 -0.5199990972465581
2600000000.0 -0.05113230712921304 0.5636448923510118
2620000000.0 -0.049054573557946755 -0.5875606088154348
2640000000.0 0.25164705791817626 0.5525713618727554
2660000000.0 -0.5605142787492947 -0.27186922565370686
2680000000.0 0.43499144513449023 -0.45912464163609934
2700000000.0 0.6039205901576934 0.21678990569417006
2720000000.0 0.3713573041294599 0.5285765279756215
2740000000.0 0.30739221979556225 0.5691839335625307
2760000000.0 0.1753481530846995 0.622624125342978
2780000000.0 -0.6111743424775484 -0.18956582536747832
2800000000.0 -0.4559439530143963 -0.4340128504774814
2820000000.0 0.1453952557721446 -0.59883734029058
2840000000.0 0.4427593151572862 0.4083421189848278
2860000000.0 -0.5112656760049237 -0.2899382804117224
2880000000.0 0.2701849992743792 0.5006346387715527
2900000000.0 0.47987512849212344 -0.26551792151889975
2920000000.0 0.013286351071669384 -0.5282660398246618
2940000000.0 -0.3969290451590505 -0.3083579780497031
2960000000.0 -0.23626018859453404 -0.4150277395462053
2980000000.0 -0.23659961265894963 -0.3927370095245228
3000000000.0 -0.3906307793560591 -0.19787070390540454
3020000000.0 -0.4153579368698864 0.06403388690214107
3040000000.0 0.06752935535178546 0.394530680495873
3060000000.0 0.3508680712759131 -0.1460564160570785
3080000000.0 -0.34129900482916475 -0.13259322883441765
3100000000.0 0.31022350470611626 0.16536651873303157
3120000000.0 0.288226955077098 -0.19022370668444127
3140000000.0 -0.20224073667665862 0.2724705882136794
3160000000.0 0.08325055405448328 -0.328031614996016
3180000000.0 0.06454211453920781 0.32860554425617433
3200000000.0 0.3251554276583971 -0.04961864350194551
3220000000.0 -0.2114068378368661 -0.2460033288330048
3240000000.0 -0.2929821203065756 -0.11857447216504444
3260000000.0 -0.2939047161444224 0.08367589318865992
3280000000.0 -0.29321370429300114 -0.014104178254588186
3300000000.0 -0.2737552614380473 -0.04006344029565223
3320000000.0 -0.16253991250100627 -0.19456707029926085
3340000000.0 0.2185593383742284 0.06612080431926247
3360000000.0 -0.1767339112303341 0.10912355463902593
3380000000.0 0.1016555886151566 -0.1572534284164856
3400000000.0 0.13239565156226055 0.10081418367330547
3420000000.0 0.08356343327539335 0.11571701114257113
3440000000.0 -0.09400040492874359 0.08329223078987183
3460000000.0 0.03973249956651056 0.09897524908762757
3480000000.0 0.06839455325292358 -0.05540568767234087
3500000000.0 -0.03021515120888202 0.07391484354820219
3520000000.0 -0.027881663026847817 -0.0728455596239873
3540000000.0 0.046251179768206405 -0.06452230351316261
3560000000.0 0.054041581471154426 -0.06958872925134371
3580000000.0 -0.08190256104609005 0.04383855497938766
3600000000.0 -0.09433763428292213 -0.028340740733386344
3620000000.0 0.11000880740634418 -0.01905421062912381
3640000000.0 0.1045491326089775 0.06812033744400187
3660000000.0 0.012929599341830125 0.13341918931908095
3680000000.0 -0.018569176256260787 0.13791155027833424
3700000000.0 -0.08577655472886496 -0.10082184542653962
3720000000.0 0.10036193864088216 -0.06276603382691114
3740000000.0 -0.08046294848213911 -0.05841855366297703
3760000000.0 -0.035696099103346306 -0.07472231893745203
3780000000.0 -0.06393381913352925 0.007107265378253407
3800000000.0 -0.027744691913201 0.020131897296304647
3820000000.0 -0.00038156679953357114 0.001579380582120032
3840000000.0 -0.012320549187104712 -0.032597674379961014
3860000000.0 -0.03324914334680027 -0.0541249652474861
3880000000.0 0.0780074800345487 -0.04597844579296961
3900000000.0 -0.104227001075616 -0.03914229580020749
3920000000.0 -0.11494523814176742 0.05033956855595097
3940000000.0 0.037614268424596004 0.12995814082738166
3960000000.0 -0.02856340270489068 0.1354650946879515
3980000000.0 0.10275620242281139 -0.08560336851053636
4000000000.0 -0.08534499248113124 -0.07711674597730699
