!Created with skrf (http://scikit-rf.org).
# Hz S RI R 50.0 
!freq ReS11 ImS11
400000000.0 0.7962733102463931 0.35437448274591615
420000000.0 0.3059606480004958 0.7568367001494474
440000000.0 0.3986076643636 0.6463705332764809
460000000.0 -0.5334314613726522 -0.4351031929261955
480000000.0 -0.10953901809137118 -0.6093038622184191
500000000.0 0.6224412246470661 -0.2048036743432843
520000000.0 -0.28405205265854416 0.6061595273068519
540000000.0 0.6331376591941573 -0.23747763823817492
560000000.0 -0.44024306225130555 0.4991424495285551
580000000.0 -0.4487938321416591 0.27492691405390185
600000000.0 0.0718191460717502 0.5916691472834147
620000000.0 -0.550911989417289 -0.26588821630518217
640000000.0 -0.4722444691952821 -0.31078835197810545
660000000.0 0.08623869473416025 0.5131279728222208
680000000.0 -0.2743170975117346 0.4172844669863364
700000000.0 0.4222758344668754 -0.16366617375149067
720000000.0 -0.24639839726993518 0.42085491356831095
740000000.0 0.4357613238525036 0.17772240484837476
760000000.0 -0.18192430659531825 0.40849926266419573
780000000.0 -0.4315425341720302 0.02393678587257827
800000000.0 0.22744131523338962 -0.3289182163059935
820000000.0 0.32864046682213294 -0.12892516993619868
840000000.0 -0.0753897625692537 0.3139366236614535
860000000.0 0.18363078057473078 -0.2326023443215843
880000000.0 0.04309656922150127 0.2677265434996929
900000000.0 -0.17145218195129572 0.210330140771881
920000000.0 0.19910061633210016 -0.16665223360950923
940000000.0 0.03017014387428133 0.22242015748260038
960000000.0 -0.08369118303578901 0.15799738746288935
980000000.0 -0.06558324452775632 -0.12658136785759935
1000000000.0 -0.044086603107149035 0.122926058943257
1020000000.0 -0.057362284646683685 -0.08591944035516508
1040000000.0 0.08073914838740161 0.08145973237737299
1060000000.0 0.09407682474202864 -0.10710852609147407
1080000000.0 0.14980805617394008 0.12543158397977072
1100000000.0 0.13169566733693266 0.20137582076127591
1120000000.0 0.275255094927764 -0.038874286234043584
1140000000.0 -0.29506161355893246 0.055782173700707836
1160000000.0 -0.31800787190343743 0.025040478598399297
1180000000.0 -0.33787886443600784 -0.016650456264660305
1200000000.0 -0.3101454500853566 -0.16517816767404037
1220000000.0 0.3546975878871955 -0.014903571151149488
1240000000.0 0.12629732492210766 0.35353405011345573
1260000000.0 0.3779062097941222 -0.11335964337701511
1280000000.0 -0.378645095289813 -0.07240364416782065
1300000000.0 -0.1374663566255163 -0.3522082576901573
1320000000.0 0.00666902631528679 -0.37960568916397647
1340000000.0 -0.36712468945581245 0.047290828302985616
1360000000.0 0.24148553694423047 0.3055641681719781
1380000000.0 -0.1434644170189954 0.37394712661862267
1400000000.0 0.012469733984012127 -0.39562196014134365
1420000000.0 0.07977296420109559 -0.38525188928246545
1440000000.0 -0.17787346098363105 -0.35273759212800493
1460000000.0 -0.39637959788980615 0.008765234839085354
1480000000.0 -0.34603340463625754 -0.19309786930930414
1500000000.0 0.011046031865183539 0.3971239408548872
1520000000.0 -0.3855886617629752 -0.04153533370069266
1540000000.0 0.3466702525973427 -0.10587310298826119
1560000000.0 -0.14258709640893044 0.29548636035635323
1580000000.0 -0.163878147737268 -0.24247951922766706
1600000000.0 0.08547979771857316 -0.243351890976596
1620000000.0 0.20135291541205885 -0.08142811067017916
1640000000.0 -0.1543173337496829 0.10245690241445929
1660000000.0 0.015213518429305507 0.15263022614447727
1680000000.0 0.0969995606450199 -0.0582612852389814
1700000000.0 -0.041153011792393966 -0.09499245385205778
1720000000.0 0.01805585072750075 -0.0810905760814827
1740000000.0 0.03951452066984835 -0.06658400646455409
1760000000.0 0.03947138790124153 -0.08076395974825505
1780000000.0 0.11580724743061405 -0.024276489603841413
1800000000.0 0.07454159583061289 -0.1177140992387112
1820000000.0 -0.1650366719065631 0.030141770373661878
1840000000.0 0.19229514028123268 -0.03526764035298349
1860000000.0 -0.22095559754519498 -0.0239159581346869
1880000000.0 -0.012390010441235604 0.2558799164827891
1900000000.0 0.09688509531619964 0.2560594928115623
1920000000.0 0.21083107380343413 -0.2031464028411952
1940000000.0 -0.2934255729659731 -0.08257820093566426
1960000000.0 0.2863083960671751 -0.1179198264016263
1980000000.0 -0.3123940538382193 -0.0026025914356627047
2000000000.0 0.13544161720037806 -0.2893489419515075
2020000000.0 0.32264288610175157 -0.007572977193153592
2040000000.0 0.3212893387889355 -0.03076291972787464
2060000000.0 0.31099430697701 0.05538346584974445
2080000000.0 0.0021530145764617876 0.3166930632968791
2100000000.0 0.11596981878578158 -0.29191844046506366
2120000000.0 0.27773236020771913 0.12618504531733316
2140000000.0 -0.00799057563944939 -0.3002117114525488
2160000000.0 -0.24699155055994196 0.16390129802036765
2180000000.0 -0.0795614148626488 0.27520686156406016
2200000000.0 -0.20156748176308428 0.19980983844592398
2220000000.0 -0.10754841682529759 0.26203290278735636
2240000000.0 -0.23551267546763774 -0.1419854030232923
2260000000.0 0.1463823123091158 -0.2265194897770077
2280000000.0 0.26501194252453775 0.06019172796869612
2300000000.0 0.2580476030331422 0.041950217739966635
2320000000.0 -0.25515146615074813 0.007931922850601526
2340000000.0 -0.11833713819480221 -0.22612884813517128
2360000000.0 0.24380566166598375 -0.07535858714688794
2380000000.0 -0.0010715247725779009 0.25940452335302205
2400000000.0 0.20549332496120268 0.19236888643553246
2420000000.0 0.044704792851667195 -0.2930194822178051
2440000000.0 -0.2735185360506861 0.15524551788803598
2460000000.0 0.2826944474641912 0.18496417383572672
2480000000.0 0.21896841714950108 -0.30257482733320823
2500000000.0 0.15895861399468797 0.3742067817498419
2520000000.0 -0.3784242597475741 -0.22997467889020773
2540000000.0 0.4737335118824422 -0.05823780330222927
2560000000.0 -0.33905646746448964 0.3810518929073343
2580000000.0 0.20276884126369707 -0.5011939696935293
2600000000.0 -0.04933001618755391 0.5647982325475764
2620000000.0 -0.14534382762624862 -0.5707010502418894
2640000000.0 0.26098749434930185 0.5476681482846316
2660000000.0 -0.573483821606304 -0.2428578771273831
2680000000.0 0.4080199505494862 -0.4841942914951594
2700000000.0 0.6026630448109801 0.22154018236498085
2720000000.0 0.33839826751464636 0.5511579227556743
2740000000.0 0.2522491050039303 0.5962025788657808
2760000000.0 0.18164741287636335 0.6208968414646642
2780000000.0 -0.619545196642591 -0.15778667480153966
2800000000.0 -0.4053639763496509 -0.48118740073599686
2820000000.0 0.15569560137789037 -0.5968522233143966
2840000000.0 0.44849524961970205 0.4016565634879103
2860000000.0 -0.49105171237147704 -0.3215648233225973
2880000000.0 0.19147223227039636 0.5361492181163191
2900000000.0 0.45751658680164087 -0.304277447268885
2920000000.0 0.012777112675674829 -0.5280019457330952
2940000000.0 -0.3517285080207759 -0.36019664629924375
2960000000.0 -0.2083365661823236 -0.43067928397456534
2980000000.0 -0.28693894477746384 -0.35743174214306395
3000000000.0 -0.32824905991556425 -0.2903646566718983
3020000000.0 -0.4113212623897485 0.09256605230850506
3040000000.0 0.05493171313617019 0.3962206325696883
3060000000.0 0.37987379986009523 -0.01987663066098866
3080000000.0 -0.3444598103602987 -0.12588399649552576
3100000000.0 0.31653436912227106 0.15169674760533264
3120000000.0 0.3135481904087505 -0.14393570711992454
3140000000.0 -0.2029251805993928 0.27301458823140734
3160000000.0 0.12609580052869462 -0.31311816505099077
3180000000.0 0.07852193425625754 0.32486728388567127
3200000000.0 0.31975914583884557 -0.07785234364387099
3220000000.0 -0.20370138348360411 -0.2520362684597072
3240000000.0 -0.30388926108961184 -0.08771273922144208
3260000000.0 -0.28397288758086053 0.11167345913524329
3280000000.0 -0.29285793526194515 0.022418654721146482
3300000000.0 -0.27528461336952303 -0.027481941867226738
3320000000.0 -0.18474430755844806 -0.1749703079792415
3340000000.0 0.22267945472750217 0.05228673182902741
3360000000.0 -0.18646076172428339 0.09067156584983252
3380000000.0 0.14557518604436262 -0.11980509309898421
3400000000.0 0.14513900793678797 0.0834934650090416
3420000000.0 0.09465438974171295 0.10667151982184596
3440000000.0 -0.10951996415395703 0.0602978154809607
3460000000.0 -0.07215657100767055 0.07883556934316406
3480000000.0 0.07286585966446196 -0.051008966649554476
3500000000.0 -0.0117134755553765 0.078471358932058
3520000000.0 -0.007067505829184519 -0.07665210490390065
3540000000.0 0.060403202473746156 -0.049159912105915755
3560000000.0 0.0875186460223835 -0.01001198126819487
3580000000.0 -0.06424376666773371 0.07015975728010912
3600000000.0 -0.03687328071796262 0.09071102420120684
3620000000.0 0.08450917497627508 -0.06992548193134424
3640000000.0 0.03934231002637571 0.11919689630138414
3660000000.0 -0.006955864436531767 0.13628285105202312
3680000000.0 0.0524344090419336 0.1303063887711985
3700000000.0 -0.11667372274809497 -0.06115339996842005
3720000000.0 0.11351965517140557 0.0327685529158484
3740000000.0 -0.017563964706811062 -0.09955286707085302
3760000000.0 0.020623840909421466 -0.08105671985843609
3780000000.0 -0.029197376044889266 0.05660729155823285
3800000000.0 -0.030475189425566394 -0.011595294925429798
3820000000.0 0.002852614379818836 0.0009311073548945983
3840000000.0 -0.0195504593511996 0.027561731931643706
3860000000.0 0.06271215157343211 -0.012606542547868294
3880000000.0 0.08915260596838247 0.0247847774863885
3900000000.0 -0.10844613309978694 0.031996045747125376
3920000000.0 -0.055352806045510815 0.11204337337625522
3940000000.0 -0.11254300622329334 0.07417034761964329
3960000000.0 -0.08948886909070294 0.10800917924025336
3980000000.0 0.044296298928102516 -0.12752029364316947
4000000000.0 -0.01494477745905156 -0.11241438548997677
