!Created with skrf (http://scikit-rf.org).
# Hz S RI R 50.0 
!freq ReS11 ImS11
400000000.0 0.7822880436982521 0.38281989190906696
420000000.0 0.2497326555257069 0.7770937676266477
440000000.0 0.4388853801068314 0.6202782809778713
460000000.0 -0.6198254781665584 -0.2980628258780056
480000000.0 -0.12948661312353152 -0.6050437417608105
500000000.0 0.6445583008655881 -0.11705064638994253
520000000.0 -0.41461410472311777 0.5248873120466397
540000000.0 0.678854430735415 -0.04379828121374953
560000000.0 -0.010333583092498586 0.6714323675028199
580000000.0 -0.3376858160695257 0.39008023040549855
600000000.0 -0.303032168511286 0.5106586849343844
620000000.0 -0.45745103970464673 -0.4137091034585905
640000000.0 -0.5591409188908191 -0.10812153482534635
660000000.0 0.16597164812666157 0.4980668518977127
680000000.0 0.06839034193821232 0.48731236353414026
700000000.0 0.43623981632769215 0.1144861138930887
720000000.0 -0.4174650276586962 0.2555581829682485
740000000.0 0.4065340332927784 0.24368195062630046
760000000.0 0.1033480175959736 0.4341947668242506
780000000.0 -0.4161274455462178 0.11996702296019747
800000000.0 0.2340901901467873 -0.31557861198015486
820000000.0 -0.006217892833560063 0.35471015108845594
840000000.0 0.1911642042886717 0.2657456451004952
860000000.0 0.046184904145751146 -0.29195310688320564
880000000.0 0.16704529843118518 0.21643122968951153
900000000.0 -0.17955296570423052 0.19656351270892478
920000000.0 0.2609432805287616 -0.025709784201531204
940000000.0 0.18656291901630373 0.1247463993109874
960000000.0 -0.16541913799158264 0.07047695430765266
980000000.0 0.027501596007861197 -0.13999137059108951
1000000000.0 0.10270758833750614 0.08264345445261785
1020000000.0 -0.09021502514167712 -0.0451688681540929
1040000000.0 0.04521038569554811 0.10158340076787259
1060000000.0 0.14427582033934364 0.01663526707745423
1080000000.0 0.17956008636909404 0.07922297082272615
1100000000.0 0.14331014732273495 0.19375141957134448
1120000000.0 0.26121986330657965 -0.09642519072099963
1140000000.0 -0.29882374872414225 -0.01703562271423053
1160000000.0 -0.30767939761888613 -0.08149190266176762
1180000000.0 -0.3367176952708492 -0.021724499716086546
1200000000.0 -0.25650457550236044 -0.23930656712506376
1220000000.0 0.3550113476614736 0.0021668735376317865
1240000000.0 0.203029438234065 0.3159199595251035
1260000000.0 0.3661576426084531 -0.1418408915271542
1280000000.0 -0.37311615026923317 -0.10082231136319682
1300000000.0 -0.1424487235772251 -0.35182926017851496
1320000000.0 -0.0680207784944931 -0.3744860732392725
1340000000.0 -0.35855253879074894 -0.09716448758312189
1360000000.0 0.2780680940927416 0.27385567715727854
1380000000.0 -0.15086384006040707 0.37218424130756844
1400000000.0 0.030586398154102887 -0.39360865105937337
1420000000.0 0.20419736147075723 -0.3378620954746864
1440000000.0 -0.2873184310545788 -0.27292612114163534
1460000000.0 -0.3593762794918076 -0.16181619417670765
1480000000.0 -0.30874052127433377 -0.2506640321886056
1500000000.0 0.07095437223499568 0.39122307647440047
1520000000.0 -0.38853265092294353 -0.009681941335690785
1540000000.0 0.34327694014044907 -0.11439811258229811
1560000000.0 -0.26200302354770516 0.19685274142074996
1580000000.0 -0.21568120515105266 -0.19963316952895863
1600000000.0 0.027824133894570596 -0.2565748711685907
1620000000.0 0.18460575285942207 -0.11434919288571656
1640000000.0 -0.16353541082654502 0.08754442428085206
1660000000.0 -0.06900424610762806 0.13882359461241733
1680000000.0 0.07535173870695572 -0.08572068941223925
1700000000.0 -0.05717381145565578 -0.08409462691038036
1720000000.0 0.062207272333460295 -0.05374813619003645
1740000000.0 0.07897272908314566 -0.0029311483334020483
1760000000.0 0.055117593417100236 -0.07066449887120488
1780000000.0 0.11015175656740443 -0.04197203338516995
1800000000.0 0.11307735741315031 -0.08272362293328837
1820000000.0 -0.1600822816769127 -0.04804669661314664
1840000000.0 0.18643793874074358 -0.06172588450274371
1860000000.0 -0.19860482057550877 -0.09806428672121147
1880000000.0 0.005690153214663964 0.25499491620821074
1900000000.0 -0.007144373341584966 0.27326336309610066
1920000000.0 0.24775872042818617 -0.15724313361612058
1940000000.0 -0.30280108028076247 -0.02336706292226808
1960000000.0 0.2899824206638297 -0.10301472370202187
1980000000.0 -0.29323734509507915 -0.10898941806366741
2000000000.0 0.05841645089934781 -0.3158107856024744
2020000000.0 0.2974343341402586 -0.12503138574039532
2040000000.0 0.3189355558595968 0.04502652325069195
2060000000.0 0.3010839758915076 0.10503788442877879
2080000000.0 0.04102284468995871 0.3139826137194916
2100000000.0 0.17761219518815874 -0.26015551800748965
2120000000.0 0.22137969475504082 0.21079230131250298
2140000000.0 -0.0003721077775631204 -0.2999244401528951
2160000000.0 -0.2851867468165289 0.07607205875485246
2180000000.0 -0.13266464353244015 0.25370872725359556
2200000000.0 -0.1701019305115796 0.22717014203756647
2220000000.0 -0.17516248446925062 0.21998363309989857
2240000000.0 -0.20747005298441137 -0.18050257661974756
2260000000.0 0.16062224126363955 -0.2160805850123516
2280000000.0 0.27013103423074203 0.020681826133419536
2300000000.0 0.2579018348487506 -0.04536242022981294
2320000000.0 -0.2538725156955433 0.014284801831065945
2340000000.0 -0.0667384900023936 -0.24793579663140727
2360000000.0 0.2154570157158107 -0.13995430349167431
2380000000.0 0.1390982488851225 0.2210253054168329
2400000000.0 0.22336798771960423 0.17056647344198242
2420000000.0 0.2082805482155512 -0.21251180559203367
2440000000.0 -0.30678520406295207 0.08275953303035422
2460000000.0 0.29927879517970923 0.16086703244009876
2480000000.0 0.20259776418264297 -0.31199424621579147
2500000000.0 0.006230090791161359 0.40567082459016873
2520000000.0 -0.3143075150861907 -0.31336084057809815
2540000000.0 0.47322415778799487 -0.060039755803873884
2560000000.0 -0.31013167996771157 0.4040194756311403
2580000000.0 0.19400890060932285 -0.5034227669684758
2600000000.0 0.011158521368890027 0.5659418009643775
2620000000.0 -0.1728006689769359 -0.5642871504173046
2640000000.0 0.2649520580849759 0.5472871895995092
2660000000.0 -0.5876359341442627 -0.210702669579327
2680000000.0 0.3856632572219066 -0.5034708988614429
2700000000.0 0.5710707561808341 0.2956707519078268
2720000000.0 0.24902645079195065 0.5973473694399815
2740000000.0 0.16379735191284706 0.6273687917318904
2760000000.0 0.08224642638557536 0.6418398552801672
2780000000.0 -0.5791940140554105 -0.2703218298208488
2800000000.0 -0.37563230034495 -0.5036673004072161
2820000000.0 0.22562869102755378 -0.5726400749655817
2840000000.0 0.428211993904101 0.42208577482502263
2860000000.0 -0.5032022692836621 -0.30140246143335825
2880000000.0 0.28465297059325645 0.4931208112228024
2900000000.0 0.4204882168431261 -0.35396599618561886
2920000000.0 0.026298432907962424 -0.5275656476315954
2940000000.0 -0.36957052530193163 -0.3424445380714037
2960000000.0 -0.2636282341187375 -0.40218519661718083
2980000000.0 -0.28974295183681664 -0.35462575369590404
3000000000.0 -0.30213133926890645 -0.31875060856252846
3020000000.0 -0.4166847881543399 0.06952498429190308
3040000000.0 0.0068090331289226945 0.40065189244911775
3060000000.0 0.3803448668702835 -0.01158059951724081
3080000000.0 -0.3018693875644722 -0.20715416085270072
3100000000.0 0.2703467698643521 0.22307733170633104
3120000000.0 0.3162336112166725 -0.1382407061337233
3140000000.0 -0.23551858093238087 0.243679961361767
3160000000.0 0.16311172924534353 -0.2956746295503158
3180000000.0 0.05623188628223277 0.330062069038624
3200000000.0 0.3039376048981797 -0.1234847984412632
3220000000.0 -0.15163893493567676 -0.28649450676512317
3240000000.0 -0.31644085390620585 0.009582737034723975
3260000000.0 -0.2844028423527203 0.11105133147119012
3280000000.0 -0.29478662959543084 0.00826881480779145
3300000000.0 -0.2784598920908497 -0.0072413674433397645
3320000000.0 -0.1549319267135683 -0.20084770945083494
3340000000.0 0.22064691563539507 0.06475106106968642
3360000000.0 -0.19143228182230132 0.0817921330630895
3380000000.0 0.11522675465395676 -0.150474305409297
3400000000.0 0.11003086803149598 0.12614025528073824
3420000000.0 -0.0031575509879553476 0.14314446828699948
3440000000.0 -0.11350916339480473 0.05707716259891102
3460000000.0 -0.07262453924747678 0.07789008362270922
3480000000.0 0.07892942601108215 0.036610946301581994
3500000000.0 -0.07933617658613291 0.006677376824758536
3520000000.0 0.016559887891073287 -0.07483650259535315
3540000000.0 0.06000063586549892 -0.04842149594390422
3560000000.0 0.026830909604612194 -0.08282719958745202
3580000000.0 -0.038643332264933564 0.08454739325349836
3600000000.0 -0.062371047598265235 0.07407740194147576
3620000000.0 0.012017346670593211 -0.1102627065624205
3640000000.0 0.11750737178225934 0.04668155514132611
3660000000.0 0.015244134270192347 0.13545108570884062
3680000000.0 0.02215318387748821 0.1391912729093306
3700000000.0 -0.10189793892794112 -0.08620429039517173
3720000000.0 0.1192876022034262 0.017033703809104003
3740000000.0 0.018897049930975192 -0.09932631155701561
3760000000.0 0.04739160757154657 -0.0691479469947829
3780000000.0 -0.0237874541648766 -0.05866281539092806
3800000000.0 -0.018385063141561332 0.02912449498892151
3820000000.0 0.0011553089101599223 -0.001422331454886008
3840000000.0 -0.020125531246333466 -0.031203255480669823
3860000000.0 -0.014558987105487217 -0.06539457463404774
3880000000.0 0.08290448216411452 -0.04035746185042893
3900000000.0 -0.05726682261283001 -0.09702974809727882
3920000000.0 -0.1252604461005163 -0.028978008270250506
3940000000.0 -0.1017920018216471 0.09044580053249555
3960000000.0 -0.12699634755571787 0.05679255745603852
3980000000.0 0.13012140121111448 0.03245054124115511
4000000000.0 0.05772152402182573 -0.09699755068873547
