!Created with skrf (http://scikit-rf.org).
# Hz S RI R 50.0 
!freq ReS11 ImS11
400000000.0 0.7848409572092294 0.3774715273078964
420000000.0 0.27325531818203963 0.7701036839731987
440000000.0 0.35451889798213015 0.673192544173634
460000000.0 -0.6205775228687366 -0.2937204390953209
480000000.0 -0.04019064368065959 -0.6173591176711573
500000000.0 0.6519772069239701 -0.07572689909692162
520000000.0 -0.30971857502341277 0.594001518650967
540000000.0 0.6480520611369724 -0.19544889110661584
560000000.0 -0.48305147633886714 0.46759543677642745
580000000.0 0.033590148059572965 0.5199235112839444
600000000.0 -0.16991692012833787 0.5639625330475225
620000000.0 -0.34369761764943846 -0.5116792901967142
640000000.0 -0.507471367718369 -0.26188633154223856
660000000.0 0.2687821407196368 0.45098403835915146
680000000.0 0.0751281982998759 0.4877658716101965
700000000.0 0.3915004237105533 0.21613342874732447
720000000.0 -0.31097400202704967 0.3783000351296229
740000000.0 0.3026851909246594 0.3634120002099303
760000000.0 0.1672510071793116 0.41663247593124153
780000000.0 -0.4234470935898969 0.07393357465463195
800000000.0 0.19404860806458454 -0.3432941527661193
820000000.0 0.2190248161556625 0.27644240736476633
840000000.0 0.05216492186491208 0.3245358274851434
860000000.0 0.09012220025995497 -0.2818478993228493
880000000.0 0.060714777351850935 0.2629813163985205
900000000.0 -0.08724967662010955 0.25623057697812507
920000000.0 0.2397381395552954 -0.10626168755200384
940000000.0 0.20414328947811392 0.09461893014373135
960000000.0 -0.13971186812857408 0.10566863619556731
980000000.0 0.1441514905265604 -0.009271569226629162
1000000000.0 0.12278372694335979 0.061530457924465126
1020000000.0 0.06505810014161224 0.08109567284326503
1040000000.0 0.10080309604650474 -0.04041338391367663
1060000000.0 0.07148975746811291 0.12152881998552474
1080000000.0 -0.012190811462818581 0.1948499421862098
1100000000.0 0.05823034020801113 0.23434813822392442
1120000000.0 0.11379906108806628 -0.25713082613752253
1140000000.0 -0.20219695952261424 0.2199031405444067
1160000000.0 -0.30561860853079775 -0.07571167786296824
1180000000.0 -0.2735177106532165 -0.19928549836933718
1200000000.0 -0.3250507665697377 -0.14092771399088364
1220000000.0 0.3538170330472414 -0.021784956167704237
1240000000.0 0.12151056029591163 0.35528903414811003
1260000000.0 0.32987904483521757 -0.21268625406222397
1280000000.0 -0.33534616295323455 -0.1851299533533291
1300000000.0 -0.00043096961669552463 -0.38083183570492657
1320000000.0 -0.15877462511027432 -0.3479136836807269
1340000000.0 -0.3444787463333911 0.1295794272032168
1360000000.0 0.055452461433845905 0.384301315817597
1380000000.0 -0.16503593152313065 0.36522131249249257
1400000000.0 -0.06356699007917561 -0.39314178524898447
1420000000.0 0.04963007573674887 -0.388476526736864
1440000000.0 -0.21463733284423464 -0.33128803109979227
1460000000.0 -0.37739464095864966 -0.11965875955299687
1480000000.0 -0.2165412711616198 -0.3346157547996931
1500000000.0 0.15444424514901173 0.36849518090973604
1520000000.0 -0.3846033835887336 0.009027440458229688
1540000000.0 0.3447232289870894 0.11095582488373838
1560000000.0 -0.1472047518446032 0.2952991077878452
1580000000.0 -0.2586902626544523 -0.13532377353771874
1600000000.0 0.09197847869325362 -0.2393475375186623
1620000000.0 0.215775755839381 -0.03144279750699872
1640000000.0 -0.053493643732655784 0.17739457981950177
1660000000.0 -0.042359380234782515 0.14880183716123876
1680000000.0 0.11022371196023228 0.022008826802626433
1700000000.0 -0.08373108410039208 -0.060722756820458815
1720000000.0 0.043815155986626414 -0.06635394827926376
1740000000.0 0.07890941342518788 -0.011497192155342508
1760000000.0 0.02581031192983712 -0.08643235549027253
1780000000.0 0.09755687556585732 -0.06285501009221285
1800000000.0 0.1286833307717453 -0.054269766106449645
1820000000.0 -0.15620650153417276 -0.06300681239411421
1840000000.0 0.18036506790466805 -0.07617775881715909
1860000000.0 -0.21950820184987133 -0.010314811365320462
1880000000.0 -0.11340008182850253 0.23095745068058962
1900000000.0 0.12107548702227514 0.24481943030678527
1920000000.0 0.21339087063248335 -0.20048635838928816
1940000000.0 -0.30100929252509395 -0.0508688533542975
1960000000.0 0.2915127151989635 -0.10120811043662821
1980000000.0 -0.306881749899923 -0.059473112617077814
2000000000.0 0.12658270184077539 -0.2951499810485671
2020000000.0 0.3046163880282305 -0.10473927782901055
2040000000.0 0.3204501377025597 -0.023084542447812075
2060000000.0 0.30328804562525963 0.09521800634741434
2080000000.0 -0.027701399130370223 0.31605185120036294
2100000000.0 0.09154526451580791 -0.3008254301798352
2120000000.0 0.2346900381604223 0.19613202984314998
2140000000.0 0.0327070695810835 -0.2974407728850561
2160000000.0 -0.26335605780792726 0.1344040972352782
2180000000.0 -0.08920861221466263 0.2741511629600279
2200000000.0 -0.19248291364813053 0.20707177925402603
2220000000.0 -0.12737534965868422 0.25277582259231873
2240000000.0 -0.22019233922180045 -0.16408163813147017
2260000000.0 0.18411576075078673 -0.19671848695497263
2280000000.0 0.267880976839258 -0.05121450458891235
2300000000.0 0.2599489692653831 -0.001139998434465223
2320000000.0 -0.2505060470819059 -0.04943505312166002
2340000000.0 -0.07284156317474086 -0.24623109586721667
2360000000.0 0.2408222783476143 -0.08553873044640507
2380000000.0 0.06488709861956449 0.25277617984309586
2400000000.0 0.22883503779557865 0.1625991763634491
2420000000.0 0.15974411941413807 -0.2501907831540365
2440000000.0 -0.2691168729603932 0.16735779104686058
2460000000.0 0.3132104658449189 0.12971858316859805
2480000000.0 0.20535535176949804 -0.31115376899785263
2500000000.0 0.03928440946572744 0.4035857677540709
2520000000.0 -0.36819728838714705 -0.24694688995279002
2540000000.0 0.47615942427650615 -0.031456895170344897
2560000000.0 -0.31659549249102026 0.4004894163779564
2580000000.0 0.164398440178897 -0.5148345375383864
2600000000.0 -0.04012728071321088 0.5650536583780598
2620000000.0 -0.07405612149965421 -0.5848604411372818
2640000000.0 0.25386182794408585 0.5519207217752111
2660000000.0 -0.576308196822895 -0.23868822758421823
2680000000.0 0.43931280176504184 -0.45617274427465015
2700000000.0 0.576647590390775 0.2824047904280318
2720000000.0 0.36391558571054644 0.5346752695919118
2740000000.0 0.09309742951701386 0.640924141964096
2760000000.0 0.15194334730054213 0.6287679691510254
2780000000.0 -0.6194589513273808 -0.15976591407726895
2800000000.0 -0.4036825338259167 -0.482228421088079
2820000000.0 0.19768159657701354 -0.5841109371260103
2840000000.0 0.4443613403684298 0.4055956032837016
2860000000.0 -0.47618678414714155 -0.3428342437350705
2880000000.0 0.24373870161305616 0.5149019264762686
2900000000.0 0.42966403331970354 -0.3416141636712628
2920000000.0 -0.02446276056285518 -0.5264973313348689
2940000000.0 -0.3522734150450461 -0.35981287399633166
2960000000.0 -0.20371527706341958 -0.43345705374736254
2980000000.0 -0.29572186638719433 -0.3492471829675572
3000000000.0 -0.3604197962886011 -0.2505507724261299
3020000000.0 -0.4183845465721341 0.051549474607039306
3040000000.0 0.010120698807179694 0.400591087284402
3060000000.0 0.3777626617094067 0.04722444413698298
3080000000.0 -0.3403530848519392 -0.1348170630910924
3100000000.0 0.31252599606996945 0.1605844891324667
3120000000.0 0.3072663466113479 -0.15499304349343804
3140000000.0 -0.23739416654209267 0.24404397545109643
3160000000.0 0.1169037694136302 -0.3169521812840777
3180000000.0 0.053418919596913285 0.32986195009115665
3200000000.0 0.3198171796570564 -0.07637698636370611
3220000000.0 -0.21462685633954967 -0.24318408506903616
3240000000.0 -0.3056350442773365 -0.08098627317296254
3260000000.0 -0.2771977100403101 0.12839348352706662
3280000000.0 -0.29381207951807475 0.011755415745189318
3300000000.0 -0.2767076074848932 -0.015120882618772312
3320000000.0 -0.1540608512074435 -0.201349775561533
3340000000.0 0.21209040378137758 0.08976504131699271
3360000000.0 -0.14756924270199365 0.14615258661557953
3380000000.0 0.14693840947126582 -0.11712467449726498
3400000000.0 0.11640547288815603 0.12041888269214411
3420000000.0 0.08754219889424009 0.11380950288429746
3440000000.0 -0.07731803268399075 0.09844070851479002
3460000000.0 -0.05922230129900077 0.08749462951243794
3480000000.0 0.07555788791741826 0.045309626185363425
3500000000.0 -0.04452957786747922 0.06571419051859638
3520000000.0 -0.05992745830246373 -0.048626491421259396
3540000000.0 0.04556698548218584 -0.06314155102095609
3560000000.0 0.07634721158267495 -0.04215431084565222
3580000000.0 -0.08865798454142663 0.031872664988528136
3600000000.0 -0.049915332079073935 0.0844315726151719
3620000000.0 0.058515885829567904 -0.09508449042684632
3640000000.0 0.07185793760890494 0.10245291664720521
3660000000.0 -0.0431768952729661 0.12862779228900686
3680000000.0 0.005137623332793585 0.14098855641621671
3700000000.0 -0.08313944962203673 -0.10242050631424757
3720000000.0 0.11502369024071561 -0.028432032950399023
3740000000.0 -0.027195652669620884 -0.09642258061282387
3760000000.0 0.011719229786507267 -0.0823033033970901
3780000000.0 -0.053164059672754595 0.03484265497532659
3800000000.0 -0.012300318598337856 -0.03294288277966544
3820000000.0 -0.0016832923876749454 0.0006546664819341191
3840000000.0 -0.02399012012765257 -0.02824669954028567
3860000000.0 -0.06336069084157904 -0.010135035753574531
3880000000.0 0.08959153370518617 -0.008450111288952324
3900000000.0 -0.07899101620096648 -0.07993539288875366
3920000000.0 -0.08489815541491862 0.09503418755652508
3940000000.0 0.008480514282309523 0.13482229720141806
3960000000.0 -0.12750199657463115 0.05283095412304303
3980000000.0 0.1310138671677372 -0.032617054500196994
4000000000.0 -0.028033798145223027 -0.10995763736545233
