!Created with skrf (http://scikit-rf.org).
# Hz S RI R 50.0 
!freq ReS11 ImS11
400000000.0 0.8354819555692492 -0.2703680377690032
420000000.0 0.7607053625668723 -0.3342415720614812
440000000.0 0.45293192189092285 -0.6253699350675042
460000000.0 0.22618012218623162 0.6579547949163929
480000000.0 0.3251997602160719 -0.49494889872538883
500000000.0 0.5022333248571473 0.37539106948042045
520000000.0 0.3538075262116405 -0.5335726894236696
540000000.0 0.2558973251954829 -0.5482842048276886
560000000.0 0.6208624653611383 -0.022187012004081262
580000000.0 0.4283748672630574 0.2937916331774356
600000000.0 -0.3003139570592106 0.5166981985891769
620000000.0 -0.40543234028600694 -0.45129535114640745
640000000.0 -0.3503762847015716 -0.4382552970754907
660000000.0 -0.14227910667486207 0.4976508527473086
680000000.0 0.35217664889530825 -0.3240242018505861
700000000.0 0.44167541776056324 0.21796041667568636
720000000.0 0.48071291632914265 0.13440010797867416
740000000.0 0.20396760893580163 0.42930388080652837
760000000.0 -0.15293584995254117 0.4321412774161097
780000000.0 -0.4386239886157882 0.10827023174180286
800000000.0 -0.04210662905079533 -0.3996220423686742
820000000.0 0.14198428477675729 0.33187562185572606
840000000.0 -0.31238363349271797 -0.12472114184300541
860000000.0 0.0933315107303246 -0.2976024114395106
880000000.0 0.170845132118732 0.2200064919604287
900000000.0 -0.028932493455216906 0.27160776092289335
920000000.0 0.03167218660355768 -0.25875094404711835
940000000.0 -0.14314493647071463 -0.16769238110349383
960000000.0 0.09599511883439851 -0.13480925128130708
980000000.0 -0.08069074866531692 -0.10895538265318003
1000000000.0 0.11176200384838546 -0.0803562047848048
1020000000.0 0.1137372571758352 0.007844931775327333
1040000000.0 -0.04136598093007718 0.12247747795961571
1060000000.0 0.017797856044431723 -0.15368902094049347
1080000000.0 -0.16658695124657366 0.11736058562171446
1100000000.0 -0.19487341384763274 -0.1526405171184419
1120000000.0 -0.2196420984540754 -0.17539742544433015
1140000000.0 -0.20632368640847742 0.23079052784376938
1160000000.0 0.24920767736191715 0.220780155422896
1180000000.0 -0.030418482171647433 0.33774058884417896
1200000000.0 -0.3512852059322504 -0.05971093355528546
1220000000.0 0.22178135331435808 -0.2949668233744953
1240000000.0 0.3534422384668832 -0.13014810697759457
1260000000.0 0.09860077076619814 -0.38124264600300095
1280000000.0 -0.3074927986470497 0.22341437364418554
1300000000.0 0.03058168406169194 -0.3643095961971987
1320000000.0 0.29010356099280876 -0.2425658138886487
1340000000.0 -0.3584058112956654 0.07573149886495947
1360000000.0 0.21410090748251573 0.3186316702232623
1380000000.0 -0.21340257783620337 0.33191974972969074
1400000000.0 -0.08577830643655386 -0.3727287368888263
1420000000.0 0.36127325796102916 -0.1268826036333163
1440000000.0 -0.05349345505483865 -0.3847580304610959
1460000000.0 -0.2434998835233009 -0.30034031385171694
1480000000.0 -0.07591604767309139 -0.38684522505106084
1500000000.0 -0.3628243013144456 0.14606273823190868
1520000000.0 0.1262506630788945 -0.36565999210736544
1540000000.0 0.041629441341925415 0.35785477645636987
1560000000.0 -0.17520322573610778 -0.2793845334365649
1580000000.0 0.29297018414680714 0.03052072578179047
1600000000.0 0.26074178341505583 -0.022258087564916117
1620000000.0 0.11951119752406492 0.17663667585412743
1640000000.0 0.034045273921687415 0.18364331185478627
1660000000.0 0.1277945731735324 -0.09719828579579383
1680000000.0 -0.08120406728146443 -0.09260277202017021
1700000000.0 0.10897273861389613 -0.04393594989096226
1720000000.0 0.0790314838423027 -0.04651716676273786
1740000000.0 0.08385555428931009 -0.014594401626264852
1760000000.0 0.08229112198808573 0.03986093414883827
1780000000.0 -0.1089525878240956 0.002787444136676215
1800000000.0 0.019168067140975853 0.12834460242464713
1820000000.0 0.05262259948882627 0.15115481621274762
1840000000.0 0.015459115679342867 -0.1918061073127579
1860000000.0 0.007182373693163313 0.21696808716726354
1880000000.0 0.1870310589625957 0.16916448329944053
1900000000.0 0.2665462925173461 -0.05288373676792861
1920000000.0 0.033702363406242816 -0.2897812229415703
1940000000.0 -0.3022163471047795 0.04639396818752862
1960000000.0 0.18244523955928135 -0.2502611185509161
1980000000.0 -0.3055038383577133 0.0630350491202555
2000000000.0 0.12380771377832546 -0.295410771336381
2020000000.0 0.27119365371889154 -0.17967248056927543
2040000000.0 0.31858565930681193 -0.054631708781264034
2060000000.0 0.18785823925295458 0.2619316480637842
2080000000.0 -0.024213045791014548 0.32644657739891497
2100000000.0 -0.07528111119098278 -0.3153936772573503
2120000000.0 0.1806727631123682 0.2617994592786893
2140000000.0 -0.19868493639613055 -0.2521759971871609
2160000000.0 0.14262467005456694 0.2839279379388574
2180000000.0 0.2578712499682553 -0.17021988766317953
2200000000.0 0.21645792335125147 -0.2145823305890284
2220000000.0 0.02975723400763238 -0.2954660559549018
2240000000.0 0.28809018020467136 -0.031206812368035013
2260000000.0 0.12469565087000625 0.2462206633516348
2280000000.0 -0.20387695582757784 0.1738936624968459
2300000000.0 0.06538166076943537 -0.2421022677361245
2320000000.0 -0.1564738977684447 0.19072681519759754
2340000000.0 0.012112311820719174 -0.243284524836108
2360000000.0 0.015700602554958924 0.24308293073909915
2380000000.0 0.019355747040829208 -0.25555937011325974
2400000000.0 -0.2794431044975037 0.040778532974970826
2420000000.0 0.24600248689646526 0.17488346556978743
2440000000.0 -0.1922899691990166 -0.2632339568628332
2460000000.0 0.12400413276038455 0.33327020381173955
2480000000.0 0.1738796312023698 -0.3508090372860179
2500000000.0 0.3132869723512082 0.29125370286785657
2520000000.0 -0.45661564609817606 0.07617557180278857
2540000000.0 0.23246607126123195 -0.4375259230198086
2560000000.0 0.03267465972092571 0.5254970822660799
2580000000.0 -0.20492103980872767 -0.5139723765398587
2600000000.0 0.2498623915300345 0.5188406181628515
2620000000.0 -0.35059122187934594 -0.48098760226379467
2640000000.0 0.4591809593683393 0.4032300815195379
2660000000.0 -0.6220072867784673 0.06162779799221073
2680000000.0 0.11410742673542658 -0.6231819027828718
2700000000.0 0.6336013023171041 -0.11111166121145118
2720000000.0 0.6225642161127665 0.1786071280112821
2740000000.0 0.5772535960071659 0.2976726026169643
2760000000.0 0.5414215138568242 0.35876153006520584
2780000000.0 -0.4973465311065614 0.40972856473368174
2800000000.0 -0.6309864372231564 0.0737247003264072
2820000000.0 -0.37260753867245855 -0.5004043338460527
2840000000.0 0.575031398449613 -0.20246452441558738
2860000000.0 -0.45247182013418674 0.3840679777728542
2880000000.0 0.5537355990976479 -0.1488413241951534
2900000000.0 -0.19997191736259837 -0.5140398459176378
2920000000.0 -0.5250160100099882 0.049698635242258725
2940000000.0 -0.3639100122403761 0.3404717156496052
2960000000.0 -0.3162417064267728 0.35186924508353595
2980000000.0 -0.23873170306751884 0.37703496706309486
3000000000.0 -0.19830019917039424 0.37618087305959785
3020000000.0 0.07033282461116923 0.39774733587883926
3040000000.0 0.31009504390452186 0.22545830939828518
3060000000.0 0.24638011297551202 -0.2758183862383074
3080000000.0 -0.3308321691447393 -0.13757146876588272
3100000000.0 0.23655612925609498 0.25579323915278174
3120000000.0 0.2939942657765559 -0.18044644348525685
3140000000.0 -0.33841625941275916 0.047622330169492084
3160000000.0 0.3433240764102629 0.01701107372478584
3180000000.0 -0.34241691709882555 -0.02449708839589362
3200000000.0 -0.025870115663711217 0.3416017309702798
3220000000.0 0.2948458134278208 -0.16646886651940732
3240000000.0 0.10200783441921105 -0.3176289151887321
3260000000.0 -0.15619551126004327 -0.2872680591813911
3280000000.0 -0.3150543546577466 -0.022210073862980996
3300000000.0 -0.21079503040573735 0.21104668050150382
3320000000.0 -0.04207358454402962 0.26799328669023714
3340000000.0 -0.2454809876863362 0.033065850890956726
3360000000.0 -0.1891091654319253 0.1141597935756348
3380000000.0 -0.13145204645961256 -0.1388520151669214
3400000000.0 -0.05288447022484749 -0.15874966511943084
3420000000.0 -0.06993650120407005 -0.12228761750393838
3440000000.0 -0.04853910336998548 -0.10841296094870609
3460000000.0 0.0648073120678414 -0.06706916459253054
3480000000.0 -0.04566599600479471 0.06239056601287885
3500000000.0 -0.0723695318124229 0.003624548376160482
3520000000.0 -0.051530213056094266 -0.04936331549965626
3540000000.0 0.06889949176217698 0.03787879918324194
3560000000.0 -0.01573978356875559 0.0844913560314218
3580000000.0 0.05255267312037881 0.08062400836542989
3600000000.0 0.009313656755386588 -0.10424140805001897
3620000000.0 0.06276263248526243 0.1022102465047081
3640000000.0 0.11527978416273094 -0.07073054894337641
3660000000.0 -0.09931743174550328 -0.10780356794378594
3680000000.0 0.04199120550557966 0.14396034664191937
3700000000.0 0.05239986301111259 0.13353215069254534
3720000000.0 0.126888356902241 0.017505119508739744
3740000000.0 0.09488976946893998 -0.03880145251918867
3760000000.0 -0.01082247881828158 -0.07898783529125257
3780000000.0 0.057621549752097614 -0.012357298831521037
3800000000.0 -0.027677626522639078 0.0005763874681271727
3820000000.0 -0.010754818291868012 0.005083193375187526
3840000000.0 -0.047684697905246216 -0.008665122624483684
3860000000.0 -0.004079423854466728 0.07807731897155085
3880000000.0 -0.01297368278917432 -0.10259604850923662
3900000000.0 0.09419898145237822 0.0860159602799613
3920000000.0 -0.12939288258734774 -0.0632911300268212
3940000000.0 -0.010544408212491793 0.15117247225543962
3960000000.0 0.048838260744176944 -0.14952032745114555
3980000000.0 0.1465298997694572 0.021959946297509633
4000000000.0 -0.11923037958058819 0.038950257074821776
