!Created with skrf (http://scikit-rf.org).
# Hz S RI R 50.0 
!freq ReS11 ImS11
400000000.0 0.8020338139231548 0.3391690609294911
420000000.0 0.20724932295787946 0.7901782848940541
440000000.0 0.4368889485287492 0.6235023006917394
460000000.0 -0.6363932628599858 -0.26127372089658246
480000000.0 -0.055364178493669224 -0.6169395324353217
500000000.0 0.6494576947392161 -0.03895762004357318
520000000.0 -0.30254512208602075 0.5959828195553234
540000000.0 0.6391928041854608 -0.22411914726170568
560000000.0 -0.15545929405458436 0.6491782141459663
580000000.0 -0.38132398992476796 0.35869675483028496
600000000.0 0.214570763268638 0.5517179297229776
620000000.0 -0.42134065668454623 -0.4381923609927082
640000000.0 -0.3336094541090352 -0.4555971857909094
660000000.0 0.09394181588099375 0.5193108684997493
680000000.0 -0.053881380293654246 0.49297323581252867
700000000.0 0.4183732759661458 -0.17156910602581593
720000000.0 -0.08830372883174245 0.4790288360838598
740000000.0 0.3708170448193177 0.2875551222966999
760000000.0 -0.2155630551428935 0.39251201955616083
780000000.0 -0.43027761579189894 -0.0369053895014438
800000000.0 0.17091752104098848 -0.3647186160896251
820000000.0 0.3308635919599334 -0.1253149014500006
840000000.0 0.04025747377325699 0.31724466156236203
860000000.0 0.25084479249735564 -0.1572313995897177
880000000.0 -0.15151065355204865 0.22961790330865176
900000000.0 0.07920396598926802 0.2583278811119415
920000000.0 0.23414270974800167 -0.09698587446511911
940000000.0 -0.09515214069547925 0.20220946657697914
960000000.0 -0.18250752691557223 -0.02334156457541247
980000000.0 0.03141932692657308 0.14121248645117832
1000000000.0 0.025976368811218464 -0.12085659513993101
1020000000.0 0.03639001244677287 0.09328178662653155
1040000000.0 -0.08315565872011851 -0.07931711390702002
1060000000.0 0.12527626162905545 -0.07690416340768247
1080000000.0 0.18978990579215493 0.035962293855087625
1100000000.0 0.17050314960865387 0.16833381755418517
1120000000.0 0.2742640081468638 -0.0052599031195501595
1140000000.0 -0.2800866647417221 0.11741952305149948
1160000000.0 -0.26483364624364186 0.17424099035180984
1180000000.0 -0.32019301818832235 -0.09761779001205374
1200000000.0 -0.147107285412485 -0.3202193721154787
1220000000.0 0.3475841410199371 -0.08276383785633018
1240000000.0 0.1404608754430125 0.34978814535217095
1260000000.0 0.3478315409820469 -0.18266928061493504
1280000000.0 -0.31285045418440643 -0.22053700287395286
1300000000.0 0.02114819464892033 -0.37897591920567064
1320000000.0 -0.11187284746237565 -0.3648211226456105
1340000000.0 -0.3570233891510215 0.08769400362846198
1360000000.0 0.26146900550152163 0.2877581975411053
1380000000.0 -0.1464790126879546 0.37076690913329163
1400000000.0 -0.008453131140876632 -0.39513395045597155
1420000000.0 -0.017839113800779887 -0.39310278277573657
1440000000.0 -0.34434224414076364 -0.1929129926656103
1460000000.0 -0.395111087538399 0.0030348364765586614
1480000000.0 -0.34605162360332925 -0.19259980693252096
1500000000.0 0.12629249445395022 0.3800541752388024
1520000000.0 -0.37617123954717385 0.09405567739620962
1540000000.0 0.35018557214824864 -0.08707575953866707
1560000000.0 -0.20787505201832313 0.2567899737786674
1580000000.0 -0.1547371214745895 -0.24817959146630225
1600000000.0 0.08725540508112391 -0.24139167483487683
1620000000.0 0.18139224176696778 -0.12087875210337592
1640000000.0 -0.17659793613405889 0.04569158839860075
1660000000.0 -0.04896305671431649 0.14688882836150552
1680000000.0 0.03974347047447852 -0.1036921632267742
1700000000.0 -0.07270941723281184 -0.06991305146602725
1720000000.0 0.04321116523574446 -0.06696627702535932
1740000000.0 0.03420176423152555 -0.0713313353106584
1760000000.0 -0.06519317331631529 -0.058739186154968315
1780000000.0 0.07461860622996638 -0.08867874387621036
1800000000.0 0.11446112337989407 -0.08172276411981572
1820000000.0 -0.09553883912091884 0.13818625571269255
1840000000.0 0.18924527275024308 -0.04533975191502519
1860000000.0 -0.19339069887359567 0.11046904569745533
1880000000.0 -0.004969456917949325 0.255534938749419
1900000000.0 0.05234177591512125 0.27069103378866
1920000000.0 0.17016995241199856 -0.2403267268460966
1940000000.0 -0.30452180819987296 0.0198232884115257
1960000000.0 0.30303964464746397 0.05983191292617993
1980000000.0 -0.3016588635826399 -0.08758192929852647
2000000000.0 0.08615694841078642 -0.30821051612725286
2020000000.0 0.3196379988852881 -0.001472130065916498
2040000000.0 0.318525197406664 0.03795936590447525
2060000000.0 0.30836824251037687 0.07341967784853075
2080000000.0 0.14491961424985714 0.28027617827390144
2100000000.0 -0.00593433116522301 -0.3127997731418526
2120000000.0 0.29750060172188086 0.0635810950557143
2140000000.0 -0.05575594157227389 -0.29485360584741566
2160000000.0 -0.2089137971853655 0.2116950505823722
2180000000.0 0.09410087759261015 0.27215286344702416
2200000000.0 -0.15330669876349406 0.2384991006915974
2220000000.0 -0.21896945349023678 0.18158447946404319
2240000000.0 -0.26561317750917546 -0.08133943878704918
2260000000.0 0.23353759837048405 -0.1354579509434849
2280000000.0 0.26631781503052043 0.05853234121234356
2300000000.0 0.22970516189713078 0.1221528324832363
2320000000.0 -0.2228414249595275 -0.12311685398999127
2340000000.0 0.00586890508971317 -0.2551618920009227
2360000000.0 0.2132453590038084 -0.1388834822021861
2380000000.0 0.08077227530605074 0.24429143843444923
2400000000.0 0.13248664110020555 0.2438999207462514
2420000000.0 0.08335180049135098 -0.284713173738146
2440000000.0 -0.12409960869592965 0.2885158485873965
2460000000.0 0.33696974778728894 0.003086840722242468
2480000000.0 0.05430300961903784 -0.36805319224267935
2500000000.0 0.21475109152833793 0.3446789230958831
2520000000.0 -0.40830149220719186 -0.17721809266516192
2540000000.0 0.4650718083347098 -0.11397363207752503
2560000000.0 -0.28549144847229896 0.42423332873478625
2580000000.0 0.23856398596150172 -0.4849112159907719
2600000000.0 -0.05947466364353677 0.5634675115199322
2620000000.0 -0.05477112978854586 -0.5865585946830402
2640000000.0 0.20467798531623219 0.569813367825951
2660000000.0 -0.5514541326424264 -0.28664822063683576
2680000000.0 0.4075960144051565 -0.4819030512078951
2700000000.0 0.6211067335603013 0.15407512502791432
2720000000.0 0.4068149302883022 0.5001601441852326
2740000000.0 0.37536157122707686 0.5261791452399548
2760000000.0 0.28425801556854735 0.5806675798410519
2780000000.0 -0.6358779314771944 -0.06818679884528715
2800000000.0 -0.49612463713723604 -0.3885515143809908
2820000000.0 0.11381655220445859 -0.6070637845346688
2840000000.0 0.4731763935690018 0.37354130562354
2860000000.0 -0.47255001851228395 -0.34931502377592266
2880000000.0 0.19470873789331575 0.5359404564890315
2900000000.0 0.45239430525058594 -0.31042674949201515
2920000000.0 0.06689198668978935 -0.5220817879317754
2940000000.0 -0.25125767734568977 -0.4359423453564396
2960000000.0 -0.25503530272447106 -0.4048180966419436
2980000000.0 -0.33776134766413496 -0.305020969022858
3000000000.0 -0.3392605036034667 -0.2749910965225557
3020000000.0 -0.4198627055198801 0.013552285043119894
3040000000.0 0.09379929158206692 0.3886423958123603
3060000000.0 0.35227241759246675 -0.14055983532576138
3080000000.0 -0.3647307921690903 -0.02532735911305222
3100000000.0 0.34770707758512037 0.045425084060530856
3120000000.0 0.25881029658661503 -0.22941500906794943
3140000000.0 -0.13760412804120473 0.3127764552333918
3160000000.0 0.06544388992520715 -0.33259868948483284
3180000000.0 0.0428445795097588 0.3327550641625523
3200000000.0 0.32384138458363076 -0.06427703809804002
3220000000.0 -0.1169190080559609 -0.3042477487723482
3240000000.0 -0.3042704539410791 -0.0807533682407455
3260000000.0 -0.30269465634049697 0.03335118678251222
3280000000.0 -0.2804653006738195 -0.08405824794016772
3300000000.0 -0.2629910979550397 -0.08344827330905091
3320000000.0 -0.17095624338154147 -0.18424018956825294
3340000000.0 0.22564327091578384 0.026776927309333804
3360000000.0 -0.1370221384314117 0.15307788438522246
3380000000.0 0.09576631519794176 -0.1600397719353667
3400000000.0 0.1581919269793812 -0.04955341812099837
3420000000.0 0.13018852341755316 0.05548907312981609
3440000000.0 0.03700231457072161 0.12114151546027353
3460000000.0 0.06510743225972944 0.08417618482034321
3480000000.0 0.008960374875232683 -0.08968910779940473
3500000000.0 0.05145426199064484 0.06304270325214857
3520000000.0 -0.00575055564058345 -0.07906779262687443
3540000000.0 0.058220533940967524 0.05499552165568959
3560000000.0 0.08864882319972453 0.009177137480343406
3580000000.0 -0.0855771289149279 -0.038820875885582265
3600000000.0 -0.07652605159166057 -0.0598889309530115
3620000000.0 0.1095784976734802 -0.0008650106149520784
3640000000.0 0.03072336261243885 0.11860432085049483
3660000000.0 -0.04708546851304396 0.12478234530579403
3680000000.0 0.012429909328658516 0.13761015951667027
3700000000.0 -0.1308870603339792 -0.002336717804209545
3720000000.0 0.05010697688338374 -0.10509757655699094
3740000000.0 -0.09124111256190727 -0.03770212438785713
3760000000.0 -0.07844735348986069 -0.02940189672462109
3780000000.0 0.06119348936605316 -0.017219932626897794
3800000000.0 -0.025670831142736845 0.024044588798738636
3820000000.0 0.0026583532378777054 -0.0029397038083828504
3840000000.0 0.03242634160199736 -0.0039538881593403925
3860000000.0 0.03072268654449399 -0.054491444269391266
3880000000.0 0.04557851849450696 -0.07592017884430508
3900000000.0 -0.09330731863323116 0.056030266493847576
3920000000.0 -0.0036774747162440723 0.12425049595602947
3940000000.0 0.022941280882457362 0.13185053339723316
3960000000.0 0.03300886505742668 0.1346688553839745
3980000000.0 -0.04981894688567591 -0.12564459654836832
4000000000.0 -0.0910965139081553 -0.06622396481672194
