!Created with skrf (http://scikit-rf.org).
# Hz S RI R 50.0 
!freq ReS11 ImS11
400000000.0 0.8318527286801514 -0.2816096819445997
420000000.0 0.7807818788289266 -0.2848117630512656
440000000.0 0.4084844730334431 -0.6552401547591671
460000000.0 0.21683025457188745 0.6616144235462059
480000000.0 0.3956245816721722 -0.43910303211228197
500000000.0 0.4096445164728434 0.4736828389488944
520000000.0 0.3580720555317381 -0.5329865281690901
540000000.0 0.05437443292909019 -0.6061585602159388
560000000.0 0.6128481517576552 0.07575969752082086
580000000.0 0.3816261632796671 0.3570361207901889
600000000.0 -0.2715086568433544 0.5345650452090761
620000000.0 -0.34413791964880885 -0.4986916290917478
640000000.0 -0.3759174715240974 -0.4194326982765738
660000000.0 0.12272031655359099 0.5044758558303558
680000000.0 0.3993356567195815 -0.2597714711146286
700000000.0 0.3966348843691484 0.2995181975489184
720000000.0 0.49526795154237974 0.028787087205846804
740000000.0 0.014194185758390054 0.4759923947246632
760000000.0 0.116781184245661 0.4412859788795761
780000000.0 -0.3825026409429519 -0.23557014515708813
800000000.0 -0.2397492234381268 -0.3298884308130883
820000000.0 0.3011426367762733 0.19691519709282482
840000000.0 -0.32346062298011674 -0.07126945715204283
860000000.0 0.2981164356689178 0.08725520815953092
880000000.0 0.24562133515738777 0.15625945591926454
900000000.0 0.2724224777163092 0.013365270020730942
920000000.0 -0.03180530404333661 -0.25241749528943874
940000000.0 0.14025662464535837 -0.16723769288523374
960000000.0 0.16134587352662322 -0.0468166381465206
980000000.0 -0.13569991156453937 0.010541029406995004
1000000000.0 0.017436007717207835 -0.13242445255475074
1020000000.0 -0.08047056569923429 0.08405684222684437
1040000000.0 0.016198175657247647 0.1310291965255152
1060000000.0 -0.001037456749361654 -0.15569436948162413
1080000000.0 0.10425680057112101 0.1748620052587711
1100000000.0 -0.21771290200450663 -0.10899680968929773
1120000000.0 0.04003699644481721 -0.2765395636911528
1140000000.0 -0.23375656516375717 0.20441183807874375
1160000000.0 0.2608829815734679 0.20653017424734244
1180000000.0 0.2430521178611951 0.23613784373608337
1200000000.0 -0.34669890876180803 -0.05222433969396496
1220000000.0 0.35866916970527374 -0.09052587281508205
1240000000.0 0.2860109806874072 -0.25057326789074463
1260000000.0 -0.012894913614298122 -0.39271286400529676
1280000000.0 -0.36838739072782145 0.08854565079230688
1300000000.0 0.10155908115988205 -0.3511359044275996
1320000000.0 0.24468526636312227 -0.28774362647236
1340000000.0 -0.35195917576376284 0.10131927875818317
1360000000.0 0.18212952903728818 0.3377901847827635
1380000000.0 -0.038335880399552734 0.39226694397835377
1400000000.0 0.04476461773605801 -0.38045226737220955
1420000000.0 0.28358957202355994 -0.2587370206692133
1440000000.0 -0.038408806800714027 -0.3857373292049899
1460000000.0 -0.294926065301133 -0.25115245840043343
1480000000.0 -0.10936858995465834 -0.378242806222742
1500000000.0 -0.36228509050226454 0.14780574953235356
1520000000.0 0.16909868212935145 -0.3472637487971986
1540000000.0 0.16112405802278176 0.3233357959663097
1560000000.0 -0.20759433261803575 -0.25347262688720806
1580000000.0 0.23614626396963181 0.17698040735546672
1600000000.0 0.21644090267137867 -0.1510649033346396
1620000000.0 0.09927516233087204 0.18708278407529025
1640000000.0 0.023882426099216 0.1854385789911806
1660000000.0 0.15683381210194364 -0.03573361007565607
1680000000.0 -0.12094845158204 0.002513426304452579
1700000000.0 0.05365451328623507 0.10376917217920864
1720000000.0 0.06241264339924794 -0.07198223825516686
1740000000.0 0.03131093989288004 -0.07601202151152477
1760000000.0 0.03600204891579798 0.08464077203578986
1780000000.0 -0.10685677370082045 -0.01923896512496525
1800000000.0 0.12308224342680935 0.03988771169205918
1820000000.0 0.0912367911566383 0.1306685826079962
1840000000.0 -0.03288888261487939 -0.18949053482925274
1860000000.0 -0.03855492773178821 0.21422959833999736
1880000000.0 0.21245841984755298 0.13639547889921771
1900000000.0 0.27039450424072053 -0.03757148194809847
1920000000.0 -0.03098526125770125 -0.29036508616707
1940000000.0 -0.29912352234510525 0.05607968457441405
1960000000.0 0.24652986815160075 -0.18787871795727648
1980000000.0 -0.30271819774697495 0.07919249804211088
2000000000.0 0.04419343936513047 -0.316629702258212
2020000000.0 0.26825979451542836 -0.18077209703935312
2040000000.0 0.31426567900417857 0.07872657562681046
2060000000.0 0.22820245047220142 0.22738938490169663
2080000000.0 8.129043441523709e-05 0.3261992021759906
2100000000.0 -0.011576277874869877 -0.32373977997337205
2120000000.0 0.2346184542110347 0.21689770483440862
2140000000.0 -0.27780604443616674 -0.15832588945790338
2160000000.0 0.16199109003732864 0.27290278149868386
2180000000.0 0.2952081727478772 -0.09357617136153158
2200000000.0 0.23351924434796748 -0.1961840672833863
2220000000.0 0.06669506846689806 -0.29124864415718216
2240000000.0 0.26143363344442894 -0.12362800398395492
2260000000.0 -0.006561312905343337 0.27507533869463036
2280000000.0 -0.1525066743937194 0.22021433244872515
2300000000.0 0.13112139381675464 -0.21458182177160476
2320000000.0 -0.0296615974271342 0.24501810670300828
2340000000.0 -0.032427761944046576 -0.24005028745333443
2360000000.0 -0.01341492177324187 0.2436173314104081
2380000000.0 -0.06470313476640994 -0.24825420652631672
2400000000.0 -0.28293494325191143 -0.009980647330364018
2420000000.0 0.26690267181551613 0.1425080038380364
2440000000.0 -0.20088147456946173 -0.2572052802467423
2460000000.0 0.1427254836714972 0.3249195785065377
2480000000.0 0.2685561160729889 -0.2839235925286859
2500000000.0 0.2830186449556301 0.3207507645089788
2520000000.0 -0.43201027146856835 0.1657492794098979
2540000000.0 0.186465986653665 -0.45796747017155537
2560000000.0 0.04932338273248413 0.5227828327977242
2580000000.0 -0.20630813879101226 -0.5131711255447562
2600000000.0 0.29997426319075216 0.491417174541668
2620000000.0 -0.3856841381906688 -0.4542012531528326
2640000000.0 0.4920333488287842 0.3614836131318684
2660000000.0 -0.6238821507703732 0.03916853360774949
2680000000.0 0.05890963272861725 -0.6307912972592539
2700000000.0 0.623406112248868 -0.15607158640701257
2720000000.0 0.6218868979542838 0.1781823792702053
2740000000.0 0.5588678776776864 0.33052083091991685
2760000000.0 0.5545067100252001 0.33773288311330146
2780000000.0 -0.5204404287485208 0.3787115563221975
2800000000.0 -0.6259962873096514 0.10318860113761143
2820000000.0 -0.3952606555570499 -0.4820280170546232
2840000000.0 0.5427596900489439 -0.27774005074807556
2860000000.0 -0.39648127488281076 0.4426385850689921
2880000000.0 0.5522493014963252 -0.15306886004561795
2900000000.0 -0.23569738124470446 -0.4993592918235411
2920000000.0 -0.5222188522489402 0.07646411066618984
2940000000.0 -0.34189964640481635 0.3631738772487968
2960000000.0 -0.3270197287596976 0.34116656192043704
2980000000.0 -0.26613657588936546 0.35883186248515575
3000000000.0 -0.14866756257877334 0.3985478681779793
3020000000.0 0.11679731697971218 0.3872330961374787
3040000000.0 0.24459435052959866 0.2964571583799414
3060000000.0 0.25571258614287773 -0.2675990925831703
3080000000.0 -0.3444965243213521 -0.095310424167863
3100000000.0 0.26584515794260505 0.223163048628473
3120000000.0 0.3115840739078281 -0.1467276297530651
3140000000.0 -0.3108560187434446 0.14473519764722226
3160000000.0 0.3361330363794765 -0.07209931694273954
3180000000.0 -0.3385842895770567 -0.05837964418726632
3200000000.0 0.04699359035138268 0.33936924140570934
3220000000.0 0.26223030562297506 -0.21532533467132953
3240000000.0 0.07024412678102435 -0.32676133971120785
3260000000.0 -0.15956947555688444 -0.28571758539340825
3280000000.0 -0.31608776284432544 0.010431060225688283
3300000000.0 -0.21863316189564938 0.20446660410119222
3320000000.0 -0.0602987190434084 0.265562641312203
3340000000.0 -0.24373067031989853 0.051323887497851634
3360000000.0 -0.21717299626121747 0.04264363650911747
3380000000.0 -0.0534780131442431 -0.18566348310385544
3400000000.0 0.06745148575502126 -0.153862296029367
3420000000.0 2.34377123953993e-06 -0.14152314436221802
3440000000.0 -0.0010000734533289963 -0.11825323505615036
3460000000.0 0.09383538583656614 -0.006664913376868187
3480000000.0 -0.07775497530773602 0.009693435855003181
3500000000.0 -0.06484672528690871 -0.032857667904999485
3520000000.0 -0.040618911710425164 -0.05863826845375146
3540000000.0 0.015203647405379475 0.07646774658490064
3560000000.0 -0.027512648095335664 0.08072513963273736
3580000000.0 0.07141068940677384 0.06406724871959506
3600000000.0 0.07722102173727619 -0.07102559833050448
3620000000.0 0.11777460304545312 0.024085249698513868
3640000000.0 0.02391799158441652 -0.13077995700005424
3660000000.0 -0.08578799773187541 -0.11899070471606633
3680000000.0 0.09321419120393258 0.11950941491438012
3700000000.0 0.07130786693158646 0.1257224890673686
3720000000.0 0.12889486476816847 0.0034544684297312714
3740000000.0 0.10186646902164577 0.005722623610963273
3760000000.0 -0.013078378629195975 -0.07996580026633417
3780000000.0 0.048119160409992326 -0.03396496636345478
3800000000.0 -0.02575009185145916 -0.00476966619883971
3820000000.0 0.0059719353335704614 -0.009045284858049715
3840000000.0 -0.01560022701994607 0.04454578259891453
3860000000.0 -0.0697487527896609 0.034935182724517386
3880000000.0 -0.026849241934251 -0.10221942138983568
3900000000.0 0.11580324208274369 0.05732044658809166
3920000000.0 -0.14369105307827862 -0.006491008126004841
3940000000.0 -0.010503864948574604 0.15164920691187916
3960000000.0 0.10915369746407223 -0.11314971987794416
3980000000.0 0.14974048970699957 0.012303451454896776
4000000000.0 -0.12186892382338295 0.0361247138330756
