!Created with skrf (http://scikit-rf.org).
# Hz S RI R 50.0 
!freq ReS11 ImS11
400000000.0 0.8400385200537636 -0.2546974441971332
420000000.0 0.7866054302042663 -0.2681431858394725
440000000.0 0.43720694923642794 -0.6370707498766376
460000000.0 0.22009591474069998 0.66198434086162
480000000.0 0.31665148356933664 -0.4996257664134253
500000000.0 0.5142491515696942 0.3508443156767218
520000000.0 0.5161904363718668 -0.3772541302492535
540000000.0 0.280818035326965 -0.5417139231605346
560000000.0 0.6174039554834356 -0.08046587678731257
580000000.0 0.4726627105835597 0.22282079507133865
600000000.0 -0.1316236242157405 0.5813403880927653
620000000.0 -0.3918804404468737 -0.45792060795843176
640000000.0 -0.3247042312438901 -0.45783044706629866
660000000.0 -0.15204523163787853 0.4954064268386841
680000000.0 0.39956677416398856 -0.26243131304229395
700000000.0 0.3367012887657557 0.37021222920286123
720000000.0 0.4897070657047649 -0.087711633056393
740000000.0 0.4174117986181134 0.21307657590715923
760000000.0 -0.1581751304303953 0.4260381793700367
780000000.0 -0.18725802879765485 -0.4076686906062143
800000000.0 0.07099121897788499 -0.4066868163097561
820000000.0 0.33957620386552595 -0.12827008612171387
840000000.0 -0.32590948813500026 -0.039989453974056094
860000000.0 0.2870949156777543 -0.1148827415416291
880000000.0 0.1275526671336592 0.2568041034478711
900000000.0 0.2713719882842226 0.04351330061022105
920000000.0 0.08640741400192391 -0.2403715536681726
940000000.0 0.20477813810867931 -0.08296511451619201
960000000.0 0.1680620622253738 -0.0133658068787391
980000000.0 0.004068531616807503 0.1362816397359491
1000000000.0 -0.07765672241485301 -0.10637104157846645
1020000000.0 0.02790407253477735 0.10802622475929094
1040000000.0 -0.009807538903843338 0.12869785843982035
1060000000.0 -0.024063369760271937 -0.1559243000562034
1080000000.0 -0.08852266123958374 0.18352149627822578
1100000000.0 -0.22599589973279374 -0.10202375125915968
1120000000.0 -0.1624979991745882 -0.22576926022309382
1140000000.0 -0.288927071574334 0.10580271145323066
1160000000.0 0.32466786947991244 0.06562782027426617
1180000000.0 0.1020471218440702 0.32240479433209873
1200000000.0 -0.34936928344300905 -0.052767417872587985
1220000000.0 0.24697395826088755 -0.2729588300931182
1240000000.0 0.36496642411303964 -0.10154176486908478
1260000000.0 -0.007435427687922754 -0.39679558918073077
1280000000.0 -0.2121501180978696 0.3133878062008619
1300000000.0 0.18975555899369484 -0.30896624983744453
1320000000.0 0.3625710943617898 -0.10856043950896778
1340000000.0 -0.3573810031163845 0.0991558771564947
1360000000.0 0.3134787245917584 0.21978016712362147
1380000000.0 -0.15111815573426932 0.36304273786639235
1400000000.0 0.15126416264296536 -0.35012329957557536
1420000000.0 0.2815938405368869 -0.26441526404511256
1440000000.0 -0.17782472898307056 -0.3433981960859423
1460000000.0 -0.20197685321164285 -0.3292147546225712
1480000000.0 -0.20696121056505049 -0.33287684057246086
1500000000.0 -0.2863188131781719 0.26668662132544246
1520000000.0 0.08230320776048354 -0.3763569384995434
1540000000.0 -0.0207235635126817 0.36166218170309017
1560000000.0 -0.2607243319399059 -0.19992304179422224
1580000000.0 0.24700122426534 0.15913796427186644
1600000000.0 0.25806652821098003 -0.058234062543316575
1620000000.0 0.12868069296173565 0.16718109287878816
1640000000.0 -0.006800400210617725 0.1877428800148071
1660000000.0 0.12056624979894566 -0.10488811451423055
1680000000.0 -0.0983563987767827 -0.07068934324401216
1700000000.0 0.09526317948622284 0.06981756902252416
1720000000.0 0.04566488915871468 -0.08324137302276774
1740000000.0 0.055815421561486264 -0.05891798044728179
1760000000.0 -0.04394975001468473 0.08185307867528947
1780000000.0 -0.10228965538114937 0.03727987284498218
1800000000.0 0.07545145093553667 0.10583337093915277
1820000000.0 0.1104255249890774 0.11223743547019498
1840000000.0 0.10489180199358772 -0.16130253602541064
1860000000.0 0.0613061789059056 0.20910191823281163
1880000000.0 0.24628916727951128 0.05201813473237417
1900000000.0 0.26435077710005583 0.06191118388713199
1920000000.0 -0.032001822611904616 -0.2915106656692126
1940000000.0 -0.29946809162007965 0.053892895435604646
1960000000.0 0.2542956626829189 -0.17785590729766002
1980000000.0 -0.312132620709655 0.030664462055428963
2000000000.0 0.004276215224228827 -0.3197831353088882
2020000000.0 0.2879219418271665 -0.1448566104837346
2040000000.0 0.30525731719818616 0.10888746680284214
2060000000.0 0.26779195580300175 0.18085035887900291
2080000000.0 0.042373410513923855 0.32334110678958106
2100000000.0 -0.09735983211142445 -0.30776858649567956
2120000000.0 0.18199907882952437 0.26227138872258726
2140000000.0 -0.28879277297635836 -0.14100041909815422
2160000000.0 0.17937116863803976 0.26132888864425524
2180000000.0 0.28470729543846524 -0.11891965438768767
2200000000.0 0.24545094899551706 -0.18265320592775908
2220000000.0 0.011592612798033594 -0.2978727624691527
2240000000.0 0.2702751480180087 -0.09956276177927732
2260000000.0 0.022894827710381305 0.2751844749481569
2280000000.0 -0.15126924201468728 0.22103767096661328
2300000000.0 0.011446606846806722 -0.2506797699143949
2320000000.0 -0.10269421836279796 0.22241552089871916
2340000000.0 0.037288851672225086 -0.24106861387805467
2360000000.0 0.05114407656868872 0.2388608709995716
2380000000.0 -0.12418110406377549 -0.22410187808666573
2400000000.0 -0.28220893034695904 0.010775014786137849
2420000000.0 0.18675038659305648 0.23945961378817063
2440000000.0 -0.2201673814920732 -0.24332658041936497
2460000000.0 0.13070070696547412 0.33001557097339057
2480000000.0 0.2879009154107855 -0.26466038099624145
2500000000.0 0.28494779431245526 0.3189887140090824
2520000000.0 -0.4490949029337436 0.11461058688693335
2540000000.0 0.155543743280308 -0.4692243548756153
2560000000.0 0.03454685713720657 0.5238992598130592
2580000000.0 -0.18027943073711405 -0.5219018516782207
2600000000.0 0.337547941828904 0.46634180674640874
2620000000.0 -0.3723629465252911 -0.46483506367885535
2640000000.0 0.45548615741842036 0.40742181834756785
2660000000.0 -0.6242252896281657 0.040657670569424154
2680000000.0 0.06535852471050367 -0.6307183492627427
2700000000.0 0.6333120742615137 -0.10987164094583418
2720000000.0 0.6163776366154092 0.1981323735791023
2740000000.0 0.5943398640477852 0.2608321400466053
2760000000.0 0.5498771483066016 0.3463052704049459
2780000000.0 -0.5372659432714126 0.35380399661926853
2800000000.0 -0.626329851900199 0.1004497504708618
2820000000.0 -0.39839989319649605 -0.4786891961015423
2840000000.0 0.5637964983398481 -0.23076414307634835
2860000000.0 -0.4372333516868111 0.402173593478443
2880000000.0 0.5503473998166665 -0.16272748020324768
2900000000.0 -0.27250277502479076 -0.4798544582658797
2920000000.0 -0.5250470138491833 0.05469811557985928
2940000000.0 -0.3643666436880335 0.3422417385274511
2960000000.0 -0.31290921177005143 0.35617811023309004
2980000000.0 -0.28965642737286507 0.34298342266539134
3000000000.0 -0.19435631544751666 0.3785048070102305
3020000000.0 -0.020407884294378297 0.40413587290319053
3040000000.0 0.30465527737426795 0.23424047983141755
3060000000.0 0.2633020779596419 -0.25807446152929336
3080000000.0 -0.3391556340843341 -0.11095280702723923
3100000000.0 0.1994437433037097 0.28354957396144403
3120000000.0 0.2894270763409785 -0.18471484808894637
3140000000.0 -0.3134208455199262 0.13513352903481313
3160000000.0 0.3424690969741234 0.001439776818633093
3180000000.0 -0.3424408354900133 0.02868666468320086
3200000000.0 0.083525868126103 0.33235132466583683
3220000000.0 0.2509480940934068 -0.22810468190297978
3240000000.0 0.07765094872493544 -0.3249709489212521
3260000000.0 -0.2076849737790357 -0.25375392073164654
3280000000.0 -0.31646007317459124 -0.0034351675650231804
3300000000.0 -0.18454421809094962 0.2369867853028318
3320000000.0 -0.011018147421535177 0.2719613577318465
3340000000.0 -0.24127081715551627 0.06495401306480786
3360000000.0 -0.21436262955255156 0.059909391881189746
3380000000.0 -0.06919385797443571 -0.18122611382920753
3400000000.0 -0.02988723668608637 -0.16601088313662896
3420000000.0 -0.00018746526919344008 -0.14306653797947802
3440000000.0 0.052855767077462514 -0.10723257945660442
3460000000.0 0.09522424048472254 0.00017493693921900335
3480000000.0 -0.07808941160655494 -0.010854658951014515
3500000000.0 -0.058274654751405766 -0.04342945679138748
3520000000.0 0.0251326124021888 -0.06742139473052385
3540000000.0 -0.05796387542067331 0.05213806201103953
3560000000.0 -0.05420254568282595 0.06469436867904081
3580000000.0 0.0656962437384086 0.06843475188212927
3600000000.0 0.05938726684503917 -0.08376908046571738
3620000000.0 0.11123651119595988 0.04343613515717889
3640000000.0 -0.03558628329339088 -0.1281522046394588
3660000000.0 -0.1136909587849475 -0.0919414152104037
3680000000.0 0.12249048580828092 0.08865035855442899
3700000000.0 0.10278278973320337 0.10054921794378172
3720000000.0 0.1289803880054508 -0.013480696809263526
3740000000.0 0.10026640138006371 0.029218814522210753
3760000000.0 0.020872814290329663 -0.07688826584841557
3780000000.0 0.058211224612402634 0.010915669260276458
3800000000.0 0.02706045085456403 -0.006044649329749409
3820000000.0 -0.009314288684242155 -0.00468300621934271
3840000000.0 -0.04766342901209636 -0.0008876395994618358
3860000000.0 0.03656030542464777 0.0691825226965923
3880000000.0 -0.0856404411110576 -0.06289548247898755
3900000000.0 0.12006468466912146 0.04591698499603701
3920000000.0 -0.12583183941004733 -0.06918297556241748
3940000000.0 0.044212113789488965 0.1456023074904092
3960000000.0 0.12024353295815277 -0.10264349683807875
3980000000.0 0.14273475184299758 0.04095382417766849
4000000000.0 -0.12291345361376353 0.029019896202982415
