!Created with skrf (http://scikit-rf.org).
# Hz S RI R 50.0 
!freq ReS11 ImS11
400000000.0 0.7718153246622729 0.4037897682150118
420000000.0 0.2571415796976882 0.7754159528790683
440000000.0 0.42959195522477006 0.627505144125599
460000000.0 -0.5310754789471585 -0.43367857970239404
480000000.0 -0.024964360868919788 -0.6180578347739383
500000000.0 0.6452402573098314 -0.10879780181658087
520000000.0 -0.18075126127272736 0.6458631369262036
540000000.0 0.6179135513687297 -0.27377554101429646
560000000.0 -0.3009799264536198 0.5952925605480864
580000000.0 -0.4337634069210628 0.2918675263613061
600000000.0 -0.03217650711014598 0.594099695918596
620000000.0 -0.48750763002908665 -0.36909451996896114
640000000.0 -0.444560788428927 -0.35133444507778394
660000000.0 0.3592063774775181 0.3907409384877553
680000000.0 -0.040567468313862834 0.48155974835167964
700000000.0 0.31116190399936794 0.335228344177063
720000000.0 -0.387899943606908 0.2991013658745195
740000000.0 0.4418192669047782 0.1777898042083131
760000000.0 0.21352214862195126 0.3946352961808153
780000000.0 -0.38902907006309834 -0.17573657095143447
800000000.0 0.12942504019310144 -0.37581787785102266
820000000.0 0.1445687294230045 0.3195787243928031
840000000.0 0.012727773890764531 0.3281178085700014
860000000.0 -0.1269350091090444 -0.2718762131193671
880000000.0 0.2602769147407697 0.04212818606465953
900000000.0 -0.25101291542464316 0.09075232331497635
920000000.0 0.06324728213446047 0.2507546750254749
940000000.0 0.20927302024654698 0.09811721737759922
960000000.0 -0.1491432547835101 0.10152752837184746
980000000.0 -0.03637065841687861 0.13499518806066851
1000000000.0 -0.009933754415542825 0.13015519797472155
1020000000.0 -0.03182067833407296 -0.09602526813361068
1040000000.0 -0.04817861985349632 -0.09905609057238932
1060000000.0 0.13993429793368461 -0.05093716001374622
1080000000.0 0.1830473937623823 -0.05998860443305983
1100000000.0 0.1588138441964069 0.1716030904528404
1120000000.0 0.26521553106769463 0.09050747040539811
1140000000.0 -0.29518484962816377 0.0660785257961802
1160000000.0 -0.27773517604839904 0.143670165327371
1180000000.0 -0.27674825234286476 -0.1958515569024743
1200000000.0 -0.35266708168598254 -0.014375327196953254
1220000000.0 0.3388278974615111 0.10450535492503339
1240000000.0 0.21297710443728388 0.3109957438465694
1260000000.0 0.33005080846198875 -0.21330448636366056
1280000000.0 -0.3614474204111776 -0.12389787031804815
1300000000.0 0.05453907376982431 -0.3762538879970261
1320000000.0 -0.037917135374260544 -0.38169686197910624
1340000000.0 -0.3228830145194063 0.177238137476605
1360000000.0 0.1805341789351333 0.3427462391356408
1380000000.0 -0.2865249109677717 0.2803889326788553
1400000000.0 0.05119423233377918 -0.39334476634018534
1420000000.0 -0.043900570749729924 -0.39048633535585314
1440000000.0 -0.23850822847287448 -0.3154029118390664
1460000000.0 -0.3933588232728986 -0.03588088036347779
1480000000.0 -0.2082139581573557 -0.339459484507933
1500000000.0 0.25348648552422426 0.3132903431953853
1520000000.0 -0.3822112711364404 0.04897232977107784
1540000000.0 0.3488158486326881 0.0924934783040971
1560000000.0 -0.008251996956191221 0.3310423296885148
1580000000.0 -0.20060804354082795 -0.2130145315905883
1600000000.0 0.1539379632730506 -0.2049132897032952
1620000000.0 0.17657555556543564 -0.1272417712209082
1640000000.0 -0.08955616444633477 0.16236507217543117
1660000000.0 -0.0866067036858941 0.1262632049886174
1680000000.0 0.09084114157951555 -0.0670021569656294
1700000000.0 -0.10228790903763929 0.01790659087160102
1720000000.0 0.07635110849565303 0.020073401796697535
1740000000.0 0.06705580351505681 0.043531938149647585
1760000000.0 -0.04395334516699616 -0.07738542239462329
1780000000.0 0.10322271255366781 -0.05509697307004975
1800000000.0 0.1365858474019145 0.024144006615201982
1820000000.0 -0.168158709291906 0.018824726405127234
1840000000.0 0.1630309131552669 -0.10900328455354796
1860000000.0 -0.21784247519229247 -0.04499054189799888
1880000000.0 -0.01454110833909658 0.2537326213498116
1900000000.0 0.07683721256747005 0.2628629347124904
1920000000.0 0.2508620371927494 -0.1585933434058523
1940000000.0 -0.299186306745548 0.05502019511118448
1960000000.0 0.30071841054517606 -0.06074082736183961
1980000000.0 -0.25844799352830417 -0.180990853609995
2000000000.0 -0.02911034485868974 -0.32139916370351135
2020000000.0 0.3067775689324854 -0.08908442712615752
2040000000.0 0.24450322259957394 0.21052054189529978
2060000000.0 0.31300378767255943 0.06060361444620436
2080000000.0 0.14826932358984055 0.2776662995220643
2100000000.0 0.17045609077885499 -0.26346575391096255
2120000000.0 0.28134474173986784 0.12236969806200894
2140000000.0 -0.12413885266317298 -0.2708376360365201
2160000000.0 -0.2786052699708553 0.10041607365077895
2180000000.0 -0.049736911383247685 0.2849827661996572
2200000000.0 -0.04500794985590305 0.27973799971848684
2220000000.0 -0.17395906337245706 0.22288338972575866
2240000000.0 -0.23175382700296196 -0.1519302214869087
2260000000.0 0.12382455501096819 -0.2404588390399117
2280000000.0 0.2706771854095148 0.0316782522533672
2300000000.0 0.23468955452675172 0.11095650019394618
2320000000.0 -0.24099538104231194 -0.08833144340332941
2340000000.0 -0.09427749833642188 -0.23662727216810975
2360000000.0 0.2450951186119683 -0.0705308767879682
2380000000.0 0.13515191844552255 0.221028486500662
2400000000.0 0.15282487972466696 0.23369202931105731
2420000000.0 0.15360190957217715 -0.2550826216389188
2440000000.0 -0.20000167331268823 0.2460330804721006
2460000000.0 0.3311727463984871 0.054713770021444424
2480000000.0 0.23609789990055613 -0.2878616377502746
2500000000.0 0.10719345321473772 0.394260108772834
2520000000.0 -0.4213844655074042 -0.13592665943381457
2540000000.0 0.47518660268929225 -0.034342968175994956
2560000000.0 -0.3617850034142558 0.36079570965681734
2580000000.0 0.127335713277225 -0.5257150999956662
2600000000.0 -0.05189695641610486 0.5637667272296305
2620000000.0 -0.031424170574002916 -0.5885475802974651
2640000000.0 0.30575121092093077 0.5244605421220698
2660000000.0 -0.5751452616705227 -0.2388629297272918
2680000000.0 0.36099947146991596 -0.518395818027681
2700000000.0 0.6248904541505494 0.145873743306052
2720000000.0 0.3220387584515741 0.5603829326797651
2740000000.0 0.17027239984790898 0.6244323905286365
2760000000.0 0.13909552480697518 0.6312794463987826
2780000000.0 -0.6177602386241311 -0.16837397726347827
2800000000.0 -0.4548718377831081 -0.43516606066355884
2820000000.0 0.1736386589363485 -0.5912634829830691
2840000000.0 0.4153046277692305 0.4356267420656442
2860000000.0 -0.4850381117926231 -0.3318706214659756
2880000000.0 0.2559158084027738 0.5082990415227362
2900000000.0 0.47570015059348564 -0.27258150836632267
2920000000.0 0.04543279717393172 -0.5267966947066222
2940000000.0 -0.3929782173623285 -0.31355041681740853
2960000000.0 -0.20123772555127067 -0.43364729650820233
2980000000.0 -0.2787184444754697 -0.3639963600445865
3000000000.0 -0.35300654158698863 -0.2602508286933597
3020000000.0 -0.4199651836043167 0.01023776191243816
3040000000.0 0.0203756889926555 0.4006941394053258
3060000000.0 0.33830278890861054 -0.17220892538473992
3080000000.0 -0.33371651148941056 -0.14855877740123802
3100000000.0 0.3060388569478359 0.174724426055039
3120000000.0 0.2775038763851711 -0.20492049122096426
3140000000.0 -0.19446669374466455 0.27783792594497897
3160000000.0 0.08637460555586243 -0.32627233836323627
3180000000.0 0.08845740626422202 0.3235275776691404
3200000000.0 0.31493846542358805 -0.09600214642829606
3220000000.0 -0.22199838729206425 -0.23650201107851276
3240000000.0 -0.2916904861447351 -0.12240097936238699
3260000000.0 -0.2991453313994028 0.06353852401097966
3280000000.0 -0.29407741868338927 -0.009560411193240142
3300000000.0 -0.27524837784234574 -0.02652405863347269
3320000000.0 -0.15433537304625375 -0.20090814976811447
3340000000.0 0.21672257376378506 0.07297402330460763
3360000000.0 -0.18647386138126673 0.09113843867829488
3380000000.0 0.09364474495945987 -0.1623840239591841
3400000000.0 0.11871295558349021 0.11588500326901803
3420000000.0 0.06874613758631624 0.1254340021500841
3440000000.0 -0.07906836174938657 0.09692187272427953
3460000000.0 0.024420765047901923 0.1038364424404885
3480000000.0 0.06731140449614818 -0.05592352137649103
3500000000.0 -0.036842479007106375 0.07100112233166314
3520000000.0 -0.024250218680107134 -0.07453027661350616
3540000000.0 0.03448217830514775 -0.07107710319711248
3560000000.0 0.07048695689132344 -0.053018799843946786
3580000000.0 -0.07723322480451711 0.05296085385438544
3600000000.0 -0.09618944803613333 -0.02174958713271553
3620000000.0 0.1073392323208106 -0.02813836437326268
3640000000.0 0.07768289872885492 0.09775184315728362
3660000000.0 -0.004960264831142118 0.13465291350182537
3680000000.0 -0.03583790313459173 0.1341655918341019
3700000000.0 -0.10156421290089758 -0.08431241238921594
3720000000.0 0.08435508986949843 -0.08290932411926469
3740000000.0 -0.07736364063720567 -0.062327760191555254
3760000000.0 -0.03454462435167468 -0.07537889542183819
3780000000.0 -0.05823335133596851 0.027838086540348927
3800000000.0 -0.03360354132954216 0.006096207389891976
3820000000.0 -0.0009790700537306695 -0.0009941377811911272
3840000000.0 -0.025338498507920675 -0.02355444401144148
3860000000.0 0.016442123730515786 -0.061574331943902195
3880000000.0 0.0618196147237065 -0.06722469322230577
3900000000.0 -0.10035480415852543 -0.04717190944446505
3920000000.0 -0.11333589669550116 0.05411631692833605
3940000000.0 -0.001301305932297068 0.1353955404768644
3960000000.0 -0.029937429681492995 0.1353375485967991
3980000000.0 0.09552106858947994 -0.09379352631328594
4000000000.0 -0.07852922907667972 -0.08342790458464477
