!Created with skrf (http://scikit-rf.org).
# Hz S RI R 50.0 
!freq ReS11 ImS11
400000000.0 0.7643940041933117 0.41755274247534185
420000000.0 0.2549190824847478 0.7761100850846766
440000000.0 0.37994761472111993 0.6593422761272412
460000000.0 -0.6345335020794521 -0.26013726963244765
480000000.0 -0.12473439791608149 -0.608890975726554
500000000.0 0.5719925011982493 -0.31173339056783966
520000000.0 -0.5323282922743298 0.40705574937139455
540000000.0 0.6675480877243575 -0.13849541111193717
560000000.0 -0.16676858121911392 0.6493470602586372
580000000.0 -0.33073053339730746 0.3980131718415035
600000000.0 -0.1139791145015617 0.5807467281696923
620000000.0 -0.46122214070169354 -0.4064819906703491
640000000.0 -0.4207025218887629 -0.3819340007379557
660000000.0 0.25165282604396666 0.4659002759817462
680000000.0 0.12925267049979247 0.4738588664455031
700000000.0 0.432119342461256 0.12794688445480534
720000000.0 -0.36999962556157184 0.31960244381891206
740000000.0 0.2899072248397977 0.37489482107786126
760000000.0 0.09091754911913966 0.43861575943497694
780000000.0 -0.42988046651170303 0.04066501531473591
800000000.0 0.062020558299079015 -0.38999616041525
820000000.0 0.08657459484955196 0.3404277721562249
840000000.0 0.005463592479702737 0.3237908156737654
860000000.0 0.08565480466567349 -0.2867579120550328
880000000.0 0.19802314189527195 0.187695421362272
900000000.0 -0.07593987341965393 0.25786501222447894
920000000.0 0.217540020203941 -0.13798763489404248
940000000.0 -0.06869323781669331 0.21178167588856162
960000000.0 -0.09027967445344626 -0.15985051065317735
980000000.0 -0.14143439879448538 -0.03451991034569583
1000000000.0 0.12815913242850926 0.01812174537320783
1020000000.0 -0.07470937644521393 0.06508051739078641
1040000000.0 -0.1075053166142779 -0.021685324992001927
1060000000.0 0.12254642754021898 0.07909043932501689
1080000000.0 0.19201721763228272 0.04244726215632626
1100000000.0 0.15061197102190585 0.18958834173504993
1120000000.0 0.2325496389774867 -0.15006103672485593
1140000000.0 -0.26108566449640197 -0.1468600431080979
1160000000.0 -0.3182274486945993 -0.010073738275210834
1180000000.0 -0.3329980361895619 -0.05528495373732228
1200000000.0 -0.29756207532603435 -0.18648761406020695
1220000000.0 0.35443782633889725 -0.00325648818558761
1240000000.0 0.14177174964354178 0.3493356300463423
1260000000.0 0.3032114663376372 -0.2515144081453941
1280000000.0 -0.3646089822854457 -0.12277108252559975
1300000000.0 -0.013294949484676284 -0.37853182290163684
1320000000.0 -0.14385145024192872 -0.35412127997755244
1340000000.0 -0.3405294619983776 0.14394869295872842
1360000000.0 0.2214233581608745 0.3215441770148179
1380000000.0 -0.2011665422099574 0.3485545697693281
1400000000.0 0.06435134648313794 -0.3896894547842742
1420000000.0 0.13925821403994007 -0.36831774866873535
1440000000.0 -0.18164629997223813 -0.3507866244042309
1460000000.0 -0.36055101965512065 -0.163131590504169
1480000000.0 -0.2883386997153415 -0.27228837204791034
1500000000.0 0.10305305105426817 0.3850688372203795
1520000000.0 -0.3795894567803337 -0.07010170673867995
1540000000.0 0.3598126312961713 -0.052266832196936626
1560000000.0 -0.1153122889021328 0.30597335220704946
1580000000.0 -0.1659793445738915 -0.24118608318856158
1600000000.0 0.04980733247058851 -0.2529980535971076
1620000000.0 0.17518760398306324 -0.13046489184599414
1640000000.0 -0.17214653164220414 0.06925505689775326
1660000000.0 -0.05452239879371032 0.1443382472890453
1680000000.0 0.10377791646377202 -0.04657761488426253
1700000000.0 0.011231156650646695 -0.10379695129952386
1720000000.0 -0.03305175429756403 -0.074037516858575
1740000000.0 -0.013578658164237924 0.07695621623244998
1760000000.0 -0.0013154390116423248 -0.09150089664544045
1780000000.0 0.09256910795509342 -0.06927031959480652
1800000000.0 0.13714154567463585 0.01838470360191148
1820000000.0 -0.14408712872647328 0.08818916354306576
1840000000.0 0.19387713735974807 -0.015011822927149317
1860000000.0 -0.22178857080756567 0.016341227692338086
1880000000.0 -0.044169248856445936 0.2500454334224188
1900000000.0 0.01566486072171856 0.27309646073504695
1920000000.0 0.22991868072771782 -0.18212035620169573
1940000000.0 -0.3017798292555411 0.04018131982226422
1960000000.0 0.2880461649196804 -0.10644548239726496
1980000000.0 -0.2775649576532909 -0.14610759566330941
2000000000.0 0.033949848679274745 -0.3194909661166903
2020000000.0 0.2872340090813377 -0.14647529050433108
2040000000.0 0.3116742082026699 0.07482879319640187
2060000000.0 0.2566225759439859 0.18851690455215298
2080000000.0 0.04696948061938718 0.3148039723462122
2100000000.0 0.06323781682007136 -0.3076375176440434
2120000000.0 0.1900215536700095 0.23867417373762345
2140000000.0 0.08071224829176891 -0.2892015556439985
2160000000.0 -0.26985486625617017 0.12025856294800763
2180000000.0 -0.09916361894899334 0.26928760129618134
2200000000.0 -0.20093543225428007 0.20054643826271937
2220000000.0 -0.15136161824287914 0.23711179112980693
2240000000.0 -0.20842984911689724 -0.1790656245799536
2260000000.0 0.15660772727293143 -0.2189385553424394
2280000000.0 0.26868749068543574 0.04960399317338349
2300000000.0 0.2580859003465179 -0.036967963944807246
2320000000.0 -0.25438185090429555 0.00502627839843033
2340000000.0 -0.07632210013658697 -0.24463067338821923
2360000000.0 0.2009643924821242 -0.1583395836682746
2380000000.0 0.12243407044071293 0.2306491654932828
2400000000.0 0.19409437695913498 0.20304227511660072
2420000000.0 0.15801181391708677 -0.25204734282005875
2440000000.0 -0.3097392975779264 0.06681576936229583
2460000000.0 0.2892881185396371 0.1796577113186421
2480000000.0 0.16995903835498025 -0.3307072662296095
2500000000.0 0.009402740300062095 0.4058615882253361
2520000000.0 -0.3156071348800359 -0.3113869164407243
2540000000.0 0.4756567515019365 -0.038671032688177724
2560000000.0 -0.3300127017028573 0.3878370333599992
2580000000.0 0.22345497683205032 -0.4911063429727744
2600000000.0 0.02552783307437598 0.5659737524345917
2620000000.0 -0.14656493495852435 -0.5707851090409891
2640000000.0 0.2500964189075224 0.5538750134661622
2660000000.0 -0.5828734713961956 -0.2236908115364505
2680000000.0 0.34824864167410624 -0.5299277607075797
2700000000.0 0.5827981921600814 0.2719569353843147
2720000000.0 0.22610375393967885 0.607148274559505
2740000000.0 0.13451500138770997 0.6341680244012031
2760000000.0 0.10395724106112039 0.6388971168156725
2780000000.0 -0.5889728096062071 -0.248707493141965
2800000000.0 -0.3566860817198955 -0.5173634669125488
2820000000.0 0.23830769579658279 -0.5681617864835938
2840000000.0 0.45476037507619366 0.3928188839676584
2860000000.0 -0.503861378281832 -0.2997339479011117
2880000000.0 0.23783887076904298 0.5167364852070567
2900000000.0 0.39816141390325505 -0.3793759329479097
2920000000.0 -0.04870703894012957 -0.525461445199758
2940000000.0 -0.3483719813354699 -0.3653303474911253
2960000000.0 -0.26304855652226067 -0.4015129692472098
2980000000.0 -0.2428529402126823 -0.3888275201018705
3000000000.0 -0.3279851551879387 -0.29351929176228886
3020000000.0 -0.42087502657207726 -0.03141323821168148
3040000000.0 -0.04981168458264263 0.39797207772899823
3060000000.0 0.3635550591833971 -0.11029042591706718
3080000000.0 -0.285801976879987 -0.22771622198059133
3100000000.0 0.2671436487224875 0.22930313883675804
3120000000.0 0.3027154677177882 -0.16231105334683912
3140000000.0 -0.2137118532174092 0.26360251653706734
3160000000.0 0.11518096128287414 -0.317362439614115
3180000000.0 0.0306492553081658 0.33232060471183567
3200000000.0 0.30862269374361007 -0.1148958351158319
3220000000.0 -0.21805990380735507 -0.23950022856289613
3240000000.0 -0.3132843479190918 -0.043553076448623065
3260000000.0 -0.2869438232942026 0.10668423981814214
3280000000.0 -0.2948727011921287 0.004961630132953667
3300000000.0 -0.2782189848432803 -0.0024404929130221586
3320000000.0 -0.17241830335090808 -0.18669737284560292
3340000000.0 0.22530439888292786 0.04609053988182608
3360000000.0 -0.20763851385934462 -0.0071962603655208795
3380000000.0 0.12180960125235236 -0.14542574202080136
3400000000.0 0.10087444347451503 0.13145595287942471
3420000000.0 0.006188632102727016 0.14342686594514198
3440000000.0 -0.09809309686709947 0.07993016476977102
3460000000.0 -0.08032435462879844 0.06874251244993951
3480000000.0 0.08635580159319957 -0.007806804073092646
3500000000.0 -0.07380760796883354 0.03028712913833905
3520000000.0 -0.0395030601794505 -0.0668706350837594
3540000000.0 0.006114577766406048 -0.0766626130262625
3560000000.0 0.08411314196343361 -0.02238918090652182
3580000000.0 -0.06246211159639987 0.07026992985503534
3600000000.0 -0.053555479184499974 0.08297724368216997
3620000000.0 0.047750897270513085 -0.0997645596121019
3640000000.0 0.10892131599484964 0.062401435060750986
3660000000.0 -0.025162909706435182 0.13473574388212678
3680000000.0 0.047348430993745055 0.13262099769399793
3700000000.0 -0.106396914966366 -0.07970863291851221
3720000000.0 0.11876201608519095 0.016380566242188
3740000000.0 -0.050344800761459356 -0.08803888920340625
3760000000.0 0.04638956483464591 -0.06970988330461331
3780000000.0 -0.04379170729331859 -0.0458083082987418
3800000000.0 -0.0016480379035730347 0.034501887749958556
3820000000.0 0.0015389739890488468 0.0007588437756486591
3840000000.0 -0.034416544035593424 0.014619723044051538
3860000000.0 0.008491549239834 -0.06556925875426399
3880000000.0 0.08994210015420591 -0.019705912450996215
3900000000.0 -0.0651742366322772 -0.09181123223476748
3920000000.0 -0.1268373584627392 -0.010832958961869504
3940000000.0 -0.12308944122839992 0.0575380373230683
3960000000.0 -0.1261500477506418 0.0583967849510795
3980000000.0 0.13319653941674417 0.0025620052828646163
4000000000.0 0.09080652486487122 -0.06475214620952548
