!Created with skrf (http://scikit-rf.org).
# Hz S RI R 50.0 
!freq ReS11 ImS11
400000000.0 0.7785851126091397 0.39067568628790295
420000000.0 0.28819382373730995 0.764227277224172
440000000.0 0.35422091451143073 0.6726123520290669
460000000.0 -0.5841869048949876 -0.36229791243091264
480000000.0 -0.14259950349880887 -0.6008238382982852
500000000.0 0.6383466472390142 -0.14674533002093257
520000000.0 -0.3633405229707287 0.560932034925175
540000000.0 0.6679865973016554 -0.12867363234043
560000000.0 -0.2390827772234229 0.6275751542744182
580000000.0 -0.05197924539469735 0.513255702686155
600000000.0 -0.3615909065677339 0.47015954513810976
620000000.0 -0.35023393472081193 -0.5102066011271739
640000000.0 -0.5629456447943526 -0.09078031388529975
660000000.0 0.2722136050857748 0.4421048381277256
680000000.0 -0.07812922631307039 0.48921789392468507
700000000.0 0.3933307040410088 0.21835801227159493
720000000.0 -0.26850610960623505 0.40989668062446455
740000000.0 0.35525849543267557 0.3106076052896404
760000000.0 0.04525302687801531 0.4447388991063472
780000000.0 -0.4310135173968189 0.016325233857202203
800000000.0 0.2323595960047298 -0.32088629599472496
820000000.0 0.243284099994174 0.25323947765789345
840000000.0 0.06521304010834997 0.3209263033429215
860000000.0 0.1865241788811118 -0.2301131411778424
880000000.0 0.10261168265884703 0.24960177077622347
900000000.0 -0.05535813724348441 0.2636088420395761
920000000.0 0.24701479106382834 -0.07941351146686657
940000000.0 0.10931793571182372 0.19771423360320142
960000000.0 -0.15615668155232323 0.081577537075988
980000000.0 -0.03988260831080594 -0.13885188034264376
1000000000.0 0.07928426128049045 0.10587774257034349
1020000000.0 -0.008396455570772393 0.10109820287329377
1040000000.0 -0.08303636901125679 0.07442967541485562
1060000000.0 0.1437300685767194 -0.00931754848425153
1080000000.0 0.1544915195925204 0.12093957444255657
1100000000.0 0.1558473012412005 0.18168819777900333
1120000000.0 0.23634255816970942 -0.14653522948243292
1140000000.0 -0.2750423821232678 0.11674661131524593
1160000000.0 -0.3183527726350672 0.010001300602140974
1180000000.0 -0.33153291800500373 -0.07663419729897128
1200000000.0 -0.3465095767224213 -0.05601976464536394
1220000000.0 0.34396018247685434 0.0826629949559158
1240000000.0 0.12976095254103223 0.35409139253595
1260000000.0 0.35481708723448363 -0.17094527082271846
1280000000.0 -0.3753129806389393 -0.08161890272572596
1300000000.0 -0.0635936580584625 -0.3744284966505842
1320000000.0 -0.09671874689076979 -0.367704380459671
1340000000.0 -0.3635951337240594 0.060143941637718856
1360000000.0 0.1464466721385364 0.3602395303380187
1380000000.0 -0.13474664277338824 0.37779895666156527
1400000000.0 -0.07788230107858304 -0.39034362425761293
1420000000.0 0.12604749921005914 -0.37088945091466313
1440000000.0 -0.17619039573211556 -0.3541991543828969
1460000000.0 -0.39635392163162625 -0.017283080050271554
1480000000.0 -0.269229807733224 -0.29257590721253
1500000000.0 0.035991425271103696 0.39843209572899396
1520000000.0 -0.38330912948828744 0.02696003148515513
1540000000.0 0.36177385016232644 0.014068314485360237
1560000000.0 -0.1778224997848651 0.2776600807331905
1580000000.0 -0.18943800014711082 -0.2233637075200955
1600000000.0 0.03987419530161908 -0.2531672058221615
1620000000.0 0.20101767312178204 -0.08453147691653211
1640000000.0 -0.13393236284595356 0.127925175746247
1660000000.0 -0.050350095863365876 0.14625560971131943
1680000000.0 0.10561193892599174 -0.043173719814603814
1700000000.0 -0.07377884016346153 -0.07312650538667016
1720000000.0 0.07596460561907999 0.024914212169736622
1740000000.0 0.054320005018189746 -0.059203536293794067
1760000000.0 -0.0044845189642867146 -0.08928006039296339
1780000000.0 0.11537704897761238 -0.01773729083322818
1800000000.0 0.1360925790553389 -0.0335656831162814
1820000000.0 -0.16673081854907595 0.022025296788550638
1840000000.0 0.18688053855434336 -0.056004486925301564
1860000000.0 -0.21013472881902162 -0.06785368156590485
1880000000.0 -0.043055046580429995 0.25294807139035974
1900000000.0 0.08771711740920073 0.25843353017872206
1920000000.0 0.17424445312830583 -0.2356232049353524
1940000000.0 -0.2924367457016784 -0.08690374650532007
1960000000.0 0.2876246960851983 -0.11324279432395852
1980000000.0 -0.31218094052549344 -0.011948706655116768
2000000000.0 0.1547140390769776 -0.2809200944987673
2020000000.0 0.31049980624384965 -0.08922874748762599
2040000000.0 0.3215565613981814 -0.0012753976774259074
2060000000.0 0.28737495520374806 0.13510466562253398
2080000000.0 0.039510170610685506 0.31520451632710916
2100000000.0 0.04161925177436809 -0.31092377408812216
2120000000.0 0.20625234819321148 0.2244578990943107
2140000000.0 0.060413870460508654 -0.293650711694215
2160000000.0 -0.2599879675804685 0.141827486101708
2180000000.0 -0.03182385622475791 0.2858395752788948
2200000000.0 -0.21660934563616902 0.18042572148302954
2220000000.0 -0.1623447491385108 0.2309813941524263
2240000000.0 -0.20764657468668402 -0.1825432497809714
2260000000.0 0.15659658405813973 -0.2206335188809898
2280000000.0 0.2630153858316153 -0.06636260160320609
2300000000.0 0.2269204633605593 0.12631921443470762
2320000000.0 -0.2514981572056012 -0.050938879658645284
2340000000.0 -0.16339511099189666 -0.1981663402816542
2360000000.0 0.22051614861264598 -0.12592834113624296
2380000000.0 0.01717500917037089 0.25941976263892347
2400000000.0 0.17306228450723818 0.22198810543074862
2420000000.0 0.040920257026953094 -0.2954762561318419
2440000000.0 -0.2517023151936567 0.18912543857206465
2460000000.0 0.29345651578670695 0.1692423389957616
2480000000.0 0.20477374064464915 -0.3122676834615391
2500000000.0 0.12524074358768186 0.38676249018280895
2520000000.0 -0.38065537526514026 -0.22735698248404387
2540000000.0 0.47384546890237966 -0.05343772934985935
2560000000.0 -0.33735659316730776 0.3824590800910554
2580000000.0 0.21543871702861978 -0.49572305884798196
2600000000.0 -0.0041950263847295634 0.5665763615927323
2620000000.0 -0.138625973077103 -0.57266043170225
2640000000.0 0.24440051215169112 0.5557838485173412
2660000000.0 -0.5696408953079608 -0.25318783662131067
2680000000.0 0.3852324976989962 -0.5027991993406069
2700000000.0 0.5967937710898158 0.23788216682709754
2720000000.0 0.3057149040492731 0.5701148726737653
2740000000.0 0.22512601718216935 0.6070677352430571
2760000000.0 0.1186594858400329 0.6363835079625193
2780000000.0 -0.6042624580466781 -0.20885441508674463
2800000000.0 -0.4172429982877579 -0.4706650256532812
2820000000.0 0.19922602213614157 -0.5834903188061801
2840000000.0 0.44873955513274194 0.4001930341539696
2860000000.0 -0.5017890097668871 -0.30358127843539157
2880000000.0 0.25800727793716954 0.5077613265337901
2900000000.0 0.42093926665426923 -0.3525405705820897
2920000000.0 -0.028338687372795948 -0.5265722017077574
2940000000.0 -0.3432960607271288 -0.36975687712348854
2960000000.0 -0.2748812725077371 -0.3925474714676497
2980000000.0 -0.2576117351386064 -0.378247304634547
3000000000.0 -0.29986512662997417 -0.32148212637761575
3020000000.0 -0.41196896919577675 0.08836550959512758
3040000000.0 0.04872063112209501 0.39723845514449185
3060000000.0 0.3744064178293611 -0.06787608813133304
3080000000.0 -0.3002208462751995 -0.20888113197042824
3100000000.0 0.3133871710455007 0.16001179201944896
3120000000.0 0.2863926425564678 -0.19136166688318543
3140000000.0 -0.20856046543444196 0.268334323977035
3160000000.0 0.1232048342944315 -0.31430996280447876
3180000000.0 0.06990987384188918 0.32681375725725553
3200000000.0 0.3133429514610122 -0.10126035144174618
3220000000.0 -0.23972580233584104 -0.2181656611127391
3240000000.0 -0.3051459036509295 -0.0820939249542981
3260000000.0 -0.2874958151284411 0.10701526584647476
3280000000.0 -0.2935263352603439 0.01890392194546006
3300000000.0 -0.26940471725871545 -0.06520437164071465
3320000000.0 -0.1416613030590284 -0.21168356960791637
3340000000.0 0.22508237434754336 0.0438679376849041
3360000000.0 -0.17753944814302977 0.10654534377794465
3380000000.0 0.13372567610100516 -0.13290606010040093
3400000000.0 0.11949874642871594 0.11593649711516335
3420000000.0 0.06343350909566484 0.12786104878328985
3440000000.0 -0.08064030551117428 0.0967269456701167
3460000000.0 -0.02632233196008285 0.10219075545825264
3480000000.0 0.0868696055968456 0.014225748948721913
3500000000.0 -0.036997350852175516 0.07062103343625042
3520000000.0 -0.02328493696991067 -0.07402897047252138
3540000000.0 0.026365696294642676 -0.07397840445352716
3560000000.0 0.04775002774693025 -0.07295673131502727
3580000000.0 -0.08835811847130334 0.02884279534440365
3600000000.0 -0.07043464341092616 0.0693911708518558
3620000000.0 0.06652425446588633 -0.08942246336071952
3640000000.0 0.10533594354562092 0.06655151850319618
3660000000.0 -0.05956362524037868 0.12131151825952058
3680000000.0 -0.012140367463768854 0.14020313708362694
3700000000.0 -0.11140088416351941 -0.07125410668493405
3720000000.0 0.10781784822636777 -0.047920366461872636
3740000000.0 -0.019789750724081328 -0.09866688451102354
3760000000.0 -0.038248275001211536 -0.07396388440188131
3780000000.0 -0.06145753975126163 0.016466841789336786
3800000000.0 0.010961810265884187 -0.03297020489926774
3820000000.0 0.0014657770349634086 -0.00023049617664533208
3840000000.0 -0.03443995126124418 -0.011190457501978232
3860000000.0 -0.043525650676983337 -0.04786276065406619
3880000000.0 0.08227453269627115 -0.037775507342477796
3900000000.0 -0.07193583435228934 -0.0860663056348415
3920000000.0 -0.09293168416080722 0.08763632978518038
3940000000.0 0.007140004253021407 0.13484930480096685
3960000000.0 -0.12114300599187539 0.06781454337257534
3980000000.0 0.10818533266045696 -0.07973281898209157
4000000000.0 -0.017485090349820723 -0.11370023737742954
