!Created with skrf (http://scikit-rf.org).
# Hz S RI R 50.0 
!freq ReS11 ImS11
400000000.0 0.7875390632298418 0.37200308352928574
420000000.0 0.27663984543204584 0.7680501711998294
440000000.0 0.4542584302863111 0.6093797649260061
460000000.0 -0.6029396842491107 -0.3306132220790524
480000000.0 -0.12843330727839888 -0.6059535350701941
500000000.0 0.6116170801791329 -0.2335225912947822
520000000.0 -0.41895961305093304 0.520340393948653
540000000.0 0.6799631047248172 0.0256978153764269
560000000.0 -0.12450004585773675 0.6617228056263671
580000000.0 -0.15494887906242374 0.4957627617569299
600000000.0 -0.19708123224656354 0.5552895039282677
620000000.0 -0.25187069236668613 -0.5607765287315086
640000000.0 -0.49106504175733123 -0.2956712267802261
660000000.0 0.3679604879329804 0.37668611375031996
680000000.0 0.22479296212136896 0.4385408468376023
700000000.0 0.2703345132510601 0.3568643991402015
720000000.0 -0.38267744462139336 0.3119484857905791
740000000.0 0.39601507615493264 0.2588937732978743
760000000.0 0.13140001081406358 0.42442415830839936
780000000.0 -0.414230580099134 -0.12384520159966594
800000000.0 0.0926343489988344 -0.38552681525502913
820000000.0 0.22740969561941737 0.2669245218420265
840000000.0 0.0472567505386374 0.31782370619579603
860000000.0 0.27477159775085164 -0.12342808164038539
880000000.0 0.27295466948770813 0.039261233521180314
900000000.0 0.07142171152640726 0.253955363137668
920000000.0 0.25677156000400025 0.021414530230552266
940000000.0 -0.1346080871401436 0.18192110302821451
960000000.0 -0.18251230091633752 -0.0024996553371256242
980000000.0 -0.1111891787771967 -0.09117715755411823
1000000000.0 0.12586347046740798 -0.03603495162616991
1020000000.0 -0.08783789579197739 -0.04390202280838142
1040000000.0 -0.11074957402329934 0.005144377957946504
1060000000.0 0.14127666116582258 -0.04172292091458345
1080000000.0 0.12048843396679393 0.15336522167879593
1100000000.0 0.15715645353191676 0.18501511398337173
1120000000.0 0.2619379444529679 -0.08693347194452171
1140000000.0 -0.29712659672734665 -0.03624729821208723
1160000000.0 -0.31454093352021884 -0.047730957252803644
1180000000.0 -0.33288133553838856 -0.05827163692876255
1200000000.0 -0.33582299434089863 -0.10155570738207316
1220000000.0 0.3420322294774852 0.09481493293686653
1240000000.0 0.19632364654525472 0.3219970498283955
1260000000.0 0.3325458175501735 -0.20750909487578462
1280000000.0 -0.3424478474632613 -0.17276032800676175
1300000000.0 -0.07292182773530641 -0.3734758647641557
1320000000.0 -0.14234510868865913 -0.3539020730083035
1340000000.0 -0.3688279686270641 0.02562061833290336
1360000000.0 0.2134512497444153 0.3267949579456505
1380000000.0 -0.20074564511577328 0.34818663726035537
1400000000.0 -0.031594334619903734 -0.3939777394126771
1420000000.0 0.2117827076041633 -0.3314783420598945
1440000000.0 -0.2037308193140001 -0.33912880415916874
1460000000.0 -0.3665990324748786 -0.15005129351853677
1480000000.0 -0.36912555636951305 -0.1362786772419107
1500000000.0 -0.00857532634997073 0.3980483851021278
1520000000.0 -0.3891061973888261 -0.006515203013064639
1540000000.0 0.32382107407614286 -0.15687159739042753
1560000000.0 -0.2823463464395157 0.1670914368440638
1580000000.0 -0.21142638155204946 -0.205178763025362
1600000000.0 0.04717868891348617 -0.2543170418820044
1620000000.0 0.19203974242906832 -0.10117627405694384
1640000000.0 -0.18162237201100018 0.03350816929143542
1660000000.0 -0.06270938899862112 0.14165939580403614
1680000000.0 0.09924725625224338 -0.05617091086296442
1700000000.0 -0.08842732873879365 -0.050568860612128445
1720000000.0 0.07875400912498047 -0.0202113312766391
1740000000.0 0.07743836331261668 0.013785773430412235
1760000000.0 0.002807172156762219 -0.09124057933805665
1780000000.0 0.09917521637227482 -0.06244451750306314
1800000000.0 0.1304174512280144 0.049003483379978764
1820000000.0 -0.16737883143355725 0.018088518331256177
1840000000.0 0.1769904975271218 -0.08307370906385847
1860000000.0 -0.1973651465661334 -0.10031806471732178
1880000000.0 -0.06029206169852091 0.24748473628018522
1900000000.0 0.020728195444155457 0.2725586025370384
1920000000.0 0.21936803685510936 -0.19473939740710958
1940000000.0 -0.30399073877979604 -0.014392956271375367
1960000000.0 0.30113107700960234 -0.061286744809132855
1980000000.0 -0.29886894017763077 -0.09405300855085785
2000000000.0 0.013123726080306071 -0.3207890908934571
2020000000.0 0.3178749675487215 -0.054313235848781234
2040000000.0 0.3220052351360518 -0.006745332666251228
2060000000.0 0.28797342903126094 0.13384023310422913
2080000000.0 -0.05365085281505953 0.3126459921049909
2100000000.0 0.11895838144562629 -0.29159806954189854
2120000000.0 0.21980628098230276 0.21085338952293592
2140000000.0 0.04797385516816103 -0.2957427911729595
2160000000.0 -0.28565071885979293 0.07658186329027915
2180000000.0 -0.11753796066818148 0.262266229280506
2200000000.0 -0.15110084217620057 0.23994607269160562
2220000000.0 -0.17415509068007567 0.21873008052014323
2240000000.0 -0.14899989761494564 -0.2324357836427276
2260000000.0 0.07651269511768956 -0.2598034965371173
2280000000.0 0.2698845576434471 -0.0009956645574136845
2300000000.0 0.257592930601961 0.04093934109249374
2320000000.0 -0.25451312256293057 0.013662174747074544
2340000000.0 -0.03578401468610499 -0.25475472733763405
2360000000.0 0.16876319077117696 -0.19362936399339659
2380000000.0 0.11682423233634018 0.2320727795579354
2400000000.0 0.16875265066799408 0.22597452726549414
2420000000.0 0.12724095555515225 -0.2706011939847623
2440000000.0 -0.2928355178991236 0.11903708081267537
2460000000.0 0.2744527325159716 0.20016890946371754
2480000000.0 0.20701828720163704 -0.31010526100973296
2500000000.0 -0.023926203812679542 0.40518556425755176
2520000000.0 -0.3398790663777663 -0.28528485723551966
2540000000.0 0.4754708768234435 -0.03948940168718086
2560000000.0 -0.32909771925955666 0.38937467345667787
2580000000.0 0.21064356054031383 -0.4963980911335071
2600000000.0 0.0010145461711864052 0.566646995281279
2620000000.0 -0.14470063848144868 -0.5720507008142403
2640000000.0 0.29342775534676935 0.5323751716864932
2660000000.0 -0.5847400352266509 -0.21866246124381594
2680000000.0 0.41067385195411626 -0.4829930532450068
2700000000.0 0.5681036255410538 0.30225537913012324
2720000000.0 0.2753413488965631 0.5858625539179806
2740000000.0 0.18402425495688202 0.6217855516849145
2760000000.0 0.09007516512357498 0.6405119123587658
2780000000.0 -0.5921569406033341 -0.24028057613694387
2800000000.0 -0.3685243735872532 -0.508992764070644
2820000000.0 0.21845823476321108 -0.5757431207573652
2840000000.0 0.45885381722227314 0.3884348537266324
2860000000.0 -0.46222425194822975 -0.3610203739453079
2880000000.0 0.2638733567222521 0.5047448847796155
2900000000.0 0.4313979660936727 -0.3393993108764891
2920000000.0 0.021670055162374767 -0.52823917890325
2940000000.0 -0.34752451841728277 -0.3650565447818785
2960000000.0 -0.21455168384493167 -0.43019690021892665
2980000000.0 -0.2661935135051183 -0.3729463416422387
3000000000.0 -0.2801520623601489 -0.3386011290180455
3020000000.0 -0.42264164608608135 0.002718971688684526
3040000000.0 0.018130207682538414 0.39904729344316064
3060000000.0 0.38049487962382283 0.013768884301971157
3080000000.0 -0.32373804430382674 -0.17169638845937946
3100000000.0 0.26801897772068833 0.22559048929965797
3120000000.0 0.3331367563802067 -0.08947105556467905
3140000000.0 -0.17966991448964686 0.2877905440503559
3160000000.0 0.15340652806841257 -0.29972011710257024
3180000000.0 0.0385430666459531 0.3324320099204724
3200000000.0 0.3114483734812414 -0.1061036163383278
3220000000.0 -0.18514891843347334 -0.2661402573561012
3240000000.0 -0.30802816463412863 -0.071232471046739
3260000000.0 -0.2838094819228906 0.11279550097118912
3280000000.0 -0.29362872252304206 0.020799850196283616
3300000000.0 -0.27725779018327346 -0.023635633679160262
3320000000.0 -0.18712600775644106 -0.17126548589387094
3340000000.0 0.2146039970681024 0.08053815734921423
3360000000.0 -0.1972393493699682 0.06749221005686591
3380000000.0 0.09463379390189083 -0.16309419705528846
3400000000.0 0.09620802198007566 0.1371990431153159
3420000000.0 0.026069876219561163 0.14131614683678956
3440000000.0 -0.10199575568334499 0.07369750139528783
3460000000.0 -0.09672658931321097 0.04213447351491121
3480000000.0 0.08306993398751562 0.027260086703520692
3500000000.0 -0.07317569982010948 0.03258410897473775
3520000000.0 -0.015017539119065884 -0.07499330801960603
3540000000.0 0.0729638981280553 -0.026219034466603165
3560000000.0 0.06923766716456681 -0.05375986226466143
3580000000.0 -0.05165802417650477 0.0771957788169638
3600000000.0 -0.071790746809166 0.06680209099614884
3620000000.0 0.07531848583191159 -0.08135137352251946
3640000000.0 0.12299720532878523 0.023190218743850514
3660000000.0 0.019729869476844474 0.13471707873082595
3680000000.0 0.010224159243660698 0.1405086809511324
3700000000.0 -0.09500102075339414 -0.09412495565443169
3720000000.0 0.11783576644934216 0.018819626796541138
3740000000.0 0.0066683098768324485 -0.10039869201112397
3760000000.0 0.043038887355467875 -0.07189202688051632
3780000000.0 -0.06047748682684813 0.020771084026421707
3800000000.0 0.03329358834146334 0.004457410001365136
3820000000.0 -0.001704943364517436 0.0011437391756076453
3840000000.0 -0.036023125176335574 0.0018148196824036616
3860000000.0 0.04846164878725757 -0.04403466825891934
3880000000.0 0.06864739281083981 -0.06278436232881718
3900000000.0 -0.05429230896508342 -0.09803079309034754
3920000000.0 -0.10233832683295381 -0.07618219458802092
3940000000.0 -0.0970069711171542 0.09574409037529723
3960000000.0 -0.11111335729779283 0.08136820467585004
3980000000.0 0.13262657720142332 0.020431461282854013
4000000000.0 0.07287965710250686 -0.08645991847258808
