!Created with skrf (http://scikit-rf.org).
# Hz S RI R 50.0 
!freq ReS11 ImS11
400000000.0 0.7621270102909783 0.4236730799919417
420000000.0 0.3225026022471889 0.7497578439001383
440000000.0 0.4170085256144951 0.6378311224504783
460000000.0 -0.6575859125501449 -0.19013708792230466
480000000.0 -0.02129010109554244 -0.6178695051225366
500000000.0 0.6542836997160957 0.0351357328669566
520000000.0 -0.32957168296726563 0.5845714123206294
540000000.0 0.6386019004517607 -0.2364626407987131
560000000.0 -0.19570390389670703 0.6414787993285778
580000000.0 0.007400637112733147 0.5167120952755713
600000000.0 -0.4224917532992327 0.41192722985855085
620000000.0 -0.20679106984056136 -0.5786953138644757
640000000.0 -0.3147373253794821 -0.47867087008065806
660000000.0 0.4145368648123721 0.3314041544917628
680000000.0 0.3962271967668936 0.2918113764913016
700000000.0 0.24515122848212545 0.3709746096556427
720000000.0 -0.29860955190295446 0.38856049549022015
740000000.0 0.06699919738987778 0.4702040274809604
760000000.0 0.3111390939365106 0.3229474090268551
780000000.0 -0.42913930116373333 -0.040735763152183996
800000000.0 -0.07736582407302622 -0.3928100743369112
820000000.0 0.3497404435240579 0.016133925376301175
840000000.0 0.018655017561618914 0.32350400752180475
860000000.0 0.2815295114782454 -0.08066382730569537
880000000.0 -0.0741383277464744 0.2693323078783415
900000000.0 -0.03064233075298062 0.2689340382517045
920000000.0 0.22229890824028742 -0.13644179872892226
940000000.0 0.09773490884519108 -0.20377718309009996
960000000.0 -0.16481160395705438 0.04221909667263552
980000000.0 0.1008374617220729 0.10150665788865665
1000000000.0 -0.13368276594367076 -0.004778451986064562
1020000000.0 0.10769148833995781 -0.009662879303687913
1040000000.0 -0.10226912037926963 -0.06393620596888577
1060000000.0 -0.12878390379062027 0.034247510098688226
1080000000.0 -0.008417179875806606 0.1919341916344409
1100000000.0 -0.021535076713190517 0.23882517536064568
1120000000.0 0.26973716576739865 -0.07794056196357542
1140000000.0 -0.25393389372411485 0.16497895878778643
1160000000.0 -0.3094326178092712 0.06913794785220852
1180000000.0 -0.2900947503935767 -0.16972621588069503
1200000000.0 -0.3278585845828327 -0.13284798620547722
1220000000.0 0.3516119107760906 -0.040758559944320163
1240000000.0 0.12550773686316608 0.3547094309363871
1260000000.0 0.3801761762941373 -0.10624986669935758
1280000000.0 -0.38111059567843875 -0.06496058690298201
1300000000.0 -0.1746554320765298 -0.3350321371220438
1320000000.0 -0.07046205702923301 -0.3740610908295116
1340000000.0 -0.36810330177868517 0.04724851296426402
1360000000.0 0.1441238567376757 0.36249320074875124
1380000000.0 -0.07591985537270929 0.3931380160885913
1400000000.0 0.06786887580956052 -0.39014244688291655
1420000000.0 -0.1748666820929719 -0.35374216866782376
1440000000.0 -0.21189969651341417 -0.331166001593107
1460000000.0 -0.3809725183709712 -0.11572929701642581
1480000000.0 -0.3666726325383136 -0.14492956790517847
1500000000.0 0.1180545060566534 0.38003064405453946
1520000000.0 -0.3885119841564905 -0.020468988684655753
1540000000.0 0.34175400684333435 -0.11708489746037441
1560000000.0 -0.17938636085243964 0.27507025366265786
1580000000.0 -0.17473375503909114 -0.23549848191243433
1600000000.0 0.06254551802213743 -0.24961966951680759
1620000000.0 0.21636964147764104 -0.01613333459207635
1640000000.0 -0.09455106277341964 0.16091316230686764
1660000000.0 -0.045501895557451856 0.14752814852217022
1680000000.0 0.1048678973305342 -0.03689224891628547
1700000000.0 0.027137450990213058 -0.10019635559895189
1720000000.0 0.018499770695572453 -0.07858346687756723
1740000000.0 0.06810470768623812 -0.042205424084007015
1760000000.0 0.037261985561987836 -0.07990217637936912
1780000000.0 0.11452226793652089 0.02539641009320485
1800000000.0 0.09673244354053467 -0.10038869104260263
1820000000.0 -0.16571070484280764 0.03632969659468211
1840000000.0 0.1745315648969321 -0.08556912581836112
1860000000.0 -0.22063327691653034 -0.03100306884674846
1880000000.0 -0.10691636697157893 0.232214789240298
1900000000.0 0.033097500792359597 0.2727233307742363
1920000000.0 0.14253542935559946 -0.2566589608963462
1940000000.0 -0.2994769665326616 -0.049491970688325206
1960000000.0 0.3057171962316023 -0.03886701058709472
1980000000.0 -0.29730247708293167 -0.09920982674049394
2000000000.0 0.05164406619043182 -0.317840472434215
2020000000.0 0.2873663667080215 -0.14073192513820382
2040000000.0 0.32078918733986717 0.013680103169383298
2060000000.0 0.27595488522869277 0.1570712431462558
2080000000.0 0.010210891672041594 0.3178934576803805
2100000000.0 0.012987464988036176 -0.31544516868311023
2120000000.0 0.30225140874719053 0.016813034994861458
2140000000.0 0.069422428286013 -0.29102656859732023
2160000000.0 -0.2947358658286247 0.031777210970116765
2180000000.0 -0.1006170928305946 0.2710571567802902
2200000000.0 -0.11076882856034811 0.2625850636523408
2220000000.0 -0.05395386221085063 0.2768533759057842
2240000000.0 -0.19558758562522666 -0.1917172525171021
2260000000.0 0.23345329449607866 -0.13436166528481458
2280000000.0 0.26207052957488314 0.07253236224678837
2300000000.0 0.2589141816652888 0.042389985792006805
2320000000.0 -0.21699940218666097 0.135569666495774
2340000000.0 -0.08914473600575303 -0.23605871861171893
2360000000.0 0.25219900167841264 0.034090212710369446
2380000000.0 0.010205696722594665 0.2619716277488013
2400000000.0 0.2166556727066719 0.1809507388416038
2420000000.0 -0.06886412752568667 -0.28879742290965327
2440000000.0 -0.26882994651609754 0.16192419990202878
2460000000.0 0.27208305854341375 0.20188157551706443
2480000000.0 0.24267435910672389 -0.28300892453896387
2500000000.0 0.10741386081658019 0.39299286085877366
2520000000.0 -0.40528030524615544 -0.18202902220106643
2540000000.0 0.47065324537797565 -0.07228265531108356
2560000000.0 -0.35919807561396006 0.36121730739907393
2580000000.0 0.247202871471894 -0.48046989798395234
2600000000.0 -0.019015845378733506 0.5665337355196486
2620000000.0 -0.12094079681111476 -0.5764726458669629
2640000000.0 0.26985254589702956 0.5435157691727005
2660000000.0 -0.5802947174832912 -0.22644315901272172
2680000000.0 0.37600507596457855 -0.5092991292453151
2700000000.0 0.5978434598933786 0.23461032405380136
2720000000.0 0.3354949332186948 0.552715846167059
2740000000.0 0.25668085679895564 0.5948455017123974
2760000000.0 0.17804818719830154 0.6217818611302711
2780000000.0 -0.5928163684834276 -0.23867785182153348
2800000000.0 -0.40859485786704397 -0.47808554113470536
2820000000.0 0.15690733038259463 -0.5958447884175436
2840000000.0 0.4093417591519073 0.44102356044041985
2860000000.0 -0.4860837011653883 -0.32953081283614033
2880000000.0 0.24435984573450037 0.514430923087047
2900000000.0 0.4171836464877929 -0.3562443556733481
2920000000.0 0.02357905348683412 -0.5264335304878386
2940000000.0 -0.3147800149465954 -0.3929275405182391
2960000000.0 -0.23812155788981335 -0.41682911640777864
2980000000.0 -0.35014205551354266 -0.2946389553184324
3000000000.0 -0.3073816712638096 -0.3128572540247572
3020000000.0 -0.39681058088092364 0.13891430493783904
3040000000.0 0.0015092785505578178 0.4003480943626945
3060000000.0 0.3749469674519192 -0.06452001945618209
3080000000.0 -0.3514967919119989 -0.10279124571057817
3100000000.0 0.2968186367748118 0.18762765139176427
3120000000.0 0.28329264526107556 -0.19561851015105694
3140000000.0 -0.19837275197590892 0.2748493997819109
3160000000.0 0.13605750433983652 -0.30939732618402055
3180000000.0 0.06406687684552961 0.3290334817278082
3200000000.0 0.3056173066792116 -0.12206799713957858
3220000000.0 -0.2154625863292148 -0.2415717344987267
3240000000.0 -0.285214205029735 -0.13719024714334838
3260000000.0 -0.28415107452539495 0.11203336472176251
3280000000.0 -0.2942926375321274 -0.010685426478078125
3300000000.0 -0.27590635983721284 0.01448254623355724
3320000000.0 -0.17363159347553783 -0.18526621601470714
3340000000.0 0.21837559226877168 0.06882060227870879
3360000000.0 -0.18178356975736445 0.0987439319908122
3380000000.0 0.13570224899829447 -0.13146621963204755
3400000000.0 0.14260315261157597 0.08722585515350999
3420000000.0 0.12874882007163022 0.061857277877744095
3440000000.0 -0.10551979780236553 0.06730374624817279
3460000000.0 -0.09607512623251639 0.04789879574091871
3480000000.0 0.07621643019748427 -0.04554861603795988
3500000000.0 -0.017084388499220195 0.07757020931759391
3520000000.0 0.004268574131770988 -0.0766947113149003
3540000000.0 0.07294255147226374 -0.029162054654212132
3560000000.0 0.07853450173718844 0.03904000628900626
3580000000.0 -0.07138513144360555 0.06183008612970137
3600000000.0 -0.04420287189049707 0.08692211052528159
3620000000.0 0.09657286018625051 -0.053992380364003376
3640000000.0 0.04170057936672071 0.11809624963377154
3660000000.0 0.045947869012317774 0.12785727840476332
3680000000.0 -0.027033018889569983 0.13752914126480448
3700000000.0 -0.12036915999875876 -0.05479003490419672
3720000000.0 0.09865707453009137 -0.06565590755976218
3740000000.0 -0.00518425661281825 -0.09975439213370267
3760000000.0 0.014584629522392995 -0.0831969617688734
3780000000.0 0.001593912551025991 0.06487600746074164
3800000000.0 -0.007675609034093108 -0.03170715252674229
3820000000.0 -0.0020699213407030918 0.001239499912512886
3840000000.0 -0.034587004168818124 -0.0021341343682949156
3860000000.0 0.024734340548611764 -0.05985800350802733
3880000000.0 0.08236004802358805 -0.039722698185300345
3900000000.0 -0.10806503489316654 -0.03166392666045561
3920000000.0 -0.07806531527327372 0.09968107906091987
3940000000.0 -0.08576164951258536 0.1047252047715534
3960000000.0 -0.11253794684300204 0.08271858666266901
3980000000.0 0.09006797648087637 -0.1002328965134799
4000000000.0 0.06959580711934349 -0.08890034334881546
