!Created with skrf (http://scikit-rf.org).
# Hz S RI R 50.0 
!freq ReS11 ImS11
400000000.0 0.8508544692445604 -0.21750730016283135
420000000.0 0.7665455264175767 -0.32231388073434497
440000000.0 0.4210818080345056 -0.6473402990209957
460000000.0 0.2047293210384056 0.6651811539556177
480000000.0 0.3700870495344654 -0.4605056049484708
500000000.0 0.5518094028537542 0.30035636427908
520000000.0 0.40001080908154873 -0.497774865434887
540000000.0 0.23922381135894782 -0.5599554975574655
560000000.0 0.6201626332846814 0.04470214824996328
580000000.0 0.48805535118480936 0.17825461971052964
600000000.0 -0.2505934307877782 0.5413134940829534
620000000.0 -0.2700187205597508 -0.5427859314924426
640000000.0 -0.2905620192592459 -0.48327719289993876
660000000.0 0.147463103105667 0.4958556942540689
680000000.0 0.3672881828651864 -0.30490435460948834
700000000.0 0.37276029378939035 0.3234120903425148
720000000.0 0.4847536314384228 0.11993125534307207
740000000.0 0.11695354318956323 0.4591108038339815
760000000.0 -0.01935165386588087 0.4584990848652346
780000000.0 -0.4492920187104956 0.01924823434320646
800000000.0 -0.11490377426309441 -0.38645640419180327
820000000.0 0.1076629965844237 0.3442435527807362
840000000.0 -0.3323038799349388 -0.0357754889241831
860000000.0 0.2722784636285383 -0.15427060553138283
880000000.0 0.2167500136329871 0.18236396311421252
900000000.0 0.18633755844879676 0.19864211408885
920000000.0 0.12445908708732502 -0.22516462535843987
940000000.0 -0.11063134985525391 -0.1916498800737211
960000000.0 0.16486805660112344 -0.01053588395300695
980000000.0 -0.13817731974930925 -0.009024667998036532
1000000000.0 0.03354922119451116 -0.13046707024741086
1020000000.0 0.0931753493073327 0.061760039252666425
1040000000.0 -0.08574621380547143 0.09733085663029598
1060000000.0 -0.0037535833857875595 -0.1577454990076336
1080000000.0 0.010613518815684585 0.2011719749606342
1100000000.0 -0.17652828323048045 -0.1697284131525631
1120000000.0 -0.11337751568012436 -0.25692440351845447
1140000000.0 -0.1908947471165778 0.24633010720642665
1160000000.0 0.3245167756969903 0.07426951782076237
1180000000.0 0.043917735898763764 0.33327507953763136
1200000000.0 -0.2691426291144202 -0.23129194016263252
1220000000.0 0.24270207273989847 -0.27944951959710745
1240000000.0 0.27572950151226877 -0.2591576092626753
1260000000.0 0.10220355233478215 -0.37764302476620015
1280000000.0 -0.3482363394626773 0.1486576605972972
1300000000.0 0.047343010914862906 -0.36532055089652554
1320000000.0 0.2550900519458834 -0.2783048131756926
1340000000.0 -0.33544827324212667 0.1470126075054771
1360000000.0 0.098999337306298 0.3716086114904279
1380000000.0 -0.1329312785259071 0.3710457809530565
1400000000.0 0.023327928244217505 -0.3828644240981821
1420000000.0 0.3196548012871805 -0.2131727541090293
1440000000.0 -0.13136320150002867 -0.36313916470533814
1460000000.0 -0.15723783074829858 -0.3529602615186073
1480000000.0 -0.08831364008245508 -0.3857319240814838
1500000000.0 -0.3270436871512582 0.21283800191822125
1520000000.0 0.14552538345639549 -0.3572072586147419
1540000000.0 -0.011375922833675861 0.361319544917397
1560000000.0 -0.21742691454864216 -0.24767148525181848
1580000000.0 0.29237669531388943 0.004681524039800063
1600000000.0 0.25735540185276684 0.05200807783359158
1620000000.0 0.06750084441093751 0.20262948526211846
1640000000.0 0.09291846622711225 0.1619084903432221
1660000000.0 0.14908365260883877 -0.052929781671192964
1680000000.0 -0.07575716457102838 -0.09789501748554173
1700000000.0 0.1174044358425886 -0.011791849997740437
1720000000.0 0.009174601905141844 -0.09178635290913388
1740000000.0 0.04438006169690414 -0.07097377506649988
1760000000.0 -0.07183522097875766 0.058398819727823945
1780000000.0 -0.05371520012650467 0.09533749200669535
1800000000.0 0.10860509435994822 0.07057879311427886
1820000000.0 0.06127844879484553 0.14694452851614118
1840000000.0 0.11118132940010184 -0.1580648520293131
1860000000.0 0.029051866888289812 0.2168826653776222
1880000000.0 0.20934898419516457 0.13945545834177897
1900000000.0 0.2685872034551228 0.04195263983811321
1920000000.0 0.034925654913386624 -0.2908224830658974
1940000000.0 -0.30439446764402206 -0.01662207822379664
1960000000.0 0.1722047992624698 -0.25727291696902693
1980000000.0 -0.3112129145155567 -0.005672728732832322
2000000000.0 0.10850084199120018 -0.30259726579143764
2020000000.0 0.21071819802853162 -0.24649921863608254
2040000000.0 0.32140502595902837 -0.03437277479944626
2060000000.0 0.19520902666119344 0.25643184662270446
2080000000.0 -0.03845094992269676 0.3254576334817067
2100000000.0 -0.04225228383218608 -0.32205281288397586
2120000000.0 0.22738783899100568 0.22437751650766707
2140000000.0 -0.2041028430960436 -0.246872388590226
2160000000.0 0.06355855957907655 0.31235469987417985
2180000000.0 0.2495942707058264 -0.1839347982963912
2200000000.0 0.23906921557723962 -0.18706956910326716
2220000000.0 0.10975044400071227 -0.27711633947338177
2240000000.0 0.28669364227111716 -0.04689265402248584
2260000000.0 0.16692936149144194 0.21825806880728904
2280000000.0 -0.21920611599597542 0.1514382014792374
2300000000.0 0.1432251651690658 -0.20694347886699177
2320000000.0 -0.050868649141998956 0.24181199469491216
2340000000.0 -0.06398014916151992 -0.23351392549181346
2360000000.0 -0.07696845673158567 0.23065103787402852
2380000000.0 -0.03435069934282669 -0.2556391654312449
2400000000.0 -0.2465973925042713 0.13632660228324534
2420000000.0 0.20948737965708805 0.21739525773559062
2440000000.0 -0.1954307726163262 -0.26163815471824253
2460000000.0 0.13309020700797725 0.33019698778920115
2480000000.0 0.1805070773508921 -0.34788587831169054
2500000000.0 0.2606909182267634 0.33820755893772764
2520000000.0 -0.45022943067101734 0.10918825734793926
2540000000.0 0.22353881277533008 -0.44191663488149246
2560000000.0 0.051452729929464786 0.5234734193216843
2580000000.0 -0.2109877736513976 -0.510714813356534
2600000000.0 0.2944437403631197 0.4942874196490102
2620000000.0 -0.3108015152550139 -0.5083196942161905
2640000000.0 0.4956119399593093 0.35683743907546717
2660000000.0 -0.6243105815748082 0.03639102652784102
2680000000.0 0.10830336761973368 -0.6241380926247531
2700000000.0 0.6089372805791533 -0.20695063920314694
2720000000.0 0.622811156096186 0.17687143162779373
2740000000.0 0.5981006696600422 0.25211434055976806
2760000000.0 0.5298634188066202 0.3743736426143713
2780000000.0 -0.4802683836519921 0.4295943603002655
2800000000.0 -0.6242807650207131 0.11656006600311365
2820000000.0 -0.40125907390155485 -0.47745724510297693
2840000000.0 0.5554988793970399 -0.25110974341978176
2860000000.0 -0.40301746958296514 0.43533054205649224
2880000000.0 0.5606705114897895 -0.12102403132846773
2900000000.0 -0.17789488319311367 -0.5231470789450273
2920000000.0 -0.5232436042328343 0.07127920602812093
2940000000.0 -0.35256542840592436 0.3513636928053465
2960000000.0 -0.34864542953429756 0.31899639107304767
2980000000.0 -0.2901334011767362 0.34044839895244366
3000000000.0 -0.20414789585426493 0.3720673354875859
3020000000.0 0.025311587408782196 0.40197020887782603
3040000000.0 0.33411705810850817 0.18792570473545
3060000000.0 0.23743640980540753 -0.2835289494092032
3080000000.0 -0.34151985531751655 -0.1052849690038674
3100000000.0 0.24412833115002597 0.24874634721689717
3120000000.0 0.2668109449555571 -0.2195375798807261
3140000000.0 -0.33319406751968267 0.07949638117469586
3160000000.0 0.3413369191245343 -0.029284908440130996
3180000000.0 -0.33672962958339214 -0.07389503972426019
3200000000.0 0.015139186193802908 0.34274958526199917
3220000000.0 0.30880028472155946 -0.13829359976307365
3240000000.0 0.13968701600244016 -0.3040324088409246
3260000000.0 -0.16314866523556026 -0.28252670089037274
3280000000.0 -0.30719538175967104 -0.07185410105128441
3300000000.0 -0.20462710907791695 0.21684604328944174
3320000000.0 -0.07842640292916843 0.2599425403892897
3340000000.0 -0.2366673004060851 0.07428481572704579
3360000000.0 -0.2082061293894752 0.07206361858236993
3380000000.0 -0.11656184153870458 -0.15287500033502724
3400000000.0 -0.07794915792037711 -0.14858986523730625
3420000000.0 -0.04767520687715433 -0.13241012380729628
3440000000.0 0.0067200662064866865 -0.11860985190431657
3460000000.0 0.07387215503174173 -0.058551478665987804
3480000000.0 -0.07588903111287638 0.014117494098554388
3500000000.0 -0.07168469702031038 -0.011272808391337584
3520000000.0 -0.03051621979006369 -0.06367953534756346
3540000000.0 0.03216878945225898 0.07087391854471932
3560000000.0 -0.029277561381966147 0.07954665000561
3580000000.0 0.06736468174861424 0.06889573692694864
3600000000.0 0.020563660304865793 -0.10084247806219333
3620000000.0 0.09643979100163459 0.0696995531886588
3640000000.0 0.03334819906459311 -0.1308661066948426
3660000000.0 -0.1294365932580945 -0.06784088999849033
3680000000.0 0.12443629170327813 0.0851950688066537
3700000000.0 0.04526578143476167 0.13616100332202719
3720000000.0 0.12206222996645451 0.04305160851832269
3740000000.0 0.08219686309726149 -0.0641129162502919
3760000000.0 0.010035137470820061 -0.07867571525034946
3780000000.0 0.0577825039082548 0.013496549012569426
3800000000.0 0.023978783326489318 -0.013084394150662119
3820000000.0 -0.008374418056983583 -0.00749830923975712
3840000000.0 -0.04885246150945429 -0.009628378673017513
3860000000.0 0.05953994990169959 0.05143471427712487
3880000000.0 -0.04613572926899193 -0.09384675693529959
3900000000.0 0.043015192142689264 0.12093900472219295
3920000000.0 -0.11725628749395689 -0.08585019831462529
3940000000.0 0.012833626008907738 0.15215367907760602
3960000000.0 0.11059391615964452 -0.11093058470681183
3980000000.0 0.12074460456034321 0.08633873306220888
4000000000.0 -0.1233700302662515 0.022721803881772248
