!Created with skrf (http://scikit-rf.org).
# Hz S RI R 50.0 
!freq ReS11 ImS11
400000000.0 0.8420939244017557 -0.249219427426179
420000000.0 0.7750164475831693 -0.29657920969343055
440000000.0 0.4574624120958054 -0.6221745309067751
460000000.0 0.21393300450813812 0.6626249008408182
480000000.0 0.2907045442887362 -0.5142574520542674
500000000.0 0.3941293370015285 0.485430136103583
520000000.0 0.39025428410375174 -0.508849646367589
540000000.0 0.2815751849624375 -0.5379660079636789
560000000.0 0.6081733382627688 -0.13520425514014525
580000000.0 0.5056847326765247 0.1289824870440112
600000000.0 -0.16896582498826201 0.5712241961248334
620000000.0 -0.304351855987214 -0.5211507232728717
640000000.0 -0.24909294246495192 -0.5053032599238858
660000000.0 -0.09948406672268949 0.5088867558361608
680000000.0 0.2601408577364404 -0.40243797695619077
700000000.0 0.44861192842133607 0.21792613786625575
720000000.0 0.49099983396886127 -0.06412811155531105
740000000.0 0.16129143866883508 0.44212181957104213
760000000.0 -0.24885754541815056 0.3838192356851345
780000000.0 -0.44286570013842397 -0.09692056393440276
800000000.0 -0.1919517703552649 -0.3580828450568403
820000000.0 0.35832175690199475 0.05577494046231932
840000000.0 -0.31787306277841904 -0.09099527447838583
860000000.0 0.30821049855953697 0.025659533068303514
880000000.0 0.21465277022570078 0.19212854027289103
900000000.0 0.24624947816642373 0.11972884666887666
920000000.0 0.040514843036628834 -0.25161471355024967
940000000.0 0.06497948663689632 -0.2123255153514809
960000000.0 0.13463412683733653 -0.09875613128440466
980000000.0 -0.13572195180700902 -0.016244603679509466
1000000000.0 -0.020183325556817632 -0.13071994440790474
1020000000.0 0.07517518972893932 0.0830475270284753
1040000000.0 -0.08923313137725926 0.09725068057619815
1060000000.0 -0.028910658664112503 -0.15392723509620648
1080000000.0 -0.10071486461794206 0.17751727430297753
1100000000.0 -0.2372114387165964 0.06146991748309188
1120000000.0 -0.00022966733481679473 -0.2769851263607367
1140000000.0 -0.2701339694648137 0.15371692078189278
1160000000.0 0.2977505023106143 0.14845957650613475
1180000000.0 0.17743323719737783 0.28747577498360455
1200000000.0 -0.35156124510765907 -0.027656562937432752
1220000000.0 0.30923409900241916 -0.20332879321780925
1240000000.0 0.3296471920165744 -0.18681125747919824
1260000000.0 -0.0915729557677527 -0.3845781179983611
1280000000.0 -0.3481873222934245 0.14366013411432502
1300000000.0 0.14551705039890303 -0.33719432267070953
1320000000.0 0.3004933204803757 -0.22861597669621994
1340000000.0 -0.3550834603379792 0.09811992485870465
1360000000.0 0.28339305232468154 0.25778522630983547
1380000000.0 -0.2021069672387013 0.33714952835598594
1400000000.0 -0.077416140252069 -0.3754060259911839
1420000000.0 0.3210347389490507 -0.21092300019862337
1440000000.0 -0.06598855792698405 -0.3816436631898966
1460000000.0 -0.2842917081337667 -0.26325133642339094
1480000000.0 -0.2742958399566058 -0.2803875791383833
1500000000.0 -0.30746003713811537 0.24204364394831562
1520000000.0 0.16966260945975192 -0.346383490374283
1540000000.0 -0.018882037229572546 0.3625692908797517
1560000000.0 -0.2864769698232959 -0.16447769773601267
1580000000.0 0.29244509167658367 -0.0031867070882252843
1600000000.0 0.24322041689512328 0.0977218716485656
1620000000.0 0.09628524969536126 0.1912062524467647
1640000000.0 0.09196171876968183 0.16180505325900058
1660000000.0 0.11594028796055042 -0.11078602538649462
1680000000.0 -0.08963310210249761 -0.08327904977022141
1700000000.0 0.10228549081516619 -0.0615008739811377
1720000000.0 0.08654399807928319 -0.026708942230058784
1740000000.0 0.08611082167466574 0.0007993258766617495
1760000000.0 0.07893383916004264 -0.04568685705374957
1780000000.0 -0.10818546282814998 -0.005372864494800712
1800000000.0 -0.020656022172856673 0.12724526553293683
1820000000.0 0.1413192382237301 0.07750054808537424
1840000000.0 -0.007241528933732638 -0.1911616027215451
1860000000.0 -0.0056607524196658566 0.2175808459550464
1880000000.0 0.22132658695154372 0.11987502976672221
1900000000.0 0.2727216018065172 -0.006567946215453651
1920000000.0 0.033707627169557226 -0.28984611325844484
1940000000.0 -0.3046931690324353 0.0363316463420786
1960000000.0 0.16248554925263856 -0.2634318864447168
1980000000.0 -0.31138393271369735 0.026291038306344074
2000000000.0 0.07987143788871659 -0.30892670155539387
2020000000.0 0.3051427779269399 -0.10915081863591157
2040000000.0 0.3239965536741975 0.006823568733443126
2060000000.0 0.2643367641247156 0.1855625882819
2080000000.0 0.14852886998987475 0.28988448316508847
2100000000.0 -0.04468276171103734 -0.31886039086119466
2120000000.0 0.24217496615686473 0.20920111758957863
2140000000.0 -0.2626005892427935 -0.1866904926170751
2160000000.0 0.18842886540044726 0.2561382846289508
2180000000.0 0.27671430912183276 -0.1388997553564122
2200000000.0 0.17863462119292084 -0.24781976731892674
2220000000.0 0.04042351310632445 -0.2949111796156607
2240000000.0 0.2883640867416244 -0.025077295030989842
2260000000.0 0.035709061487077996 0.2729820311400962
2280000000.0 -0.14386771161862585 0.22668904594394357
2300000000.0 -0.06330417550310465 -0.24273483526335787
2320000000.0 -0.1092892671934869 0.21856735901166005
2340000000.0 0.07518158006036542 -0.23189328176663968
2360000000.0 0.04859704841579362 0.23889514037707307
2380000000.0 -0.12970886264681172 -0.2223207137680316
2400000000.0 -0.25409494773759445 0.12256197447138399
2420000000.0 0.22317587991476676 0.20393585678003626
2440000000.0 -0.170071801417379 -0.2799189598450426
2460000000.0 0.15072672424775166 0.3227450468872226
2480000000.0 0.19080680396393937 -0.34230420508576065
2500000000.0 0.3033154457910218 0.3005071512348663
2520000000.0 -0.4360440884693963 0.15679661696388017
2540000000.0 0.2398615194964634 -0.4324743535973474
2560000000.0 0.06491483116861332 0.5211652368585156
2580000000.0 -0.19920758782747322 -0.5153791625985732
2600000000.0 0.31893402527727965 0.4792934189710203
2620000000.0 -0.3302410074331341 -0.49532600434243146
2640000000.0 0.4626131263656079 0.3987312911748036
2660000000.0 -0.6243319890369329 0.03672731194314829
2680000000.0 0.1077337648512539 -0.6247717463880118
2700000000.0 0.6254932445188636 -0.14557583597571522
2720000000.0 0.6288922889240683 0.1539140852683224
2740000000.0 0.6138566570584457 0.21042603215062133
2760000000.0 0.5757634938623033 0.3012533301975536
2780000000.0 -0.521335476386517 0.37788434454985365
2800000000.0 -0.6223041109217636 0.12488252394993815
2820000000.0 -0.4041176141737518 -0.4744158678224471
2840000000.0 0.5766928508160741 -0.1981223693511245
2860000000.0 -0.4298935985714842 0.4105388578296663
2880000000.0 0.5433285151013727 -0.1834204831744507
2900000000.0 -0.21388087765623387 -0.5090016209101473
2920000000.0 -0.5172971162143386 0.10825981131779328
2940000000.0 -0.3044866163099069 0.39424538417608446
2960000000.0 -0.3479655848025271 0.3219146325920149
2980000000.0 -0.3059915046847186 0.32717943594633375
3000000000.0 -0.1691559095537585 0.391501249323713
3020000000.0 0.06565412800950088 0.39818742825210063
3040000000.0 0.250203141970917 0.29065091611578114
3060000000.0 0.270837200627707 -0.25050454482811996
3080000000.0 -0.33975825581891445 -0.11070510160714044
3100000000.0 0.2483784976288593 0.24176018686185985
3120000000.0 0.28084367329943255 -0.19821276483813796
3140000000.0 -0.3234393390681061 0.11201393649650247
3160000000.0 0.3408257756831638 -0.035434045167804365
3180000000.0 -0.3429777986095741 0.020532190532381023
3200000000.0 0.0782927805986587 0.33365130762757345
3220000000.0 0.25654727136963656 -0.22231505880233368
3240000000.0 0.060155711206617266 -0.32872338585268307
3260000000.0 -0.23992519775871904 -0.223111824683758
3280000000.0 -0.31611093380795374 0.01964469422024703
3300000000.0 -0.19841044988930046 0.22520872765193203
3320000000.0 -0.007264948102265555 0.2727848340985602
3340000000.0 -0.24018440116407766 0.06795187466491318
3360000000.0 -0.20485276952128895 0.08416520277562316
3380000000.0 -0.05122397490804665 -0.18737840961863317
3400000000.0 -0.004690843163099155 -0.16920897262391998
3420000000.0 -0.006450405337211212 -0.14240328523411827
3440000000.0 0.0717983371200566 -0.09555758762631524
3460000000.0 0.09505015908392854 -0.008074594050855245
3480000000.0 -0.0708356143206555 -0.03519943026582677
3500000000.0 -0.019636764600301518 -0.07051864388500369
3520000000.0 -0.02477937176252249 -0.06566067688181235
3540000000.0 -0.0720887453415706 0.029561708284183735
3560000000.0 -0.05721128107179739 0.06183353363318486
3580000000.0 0.07239950163671977 0.06089649034271834
3600000000.0 0.014793095283789335 -0.10082956542378045
3620000000.0 0.11394957263678954 0.03271368921032697
3640000000.0 -0.03178495567542531 -0.1303334223589807
3660000000.0 -0.1240655717238727 -0.07842218175565246
3680000000.0 0.13629356441899176 0.06525134694783334
3700000000.0 0.06458574649541089 0.1291949925438384
3720000000.0 0.12797517510450482 -0.022976647073015884
3740000000.0 0.10262306971740973 -0.01740066896080508
3760000000.0 0.05660337781404041 -0.057329268798533256
3780000000.0 0.05966129892576774 0.00828105693680018
3800000000.0 0.01573407562034063 -0.02131088919644091
3820000000.0 0.005540605276289972 -0.008385509213682016
3840000000.0 -0.040736286186022666 0.022779321200889147
3860000000.0 -0.025827919636197714 0.07480928884954839
3880000000.0 -0.07894556429043768 -0.07225804287799371
3900000000.0 0.12297126583679537 -0.03797896038770743
3920000000.0 -0.11125045061450886 -0.09007098948701556
3940000000.0 -0.0654829252915278 0.13892844473594285
3960000000.0 0.07273427224760848 -0.14204961540968117
3980000000.0 0.14473209593822994 -0.03192973320065799
4000000000.0 -0.08319580311593194 -0.09414073303351957
