!Created with skrf (http://scikit-rf.org).
# Hz S RI R 50.0 
!freq ReS11 ImS11
400000000.0 0.7482565888401331 0.4413951627410762
420000000.0 0.5179377994614843 0.638301287779099
440000000.0 0.3416405506131554 0.6798136808481811
460000000.0 -0.4272400231705617 -0.5420065339820237
480000000.0 -0.47281213795951604 0.4432390208175645
500000000.0 -0.6416254850256448 0.04229167306324835
520000000.0 -0.4787617334930266 0.4536104936257593
540000000.0 0.5313493279563485 -0.4023982865711708
560000000.0 -0.11257732759730527 0.6457848100615675
580000000.0 0.3689898693415581 -0.38358416118754385
600000000.0 -0.43925881157569513 0.38073492804060055
620000000.0 -0.1295644173410054 -0.6109209544002654
640000000.0 -0.21783210277371345 0.5238843715556581
660000000.0 0.20775497137815596 0.47243531094305635
680000000.0 -0.41714790096381105 -0.21590198966471277
700000000.0 0.27691736065871064 0.3815950022986745
720000000.0 0.14043849058353822 0.46174288338249636
740000000.0 0.3648431067579008 0.2973879703109546
760000000.0 0.07279285594187297 0.4418525524863786
780000000.0 -0.3675393072937206 -0.2430941682735481
800000000.0 -0.39891770088487694 0.03221133691375855
820000000.0 0.2558673860062453 -0.23786429175480037
840000000.0 -0.1419712278616856 0.2845658408277626
860000000.0 0.21935988819055105 0.20211595898812473
880000000.0 0.0846278991056367 0.26798695972812386
900000000.0 -0.09532348644775164 0.26032187187950595
920000000.0 -0.2342640565478828 -0.10321059657020372
940000000.0 0.19464785673721585 -0.10594415407521188
960000000.0 0.179671174178969 0.029518127915869403
980000000.0 0.1301907113618883 0.00661541446140128
1000000000.0 -0.12278189866138388 -0.002406554766611013
1020000000.0 -0.08999328558065157 0.04991527074070246
1040000000.0 -0.040584400650357566 -0.1054262745062386
1060000000.0 0.07308378200992402 -0.12574295809272892
1080000000.0 0.011577974467946128 -0.19526050649272172
1100000000.0 0.23136893917103576 0.029428522473246718
1120000000.0 0.1956899061541097 -0.19470532533590632
1140000000.0 0.02611070183440804 0.289297038473602
1160000000.0 -0.209523797125871 -0.22668098673230097
1180000000.0 0.07965724375897774 -0.33227170957712393
1200000000.0 -0.2514021133696928 -0.2472136155924309
1220000000.0 0.34030265655241887 -0.12587080069633128
1240000000.0 0.20540195659954935 0.31338542147882575
1260000000.0 0.3889411278147563 -0.06510201579067293
1280000000.0 -0.3510905845529936 -0.15253557623801578
1300000000.0 -0.2215808086475779 -0.3064636273144763
1320000000.0 0.09103753469900035 -0.36588084063265724
1340000000.0 -0.36240918991438503 -0.0775455765926234
1360000000.0 0.33758801108606046 0.19358205039563178
1380000000.0 -0.01737138473582078 0.3990389708920444
1400000000.0 0.04759590297243177 -0.39306509047915905
1420000000.0 -0.3044913564828024 -0.2530188329851301
1440000000.0 -0.3566372011929287 -0.16732474348741924
1460000000.0 -0.38295884226438287 0.08957456759320287
1480000000.0 -0.37955701817811405 -0.11213471145688678
1500000000.0 0.09077593993115608 0.3897670987825403
1520000000.0 -0.39161419568544503 0.0030337683857641234
1540000000.0 0.35039025449598504 -0.07447694066569266
1560000000.0 -0.29818464791905586 0.14046570766048527
1580000000.0 0.07149056842146063 -0.2881608400917573
1600000000.0 0.10850694159515846 -0.23807389976485444
1620000000.0 0.11942245571716585 -0.18338355131367862
1640000000.0 -0.04557236037585384 0.1787973055554325
1660000000.0 -0.0375442643544805 0.14709283565497086
1680000000.0 0.09390188372416823 -0.06393770762018894
1700000000.0 -0.10664945025401182 0.009646207668273102
1720000000.0 0.0440912163453675 0.06345198267861735
1740000000.0 0.03343388597373614 -0.06453654097441659
1760000000.0 -0.06568250156277841 -0.053104392877978926
1780000000.0 0.07687971182654352 0.08507626038662021
1800000000.0 0.034343014807125795 0.13472280455217525
1820000000.0 -0.15540881802026635 -0.0742165090533982
1840000000.0 0.11076297349186555 -0.16529786141531577
1860000000.0 -0.18906906524065234 0.12046430685465431
1880000000.0 -0.014364825835483869 0.25720165887397745
1900000000.0 0.21893455685020322 0.16721969895665573
1920000000.0 0.2459806763767166 -0.16550374365244427
1940000000.0 -0.2940870313444372 0.08571219056811187
1960000000.0 0.28311989236643115 -0.1249598798062898
1980000000.0 -0.3098066517779594 -0.03823602404139451
2000000000.0 0.1232419243843579 -0.294410252292368
2020000000.0 0.3209112128025947 -0.020823354745453573
2040000000.0 0.3166566929917489 0.04897995361549235
2060000000.0 0.2945528700533688 0.12258149234029934
2080000000.0 0.27045932241439985 0.16338955842962624
2100000000.0 -0.11792999511860601 -0.28793185800146126
2120000000.0 0.2952642388789533 0.07630815452510542
2140000000.0 -0.20199993542016786 -0.22061874547865984
2160000000.0 -0.11824584201361683 0.27154319172877867
2180000000.0 0.09753891792030335 0.2713111582209011
2200000000.0 -0.08156004308646052 0.2724532465182709
2220000000.0 -0.14572451087485766 0.2422730330912737
2240000000.0 -0.20860022526508157 -0.182046731538056
2260000000.0 0.23645180912912994 -0.13670394625864707
2280000000.0 0.2670464825376945 0.05273882039525651
2300000000.0 0.19045320502903584 0.17913864234231358
2320000000.0 -0.2392540158423886 -0.09112740745505289
2340000000.0 -0.19538627002952322 -0.1637787282654138
2360000000.0 0.2231030174658319 -0.11345053168173304
2380000000.0 0.028989719318409428 0.255055223314207
2400000000.0 0.21582591603371917 0.17290946414060537
2420000000.0 -0.04437366735348034 -0.29056249066126566
2440000000.0 -0.1795130617140479 0.2544171620510004
2460000000.0 0.33589872369750085 -0.020155658551560898
2480000000.0 0.1301710569807985 -0.3468864449318762
2500000000.0 0.20413946258750582 0.3522192590510718
2520000000.0 -0.4150165852116799 -0.16089788506807648
2540000000.0 0.44933971107580983 -0.1700370933384726
2560000000.0 -0.26018748044275597 0.44164598189070003
2580000000.0 0.1495474596983049 -0.5206086584679654
2600000000.0 -0.02055547368726836 0.5659306773135718
2620000000.0 -0.02088348618607635 -0.5871831737428111
2640000000.0 0.20237376358329678 0.5697606588898928
2660000000.0 -0.5697213238856882 -0.2454168150973984
2680000000.0 0.42997767283203664 -0.46099924633022066
2700000000.0 0.6364088677884164 0.05917617045977374
2720000000.0 0.43746485183005135 0.47295656009805154
2740000000.0 0.36399328281287024 0.5342219948428035
2760000000.0 0.29542954545041766 0.5741355741596905
2780000000.0 -0.6382549102585968 -0.03682716573267887
2800000000.0 -0.5594804928399476 -0.29022899180104084
2820000000.0 0.11142874717765937 -0.6092459846625303
2840000000.0 0.4762999146744361 0.3721069807089028
2860000000.0 -0.5092716654206777 -0.2958760695745791
2880000000.0 0.2425265808034047 0.5169372335179674
2900000000.0 0.41600977073962225 -0.36017657047302
2920000000.0 -0.09442143666458841 -0.5191112956702407
2940000000.0 -0.4453221742574891 -0.23052809284154807
2960000000.0 -0.3473555707925153 -0.32411110363439033
2980000000.0 -0.34836299555171846 -0.2898106459808001
3000000000.0 -0.3755968123927543 -0.2130061631258728
3020000000.0 -0.37971958733084976 0.17583871295967843
3040000000.0 0.2144490447281387 0.3326307311465414
3060000000.0 0.356270966869846 -0.12660381805902174
3080000000.0 -0.3608678439159974 -0.06621733008442056
3100000000.0 0.34773383516134215 0.05604716148076703
3120000000.0 0.2196597023872428 -0.2709037298483956
3140000000.0 0.008224251337247558 0.3405173703135657
3160000000.0 0.07593480095955353 -0.33162329434682253
3180000000.0 -0.06492745603474835 0.33076015972340633
3200000000.0 0.3278523193676191 -0.04721209735102614
3220000000.0 -0.09827894233216669 -0.3118081150619876
3240000000.0 -0.30760046469018604 -0.08850874943311542
3260000000.0 -0.2634197537378288 0.1512162608791419
3280000000.0 -0.2873891357424884 0.05779024236768507
3300000000.0 -0.27256661301523644 0.03408472705768931
3320000000.0 -0.22943376028619591 -0.09951835363456246
3340000000.0 0.2095860595048911 -0.08224243747929255
3360000000.0 -0.18542652841803892 0.083148141107473
3380000000.0 0.04677719896714745 -0.17890858285560574
3400000000.0 0.12921832354841367 -0.1018986720189855
3420000000.0 0.13842439656177255 -0.03315346582078438
3440000000.0 0.0572642593946738 0.10984627986086504
3460000000.0 0.10330732208844318 0.019145486044961982
3480000000.0 0.08164337330095126 0.03613654173426101
3500000000.0 -0.08294006853533377 -0.007936545879022984
3520000000.0 -0.024055559245269795 -0.07693525121681899
3540000000.0 0.05893491038380803 0.05603284599034706
3560000000.0 0.02278927967381885 0.08713348893885599
3580000000.0 -0.08355706353625401 -0.045632677232380583
3600000000.0 -0.09525578662110773 -0.026371934213522557
3620000000.0 -0.04521924875612741 0.10090893779691562
3640000000.0 0.08613475141158246 0.09057506234003818
3660000000.0 0.0056847575649398826 0.1335460157899693
3680000000.0 0.12318660831475772 0.06269525973897357
3700000000.0 -0.09545955864272809 0.08481095307454578
3720000000.0 0.029718249669163557 -0.11334382213161596
3740000000.0 -0.053372861343429556 0.08303561248141031
3760000000.0 0.061243624861828966 0.05541587848516837
3780000000.0 0.04813113640535039 -0.03983465593445822
3800000000.0 -0.022662590850435708 0.025579991556584133
3820000000.0 0.0021451154407617578 0.0009454571348930642
3840000000.0 -0.029332925533525737 -0.017353289760795525
3860000000.0 -0.06293039313950531 -0.007692754918206887
3880000000.0 -0.08045402373364283 -0.04117954113304491
3900000000.0 0.029646531230390467 0.10303289231081894
3920000000.0 0.0654080120502228 0.10290865350173652
3940000000.0 0.08321011348489511 0.10367398624827719
3960000000.0 0.09142152161179144 0.10069169798211082
3980000000.0 -0.07764360283918893 -0.10720906849550328
4000000000.0 -0.11340409054540324 -0.0133916734397985
