!Created with skrf (http://scikit-rf.org).
# Hz S RI R 50.0 
!freq ReS11 ImS11
400000000.0 0.7811551291194868 0.38531962825999133
420000000.0 0.2840321582091676 0.7662162764766768
440000000.0 0.3775333029361914 0.6604551603347492
460000000.0 -0.6212845700773875 -0.28923716831456364
480000000.0 -0.06004670618656286 -0.615687668369712
500000000.0 0.5971725307809722 -0.27224980808992316
520000000.0 -0.4814913318243211 0.46571811749397274
540000000.0 0.6039402164881028 -0.3155810321410069
560000000.0 -0.25523550982637566 0.6166126046850172
580000000.0 -0.41908614217651396 0.3037633562585464
600000000.0 -0.21630188943319476 0.5567413245153854
620000000.0 -0.5499396011807525 -0.2738950867165056
640000000.0 -0.4981079594346121 -0.2707387402275094
660000000.0 0.27117195060242044 0.449687493349999
680000000.0 0.03001047969930719 0.49062648078199284
700000000.0 0.4052704777190904 0.20230086549423767
720000000.0 -0.3117591749046183 0.3822108903117116
740000000.0 0.4500589816297505 0.13817676715262764
760000000.0 -0.11722584777414898 0.4279126678703022
780000000.0 -0.4296280551958218 -0.04542398602680351
800000000.0 0.13990571732444423 -0.37231124741687455
820000000.0 0.3283998179780695 0.12693425937901853
840000000.0 0.06867519545827018 0.31585104145612825
860000000.0 0.23913651777122605 -0.17512319724836603
880000000.0 0.03809160022580019 0.2718287598141617
900000000.0 0.13369364660527824 0.23428991356110232
920000000.0 0.24218867160919105 -0.08439998510726064
940000000.0 -0.13231823455509129 0.18219086170331888
960000000.0 -0.18119584926921345 0.02684278117108784
980000000.0 -0.1193162025813786 0.0796093808277717
1000000000.0 0.08569849797346586 0.09465066472302087
1020000000.0 0.05308229869442492 -0.08226412158226674
1040000000.0 -0.11123232761991467 -0.03394375335911966
1060000000.0 -0.05681070076661178 -0.13475984683483483
1080000000.0 0.1816351637888948 -0.06938621164318813
1100000000.0 0.11862827573569715 0.2075999490139769
1120000000.0 0.27257233001557507 -0.05614794347800555
1140000000.0 -0.3020831510252844 -0.01855947737530948
1160000000.0 -0.2986913430352958 0.10608028683011525
1180000000.0 -0.2785900130104786 -0.18748354577985413
1200000000.0 -0.3277753298955567 -0.1277235085663118
1220000000.0 0.34799271021032135 0.06609035232270598
1240000000.0 0.16338361275024701 0.33930995474251363
1260000000.0 0.3575109892662918 -0.16563498108294417
1280000000.0 -0.37902842475008114 0.05674308872468856
1300000000.0 0.02101199539578015 -0.37789259158085237
1320000000.0 -0.0140936904615392 -0.3826562869464396
1340000000.0 -0.36258394190620197 0.06894631332707522
1360000000.0 0.21410367262669716 0.3252349172461038
1380000000.0 -0.18557067074561245 0.3541767386664005
1400000000.0 0.0003422569703169603 -0.39783828676083316
1420000000.0 0.1373849040406587 -0.36770884054268843
1440000000.0 -0.23163400001988857 -0.3197130014009169
1460000000.0 -0.37409901117709055 -0.12994262403285792
1480000000.0 -0.28458063286084934 -0.2784895009027528
1500000000.0 0.03739418102947644 0.39775157660778365
1520000000.0 -0.38710681561672344 -0.0016896216052210602
1540000000.0 0.35203875547914426 -0.07792112391899415
1560000000.0 -0.22843335826000574 0.2379832040819794
1580000000.0 -0.17961308753254782 -0.23103968886802514
1600000000.0 0.01126310949289086 -0.2570097017764675
1620000000.0 0.19831108949734153 -0.0926021828969752
1640000000.0 -0.14297796920080674 0.11752065483701578
1660000000.0 -0.08927099278946629 0.12701871935395798
1680000000.0 0.08918211679534559 -0.07063746798957275
1700000000.0 -0.07800940112894714 -0.06882057404065947
1720000000.0 0.07349182449524742 -0.030622693000977818
1740000000.0 0.07359293598611014 -0.03240191441605073
1760000000.0 0.0068871197332779814 -0.08972259571129637
1780000000.0 0.11106424802787285 -0.036835102009837174
1800000000.0 0.14020942478703904 -0.0023790181283180104
1820000000.0 -0.16801992553910197 -0.005856261529153006
1840000000.0 0.19518164486463752 0.022579117517729026
1860000000.0 -0.2179562333653761 -0.032724361548577725
1880000000.0 -0.09708713333579981 0.23678006253073536
1900000000.0 0.04639539935984112 0.2701534443965626
1920000000.0 0.13141318122088352 -0.26176987208651886
1940000000.0 -0.2950847053230441 -0.07503165874438551
1960000000.0 0.2986251226356236 -0.0752508967009331
1980000000.0 -0.3119588990837372 -0.0310473731548849
2000000000.0 0.011411187232632848 -0.3199062666247122
2020000000.0 0.3154688938132894 -0.06203565463448276
2040000000.0 0.32179377709730933 0.028742510697240705
2060000000.0 0.30980185172135105 0.07117494992568907
2080000000.0 0.010417277702287042 0.31761745525383706
2100000000.0 0.114512894669538 -0.29212447698809535
2120000000.0 0.2183636681486399 0.21345189595571779
2140000000.0 -0.01328478797173588 -0.29986225680733203
2160000000.0 -0.2834847131609694 0.08433734051567253
2180000000.0 -0.008341807160559751 0.2881627395328194
2200000000.0 -0.2168088491815933 0.17891025913796843
2220000000.0 -0.19915394077608425 0.20025028615569576
2240000000.0 -0.24429856088325064 -0.1296365303706767
2260000000.0 0.09614063265631957 -0.2510103027821963
2280000000.0 0.2692900218835525 -0.02887282352803369
2300000000.0 0.24674389088429913 0.0841184051501177
2320000000.0 -0.24791151261133465 0.061591801011417674
2340000000.0 -0.06961371565670496 -0.245888466055601
2360000000.0 0.2005420019513067 -0.1596006559360308
2380000000.0 0.1033117342080884 0.23848078117043384
2400000000.0 0.13251430790401458 0.24770507120524232
2420000000.0 0.07223034514645586 -0.28978040177320763
2440000000.0 -0.2537522744918014 0.18849565784594435
2460000000.0 0.2723561298345523 0.20073725794264072
2480000000.0 0.25757743348239676 -0.27091949845525864
2500000000.0 0.05760032471819169 0.40195211545112963
2520000000.0 -0.35084464532654813 -0.270718994132314
2540000000.0 0.475493456090264 -0.027541997097256517
2560000000.0 -0.34657488977375006 0.37394976230957466
2580000000.0 0.224042463950388 -0.4910112049553979
2600000000.0 0.00014389292093412013 0.5664065873514111
2620000000.0 -0.12987892410763321 -0.5748809822757195
2640000000.0 0.27380744174451155 0.5425216278647467
2660000000.0 -0.5757023883806784 -0.24083921621078683
2680000000.0 0.39838092213744225 -0.49354150325062707
2700000000.0 0.5907393858031719 0.25380930715807387
2720000000.0 0.25789030013984227 0.5938775537828695
2740000000.0 0.1717154330104434 0.6255126960542786
2760000000.0 0.07067795777190139 0.6435509698624506
2780000000.0 -0.5890632419677706 -0.24850182524044231
2800000000.0 -0.3480202388608417 -0.523571754886552
2820000000.0 0.2185051025492136 -0.5762792849211105
2840000000.0 0.43326044600657304 0.4169973585407699
2860000000.0 -0.4912048288266115 -0.320269044933598
2880000000.0 0.26815573020056527 0.5027150089377395
2900000000.0 0.40425900721059105 -0.3723833769534997
2920000000.0 -0.026282207699660547 -0.5269789558727932
2940000000.0 -0.34359491297637357 -0.3707885633622292
2960000000.0 -0.2532150245706571 -0.4084707116449891
2980000000.0 -0.3158854549609529 -0.3309285931165994
3000000000.0 -0.30212508699076923 -0.320208953710992
3020000000.0 -0.4181771140580115 0.06420637026074358
3040000000.0 0.02302316065058735 0.3998223961941799
3060000000.0 0.3754016113169797 -0.060885578527599786
3080000000.0 -0.31556027062162095 -0.18829847438770955
3100000000.0 0.290940346388621 0.1952976983208845
3120000000.0 0.3195809187153224 -0.128371491139108
3140000000.0 -0.2068998669889853 0.2703029549275787
3160000000.0 0.07704149837329241 -0.3280021447373084
3180000000.0 0.03426466957020079 0.3322112431601885
3200000000.0 0.31279628105920343 -0.10238827392549933
3220000000.0 -0.2621451096967281 -0.19125711078876145
3240000000.0 -0.3124874646516766 -0.048719942247940136
3260000000.0 -0.2781862992738663 0.12688342032755662
3280000000.0 -0.29471745184074544 0.009660886137194223
3300000000.0 -0.2770748570420057 0.018771897714947926
3320000000.0 -0.1705450636462318 -0.18882272867839459
3340000000.0 0.20998127403369882 0.09324845542837222
3360000000.0 -0.19391810525087502 0.07699069931894088
3380000000.0 0.11328976344436943 -0.15046871537685685
3400000000.0 0.08305680668115725 0.14481325764149314
3420000000.0 0.05587548235229228 0.13191480921996004
3440000000.0 -0.11292783309673586 0.0551978433256284
3460000000.0 -0.04767737517047453 0.09538284323308745
3480000000.0 0.08471827369415173 -0.02163110307001698
3500000000.0 -0.0727985824464843 0.03171697989267269
3520000000.0 -0.02210117334548852 -0.07381168474809563
3540000000.0 0.023267621773599943 -0.0739975139427975
3560000000.0 0.0574268097540484 -0.06581146876381068
3580000000.0 -0.07133209464759102 0.06073416031785352
3600000000.0 -0.06536735297703924 0.07401728768539559
3620000000.0 0.04347608451836806 -0.1024785365072377
3640000000.0 0.0959487570669207 0.08211018343871462
3660000000.0 0.032047627089487926 0.1322627614933073
3680000000.0 0.018691166764687253 0.1401150968297188
3700000000.0 -0.08210543173156924 -0.10514340922975611
3720000000.0 0.10875808494829317 0.04946061911858559
3740000000.0 -0.031180898317079063 -0.0970261236038933
3760000000.0 0.030488910408876822 -0.07774763674898574
3780000000.0 -0.03790261511945647 -0.051424331884625134
3800000000.0 0.014997171010171539 0.0314573590819061
3820000000.0 -0.00012077849775887112 0.0015810086935580342
3840000000.0 -0.03598836990349932 0.009418534891900336
3860000000.0 -0.04072163592476763 -0.05120121980176518
3880000000.0 0.09180389080284651 -0.008172215120976604
3900000000.0 -0.10092154733599341 -0.05234820803180277
3920000000.0 -0.11947740996584162 0.04175187745302838
3940000000.0 -0.11643633446752646 0.07042865327857764
3960000000.0 -0.12619252254783078 0.061172086180380926
3980000000.0 0.11393005792727522 -0.07129614844870627
4000000000.0 0.08426615936143464 -0.07463009363650773
