!Created with skrf (http://scikit-rf.org).
# Hz S RI R 50.0 
!freq ReS11 ImS11
400000000.0 0.789572205925449 0.3683131113558679
420000000.0 0.25306533690803046 0.7770227666281981
440000000.0 0.46680885524797017 0.6010991009300792
460000000.0 -0.6349458020399324 -0.2577590589051076
480000000.0 0.24547239951245128 -0.5731050139932209
500000000.0 0.6403032681119372 -0.08909316006827868
520000000.0 -0.2004370496959631 0.6380997016419674
540000000.0 0.6610002924875414 -0.14714979720999993
560000000.0 -0.19090336254559007 0.6421294545430706
580000000.0 -0.20268174175525816 0.470569703528712
600000000.0 -0.08622915990740887 0.5853274728189258
620000000.0 -0.1850011240078787 -0.5823509767791366
640000000.0 -0.4088233181613698 -0.4000979774813673
660000000.0 0.3825326823534199 0.36646281592562363
680000000.0 0.037232730435353495 0.48512142076240816
700000000.0 0.3302661464135113 0.301374474068274
720000000.0 -0.35254465623107867 0.3397459616856564
740000000.0 0.3103257757038658 0.36349443940645604
760000000.0 0.30224896772946364 0.3309371263512312
780000000.0 -0.40286331387040625 0.15188519279740598
800000000.0 0.0363056912810592 -0.3888452447285465
820000000.0 0.18923273484154568 0.30179880167059847
840000000.0 0.11332001116768832 0.30479113257944035
860000000.0 0.25689712807191173 -0.15147398903372472
880000000.0 0.08463618747352354 0.2624717209852627
900000000.0 -0.06964969941163264 0.26105655820355755
920000000.0 0.25097166320161207 0.022762312352922528
940000000.0 0.13041399484233038 0.18164117592058626
960000000.0 -0.13834152597067034 -0.12233236065896179
980000000.0 -0.1321246374448633 0.05573183193825587
1000000000.0 0.08571190925972764 0.09903666142843344
1020000000.0 0.03448619177109544 0.09896510365809215
1040000000.0 0.034047903818655544 0.10722074035816608
1060000000.0 0.0013759173281218994 -0.13927408343136166
1080000000.0 -0.025649178300186058 0.18887702608065812
1100000000.0 -0.0749009328498743 0.22894586189867347
1120000000.0 0.1030825128995514 -0.2599009517237236
1140000000.0 -0.2832464899171574 0.08750121723406978
1160000000.0 -0.30507556967916793 0.07974420075865105
1180000000.0 -0.3244744247844136 -0.10183553690254693
1200000000.0 -0.3464762744635437 -0.06646995371248725
1220000000.0 0.35424235175605373 0.03254232288567824
1240000000.0 0.12886330103383806 0.3539552363293629
1260000000.0 0.3943965154485733 -0.0046906036936347085
1280000000.0 -0.3552930456404389 -0.14237324612691504
1300000000.0 -0.035518867290863364 -0.3788786396899046
1320000000.0 -0.10881505756661455 -0.3658513125147454
1340000000.0 -0.36682028840307884 0.0413595833792781
1360000000.0 0.25524324080401445 0.29361452662013726
1380000000.0 0.04207795014724476 0.3990810473991057
1400000000.0 -0.11410365579644334 -0.3784826651897385
1420000000.0 -0.12192829531179855 -0.3737549752811466
1440000000.0 -0.34676686375513294 -0.19244191155688564
1460000000.0 -0.3901968063189521 -0.05563557252914878
1480000000.0 -0.3668280284485274 -0.14850506496234475
1500000000.0 0.16548567019152785 0.36569921467975874
1520000000.0 -0.3837610218846798 0.06840121054491721
1540000000.0 0.31608785666298245 -0.16963314922976594
1560000000.0 -0.16170924755418423 0.28835283344825663
1580000000.0 -0.11980205819739159 -0.266987509163169
1600000000.0 0.1102837654169972 -0.23293317833593466
1620000000.0 0.05544109113045526 -0.21000938676618544
1640000000.0 -0.05083216065181887 0.17684497717958134
1660000000.0 -0.09943703849355709 0.11475371768529101
1680000000.0 0.030472319549035152 -0.10602998112515001
1700000000.0 -0.06193131555198201 -0.08324067907537228
1720000000.0 -0.023937486779550692 -0.0762563536752811
1740000000.0 0.0751833516515398 -0.017566512588400935
1760000000.0 -0.05151506872679939 -0.07102776802593486
1780000000.0 0.029176561322923008 -0.11456888049602079
1800000000.0 0.12715356554265447 -0.05394770324735071
1820000000.0 -0.15045339236788233 0.08018258389189362
1840000000.0 0.1489194763024802 -0.13029542323135532
1860000000.0 -0.20333964562962245 0.08853702610801832
1880000000.0 -0.0639090843655469 0.24837076136185324
1900000000.0 0.14023937839803866 0.23777600442003216
1920000000.0 0.18326081747656378 -0.2314147789353522
1940000000.0 -0.30552916036489075 0.0014206278808077005
1960000000.0 0.29941005853210073 -0.07338802997158902
1980000000.0 -0.2888286992814319 -0.12106447207611801
2000000000.0 0.09341596406214613 -0.30749004300706456
2020000000.0 0.3002619065715645 -0.11531932142474263
2040000000.0 0.318863047050568 0.03059611949739435
2060000000.0 0.27896343607109764 0.149147252618689
2080000000.0 0.1955745721808456 0.24891534293857093
2100000000.0 -0.06655657140679475 -0.30555564792644524
2120000000.0 0.271214385538663 0.13787736584912527
2140000000.0 -0.1289025616736885 -0.2713484682446538
2160000000.0 -0.1934833076646478 0.22549723895969043
2180000000.0 0.10155392037567224 0.27100291193357096
2200000000.0 -0.10069576958089808 0.265508086920561
2220000000.0 -0.18913562329010616 0.21101661152395335
2240000000.0 -0.2109393032465151 -0.17964671237486257
2260000000.0 0.1859254147966283 -0.1979013271084693
2280000000.0 0.27027392820756896 -0.02210198550146219
2300000000.0 0.13152300193935718 0.22300114016727504
2320000000.0 -0.222559844259374 -0.1286025075204224
2340000000.0 -0.14231874093208863 -0.2114315074449291
2360000000.0 0.2234701557169363 -0.11831267203142459
2380000000.0 -0.010127958289415963 0.25751454982638494
2400000000.0 0.18143376856190618 0.21245796426801175
2420000000.0 -0.07003234278288309 -0.288041548354127
2440000000.0 -0.09356866192072016 0.3000585093037203
2460000000.0 0.33613937026212326 -0.014321847419758978
2480000000.0 0.09662313506309782 -0.35854771320067674
2500000000.0 0.192140776684535 0.35811343543531543
2520000000.0 -0.43912802916104937 -0.0695694062006957
2540000000.0 0.4467318290597284 -0.17266698124441307
2560000000.0 -0.29693085666524566 0.4154987893685893
2580000000.0 0.20512396156888396 -0.5002175539289515
2600000000.0 -0.07561888459145007 0.5615945350115219
2620000000.0 -0.10285372391689422 -0.5791394631154132
2640000000.0 0.2676455043761168 0.5429284976883926
2660000000.0 -0.5792290833163228 -0.22515760129346055
2680000000.0 0.3474491003707641 -0.5259985692996068
2700000000.0 0.6295430910945733 0.11600000803576273
2720000000.0 0.4408994297957259 0.4703470426844744
2740000000.0 0.2883399077089267 0.5787052356037989
2760000000.0 0.26559781235534363 0.5893808530764731
2780000000.0 -0.6390384368955324 -0.0310392255723232
2800000000.0 -0.4883881462751721 -0.3968148863298063
2820000000.0 0.11972048121539726 -0.6050350309017796
2840000000.0 0.46834325903804386 0.3789958501159979
2860000000.0 -0.49311945321746964 -0.319480265290739
2880000000.0 0.2593827117955952 0.5070198940504788
2900000000.0 0.45427341942765315 -0.3079110238059231
2920000000.0 -0.02759022755064526 -0.5256258727458186
2940000000.0 -0.35307734671179164 -0.3571870731751622
2960000000.0 -0.2331472494652096 -0.41670894118430885
2980000000.0 -0.2696900514284899 -0.3679508445684644
3000000000.0 -0.3377117046209469 -0.2763637621482924
3020000000.0 -0.383757959388152 0.169168542624081
3040000000.0 0.1124385454545247 0.3828974838981879
3060000000.0 0.3525307484489017 -0.1404184555191894
3080000000.0 -0.36444018907678627 0.024964240784562476
3100000000.0 0.34164563533197606 0.0798171402034616
3120000000.0 0.2213633989208066 -0.26609756199212337
3140000000.0 -0.050428206261773016 0.33666962244009085
3160000000.0 -0.011823610141061364 -0.33881131268473524
3180000000.0 -0.04683461984188144 0.3319778005787761
3200000000.0 0.3035939481702119 -0.13155018748541242
3220000000.0 -0.23437217650936082 -0.22440449810173035
3240000000.0 -0.28009063262498907 -0.14534731960197333
3260000000.0 -0.29825980872489694 0.05950451872368274
3280000000.0 -0.2872045977397596 -0.06334030855081156
3300000000.0 -0.269764865780238 -0.061440129777299034
3320000000.0 -0.19581356079666926 -0.1556273208512225
3340000000.0 0.22654503556266276 0.006747667721510132
3360000000.0 -0.16872443097946035 0.11558386296491044
3380000000.0 0.06723996887258031 -0.17330078682413566
3400000000.0 0.1496372292338484 -0.07060917977161466
3420000000.0 0.1350101404658535 0.047067108822417505
3440000000.0 -0.005054532649426628 0.12478775273919904
3460000000.0 0.1019864477460905 -0.033306764922758726
3480000000.0 0.05041182780355561 -0.07309429754999473
3500000000.0 -0.04225689441873233 0.07003995624626301
3520000000.0 -0.06804737688518621 -0.040718446256951105
3540000000.0 0.06507191719101424 0.049764072555571234
3560000000.0 0.06532821741226158 0.06120254734052523
3580000000.0 -0.08719467307243192 -0.03216417929953301
3600000000.0 -0.09765439959116563 -0.0026267418647341334
3620000000.0 0.02944384579120454 0.10509726133874524
3640000000.0 -0.06703287938472258 0.10349651546378337
3660000000.0 -0.004003464776691139 0.13343872170123633
3680000000.0 0.1131842465917398 0.0779562776663371
3700000000.0 -0.12887591595643202 -0.015616342900895348
3720000000.0 0.04241460037486089 -0.10959093252205122
3740000000.0 -0.09833276229998869 0.011897802372489165
3760000000.0 -0.08236596361450631 -0.0068444099365852565
3780000000.0 0.04660508560379257 0.0459534773536898
3800000000.0 0.004381324693665906 0.036775231221160505
3820000000.0 0.0030402246342820937 0.00013842471909192736
3840000000.0 0.010711201321600581 -0.0329612739560803
3860000000.0 -0.03677414613744341 -0.05129192709283279
3880000000.0 0.017754825518205862 -0.08703971135262042
3900000000.0 -0.10740218730370416 -0.006390238682767032
3920000000.0 -0.05714709313397529 0.11207420245823191
3940000000.0 0.1074014590706301 0.08426031261572565
3960000000.0 0.10401685269525028 0.09082069608918686
3980000000.0 0.0009047232000185274 -0.13477940611523387
4000000000.0 -0.10775542465751047 -0.04318519621499114
