!Created with skrf (http://scikit-rf.org).
# Hz S RI R 50.0 
!freq ReS11 ImS11
400000000.0 0.8504069940438707 -0.22326380856245023
420000000.0 0.7812915451206165 -0.28015012347937757
440000000.0 0.4457238673375466 -0.6342133254070413
460000000.0 0.49737675771045514 0.47768625816718807
480000000.0 0.5792999311522419 0.13344185942223832
500000000.0 0.6261551613283173 -0.0470381022491634
520000000.0 0.4422809989950937 -0.473651775222135
540000000.0 -0.4416345550514086 -0.41386509396078963
560000000.0 0.6130390765625036 -0.03462045838371146
580000000.0 0.3937268201826643 0.3498835094063543
600000000.0 0.5006358907203396 0.32664519533469133
620000000.0 -0.5826867425809472 -0.051657772458103865
640000000.0 0.25034913752597787 -0.4931351548744121
660000000.0 0.047720744471768994 0.5167397689206646
680000000.0 0.4351682934902174 -0.15913132619272494
700000000.0 -0.39805316510819055 0.28681859969202544
720000000.0 -0.1306477538741736 0.4916692847157589
740000000.0 0.1858359886561727 0.44079046015968104
760000000.0 -0.4599727402918111 -0.0366233911635291
780000000.0 0.1085341640354172 -0.44975183234327454
800000000.0 -0.4163859749554701 0.07327436061809356
820000000.0 0.34829372425617855 -0.097242690872607
840000000.0 -0.1643375008680866 0.3001870416247121
860000000.0 -0.30094776775818277 0.08262235905196069
880000000.0 0.12364425538651636 -0.24061169105545338
900000000.0 0.2645845970315024 -0.04481274569529706
920000000.0 0.10975316920006759 -0.22693269928555296
940000000.0 -0.1578789443478046 -0.14518093434221335
960000000.0 -0.08768901639617503 -0.13661819221022178
980000000.0 -0.02384097592680188 0.12989252970201032
1000000000.0 0.12274710773079008 0.03832150540262088
1020000000.0 0.06979605170326447 0.07994744828832794
1040000000.0 0.03470142060345636 0.12224125180910421
1060000000.0 0.16313915584883823 0.01313585778151265
1080000000.0 0.18804528669144707 0.09430304436052957
1100000000.0 -0.241766535817814 0.03704276045525212
1120000000.0 -0.2733558840406564 -0.07029009442618003
1140000000.0 0.011053780940825585 0.30568482224476706
1160000000.0 0.2120420894458372 -0.2501225653185779
1180000000.0 0.03374372563017792 0.3245298406490237
1200000000.0 -0.07211418502559121 -0.34180549508349906
1220000000.0 0.3334596931724965 0.1553817390240349
1240000000.0 0.25597969211829297 0.2805895437399612
1260000000.0 0.27483461502663425 -0.28739574988737504
1280000000.0 -0.38438806019345206 -0.015107133821839461
1300000000.0 -0.009508363411986192 -0.37247315069565773
1320000000.0 0.08258034493015161 -0.3708646930011519
1340000000.0 -0.13791244289736723 0.33863721718021755
1360000000.0 0.12654114203375852 0.3597728791624941
1380000000.0 -0.07075532817829899 0.3905221056082871
1400000000.0 -0.19132453769206081 -0.3333164743854519
1420000000.0 0.22546513716767508 -0.30983170851856773
1440000000.0 -0.2210569352382544 -0.31530979447194624
1460000000.0 -0.33503951028899326 -0.18254612292793837
1480000000.0 0.15045794167751028 -0.3597944400067587
1500000000.0 -0.3668952974652735 0.13151868487172544
1520000000.0 0.3800202970618169 -0.02422937487211413
1540000000.0 -0.2739844318572728 0.24372212151470315
1560000000.0 -0.26724170011336557 -0.206251059126689
1580000000.0 0.2405859526892042 -0.17470692340499558
1600000000.0 0.21858716771442352 -0.14528430600010916
1620000000.0 0.11806677394354188 0.1757860294315199
1640000000.0 -0.0005215646060636186 0.18458805047108223
1660000000.0 0.15157099710882588 -0.056401121072172274
1680000000.0 -0.09074365634452208 -0.08104613699295829
1700000000.0 0.04854899722312261 0.11190632703327894
1720000000.0 0.07032479346162951 0.06569611549760135
1740000000.0 -0.008626055761096629 0.07908810237475628
1760000000.0 0.06044412565225778 0.06300330037321714
1780000000.0 0.05694530260783577 -0.0872873917119329
1800000000.0 -0.12475976492893014 0.01826829090042392
1820000000.0 -0.16058866087477866 -0.01934331214673345
1840000000.0 0.015881744842834937 -0.19414310074511898
1860000000.0 -0.062474194114449606 0.21759897488189947
1880000000.0 0.2190051106452792 -0.1316941922918814
1900000000.0 0.10051687782333149 -0.2559602508175096
1920000000.0 -0.2762131888406649 -0.09294361289131921
1940000000.0 -0.1817755085474587 0.2406049924892974
1960000000.0 0.20183618054448454 -0.23086428699876985
1980000000.0 -0.053281723095982586 0.3060631560243767
2000000000.0 0.002237169933935378 -0.3087760034116913
2020000000.0 0.16889879931661372 0.2665596470223201
2040000000.0 -0.08430633231919049 0.3097383561531481
2060000000.0 -0.2659300986225167 0.18776456004022504
2080000000.0 -0.31225660459848475 0.11649392965612755
2100000000.0 0.10314663976601478 -0.31603606385888705
2120000000.0 0.3238212914269531 -0.05634638261398165
2140000000.0 -0.22580528060074623 0.23297577366558075
2160000000.0 0.2726832809142746 -0.16202379101249909
2180000000.0 -0.055578757401956794 -0.30026966496562885
2200000000.0 0.10000338472283218 -0.27915893025666816
2220000000.0 0.17860631196262097 -0.2326533341323849
2240000000.0 0.22344187986747 0.17679563997018505
2260000000.0 -0.2744895973826955 0.03915157915163017
2280000000.0 -0.2636483505585663 0.06841228304123578
2300000000.0 0.04336551490000614 -0.2549071046240256
2320000000.0 0.2289427569692876 0.09532431279871559
2340000000.0 -0.2355714776463937 -0.044949980331390624
2360000000.0 0.05375833360418737 0.233654763396045
2380000000.0 -0.08842209000269427 -0.23269579890687236
2400000000.0 0.11352855827085677 -0.25549271367313503
2420000000.0 -0.009617708504048682 0.30844706429189583
2440000000.0 -0.17204827156602265 -0.28427583637227494
2460000000.0 0.300326450239508 0.19578856526889565
2480000000.0 -0.08073406779591684 -0.3839145287372042
2500000000.0 0.42133075306162826 0.06661607646793948
2520000000.0 -0.40049804559864954 0.22947719038060252
2540000000.0 0.13895554216386755 -0.472932894224826
2560000000.0 0.2099955819328402 0.4793069840695136
2580000000.0 -0.18544656374286742 -0.5160849069674545
2600000000.0 0.051071794896262096 0.5724082981635343
2620000000.0 -0.22994943890911212 -0.5516034738255475
2640000000.0 0.443438923200428 0.4215273030241434
2660000000.0 -0.6255157069794676 0.0425502657823069
2680000000.0 0.08128403789972559 -0.6296268207970186
2700000000.0 0.6082152504067021 -0.2091241685981131
2720000000.0 0.6327522322864028 0.1381056634756946
2740000000.0 0.5876324565118817 0.2744530085024337
2760000000.0 0.5600757783177545 0.3279642708826756
2780000000.0 -0.39678487873977997 0.5082294258696125
2800000000.0 -0.6012960043553126 0.20327597280890042
2820000000.0 -0.4814061255316249 -0.3954350485527515
2840000000.0 0.5579433056009496 -0.24492112596179652
2860000000.0 -0.3695240028435057 0.465403254002805
2880000000.0 0.5218179633338634 -0.23696036605410775
2900000000.0 -0.2875840044112203 -0.4684056227408512
2920000000.0 -0.5131426446628096 0.117008143653133
2940000000.0 -0.390180940710336 0.3053174406947425
2960000000.0 -0.4504457793423159 0.14664738381558343
2980000000.0 -0.3268251235113551 0.3089426434165959
3000000000.0 -0.2670382540680802 0.33194395375992025
3020000000.0 0.13660005395995606 0.3818184397225199
3040000000.0 0.36135723450249047 0.12451242279858457
3060000000.0 0.11284975607202109 -0.34730751476271093
3080000000.0 -0.3059685070881423 -0.17672729168595824
3100000000.0 0.3125949929167635 0.15170894049438674
3120000000.0 0.2924534946154561 -0.17410406972768303
3140000000.0 -0.33056362648387483 -0.08832138613153806
3160000000.0 0.3464567608573859 0.014372464254610166
3180000000.0 -0.3267347362537199 0.11476637634642724
3200000000.0 0.11680321621155486 0.3251213776397373
3220000000.0 0.07627469707680033 -0.33183896677124186
3240000000.0 -0.054803471906664576 -0.3287916406545437
3260000000.0 -0.30039173989567064 -0.11789815873620674
3280000000.0 -0.27894342987480064 -0.13434915462097669
3300000000.0 -0.24626296832507993 -0.16883656016042306
3320000000.0 -0.26744461671573183 0.07097085694597545
3340000000.0 -0.2375622377749091 -0.08998528717159071
3360000000.0 -0.19858169843701626 0.10661670329967504
3380000000.0 -0.1593446490435271 -0.11146021523079364
3400000000.0 -0.1468501701389785 -0.08732904340047935
3420000000.0 -0.1389966713783438 -0.02675126733173775
3440000000.0 -0.11526966486243825 -0.01888615788152474
3460000000.0 0.04863096226908252 -0.07719683876725109
3480000000.0 -0.07318976826616892 0.01832286158911904
3500000000.0 0.02572229325568982 -0.06309191704683043
3520000000.0 -0.05023518678739257 0.049576714497485644
3540000000.0 -0.006973651806536782 -0.07893385077417385
3560000000.0 -0.03983924337222912 -0.0778339675504739
3580000000.0 -0.06464218701383113 0.07489311269493014
3600000000.0 0.020051381165049894 -0.10637217787418583
3620000000.0 0.1225732035587217 -0.015793334034929107
3640000000.0 -0.1206487572055409 -0.06488003939799276
3660000000.0 0.010240264521254478 0.14643129146176345
3680000000.0 0.12426356194078922 -0.07935103582871135
3700000000.0 0.1327185007620631 0.037889259619161036
3720000000.0 0.09880279712599349 0.07443908321392624
3740000000.0 -0.08863807722141855 0.050658660900211844
3760000000.0 0.07958108246568903 -0.02433217427984441
3780000000.0 0.03277149278357168 0.051854030818892075
3800000000.0 -0.02835959584247613 0.00847597647214355
3820000000.0 0.00016981965568130565 0.009922339926991026
3840000000.0 0.027355690509586344 0.03628557934403586
3860000000.0 -0.004178149617355481 -0.08043160140409039
3880000000.0 -0.008478601195918879 -0.10536846720823177
3900000000.0 0.02458284504883266 0.1261061536894368
3920000000.0 -0.07500033815750823 -0.1259999208062255
3940000000.0 0.07169311381527964 0.1365909007235514
3960000000.0 0.04643630709642418 -0.1498574736852107
3980000000.0 0.07275247128857878 0.12718344570745765
4000000000.0 -0.06312414958708042 -0.10621547687101779
