!Created with skrf (http://scikit-rf.org).
# Hz S RI R 50.0 
!freq ReS11 ImS11
400000000.0 0.7630295611975596 0.42071510399182865
420000000.0 0.2709987708675099 0.7701394820245729
440000000.0 0.4054590914279572 0.6437336179783406
460000000.0 -0.548214403196171 -0.41254304402267084
480000000.0 -0.025295854752471206 -0.6173660655811923
500000000.0 0.6481400985201988 -0.09161993579879162
520000000.0 -0.16346112416876363 0.6507349966398858
540000000.0 0.6103441363163635 -0.2880150004180493
560000000.0 -0.29922283973585995 0.5967303504497474
580000000.0 -0.44764738554232997 0.2692333784078394
600000000.0 -0.050133466764514446 0.5926429712546113
620000000.0 -0.49630375268569077 -0.35771519501565985
640000000.0 -0.4180602100716415 -0.3834252751483361
660000000.0 0.34620175731965647 0.40220399121339545
680000000.0 -0.06301868456355214 0.4792011877026193
700000000.0 0.348966320284467 0.2944893161990838
720000000.0 -0.3972994965943864 0.2894209953706889
740000000.0 0.4501949937501225 0.15447333633222263
760000000.0 0.21041914146143492 0.3961399531687824
780000000.0 -0.4172156547593111 -0.08815497548635864
800000000.0 0.08929922037941836 -0.3873697086247425
820000000.0 0.1370557548802997 0.32304492234814747
840000000.0 0.03808416692365172 0.3264756374462878
860000000.0 -0.1618347474650304 -0.25356195547013594
880000000.0 0.2383195610883987 0.11008768479199899
900000000.0 -0.22853014149770823 0.13870089699117108
920000000.0 0.13222328174978684 0.2213427218396805
940000000.0 0.19675910287490153 0.12293345180226914
960000000.0 -0.14360547286128564 0.10949221646846233
980000000.0 -0.09971593273687751 0.09803323133788737
1000000000.0 0.041973582460966594 0.1243949833653243
1020000000.0 -0.034609406610404486 -0.09285578133959613
1040000000.0 0.021848767042622574 -0.10884538492338615
1060000000.0 0.14285831336261426 -0.04012657489025869
1080000000.0 0.17060399267095264 -0.09298002234795123
1100000000.0 0.20813630108914913 0.1063238594466568
1120000000.0 0.23276039262946308 0.15451744643029847
1140000000.0 -0.29844409672518246 0.051149905182146335
1160000000.0 -0.2393243958414512 0.20311082500868383
1180000000.0 -0.29841200417826375 -0.16106999754693901
1200000000.0 -0.34697379015114577 -0.05753776827951948
1220000000.0 0.3245257543160581 0.1445837115760797
1240000000.0 0.21991193346085797 0.3071251201143285
1260000000.0 0.3078727673913759 -0.24363263101979177
1280000000.0 -0.3570572731941932 -0.13389926467553612
1300000000.0 0.05193810418992323 -0.377019999904935
1320000000.0 -0.039039048523731044 -0.38155018491061976
1340000000.0 -0.31004845491537575 0.19861099079705527
1360000000.0 0.16079788869677986 0.3526054143654946
1380000000.0 -0.31470964661835427 0.2486986056997641
1400000000.0 -0.019235974961233217 -0.3965730790516092
1420000000.0 -0.008727393723818045 -0.39097914998878475
1440000000.0 -0.2172723720389163 -0.33298576660728707
1460000000.0 -0.3940437125555762 0.005174903168950282
1480000000.0 -0.28390867006874637 -0.27508893937233536
1500000000.0 0.24275121273861874 0.3217541490392947
1520000000.0 -0.38375840758917057 0.041913565758972544
1540000000.0 0.3589060347650265 0.03179241045494746
1560000000.0 -0.01652042335513968 0.33116640492697424
1580000000.0 -0.14540591045355478 -0.25420770712906715
1600000000.0 0.10741773897279841 -0.23335924689868448
1620000000.0 0.17498081988073075 -0.1297658231836862
1640000000.0 -0.12126607337257886 0.1395292579865661
1660000000.0 -0.0809331866853386 0.12919104302876364
1680000000.0 0.04078368570645418 -0.10598601508956965
1700000000.0 -0.09980344394042796 0.02836987685306979
1720000000.0 0.06337688262707647 -0.0460626371465667
1740000000.0 0.05199191122180092 0.060319588396020085
1760000000.0 -0.08478485320213729 -0.02779917545116737
1780000000.0 0.11113227437619756 -0.034204390130500716
1800000000.0 0.13921078768871012 0.004566975562336122
1820000000.0 -0.16921759064490527 -0.004650229171774369
1840000000.0 0.17077568998245987 -0.09690942506896677
1860000000.0 -0.22044470535517813 -0.02508824177687122
1880000000.0 -0.035007272160536285 0.252194373330732
1900000000.0 0.05717970480998866 0.26781207646892635
1920000000.0 0.22548085400726997 -0.1925478914277384
1940000000.0 -0.30304539516026463 0.02643407590424675
1960000000.0 0.29277873704817203 -0.09078503868544226
1980000000.0 -0.26372760364889203 -0.17350074369581525
2000000000.0 -0.05341632919640948 -0.3175306477280183
2020000000.0 0.3015827900395328 -0.10462191629864764
2040000000.0 0.28020648956536287 0.16048198572318467
2060000000.0 0.31611729411851214 0.0440545745059367
2080000000.0 0.11666494057544606 0.2933050821211322
2100000000.0 0.15062486599268604 -0.27505910008874385
2120000000.0 0.2894478693910687 0.10182789069439889
2140000000.0 -0.10486040701686729 -0.2796344611650451
2160000000.0 -0.2413226063094251 0.1708571844315408
2180000000.0 -0.09889872127948289 0.27151084606757003
2200000000.0 -0.09228488056290002 0.2685300289864591
2220000000.0 -0.13848257769455835 0.24649694167495326
2240000000.0 -0.20869959318918518 -0.18021077842299607
2260000000.0 0.13405720859584 -0.23569881565021575
2280000000.0 0.27244717342713615 0.01003405301934769
2300000000.0 0.21792568426478887 0.14010678702137494
2320000000.0 -0.2553883315461936 -0.02368626269860506
2340000000.0 -0.07930512143262437 -0.24174235711089573
2360000000.0 0.25205387142902946 -0.040986386881984575
2380000000.0 0.12337696026436704 0.22882526429150388
2400000000.0 0.18585811065141855 0.20803289364881827
2420000000.0 0.18001777092127383 -0.2364268242458492
2440000000.0 -0.21937495249919842 0.22909850876259494
2460000000.0 0.3312658805252289 0.057367650428674685
2480000000.0 0.2240599445919896 -0.29702548200206
2500000000.0 0.14849599973193728 0.3800297841307631
2520000000.0 -0.422008969635224 -0.137670945290716
2540000000.0 0.4568231111949398 -0.1382399237052641
2560000000.0 -0.3807259720789858 0.34082184901824836
2580000000.0 0.14278576440715246 -0.521454960255358
2600000000.0 -0.0589443361658056 0.5634567808410194
2620000000.0 -0.09437072064711546 -0.5817338283080017
2640000000.0 0.29803326317308476 0.5284824690932797
2660000000.0 -0.5685590447445256 -0.25436958637640467
2680000000.0 0.43426155152985785 -0.4599060444274569
2700000000.0 0.61454105908462 0.1841675771451646
2720000000.0 0.29950831462778604 0.5723128424029275
2740000000.0 0.21046885102104898 0.6118810246141452
2760000000.0 0.07994968631982348 0.6411014335869001
2780000000.0 -0.6000583908328325 -0.22217809690245874
2800000000.0 -0.46012568161121475 -0.4299623445388157
2820000000.0 0.18194084778426997 -0.5889901407449782
2840000000.0 0.4202945441986889 0.43123722087951183
2860000000.0 -0.5085052401841149 -0.2933431749406789
2880000000.0 0.22295729207838644 0.5234551228662945
2900000000.0 0.45718869374857085 -0.3034900526298222
2920000000.0 -0.000976164390846235 -0.5284405021746301
2940000000.0 -0.39624084955891414 -0.3089712376029953
2960000000.0 -0.2134944837147756 -0.4276569852746145
2980000000.0 -0.26574678138357244 -0.3739972335826479
3000000000.0 -0.382837634218844 -0.21066521761600074
3020000000.0 -0.4172636632583939 0.050702443530276795
3040000000.0 0.0037357769330705827 0.40107488962446913
3060000000.0 0.3186168748651058 -0.20728485883394937
3080000000.0 -0.3494596070443792 -0.10772766509315759
3100000000.0 0.2866963944497732 0.2027571442069105
3120000000.0 0.2863293746335855 -0.19391071657584388
3140000000.0 -0.18673727235175888 0.2830216766017448
3160000000.0 0.09242432107942128 -0.3252378875736567
3180000000.0 0.050106696892414815 0.33142552813899234
3200000000.0 0.32557062963370975 -0.04616351955394404
3220000000.0 -0.20301265878016722 -0.2529578061352465
3240000000.0 -0.2878135304745862 -0.13043354939707918
3260000000.0 -0.2887742214664095 0.09854346039885073
3280000000.0 -0.29249916116290847 0.01650078284322666
3300000000.0 -0.2750492887641279 -0.027743044079160527
3320000000.0 -0.17278789899496527 -0.18611336741274645
3340000000.0 0.22149966265716592 0.05627925378634042
3360000000.0 -0.18695776168307812 0.09032461156622344
3380000000.0 0.1108395753244043 -0.15202270876237636
3400000000.0 0.13583150083783802 0.09555032944522343
3420000000.0 0.093749241567982 0.10880508619438875
3440000000.0 -0.08375418398101803 0.09338021057231986
3460000000.0 0.011344174419113768 0.10586250686877281
3480000000.0 0.07553370085910174 -0.044016995616434976
3500000000.0 -0.0509643853731322 0.06165674024759263
3520000000.0 -0.02696496977969483 -0.07283487261548162
3540000000.0 0.03981217205735968 -0.06778785853329657
3560000000.0 0.07297605573643784 -0.04851573023493382
3580000000.0 -0.07723624452722279 0.05278335083518407
3600000000.0 -0.09860135555806548 -0.002746858716024596
3620000000.0 0.0706487856604297 -0.08608201568398444
3640000000.0 0.08895991765304793 0.08719013592169049
3660000000.0 0.008939169581731155 0.13484083940186856
3680000000.0 -0.01616892246470751 0.13825998975515738
3700000000.0 -0.08891873633496847 -0.09861866470473703
3720000000.0 0.0955976144441304 -0.06974544993381206
3740000000.0 -0.021194752450926738 -0.09763621525967697
3760000000.0 -0.024393185447443917 -0.07884590479334369
3780000000.0 -0.04099360162079968 0.049141923262162726
3800000000.0 -0.034021554658598616 0.0005669609910206397
3820000000.0 -0.0006482451558241152 0.0012176457078651715
3840000000.0 -0.01963586108976876 -0.028705577856741552
3860000000.0 0.02348146960077872 -0.05937161457300565
3880000000.0 0.07385140746699055 -0.05345506718143974
3900000000.0 -0.10360452729076407 -0.0394194854362072
3920000000.0 -0.12349384616359736 0.021803292743288488
3940000000.0 -0.0466694036085719 0.12739343789091975
3960000000.0 -0.00032428885021436803 0.13833830532509758
3980000000.0 0.1179675281529344 -0.06175667128583699
4000000000.0 -0.02982401795324059 -0.11014491121033157
