!Created with skrf (http://scikit-rf.org).
# Hz S RI R 50.0 
!freq ReS11 ImS11
400000000.0 0.8427982938777228 -0.24519363566678115
420000000.0 0.7642370555830095 -0.32659512670616353
440000000.0 0.49196275046502314 -0.5952591032892528
460000000.0 0.3069590304538919 0.6258136589911003
480000000.0 0.330278253629857 -0.4926623884537577
500000000.0 0.5475385258161413 0.30135600865886736
520000000.0 0.5797110584821294 -0.2691390087077791
540000000.0 0.09493233031417653 -0.6039915113950816
560000000.0 0.5511599435772772 0.2849505601648834
580000000.0 0.4608666370145196 0.2554598923724258
600000000.0 -0.03210524018659788 0.5951920938066269
620000000.0 -0.15218129837882768 -0.581473613992419
640000000.0 -0.28876330134296324 -0.48454591399083463
660000000.0 -0.006667433560803612 0.5198990401116406
680000000.0 0.3078188630055402 -0.3671692610489546
700000000.0 0.39034385598460475 0.30427458774003874
720000000.0 0.4967666898174771 0.05603125158868167
740000000.0 0.30458273887750065 0.3618286653870043
760000000.0 -0.1327784626390521 0.43767057212130006
780000000.0 -0.3226285961942859 -0.31048343539042167
800000000.0 0.048373936530657406 -0.4029037131728488
820000000.0 0.28909642034960176 0.22456449174920287
840000000.0 -0.13458510157436251 0.3059617761320959
860000000.0 0.29249306262358693 -0.08513034384978946
880000000.0 -0.02454029637627487 0.28370513389535185
900000000.0 0.24059884439452126 0.13872799406738112
920000000.0 -0.004521454824775452 -0.2546452368910701
940000000.0 0.09134655351668153 -0.20165818538751643
960000000.0 0.09774412309387814 0.13697567912416214
980000000.0 0.1284707783991949 0.0525151122416813
1000000000.0 -0.06456883489903047 -0.11201034464893528
1020000000.0 0.07755980170906275 0.0762309406797493
1040000000.0 0.12277307031603386 -0.02854525637872561
1060000000.0 0.14318863977902582 -0.07213155330897583
1080000000.0 0.12210390054378359 0.16362053532881302
1100000000.0 -0.2224731016653857 0.09870320212424179
1120000000.0 -0.02135555336564573 -0.2789632225629928
1140000000.0 -0.3012647702938983 0.06797668629195358
1160000000.0 0.3104885755800058 0.11709371071933024
1180000000.0 0.17991637284809336 0.2877629559179636
1200000000.0 -0.34843855167527416 -0.06101336960099416
1220000000.0 0.3362605043948873 -0.15474739296450046
1240000000.0 0.3071798670296478 -0.22350088350127942
1260000000.0 -0.08798646193139567 -0.38298115313185793
1280000000.0 -0.3711969488096678 0.06354152795092977
1300000000.0 0.12438692899956172 -0.3465722144960098
1320000000.0 0.22416698704587476 -0.30240713925158097
1340000000.0 -0.31274634665111917 0.19158923293074073
1360000000.0 0.10835665592993246 0.3691421571036015
1380000000.0 -0.0621335868025638 0.38672506241770677
1400000000.0 0.01993877019533786 -0.38237318367917184
1420000000.0 0.3363772319519768 -0.18735751052302735
1440000000.0 -0.1308439323164043 -0.36428714750722196
1460000000.0 -0.2725447049181286 -0.274549992662639
1480000000.0 -0.07358769166752305 -0.38665331947067905
1500000000.0 -0.3296702943813723 0.21129514899022095
1520000000.0 0.1289647459190235 -0.363430196889477
1540000000.0 0.022385315337242983 0.36087215462203376
1560000000.0 -0.2509300401081916 -0.21423876015880491
1580000000.0 0.2921306901911446 0.03572637938859088
1600000000.0 0.24272290690172274 -0.09948643939852314
1620000000.0 0.0028394181223382556 0.21273747228975198
1640000000.0 0.07657345955931313 0.17158518641920611
1660000000.0 0.12677917060920585 -0.09790316215674323
1680000000.0 -0.10040851999090382 -0.07123444179774067
1700000000.0 0.11506151938899006 0.009705200153859962
1720000000.0 0.09148253025849054 -0.018109857930730656
1740000000.0 0.011965353692303239 -0.0834183776770362
1760000000.0 0.03719958824419632 0.08374669557197209
1780000000.0 -0.09669469700698229 -0.048219905190386964
1800000000.0 0.03142139772319866 0.1257535601441116
1820000000.0 0.15970686501693024 0.0121730060528529
1840000000.0 0.12518172918276183 -0.1442499303628093
1860000000.0 0.015676627937669677 0.21794989510317112
1880000000.0 0.22881549791181793 0.10747476855662329
1900000000.0 0.2712913881773612 0.015329681266470227
1920000000.0 0.004472884932474668 -0.2923267967922421
1940000000.0 -0.2931491036980568 0.08281747758114448
1960000000.0 0.21010749843708185 -0.22748989829316382
1980000000.0 -0.2963214535703122 0.10090472574426539
2000000000.0 0.13768132671647867 -0.28877745910890334
2020000000.0 0.28130224228209644 -0.15839941275782154
2040000000.0 0.32500435894170726 0.016974571777696488
2060000000.0 0.2522360105284201 0.20016448568894027
2080000000.0 -0.01717338139680625 0.32539869422356577
2100000000.0 0.010472466632934848 -0.32350877970592135
2120000000.0 0.25446254255007855 0.1906797369055837
2140000000.0 -0.21167474540458361 -0.23793894450543557
2160000000.0 0.06873859511558918 0.3103639713502959
2180000000.0 0.2554993297619153 -0.17402342292705886
2200000000.0 0.17694629174072168 -0.24794836547715837
2220000000.0 0.04676652329974214 -0.29294831357867146
2240000000.0 0.28701533908708154 -0.03786924335365482
2260000000.0 -0.006747619339255157 0.2759384177008703
2280000000.0 -0.20466399504345276 0.17457020683977248
2300000000.0 -0.08142451264354748 -0.23626526297355377
2320000000.0 -0.10454036666712706 0.21873113896855748
2340000000.0 0.0925109074443909 -0.22687138260460915
2360000000.0 0.1610763458742432 0.18553726569022572
2380000000.0 -0.13366418372948774 -0.21749645190383182
2400000000.0 -0.26610290043965723 -0.09493943688613879
2420000000.0 0.2740283916067409 0.13194267577526253
2440000000.0 -0.17976588259196546 -0.2723363307240309
2460000000.0 0.09790968396874726 0.3423295574110093
2480000000.0 0.2477257717729889 -0.3033237376363896
2500000000.0 0.23104009252940874 0.3587607224985768
2520000000.0 -0.460092054156357 0.05222190603430546
2540000000.0 0.20017739098099288 -0.45233989319721113
2560000000.0 0.04355237604884742 0.522630488481167
2580000000.0 -0.19354358534650393 -0.5176838671408862
2600000000.0 0.27062626350793867 0.5087170671437184
2620000000.0 -0.3816042568333159 -0.45636761450380203
2640000000.0 0.4813046396265213 0.37627757085940505
2660000000.0 -0.6251854193866258 0.03007032593234134
2680000000.0 0.12923242865077939 -0.6208923068354458
2700000000.0 0.631949308467007 -0.11824139728985357
2720000000.0 0.6061719527217426 0.22858386026904032
2740000000.0 0.5908803222893165 0.2699983025983063
2760000000.0 0.5436168749833563 0.3560716301347647
2780000000.0 -0.5209232665944027 0.3786817404480815
2800000000.0 -0.6312384972658316 0.06702252187281896
2820000000.0 -0.37591884590791846 -0.4966488075834463
2840000000.0 0.5859791270521201 -0.16735789977635782
2860000000.0 -0.4266061125274985 0.41327145780916336
2880000000.0 0.5584581556562817 -0.13065481670752419
2900000000.0 -0.24817701992636754 -0.49295182168595586
2920000000.0 -0.5130942019449505 0.12392884940552246
2940000000.0 -0.3041974975994304 0.39489367456790053
2960000000.0 -0.3431126538519499 0.3257323616018066
2980000000.0 -0.2701859031199736 0.3572956480945875
3000000000.0 -0.20534835761172518 0.37366373442599543
3020000000.0 0.08559111459165199 0.39478103833745837
3040000000.0 0.2976059977189852 0.2441619275955111
3060000000.0 0.3354761798977979 -0.15686071624426393
3080000000.0 -0.35124639506955746 -0.06905767708182323
3100000000.0 0.194545097625309 0.288024794865243
3120000000.0 0.2781423300850639 -0.20400440621780494
3140000000.0 -0.3373454104632283 0.056209202227669224
3160000000.0 0.3414393293635221 -0.027392682329340747
3180000000.0 -0.34477123389505304 -0.005975553376652295
3200000000.0 -0.000748704466021333 0.3420624932291146
3220000000.0 0.2745771649313045 -0.19688028072162492
3240000000.0 0.0943906183247251 -0.31948576549536245
3260000000.0 -0.1914624710054804 -0.2650814863982655
3280000000.0 -0.31012259971310036 -0.05892110211276697
3300000000.0 -0.18681340124482937 0.23298978527076775
3320000000.0 -0.06308502100429488 0.26402745087191004
3340000000.0 -0.22600134557121748 0.10005486076805628
3360000000.0 -0.21514512500677258 0.055008748476571404
3380000000.0 -0.09415891691614477 -0.16800795162098223
3400000000.0 -0.06715046791232651 -0.1541959971539237
3420000000.0 0.03255809579838093 -0.13644061669827634
3440000000.0 0.03888498563474897 -0.11169297389492149
3460000000.0 0.08465304813925663 -0.04255509829599067
3480000000.0 -0.008095003627362226 0.07614345698924901
3500000000.0 -0.06375800885093016 -0.03345937185736611
3520000000.0 -0.07133319024139127 0.0030592088749649173
3540000000.0 0.06277701028677223 0.0474170879132244
3560000000.0 -0.02948001288846524 0.08105850063319801
3580000000.0 0.09279561168398347 0.024958475866697426
3600000000.0 0.043335226241563295 -0.09403143829926913
3620000000.0 0.08843307431950494 0.08312720972537753
3640000000.0 0.016517189237923724 -0.13513689920872934
3660000000.0 -0.01866589548398672 -0.14474232971661793
3680000000.0 0.04239789614448209 0.14566698091471023
3700000000.0 0.09361796205984187 0.10957405561313428
3720000000.0 0.10749257606426241 0.06906913481579335
3740000000.0 0.10081222952768712 0.014311704145693497
3760000000.0 -0.017923139470925654 -0.07793025094156406
3780000000.0 0.048856283214622945 -0.033038640092921435
3800000000.0 0.021974482783323184 -0.013801480936664936
3820000000.0 -0.009105310074884089 -0.005760823452930003
3840000000.0 -0.04452946239743203 0.01514594597180576
3860000000.0 -0.07671022310431504 0.014673471395886878
3880000000.0 -0.03931851705989731 -0.097974798051511
3900000000.0 0.12600404759335376 0.025730449684600584
3920000000.0 -0.099140735878524 -0.1028794051861637
3940000000.0 -0.09113596237205207 0.12163358234135466
3960000000.0 0.08422495346909166 -0.13212649057541925
3980000000.0 0.14083441294746496 0.04024370846744957
4000000000.0 -0.12045651731101728 -0.031849609242343355
