!Created with skrf (http://scikit-rf.org).
# Hz S RI R 50.0 
!freq ReS11 ImS11
400000000.0 0.7606859956364836 0.4246943075699903
420000000.0 0.2998286701391412 0.7590874241128911
440000000.0 0.43211890702870104 0.6255611089342067
460000000.0 -0.6425841666648052 -0.24479438110342364
480000000.0 -0.11221050095460705 -0.6093391193466744
500000000.0 0.6355705272585573 -0.14703812272977396
520000000.0 -0.43253019848163715 0.5100169927969165
540000000.0 0.681127236437098 -0.010608485526995256
560000000.0 -0.09690300075497725 0.6668194661201162
580000000.0 -0.14949267259215288 0.49524462993184076
600000000.0 -0.2153396111347506 0.550048098816981
620000000.0 -0.409633065839911 -0.4600587547324131
640000000.0 -0.44254589474802986 -0.36074398382782613
660000000.0 0.3121940585360928 0.4241841971511467
680000000.0 0.28104372985731024 0.40487593187607324
700000000.0 0.35835231476246576 0.26884628105566016
720000000.0 -0.39095102417053157 0.29806981318619213
740000000.0 0.3407520723837974 0.3291143307669846
760000000.0 0.17331521357861085 0.41455128472091207
780000000.0 -0.387594945746779 0.18708890865499667
800000000.0 0.11402900268015258 -0.3763717109455623
820000000.0 -0.07656835583423686 0.3444650495291956
840000000.0 0.17501173288549224 0.27492291487016196
860000000.0 0.13358779260133155 -0.26622239247107843
880000000.0 0.25271714894056646 0.10626292379181482
900000000.0 -0.005106332242239074 0.2651790277828228
920000000.0 0.25856805270280003 0.008713343001121329
940000000.0 0.0027072691411387587 0.22513688512834062
960000000.0 -0.17937291230615438 -0.024886546888141
980000000.0 -0.06192932482417022 -0.13137994532133898
1000000000.0 0.12089747066916727 -0.04986403718839256
1020000000.0 -0.09511799354634219 0.02195967848054995
1040000000.0 -0.1096549059020514 0.007942777048913672
1060000000.0 0.0866377866892845 0.11985085611287158
1080000000.0 0.19215135898200947 0.04263455756693574
1100000000.0 0.1423048994894264 0.19474717157827404
1120000000.0 0.25719223797218305 -0.09938820641749982
1140000000.0 -0.29144658650256094 -0.07107704254316022
1160000000.0 -0.31697480533847644 -0.03809143225731282
1180000000.0 -0.3282954226597135 -0.07452028794135253
1200000000.0 -0.2881294332913972 -0.20178282693764024
1220000000.0 0.35469396446367696 0.014164772654064977
1240000000.0 0.23879542673560916 0.2903826774478329
1260000000.0 0.37347819185316256 -0.12036181527673581
1280000000.0 -0.3585542207954421 -0.1441861698578959
1300000000.0 -0.148590901541631 -0.3502170770335705
1320000000.0 -0.16013157569433856 -0.3439767074148158
1340000000.0 -0.34828449343123924 -0.12508430024482442
1360000000.0 0.2554925330998602 0.2967604099329774
1380000000.0 -0.14558542523114273 0.3742354204059486
1400000000.0 -0.039912963021955405 -0.3925876326910301
1420000000.0 0.23200834139300233 -0.3184050108364774
1440000000.0 -0.2060143827728424 -0.3386651134769225
1460000000.0 -0.36770507493742893 -0.14513006514022475
1480000000.0 -0.29524638867664815 -0.2665556378323165
1500000000.0 0.04588824293854922 0.39496770738510967
1520000000.0 -0.3759984843744496 -0.09583719479625857
1540000000.0 0.3207762588039175 -0.16892966380603616
1560000000.0 -0.2297757162918887 0.23186587457651692
1580000000.0 -0.16734009731633465 -0.24113621806731594
1600000000.0 0.00809241628818396 -0.25809514123551747
1620000000.0 0.18120598297650295 -0.12108495112182813
1640000000.0 -0.1814108085035031 0.036203620936726404
1660000000.0 -0.057795494478725416 0.1437024720024143
1680000000.0 0.0710481570921191 -0.08944402463433608
1700000000.0 -0.01725645022516722 -0.10164216500879106
1720000000.0 0.06345039008135837 -0.051452880150117696
1740000000.0 0.05531507179103026 0.05585673578203938
1760000000.0 0.012730913187297155 -0.0893762490690139
1780000000.0 0.11594642149077487 -0.024608292736043477
1800000000.0 0.10473004173399357 -0.09323844583861306
1820000000.0 -0.15239333641181563 -0.06882291601909302
1840000000.0 0.19538236583261742 0.0026365788445792083
1860000000.0 -0.21762397093742533 -0.04360638984020726
1880000000.0 -0.052702075498868406 0.2486922846089007
1900000000.0 -0.00019424289454649101 0.2738534465982654
1920000000.0 0.18496951473029888 -0.22702142552517784
1940000000.0 -0.30382516415235594 -0.021980794180958795
1960000000.0 0.3010208976498097 -0.06069052483299742
1980000000.0 -0.30825638967432606 -0.05878690556120106
2000000000.0 0.0790029070411875 -0.3110396392889987
2020000000.0 0.3095790485374943 -0.0921558671648445
2040000000.0 0.3213174837228735 -0.006527414246563093
2060000000.0 0.26904376749362435 0.16953667833831534
2080000000.0 0.05806909198444922 0.31267683576959915
2100000000.0 0.10222670323165223 -0.29726961039376193
2120000000.0 0.19864840486083565 0.2315634672613794
2140000000.0 0.07212333998526774 -0.2901811245728545
2160000000.0 -0.28363031670322064 0.08425663022621956
2180000000.0 -0.04910100496261676 0.2839791494468031
2200000000.0 -0.18606123959020243 0.21181783794800246
2220000000.0 -0.23341774899428558 0.15589543258673133
2240000000.0 -0.19632100895286345 -0.1921797111586322
2260000000.0 0.14104033999767893 -0.2294643083114054
2280000000.0 0.2719324906202355 -0.012115440236454496
2300000000.0 0.25725460927348365 -0.028168407017886213
2320000000.0 -0.25144936008238555 -0.04519101437711169
2340000000.0 -0.08432913942526722 -0.24336853592533478
2360000000.0 0.17469765362448902 -0.1878045270615966
2380000000.0 0.09828328383515822 0.24118079880996746
2400000000.0 0.199865177151922 0.19730106972704342
2420000000.0 0.1816803300327561 -0.23707161687275835
2440000000.0 -0.2954610057051926 0.11466773785862763
2460000000.0 0.30952463205649994 0.14113264237432385
2480000000.0 0.2367092016038958 -0.2865899707910194
2500000000.0 -0.10908225329049784 0.3903552755054539
2520000000.0 -0.31559122424231295 -0.3119240875228593
2540000000.0 0.4669366143054616 -0.09684480127391269
2560000000.0 -0.3428511515288688 0.37622931248414
2580000000.0 0.17866847151039333 -0.5095894081816384
2600000000.0 -0.024679910138693376 0.5656469273347706
2620000000.0 -0.09093700883640418 -0.5831688434954072
2640000000.0 0.279541563167453 0.5395254970530565
2660000000.0 -0.585684596544241 -0.21644784629118488
2680000000.0 0.4508411344518232 -0.4462499104667476
2700000000.0 0.6099438375886704 0.2032677358782554
2720000000.0 0.3133747770206074 0.5667026209205179
2740000000.0 0.07914650311882337 0.6436497386240977
2760000000.0 -0.037149246182557924 0.6455903634785639
2780000000.0 -0.5735252140673226 -0.28203987003714276
2800000000.0 -0.39522746036721784 -0.4887921801596322
2820000000.0 0.21983135996636774 -0.5750927377220905
2840000000.0 0.43601312039487966 0.4137129430221254
2860000000.0 -0.47068978123189253 -0.3503383281961411
2880000000.0 0.27376997383739266 0.49954589139391103
2900000000.0 0.37431151974466176 -0.40167649748499207
2920000000.0 -0.0016220391665545616 -0.5279451987335932
2940000000.0 -0.3533805655330642 -0.3599253390770691
2960000000.0 -0.25713836634539844 -0.40603861560869814
2980000000.0 -0.2842971714718663 -0.360956245488142
3000000000.0 -0.334911522701933 -0.2832597855670674
3020000000.0 -0.42183022903757666 0.008053304553528946
3040000000.0 -0.043284221004536265 0.3992788111011008
3060000000.0 0.3698204225622504 -0.09128639070944536
3080000000.0 -0.3022481016577702 -0.2058305032769753
3100000000.0 0.2599572279957571 0.23596417761335686
3120000000.0 0.32110065658862347 -0.12413127970007957
3140000000.0 -0.20037997048309378 0.27459589265399376
3160000000.0 0.12932723125708456 -0.31110477342276777
3180000000.0 0.024255944357699583 0.3334077650751394
3200000000.0 0.3030550618027639 -0.12745540884198542
3220000000.0 -0.18868350172059642 -0.2634959982134147
3240000000.0 -0.3110708230004063 -0.05869523111849016
3260000000.0 -0.2766129859814364 0.13015140996273683
3280000000.0 -0.29327200775964135 0.032954840066127526
3300000000.0 -0.27717521750783936 0.02041034828333241
3320000000.0 -0.1730955142661728 -0.18579717159756545
3340000000.0 0.219269123180713 0.07022047303405748
3360000000.0 -0.20633181287791202 0.026280933037637955
3380000000.0 0.094833817709795 -0.16394808991213813
3400000000.0 0.10965667956590035 0.12610405899649896
3420000000.0 0.008842380013493457 0.14301795682437896
3440000000.0 -0.11387981365119337 0.053147477656166384
3460000000.0 -0.07553227949744899 0.07474880321377277
3480000000.0 0.08811057066142372 0.004314627633952377
3500000000.0 -0.0782444853267295 0.010489663666339619
3520000000.0 0.004130235225287439 -0.07685820014076496
3540000000.0 0.05482328077091982 -0.054610949564717695
3560000000.0 0.052831490997820654 -0.0691218245561902
3580000000.0 -0.06589932876373893 0.06589728373879296
3600000000.0 -0.029993639918133072 0.09287369278646684
3620000000.0 0.06849060501336784 -0.08747652494280103
3640000000.0 0.12448314761807804 0.014213919284469882
3660000000.0 0.006938257853314449 0.13689647183070722
3680000000.0 0.0400515447974202 0.1356479713808398
3700000000.0 -0.11622467225020622 -0.0657556021578375
3720000000.0 0.11594969950069964 0.03149143182370491
3740000000.0 0.03866078157910232 -0.09361815050964975
3760000000.0 0.028889125799764957 -0.07955593124203354
3780000000.0 -0.04466660213224052 -0.04494204005447393
3800000000.0 -0.03235026167718008 0.01106073886414911
3820000000.0 0.0001760015562155538 0.0023172536067483677
3840000000.0 -0.03695331332996662 0.003918004997417257
3860000000.0 -0.024281771212406728 -0.06168007524044279
3880000000.0 0.08644574731710884 -0.03357243308809488
3900000000.0 -0.05154681598104044 -0.10148659070886164
3920000000.0 -0.12268110235634963 0.037799553996087094
3940000000.0 -0.10548538246488265 0.08521031692894232
3960000000.0 -0.13982457628364847 -0.009562061534996103
3980000000.0 0.1335990024435849 0.019384904994446204
4000000000.0 0.039639497824821374 -0.10597196152304726
