!Created with skrf (http://scikit-rf.org).
# Hz S RI R 50.0 
!freq ReS11 ImS11
400000000.0 0.8060002977432275 0.3299826988440693
420000000.0 0.2530002618540514 0.7760487497823818
440000000.0 0.42507260908912525 0.632241407436435
460000000.0 -0.5602896820211607 -0.3962182774536741
480000000.0 0.022392593835636257 -0.6196263441114156
500000000.0 0.6229110746378586 -0.18560313006640716
520000000.0 -0.1110714276345017 0.6598410034347798
540000000.0 0.643998652192859 -0.20657942974933866
560000000.0 -0.38180828404186196 0.5480417797746053
580000000.0 -0.24279104612076643 0.46455643219536746
600000000.0 0.2609284647854055 0.5277162929332225
620000000.0 -0.2878837260852555 -0.5337424354859095
640000000.0 -0.23979253570564518 -0.5133681781991412
660000000.0 0.01115176935220555 0.5281549679403492
680000000.0 0.01251032696190626 0.49311319071152243
700000000.0 0.40815456302758324 -0.19603645382774987
720000000.0 0.04965023713140389 0.48646672592557644
740000000.0 0.3272121148445404 0.3309686617646579
760000000.0 -0.33193855296399893 0.2968437122505439
780000000.0 -0.42644659311405364 -0.07874250280197591
800000000.0 0.0047503129200422165 -0.4026653422941651
820000000.0 0.35109550493622155 -0.07358190233601723
840000000.0 0.26023715296723765 0.18689534031660052
860000000.0 0.09113429874217004 -0.279307433888859
880000000.0 -0.18886487811356645 0.19456004603988533
900000000.0 -0.21802922868613622 0.16336640024124977
920000000.0 0.22302211040069517 -0.12559622611190446
940000000.0 0.1202545816207565 0.19165246134503663
960000000.0 -0.16649136526348407 -0.07968430660821312
980000000.0 -0.05887113935161447 0.1364999132751009
1000000000.0 -0.12276514982552386 0.006745406735204059
1020000000.0 -0.018034983389357565 0.09363378511251895
1040000000.0 0.03059351521951912 -0.10605266392620863
1060000000.0 0.10638378252406473 0.10728663615916523
1080000000.0 0.06654459898367389 -0.18221842547296244
1100000000.0 -0.027310407862272276 0.23664736065394898
1120000000.0 0.27727963307777803 -0.00959297548900157
1140000000.0 -0.27687175816561316 0.11703295340262826
1160000000.0 -0.2092540343833834 0.24051827517481203
1180000000.0 -0.329409992413147 -0.0628511973446077
1200000000.0 -0.12640598860222688 -0.3274787476822133
1220000000.0 0.3534258253068659 -0.06801121572293298
1240000000.0 0.26887808772676286 0.26687587821294395
1260000000.0 0.31264874021697403 -0.23459754566779328
1280000000.0 -0.32399375652838525 -0.2016196258845311
1300000000.0 0.09644494297059121 -0.36862678409408606
1320000000.0 -0.056428062601143164 -0.3797035991025539
1340000000.0 -0.3515411577434181 0.1073928407254445
1360000000.0 0.28357743628972243 0.26344432675962026
1380000000.0 -0.1485567194874157 0.3707770246476696
1400000000.0 -0.07325546331820393 -0.38812864820956744
1420000000.0 -0.15713860383605815 -0.3610852546039578
1440000000.0 -0.2682323972756125 -0.2906012314760026
1460000000.0 -0.3846819385749955 -0.0862334503762856
1480000000.0 -0.3876758763157011 -0.08411429220557215
1500000000.0 0.13014962346798864 0.37863221851376627
1520000000.0 -0.38770311168215804 0.023534174958420966
1540000000.0 0.32407793752538155 -0.15905339729256976
1560000000.0 -0.24433391688257833 0.22297710524522396
1580000000.0 -0.07900750126737252 -0.28321035414588325
1600000000.0 0.030521855435409445 -0.2553783160093512
1620000000.0 0.1528349226092551 -0.1540734804910569
1640000000.0 -0.1831375126160257 0.02582163318523478
1660000000.0 0.010059134106845362 0.15262535385024012
1680000000.0 0.11126930664079501 -0.015316649194596379
1700000000.0 -0.09847737233500369 -0.0240394132575168
1720000000.0 0.017242618520366574 -0.07805183282423
1740000000.0 0.00826738094673053 -0.07748397439213774
1760000000.0 -0.04098069551314151 -0.07725477435598911
1780000000.0 0.11275521187087512 -0.026472937071885267
1800000000.0 0.08010188961071431 -0.11449491405612713
1820000000.0 -0.12440756998963796 0.11284621267974594
1840000000.0 0.16804391014487732 -0.09949197389700622
1860000000.0 -0.20375668790378915 0.08804890757026713
1880000000.0 -0.07962507381063415 0.24285772299226938
1900000000.0 0.1426848896047606 0.2346866374600485
1920000000.0 0.22361788102547003 -0.19153448991811473
1940000000.0 -0.30586498948278396 0.0007840356717952241
1960000000.0 0.3012366252536776 0.07298332788756445
1980000000.0 -0.30873104863422995 -0.06034629771032123
2000000000.0 0.06641163631762508 -0.3132060676129598
2020000000.0 0.3176232594170144 -0.036720284079100315
2040000000.0 0.2943952125355168 0.12284245660252753
2060000000.0 0.27436688271490456 0.15984053059914488
2080000000.0 0.18541320415196522 0.25728540861268306
2100000000.0 -0.06369953428913909 -0.3055525847031305
2120000000.0 0.29981430754655297 0.04753986121312804
2140000000.0 -0.05699973512014166 -0.29390242082054024
2160000000.0 -0.2023542119425737 0.218322461628338
2180000000.0 0.011818684604528323 0.28802736764314707
2200000000.0 -0.12607831292229793 0.256716144178574
2220000000.0 -0.15273602499940972 0.23630358584645736
2240000000.0 -0.20596585520335328 -0.1882506196954208
2260000000.0 0.22783313754096424 -0.14744287532182668
2280000000.0 0.2683411846177921 -0.04765913557488364
2300000000.0 0.21891703082882027 0.13753266897862845
2320000000.0 -0.17525158949124292 -0.18541051881846302
2340000000.0 -0.01053461471137749 -0.25548141820592934
2360000000.0 0.21888497600178572 -0.1316675543554734
2380000000.0 0.1393272183266441 0.2149250347740698
2400000000.0 0.12499990558510685 0.24734043401244515
2420000000.0 0.08203103101330463 -0.2845101118939583
2440000000.0 -0.1659613647240251 0.2677016084873994
2460000000.0 0.3353846649660138 -0.039891424229240594
2480000000.0 0.01661541820071416 -0.3711184035680561
2500000000.0 0.22548776013671742 0.3384970860296797
2520000000.0 -0.4063201665606264 -0.18083949963801316
2540000000.0 0.4659856982134775 -0.11252083972484764
2560000000.0 -0.30132771668813935 0.4133144979230339
2580000000.0 0.22663525176124574 -0.491078133750329
2600000000.0 -0.08757970760002887 0.5591377039932498
2620000000.0 -0.03767849498013505 -0.587477991765484
2640000000.0 0.19880274679542176 0.5720350037041622
2660000000.0 -0.5503723136646747 -0.28835313344452196
2680000000.0 0.34685224655740665 -0.5272629539273495
2700000000.0 0.6190483781776114 0.1628807490484037
2720000000.0 0.4591905568111902 0.45219319529752355
2740000000.0 0.26282329148391337 0.5905929783483292
2760000000.0 0.28477640643319196 0.5800537220638339
2780000000.0 -0.6321242592690762 -0.09557150839446348
2800000000.0 -0.4532278912522968 -0.43787432845640495
2820000000.0 0.11542491171226715 -0.6073443240217519
2840000000.0 0.47129908555097144 0.37618937127734037
2860000000.0 -0.4910946017495706 -0.32280318095977756
2880000000.0 0.15411389767084469 0.5474090143376894
2900000000.0 0.4799456493593752 -0.2666529134511463
2920000000.0 0.015472830746775097 -0.5267069062028555
2940000000.0 -0.26675916495124685 -0.4255922645317637
2960000000.0 -0.20187201917692843 -0.43431940360022747
2980000000.0 -0.35877705345450683 -0.2811704782128623
3000000000.0 -0.3338859514218725 -0.28093182095233554
3020000000.0 -0.4052097338949523 0.10454966804354164
3040000000.0 0.07023248114125322 0.39342629201445595
3060000000.0 0.3432764320993846 -0.164574708903971
3080000000.0 -0.36469838998404497 0.02759958700276926
3100000000.0 0.346846719457016 0.04453352317326693
3120000000.0 0.25368231781233497 -0.2348123996813342
3140000000.0 -0.10804824856956712 0.32447925132409533
3160000000.0 0.045081613113477075 -0.3363696064259996
3180000000.0 0.04177955913140139 0.3329927558908493
3200000000.0 0.3278692562610369 -0.03705125126160012
3220000000.0 -0.1264318098886035 -0.2989803328589825
3240000000.0 -0.26298197284793334 -0.17673876352445642
3260000000.0 -0.29577868704811694 0.07510996306838051
3280000000.0 -0.2906754703541986 -0.027768558461422087
3300000000.0 -0.24804689477268813 -0.11722253429113877
3320000000.0 -0.12057176223191893 -0.22183889035157503
3340000000.0 0.2282516246135687 0.006933569623113037
3360000000.0 -0.13039171698896238 0.1575388318374142
3380000000.0 0.051214567948550234 -0.17845580074858297
3400000000.0 0.1622324394154776 -0.0320189768394277
3420000000.0 0.14113666726424176 0.019153180746864854
3440000000.0 0.03917288119869586 0.12000729778619239
3460000000.0 0.08353458933284395 0.06604267625560034
3480000000.0 0.010237110535901905 -0.08924719738596096
3500000000.0 0.03959081435255615 0.07141422649557588
3520000000.0 -0.04976696080529817 -0.06170535179684561
3540000000.0 0.03811322787835171 0.07120871360409209
3560000000.0 0.08890170935906275 0.006881117851963982
3580000000.0 -0.0682084086658095 -0.06416096608983597
3600000000.0 -0.03338862409695587 -0.09213567905115476
3620000000.0 0.10930299677775832 -0.009102358575870493
3640000000.0 0.05443754666210154 0.10995255807346403
3660000000.0 -0.08866807092557705 0.09913918941776491
3680000000.0 0.006786037824293551 0.13684015267386757
3700000000.0 -0.13057470246805536 -0.006679106925731079
3720000000.0 0.023480444161952094 -0.11420548528520437
3740000000.0 -0.0938958339864205 0.02992935172879347
3760000000.0 -0.07896757978077591 0.022799645656221064
3780000000.0 0.06280242880764089 0.01720519965936777
3800000000.0 0.022312049589837877 0.02838921468260224
3820000000.0 -0.003833053569133663 -0.002066306652907635
3840000000.0 0.01435921658017073 -0.030778731887539216
3860000000.0 0.019550055870380525 -0.05853891337341148
3880000000.0 0.021204694542511674 -0.08668599874281493
3900000000.0 -0.09753175215076597 0.04682108146210875
3920000000.0 -0.016286254681853386 0.12349664593301377
3940000000.0 0.03853678308476622 0.12881796368589155
3960000000.0 0.08568655116791078 0.11045105898045043
3980000000.0 -0.0950737497667456 -0.09533714027225638
4000000000.0 -0.0965381634613603 -0.06079957187533546
