!Created with skrf (http://scikit-rf.org).
# Hz S RI R 50.0 
!freq ReS11 ImS11
400000000.0 0.7886851825295261 0.3707225008394737
420000000.0 0.1943634974594151 0.7929904423891904
440000000.0 0.3827223679440749 0.6618827625516152
460000000.0 -0.6533867219953505 -0.21639353174574427
480000000.0 -0.337657128698094 -0.5185468638876836
500000000.0 0.6410670244273201 0.10932996862933177
520000000.0 -0.2500225941872879 0.6235776099996008
540000000.0 0.5918943427694174 -0.3294766664380933
560000000.0 -0.46305785440688074 0.4734168719773589
580000000.0 -0.5140500148291081 0.08618590394644186
600000000.0 -0.27630642578489634 0.52879871504914
620000000.0 -0.2882609095178974 -0.5503142382453089
640000000.0 -0.5769767362741752 0.020620233532197798
660000000.0 0.5172793653647157 0.09626837516160733
680000000.0 0.1741176286579017 0.45113608360821783
700000000.0 0.4109703066437551 0.1736582420480845
720000000.0 -0.4895170336594768 -0.011352353329321527
740000000.0 0.3369350447449505 0.3446512238763204
760000000.0 0.3187084834287256 0.30922081839569493
780000000.0 -0.41929070777571603 -0.0706618434779881
800000000.0 0.3726180590639822 -0.13621065265146354
820000000.0 0.18609804469980654 0.31534993040770665
840000000.0 0.3067270799016967 -0.12162294207702581
860000000.0 -0.23774378327160434 -0.16948296095761664
880000000.0 0.24516614323409794 0.09068170316740329
900000000.0 -0.26548617027091564 -0.012885406080663499
920000000.0 -0.0002782402163800845 0.2603641592314143
940000000.0 0.11353580919992838 0.1979203741980973
960000000.0 -0.07013347389976098 0.17517117420735548
980000000.0 0.013384332319402479 0.13581350149663327
1000000000.0 -0.08263440709030977 -0.09317493553646351
1020000000.0 -0.03902352707721999 -0.0946480918760524
1040000000.0 -0.0866591489049092 -0.08522422830725498
1060000000.0 0.08989789905840823 -0.11798173915518961
1080000000.0 -0.18123824915349515 -0.08146404188586916
1100000000.0 0.1809840258484658 0.1478879186291171
1120000000.0 0.2599764653114108 -0.09198115327572631
1140000000.0 -0.29679838188254 0.044482821707484035
1160000000.0 -0.2557061254149942 -0.18399781638962115
1180000000.0 -0.2565777408748108 -0.22525689966911433
1200000000.0 -0.33000414771175807 0.13235970268800487
1220000000.0 0.343045430465053 -0.07142950405188413
1240000000.0 -0.04711913009405019 0.37330453634794936
1260000000.0 0.39153850111779015 -0.058636176691027615
1280000000.0 -0.38771707968283897 -0.026822346847331126
1300000000.0 -0.3400795779759684 -0.1625476353493144
1320000000.0 0.08042155715088144 -0.3676650443833504
1340000000.0 -0.29658754342237437 -0.2247267390483613
1360000000.0 0.2172691729142802 0.32729721174643484
1380000000.0 -0.028382635777913556 0.39911192725104333
1400000000.0 -0.03980855980423354 -0.3946297556295226
1420000000.0 -0.02553952553835044 -0.38984244474732727
1440000000.0 -0.21070998495163262 -0.33406848898560176
1460000000.0 -0.33020433811687105 -0.2191242649178492
1480000000.0 -0.35633474144667976 -0.18359858987678557
1500000000.0 0.28618037668410334 0.27567416306026665
1520000000.0 -0.35362835853653 -0.15353158858231417
1540000000.0 0.35722749786330926 0.057609562668124246
1560000000.0 -0.056140550931588123 0.32666956001991443
1580000000.0 -0.2159763614103486 -0.19791708035830843
1600000000.0 0.008357280006283238 -0.2563917010264988
1620000000.0 0.144398489338398 -0.16127596480754197
1640000000.0 -0.12574979257793217 0.13506805302668964
1660000000.0 -0.13788548897634023 0.06742148712705189
1680000000.0 0.08086606277729141 -0.08008553229462807
1700000000.0 -0.09913695078689268 0.03269340127518061
1720000000.0 0.051930987864812234 -0.05856387385446679
1740000000.0 0.059705677613062495 0.05194701868115122
1760000000.0 0.0824206283210033 -0.03654942479239361
1780000000.0 0.03517889597975262 -0.11366194717857658
1800000000.0 0.12299081896749435 -0.06320521361073571
1820000000.0 -0.14329314497282256 0.08876744262585176
1840000000.0 0.18683510849068533 -0.05187659190688404
1860000000.0 -0.1582835400332648 -0.15484674224676892
1880000000.0 -0.026420646274059472 0.2559291578070506
1900000000.0 0.08260563287747288 0.26067593726737864
1920000000.0 0.16435997074225425 -0.243693789251237
1940000000.0 -0.30420584398239725 -0.008755205057971414
1960000000.0 0.27851761301338285 -0.13135476915864164
1980000000.0 -0.30584788488681225 -0.07103982598984812
2000000000.0 0.11009834981651619 -0.30053240566074213
2020000000.0 0.3002487500865137 -0.11895763766223093
2040000000.0 0.3223368142725968 0.019602723739942148
2060000000.0 0.31602947618325633 0.029977929578222064
2080000000.0 0.11497721410814878 0.29325392721136073
2100000000.0 0.218546174057523 -0.22519512439499256
2120000000.0 0.22157345471571555 0.2123789628462615
2140000000.0 -0.12472758330508196 -0.2741300333908165
2160000000.0 -0.2659171362886715 0.12625356698061885
2180000000.0 -0.02157297429159024 0.2863156027033296
2200000000.0 -0.1688615575811195 0.22693501330450058
2220000000.0 -0.2023969460273304 0.19563804613361663
2240000000.0 -0.1692936285051826 -0.21816775671152377
2260000000.0 0.05397133513159631 -0.26494810179243644
2280000000.0 0.27073428596614996 0.01766687825280558
2300000000.0 0.19905311789734187 0.16779490724634794
2320000000.0 -0.24365764645905652 0.08254592551448468
2340000000.0 -0.14961829683644592 -0.20688533372723283
2360000000.0 0.252562120386217 -0.0326499985583008
2380000000.0 0.02430934081109575 0.2565180774091916
2400000000.0 0.06264126373778871 0.27511515357687283
2420000000.0 0.10925225231838412 -0.27772361402815116
2440000000.0 -0.1503695909480552 0.2791098394104062
2460000000.0 0.3218725151085024 0.10004051452548433
2480000000.0 0.24345437373528422 -0.2813793599356329
2500000000.0 0.04254566455412988 0.4058094391774577
2520000000.0 -0.4048406004785924 -0.1798959670386729
2540000000.0 0.47341247615782317 -0.05406428250283108
2560000000.0 -0.3493337901697242 0.3714492981792201
2580000000.0 0.1910115499444191 -0.505458253169176
2600000000.0 -0.05807851720181747 0.5637492878172665
2620000000.0 -0.1091575547601009 -0.5795197261291118
2640000000.0 0.3193874975776867 0.5168671304086448
2660000000.0 -0.5803117343636363 -0.22789200193154632
2680000000.0 0.347017854003088 -0.5289655607390629
2700000000.0 0.6078206777770222 0.20603409354781235
2720000000.0 0.28707958078582047 0.5792636821841733
2740000000.0 0.23358143477178558 0.6036440953820938
2760000000.0 0.14502124876321862 0.6301185958115902
2780000000.0 -0.6091615106668323 -0.1934373106584597
2800000000.0 -0.3967795959155462 -0.4880627087143699
2820000000.0 0.18970423886818313 -0.5863982215205967
2840000000.0 0.44437506772365126 0.4069897817515568
2860000000.0 -0.5077204573403794 -0.29529641500838816
2880000000.0 0.2775964251159035 0.4969177240040159
2900000000.0 0.4191195677505821 -0.35274887537980193
2920000000.0 -0.018710744165139157 -0.5257563368010892
2940000000.0 -0.33882868776492786 -0.3722362523076853
2960000000.0 -0.18845883540299116 -0.44044093596596806
2980000000.0 -0.3026765058484236 -0.34421966278296706
3000000000.0 -0.31567292659792767 -0.30449367378860354
3020000000.0 -0.40554892532777 0.11147754411143129
3040000000.0 0.08178857749079234 0.392654676760666
3060000000.0 0.3507469270929057 -0.14911252949623632
3080000000.0 -0.32813931449616485 -0.15673108597700952
3100000000.0 0.2104962259540385 0.2811249184822848
3120000000.0 0.2908758050184579 -0.18667523255205123
3140000000.0 -0.17836490103795088 0.28989866669362246
3160000000.0 0.13699227017301682 -0.3093798943786024
3180000000.0 0.03267017766449906 0.33248536741642826
3200000000.0 0.30983052492621016 -0.1082979946509309
3220000000.0 -0.18546700389165285 -0.2652965839786103
3240000000.0 -0.2887038159409253 -0.12912057042361344
3260000000.0 -0.2806605172395883 0.12206934334580408
3280000000.0 -0.293106657857198 0.02398251092683403
3300000000.0 -0.2750225618206189 -0.02581580116338529
3320000000.0 -0.13560222554985865 -0.2152902916406816
3340000000.0 0.22270462704225172 0.0559132478935537
3360000000.0 -0.17779403722242967 0.10579810479001561
3380000000.0 0.14132515868282047 -0.12496256177443378
3400000000.0 0.12299203475239025 0.11367558159923823
3420000000.0 0.10461057049170208 0.09849653530701268
3440000000.0 -0.09303987075585156 0.08403499119709675
3460000000.0 -0.06528331773416286 0.0826874929215521
3480000000.0 0.08802585899300149 0.005881887527414184
3500000000.0 -0.06905685857100102 0.039718737916116735
3520000000.0 0.0029686693913109504 -0.07770036694933859
3540000000.0 0.04246833593288184 -0.06644440947637092
3560000000.0 0.04469901263006088 -0.07567298354030502
3580000000.0 -0.08453120046992799 0.039344111116409446
3600000000.0 -0.08140372847917886 0.0543028776918912
3620000000.0 0.054768998760891266 -0.09704915261905941
3640000000.0 0.06545459575128615 0.10567221009066746
3660000000.0 0.009000269945837906 0.1358734868930656
3680000000.0 -0.004481802421342869 0.1399686917946371
3700000000.0 -0.07613586168842483 -0.10830957304237848
3720000000.0 0.117440530557651 0.02068501887227282
3740000000.0 -0.05293099044649372 -0.08554333028360403
3760000000.0 -0.00015644670516383151 -0.08362541157619016
3780000000.0 -0.03006728828608962 0.05707355530642336
3800000000.0 -0.031990505549442806 -0.010855590297973809
3820000000.0 0.000799191290448341 0.0006179412409169622
3840000000.0 -0.0064456637560861745 0.035528325586435455
3860000000.0 -0.05667166942653699 -0.027816955899928733
3880000000.0 0.0807394029088321 -0.0403275809308309
3900000000.0 -0.07882975752079367 -0.07794032411897117
3920000000.0 -0.12659376511551923 0.009716511726122543
3940000000.0 -0.035758354261501514 0.13176660643817595
3960000000.0 -0.04478241518849328 0.13271411080212003
3980000000.0 0.023896362684219383 -0.13269172802206686
4000000000.0 0.06183521914053144 -0.09394213776885603
