!Created with skrf (http://scikit-rf.org).
# Hz S RI R 50.0 
!freq ReS11 ImS11
400000000.0 0.8369056705198855 -0.2657013780654735
420000000.0 0.7838639734387484 -0.27997338866068683
440000000.0 0.37325745158562834 -0.6750150448992022
460000000.0 0.06491820773593877 0.6909691106438485
480000000.0 0.43225951476381613 -0.40689546093108947
500000000.0 0.5985314083981211 0.18779810350500542
520000000.0 0.12207907702629082 -0.6291591330101434
540000000.0 0.17786181476964505 -0.5759230717070852
560000000.0 0.6188781507543107 0.04434965776384167
580000000.0 0.3680808705843538 0.3728812326067847
600000000.0 -0.29852281899069183 0.522673801364105
620000000.0 -0.3984339380773148 -0.4598797765099648
640000000.0 -0.4981341995097837 -0.2571306005789005
660000000.0 0.019659472036612873 0.5157399902653729
680000000.0 0.421266170990781 -0.22297619292145768
700000000.0 0.27105769299593835 0.4179545098972658
720000000.0 0.49029356641822275 0.10084188096748795
740000000.0 0.3719693877269914 0.3008255373343674
760000000.0 0.06571829266361633 0.4478038087173033
780000000.0 -0.3865573712942571 -0.2267364192437022
800000000.0 0.20007116867027838 -0.35279034052204233
820000000.0 0.35872357161719765 0.06543598004707385
840000000.0 -0.3283241258724004 -0.040184181661907646
860000000.0 0.31053736925340336 -0.04277413103109106
880000000.0 0.2833554483285689 -0.020237724795780683
900000000.0 0.18788613872572535 0.1988416381529186
920000000.0 0.09521784423496839 -0.23549117996891122
940000000.0 0.11165345288858167 -0.1883629001479069
960000000.0 0.1479795990420578 -0.07543573806488424
980000000.0 -0.13790955991469747 0.022628910595507753
1000000000.0 -0.09429186144034322 -0.09457906949690102
1020000000.0 0.10678132630545727 0.04122752839173576
1040000000.0 0.13005944230743768 -0.004982990479730688
1060000000.0 0.09400396644107815 -0.12080047842513027
1080000000.0 -0.10059595018834425 0.17630045307473974
1100000000.0 -0.11983132830665379 -0.21770916967368267
1120000000.0 -0.22669195546043364 -0.16289810218528417
1140000000.0 -0.2427533674861859 0.1916747089339269
1160000000.0 0.308205692526492 0.12146125342373973
1180000000.0 0.189821130890978 0.2807212984290127
1200000000.0 -0.344777963938722 -0.06396202259495627
1220000000.0 0.3625486335649165 -0.07686203691806774
1240000000.0 0.2575995025119198 -0.2806267792894113
1260000000.0 -0.07865196934575493 -0.38525332497172643
1280000000.0 -0.34726768744295844 0.14864119287632382
1300000000.0 0.14165000144389064 -0.33713539439395834
1320000000.0 0.24402301951892294 -0.28778445679324477
1340000000.0 -0.36619128917901095 0.040132312132749544
1360000000.0 0.2534122599905607 0.28706106979899115
1380000000.0 -0.08081538001774792 0.3857209471049055
1400000000.0 0.005661996374910953 -0.3824413867692458
1420000000.0 0.32489175720827396 -0.2059158873845539
1440000000.0 -0.07407869053651084 -0.3805232456654118
1460000000.0 -0.29468464807163375 -0.25038803997968107
1480000000.0 -0.044145483231278496 -0.39255681949359933
1500000000.0 -0.3031881114051698 0.24635505183357906
1520000000.0 0.14644818256857636 -0.3573427426611784
1540000000.0 0.09874704061852757 0.34852416892117044
1560000000.0 -0.23019690273132085 -0.23300024311140094
1580000000.0 0.27661350262068485 0.10873826515511419
1600000000.0 0.2179799742163472 -0.1446521049190504
1620000000.0 0.0956499172851168 0.19001441042051317
1640000000.0 0.07165066297099058 0.17188358262269093
1660000000.0 0.14946218256039054 -0.05853792569909259
1680000000.0 -0.1221076966562579 -0.0037778207179472193
1700000000.0 0.11830249818910753 0.0008448878851557661
1720000000.0 -0.009796190514176675 -0.0912284922958735
1740000000.0 0.050742272621503465 0.06548093106375823
1760000000.0 0.0815705222792268 0.046054255519768605
1780000000.0 -0.07737212838897643 0.07566333478580446
1800000000.0 0.03463233674143767 0.12233224245700795
1820000000.0 0.04412813049726398 0.1553870771746556
1840000000.0 -0.08014453805004211 -0.17465762998477266
1860000000.0 -0.02513777212788347 0.21565609664894794
1880000000.0 0.20561625152112364 0.1457843390507225
1900000000.0 0.27197723732799595 -0.022711513295684035
1920000000.0 0.009929302850404881 -0.29154757020545435
1940000000.0 -0.30394752541689624 0.03129292694845026
1960000000.0 0.18439790316553634 -0.24833479439478948
1980000000.0 -0.3062466981089131 0.05897509497781556
2000000000.0 0.06978591772234816 -0.3120305984360273
2020000000.0 0.2862368770413652 -0.15287804255026874
2040000000.0 0.3237021946646556 0.015260079147255617
2060000000.0 0.25229293963391075 0.20232731511454263
2080000000.0 0.07265832166019842 0.31708941946083
2100000000.0 -0.006403393464607848 -0.32279318814141017
2120000000.0 0.14103123406685875 0.28629282816557305
2140000000.0 -0.29161886317226976 -0.13631078346145659
2160000000.0 0.2267581717224075 0.22226254056005093
2180000000.0 0.2779026074524134 -0.13145946909152023
2200000000.0 0.2510809733029393 -0.17323874898299224
2220000000.0 0.09201201250502457 -0.2830417931022813
2240000000.0 0.2778777706198477 -0.084995475800107
2260000000.0 0.11808335353880317 0.24928705893521344
2280000000.0 -0.18312609155869275 0.19426234144850962
2300000000.0 0.08122774467038944 -0.23716413979216844
2320000000.0 -0.12318930864279792 0.21352812224072126
2340000000.0 -0.04033985942343242 -0.24053647325181707
2360000000.0 0.08230449777963497 0.2291564278702337
2380000000.0 -0.08953839311447845 -0.23941418670298326
2400000000.0 -0.28227027812684574 -0.013643343691741142
2420000000.0 0.20017493517293042 0.2265040925505313
2440000000.0 -0.24170489246344748 -0.2205920449861376
2460000000.0 0.2285837165730761 0.27079162905701093
2480000000.0 0.18831795067344542 -0.3419197018558734
2500000000.0 0.28722683738234794 0.31578708483434736
2520000000.0 -0.4349808291058835 0.15930944628944158
2540000000.0 0.17217191997201037 -0.46339299800841177
2560000000.0 0.10785250892264835 0.5141631854159515
2580000000.0 -0.24067206034280808 -0.4972679354606657
2600000000.0 0.2835880617556057 0.5008078454110235
2620000000.0 -0.2962182516668819 -0.5171794249142664
2640000000.0 0.46153585674710107 0.40053902325462554
2660000000.0 -0.6231866849144114 0.05631980558953849
2680000000.0 0.14279179307746126 -0.6176455687559741
2700000000.0 0.5956701528704055 -0.23988071759851726
2720000000.0 0.6363621058595793 0.1192902429024026
2740000000.0 0.6020467291886077 0.24080927108457892
2760000000.0 0.5477124119092398 0.3479129054166852
2780000000.0 -0.47111652374978064 0.43919232393479307
2800000000.0 -0.6159997509337862 0.15228213661000456
2820000000.0 -0.40838792248675043 -0.47040602477005317
2840000000.0 0.5663879080390486 -0.2256273040458359
2860000000.0 -0.3970980332132742 0.4421934122700237
2880000000.0 0.5567328014959988 -0.13844877807975942
2900000000.0 -0.23441589899793938 -0.4998228490268142
2920000000.0 -0.5258224514737843 0.053090572646031134
2940000000.0 -0.31116840811018265 0.3884148443725508
2960000000.0 -0.36540692123487073 0.30056156118605215
2980000000.0 -0.2531303929421224 0.3701780925836603
3000000000.0 -0.15822099544152873 0.3939633796848098
3020000000.0 -0.01901796445342096 0.40228362772576215
3040000000.0 0.19556517659365324 0.3297233358412177
3060000000.0 0.2863869644883303 -0.23024172509658383
3080000000.0 -0.34851711689459747 -0.07680511750189711
3100000000.0 0.24742100738748787 0.2425636962151305
3120000000.0 0.2860127572996431 -0.1918181557180406
3140000000.0 -0.27557088519105866 0.2024169213437525
3160000000.0 0.3364561311285795 -0.062241093728922205
3180000000.0 -0.3440352061302039 -0.0008815962893431625
3200000000.0 0.03089207776179097 0.34177238766054546
3220000000.0 0.25734246781714754 -0.22151692073772875
3240000000.0 0.05166006566447408 -0.3301171049877549
3260000000.0 -0.2132893765147075 -0.24831804198099341
3280000000.0 -0.31290356221959437 -0.05052068968004629
3300000000.0 -0.1912348322497086 0.23209892608823585
3320000000.0 -0.019826402763454137 0.27163137777495056
3340000000.0 -0.2415590303089358 0.06306978677505928
3360000000.0 -0.21745959266988438 0.04611338218135594
3380000000.0 -0.03362662152881442 -0.19013882797359347
3400000000.0 -0.0864647823205246 -0.14605564110315017
3420000000.0 0.007424007357487994 -0.1412704735642799
3440000000.0 0.03874502794675487 -0.11378485932532881
3460000000.0 0.09448481601387194 0.003113300295863507
3480000000.0 -0.07892128503941909 0.0046978774310969754
3500000000.0 -0.05781777638813998 -0.04375983828546809
3520000000.0 0.05087403468361397 -0.04886280722221992
3540000000.0 -0.04743366996931515 0.06253636252679935
3560000000.0 -0.018173769438601692 0.08217804513469182
3580000000.0 0.01264762068130627 0.0939004380842988
3600000000.0 0.029389776180345554 -0.09937581677702809
3620000000.0 0.11762973928834172 0.022876787764040535
3640000000.0 0.04887825756289287 -0.12498342595957795
3660000000.0 -0.10377285078735625 -0.10385668931455164
3680000000.0 0.0770273491594061 0.13078552108212474
3700000000.0 0.09648132910555476 0.1077484178364004
3720000000.0 0.12924604544759835 0.003172358666945226
3740000000.0 0.08221633014990662 -0.06313283443232959
3760000000.0 0.0003620072115204468 -0.08113717603440834
3780000000.0 0.05965455982328647 0.008320612137213058
3800000000.0 -0.027683542483845216 -0.0026019946164910694
3820000000.0 -0.00924345007597625 0.005979811095981777
3840000000.0 -0.04518541602802777 -0.013556931979975451
3860000000.0 -0.03354844378656139 0.07183945344238049
3880000000.0 -0.02218530005999147 -0.10432589267013019
3900000000.0 0.12664775542513057 -0.01918487434710984
3920000000.0 -0.09524551527392477 -0.10809340588763086
3940000000.0 -0.07876303250503798 0.13193661374095933
3960000000.0 0.0898291075571946 -0.13082966583436673
3980000000.0 0.10541718473505958 0.10428134777447473
4000000000.0 -0.0024509065079145083 -0.12476034608845338
