!Created with skrf (http://scikit-rf.org).
# Hz S RI R 50.0 
!freq ReS11 ImS11
400000000.0 0.8042122843444388 0.3348766727444107
420000000.0 0.24265993259976879 0.7803107925365752
440000000.0 0.46359456535666593 0.6037476115104407
460000000.0 -0.6319897083382451 -0.2660604520048722
480000000.0 0.19273910346197431 -0.5909715492838542
500000000.0 0.6457938943589856 0.049277625015972736
520000000.0 -0.1152819661093134 0.6598073228083682
540000000.0 0.6584206457349108 -0.15669519790976305
560000000.0 -0.23008686067931108 0.6284124956094148
580000000.0 -0.1475643241135948 0.49193201382271196
600000000.0 -0.08496583161251851 0.5855062825410079
620000000.0 -0.19923586439266183 -0.57649965912324
640000000.0 -0.350585999912015 -0.4530020619585536
660000000.0 0.3694732950048835 0.37989022734288125
680000000.0 0.14363526049259404 0.46710054549198116
700000000.0 0.38590376882245037 0.2170737631191175
720000000.0 -0.44170537216343075 0.209911317191025
740000000.0 0.3813837244278847 0.2915292199236594
760000000.0 0.3000828901411594 0.33321621132533935
780000000.0 -0.4184675014201573 0.1019856957286027
800000000.0 -0.09614207112936131 -0.38141519542007823
820000000.0 0.25157249870520365 0.24755297820760924
840000000.0 0.02825702188350568 0.3227657444660314
860000000.0 0.2668455855973671 -0.13797983288674517
880000000.0 0.17390463938455936 0.2141955429398938
900000000.0 -0.07298995941981677 0.2579929321743505
920000000.0 0.2335235268962921 0.09530914508978788
940000000.0 0.0984022798730312 0.20169073909832635
960000000.0 -0.18338018896603397 0.0015361788917714694
980000000.0 -0.14186885947373168 -0.007783262985799939
1000000000.0 0.008656730223526423 0.13168976555135264
1020000000.0 0.06714937208367226 0.07896585079873202
1040000000.0 -0.013412573604570923 0.1126655684785993
1060000000.0 0.026926392882115572 -0.13801365361999215
1080000000.0 -0.014662535210819453 0.1910083741182132
1100000000.0 -0.018728282485940693 0.23934579710614062
1120000000.0 0.05235208879787083 -0.2736191019884999
1140000000.0 -0.2962560388380106 0.02100284772615967
1160000000.0 -0.2802926058161478 0.14389622756557569
1180000000.0 -0.3312225593366721 -0.07688513472984693
1200000000.0 -0.34214362234907236 -0.09008708529423214
1220000000.0 0.35365313988602876 0.029872407057560363
1240000000.0 0.1313591040274714 0.3528855003406661
1260000000.0 0.39406688527163686 0.011168947451149255
1280000000.0 -0.3379838875751406 -0.18448478221528777
1300000000.0 -0.11318300517273032 -0.3635807404801903
1320000000.0 -0.0848073615773162 -0.37156539647892206
1340000000.0 -0.3597505103281333 0.08461339057922647
1360000000.0 0.25206605876273663 0.2956833921815293
1380000000.0 -0.013214423539738413 0.4004460710252695
1400000000.0 -0.10053026280054816 -0.3824142801512482
1420000000.0 -0.20542756228887063 -0.33437554624975924
1440000000.0 -0.3307149390817287 -0.21824585223869594
1460000000.0 -0.38446329846617927 -0.08755178687212326
1480000000.0 -0.35593764364020214 -0.17778528931657428
1500000000.0 0.25840091822854433 0.3058822364015469
1520000000.0 -0.3865234878207594 0.051782348323008855
1540000000.0 0.3379762445204241 -0.12128670355579306
1560000000.0 -0.17837616588505983 0.2793944035142896
1580000000.0 -0.14827749589802364 -0.252473911345728
1600000000.0 0.12739758797796466 -0.22398891188892234
1620000000.0 0.007147366595660838 -0.2173787934682979
1640000000.0 -0.07410611943684607 0.1677606592964358
1660000000.0 -0.11549296739395072 0.09828165282827703
1680000000.0 0.08790591285334523 -0.06659255894613743
1700000000.0 -0.03740533687688226 -0.09590001992815989
1720000000.0 -0.015074414418277064 -0.07799881766284683
1740000000.0 0.07628083860910566 0.007952165929506518
1760000000.0 -0.08595783208199446 -0.011299054957136775
1780000000.0 0.06149374326701948 -0.10004884090872034
1800000000.0 0.12027478661554793 -0.06889613797061268
1820000000.0 -0.1415500899713137 0.09539964814058664
1840000000.0 0.0825480124145143 -0.178398230220768
1860000000.0 -0.21291431788539086 0.058786043537204756
1880000000.0 0.0011954521860164592 0.2572546436351927
1900000000.0 0.17551308515690012 0.21350792735663132
1920000000.0 0.15356870603772405 -0.25208971632904714
1940000000.0 -0.30441827423777656 -0.029400503896564095
1960000000.0 0.29975318872467277 -0.07205713187306294
1980000000.0 -0.2797707705145834 -0.14273418084365697
2000000000.0 0.12142660180156073 -0.2975177391258652
2020000000.0 0.3042398083753548 -0.10241748451094901
2040000000.0 0.31918626548863155 0.024826732758635887
2060000000.0 0.297727187085159 0.10519904560722765
2080000000.0 0.2466169084559474 0.19684256637167333
2100000000.0 -0.0940792151183088 -0.2976975621534609
2120000000.0 0.28626933994504644 0.10220799735105858
2140000000.0 -0.20276653853324905 -0.22180649609532216
2160000000.0 -0.1865517149939085 0.23051550916278107
2180000000.0 0.1584451046163573 0.24258362458114416
2200000000.0 -0.0565650021197159 0.2791701626935529
2220000000.0 -0.18312766228115268 0.2158373429171038
2240000000.0 -0.19421516774320297 -0.19826508405228876
2260000000.0 0.2207593636312476 -0.1585712969866809
2280000000.0 0.2710386054746726 -0.018659175764060884
2300000000.0 0.12904606108316843 0.2239526287096527
2320000000.0 -0.2246562250192009 -0.12237941781130793
2340000000.0 -0.08228603439559279 -0.24005881113125715
2360000000.0 0.24886197954294637 -0.04953472814188235
2380000000.0 0.038706620576290096 0.2546136956386884
2400000000.0 0.19156046977895402 0.2016547323945343
2420000000.0 -0.0970313521328038 -0.2787280380277385
2440000000.0 -0.1045761151700797 0.29618645952884887
2460000000.0 0.33698801095562486 -0.008356466333270356
2480000000.0 0.06000891959519938 -0.3663656209350188
2500000000.0 0.19192797518912208 0.3583806583619379
2520000000.0 -0.43212979995954703 -0.10442321460519603
2540000000.0 0.4456069627481344 -0.17538694845640387
2560000000.0 -0.3003905887183402 0.4130074878944261
2580000000.0 0.19179814847501642 -0.5056274132773318
2600000000.0 -0.09294343757520426 0.55904041636248
2620000000.0 -0.012779906978852335 -0.588848838419012
2640000000.0 0.24280744024998646 0.5543174079129662
2660000000.0 -0.5731876344792896 -0.23944260472813184
2680000000.0 0.3694249912343523 -0.5101857283083444
2700000000.0 0.6258350229238715 0.13169659716678264
2720000000.0 0.47106548627068767 0.438621823469666
2740000000.0 0.286844310515252 0.5783367562810473
2760000000.0 0.3401979929865318 0.5484569930539377
2780000000.0 -0.6394990332538996 -0.013131799607763247
2800000000.0 -0.5200356569819745 -0.35536371307708237
2820000000.0 0.08225963452741088 -0.6115827688449448
2840000000.0 0.487729338988407 0.35355194731528056
2860000000.0 -0.5090614264473869 -0.2926809139805173
2880000000.0 0.19956611845935443 0.533742670852587
2900000000.0 0.4638803249909639 -0.2937592760376792
2920000000.0 -0.028457099183647055 -0.5253107116967486
2940000000.0 -0.34943725396708997 -0.3610894340369225
2960000000.0 -0.24259327442345893 -0.4104766569419086
2980000000.0 -0.2816956961608805 -0.35842592059037826
3000000000.0 -0.3277703994542073 -0.2862757495731104
3020000000.0 -0.351878955055677 0.226284775383362
3040000000.0 0.1923527604170422 0.3486817906891034
3060000000.0 0.2733860315820206 -0.2620476991619854
3080000000.0 -0.3652778355405748 0.0037595494497787265
3100000000.0 0.3505324536705769 0.0252044334184347
3120000000.0 0.20590791691982727 -0.27751631018885453
3140000000.0 -0.048946581655037485 0.33717752617065594
3160000000.0 0.0244448371500557 -0.33936605891049476
3180000000.0 -0.03188818673230343 0.3351541251537212
3200000000.0 0.301935372400219 -0.13585809880832106
3220000000.0 -0.22228120829943482 -0.23568688872869661
3240000000.0 -0.24466553288492482 -0.19966500987681232
3260000000.0 -0.30500164536693725 0.0013278595043995586
3280000000.0 -0.28685985531570923 -0.062435711614274726
3300000000.0 -0.2740876171563834 -0.030180313374145566
3320000000.0 -0.17297013848396045 -0.18088340972767658
3340000000.0 0.22282908722313102 -0.0439761095375438
3360000000.0 -0.1506737344441489 0.1370354164599518
3380000000.0 0.06557306773913911 -0.17343583594969247
3400000000.0 0.15961436443657132 -0.046564597477147855
3420000000.0 0.13688127663178107 -0.04380964297569543
3440000000.0 0.019205669855811843 0.12226001340241939
3460000000.0 0.09228168004467041 0.054391063735967735
3480000000.0 0.02793207639951612 -0.08634962374366473
3500000000.0 -0.03471092805239097 0.07471390478144486
3520000000.0 -0.07286373358287693 -0.032360408420767796
3540000000.0 0.07575275882860462 0.030379859251339767
3560000000.0 0.06917150789434574 0.05508324659079039
3580000000.0 -0.05369630761006283 -0.07488655956164167
3600000000.0 -0.06896088312415795 -0.07058277269875901
3620000000.0 0.0399458740324571 0.10270811508175255
3640000000.0 0.053339240914096135 0.11200998409933952
3660000000.0 0.05159357011234546 0.12210998824574618
3680000000.0 0.0658051160351036 0.11812419392739122
3700000000.0 -0.11443640233400217 -0.0625342566561798
3720000000.0 0.05536404897686212 -0.1051223114873986
3740000000.0 -0.0782166943128482 0.06356951143994852
3760000000.0 -0.07126021602379261 0.043950025867179575
3780000000.0 0.05379543198798096 -0.03646179478121581
3800000000.0 0.0031145256547234377 0.0359642598587683
3820000000.0 0.0030241978727255964 0.0022304214547704806
3840000000.0 -0.03178963654194483 -0.007320471818046313
3860000000.0 -0.03285775610392707 -0.05188310193604566
3880000000.0 0.08500910515084348 -0.024638292644312876
3900000000.0 -0.10658126358840786 -0.021339599839461845
3920000000.0 -0.03198703657655761 0.12163830172429146
3940000000.0 0.12405046029015027 0.054299346533246244
3960000000.0 0.10948659208838474 0.08250847969947431
3980000000.0 0.037096701278374465 -0.1290503746046246
4000000000.0 -0.07648243890548058 -0.08467445862198972
