!Created with skrf (http://scikit-rf.org).
# Hz S RI R 50.0 
!freq ReS11 ImS11
400000000.0 0.7693423193753598 0.40853498723413806
420000000.0 0.24448512726884775 0.7791893649487063
440000000.0 0.3685867848310978 0.6648200515944278
460000000.0 -0.6005119132303419 -0.33307259587069094
480000000.0 -0.20961536124369515 -0.5855119665969057
500000000.0 0.606223696644768 -0.23955174906241514
520000000.0 -0.4776658908734976 0.46941439616746433
540000000.0 0.6633285270253719 -0.15232709420194906
560000000.0 -0.2748186788006837 0.6119297644806172
580000000.0 -0.25078586076682124 0.4589075633245668
600000000.0 0.00268616460172153 0.5896045397207427
620000000.0 -0.3345650767631517 -0.5141987908681133
640000000.0 -0.432977444223816 -0.3703796922501071
660000000.0 0.10254728349778011 0.5178719914292956
680000000.0 0.16223203640562622 0.4675422836824723
700000000.0 0.43795998588663393 0.09113054388272358
720000000.0 -0.3470619367638151 0.34316955194920334
740000000.0 0.22427212589590817 0.41789070265825395
760000000.0 0.22173188889045423 0.39102163452699756
780000000.0 -0.4236747162903477 -0.07699536352442513
800000000.0 0.21560207167201206 -0.3319234937921557
820000000.0 0.2846808514871646 0.20553570842821017
840000000.0 0.00797945305985729 0.3228800123820122
860000000.0 0.19623059917220745 -0.22539596589320612
880000000.0 0.1381837693760813 0.23707534070533795
900000000.0 0.03726750980545332 0.26770416922565743
920000000.0 0.22495603598297692 -0.12786169849996565
940000000.0 -0.08259880469058285 0.2061819244743729
960000000.0 -0.10438882813817794 -0.14722544396620676
980000000.0 -0.09743118973664913 -0.10957548807827597
1000000000.0 0.11474201821259734 0.06086430271120677
1020000000.0 -0.08649117171072664 -0.053861734365977756
1040000000.0 0.1110927818828879 0.0110123235820781
1060000000.0 0.08835787834748153 0.11309951704998522
1080000000.0 0.1653699003043764 0.10612800016710018
1100000000.0 0.06795493667598085 0.2316587664164108
1120000000.0 0.23089968637546301 -0.15396530111379733
1140000000.0 -0.2929782799770062 -0.06314973410702834
1160000000.0 -0.3159433407554596 0.007154143829348418
1180000000.0 -0.31162239230213706 -0.13259465596745332
1200000000.0 -0.33855390807263763 -0.09169946985114653
1220000000.0 0.3516991205580065 0.0441456793268128
1240000000.0 0.1600428507635759 0.3401784045142685
1260000000.0 0.33709774428711936 -0.20397741867257846
1280000000.0 -0.353919540068379 -0.152394361275765
1300000000.0 -0.12905711523941094 -0.3556788984582806
1320000000.0 -0.06298520428654703 -0.37687429355113894
1340000000.0 -0.36104817257387345 0.08483109477203593
1360000000.0 0.1989726006707349 0.3350354487034178
1380000000.0 -0.18679574828713563 0.35646814356511597
1400000000.0 0.01880080870911307 -0.395434166899279
1420000000.0 0.17751043322102314 -0.35037535015465576
1440000000.0 -0.18622445325019366 -0.34870047088094785
1460000000.0 -0.37085295452324457 -0.14250815131920927
1480000000.0 -0.336657431850044 -0.20657831994002007
1500000000.0 -0.045906672632703295 0.3963313662438097
1520000000.0 -0.3749610006732002 0.0989494861944117
1540000000.0 0.36150489315413303 -0.009082874335254322
1560000000.0 -0.19745741810600706 0.2616480953371166
1580000000.0 -0.20211923007253696 -0.21266302274681587
1600000000.0 -0.007502176334523212 -0.2575054573113255
1620000000.0 0.15836813922282506 -0.1488115046491257
1640000000.0 -0.182546300228926 0.030171447817824104
1660000000.0 -0.0736848222166658 0.13735745619694584
1680000000.0 0.0793597654152853 -0.08267456712428453
1700000000.0 -0.07145681030700482 -0.07228800498002111
1720000000.0 0.07040051593180692 0.04234827516356239
1740000000.0 0.07194177636860954 -0.030395866968092645
1760000000.0 0.08049068565774528 -0.03891708405644842
1780000000.0 0.08277466252635575 -0.08323641425519598
1800000000.0 0.12493267296208059 0.05885125135492998
1820000000.0 -0.1608343615554149 0.053533505461147296
1840000000.0 0.19267141268736762 -0.03098935934165788
1860000000.0 -0.2113012605703491 -0.06376724348285338
1880000000.0 -0.08122344853162698 0.2424246619065311
1900000000.0 0.0660050025300854 0.26592654139506733
1920000000.0 0.2130601536130432 -0.20053362056837368
1940000000.0 -0.3001397975443613 -0.04710094571548785
1960000000.0 0.30651008338393826 -0.04166068521131494
1980000000.0 -0.3136744936012455 -0.006031366380667598
2000000000.0 0.018841613309004468 -0.31811964001762794
2020000000.0 0.3196374841989925 0.04702643150543282
2040000000.0 0.32109269596078827 0.032412993165206926
2060000000.0 0.2945698227154004 0.1187285289840531
2080000000.0 -0.012530039585041213 0.3172056478292623
2100000000.0 0.1709860601770167 -0.2630059985111006
2120000000.0 0.1896464020124989 0.23899271531227623
2140000000.0 0.059724050567743686 -0.2946407145802436
2160000000.0 -0.29277019494553175 0.04453445482159458
2180000000.0 -0.0442806846386812 0.28280662559283515
2200000000.0 -0.21740789773054628 0.1803629213389443
2220000000.0 -0.2344342610553726 0.15548842777651944
2240000000.0 -0.23376667774349083 -0.14551917781785242
2260000000.0 0.16171933291343507 -0.2153516185619688
2280000000.0 0.25810913207772007 -0.08581766937122971
2300000000.0 0.254025383039007 0.04925476675366834
2320000000.0 -0.24792083458208583 -0.06148241943651893
2340000000.0 -0.10828699752253988 -0.23384595644620687
2360000000.0 0.09369408537112227 -0.2389268213704235
2380000000.0 0.0688292165510462 0.2495438011348703
2400000000.0 0.11514963124967828 0.25696289037692144
2420000000.0 0.13271859670194164 -0.2694741873822487
2440000000.0 -0.24990066198386565 0.19337096970353443
2460000000.0 0.2739465949064197 0.19874463376117887
2480000000.0 0.27577850190851055 -0.250521562797519
2500000000.0 0.0310054593640368 0.40601052944658544
2520000000.0 -0.34619905491736547 -0.2765346943591979
2540000000.0 0.47548462262627017 -0.031105869593235514
2560000000.0 -0.33906708946126246 0.38049834877394517
2580000000.0 0.19337262587976145 -0.5035825728527018
2600000000.0 0.0013061194847198074 0.5661394105739082
2620000000.0 -0.15285221682983302 -0.5698399281298276
2640000000.0 0.29550514186015664 0.5312001191790666
2660000000.0 -0.5809451524465973 -0.2287553709057862
2680000000.0 0.3938598372795696 -0.4975624385734863
2700000000.0 0.5852156802748167 0.26708354834464665
2720000000.0 0.24221951839226571 0.6005701063303824
2740000000.0 0.16684805417345766 0.6262165094631518
2760000000.0 0.04894143283451634 0.6452325928636035
2780000000.0 -0.5904574383923262 -0.24421501581551044
2800000000.0 -0.376152929683161 -0.5029406973735339
2820000000.0 0.21216544573839624 -0.5775922064422278
2840000000.0 0.4441432135062879 0.40495603678745873
2860000000.0 -0.48541418698434136 -0.3294760641926994
2880000000.0 0.28775297673550143 0.49140001610968115
2900000000.0 0.39674966486538016 -0.3796381246372974
2920000000.0 -0.024047272753580633 -0.5265953086353322
2940000000.0 -0.3310663482685602 -0.38129252186722334
2960000000.0 -0.2476150413264882 -0.41200548988084945
2980000000.0 -0.22295192291819227 -0.399225708119184
3000000000.0 -0.32887835918377367 -0.29296033642805064
3020000000.0 -0.42066069739139417 0.019198032600680832
3040000000.0 -0.12478878640927062 0.3810195688046412
3060000000.0 0.37486207670619576 -0.06806924372668362
3080000000.0 -0.2941822910772111 -0.21678435880370997
3100000000.0 0.2700588378319813 0.22451839388377454
3120000000.0 0.30426392649251904 -0.16100777531185625
3140000000.0 -0.2631004604226281 0.2145308131330264
3160000000.0 0.10302145395958079 -0.32107226507055736
3180000000.0 0.03729263599251883 0.3314082881560455
3200000000.0 0.3239160910023442 -0.059699414327805594
3220000000.0 -0.22354800165811836 -0.23507541171362117
3240000000.0 -0.31330463985015883 -0.036826922777706744
3260000000.0 -0.2861555797484204 0.10669473783568192
3280000000.0 -0.29453733436442503 -0.008601800991730461
3300000000.0 -0.2780980041791693 0.009038428817070716
3320000000.0 -0.15301837013982264 -0.20205899076979392
3340000000.0 0.21760219593622884 0.07327113143774656
3360000000.0 -0.19097832658353003 0.08094030988984913
3380000000.0 0.1392681245029716 -0.1277945070680452
3400000000.0 0.14011726367906022 0.09073378309641969
3420000000.0 0.05315914768950852 0.13253102363030259
3440000000.0 -0.12381995125725212 0.022918788661849123
3460000000.0 -0.06687007017395298 0.08265630627876519
3480000000.0 0.08402102971941644 0.02654837027933539
3500000000.0 -0.04440598836296649 0.06600386430437906
3520000000.0 0.014215327099129978 -0.07486467755700031
3540000000.0 0.07690739539093666 -0.014928414098098688
3560000000.0 0.027241486406896467 -0.08334075556030783
3580000000.0 -0.08059733292814221 0.04738478010820287
3600000000.0 -0.060950067739716764 0.07535134001605068
3620000000.0 0.07486459423079599 -0.08189296995805899
3640000000.0 0.12200896711132024 0.03338949123144139
3660000000.0 0.003085054958720889 0.13575336452328543
3680000000.0 0.0036505849310855187 0.140049796187401
3700000000.0 -0.1051943246424035 -0.0827822013655648
3720000000.0 0.11706797059637196 -0.022820204294213064
3740000000.0 0.05997706401415333 -0.08124434872685644
3760000000.0 0.028841117692059187 -0.07930117449233348
3780000000.0 -0.0631221065621035 -0.001982099866708515
3800000000.0 0.006285169075149424 0.033046495735753044
3820000000.0 -0.0011453208856049665 0.002226640218153811
3840000000.0 -0.0295862652097917 -0.02004207866273041
3860000000.0 0.0625975403002369 -0.02441366538986052
3880000000.0 0.05604046243223928 -0.07315590338239988
3900000000.0 -0.061979109044895085 -0.09311299559328155
3920000000.0 -0.1223587263912732 -0.03716922867626037
3940000000.0 -0.1207866325414859 0.06203283532756867
3960000000.0 -0.136536511759017 0.026782937405396
3980000000.0 0.13145925923644958 0.01864802266650924
4000000000.0 0.09271869840920281 -0.061784623325772454
