!Created with skrf (http://scikit-rf.org).
# Hz S RI R 50.0 
!freq ReS11 ImS11
400000000.0 0.867624828127345 -0.1349220762520536
420000000.0 0.7565523663027796 -0.34562454873591
440000000.0 0.5580443975326761 -0.5405964225111637
460000000.0 0.5294896099106343 0.46331664653922827
480000000.0 -0.5798799136566037 -0.0307646406141648
500000000.0 0.31322346496567927 0.5276021438220673
520000000.0 0.6149388184024044 -0.15688300042662948
540000000.0 0.11641429311005609 -0.5919256386922703
560000000.0 0.568570835301071 0.22609074724952805
580000000.0 -0.32597378181670533 0.3991509443267442
600000000.0 -0.31777839939181274 0.5113804958377876
620000000.0 -0.2018355944082186 -0.5620480576519475
640000000.0 0.5379602216782206 -0.14715560106659595
660000000.0 -0.4527436443265344 -0.2630672538893677
680000000.0 0.43817969632474174 0.2179290943616407
700000000.0 -0.17500279868150545 0.4754857518257769
720000000.0 -0.0930139346006531 0.5021816665656959
740000000.0 0.2803207776140729 0.4080749304538471
760000000.0 0.0021898154918440506 0.47578669825878595
780000000.0 -0.38830842166738255 0.25057636706356406
800000000.0 -0.3953822029243457 0.14811343722676584
820000000.0 -0.3147952457404352 -0.2123825184732135
840000000.0 0.3050143776246689 -0.1306043404247385
860000000.0 0.04112442922829011 0.30773919672107963
880000000.0 -0.24041944325122055 -0.1294865484377806
900000000.0 -0.01993417395980981 -0.2614507293404318
920000000.0 -0.2047906896384333 0.13612196784452496
940000000.0 -0.1521798597086807 0.14444215911970187
960000000.0 -0.13732671040844624 0.057803062597529806
980000000.0 -0.06280006389911785 0.11600931197365594
1000000000.0 -0.12881319388834236 -0.0048457979565011385
1020000000.0 0.04317318543755049 -0.09908584369953438
1040000000.0 -0.10704413624367122 -0.034358851857958644
1060000000.0 0.1239606318518619 0.0575470438360021
1080000000.0 0.12134754699082112 0.1343283433540106
1100000000.0 0.14696221697736453 -0.1745996240510672
1120000000.0 0.16130911773275042 -0.2145372304823824
1140000000.0 -0.19495411941647783 -0.22814182992991072
1160000000.0 -0.3245567948688636 0.04508615546643384
1180000000.0 -0.3418255885323838 0.03964525748280877
1200000000.0 -0.06867949017194128 -0.3536462786011519
1220000000.0 0.3747947335463485 0.03307915242594889
1240000000.0 0.35677771581003315 -0.15396113540096534
1260000000.0 -0.11226884179148988 -0.3837263004341891
1280000000.0 -0.05727694143242093 0.37877541333303366
1300000000.0 -0.3663950556872359 -0.01308950241464952
1320000000.0 0.17550604282069174 -0.32446040493010064
1340000000.0 -0.35647960386195665 0.07825065866359956
1360000000.0 0.36496244356739177 -0.07081657255871324
1380000000.0 -0.37638237526697726 -0.0074923139963374834
1400000000.0 -0.0016139116753494946 0.3820804340633673
1420000000.0 0.21413263148482173 0.3331109102701749
1440000000.0 -0.10092408117115215 -0.3836849931300216
1460000000.0 -0.2619470123178894 -0.30030311600825843
1480000000.0 -0.30416704756762136 -0.2669249718403375
1500000000.0 0.32057610377795703 0.23297918462356648
1520000000.0 -0.05856778214978508 -0.3798629788391662
1540000000.0 0.32188213000284305 0.16834019133311331
1560000000.0 -0.2053638621218493 0.25863915626158873
1580000000.0 -0.057793869146970114 -0.28389938576334156
1600000000.0 0.17368810893725065 -0.17746852498016635
1620000000.0 0.20336225792624937 0.02294627804801399
1640000000.0 0.11623409067064369 0.1281985267619224
1660000000.0 0.025543992758960066 -0.14535757074252723
1680000000.0 -0.08276346802222362 0.09429754899143583
1700000000.0 -0.11438479956732409 0.01637401035615394
1720000000.0 0.0021309624260896554 -0.10006841182818807
1740000000.0 -0.08094160330310456 -0.039486507877655515
1760000000.0 -0.03229336926230252 0.091675534778108
1780000000.0 0.11340418085709383 -0.036933606305001476
1800000000.0 -0.10878991979346096 0.0724958327677114
1820000000.0 0.10347462171942565 -0.11439886174250241
1840000000.0 -0.12621777004288282 -0.1388881812443933
1860000000.0 0.2006433339460096 0.07395431857161654
1880000000.0 0.1677272564645119 0.17352951645295173
1900000000.0 0.21963377053555283 0.14459592324495701
1920000000.0 0.285253400358033 -0.028680801556197677
1940000000.0 -0.21621360088902378 -0.20972358409553293
1960000000.0 0.2077866769672986 0.22779786601204252
1980000000.0 -0.19614700402094407 -0.2501089028638748
2000000000.0 0.26010575756277027 -0.1911555267212846
2020000000.0 0.32136505721108927 0.0676334268010447
2040000000.0 0.2220051770219459 0.24353495596885713
2060000000.0 0.30173155686547715 0.13897634965619834
2080000000.0 0.1686555438302628 0.2853162005747488
2100000000.0 -0.23483137231589946 -0.22633090336595896
2120000000.0 0.3150534391224111 -0.06353807882934948
2140000000.0 -0.2655000107830761 -0.17474595924266634
2160000000.0 0.1656416700607789 0.27229744443608606
2180000000.0 0.0875261499378101 -0.2952769964830618
2200000000.0 0.28176389730757 -0.10387977717955647
2220000000.0 0.13787728087508216 -0.2660741852189519
2240000000.0 0.2596923094923889 -0.12793895842363381
2260000000.0 0.1656173406795521 0.22068667292193783
2280000000.0 -0.13446527105447065 0.2280798608005175
2300000000.0 0.04083155759277758 -0.2475610637519457
2320000000.0 -0.09516815598193135 0.22484026677399369
2340000000.0 -0.002270741489036078 -0.2414769768841841
2360000000.0 -0.15528456381055777 0.18595711670214474
2380000000.0 0.06671483468272947 -0.24849754899817797
2400000000.0 -0.25415952418044896 -0.1272208837323283
2420000000.0 0.2795684566671102 0.12609429073437525
2440000000.0 -0.2055888996070465 -0.2541734656558778
2460000000.0 0.11923113911885339 0.33808810190776134
2480000000.0 0.1611120202975066 -0.3586367077647478
2500000000.0 0.33360611408729235 0.2677356041451388
2520000000.0 -0.4291014410157912 0.17644287738870235
2540000000.0 0.13645838673976862 -0.4785500850454853
2560000000.0 0.17959533528548155 0.49554092202437494
2580000000.0 -0.31807238970018425 -0.4533667251508697
2600000000.0 0.45996824907506056 0.3458260779566361
2620000000.0 -0.46872970093655825 -0.3650872703679257
2640000000.0 0.5615821987671544 0.23621395712657084
2660000000.0 -0.6016891601650315 0.15789371554002846
2680000000.0 0.07033743369740139 -0.6276121293204233
2700000000.0 0.611184484506444 -0.1901596409763199
2720000000.0 0.6104209792976831 0.20989617873060923
2740000000.0 0.601488010708906 0.24172074157194387
2760000000.0 0.5853956307886816 0.279635938756188
2780000000.0 -0.4435848009641014 0.4639315568636278
2800000000.0 -0.6097908127513949 0.1696689488939382
2820000000.0 -0.46384776901634445 -0.4126904044213474
2840000000.0 0.5725387409687686 -0.2027368434854735
2860000000.0 -0.44250735864417445 0.3935811694919376
2880000000.0 0.5679189763341345 -0.06944422870446272
2900000000.0 -0.19615553418083373 -0.5133825733297714
2920000000.0 -0.5225366189741965 -0.05769630313704701
2940000000.0 -0.4123739699455039 0.28136535199633966
2960000000.0 -0.2863021637997952 0.37413008797760655
2980000000.0 -0.281392870652289 0.34546391515165537
3000000000.0 -0.2968366054215972 0.3030949613107618
3020000000.0 -0.10373697147682281 0.38567512224036254
3040000000.0 0.11267698575898434 0.36626381774901207
3060000000.0 0.32421356287430947 -0.18252641532023708
3080000000.0 -0.35524154395764695 -0.04933396644000187
3100000000.0 0.20209431822313637 0.28522408092792584
3120000000.0 0.3017099554706835 -0.1742370112604483
3140000000.0 -0.25342568335707066 0.23348912934336533
3160000000.0 0.25692973289435095 -0.22761220336780577
3180000000.0 -0.2862408390229192 0.19358138155195995
3200000000.0 0.2760533071134631 0.19786616799507392
3220000000.0 0.1721132414127067 -0.2841766101345306
3240000000.0 0.27457948076863403 -0.17999228330398026
3260000000.0 0.15580097373138158 -0.2814798234521344
3280000000.0 -0.021041311164469133 -0.31395943456879905
3300000000.0 -0.2687288630126322 -0.13150377371455388
3320000000.0 -0.27405085426002596 0.02915299897048811
3340000000.0 -0.21949623134031884 -0.12364006949652762
3360000000.0 -0.20974227158630598 0.08416447354640155
3380000000.0 -0.1793956996772329 0.07658941481659468
3400000000.0 -0.163780637595653 0.00442191453547224
3420000000.0 -0.09380968380066555 -0.09982133290201975
3440000000.0 0.07650663704468769 -0.089686109057717
3460000000.0 0.08851958409900736 -0.025150501747933693
3480000000.0 -0.035677794969118055 -0.06715789932800866
3500000000.0 -0.03252617679896841 -0.06452074765719529
3520000000.0 -0.0280454426563546 -0.06476890973457519
3540000000.0 -0.07652065050607386 0.012265376408717853
3560000000.0 -0.08705250970419871 0.017594694762854687
3580000000.0 0.09728156344540549 -0.004912554469931618
3600000000.0 0.006721562719322847 -0.10686531613762981
3620000000.0 -0.029739951646839322 -0.11574474413627882
3640000000.0 -0.042082603922005364 -0.12481707461464926
3660000000.0 -0.1414141292215321 -0.01913245526718166
3680000000.0 -0.10774005897405488 0.10134641151125791
3700000000.0 -0.04581887546005416 0.13564737476319577
3720000000.0 -0.026523371776171922 0.12359644152091145
3740000000.0 0.10201546608833152 0.016844392872952862
3760000000.0 -0.007160619486952621 -0.07981115032559838
3780000000.0 0.03418994741173086 0.048484622605640515
3800000000.0 0.02621140842964569 0.012681832207326181
3820000000.0 0.007058439387108088 -0.005782613137392998
3840000000.0 0.031323959475736574 -0.027086384702441606
3860000000.0 0.07402399637848203 -0.02312651313702628
3880000000.0 0.06682605084773093 0.08247048119566454
3900000000.0 -0.022392752843730424 0.12868113916626844
3920000000.0 -0.1007131990605816 -0.10576795781539698
3940000000.0 0.04591621471592986 0.14806555927477863
3960000000.0 -0.015918292117139805 -0.1586132098017726
3980000000.0 0.01869921012218797 -0.1500298424783426
4000000000.0 0.11935658916973038 0.038790407194596394
