!Created with skrf (http://scikit-rf.org).
# Hz S RI R 50.0 
!freq ReS11 ImS11
400000000.0 0.7809982180135706 0.38537661327322065
420000000.0 0.2710284825409944 0.7708835084027444
440000000.0 0.4236346979978512 0.6311499976260994
460000000.0 -0.6034256340960552 -0.3245118924291376
480000000.0 -0.13412900768232025 -0.6064641778819166
500000000.0 0.6164862763097901 -0.2127301259522062
520000000.0 -0.4824106967061851 0.4647072505858087
540000000.0 0.6506904903155649 -0.20131740179608018
560000000.0 -0.15073148850009946 0.6535213376043881
580000000.0 -0.3488521294322656 0.38294788110773603
600000000.0 -0.22535715423524033 0.5479644310235499
620000000.0 -0.4335777499788784 -0.43769750543928043
640000000.0 -0.534064030400149 -0.1924760338206821
660000000.0 0.15405462163454012 0.5035423419250464
680000000.0 -0.009538145317360181 0.4907804514868739
700000000.0 0.4435255071202214 -0.09478085508749394
720000000.0 -0.37028670893901455 0.3194250045479856
740000000.0 0.3192040565858602 0.348331897063966
760000000.0 0.008392914611382595 0.44833522912335017
780000000.0 -0.4317018276611282 0.0427461879301067
800000000.0 0.07837239994915844 -0.3871927350416901
820000000.0 0.13324673155010633 0.3255749220187183
840000000.0 -0.04581708088872373 0.32071909563266277
860000000.0 0.02975859734135501 -0.2972893944679865
880000000.0 0.18246438433311613 0.2039915486628782
900000000.0 -0.13335189675573808 0.2346389943850611
920000000.0 0.20092395723509893 -0.16223057862393025
940000000.0 -0.0158116858638871 0.22237349617567154
960000000.0 -0.0712100259467211 -0.16863418417080472
980000000.0 -0.14371900344012004 -0.014574538483374313
1000000000.0 0.12410048720174328 0.03505020823581997
1020000000.0 -0.09820919301749424 -0.013027641387304105
1040000000.0 -0.11067789895367376 -0.011379160939483879
1060000000.0 0.1288761727695988 0.06882119767772919
1080000000.0 0.19602931497472306 0.009135236713362535
1100000000.0 0.2125471548836463 0.11484459469724399
1120000000.0 0.2545297501908043 -0.10607602805017724
1140000000.0 -0.2729282283413508 -0.12685556023133002
1160000000.0 -0.3172026036125496 -0.02649018410199291
1180000000.0 -0.33174928721793023 -0.0609862448145761
1200000000.0 -0.2872276653605446 -0.20126128961175024
1220000000.0 0.35431017527288783 -0.0023348416478200153
1240000000.0 0.12775269228142022 0.35392571780867815
1260000000.0 0.3283340862829957 -0.2169683717273763
1280000000.0 -0.38237204424078663 -0.049961430349791655
1300000000.0 -0.07864020403350319 -0.36998923716185855
1320000000.0 -0.06851907834192893 -0.37538378971971065
1340000000.0 -0.3674982387555232 0.048874471147293444
1360000000.0 0.2520183226031135 0.29809211239619626
1380000000.0 -0.15097257064954267 0.37187961700786254
1400000000.0 0.08247924557990417 -0.3863719910279046
1420000000.0 0.14189228217215427 -0.3677008991657739
1440000000.0 -0.2330768501458746 -0.32014910454579903
1460000000.0 -0.35163997067837865 -0.17902119569329053
1480000000.0 -0.3185935320244117 -0.2351946820740291
1500000000.0 0.06639239255633213 0.392991177346709
1520000000.0 -0.3676076057415413 -0.11872938483709455
1540000000.0 0.3503384320769155 -0.09697668930929208
1560000000.0 -0.15381878973520996 0.28905262303587226
1580000000.0 -0.148569621738616 -0.25370180372875833
1600000000.0 0.05427516314727361 -0.2515226168605693
1620000000.0 0.149072474870876 -0.1613162534672259
1640000000.0 -0.1796255597844091 0.04308464561533739
1660000000.0 -0.09280927109008055 0.12423104843472682
1680000000.0 0.09116065267845856 -0.06802059328969648
1700000000.0 -0.08235641248063966 -0.06294733827606849
1720000000.0 0.03709349777318773 -0.07154614217395508
1740000000.0 0.04288750134703925 0.06702241199139138
1760000000.0 -0.02379499700771438 -0.0872587033876083
1780000000.0 0.09174296772688005 -0.07123388455389405
1800000000.0 0.11474790172664598 0.07863798127364151
1820000000.0 -0.1285483829298633 0.10978167433942636
1840000000.0 0.1935445820621941 0.011571821582270374
1860000000.0 -0.2219054064318323 0.010136918754304284
1880000000.0 -0.07590966695256447 0.24252363627476964
1900000000.0 0.03675370836018702 0.2713743282244376
1920000000.0 0.2014867165183956 -0.21337071143204692
1940000000.0 -0.30337544853164106 0.008588304203419947
1960000000.0 0.29810056598536294 -0.0792630855078555
1980000000.0 -0.29019494266643225 -0.12053071729091462
2000000000.0 -0.010651831371593637 -0.32106773454708204
2020000000.0 0.3050467711341062 -0.09955841839096462
2040000000.0 0.30441778834571037 0.10406124788892913
2060000000.0 0.294905069710687 0.122454567139868
2080000000.0 0.05054199234205039 0.31327313705461374
2100000000.0 0.10586061118706018 -0.295998067891179
2120000000.0 0.19456303150185114 0.23441817804288595
2140000000.0 0.03479153485030234 -0.2975744024512603
2160000000.0 -0.27277989298887256 0.1158930150152309
2180000000.0 -0.019435818712867987 0.28763475713844705
2200000000.0 -0.16140697010922275 0.23220541626865454
2220000000.0 -0.18145483293032605 0.2136734857624982
2240000000.0 -0.13637079486457146 -0.24066640815534085
2260000000.0 0.07759244916260329 -0.25912901279420114
2280000000.0 0.2673218521467084 -0.04750040179424876
2300000000.0 0.25807727762778954 0.027331536162676976
2320000000.0 -0.2379181290436682 -0.09204368856431533
2340000000.0 -0.08490239421223036 -0.2443280124720192
2360000000.0 0.1304746475979481 -0.21975183246926594
2380000000.0 0.10180387691484565 0.23797476734996154
2400000000.0 0.14277837152068465 0.24207564381184982
2420000000.0 0.1735037510120219 -0.24363337200596247
2440000000.0 -0.24200342915880171 0.2046919669976081
2460000000.0 0.3118492104531271 0.1316233162287409
2480000000.0 0.24528833583648144 -0.2794516403017307
2500000000.0 -0.043403307625326744 0.404672682396817
2520000000.0 -0.3012402855060516 -0.32607273639123807
2540000000.0 0.4714342645541188 -0.07230413717603847
2560000000.0 -0.3656792029420297 0.3537277051574824
2580000000.0 0.22124384440003717 -0.49208749976287186
2600000000.0 -0.004634301678366639 0.5665190632124776
2620000000.0 -0.15344476530698622 -0.5693535990112799
2640000000.0 0.2857069884853855 0.5361697192675109
2660000000.0 -0.5848772405984064 -0.2170195463306953
2680000000.0 0.39469590375341923 -0.49604827971913595
2700000000.0 0.5735794673833357 0.2913496460192549
2720000000.0 0.27396705748588657 0.5869116939115618
2740000000.0 0.19229897714380909 0.6192573162113498
2760000000.0 0.09397964323019024 0.6402593307730836
2780000000.0 -0.5517775313093435 -0.3220242422507923
2800000000.0 -0.335979369227465 -0.53132557049384
2820000000.0 0.2429106459912939 -0.566185682554704
2840000000.0 0.4187668314010729 0.4307136697253797
2860000000.0 -0.4838741901139637 -0.33211402317938216
2880000000.0 0.2594357581148329 0.5062484016593936
2900000000.0 0.4088892659952678 -0.3667918199698437
2920000000.0 -0.015593113949246682 -0.5283630942516658
2940000000.0 -0.3861939244416048 -0.324287922127515
2960000000.0 -0.23352127468521147 -0.41924851641516836
2980000000.0 -0.27381545153677417 -0.3687490725594356
3000000000.0 -0.34472413764376303 -0.2729297225778552
3020000000.0 -0.4206656089888479 -0.0318964778990086
3040000000.0 -0.005858267757673412 0.40119927915416015
3060000000.0 0.37533979404570456 -0.06340844713920492
3080000000.0 -0.2898263031055563 -0.22274740813059282
3100000000.0 0.2877255843413984 0.2005781915628863
3120000000.0 0.3298369428498025 -0.09793760871020958
3140000000.0 -0.23772252826880996 0.24264050025746672
3160000000.0 0.08511521832745224 -0.3262805504853564
3180000000.0 0.05750396501117547 0.32925591516133035
3200000000.0 0.3011498391511813 -0.13109276834050756
3220000000.0 -0.16511268054148132 -0.2789599269496183
3240000000.0 -0.31489684780795835 0.03216282154425514
3260000000.0 -0.265701738219263 0.1515029537092477
3280000000.0 -0.29316402211668674 0.028790688388434408
3300000000.0 -0.27778079147056317 -0.012401416460486956
3320000000.0 -0.17226828854519308 -0.1870377397110249
3340000000.0 0.2265682814558387 0.042339420430635724
3360000000.0 -0.20627226191901532 0.022251077982969752
3380000000.0 0.14270728974119729 -0.12481715637902645
3400000000.0 0.12498986251741545 0.10936666908481367
3420000000.0 -0.021174085085855828 0.14198406525972582
3440000000.0 -0.10427788901928903 0.07240183158977485
3460000000.0 -0.07946331329543702 0.06937645525914092
3480000000.0 0.0826022781471519 -0.02843204867377462
3500000000.0 -0.07853750164468157 0.012837999068664351
3520000000.0 -0.05850720041920925 -0.05106283224965769
3540000000.0 0.044796182789234376 -0.06319014577276809
3560000000.0 0.0647985952816378 -0.05920835923790433
3580000000.0 -0.0603687070047784 0.07181539262917037
3600000000.0 -0.06356423267287235 0.0754000482866636
3620000000.0 0.07952925503225944 -0.07713997114050536
3640000000.0 0.1165830107611034 0.04693673040609765
3660000000.0 0.024983698347134053 0.13380562523958286
3680000000.0 0.07094454335476881 0.1218634012416894
3700000000.0 -0.0837477884342712 -0.10300495386000968
3720000000.0 0.11994358985768964 0.007813467342627091
3740000000.0 -0.06861836060838197 -0.07393507774358848
3760000000.0 0.04807764524281703 -0.0691549914288204
3780000000.0 -0.0610396048647538 -0.017167500539349286
3800000000.0 0.021463966185234187 0.026922107837843115
3820000000.0 -0.00159213145471346 -0.0009292009883647895
3840000000.0 -0.027088056175963163 0.024559238529408965
3860000000.0 -0.0109179088386076 -0.06523482006821564
3880000000.0 0.08687549040496277 -0.03031851044752524
3900000000.0 -0.10032604371281932 -0.051116238556747705
3920000000.0 -0.12635760821723577 0.018322649039368446
3940000000.0 -0.12255707897858575 0.059253173321476366
3960000000.0 -0.09698264493805735 0.1014131810139997
3980000000.0 0.12775373540643822 -0.042080089333382496
4000000000.0 0.09171483437483915 -0.06626041274928422
