!Created with skrf (http://scikit-rf.org).
# Hz S RI R 50.0 
!freq ReS11 ImS11
400000000.0 0.7659076571507303 0.4154806329712025
420000000.0 0.2956221243364763 0.7624870061645058
440000000.0 0.42583151416465576 0.6291511951887807
460000000.0 -0.5582106403389437 -0.395967827815749
480000000.0 -0.14632250997388388 -0.6026371387667128
500000000.0 0.6004459489118322 -0.26332731517562047
520000000.0 -0.4827334557518267 0.4623762889910687
540000000.0 0.6528933059295063 -0.19397196821577128
560000000.0 -0.24073511713316517 0.6233119792127049
580000000.0 -0.36246267496030427 0.37092936693474876
600000000.0 -0.2407769650795211 0.5445888878261884
620000000.0 -0.4993307204410194 -0.3591849148472016
640000000.0 -0.5259445110442392 -0.21692467733792312
660000000.0 0.22087821045432876 0.47261929068553515
680000000.0 0.0484430262350199 0.4933790142200869
700000000.0 0.4483990381971268 -0.046293035047976265
720000000.0 -0.3518007051136393 0.3431124497610926
740000000.0 0.365633261269798 0.2976094206807492
760000000.0 0.011131639404884057 0.44786085425798106
780000000.0 -0.42882744644130644 -0.014762612538857623
800000000.0 0.2635447939612619 -0.2973187170035673
820000000.0 0.34647064799726796 0.07219798457347755
840000000.0 0.042380749711497155 0.3182712763588095
860000000.0 0.24389005273661504 -0.1689498176495296
880000000.0 0.18497329383921984 0.20512781970303
900000000.0 0.1032562309300972 0.24975442683845833
920000000.0 0.22745298264772335 -0.11881572462940344
940000000.0 -0.1236510609723835 0.18839595639311826
960000000.0 -0.18251754125904626 0.0012454720404923353
980000000.0 -0.11992012099937027 0.08222548896130347
1000000000.0 0.07102284092137796 0.10700777434421847
1020000000.0 0.005989070314807077 -0.09909402230868962
1040000000.0 -0.10464248189204334 -0.046142805937349624
1060000000.0 0.06507338322410115 -0.1320165181592459
1080000000.0 0.18082769858095316 -0.0695219313362254
1100000000.0 0.15580607303827745 0.17927277573383069
1120000000.0 0.27673747105469443 -0.020901707440072238
1140000000.0 -0.30257894878514274 -0.028574205663995864
1160000000.0 -0.2758720346028078 0.15986844509998638
1180000000.0 -0.32089532767548756 -0.0969766723104241
1200000000.0 -0.2533988864041241 -0.24312807937175376
1220000000.0 0.35038189086355115 0.06045447944412049
1240000000.0 0.21914551761618667 0.3057536796175627
1260000000.0 0.352760166142738 -0.17572833109736008
1280000000.0 -0.38209052109917035 -0.026577204857757955
1300000000.0 0.02572376492097449 -0.3784562126548563
1320000000.0 -0.034313637882972606 -0.3809068555578287
1340000000.0 -0.3531480288224203 0.10738751135165227
1360000000.0 0.2125679820212673 0.32674007895430535
1380000000.0 -0.12153171441583646 0.38116114173854115
1400000000.0 0.021530070104535313 -0.39699862650382256
1420000000.0 0.07083887997319083 -0.38766682544464487
1440000000.0 -0.22407150686625577 -0.32370083560890706
1460000000.0 -0.361962143065203 -0.16161892553059334
1480000000.0 -0.3423272390633479 -0.20280622503828238
1500000000.0 -0.057905579005415604 0.3945583759466359
1520000000.0 -0.387404466451754 0.004717015318550484
1540000000.0 0.3543018637874562 -0.07077766570362264
1560000000.0 -0.2495062810090219 0.2134471974641316
1580000000.0 -0.20555000912153024 -0.20936788206786935
1600000000.0 0.021751675729279763 -0.25627195048504453
1620000000.0 0.17940773180905006 -0.12425908348978845
1640000000.0 -0.16348258845218025 0.08870694833265642
1660000000.0 -0.06904313521217503 0.13951673552953509
1680000000.0 0.11227564450894115 -0.012899876090032103
1700000000.0 -0.09330349767552239 -0.04922625984075994
1720000000.0 0.07181248388883647 -0.03561538064422162
1740000000.0 0.07721526018263594 0.021935798118400785
1760000000.0 -0.042722807135733745 -0.07947887995951221
1780000000.0 0.09594031060712328 -0.06663538487072132
1800000000.0 0.13135819868445678 -0.04998283516887941
1820000000.0 -0.16650450439979467 -0.02472234521951641
1840000000.0 0.19565981869058996 -0.015597310720527512
1860000000.0 -0.21822846586979652 -0.03287543793249067
1880000000.0 -0.05163789749305756 0.25040429212106174
1900000000.0 0.03716737375869874 0.27125952542127524
1920000000.0 0.20217433328621953 -0.2120955363596749
1940000000.0 -0.3044820732770104 -0.020833888921429587
1960000000.0 0.27583276864293393 -0.135200143084722
1980000000.0 -0.29691233527974037 -0.09890721656417695
2000000000.0 0.027068991773447303 -0.3202385686020095
2020000000.0 0.3038945260672099 -0.10413954697178417
2040000000.0 0.3212378757144516 0.025478123357331312
2060000000.0 0.30663231617235165 0.08586016750816672
2080000000.0 0.06723567348560563 0.30965609770791414
2100000000.0 0.14682795176376423 -0.2777158787520703
2120000000.0 0.24120441313240673 0.18835030098126412
2140000000.0 0.014135397942296702 -0.2999575964586589
2160000000.0 -0.2856100218087394 0.07530554876615604
2180000000.0 -0.08347855872780663 0.27557165031482594
2200000000.0 -0.1745509810236054 0.22177181715368247
2220000000.0 -0.21088935575019369 0.1862582421420526
2240000000.0 -0.23543040781796282 -0.14474133488716773
2260000000.0 0.11005262928440737 -0.2457312494200763
2280000000.0 0.2663326807047275 -0.05017482622215368
2300000000.0 0.23298593853238164 0.11832787240634433
2320000000.0 -0.24947515779391438 0.05793518540408038
2340000000.0 -0.10034662510635652 -0.23486304525993323
2360000000.0 0.2244185457954394 -0.1230775854617584
2380000000.0 0.09773305947324551 0.24143035587769549
2400000000.0 0.18444035097852463 0.2119697010793181
2420000000.0 0.06824815411032562 -0.2902007859128789
2440000000.0 -0.2595093841127213 0.18010300890815406
2460000000.0 0.2836866031063373 0.18576420812420028
2480000000.0 0.23098785692120735 -0.2932040324742781
2500000000.0 0.04793321672369391 0.4034284373686442
2520000000.0 -0.37496228389440733 -0.23589915588507857
2540000000.0 0.47655343377161385 -0.007405377127482992
2560000000.0 -0.33920359853459686 0.3810370320422191
2580000000.0 0.2030257658650932 -0.5001958366710783
2600000000.0 0.012775745419915156 0.5659915856408919
2620000000.0 -0.13777234447543704 -0.5730723716706976
2640000000.0 0.2766573601431003 0.5410330771497022
2660000000.0 -0.5825211648636911 -0.2228609208138892
2680000000.0 0.38836481285470303 -0.5012396552572228
2700000000.0 0.5860398303471062 0.26450986078226474
2720000000.0 0.30328658527387686 0.5721263554128475
2740000000.0 0.18651008350713644 0.6207869607312066
2760000000.0 0.05928546187328842 0.6447702682018406
2780000000.0 -0.5919053533093648 -0.24258778458073532
2800000000.0 -0.3916745589365431 -0.49210424767573263
2820000000.0 0.2378291396534387 -0.568540004495129
2840000000.0 0.4372303303729278 0.4130156735410223
2860000000.0 -0.5026719665133367 -0.30213527158850384
2880000000.0 0.24762038241162415 0.5131227119961476
2900000000.0 0.3923892229287054 -0.3842199269705692
2920000000.0 -0.015061930489158765 -0.52758167776631
2940000000.0 -0.3744421985059576 -0.3393061399465068
2960000000.0 -0.2531083768096946 -0.408122677355792
2980000000.0 -0.2585602804263037 -0.37699878613882193
3000000000.0 -0.32266160295958984 -0.2987904297024386
3020000000.0 -0.41628832950862155 0.06871799035660082
3040000000.0 -0.006292488612401739 0.40159314007903124
3060000000.0 0.3755369377313042 -0.06267870548209775
3080000000.0 -0.268913938015149 -0.248502736426285
3100000000.0 0.3024185192156198 0.17979289127233522
3120000000.0 0.28367790186424147 -0.19594905730556447
3140000000.0 -0.21739153376697665 0.2612757289514096
3160000000.0 0.12388521196363768 -0.3141030746076701
3180000000.0 0.06379727985937571 0.32757582672408975
3200000000.0 0.3178980922528196 -0.0847772521935129
3220000000.0 -0.26095542092132734 -0.19284241309598263
3240000000.0 -0.3139569394371602 -0.031427995924442585
3260000000.0 -0.2834241891051753 0.11473513782948347
3280000000.0 -0.2943629068815027 0.018422076183859284
3300000000.0 -0.2773895776365171 0.023284605873783087
3320000000.0 -0.19473596263650153 -0.16369800641728713
3340000000.0 0.2114216568338436 0.089766600551005
3360000000.0 -0.19894556120842152 0.06476034004968331
3380000000.0 0.08668393096774508 -0.1674779019884405
3400000000.0 0.0625334250426675 0.154767153221606
3420000000.0 0.030097578699751725 0.1403343919564639
3440000000.0 -0.10825229297470776 0.06505925875971029
3460000000.0 -0.0765212173159962 0.07325375251835724
3480000000.0 0.07651356392051678 0.042558749928635065
3500000000.0 -0.025677311670418174 0.0752461667688861
3520000000.0 -0.029079944733998553 -0.07086794452818612
3540000000.0 0.06225518595975746 -0.04522894665046641
3560000000.0 0.056129139248352805 -0.06816316710591809
3580000000.0 -0.016274355009005644 0.0919489186061376
3600000000.0 -0.050098601523600475 0.08414307979200056
3620000000.0 0.06766460109650606 -0.08918705851126016
3640000000.0 0.10257229537532196 0.07397368967001666
3660000000.0 0.03770255171815999 0.13155200940910247
3680000000.0 0.016774588824872268 0.13909386698508797
3700000000.0 -0.07691882950326741 -0.10929462681901406
3720000000.0 0.11783042129854747 -0.023652912353354403
3740000000.0 0.014522762721358837 -0.09935689350013033
3760000000.0 0.032231071619828223 -0.07795678955315953
3780000000.0 -0.0594377968791262 -0.021614488253501356
3800000000.0 0.025118105193459788 0.022631860219867517
3820000000.0 0.000799980309307604 -0.0018519263128265637
3840000000.0 -0.020069446684901078 0.030683382839355067
3860000000.0 0.03636858847983821 -0.05437833832153472
3880000000.0 0.093090176450952 0.00623713687950412
3900000000.0 -0.1067205176499687 -0.03683352680671252
3920000000.0 -0.12364177881070595 -0.025323295374653013
3940000000.0 -0.12735476515316482 0.05067835364383589
3960000000.0 -0.1359807822743587 0.035163867239337905
3980000000.0 0.11728105188745007 -0.06311409329232251
4000000000.0 0.1115015139751686 -0.01674832622446347
