!Created with skrf (http://scikit-rf.org).
# Hz S RI R 50.0 
!freq ReS11 ImS11
400000000.0 0.7833121256664485 0.3826378889655747
420000000.0 0.3208547098834058 0.7510136271330862
440000000.0 0.38620065904733436 0.6548815118126998
460000000.0 -0.6150945505175455 -0.30429014797281173
480000000.0 -0.1685348673633658 -0.5948721022687307
500000000.0 0.649175740891233 -0.09255973981168733
520000000.0 -0.4059343750259663 0.5322543512799812
540000000.0 0.6567867533694701 -0.18035297823639165
560000000.0 -0.21171467520636505 0.6363624631433897
580000000.0 -0.21355688309501458 0.4708501111267485
600000000.0 -0.35670796761769114 0.4748898194940543
620000000.0 -0.5602474230992138 -0.2571354761171262
640000000.0 -0.40413188683704904 -0.4038101913348294
660000000.0 0.4267258835604385 0.30835918421975506
680000000.0 0.19130425817749244 0.4483650508789861
700000000.0 0.30424561033849973 0.33586732319031176
720000000.0 -0.34191548229216684 0.35390038018867837
740000000.0 0.30773769451390276 0.3604387846134626
760000000.0 0.27725002136202204 0.34863866840542157
780000000.0 -0.4260537696729966 0.038079977215030085
800000000.0 0.3873774484118073 -0.08376291738164916
820000000.0 0.21018567169903718 0.28944473004358606
840000000.0 0.24459871959454316 0.2114823194485824
860000000.0 0.12874064647609526 -0.2647083919500916
880000000.0 -0.09050442372535546 0.25590933369701685
900000000.0 -0.08556117622880612 0.2590468497761392
920000000.0 0.12993569512627215 -0.22405595585455718
940000000.0 0.00719424588142874 0.22121172377154408
960000000.0 -0.1161516188943609 -0.1413772341120407
980000000.0 -0.1290701522256025 -0.07076692045880063
1000000000.0 0.12434628267395986 -0.038504693611498775
1020000000.0 -0.07047620030217884 -0.06721504831699
1040000000.0 -0.10845279798430214 0.03033817219739272
1060000000.0 0.13918087700575382 -0.04499565651415448
1080000000.0 0.19606378627882867 0.015752971649980508
1100000000.0 0.1468743164430271 0.18679009604343738
1120000000.0 0.24938098576418874 -0.118238213115298
1140000000.0 -0.26919569793245807 -0.13203098776179015
1160000000.0 -0.3113187200348944 0.07847348446367115
1180000000.0 -0.31483605296520945 -0.11812940310258686
1200000000.0 -0.30175488212025653 -0.1779079249891765
1220000000.0 0.3507593741852164 0.05429980991313008
1240000000.0 0.1860248187634872 0.32683284893557013
1260000000.0 0.39068628186898824 -0.04674234919378623
1280000000.0 -0.38645104924780743 0.017518990914170994
1300000000.0 -0.10204782214248301 -0.3621959619515261
1320000000.0 0.0035739775257455993 -0.3801919652608993
1340000000.0 -0.3519870597261676 0.11882093489494515
1360000000.0 0.27077493119642265 0.28212691747064367
1380000000.0 -0.1351147241854907 0.3765429609479169
1400000000.0 0.05553580277454089 -0.3924692642360223
1420000000.0 0.05197432943242036 -0.39094260104622147
1440000000.0 -0.257656176651767 -0.29934576383699957
1460000000.0 -0.3877732523768589 -0.08476475615624648
1480000000.0 -0.33551883052649667 -0.2128975945661057
1500000000.0 -0.007569649301769129 0.39984210318322155
1520000000.0 -0.387201889455873 0.017602243093532227
1540000000.0 0.36066239832086955 -0.01366530206778546
1560000000.0 -0.1613189618978496 0.28789802371828
1580000000.0 -0.18776330746049585 -0.22248920315226758
1600000000.0 0.043636966338464124 -0.25254410026844504
1620000000.0 0.2011153830042458 -0.08687800250409633
1640000000.0 -0.09069641003205965 0.16203915379338943
1660000000.0 -0.13236517490217556 0.07815212453904231
1680000000.0 0.11193930170740665 -0.020518411049102115
1700000000.0 -0.07741245516340868 -0.06913762241537622
1720000000.0 0.034875611906323385 -0.07120039291505753
1740000000.0 0.07600896214015286 0.02285588965822969
1760000000.0 -0.037011196238476 -0.08238485073956142
1780000000.0 0.08083496020412831 -0.08444275253272805
1800000000.0 0.13663768222159534 -0.028902988901270073
1820000000.0 -0.16841734862418692 0.007580068013776656
1840000000.0 0.19362241400050648 0.010989868101564788
1860000000.0 -0.21869750035602845 0.04548298599852054
1880000000.0 -0.03890361851191089 0.2514340830372087
1900000000.0 0.022310043687249627 0.2733282131634585
1920000000.0 0.17425188848037204 -0.2363995553900277
1940000000.0 -0.30315576079056233 0.03673196750886923
1960000000.0 0.2816638798367514 -0.12202481240176187
1980000000.0 -0.2767806967632984 -0.14594425365215297
2000000000.0 0.07722604760121499 -0.3128714182123269
2020000000.0 0.2793086795110585 -0.16031995190266132
2040000000.0 0.32137633471138555 0.0004645017500629018
2060000000.0 0.2584713013865849 0.18404640181602308
2080000000.0 0.05866410183890826 0.31147112709198865
2100000000.0 0.09577178330893901 -0.2996500569043098
2120000000.0 0.2534833892905631 0.17057277026566184
2140000000.0 -0.0528529410325484 -0.29343704094956224
2160000000.0 -0.2953428487243159 0.0028146105545343706
2180000000.0 -0.07352592920860052 0.2798534407850343
2200000000.0 -0.09592648132918123 0.267076198390621
2220000000.0 -0.09070880928721335 0.2652151175248871
2240000000.0 -0.10236664396251688 -0.2558041893792958
2260000000.0 0.16957569055558389 -0.21268215095584708
2280000000.0 0.2363455712659486 -0.13404988511674243
2300000000.0 0.2558700493299719 0.035688888541119186
2320000000.0 -0.20136146308911415 -0.1570220125400643
2340000000.0 -0.10432067813410509 -0.23635145756913595
2360000000.0 0.15384868468733365 -0.20288095172302123
2380000000.0 0.06870067596677604 0.24952362671766032
2400000000.0 0.1482669193589042 0.23743059706381417
2420000000.0 0.16707005533749217 -0.24663283502069017
2440000000.0 -0.21752443836367935 0.231694272991517
2460000000.0 0.33242233284993944 0.05656682030094109
2480000000.0 0.2606983318166808 -0.2643330910357106
2500000000.0 4.8948687508600146e-05 0.40789548737515463
2520000000.0 -0.39483549621999514 -0.20389773798312832
2540000000.0 0.46985610721828397 -0.08014499688512776
2560000000.0 -0.34890598215382845 0.3717454878396887
2580000000.0 0.21970164343011164 -0.49351510735295845
2600000000.0 -0.008351352261209909 0.566474690742099
2620000000.0 -0.11626622361008199 -0.577969729173684
2640000000.0 0.2751245750439046 0.5417575678171522
2660000000.0 -0.5807689283116034 -0.22634233007557195
2680000000.0 0.39114190704159657 -0.49777059643230676
2700000000.0 0.581057092262302 0.27381378616695273
2720000000.0 0.29276703210065785 0.5771565658039138
2740000000.0 0.21318686164158204 0.6122921832729966
2760000000.0 0.08847392734873748 0.6409852875427728
2780000000.0 -0.6042059506737462 -0.20802914172176915
2800000000.0 -0.39950954953665413 -0.48591768320169515
2820000000.0 0.1889798351289825 -0.5867974287502458
2840000000.0 0.423984431364161 0.42682925731554683
2860000000.0 -0.4870094561897455 -0.3275694429768393
2880000000.0 0.29468625585482583 0.4868183171882816
2900000000.0 0.430590599253323 -0.3389297308444773
2920000000.0 -0.01660657412369478 -0.5278196406029064
2940000000.0 -0.40936459111543155 -0.29364231562528936
2960000000.0 -0.25153002836767263 -0.4075338466842991
2980000000.0 -0.243158148957135 -0.38785285338226466
3000000000.0 -0.35517006389007544 -0.258434079856721
3020000000.0 -0.4172670368515365 0.058821799659055506
3040000000.0 0.008470508360963457 0.400937872089023
3060000000.0 0.3778387065972082 -0.04859260169135778
3080000000.0 -0.3150340572399344 -0.184724327371378
3100000000.0 0.2802046361687587 0.21213808634265427
3120000000.0 0.28053787566575666 -0.2010810026160631
3140000000.0 -0.19980407680852327 0.27415966599451064
3160000000.0 0.17512689148799535 -0.28813747048288363
3180000000.0 0.09056976879276302 0.32205589595362305
3200000000.0 0.3082797163414572 -0.11342462567730123
3220000000.0 -0.23425153309077398 -0.2238677008266682
3240000000.0 -0.3104776995308441 -0.05997674043265479
3260000000.0 -0.28144063075429554 0.12074382793063825
3280000000.0 -0.29408348647997185 -0.023035619883390895
3300000000.0 -0.27538044221826036 -0.028431877164559173
3320000000.0 -0.16941560990407337 -0.18966059876389485
3340000000.0 0.20016625757573037 0.11229744097647142
3360000000.0 -0.18995188905525698 0.08665992131002924
3380000000.0 0.10770737454621115 -0.1540462110126609
3400000000.0 0.09283925506917078 0.1377049897036999
3420000000.0 0.05714953210350008 0.13177459742648906
3440000000.0 -0.06428631322997769 0.10870292157824187
3460000000.0 0.0003832140204921624 0.105405332827283
3480000000.0 0.08679118470166998 -0.0004010120792014719
3500000000.0 -0.07450477039630905 0.029502956823681138
3520000000.0 -0.0638349350105052 -0.04512673224033957
3540000000.0 -0.005491299269351693 -0.07758504420346987
3560000000.0 0.07299233812807145 -0.04729821155750496
3580000000.0 -0.09351591354654874 0.013472433256037593
3600000000.0 -0.07292652213692061 0.0663701433108869
3620000000.0 0.06346097581612768 -0.09075981380036473
3640000000.0 0.08342336601294732 0.09394357083087206
3660000000.0 0.005029033228467662 0.13474281427755472
3680000000.0 -0.02624877856094523 0.13767652252110002
3700000000.0 -0.10779625159500132 -0.07664433534026951
3720000000.0 0.11859965559931118 -0.01809406349056159
3740000000.0 -0.07911335927542479 -0.060394212801143515
3760000000.0 0.03350630544977395 -0.07503182718384825
3780000000.0 -0.061184335426958066 -0.019939713350642034
3800000000.0 -0.03263747596018436 -0.012009847691805343
3820000000.0 0.00014558874070260918 0.0007387022826306529
3840000000.0 -0.034251491315353134 -0.012983391253013652
3860000000.0 0.004436972615167502 -0.06458292159923845
3880000000.0 0.09062894326510981 -0.009416063600105709
3900000000.0 -0.08346418244693354 -0.0741144412832902
3920000000.0 -0.12669167821852223 -0.0026424112809460116
3940000000.0 -0.029970895152285005 0.13266577468768465
3960000000.0 -0.08386249352282103 0.10983616349956173
3980000000.0 0.11879136336959235 -0.061378536640829824
4000000000.0 0.06169067003027703 -0.09539113277222666
