!Created with skrf (http://scikit-rf.org).
# Hz S RI R 50.0 
!freq ReS11 ImS11
400000000.0 0.8002759846733339 0.3511296844186066
420000000.0 0.3897579069755529 0.7192630738518573
440000000.0 0.6992816382429653 0.29717438539281055
460000000.0 -0.6736069384386877 -0.03813100559382613
480000000.0 0.40355879997738126 -0.46824347398313465
500000000.0 0.6235019690754189 -0.20874198627033874
520000000.0 -0.08180977671843653 0.6637907064230482
540000000.0 0.5587204820490252 -0.37816798364176973
560000000.0 -0.41233369074835696 0.5062290214581228
580000000.0 -0.25709277306266115 -0.4515392162849877
600000000.0 -0.5593334379708748 0.22564308155685472
620000000.0 -0.3824617988070094 -0.48661949359958856
640000000.0 -0.5342763478946935 -0.2098694551861247
660000000.0 -0.04784382691806365 0.5311632985942896
680000000.0 0.055962908436715475 0.5007367017354619
700000000.0 0.4146294819406692 -0.20488375993749303
720000000.0 0.290148999978179 0.3935846076373615
740000000.0 0.24783104623639082 0.4017898186173954
760000000.0 0.30615317761396205 0.32595946594954694
780000000.0 -0.37351800637061594 0.19914634107502446
800000000.0 -0.06676989871231007 -0.3841872021433265
820000000.0 0.16979146960291558 0.30337883400236326
840000000.0 -0.3242958966529236 0.02676212077783226
860000000.0 -0.09510821808798667 -0.28786635413361183
880000000.0 0.26496052488493255 -0.015124876413754922
900000000.0 0.009555754446892615 0.26073061238999895
920000000.0 -0.018902361500713935 0.2458562641575969
940000000.0 0.05564111852481991 -0.21804861158658562
960000000.0 0.06123950809907409 -0.18179708683552015
980000000.0 -0.13904138964388485 0.058499778167028824
1000000000.0 0.12032188200242823 0.05223573176416766
1020000000.0 -0.04992252495133213 0.08647203178657593
1040000000.0 0.06888381064859649 0.07758093875087628
1060000000.0 -0.14875741587590988 0.0012005218274835207
1080000000.0 0.18747576215208472 -0.08245765871300689
1100000000.0 0.08173491045409925 0.2214231050052617
1120000000.0 -0.23055447115597022 0.16107964335271105
1140000000.0 -0.3102149783064627 -0.009051910738573045
1160000000.0 -0.14616520331213378 0.29272987815127843
1180000000.0 -0.2988864235741892 0.16598207860844144
1200000000.0 -0.1767971900236192 0.30446179630977555
1220000000.0 0.18524916958774937 -0.30076696583335166
1240000000.0 0.31984325842918854 0.18845849344589505
1260000000.0 0.3517641717422047 -0.14240021685338972
1280000000.0 -0.14259296930989013 -0.35774079068217307
1300000000.0 -0.21457626722311982 -0.31220177083830464
1320000000.0 0.008719517469620788 -0.37437418552485685
1340000000.0 -0.3346518348669235 -0.14386268469081748
1360000000.0 -0.38328827895445977 0.05639981049453806
1380000000.0 -0.4068450678907725 -0.06626135496696116
1400000000.0 0.013777756551056201 -0.4034050572229148
1420000000.0 0.036790529268897615 -0.3942493760888085
1440000000.0 -0.28488994843498 -0.2854277288560503
1460000000.0 -0.22143331855567522 0.331906393383041
1480000000.0 -0.3926910881836757 0.013029240168413054
1500000000.0 0.2790135185399633 0.2811589445856755
1520000000.0 -0.3222371782937417 0.2071195697068256
1540000000.0 0.3063201611923722 -0.17962366177311526
1560000000.0 -0.3081971640868826 0.0977607960832054
1580000000.0 -0.04321404862642024 -0.28567628560846786
1600000000.0 0.253068979588214 -0.03610363000061836
1620000000.0 0.058561427235923495 0.21067850620496306
1640000000.0 -0.12577135553482977 -0.13610471533072482
1660000000.0 0.010756795984439326 -0.1576458776901272
1680000000.0 0.0631134531446284 0.10767339855037958
1700000000.0 -0.07282211802179392 0.08396348689459958
1720000000.0 -0.0753652236181574 0.03262951791881669
1740000000.0 -0.03789982990434736 0.05930990123795539
1760000000.0 0.06028415200171225 0.06112169321428862
1780000000.0 0.036591540867275014 0.10184038909790587
1800000000.0 -0.1347413759480525 -0.02545974926484247
1820000000.0 0.15487976333731202 -0.07375260673970738
1840000000.0 0.044641716539735 0.1978430182387475
1860000000.0 -0.21738080395963402 0.07597052605341757
1880000000.0 0.09358968263861492 0.24091131473090574
1900000000.0 0.2778749870406662 0.02326926625268453
1920000000.0 -0.11586844325240006 -0.26691001531710695
1940000000.0 -0.22537806438233107 0.20687134417965106
1960000000.0 0.050612164233641455 -0.2991129818125108
1980000000.0 -0.3046086943888494 0.04178182701591216
2000000000.0 0.13731094905082697 -0.2825325944283635
2020000000.0 0.2992292070987826 0.09297926034239153
2040000000.0 -0.09709789564959319 0.3039713528320993
2060000000.0 0.02488271334011721 0.3227530665247944
2080000000.0 0.08868693549072573 0.3058878194277068
2100000000.0 0.29324195645000567 -0.11061186453969168
2120000000.0 -0.15245021303026074 0.27050837562946145
2140000000.0 0.007712498206323522 -0.30734823586759163
2160000000.0 -0.17469275799028464 0.24398780714245058
2180000000.0 0.0017493885077227598 0.2914444741026415
2200000000.0 0.15975062949891894 0.23619741636152702
2220000000.0 0.2059938187556241 0.18804291628615935
2240000000.0 -0.260873271702381 0.059762458066506347
2260000000.0 0.16881862354742802 -0.20209531849894669
2280000000.0 0.22810444338010646 0.13420967034470796
2300000000.0 -0.16761574090338405 0.19197359069934303
2320000000.0 0.09659216288600544 -0.2423526859569458
2340000000.0 -0.045135684133492525 -0.2590576144588179
2360000000.0 0.24285303615328355 0.09754924831369988
2380000000.0 0.18337803063815258 0.20196860647644402
2400000000.0 0.07392132728369769 -0.2746455368947768
2420000000.0 -0.2218237950979962 -0.1976160026045031
2440000000.0 0.01605570684404884 0.31523262450858114
2460000000.0 0.24793052601408685 -0.2194381488861227
2480000000.0 0.31976882199634993 -0.171852680937451
2500000000.0 -0.37073446096730384 0.15194570078025751
2520000000.0 -0.04145517274839703 -0.44027492393646733
2540000000.0 0.4246882788958149 0.21835754824743392
2560000000.0 -0.49204942468341467 0.148140744524329
2580000000.0 0.10180297780519243 -0.5362820521899532
2600000000.0 0.1485074392625431 0.5500615603269711
2620000000.0 -0.282253454319839 -0.5203774844789372
2640000000.0 0.42471772666963303 0.43651621879307967
2660000000.0 -0.6214046802935544 -0.05185874893951193
2680000000.0 0.30657022223335223 -0.5537334122396336
2700000000.0 0.5824113129854162 0.26965994060917176
2720000000.0 0.25676577623491453 0.5942228063655409
2740000000.0 0.17352023765152266 0.6238499521358205
2760000000.0 -0.009856064454813459 0.6449698617644262
2780000000.0 -0.5659492549865722 -0.2948096608949014
2800000000.0 -0.37016645046181057 -0.5068466164639571
2820000000.0 0.18675838749119852 -0.5849755579548624
2840000000.0 0.4258360272892982 0.4218326496492404
2860000000.0 -0.4959269586583498 -0.3115378150388744
2880000000.0 0.2227479802002443 0.52377554071515
2900000000.0 0.4525764363189996 -0.3127174494404862
2920000000.0 -0.04295505783687706 -0.527205714450098
2940000000.0 -0.3997914426702815 -0.30763319885077295
2960000000.0 -0.21377762997526178 -0.42883933364324234
2980000000.0 -0.2227036476866021 -0.4023397982680565
3000000000.0 -0.38114463949755156 -0.22028834152408489
3020000000.0 -0.41984301952593484 0.025685074399289826
3040000000.0 -0.06980100901759978 0.3940857220759879
3060000000.0 0.3657093618140133 -0.10063802947522019
3080000000.0 -0.3084990610793523 -0.19233453419212146
3100000000.0 0.19324036670516087 0.29058949452105737
3120000000.0 0.3384383384268313 -0.06436919977905219
3140000000.0 -0.226056632746137 0.25176063266599213
3160000000.0 0.2438551346221921 -0.23349369626342717
3180000000.0 0.05372946154966202 0.3314427667354308
3200000000.0 0.2914928868562032 -0.15212667069470812
3220000000.0 -0.0770542868639656 -0.31325027468950606
3240000000.0 -0.27562003396924617 -0.1603056405062724
3260000000.0 -0.3001854537984302 0.07125940018340912
3280000000.0 -0.2787674217307582 0.09817990237376352
3300000000.0 -0.26942566371994775 0.06524695830013762
3320000000.0 -0.19803859997909004 -0.15952855705974034
3340000000.0 0.19948329652363261 -0.11390908694308353
3360000000.0 -0.13405794242342678 0.15470174657299285
3380000000.0 0.18271621084441889 0.013635636207207735
3400000000.0 -0.04556286300449553 0.15729418617182173
3420000000.0 -0.11974084820568362 -0.07943884546310623
3440000000.0 -0.05228181315665463 -0.11782255595800212
3460000000.0 -0.0723793916024543 -0.08450303061499782
3480000000.0 0.08055968500546706 0.04946114581756785
3500000000.0 0.08470496804687119 0.005207657570553155
3520000000.0 0.00708120187140926 -0.0815926536742408
3540000000.0 -0.02723859198821978 -0.06924167544868938
3560000000.0 0.05962393611716625 0.05255797852045918
3580000000.0 -0.07873683589020744 0.027747967040367503
3600000000.0 -0.023525839570656445 -0.09073451221046122
3620000000.0 -0.09917381385955165 0.0421738462167745
3640000000.0 -0.12226688081972384 -0.03823975690326542
3660000000.0 -0.13818593982590963 0.027704835236959272
3680000000.0 -0.046241509281882004 0.13924338877722822
3700000000.0 -0.1379571393546559 0.0013515679328291472
3720000000.0 0.02300024747083042 -0.12071040897652728
3740000000.0 0.06323221819076981 0.08025090071600294
3760000000.0 -0.013000122948119513 0.07966276243958204
3780000000.0 -0.028034058331637638 0.05289823772722977
3800000000.0 0.023329650900086978 0.012003634454286982
3820000000.0 -0.005852931096306309 -0.007714591125213638
3840000000.0 -0.03297919572567468 -0.01536969633528887
3860000000.0 0.009584490780434836 0.06091282324766593
3880000000.0 0.08963569822185916 0.001777705401297422
3900000000.0 -0.08298709127416207 -0.06990111134449292
3920000000.0 0.0700673027954996 -0.10195853140266058
3940000000.0 0.02346470305426249 -0.134040084975494
3960000000.0 -0.05384266819641846 -0.13235676137996014
3980000000.0 0.11874766560960984 0.0692284243439179
4000000000.0 -0.06397943421825932 -0.09623889869324322
