!Created with skrf (http://scikit-rf.org).
# Hz S RI R 50.0 
!freq ReS11 ImS11
400000000.0 0.7885262192296558 0.37015034737177477
420000000.0 0.30160423940543896 0.7587938609966285
440000000.0 0.3798885173784287 0.6581973772397419
460000000.0 -0.5757585405089205 -0.3717022432790804
480000000.0 0.0162985655958557 -0.6189756143840879
500000000.0 0.6457491429764927 -0.1049135681374543
520000000.0 -0.15312688374688438 0.6534637177807628
540000000.0 0.6064005113570665 -0.2957383698803492
560000000.0 -0.24244805094128635 0.6216187568620917
580000000.0 -0.462263121332011 0.24200401481575196
600000000.0 0.024614008349964852 0.5958445679406131
620000000.0 -0.34367790685819843 -0.506075771203808
640000000.0 -0.43828416592522734 -0.35762081486456093
660000000.0 0.3833147128558678 0.36403651111357155
680000000.0 -0.0787837202506372 0.47910551248337757
700000000.0 0.23302900364085893 0.393475640653102
720000000.0 -0.38189081969548455 0.3055441108712683
740000000.0 0.46579827998690376 0.09832083095826123
760000000.0 0.23972495903652646 0.377382320642988
780000000.0 -0.38881828557138265 -0.17740150849317574
800000000.0 0.19760681158722515 -0.3451845084472109
820000000.0 0.17263420304371066 0.3054862645225118
840000000.0 0.13885506367263806 0.29806293409255735
860000000.0 -0.033965920763611636 -0.298515534600375
880000000.0 0.26016324658436835 -0.041981149489919975
900000000.0 -0.1353679406662337 0.22978247135715033
920000000.0 0.03984041543675959 0.25668170009944463
940000000.0 0.18476554609155713 0.13831897544467148
960000000.0 -0.07684754302741799 0.16446399885373492
980000000.0 0.05850355764241153 0.12892073027834686
1000000000.0 0.0067547480750824685 0.12991775854623702
1020000000.0 0.0457998589529907 -0.09216764179864487
1040000000.0 -0.04630471055528536 -0.10186169634217766
1060000000.0 0.14645267077346938 -0.023817669696843572
1080000000.0 0.1292340686996202 -0.1444034269034116
1100000000.0 0.07387808443822438 0.2209794955418385
1120000000.0 0.27238333719008123 0.06301917770283608
1140000000.0 -0.2712159513671609 0.13659801300208316
1160000000.0 -0.26395979171994693 0.16882891328293342
1180000000.0 -0.22486073579732058 -0.2521876040899443
1200000000.0 -0.34817180261871333 -0.057395877332812574
1220000000.0 0.3459640702456981 0.08115321813759879
1240000000.0 0.18150419269726512 0.32981251221194396
1260000000.0 0.2707961770033753 -0.28462355347866014
1280000000.0 -0.35873393531221254 -0.13151140944806133
1300000000.0 0.04087767515776172 -0.37884086036289866
1320000000.0 -0.06131058737087196 -0.3770006231503699
1340000000.0 -0.3206721061540727 0.18063798556413577
1360000000.0 0.16799880257822317 0.3479417794203229
1380000000.0 -0.2536972957806872 0.30974983707740095
1400000000.0 -0.0678312333886175 -0.389684609388887
1420000000.0 0.03231298101819504 -0.39018268086698293
1440000000.0 -0.2909347950869609 -0.26699183529235965
1460000000.0 -0.39365272245988464 -0.0038158279016200294
1480000000.0 -0.12402538854867821 -0.37805746982319477
1500000000.0 0.25986490944041085 0.3079325193401707
1520000000.0 -0.36162043019917545 0.13231386411982854
1540000000.0 0.34849057454255516 0.097304076123533
1560000000.0 -0.05538140702400681 0.3264731995106273
1580000000.0 -0.17965016501458136 -0.2303323526252765
1600000000.0 0.10459590940639787 -0.23470641960675437
1620000000.0 0.20334234365228662 -0.07864354679567731
1640000000.0 -0.11468905342036255 0.14392085022873027
1660000000.0 -0.06628278321777575 0.13811531866960736
1680000000.0 0.07793947054350983 -0.08077654256038555
1700000000.0 -0.10273433616381471 0.006207387397877323
1720000000.0 0.06903456319093118 -0.03723862979028705
1740000000.0 0.07813177560280937 0.01849482219416441
1760000000.0 -0.07120401660469317 -0.052752117406618025
1780000000.0 0.07975889225085284 -0.08388408857128925
1800000000.0 0.1316945742818343 -0.04519131798681205
1820000000.0 -0.1638402613876943 0.0402224471383731
1840000000.0 0.1681513577910938 -0.1000288799841317
1860000000.0 -0.21990644684310737 0.02833417085760969
1880000000.0 0.0016953275162774084 0.2553830682957757
1900000000.0 0.08164327090212024 0.26107733779183456
1920000000.0 0.24640445044920378 -0.16631927732046478
1940000000.0 -0.2972206669443377 0.06533768110203732
1960000000.0 0.3051420919972645 -0.02905694865060934
1980000000.0 -0.24740601736602622 -0.19632205055348065
2000000000.0 -0.012632183866486924 -0.32190159775347205
2020000000.0 0.30853299922433974 -0.08064207466944247
2040000000.0 0.2598850309500383 0.18990272957388352
2060000000.0 0.31896826879396345 -0.0016155416205778361
2080000000.0 0.1700358583445917 0.26380833389643055
2100000000.0 0.1706475816659599 -0.26280688516218725
2120000000.0 0.28318283446713105 0.11861470352401972
2140000000.0 -0.1508816861194015 -0.25816865022755797
2160000000.0 -0.24681891548536036 0.1619396741210841
2180000000.0 -0.09508066150375796 0.2727417277897519
2200000000.0 -0.08801155261905609 0.27109471686852227
2220000000.0 -0.16685040397713194 0.2271733478040148
2240000000.0 -0.19339191025878388 -0.19788815445153135
2260000000.0 0.13957477523485817 -0.2322984372142996
2280000000.0 0.2721452295412152 0.009616687079763984
2300000000.0 0.20866223981459267 0.1549674999886385
2320000000.0 -0.23369116742463159 -0.10478871319676523
2340000000.0 -0.10291895015806604 -0.23320179036673194
2360000000.0 0.25415641236073533 0.0067424726756776035
2380000000.0 0.18271125737397964 0.1843383612971012
2400000000.0 0.17425479581671574 0.21701269908552384
2420000000.0 0.11418565893385434 -0.27447890206806425
2440000000.0 -0.17420973710105678 0.26504785498987776
2460000000.0 0.3356691138145329 0.030459304773925718
2480000000.0 0.21074013022323418 -0.30619692432587253
2500000000.0 0.1340201857209532 0.3860678047628289
2520000000.0 -0.42549885155652284 -0.12622410965565392
2540000000.0 0.4663519586176211 -0.10191152041866026
2560000000.0 -0.3576562992410574 0.36501250097590265
2580000000.0 0.17331179720400613 -0.5120224291795638
2600000000.0 -0.02260693843346033 0.5659830966388156
2620000000.0 -0.0866093320334236 -0.5829392034743267
2640000000.0 0.2754604862926719 0.5402898011299809
2660000000.0 -0.5774587365894958 -0.23192323625960592
2680000000.0 0.334397156443179 -0.5362563095710541
2700000000.0 0.613619348173073 0.18732724175592447
2720000000.0 0.38851287747978686 0.51611832102957
2740000000.0 0.3126218870463093 0.566501021205901
2760000000.0 0.19266245596845571 0.6172892492920832
2780000000.0 -0.6261606716503848 -0.13160028199635307
2800000000.0 -0.4580439015691082 -0.43153518684079123
2820000000.0 0.1304460285560059 -0.6023986423853862
2840000000.0 0.4434377299230829 0.4071649942520495
2860000000.0 -0.4959445407221498 -0.3147452231861246
2880000000.0 0.2800968498176131 0.4952643970701769
2900000000.0 0.4688106556916195 -0.2853191889568722
2920000000.0 0.009560760611678619 -0.5276640576093353
2940000000.0 -0.41308620439377447 -0.28566990170831164
2960000000.0 -0.20567720885212046 -0.4318455413776449
2980000000.0 -0.2933666505887512 -0.351967732999635
3000000000.0 -0.37333055727128106 -0.2286019490857456
3020000000.0 -0.410345764640426 0.085542592763171
3040000000.0 0.09180151006579698 0.3902651828242491
3060000000.0 0.35283224931654933 -0.13956274760427317
3080000000.0 -0.3475139528634615 -0.11183876625003963
3100000000.0 0.33493796435141404 0.10895449181505241
3120000000.0 0.28074221596820476 -0.2002676188170005
3140000000.0 -0.1655516753261038 0.29688228271158323
3160000000.0 0.07932636508689445 -0.32865146907061393
3180000000.0 0.07543838783225187 0.32690408111429187
3200000000.0 0.3211896781367368 -0.07273179911994064
3220000000.0 -0.19256448786125968 -0.2608686512884721
3240000000.0 -0.2836226571478369 -0.13982259608624675
3260000000.0 -0.29676391578663314 0.07278999120700476
3280000000.0 -0.29069774555985745 -0.04328818153687367
3300000000.0 -0.2701818393534313 -0.05368917833607223
3320000000.0 -0.1271737825207948 -0.21929805389272103
3340000000.0 0.22107944194221024 0.05493010507124689
3360000000.0 -0.18494170703699375 0.09316184539726806
3380000000.0 0.08522506987039015 -0.16611796461665715
3400000000.0 0.12859317309067952 0.10424841412938606
3420000000.0 0.1259033838542088 0.06765461817881266
3440000000.0 -0.034110888272152376 0.12093917505065364
3460000000.0 0.06571319174668543 0.08394364581283503
3480000000.0 0.0759655673278978 -0.04427065109237303
3500000000.0 -0.029169421598792728 0.07543607163714239
3520000000.0 0.01859277723865271 -0.07628535066132201
3540000000.0 0.05426569794359366 -0.058564410808680044
3560000000.0 0.08314179383117277 -0.02676637109416335
3580000000.0 -0.08727175140026151 -0.03157640654782469
3600000000.0 -0.09192037655184511 -0.0323940804204538
3620000000.0 0.11010686951297402 -0.01897407913920307
3640000000.0 0.10802240605687245 0.0611013103554996
3660000000.0 -0.05985586964410517 0.1188028733176538
3680000000.0 -0.01590814138310721 0.13837886351385678
3700000000.0 -0.12614688428951637 -0.041138492910361084
3720000000.0 0.07861620528062307 -0.08807317544190527
3740000000.0 -0.07626245560498121 -0.0632536679256637
3760000000.0 -0.03163781330533565 -0.07732540193769427
3780000000.0 -0.0016365170229522726 0.06441512853925639
3800000000.0 -0.03172756326922248 0.01370683122563297
3820000000.0 -0.0015595343520794815 -0.0006051079517596423
3840000000.0 0.013915467738406259 -0.03163073360640913
3860000000.0 0.004405434008901201 -0.06301293121850308
3880000000.0 0.06922663372522393 -0.05856245883468453
3900000000.0 -0.11094005521888327 -0.006394173201507584
3920000000.0 -0.10328725170654764 0.07088597387538097
3940000000.0 0.032697270943741724 0.13186086109733175
3960000000.0 -0.012690569488248806 0.13799141038798257
3980000000.0 0.10656863140763907 -0.08030837776897916
4000000000.0 -0.07769125469381724 -0.08429679754188439
