!Created with skrf (http://scikit-rf.org).
# Hz S RI R 50.0 
!freq ReS11 ImS11
400000000.0 0.8500773737566639 -0.22211212403992742
420000000.0 0.7578502106831524 -0.34012508420778764
440000000.0 0.4993441627549002 -0.587607839174863
460000000.0 0.20695700141576256 0.6658756842129147
480000000.0 0.3171051331988135 -0.5021891326595832
500000000.0 0.5827520718400808 0.22280452321653899
520000000.0 0.5447036929937743 -0.33911937312940366
540000000.0 0.05881068781984627 -0.6014113357016181
560000000.0 0.5862918906740001 0.21310691493990416
580000000.0 0.4354611616548571 0.29663421262876827
600000000.0 -0.04508531400469105 0.5957846800296138
620000000.0 -0.4163419284058655 -0.4382029896037284
640000000.0 -0.44916207776620687 -0.33184859484028567
660000000.0 -0.14970993280623196 0.49398970023478694
680000000.0 0.440594635483695 -0.1820087866837118
700000000.0 0.22377459910519412 0.4480738402982479
720000000.0 0.5028091230809452 -0.013861678438773199
740000000.0 0.4699727324950921 -0.024867859979101393
760000000.0 -0.21494860031929727 0.3997049363723363
780000000.0 -0.3121331358226668 -0.3268847406117834
800000000.0 -0.12698852767676108 -0.38671709664694665
820000000.0 0.30476330064030693 0.19887765773590793
840000000.0 -0.33143650287893067 0.0201554709523184
860000000.0 0.29058955851097273 -0.10755215263895106
880000000.0 0.2632763776647303 0.11230900336602273
900000000.0 0.20251563699582772 0.18398821048055544
920000000.0 0.01827198675531053 -0.2541019842241612
940000000.0 0.21133506534424004 -0.06312638556401104
960000000.0 0.0838896405374655 -0.14702403986739165
980000000.0 -0.053678431773689535 -0.1240111855267525
1000000000.0 0.014231710971705419 -0.1354971280211681
1020000000.0 0.04322391277029843 0.10828226160056666
1040000000.0 0.12876995379889802 -0.006317061687220745
1060000000.0 0.05699453300789856 -0.14070223026224402
1080000000.0 -0.11061863214378363 0.16848215183883453
1100000000.0 -0.19227646109268096 -0.1563201996430439
1120000000.0 -0.22747062977007443 -0.16166055948844038
1140000000.0 -0.2789745925411407 0.12835768764454927
1160000000.0 0.24590604823509704 0.22275374801778536
1180000000.0 0.10626124848780574 0.3224636013753344
1200000000.0 -0.33165064904719993 -0.12252446231211642
1220000000.0 0.3026580803641814 -0.21221382742792896
1240000000.0 0.2889225801714409 -0.244096120251671
1260000000.0 0.13094507423816673 -0.37022142887287507
1280000000.0 -0.3722312870363925 0.07237995358512653
1300000000.0 0.043233124768572245 -0.3654361852099808
1320000000.0 0.21298005261675682 -0.3105017605928752
1340000000.0 -0.3538865057039622 0.09817888089747226
1360000000.0 0.07021939670844636 0.3781569728169461
1380000000.0 -0.09213130104735373 0.383634980576765
1400000000.0 -0.04088715635639822 -0.3818887781225957
1420000000.0 0.3377723165684403 -0.17784171706903468
1440000000.0 -0.11496604303764536 -0.3704528667810569
1460000000.0 -0.2930998986837923 -0.25288311683091064
1480000000.0 -0.16670721192557977 -0.35541969553525304
1500000000.0 -0.3872529884556165 0.0650639903957148
1520000000.0 0.0162420476327095 -0.38807950052191353
1540000000.0 0.06681308756519894 0.3531726862314466
1560000000.0 -0.10576487866136955 -0.31149221232194596
1580000000.0 0.2931630495606545 0.0437366540018074
1600000000.0 0.2245141767956734 -0.135987983619832
1620000000.0 0.07848762512598167 0.19699769591719885
1640000000.0 -0.031026425579574142 0.18497510831170655
1660000000.0 0.14609655835606566 -0.06976405648378516
1680000000.0 -0.10214476085231788 0.06426466177147691
1700000000.0 0.053549112239978346 0.10448095134531585
1720000000.0 0.05375617877203229 -0.07721355202327193
1740000000.0 -0.039770254000410434 -0.07345084886623224
1760000000.0 -0.02714892426396692 0.08653280370221016
1780000000.0 -0.10074601524964179 -0.043546712618289136
1800000000.0 0.11245131397917285 0.0650197944195821
1820000000.0 0.10323976907765438 0.12187396363821304
1840000000.0 0.1013606600092061 -0.16313352387096847
1860000000.0 0.04548501404829253 0.21389336023647965
1880000000.0 0.21572619487833797 0.13071032314237221
1900000000.0 0.27316624114383287 -0.012533127104768473
1920000000.0 0.03663797881532442 -0.28984389685105905
1940000000.0 -0.3041778381677148 0.03211605295371684
1960000000.0 0.17887551793406964 -0.2534232528503486
1980000000.0 -0.3010732305157145 0.0815989980372605
2000000000.0 0.17404443419231697 -0.26885967316844234
2020000000.0 0.25540303684589893 -0.20024502640871208
2040000000.0 0.32220589436555047 0.030871197443859803
2060000000.0 0.25003991437454715 0.20388523199402672
2080000000.0 0.08139721803173558 0.31568841763535677
2100000000.0 -0.031042402394264958 -0.3227212910894533
2120000000.0 0.2327875986211018 0.21799427236298313
2140000000.0 -0.2689440769543377 -0.17296909451641818
2160000000.0 0.11937269977423919 0.2935050146764651
2180000000.0 0.27302635571210404 -0.14857027179040966
2200000000.0 0.16332416117387066 -0.2585249916962014
2220000000.0 -0.04679270199045115 -0.2937149497784873
2240000000.0 0.2855874391122178 0.048838117968081456
2260000000.0 0.03838598993210058 0.27267696219081666
2280000000.0 -0.16703813326232309 0.20893311581009016
2300000000.0 0.06626564430458673 -0.24266086115719823
2320000000.0 -0.07870736673505511 0.23233292341712428
2340000000.0 -0.030188080261673807 -0.24096029755421391
2360000000.0 0.033319978956935364 0.240812087266807
2380000000.0 -0.10280635798200331 -0.2356410379586679
2400000000.0 -0.28136099959752087 0.02612727016803229
2420000000.0 0.288197198990996 0.09830582294800505
2440000000.0 -0.249015298093148 -0.21202685754455844
2460000000.0 0.09623975586922462 0.34157773878341713
2480000000.0 0.2541417543347988 -0.2981345154553924
2500000000.0 0.28924555731057944 0.3158793480504484
2520000000.0 -0.4391369832330029 0.1486152064030959
2540000000.0 0.2124028834334007 -0.446533334123263
2560000000.0 0.056217778793286384 0.5223831544126851
2580000000.0 -0.17857246878353594 -0.5231545152930578
2600000000.0 0.30403620717964563 0.4889477831931761
2620000000.0 -0.3600089795944308 -0.47347669779556123
2640000000.0 0.4624670596176696 0.39951865868585706
2660000000.0 -0.624889143766739 0.027872196500717625
2680000000.0 0.07958868786870847 -0.6284947042090018
2700000000.0 0.6227003157210026 -0.15776209080489864
2720000000.0 0.6146092037755714 0.2041386237207877
2740000000.0 0.5571110319937445 0.333435907379993
2760000000.0 0.5425800515577551 0.35640081855490324
2780000000.0 -0.5124930504011846 0.390683517512279
2800000000.0 -0.6297188055951628 0.0805947733508475
2820000000.0 -0.39434994340155133 -0.48239935908016485
2840000000.0 0.5813421434951517 -0.18248787452318388
2860000000.0 -0.4318672270022282 0.4080913938633539
2880000000.0 0.5548711742899631 -0.14232468024958553
2900000000.0 -0.22952591740551065 -0.5016489727821266
2920000000.0 -0.5261782286621786 0.05589544087616998
2940000000.0 -0.31716468690650995 0.38480323246780823
2960000000.0 -0.35189023909380374 0.31632551423967215
2980000000.0 -0.2623174451784823 0.3628303941644163
3000000000.0 -0.16298969274688016 0.39350584829195395
3020000000.0 0.040027373334787744 0.40180091510570576
3040000000.0 0.26154287775277935 0.2825983840082748
3060000000.0 0.22847862857039877 -0.29180451541147534
3080000000.0 -0.35536676214026097 -0.04304398785623985
3100000000.0 0.22062844353727312 0.2669663337661152
3120000000.0 0.32017431084776143 -0.12846847037687753
3140000000.0 -0.32240216811542627 0.118045049047913
3160000000.0 0.33442285092816176 -0.07203147418717668
3180000000.0 -0.3384904911867904 -0.057470297394135714
3200000000.0 0.01393756462286159 0.34261556015645855
3220000000.0 0.27740695108077484 -0.1943741759309241
3240000000.0 0.057128728940503005 -0.32899289077455096
3260000000.0 -0.20646189239281562 -0.2534572998138267
3280000000.0 -0.3114080667253297 -0.05580593134649168
3300000000.0 -0.17925489462743996 0.23928088346689547
3320000000.0 -0.07329401944287395 0.261188796377834
3340000000.0 -0.2353230076919257 0.08355398888741153
3360000000.0 -0.19205568523619707 0.1118868278244845
3380000000.0 -0.057144271013592304 -0.18425767301109014
3400000000.0 0.002323053889946886 -0.1695286117136085
3420000000.0 -0.005537218565191696 -0.14223954152055326
3440000000.0 0.019624958606949214 -0.11700376941030109
3460000000.0 0.09148574554242889 0.02211742937484446
3480000000.0 -0.07220412220534425 0.028074697849796593
3500000000.0 -0.0320893907247313 -0.06547040475939676
3520000000.0 -0.04498096165828725 -0.05539065440786266
3540000000.0 0.04063715356300213 0.06600987535236717
3560000000.0 -0.04666428707713526 0.0698975603975256
3580000000.0 0.08497486067293045 0.04506326815843419
3600000000.0 0.020632564826745463 -0.10216717945288233
3620000000.0 0.12028221553451098 0.005008845865296994
3640000000.0 0.016287621037909886 -0.1338136725918827
3660000000.0 -0.11889839122553139 -0.08669494909556899
3680000000.0 0.10908904174526977 0.10499795989588959
3700000000.0 0.060658828211456045 0.13076179716921835
3720000000.0 0.12738075185109068 0.02384536301475983
3740000000.0 0.07636144586621854 -0.0684256448516006
3760000000.0 0.023235427105755563 -0.07593066308827771
3780000000.0 0.046720539032440445 0.03676929004878265
3800000000.0 -0.026791161146222226 -0.005413184677419267
3820000000.0 -0.00421786678598345 -0.01047297651680168
3840000000.0 -0.04003412741956562 0.025119657989749734
3860000000.0 -0.02390336326778496 0.07439081580016466
3880000000.0 -0.08039919130570132 -0.07081552227179046
3900000000.0 0.1272667348189193 -0.01294311475205388
3920000000.0 -0.10515863346957784 -0.09683353750476896
3940000000.0 -0.06139559376348788 0.14040838353585128
3960000000.0 0.03810285331937324 -0.15314862426783923
3980000000.0 0.13331828311252436 0.06545007489277731
4000000000.0 -0.11476257374650464 -0.05253104892257019
