!Created with skrf (http://scikit-rf.org).
# Hz S RI R 50.0 
!freq ReS11 ImS11
400000000.0 -0.846927515054529 0.1255411223066221
420000000.0 0.02581134997502358 0.8415266982807649
440000000.0 0.6744998963226991 0.4081279328447508
460000000.0 0.30503967581167973 0.651980089444644
480000000.0 -0.5769745784010409 0.30919736685264976
500000000.0 -0.5499997389879032 -0.2430184438950244
520000000.0 0.5202789619089248 -0.07712613912352655
540000000.0 0.01714169202492314 -0.4731272929904913
560000000.0 0.42256371268401544 -0.14233369513204344
580000000.0 0.010308543607929205 -0.39742245543991306
600000000.0 -0.008948920647397694 0.3603606127715994
620000000.0 -0.08172256060352003 0.3539289238095961
640000000.0 -0.1288009058284352 -0.3829588534389435
660000000.0 0.36455252931255006 0.24901168278143873
680000000.0 -0.31993606849687073 -0.31817054928472294
700000000.0 0.36682167048718917 -0.24606015159754677
720000000.0 -0.4226267908135313 0.019609250921602605
740000000.0 -0.39155574426753 -0.0018674952922723058
760000000.0 -0.3526557355766706 -0.03374084650806016
780000000.0 0.14519859578790992 0.2830220592578326
800000000.0 0.014899913082826212 0.29661836648920303
820000000.0 0.11430112597002237 -0.23599124415683895
840000000.0 -0.03311375612599814 0.21496979360838994
860000000.0 -0.013998914622062097 0.16138635025411116
880000000.0 0.012536837735008147 0.10949536084378367
900000000.0 0.00795799076342852 0.07383305190396129
920000000.0 0.015210243705507187 -0.051343425931044774
940000000.0 -0.03518859459744991 -0.03131486117732949
960000000.0 -0.012416145614429702 0.06074082977032672
980000000.0 0.019770485346361492 0.07104691847481526
1000000000.0 -0.06644594576420679 0.04772931054092709
1020000000.0 -0.06818215186836415 0.057413891542982265
1040000000.0 0.018020670295880746 -0.10675987511703405
1060000000.0 -0.013113008719494695 -0.1408682275553697
1080000000.0 -0.12986188529992893 -0.1241130950219678
1100000000.0 0.2147649608208541 -0.02246605066981453
1120000000.0 -0.10148039881311764 -0.22870965747213148
1140000000.0 -0.1998231676343463 -0.19949010708700388
1160000000.0 0.2845121127707482 -0.11143973552563455
1180000000.0 0.2751886965326751 -0.15703972484756187
1200000000.0 -0.2843468863854555 -0.16242783030764554
1220000000.0 -0.3330988803746604 -0.11120419692305629
1240000000.0 -0.10995151339537611 0.37069291239226265
1260000000.0 -0.11966183590196733 -0.3925819616024346
1280000000.0 -0.05670636833417081 0.41110612263329765
1300000000.0 0.3253069603468736 0.25692635679996956
1320000000.0 0.4071214668608707 0.07524092600937721
1340000000.0 0.4103378027991231 0.0352359687284334
1360000000.0 0.402794545153006 0.03528852167063289
1380000000.0 0.373165824633216 0.1418158428970573
1400000000.0 0.0026865932219957366 -0.3891910716898743
1420000000.0 -0.36189574220264664 0.03302855252640599
1440000000.0 -0.07834898913297438 0.3264381803981088
1460000000.0 -0.12831453908417112 0.2749231012544287
1480000000.0 0.04378846534206063 0.2842121980301348
1500000000.0 -0.26240880820447676 -0.0034603793648284877
1520000000.0 0.0284168613791595 -0.22687878862591213
1540000000.0 0.12231439486594821 -0.1302519668131248
1560000000.0 0.051547662395185524 -0.12597075027904564
1580000000.0 0.05096813549576379 -0.09592598760208677
1600000000.0 -0.07838227724165397 0.026141127647818344
1620000000.0 -0.05950409745745079 -0.0018043914280179544
1640000000.0 -0.026762410711236376 -0.018009636795239838
1660000000.0 0.0013619838212693895 -0.0019198563859330999
1680000000.0 -0.009510617918628015 -0.021456522313868666
1700000000.0 -0.004686065108918286 0.041085381473862564
1720000000.0 -0.014251882763014081 -0.048718648475513826
1740000000.0 -0.02851961440284608 0.062029530216261654
1760000000.0 0.020001811600293403 0.08484664605965674
1780000000.0 -0.06951902463672746 0.0865981794404924
1800000000.0 0.08744636400369535 -0.1168618044430832
1820000000.0 0.0408158526982817 0.17518848784858917
1840000000.0 -0.1350553943885419 -0.1705127722248055
1860000000.0 0.09393461457249196 -0.23933541290646498
1880000000.0 0.2674840399188887 0.11677847642413476
1900000000.0 -0.30919106964559073 0.08862419572115691
1920000000.0 0.3484984920853485 0.0069838914623956624
1940000000.0 -0.3080363312869144 -0.21457888881183662
1960000000.0 0.16079663389480928 0.3608761246999927
1980000000.0 0.3159255646620979 -0.26132419628661324
2000000000.0 -0.33341060271675954 -0.2551392584561141
2020000000.0 -0.40494389269652964 0.12652913728961562
2040000000.0 -0.02815991038243134 0.42781213800154994
2060000000.0 0.41334848007454855 0.10332612203869337
2080000000.0 0.14030814085093596 -0.39372432011176994
2100000000.0 -0.3278855664481997 -0.2329921187044582
2120000000.0 -0.3413139182335104 -0.17349729151564372
2140000000.0 -0.3031341281630657 -0.2078614287259282
2160000000.0 0.21942838970320916 -0.27338157640363087
2180000000.0 0.24765573206934943 -0.2250227909171776
2200000000.0 0.23527378165240875 -0.21915307836392284
2220000000.0 0.30784507643154124 0.06852198342610033
2240000000.0 0.3139881680845882 -0.06903723364481983
2260000000.0 -0.07393665178677077 -0.3211304757057084
2280000000.0 -0.2888774295551109 0.1794002725560733
2300000000.0 0.3260582609498291 0.14849185387250577
2320000000.0 -0.1353728669481538 -0.36362530267244186
2340000000.0 0.3094372965491124 0.29664667182528853
2360000000.0 -0.38021544936016166 0.2839361629878681
2380000000.0 -0.41513100863119984 -0.31864616140149676
2400000000.0 0.28092519296594104 -0.4976283510321319
2420000000.0 0.5896758923407733 0.18395680385534047
2440000000.0 -0.11074525838314037 0.6482113825136623
2460000000.0 -0.6404105329715851 -0.25364497789844126
2480000000.0 0.6421940838309403 -0.30613057123163406
2500000000.0 -0.5517101708579911 0.4693007285500103
2520000000.0 0.5419493213970534 -0.4878758439739397
2540000000.0 -0.6577223411525129 0.3103132761062158
2560000000.0 0.6992683158635228 0.1609673097271092
2580000000.0 -0.3878821613230641 -0.5824350762541172
2600000000.0 -0.00799565468479262 0.6744492911026304
2620000000.0 0.40479316627530554 0.5017139903556119
2640000000.0 -0.12189908524830749 -0.5979768439948222
2660000000.0 -0.20687128767605276 0.5352511255728849
2680000000.0 0.34952323980065164 -0.4069479966281996
2700000000.0 -0.40335002840258416 0.294298125741509
2720000000.0 0.3447406563393368 -0.3084712447840789
2740000000.0 -0.35923542889365945 0.2317823353323025
2760000000.0 0.3648087325003783 -0.1602397321490272
2780000000.0 -0.3632944227718243 0.10155941485416504
2800000000.0 0.35807211108199605 0.07535920373367076
2820000000.0 -0.35033236128035555 0.09725413998661299
2840000000.0 0.28100612673423875 -0.22560911189896057
2860000000.0 -0.26715594636507756 0.2409447088896211
2880000000.0 0.3515940326492505 0.06487775393890093
2900000000.0 0.26648770179400033 -0.2427594898227215
2920000000.0 -0.030454191527791167 -0.36576693181032943
2940000000.0 -0.29006828623449016 -0.23655026524809658
2960000000.0 -0.3738067958050171 0.03664759729203389
2980000000.0 -0.3599108629182124 -0.099088138859252
3000000000.0 0.035685389468402565 -0.36851567062909496
3020000000.0 0.32307207142362343 0.17056208119056887
3040000000.0 -0.3586403983052737 -0.02938053548410937
3060000000.0 0.34809176770243394 -0.08107370205142747
3080000000.0 -0.23437816977815945 0.26445401551244
3100000000.0 -0.17573825953547434 -0.29404164202517197
3120000000.0 0.28529118620060834 0.15861657223452463
3140000000.0 -0.26900909272616985 -0.15056889222981265
3160000000.0 -0.18081169840235203 0.22705241588077002
3180000000.0 -0.1153655641275679 -0.24499025732215565
3200000000.0 0.23737374874900832 -0.05442011759750493
3220000000.0 -0.0275685097400967 0.20923430631980736
3240000000.0 0.14934897030630995 -0.08972552781641135
3260000000.0 0.12559591786556362 0.0683481082066587
3280000000.0 -0.11764555675172052 -0.011883240402239018
3300000000.0 -0.0641966924508982 -0.07825924521379397
3320000000.0 -0.07850499344358419 0.023321450006816822
3340000000.0 0.006781511438887747 0.0627520617770212
3360000000.0 0.039081789078950435 0.02186724705913576
3380000000.0 -0.007323242863004646 -0.030906679799787173
3400000000.0 -0.01957508594789503 -0.018367780576546602
3420000000.0 0.001543202082066468 0.021554288320577444
3440000000.0 -0.02030765816871418 -0.011269452227463651
3460000000.0 -0.025904420453003427 -0.02154166687774403
3480000000.0 0.04514900128373724 -0.0026789931498409974
3500000000.0 0.053479241725631226 0.017559031648897667
3520000000.0 0.05730371043724239 -0.0414330018647769
3540000000.0 -0.04967003522700453 -0.07000183441635036
3560000000.0 -0.09274691352507776 0.03262676110284517
3580000000.0 -0.1013272809692146 0.03683205450965793
3600000000.0 -0.11498903425061863 -0.031649095881119936
3620000000.0 -0.1255796783377571 -0.030064124851859053
3640000000.0 0.029109774368822144 -0.13369798752533632
3660000000.0 0.14070404405603096 0.02354531386310176
3680000000.0 -0.13674348994000757 0.057189106141486944
3700000000.0 -0.06986762040940032 -0.1362481976310212
3720000000.0 0.05843219818116673 -0.14173221511409456
3740000000.0 -0.12143619772977432 0.09151221264320851
3760000000.0 -0.14739229959428207 -0.04394087152175844
3780000000.0 -0.0011132631072472614 -0.1603779004843736
3800000000.0 -0.13912731200954737 -0.09990195269249613
3820000000.0 0.06041379402931559 0.1723705265729161
3840000000.0 -0.13923082437019504 -0.12984269921223413
3860000000.0 0.19675398225895216 0.01655961540911808
3880000000.0 -0.11829584065794398 0.1660606400441301
3900000000.0 -0.18784389391849662 -0.09570948638709845
3920000000.0 -0.21586700371117812 -0.011558404780745773
3940000000.0 -0.1522269576894253 0.1563832463412003
3960000000.0 0.1668559357883417 0.13658832412487082
3980000000.0 0.07240278245421244 -0.19371031508893138
4000000000.0 -0.18996176862165653 0.012142068274852043
