!Created with skrf (http://scikit-rf.org).
# Hz S RI R 50.0 
!freq ReS11 ImS11
400000000.0 -0.7607207736717039 0.3393751804478006
420000000.0 0.07691087189888833 0.7473416067093227
440000000.0 -0.713710822512913 -0.16363934780932052
460000000.0 0.6793712953542627 0.009451202917883752
480000000.0 0.35032129092117853 -0.5333901387802266
500000000.0 -0.48014504855992607 -0.257699661180248
520000000.0 -0.14703644356424872 -0.4121318918077351
540000000.0 -0.3320208881563312 -0.31301835928784544
560000000.0 -0.4190431288095158 0.1873928092670632
580000000.0 0.36535103529159013 -0.16731386517376692
600000000.0 0.1617341970631997 -0.34636873563947085
620000000.0 0.05053382856559324 0.3751727270249783
640000000.0 -0.31220878712694966 -0.1787417652676846
660000000.0 -0.10295751162662271 0.33144379511184413
680000000.0 -0.18057117064091469 0.30070482417413386
700000000.0 0.210784762169945 0.2833676922947698
720000000.0 0.28987432099962746 -0.17868453735760867
740000000.0 -0.22837678117914623 0.22670401089866415
760000000.0 -0.26594217400741227 -0.17060260457231238
780000000.0 -0.07497124252941612 -0.28107854837686974
800000000.0 -0.2312242353358601 0.09340591110314296
820000000.0 -0.17070939716934025 -0.16875353667742038
840000000.0 0.028023319578349023 -0.2116129366216374
860000000.0 -0.050021390935700724 -0.18699481323225853
880000000.0 0.022328881238333664 0.19917823323820602
900000000.0 0.05900784923666812 -0.15744257242582443
920000000.0 -0.07890050482766069 0.1270773800808172
940000000.0 0.11419250473855778 0.07976112838944621
960000000.0 -0.018951056455786066 0.09943394679650745
980000000.0 -0.05010345336364323 -0.017975480858244307
1000000000.0 -0.001416657492106814 0.03694824364832634
1020000000.0 0.034141677175278946 0.04196238396105916
1040000000.0 -0.001940401764248906 -0.08669134488072974
1060000000.0 -0.014518112925803415 -0.11541330456713324
1080000000.0 -0.04640694745958443 -0.15355958945924408
1100000000.0 0.13896618103121677 -0.126403952819383
1120000000.0 0.21955870361270532 -0.03933756378761498
1140000000.0 -0.075393544865659 -0.25176506329166126
1160000000.0 0.21350703734293988 0.1864396691205305
1180000000.0 0.05103683182292747 0.30466089837055677
1200000000.0 -0.08394601834621594 0.31316139240318874
1220000000.0 0.2651772552406161 0.20098554206509353
1240000000.0 -0.30553329443292315 0.11601225350365386
1260000000.0 -0.1405253895915309 -0.30817334402167584
1280000000.0 -0.0858551238871408 -0.33542059568795607
1300000000.0 0.3472048113499659 0.03595564179108215
1320000000.0 0.08658988278576206 0.35819214988126796
1340000000.0 -0.3640839244090212 0.08996639265647213
1360000000.0 -0.2119022335767332 -0.32060965802720337
1380000000.0 0.348928974548703 0.15408898949428776
1400000000.0 -0.27947808816884 -0.2570046570561717
1420000000.0 -0.021804742653157537 0.3693191858870919
1440000000.0 0.12985801523901186 0.33301014401900497
1460000000.0 0.22093289324708085 0.28261224703101123
1480000000.0 0.05753407326219133 -0.343366925608691
1500000000.0 0.007855630844388586 0.330392138083558
1520000000.0 0.28621442189883184 -0.10164813579537567
1540000000.0 -0.13702703325881493 0.24571210253309742
1560000000.0 0.15955725049519706 -0.18240521132670115
1580000000.0 -0.1837251109481082 -0.09375423167480114
1600000000.0 0.008302705783207574 0.18512443359903502
1620000000.0 -0.04207158181631308 0.1532684593428715
1640000000.0 0.023452403809913227 -0.13298330189695964
1660000000.0 0.08397827906607692 0.07040962707763003
1680000000.0 -0.09251259426374409 0.018103016289031777
1700000000.0 -0.02917278143674869 -0.06504642216683265
1720000000.0 -0.047143889720764526 -0.019591516394000887
1740000000.0 -0.05044291589616977 0.02258288908601878
1760000000.0 0.03205777957066756 -0.05312470134760189
1780000000.0 0.05844734641599382 -0.07514794321875382
1800000000.0 -0.004308774976850678 0.12241233065417759
1820000000.0 -0.12908946208839253 -0.08727521136616213
1840000000.0 -0.19012619714028098 -0.023907032456759146
1860000000.0 0.03750847619473256 0.2183687224040576
1880000000.0 0.2137111501206088 0.10994753502712776
1900000000.0 0.25335053872474583 0.0790182756998274
1920000000.0 -0.24620879459345904 0.14151812592475096
1940000000.0 0.2570578877013578 0.15292511400627173
1960000000.0 -0.28018815177049083 0.1298864143611656
1980000000.0 -0.22560734644571467 -0.21481287211876968
2000000000.0 0.2565056775401019 -0.18284041737915874
2020000000.0 0.3101961211610588 -0.0580409882922697
2040000000.0 0.03808368931906 0.31276263412346306
2060000000.0 -0.20128978028056208 0.2420397880021852
2080000000.0 -0.2963384367723009 0.10594405917525934
2100000000.0 0.08038726775881624 0.3014365577700403
2120000000.0 -0.2939405016335199 -0.10370509530277368
2140000000.0 0.308796635524127 -0.027063428341714622
2160000000.0 -0.30109937999457154 -0.044044583681762915
2180000000.0 -0.11291794498177533 0.2728301403022799
2200000000.0 0.26463369634703376 0.11302451778814968
2220000000.0 0.16203237873115114 0.22521904011892066
2240000000.0 -0.12411344743143843 0.2431406766179568
2260000000.0 -0.23313071657829337 0.11258632462893119
2280000000.0 0.10432027202696215 -0.2293437344068509
2300000000.0 0.19583574502928752 0.1462920067469221
2320000000.0 -0.17021684091668884 -0.15891397858472658
2340000000.0 0.15538164740934776 0.1727981440719439
2360000000.0 -0.12404160358269303 -0.19531840816958596
2380000000.0 0.23758872048322818 0.03078969210514043
2400000000.0 -0.25361514576446664 -0.013415516434012086
2420000000.0 -0.21001712098709402 0.18884761848866033
2440000000.0 0.3071223397132088 -0.049128778684431225
2460000000.0 -0.23336081175908183 0.25236959081190313
2480000000.0 0.37065421174476193 0.03767438145688996
2500000000.0 -0.296049405185738 0.28398340537277017
2520000000.0 -0.21320235983624572 -0.39325115525045795
2540000000.0 0.47647164071403963 -0.09213497558435968
2560000000.0 -0.22728009219878306 0.46739109873111506
2580000000.0 -0.17562355467004606 -0.5262263935578778
2600000000.0 0.5379434024075167 0.2296675715237346
2620000000.0 -0.5683657515836601 0.21887009356860726
2640000000.0 0.32315633859882964 -0.5402875446467938
2660000000.0 0.29956367351046564 0.5716431186083262
2680000000.0 -0.6270781870925433 0.19398709666414754
2700000000.0 -0.4058871002466152 -0.5273219107117524
2720000000.0 -0.04215235365753087 -0.670304906688436
2740000000.0 0.10221999889295047 -0.6667674391713316
2760000000.0 0.05733111111817342 -0.6711611400956875
2780000000.0 0.6399727837399948 0.18887729899855335
2800000000.0 0.5978402674359913 0.27882569603642304
2820000000.0 0.2887539024554799 0.5785790454658839
2840000000.0 -0.5677430802421369 0.28277205180689485
2860000000.0 0.12565294240605596 -0.6089421525388323
2880000000.0 -0.13996307401698913 0.5888358215675716
2900000000.0 0.5288480765320283 -0.25818852793248337
2920000000.0 -0.40576706684203395 -0.401303185523905
2940000000.0 -0.5003334745607203 0.21743786825533526
2960000000.0 -0.140145742823167 0.5032194648938384
2980000000.0 0.3061791512646215 0.39935364126163386
3000000000.0 0.38106563014418887 -0.2938757359262339
3020000000.0 -0.2546984885626588 -0.3732248858269638
3040000000.0 0.041836896275636415 0.4260698007819798
3060000000.0 0.27527534342817234 -0.2900979124408845
3080000000.0 -0.24618767308678524 0.27852503160058206
3100000000.0 0.28890780231088886 -0.20558266759273433
3120000000.0 -0.18912624078974788 -0.28209849127279
3140000000.0 0.18340634507713763 0.27848437136700205
3160000000.0 -0.1690424527304504 -0.2812932861687719
3180000000.0 0.18843148626284686 0.26655579559180936
3200000000.0 -0.14864706424618632 -0.28364652271185536
3220000000.0 -0.3115941747988583 0.017098062548541168
3240000000.0 -0.15205602976719748 0.2599905952247876
3260000000.0 -0.17441301105210086 0.22305882684695894
3280000000.0 -0.019719800097103567 -0.26794530181198895
3300000000.0 0.22327969974469714 0.12356841457748619
3320000000.0 -0.1875882124657992 0.14590569815030446
3340000000.0 -0.05535257642477724 -0.2093447738592498
3360000000.0 0.06016898518231101 0.17893250775439964
3380000000.0 0.05789073111305821 -0.15115430022772172
3400000000.0 0.09520645940632856 -0.09613831821110469
3420000000.0 0.030862079538501907 0.12301340424865917
3440000000.0 -0.10883966091699594 0.048447181219293325
3460000000.0 -0.1024359128220909 -0.02853276565126406
3480000000.0 0.03816551649118642 0.08873488815686979
3500000000.0 -0.08308667578821036 -0.007196761465223448
3520000000.0 0.07124378059395678 0.00023094726952341556
3540000000.0 0.057158293270476 -0.03420716781748199
3560000000.0 0.04984877225053252 -0.04546076196221564
3580000000.0 -0.04053961024174458 0.06415735431065311
3600000000.0 0.07201357651349767 0.05006397133867896
3620000000.0 -0.10045759773026547 0.021296717067473412
3640000000.0 -0.10416166476295832 0.010792898834723251
3660000000.0 -0.10825658623754628 0.023347031607108805
3680000000.0 0.08252368417085046 0.06746238239086554
3700000000.0 0.0531147497844036 0.08670042814665418
3720000000.0 -0.08103254082822652 -0.04296356383878016
3740000000.0 -0.08429095904024501 0.009024354178601942
3760000000.0 -0.06896782598392182 -0.024790432448659503
3780000000.0 0.058406888723595445 -0.011289633079701067
3800000000.0 -0.04050074711017339 0.01491055775592712
3820000000.0 -0.04212845254630765 -0.0031086589696974593
3840000000.0 0.054506182140161626 0.017481292761335213
3860000000.0 -0.05866395180115612 -0.05291950382997503
3880000000.0 0.093950690423869 -0.015755774358134255
3900000000.0 -0.06581554837782998 0.08342728707412561
3920000000.0 -0.10670034768075665 -0.016882330952875817
3940000000.0 0.025780718990641546 0.10093742709654421
3960000000.0 0.05744525166191798 -0.08677761915975832
3980000000.0 -0.08109677804642915 0.04610057252525737
4000000000.0 0.07577133768072 0.02087064942158668
