!Created with skrf (http://scikit-rf.org).
# Hz S RI R 50.0 
!freq ReS11 ImS11
400000000.0 -0.7112814905381951 0.10972938460648933
406500000.0 -0.30528990913580234 -0.6312905920109139
413000000.0 0.6767319763250704 0.04141547802307832
419500000.0 -0.6662681941492342 -0.026787951113022134
426000000.0 0.2257536182371259 0.6174830423864993
432500000.0 -0.4511417010282199 -0.4644996062954927
439000000.0 0.6198725317395541 0.13853784367481634
445500000.0 -0.621931332911736 0.07205498793424656
452000000.0 0.5394719473376699 -0.30319227316681674
458500000.0 -0.18157842425444634 0.5949474764053706
465000000.0 -0.5037303692476496 -0.3648917466894017
471500000.0 -0.23238307184537815 -0.5742367024868013
478000000.0 -0.07544071749703182 -0.6064235855316975
484500000.0 0.22086254088890947 -0.5619461743622699
491000000.0 0.053355109238841174 -0.5876968158294247
497500000.0 -0.30286141427093694 -0.48295898700549195
504000000.0 -0.387986427849938 0.3738467631619196
510500000.0 0.05307406444325938 0.4976958366873416
517000000.0 0.42899053099373147 0.16117300254931063
523500000.0 0.1461955600957017 0.4030186403235081
530000000.0 -0.10798521027983729 0.37806481783571666
536500000.0 0.22416835816370637 0.2826243847976808
543000000.0 0.2874867346771598 0.19597867858682713
549500000.0 0.3185548695700502 0.09385438204221028
556000000.0 0.01717987648963146 -0.3063774879877666
562500000.0 0.17167106362312173 -0.23381688353093835
569000000.0 -0.1447541587645598 -0.2315102701455762
575500000.0 0.2558108203903169 0.055979264593670267
582000000.0 0.06660071785138395 -0.2486233901672634
588500000.0 0.2188327367806499 0.15116827834942986
595000000.0 -0.031161327481803044 -0.28312707125923803
601500000.0 0.07645364565892156 -0.28165390904403625
608000000.0 0.18197147000720681 -0.23069605132655593
614500000.0 -0.017488370260987818 -0.29962311285342746
621000000.0 -0.061567093706808206 -0.2924319468160132
627500000.0 0.2956186683397603 0.021725359118366067
634000000.0 -0.028798669719018632 0.30044600014871237
640500000.0 -0.28350092400881105 0.06760259875179388
647000000.0 0.29815080997820814 0.023240447011852686
653500000.0 0.18896950298590146 0.23328486362588036
660000000.0 -0.2933893214580186 -0.06273569401181403
666500000.0 0.1386397743364487 -0.26702217884645385
673000000.0 0.09678753312905732 0.28025238938721786
679500000.0 0.293771535622529 -0.08022248642994077
686000000.0 0.269562099871684 -0.12532229988872393
692500000.0 -0.28499657011637236 -0.07640071530852348
699000000.0 0.24207655174565237 -0.15805925414412825
705500000.0 -0.2915200193483974 -0.004968458887144621
712000000.0 0.2905551087574736 0.03142720070043186
718500000.0 0.13297575043695745 -0.2662769636134609
725000000.0 -0.024841615070979116 0.31005404167498013
731500000.0 0.07152772754700472 -0.3096712967190862
738000000.0 0.16516226928998742 0.2862341073383972
744500000.0 -0.3280287422337504 -0.006050623791722418
751000000.0 0.2274519149589274 0.23797526001013022
757500000.0 -0.18251652866514967 -0.28484900852978323
764000000.0 -0.19744391044068907 0.28661702483895146
770500000.0 -0.22393463983795003 -0.27650124739258464
777000000.0 -0.05554817233157651 0.3588281609538464
783500000.0 -0.146383909577521 -0.3305626224297931
790000000.0 -0.06112509184454213 0.3621442147428789
796500000.0 0.004758998413284294 -0.37037888699542554
803000000.0 -0.34088440390308444 0.12620878737973762
809500000.0 0.2834269177505913 0.22640471794908945
816000000.0 0.21648237727922526 -0.28912365558639946
822500000.0 -0.0454898823509 -0.36774649040342805
829000000.0 -0.32105845043148173 0.20699559152058467
835500000.0 -0.39405104637004484 0.007387098286873457
842000000.0 0.403232477729549 0.08090524598935676
848500000.0 -0.2563161340464529 -0.3238542930973639
855000000.0 0.17201233532235188 0.3875435239335498
861500000.0 0.1635296846805846 -0.39380347694706364
868000000.0 -0.27625338749264267 0.3346610055033785
874500000.0 0.36046056828624545 -0.2436267779376751
881000000.0 -0.30226711295769504 0.3247896709227294
887500000.0 0.1376081023286077 -0.4260205922829267
894000000.0 0.1152434968110896 0.4297046637309587
900500000.0 -0.40611068335909206 0.16535400430810185
907000000.0 -0.23680994028423835 -0.3578500166059742
913500000.0 0.40428660634646824 0.07440774278409093
920000000.0 -0.134973901447955 0.3768542273179694
926500000.0 -0.38490512645787184 -0.001740397242624966
933000000.0 -0.10214542523616892 -0.3585332700576278
939500000.0 -0.05778755010604732 -0.3568825317754964
946000000.0 -0.13644559755261773 -0.3135262993592653
952500000.0 -0.0734261095640369 -0.3121257300818526
959000000.0 -0.10744602045652037 -0.28136945959555665
965500000.0 -0.08066231109861308 -0.2716514948283673
972000000.0 0.12827549471750557 0.23505573120857037
978500000.0 -0.15397277854698296 0.2047784283371216
985000000.0 -0.2111851326286286 0.11448481394043869
991500000.0 -0.19901679167802236 -0.1103823703177766
998000000.0 0.09098564090303739 -0.19424482662080841
1004500000.0 0.1847543123925625 0.08346857438747726
1011000000.0 -0.17560318304981457 0.07771347311556318
1017500000.0 -0.044526391657429595 -0.17558892783879423
1024000000.0 0.13651738365559957 -0.09309871741014357
1030500000.0 0.11408627572710146 0.09971270638108246
1037000000.0 -0.02808002666272135 -0.13632098905976409
1043500000.0 -0.0625458170934535 -0.11323304154204289
1050000000.0 0.1170658219075809 -0.038811145136884356
1056500000.0 -0.10685866563250404 -0.04710332945525436
1063000000.0 0.105205939339716 0.03385813492282662
1069500000.0 0.09956568130581485 -0.029583531074787922
1076000000.0 0.0007184281327042565 -0.10247834761594629
1082500000.0 0.053584383529874796 -0.08376549595426923
1089000000.0 -0.07500180175464242 -0.06669264120551577
1095500000.0 0.06697097428221177 0.07433080072875961
1102000000.0 -0.10531344569210761 -0.014874220213601881
1108500000.0 0.09188912024702753 -0.06272895427471281
1115000000.0 -0.07900475037380915 -0.09006901215357642
1121500000.0 -0.045404101207472826 0.12764803317959156
1128000000.0 0.02672375510019636 -0.1484061877098521
1134500000.0 -0.015279105376113915 0.164431012629579
1141000000.0 -0.07657549902526718 -0.1672676719693649
1147500000.0 0.11331477010579484 -0.16682693578741187
1154000000.0 0.19367249996961777 0.0857833755403512
1160500000.0 0.03587009592986828 0.2173411273026482
1167000000.0 -0.2214906760175881 -0.047299572301762065
1173500000.0 0.22641263602807765 0.005894263218916297
1180000000.0 -0.2240656823974733 -0.045519325201901314
1186500000.0 0.11515721639813412 0.19707363397389807
1193000000.0 0.19408796045055962 -0.1334601654704083
1199500000.0 -0.23912009927273556 -0.0394488298268179
1206000000.0 -0.2225846326520498 0.11776235814572579
1212500000.0 0.26383277885409445 -0.03856226139594693
1219000000.0 -0.2736164400439222 0.0686928398980041
1225500000.0 0.28889623511243107 -0.018484467096475783
1232000000.0 -0.177773623728971 -0.24196009532091262
1238500000.0 -0.24913750141954896 0.18321967775649156
1245000000.0 0.20216359886117816 0.24271329487195553
1251500000.0 0.22452593976361185 -0.2342459972958238
1258000000.0 -0.21810163693660803 -0.24762983037125827
1264500000.0 -0.3155479179904389 -0.11230814438267436
1271000000.0 -0.14754382419259443 0.3092419832321322
1277500000.0 0.14819189027296012 0.3139549867223558
1284000000.0 0.3522371893891972 -0.0004716323583614212
1290500000.0 0.22723096462212142 -0.27124334398339717
1297000000.0 -0.16018034595233188 -0.3215675623766668
1303500000.0 -0.35015254769455983 0.07254217261190953
1310000000.0 -0.08140239585523659 0.34824954148833864
1316500000.0 0.3587643529711507 -0.01891771311866912
1323000000.0 -0.042789409328651225 -0.3549706584520976
1329500000.0 -0.034940420646548655 0.35305342427917136
1336000000.0 0.3188296709840875 -0.13613442309198145
1342500000.0 -0.33678760346369163 -0.05921031001488984
1349000000.0 0.1881009873024478 0.275594954749414
1355500000.0 0.3171485828430938 -0.08973756534228973
1362000000.0 -0.22477782895868129 -0.23467354390654283
1368500000.0 -0.32411025944254906 0.019828531283745496
1375000000.0 0.07353339307116838 0.3243509322748079
1381500000.0 0.2554381927891141 -0.21898763859191817
1388000000.0 -0.3290232986340312 -0.10543505836214027
1394500000.0 0.11422997931360776 0.33370590433264424
1401000000.0 0.12650804831240184 0.3369931591524905
1407500000.0 0.30572811933067723 -0.20041341340236357
1414000000.0 -0.15902001507217195 -0.33733316802782876
1420500000.0 -0.29381385829631573 0.23848854246769396
1427000000.0 -0.1316086438475614 0.35500752498592986
1433500000.0 0.060284914316830016 0.37798473544559763
1440000000.0 0.16493217989527825 0.34239604503083776
1446500000.0 0.09720584933211876 0.37218312852239965
1453000000.0 0.21563068672231145 0.31786812073994436
1459500000.0 0.25946937953022847 0.28200940697127785
1466000000.0 0.36300011561116496 -0.11777185873171499
1472500000.0 0.3168787703996428 -0.20134837819737236
1479000000.0 0.017799781976474256 -0.3672562449846654
1485500000.0 -0.26628590003355856 -0.24112103800258977
1492000000.0 -0.31432412688473776 0.14870758584720814
1498500000.0 0.1361660117883815 0.3051766742856695
1505000000.0 0.31836624562975063 0.05084815201932092
1511500000.0 0.09659053067415765 -0.29484633512821284
1518000000.0 -0.21753794522375217 -0.20476185111028017
1524500000.0 0.21296175309667498 0.19696862905140458
1531000000.0 0.16279361287595273 -0.22454675003904329
1537500000.0 -0.24658802538661903 0.11922744876338232
1544000000.0 0.2612038927542692 -0.0411222011482594
1550500000.0 -0.17756457158423988 0.1976902319297064
1557000000.0 0.0632832154777317 -0.24960418299438825
1563500000.0 -0.24621528346248053 0.06526015266242352
1570000000.0 -0.25309952851415674 0.017000959947138163
1576500000.0 0.0498504356693929 0.2509024635958009
1583000000.0 0.25224847142011003 0.06640277493211802
1589500000.0 0.16576532101082203 -0.20525986285370648
1596000000.0 -0.20678806709725936 -0.16081712973998977
1602500000.0 -0.24710982815679003 0.08448437033728107
1609000000.0 -0.23495815712512635 0.10303336305934328
1615500000.0 -0.1591495162272179 0.1905094072995227
1622000000.0 -0.05986726613439861 -0.23464934623726483
1628500000.0 0.08611730417793498 -0.2212602542392342
1635000000.0 0.22381851916346504 0.05724735798656576
1641500000.0 0.03108388347445489 0.22219842176964041
1648000000.0 -0.21943911389988646 0.004089287696883408
1654500000.0 -0.002373174840549068 -0.2134184278232416
1661000000.0 -0.10525663921909935 -0.18150436709088155
1667500000.0 -0.19761876817542098 0.040633451428302846
1674000000.0 0.11291751382469457 0.1527537560929404
1680500000.0 0.16202147047667567 -0.05740559429784231
1687000000.0 -0.05975951744977722 -0.1472174796340759
1693500000.0 -0.078261727529006 0.11888782402617327
1700000000.0 0.08838941826928426 -0.10023119363899426
1706500000.0 -0.07415367533405935 0.09543818065671801
1713000000.0 0.0018366466746306295 -0.11347492347652298
1719500000.0 -0.06300036309061856 0.09005970914383479
1726000000.0 -0.07588226872785307 -0.07721533167017389
1732500000.0 -0.016703738266327556 -0.10439816154890341
1739000000.0 0.08622875460640665 0.06582216825694341
1745500000.0 -0.08828701712020674 0.05920514286327108
1752000000.0 0.009623462669425507 -0.107875023780311
1758500000.0 -0.09117181232819165 0.05588174847992512
1765000000.0 0.10217467549784882 0.02981022388474375
1771500000.0 0.10196348981172473 0.01957904147728932
1778000000.0 0.0677597041129772 0.07587100547222725
1784500000.0 -0.01468552771093522 0.10079119165864264
1791000000.0 -0.04442197034974429 -0.08993680590638199
1797500000.0 -0.0948899004651244 0.02986697426473393
1804000000.0 -0.04068435066731289 -0.09069643495089513
1810500000.0 0.09636955302421085 0.025503566753165684
1817000000.0 0.07905659659059999 0.0556204200539865
1823500000.0 0.06197259304054046 -0.06658074632105779
1830000000.0 0.01990893751897903 -0.0788033957752681
1836500000.0 0.02648330119943837 -0.06707077453771193
1843000000.0 0.020754163144512717 0.05276293896469218
1849500000.0 -0.043213620193973665 -0.007616851168780952
1856000000.0 0.03171427106030832 0.002899781128825437
1862500000.0 -0.021589900259323565 -0.0034489431851594927
1869000000.0 0.00722420294978494 -0.01840391011475222
1875500000.0 -0.0021471465831820157 -0.01863402369793511
1882000000.0 0.0028509208762651965 0.01372361767993413
1888500000.0 -0.011124360761432334 -0.009746157400503233
1895000000.0 0.01185969479332039 -0.013444788826958418
1901500000.0 0.021230079356590395 0.004661185436335816
1908000000.0 -0.0018707620674457952 0.022116291793216485
1914500000.0 -0.024830738639488023 -7.071296796632726e-05
1921000000.0 -0.018090965584660272 -0.018348088772419478
1927500000.0 -0.021165076646235334 0.009929104639786931
1934000000.0 0.022466816720686237 0.0006907518111129452
1940500000.0 0.01629757182306404 0.00875201280822189
1947000000.0 0.00956481508849267 -0.017345724020885724
1953500000.0 -0.022580731291810246 0.006414978982813086
1960000000.0 -0.022852078231856282 -0.002234915306639017
1966500000.0 -0.012438014050683323 0.030935225089527122
1973000000.0 -0.040799780071430605 0.0012309682027702214
1979500000.0 -0.03577616004770842 -0.03812288329527082
1986000000.0 -0.0478501785181904 -0.04568817726938007
1992500000.0 -0.07323779964144872 0.024090568835247416
1999000000.0 -0.08885890543676771 -0.006428248423732228
2005500000.0 -0.09931630075922157 0.010979661971062451
2012000000.0 -0.07280291715576068 -0.08284314526380226
2018500000.0 0.022784178604771173 -0.11629875008806166
2025000000.0 0.12085439305941205 -0.044257368287796583
2031500000.0 0.113173641445778 0.06645418630115665
2038000000.0 0.04597157193011384 0.1281336032266196
2044500000.0 -0.13643989667464324 0.023593580631031716
2051000000.0 -0.1256951641478413 -0.06712170792265569
2057500000.0 -0.1345726493084483 -0.03942127254292652
2064000000.0 -0.13316284390348793 -0.044425723963303076
2070500000.0 -0.13524221421406685 0.000871946186725835
2077000000.0 0.07800672060919923 0.10306548934156974
2083500000.0 0.10018585226886137 -0.0689529500508289
2090000000.0 -0.1143287519341631 0.020366249200999036
2096500000.0 0.06625751694988792 0.08637345740325539
2103000000.0 -0.09448917813078299 0.04799638666905927
2109500000.0 -0.05078551101764274 -0.09093089626997221
2116000000.0 -0.10014730790874567 0.03977854615531856
2122500000.0 0.013672742824720288 0.1109248178572485
2129000000.0 0.11961743190671524 0.028236590470054456
2135500000.0 0.06295067016756585 -0.11374765002903786
2142000000.0 -0.03996650033378241 0.13664079719252392
2148500000.0 -0.1402861990348124 -0.062200066129473514
2155000000.0 0.11105327662410412 0.12570463545836622
2161500000.0 -0.056781494574639955 -0.17046686511710762
2168000000.0 -0.1745290819223327 0.0878210616976446
2174500000.0 -0.15012881225479252 0.14217409494555797
2181000000.0 -0.056286477267990666 0.21121366745806286
2187500000.0 0.032153126253358755 0.22908589798064583
2194000000.0 0.019502441265173562 0.24201383585827888
2200500000.0 0.023715994796043215 0.251957206923519
2207000000.0 0.24758834273822908 0.07304237251440737
2213500000.0 0.23381385904983223 0.1132537452883417
2220000000.0 0.2592568189863124 0.0025155620747582454
2226500000.0 0.20526049160796775 0.14652434012682683
2233000000.0 0.2068050407636044 0.1359495576537688
2239500000.0 -0.12866649399280441 0.20435447451201819
2246000000.0 -0.16433717093070896 0.16671574608585665
2252500000.0 -0.2188779424136509 0.05075945582138499
2259000000.0 -0.2202042286734073 -0.001433694652261263
2265500000.0 -0.19227558398585967 0.09353152160747481
2272000000.0 -0.05973906547801469 0.1982718938149111
2278500000.0 0.11054099592517615 -0.16859585431159452
2285000000.0 -0.06901077897081122 0.17979652264485355
2291500000.0 0.006064983865229425 -0.18298903134567493
2298000000.0 0.013509151233779475 0.17218589670651796
2304500000.0 -0.08641109999478502 -0.14431637993161614
2311000000.0 -0.1541278800755686 -0.017912573496847366
2317500000.0 -0.04993867235105868 0.1461424693949034
2324000000.0 -0.009177166351701809 -0.15082179491781897
2330500000.0 -0.14701444149041962 0.03692441927251764
2337000000.0 0.11311929419440628 0.10057576194196027
2343500000.0 0.0762177824693594 -0.13393437523430626
2350000000.0 -0.15538358182067116 -0.005336194651057202
2356500000.0 -0.14140957323222034 0.0720499720098432
2363000000.0 -0.013192816303546719 0.16061115417155766
2369500000.0 0.15345697629433308 0.05282510077755908
2376000000.0 0.16106921057263526 -0.018892505319426496
2382500000.0 0.1374013227078229 -0.08197676115809693
2389000000.0 0.14561117093123965 0.0653027424788669
2395500000.0 0.025731958527715912 0.1569107948849859
2402000000.0 -0.1475439132921928 0.0580987251703215
2408500000.0 -0.15374978289118682 0.044591702278449455
2415000000.0 -0.13561803256369678 0.08475067757139168
2421500000.0 -0.14759545643303104 0.05657755589057111
2428000000.0 -0.06641021484468333 0.14077010886078262
2434500000.0 0.013420526337630963 0.15173384781400065
2441000000.0 0.0027770576629055637 0.15187845208905784
2447500000.0 0.13129882882293134 0.07107002650363749
2454000000.0 0.1466403563350395 -0.02278711727269128
2460500000.0 0.14544463250828935 -0.026530320134090627
2467000000.0 0.14664550412629349 -0.01713649727234892
2473500000.0 0.13773314911392534 -0.056071486437709865
2480000000.0 0.14944840336703774 0.011297933253151454
2486500000.0 0.15217549121273388 -0.03034178497651977
2493000000.0 0.008912989944069126 0.1541048303036371
2499500000.0 0.07273132462586526 0.13879708746177494
2506000000.0 0.08873705890106853 0.13221286155143677
2512500000.0 -0.0860366470687862 -0.13367114357402224
2519000000.0 0.15539391287673668 -0.043800367251861254
2525500000.0 -0.12700699743236737 0.1042498197668079
2532000000.0 0.05434075908545787 -0.15900940037250463
2538500000.0 -0.040602775054709786 0.1634653148477418
2545000000.0 -0.11896079460439021 -0.12157275934326629
2551500000.0 0.10891737864226506 0.12946704459869535
2558000000.0 0.04528023507407123 -0.16307879967776454
2564500000.0 -0.017167384445966025 0.16576703274559038
2571000000.0 0.13529520622873964 -0.09479633289356997
2577500000.0 -0.1537596973499884 -0.03964430075526286
2584000000.0 -0.1562303496829956 0.013845193763607825
2590500000.0 0.003907585078794215 0.15273666754582366
2597000000.0 0.15239072042301344 -0.010546650153350105
2603500000.0 -0.004560840742169752 -0.14968319314035067
2610000000.0 0.007865135378128827 0.14898785254229252
2616500000.0 -0.010299689955489492 -0.1439426681415696
2623000000.0 0.08177757017578863 0.11316185674890786
2629500000.0 -0.10581423666755008 -0.07676900572683952
2636000000.0 0.11821380173698394 -0.034814201370463885
2642500000.0 -0.10628224473063795 0.03872048652278634
2649000000.0 -0.09618026113452442 -0.044916556329287295
2655500000.0 0.0960610164125239 0.005308361800524978
2662000000.0 0.07571213058211858 -0.050668621633513954
2668500000.0 0.045057267108307875 -0.07383663343782249
2675000000.0 -0.03514760477580371 0.07641651148241276
2681500000.0 -0.05403107397363016 0.06216778324670912
2688000000.0 -0.05377257714483327 0.06331939782507118
2694500000.0 0.07508003106749359 0.041370002126144015
2701000000.0 -0.04967678711814471 0.07250435044932971
2707500000.0 -0.09682295434207153 -0.006620925331170665
2714000000.0 0.09722514571092432 -0.03864731342940815
2720500000.0 -0.0005419213652148822 -0.11678664248328084
2727000000.0 -0.12577679174159745 0.021924237420918757
2733500000.0 -0.06672203063451922 -0.12438460018300097
2740000000.0 -0.12529095400700702 -0.0926395505881929
2746500000.0 0.039334321089066655 -0.16272608891198173
2753000000.0 0.17998315833099807 -0.03041440159536058
2759500000.0 0.16104834473986954 0.10597666731337688
2766000000.0 -0.155155205741769 0.13038474690586316
2772500000.0 -0.09131892849148553 -0.19073080250166352
2779000000.0 0.12477824580504186 0.17977370236311685
2785500000.0 -0.20180971713546353 -0.10006082203904344
2792000000.0 0.21873521633463563 0.07967691726207929
2798500000.0 -0.20634035023003172 0.12313262919839406
2805000000.0 0.19537310749512035 -0.14943625672082875
