!Created with skrf (http://scikit-rf.org).
# Hz S RI R 50.0 
!freq ReS11 ImS11
400000000.0 -0.7142706986332454 0.08862571748138652
406500000.0 -0.311507571958399 -0.6281745669536993
413000000.0 0.67620250509714 0.04892528060397671
419500000.0 -0.6660779502498158 -0.032936907562291784
426000000.0 0.22810258062497987 0.6168188634500746
432500000.0 -0.4457621072555477 -0.47017653613021093
439000000.0 0.6247431518017157 0.11648599208594859
445500000.0 -0.6245295579364517 0.04886592408313519
452000000.0 0.5437217236129607 -0.2963964975148985
458500000.0 -0.20037094140813552 0.5893079805485918
465000000.0 -0.489808104898918 -0.3841111146066759
471500000.0 -0.21100720251283878 -0.5828899427911817
478000000.0 -0.04944886406536768 -0.6095108762063487
484500000.0 0.2377338683464937 -0.5555099680023696
491000000.0 0.09573682512934764 -0.5827637929458228
497500000.0 -0.2889152848019455 -0.4913987759157554
504000000.0 -0.405835003976115 0.35453560817280233
510500000.0 0.03220494406561399 0.4992216775196872
517000000.0 0.42879059785383594 0.16086991279454158
523500000.0 0.1503548839063374 0.4015013827920929
530000000.0 -0.11233040512073199 0.37651870411407234
536500000.0 0.23876197041576377 0.2701989535264099
543000000.0 0.2997167204331303 0.1770177006486111
549500000.0 0.3220260485905085 0.08165392589940312
556000000.0 0.006429749170797475 -0.307102194850652
562500000.0 0.18415938285924377 -0.22455557007467483
569000000.0 -0.1361274179223561 -0.23683029278784373
575500000.0 0.2570511173188478 0.05174444264063694
582000000.0 0.08937434976401329 -0.24197200342157324
588500000.0 0.2017498209646217 0.17352553088977057
595000000.0 -0.02477629402799159 -0.283983499954699
601500000.0 0.1009139055543235 -0.2739753840470433
608000000.0 0.2175098430321149 -0.1978285214039226
614500000.0 0.0273530403346542 -0.29861718140981397
621000000.0 -0.05850555445960455 -0.29293730247332794
627500000.0 0.29459809734869263 0.029971219638705575
634000000.0 -0.068998390587845 0.2936560827205686
640500000.0 -0.2894854560145337 0.032935591044244816
647000000.0 0.2971132286408333 0.029846859721376278
653500000.0 0.1981493835002983 0.22518367765295413
660000000.0 -0.2941423005180296 -0.05863545308302254
666500000.0 0.1375254026672957 -0.2671214395256553
673000000.0 0.12324966589515578 0.2693809614150285
679500000.0 0.28955165119047027 -0.09523969029859485
686000000.0 0.27019616004197783 -0.12482917398639044
692500000.0 -0.2886517726313379 -0.06159625896836809
699000000.0 0.24006669734665587 -0.16151866935409198
705500000.0 -0.29166521254061795 -0.00705838508136153
712000000.0 0.2907150058327385 0.032870869462101625
718500000.0 0.13182179889417556 -0.26728590859498497
725000000.0 -0.052185788010748704 0.3068569290790196
731500000.0 0.09245554395539045 -0.3041611439655067
738000000.0 0.15316462252523314 0.2931524656128455
744500000.0 -0.32625091838014575 -0.03633492785476107
751000000.0 0.25191185474324584 0.21296755335813908
757500000.0 -0.1362913051305892 -0.3097004379425654
764000000.0 -0.2060200832130134 0.2807890529575372
770500000.0 -0.2073344751860942 -0.28906507440780643
777000000.0 -0.10417849674848524 0.3479219668585586
783500000.0 -0.10199515384551927 -0.346681854382486
790000000.0 -0.10426292992648857 0.35199870253680204
796500000.0 -0.002916714959550094 -0.3702393356699826
803000000.0 -0.3411563637598895 0.1250491928061975
809500000.0 0.28132191238529103 0.2287109481860093
816000000.0 0.21295648196296998 -0.29149766600682164
822500000.0 -0.04342292724638397 -0.3679598802997562
829000000.0 -0.3326298786286404 0.18718790463117013
835500000.0 -0.3939748851479125 0.0033747088516167
842000000.0 0.40102480191238243 0.09093293617291948
848500000.0 -0.23616397722664187 -0.33863823694097733
855000000.0 0.16674694341104773 0.38996993929812196
861500000.0 0.1775316305033616 -0.3879805425231824
868000000.0 -0.2862505509037527 0.32645477289710234
874500000.0 0.3674421367282036 -0.23393139530356344
881000000.0 -0.3231767560913263 0.30453831789559066
887500000.0 0.13006951852633403 -0.4285430607855127
894000000.0 0.09191196201172931 0.43562989450467515
900500000.0 -0.4190209839535062 0.13008969415234978
907000000.0 -0.23964401117431922 -0.35606144563127184
913500000.0 0.4040606937908344 0.07628473253946202
920000000.0 -0.1543360828999258 0.3695543853461536
926500000.0 -0.3850518400923985 -0.007819194821750324
933000000.0 -0.088606428673278 -0.36220512192253723
939500000.0 -0.047742723016993 -0.3583776864679931
946000000.0 -0.10713327734966015 -0.32480106440154033
952500000.0 -0.04176453865868797 -0.31802832397948544
959000000.0 -0.09554032585514666 -0.28579683032481806
965500000.0 -0.10236491458937527 -0.2640595389978436
972000000.0 0.14246832634378465 0.22678286003517573
978500000.0 -0.16543343393754217 0.196185232445691
985000000.0 -0.2105752636170938 0.11603544658139024
991500000.0 -0.203912180114774 -0.10165780029583651
998000000.0 0.09614966149850902 -0.19184327935451304
1004500000.0 0.17658846813079396 0.10000822375344073
1011000000.0 -0.18478093420841124 0.05263615512052612
1017500000.0 -0.018604052836775065 -0.18025000820508005
1024000000.0 0.15376013650641593 -0.060426223985929235
1030500000.0 0.11772787462861785 0.09534385710659884
1037000000.0 -0.027571648141437272 -0.13641353386799782
1043500000.0 -0.047707942232648806 -0.12009676087662388
1050000000.0 0.11942042118791876 -0.03041605787376241
1056500000.0 -0.10943667568799424 -0.04041676074561182
1063000000.0 0.10590157313349197 0.031054824866137486
1069500000.0 0.09823490195222818 -0.03317689230450885
1076000000.0 -0.01956552038123747 -0.1005566333561329
1082500000.0 0.03900581910120579 -0.09155067929153901
1089000000.0 -0.07920175827571123 -0.06207796041662713
1095500000.0 0.06853595239920642 0.07319631076651548
1102000000.0 -0.10610706398936348 -0.010325059398173152
1108500000.0 0.08544214286901325 -0.07190920620737946
1115000000.0 -0.07017593908170806 -0.0976980170370242
1121500000.0 -0.06981274026839719 0.11651288853750892
1128000000.0 0.04885124216089961 -0.1429577400822921
1134500000.0 -0.015198931881747278 0.16504764873470135
1141000000.0 -0.03954189047211415 -0.17983763450809734
1147500000.0 0.1394663677837082 -0.14588342513996494
1154000000.0 0.17207889630971626 0.12324319253672344
1160500000.0 -0.0041576079432309515 0.21989234129647578
1167000000.0 -0.2145162330371741 -0.07154380789553158
1173500000.0 0.223716202318049 0.0323813378660073
1180000000.0 -0.22171523747726465 -0.053391550207761505
1186500000.0 0.11107613644704031 0.19889001465747666
1193000000.0 0.19206156857435325 -0.13578313799669922
1199500000.0 -0.2392480938437105 -0.0371050011169072
1206000000.0 -0.2127023706202708 0.13446657388726857
1212500000.0 0.26133765694570465 -0.05286303648406144
1219000000.0 -0.2719747442062481 0.07555497482224748
1225500000.0 0.28860725021977374 -0.025982798160830333
1232000000.0 -0.1911941105406455 -0.23205734981303927
1238500000.0 -0.2402300896570378 0.19540955093777307
1245000000.0 0.20925193658636235 0.2374355990338618
1251500000.0 0.25032800965600266 -0.20807300665771555
1258000000.0 -0.2152860468710534 -0.250903438510193
1264500000.0 -0.31143442107421737 -0.12494584917567776
1271000000.0 -0.17557374522327143 0.2950784634737863
1277500000.0 0.11096478132792711 0.32973846565063863
1284000000.0 0.3514525893261917 0.029663906739445755
1290500000.0 0.22686369493596178 -0.27173631805288834
1297000000.0 -0.10396771468736425 -0.34380076166124135
1303500000.0 -0.357559929189495 0.0043254822484715
1310000000.0 -0.12442417745868983 0.3352102124637377
1316500000.0 0.35896028479169195 0.00790162803948412
1323000000.0 0.007554148013004891 -0.35726206022764706
1329500000.0 -0.07029123612444274 0.34740617533740537
1336000000.0 0.32847642620378065 -0.10982190209693649
1342500000.0 -0.3325303556271897 -0.07818670870152673
1349000000.0 0.17454423865977106 0.28396239861576306
1355500000.0 0.3166151844408375 -0.09082257415366551
1362000000.0 -0.23378136129586877 -0.22540705887129162
1368500000.0 -0.3245789713376747 0.008879701011734065
1375000000.0 0.07857915326275747 0.3232152954513964
1381500000.0 0.23930302944149193 -0.23667859863881532
1388000000.0 -0.33326529399014027 -0.09167828426138018
1394500000.0 0.1093019593281684 0.3358794312290035
1401000000.0 0.15690184824742037 0.32434823681650476
1407500000.0 0.3377960117144574 -0.1415433720720773
1414000000.0 -0.11616422213283152 -0.35506792605086346
1420500000.0 -0.29226136524583257 0.2414055184828906
1427000000.0 -0.1721097198039032 0.33796432350757605
1433500000.0 0.031280055481043234 0.3820765244340025
1440000000.0 0.09634253338292238 0.36803781144925324
1446500000.0 0.04441360091833391 0.38225370096862915
1453000000.0 0.20457599148059025 0.325249122733087
1459500000.0 0.2294597397027548 0.3069538349366309
1466000000.0 0.37519804818879127 -0.06921229153521095
1472500000.0 0.31973744390232506 -0.19672999801407576
1479000000.0 0.06965818580795631 -0.36072369335324433
1485500000.0 -0.238748397401683 -0.2678235757811214
1492000000.0 -0.3220505031491778 0.1297809838836146
1498500000.0 0.12626682827622263 0.3089008554936978
1505000000.0 0.3190654015957581 0.043383636611419966
1511500000.0 0.08328357183027091 -0.2984988206787631
1518000000.0 -0.2288176056525305 -0.19163197680143865
1524500000.0 0.2240662551025282 0.18403104902405565
1531000000.0 0.1554424304662752 -0.23000431140622574
1537500000.0 -0.23568895484880076 0.1398723710552128
1544000000.0 0.2595794696136704 -0.052706055763238224
1550500000.0 -0.17918115038934057 0.196771107493675
1557000000.0 0.09067092094772132 -0.24196106200630196
1563500000.0 -0.25126679350460657 0.04549701275176001
1570000000.0 -0.25435222642924177 -0.004986956192042281
1576500000.0 -0.020275515864944416 0.2558019494604179
1583000000.0 0.23812566986180586 0.10769378981635612
1589500000.0 0.18961011956532478 -0.1842427806210234
1596000000.0 -0.16571229996592524 -0.20346738229416544
1602500000.0 -0.2596540846090578 0.029787050004054277
1609000000.0 -0.2565932936030005 0.009817038896055376
1615500000.0 -0.20442765518405798 0.1404905326790643
1622000000.0 -0.008883118806939117 -0.2416162558420591
1628500000.0 0.15457963063996127 -0.1794776575526574
1635000000.0 0.20827334252112217 0.0986167068399931
1641500000.0 0.0006299699180022772 0.22373610152786735
1648000000.0 -0.21631039948138825 -0.032055593751891744
1654500000.0 0.0012690408590532863 -0.21272488055419453
1661000000.0 -0.09958985816085586 -0.18373942673913018
1667500000.0 -0.19722073406493973 0.03954458694935049
1674000000.0 0.12438754421077916 0.14273970038804504
1680500000.0 0.1523853500389012 -0.07847928269727128
1687000000.0 -0.0898496010543718 -0.1306641986684315
1693500000.0 -0.0342478038783428 0.13754145281331104
1700000000.0 0.044313662625417666 -0.12609531077050817
1706500000.0 -0.04016324615100733 0.11438537768560493
1713000000.0 -0.029024451379612494 -0.11054024756368407
1719500000.0 -0.06139431471638475 0.09257608205143927
1726000000.0 -0.07528481784352936 -0.07927255423266799
1732500000.0 0.016864126671658996 -0.10565331007798479
1739000000.0 0.07009232435406147 0.08400851816578159
1745500000.0 -0.10379914034009227 0.025813934946099248
1752000000.0 0.05901238055633193 -0.09134911576165719
1758500000.0 -0.10210550007141334 0.0330055549070676
1765000000.0 0.05136941292511299 0.09322338982345249
1771500000.0 0.06807091871518003 0.07821220202278052
1778000000.0 0.014135002604621503 0.10035574291172741
1784500000.0 -0.054259959428422475 0.0855831157867839
1791000000.0 -0.00011470683303711216 -0.09966463844697306
1797500000.0 -0.09889958928131613 -0.0023957987823398515
1804000000.0 -0.021025384843223315 -0.09644915562714543
1810500000.0 0.08975102532256816 0.04136260856043883
1817000000.0 0.07682107530867185 0.057279745061711455
1823500000.0 0.052618643637333755 -0.0731829782270398
1830000000.0 -0.004477326542983432 -0.08034876768475897
1836500000.0 -0.0109834157574456 -0.07070253352617464
1843000000.0 0.04859120173432531 0.028387806770589136
1849500000.0 -0.026688804636048075 0.034594767975346975
1856000000.0 0.011434833474752966 -0.02955736210616805
1862500000.0 0.009836520420361655 0.019755324041614716
1869000000.0 -0.018186113243713994 0.00759207245487001
1875500000.0 -0.0069249511804924365 0.017504041267138382
1882000000.0 0.004503569946264793 -0.013995972079056548
1888500000.0 -0.014768516552351785 -0.0047798182211387
1895000000.0 0.0025933442255677576 0.018639033681087293
1901500000.0 -0.015315065742178788 0.01571848897875034
1908000000.0 -0.017117825903624297 -0.0139096639515787
1914500000.0 0.002486783662145474 -0.024059302559587978
1921000000.0 -0.0013721262692025264 -0.02485975402548822
1927500000.0 -0.02112846608345866 0.007398483148407037
1934000000.0 0.01468449501397252 -0.016049308593459065
1940500000.0 -0.012185154230844807 -0.013530208937340173
1947000000.0 -0.019960488381197645 0.003550469880097035
1953500000.0 -0.012844741632944332 0.020677466345294652
1960000000.0 -0.023784388741090127 -0.0023165693922252944
1966500000.0 -0.021926042607563628 0.026293084597214977
1973000000.0 -0.03486330256952218 -0.022992009895693794
1979500000.0 -0.010007106561710518 -0.05204373198808004
1986000000.0 -0.008305733071967029 -0.06627659875115155
1992500000.0 -0.07520942854313233 -0.019375790023772804
1999000000.0 -0.06125433488713019 -0.06495481091088312
2005500000.0 -0.09136246374208244 -0.04079802655952216
2012000000.0 -0.018994686875420216 -0.1086045745183403
2018500000.0 0.07383634709935899 -0.09225163408925581
2025000000.0 0.1276304957379483 0.0121532226787539
2031500000.0 0.0852103899946184 0.09895981888210548
2038000000.0 0.009333024884124722 0.1350418282661712
2044500000.0 -0.13746929455562917 -0.006283429567712476
2051000000.0 -0.11602936692513652 -0.08097038863736838
2057500000.0 -0.13290604775220258 -0.04183274687019348
2064000000.0 -0.13577248674484804 -0.03238867274542818
2070500000.0 -0.13339606817345007 0.018633052901075205
2077000000.0 0.0992602728089961 0.08204044505965931
2083500000.0 0.07162450630365161 -0.0979734480539192
2090000000.0 -0.09510658145469379 0.06637770661194159
2096500000.0 0.09267516274065547 0.057510909674408354
2103000000.0 -0.0725475351907515 0.07819765815934931
2109500000.0 -0.05992603916307501 -0.08626483513189591
2116000000.0 -0.09310452155965823 0.05565160870321235
2122500000.0 0.02083547644020068 0.11070368270446726
2129000000.0 0.10345713926599154 0.06821292995351863
2135500000.0 0.102139301027754 -0.08173506879474077
2142000000.0 -0.05929300803706752 0.12989805259741083
2148500000.0 -0.055774004220765755 -0.14331572754063562
2155000000.0 0.039597659392079924 0.16297921200008672
2161500000.0 -0.01879414830063698 -0.17848150868150084
2168000000.0 -0.1946590367141877 0.011135438830537081
2174500000.0 -0.16981938988118492 0.11704637855234057
2181000000.0 -0.13891883471219332 0.16788520924059433
2187500000.0 -0.04415484047798686 0.22615389398831695
2194000000.0 -0.007189793261866982 0.24180497606330106
2200500000.0 -0.00014011235907930575 0.2521715058212179
2207000000.0 0.24573514365843002 0.07619387510017092
2213500000.0 0.240180759995339 0.09731584853732428
2220000000.0 0.2580333447437106 -0.018417845999821207
2226500000.0 0.21802764092952678 0.12606785830343922
2233000000.0 0.21621421815149694 0.1202330683511562
2239500000.0 -0.10622057168880523 0.21697553463662084
2246000000.0 -0.13796398183156575 0.18934466971257533
2252500000.0 -0.21211235958407665 0.07543797794831711
2259000000.0 -0.21992119159551532 0.017696831947449365
2265500000.0 -0.1889935293625205 0.10159034300570799
2272000000.0 -0.06983914423985679 0.19584666455691968
2278500000.0 0.11778541390451376 -0.16465854703083063
2285000000.0 -0.12580655867473187 0.1474833975921325
2291500000.0 0.05780052907013443 -0.17461312015697347
2298000000.0 -0.01801340914238722 0.17230850292881844
2304500000.0 -0.051421097418331715 -0.16051872742418813
2311000000.0 -0.13302641729385123 -0.08047647128626631
2317500000.0 -0.08524470822552009 0.12899170243427382
2324000000.0 0.03781616597851098 -0.14611274829825224
2330500000.0 -0.14685581614675608 -0.03618954083517928
2337000000.0 0.0787702548300311 0.1286096326914283
2343500000.0 0.09734085329000404 -0.1187295474037511
2350000000.0 -0.14972717161295018 -0.03881201736965551
2356500000.0 -0.14726222530941319 0.05724955643311993
2363000000.0 -0.024000730750951216 0.15867772801219657
2369500000.0 0.15442757523043263 0.04739875631160202
2376000000.0 0.158180482533317 -0.033323552757696356
2382500000.0 0.12713789714042142 -0.0967031787867888
2389000000.0 0.15306459740144085 0.04415237060914238
2395500000.0 0.05272553794123125 0.14995387859752235
2402000000.0 -0.13452332717741095 0.08423436668459366
2408500000.0 -0.14550369300642374 0.06780397977116985
2415000000.0 -0.116491014221545 0.11007352230652906
2421500000.0 -0.14298151327944794 0.06921084156746142
2428000000.0 -0.06730153003495068 0.14150675381179495
2434500000.0 0.026043578250425983 0.1507687914560749
2441000000.0 -0.009784836919959057 0.15250582895676595
2447500000.0 0.12288572541375857 0.08641728690368378
2454000000.0 0.14818073648750066 0.01765718659288011
2460500000.0 0.14854269222358352 0.0007528946546866635
2467000000.0 0.14665719270664948 0.02182289404742564
2473500000.0 0.14899748149728506 -0.0077823687233534835
2480000000.0 0.132854677036482 0.06981357128017941
2486500000.0 0.15352500493568702 0.024339726466105938
2493000000.0 -0.02717452204359504 0.15206339238910282
2499500000.0 0.02772288457099232 0.15396138222786426
2506000000.0 0.030339064080440927 0.15591430788359656
2512500000.0 -0.08038335963698957 -0.1371266883720615
2519000000.0 0.16093788404470133 -0.0007902180309708199
2525500000.0 -0.14615398408565064 0.07389529731718696
2532000000.0 0.0830165394534555 -0.14532628047357976
2538500000.0 -0.06384434536903758 0.15504243939604195
2545000000.0 -0.1027985186469768 -0.1346470729720693
2551500000.0 0.09654734327174332 0.13810207881976927
2558000000.0 0.04658220956145737 -0.16217677083954313
2564500000.0 -0.01775197913678447 0.16512446586742566
2571000000.0 0.1278176244635868 -0.10385260185083245
2577500000.0 -0.15523256070155844 -0.03099374997982042
2584000000.0 -0.15399573900707922 0.027743716066246565
2590500000.0 0.03163013908192582 0.14920577309278965
2597000000.0 0.14895077520893313 -0.03237237175571833
2603500000.0 -0.03637148994713838 -0.14509933814381168
2610000000.0 0.03855302623038179 0.14407988242828831
2616500000.0 -0.03364089705769106 -0.14038643351543695
2623000000.0 0.10520782940666747 0.09206042103855902
2629500000.0 -0.11920853079199202 -0.05472264033970938
2636000000.0 0.1132443847619344 -0.05005016551519831
2642500000.0 -0.09837884074099315 0.057186555578835147
2649000000.0 -0.10242359871010534 -0.030384195217163505
2655500000.0 0.09602100392608567 0.01462469294260905
2662000000.0 0.08299211614484667 -0.039946401999354515
2668500000.0 0.04934737627063417 -0.0718759148718514
2675000000.0 -0.04904718921373318 0.06922512128325353
2681500000.0 -0.07564125770919684 0.03474513551043886
2688000000.0 -0.05729284801506365 0.060955365075857054
2694500000.0 0.034943541523928943 0.07869733727764379
2701000000.0 -0.08135080859586974 0.03354590888941541
2707500000.0 -0.06946993971592978 -0.06714803288294545
2714000000.0 0.10399859630232644 0.0077099216698012845
2720500000.0 0.0352563644660387 -0.11073853243729927
2727000000.0 -0.12631281881419 -0.012577038860037741
2733500000.0 -0.049148376576808483 -0.13156416797185821
2740000000.0 -0.10650383159711993 -0.1124773528033602
2746500000.0 0.0533150386756994 -0.15762955982779986
2753000000.0 0.1784639934805887 -0.035205429120808776
2759500000.0 0.16296629246102412 0.10196356076949144
2766000000.0 -0.151881489641268 0.13348030630360902
2772500000.0 -0.1033319376790078 -0.1841316824093251
2779000000.0 0.13094005531242395 0.17503763121399202
2785500000.0 -0.2119517002843248 -0.0758557700497198
2792000000.0 0.22362493780436257 0.06522464947368518
2798500000.0 -0.19650305093276835 0.13851659244820552
2805000000.0 0.1830316372169889 -0.16478236020375933
2811500000.0 0.06682767759693993 0.2471528736035834
