!Created with skrf (http://scikit-rf.org).
# Hz S RI R 50.0 
!freq ReS11 ImS11
400000000.0 -0.7120522445448901 0.10554482153411694
406500000.0 -0.3039796277761227 -0.6318189088964322
413000000.0 0.6767063153243336 0.03906932737228498
419500000.0 -0.6665223268404706 0.01173795180905433
426000000.0 0.2623238988939708 0.6025488403634043
432500000.0 -0.4686884824417434 -0.44694368595918
439000000.0 0.6280602138799098 0.09527628141787425
445500000.0 -0.6208451110160615 0.08201727822288804
452000000.0 0.5321749621647375 -0.3160606256694155
458500000.0 -0.1478894464191577 0.6040396460537812
465000000.0 -0.5263580778282733 -0.3310259705756412
471500000.0 -0.28330435793237 -0.5512312940378092
478000000.0 -0.12023080220683176 -0.5997437344623696
484500000.0 0.1996979942052273 -0.5705062142756325
491000000.0 -0.0015690167652330988 -0.5903872058570399
497500000.0 -0.32279354983069075 -0.4699095438313816
504000000.0 -0.3917266014774487 0.3710569186087451
510500000.0 0.04860311844463338 0.49819612967639343
517000000.0 0.4113107904879168 0.20254916313251914
523500000.0 0.10572120091567846 0.4158222751882266
530000000.0 -0.11636196108347596 0.3753865951780386
536500000.0 0.2160398042543054 0.28861954721412386
543000000.0 0.28482741178753834 0.19952698560169443
549500000.0 0.3123605062595881 0.11202662091616136
556000000.0 -0.014091817355780198 -0.3060741600261323
562500000.0 0.1636457158321858 -0.23918421044434798
569000000.0 -0.16446266300618653 -0.21723267896958526
575500000.0 0.26089762182702664 0.021900839457717886
582000000.0 0.050092420433102705 -0.25271889676863
588500000.0 0.24100755985060568 0.11259778293877083
595000000.0 -0.058073848702086275 -0.27978302055340354
601500000.0 0.05358643856582738 -0.2874000039342074
608000000.0 0.19397378516274083 -0.22146829991146044
614500000.0 0.023235065075593735 -0.29942214610811346
621000000.0 -0.051941829088625456 -0.29439057932773594
627500000.0 0.2933594579791142 0.04218771112088458
634000000.0 -0.06444876580543898 0.29521076056725665
640500000.0 -0.29013323256859125 0.030170421615297774
647000000.0 0.29370775876356203 0.05606069633201654
653500000.0 0.1742300907002473 0.2440747526680951
660000000.0 -0.292485707997486 -0.06465845479589043
666500000.0 0.13155859661420344 -0.2699493573501318
673000000.0 0.09703174802007536 0.27958341045569873
679500000.0 0.2866441508102645 -0.10160030479872197
686000000.0 0.26498526451208865 -0.13361723561363328
692500000.0 -0.29300353993035694 -0.028257181885095375
699000000.0 0.21415928550860996 -0.1939935847791237
705500000.0 -0.28497235815144545 0.06146864840015264
712000000.0 0.2920544145689544 -0.021852138806719094
718500000.0 0.12584813997540414 -0.271093831901965
725000000.0 -0.007123180714891367 0.31163905062999137
731500000.0 0.08236375814544585 -0.3075918198213592
738000000.0 0.20240081361582352 0.2622332140938149
744500000.0 -0.3282073085920901 0.017476836892740242
751000000.0 0.25543724694174114 0.21019554673525367
757500000.0 -0.1575507581588787 -0.3001192987555247
764000000.0 -0.23202685865273678 0.26024293725495323
770500000.0 -0.18316063510598277 -0.30533209737647166
777000000.0 -0.12696018574165208 0.34051792338034714
783500000.0 -0.10002249594690052 -0.3467634262807207
790000000.0 -0.11345803289909596 0.34894691951441803
796500000.0 0.022746312291405252 -0.3691146308553285
803000000.0 -0.33700427366281654 0.13484499216841297
809500000.0 0.28412746572625686 0.22495126788675013
816000000.0 0.2334493446133988 -0.2746246773605602
822500000.0 -0.03126251696385468 -0.3687493445353455
829000000.0 -0.3443646138628141 0.16326064962322648
835500000.0 -0.39310576652211615 0.011164824429921836
842000000.0 0.4058307316139098 0.06707805984307305
848500000.0 -0.2613485235714209 -0.32044263924779026
855000000.0 0.19046379376630518 0.379319044645983
861500000.0 0.1317362130824636 -0.4058665429525622
868000000.0 -0.26293066854902464 0.34545933670346823
874500000.0 0.33019672249114834 -0.283589625553428
881000000.0 -0.2867039121741111 0.3391558491242077
887500000.0 0.08109375815166243 -0.4402830065395206
894000000.0 0.1302590472070964 0.4261830189151848
900500000.0 -0.42126146429054045 0.1233646954600958
907000000.0 -0.23765125305362075 -0.3572907194344306
913500000.0 0.4033534949146824 0.0802092742384064
920000000.0 -0.15808211797878963 0.3678056434257095
926500000.0 -0.38466037036330547 -0.01997151779540635
933000000.0 -0.09900986596739221 -0.3592823914169171
939500000.0 -0.04922177862824385 -0.358312687838251
946000000.0 -0.10280841996689838 -0.3259488324668887
952500000.0 -0.028744395194884725 -0.31932344665172563
959000000.0 -0.09191605978421472 -0.28642553459317865
965500000.0 -0.11804513497599602 -0.2569451071363799
972000000.0 0.17022652302762925 0.2063544286714178
978500000.0 -0.12938614779475213 0.22118008031859399
985000000.0 -0.18799655316383931 0.14970797071068634
991500000.0 -0.21649257645640543 -0.07165466510014745
998000000.0 0.06468479576672333 -0.20486014845635972
1004500000.0 0.19025174910360224 0.07228986918690083
1011000000.0 -0.1717118467387428 0.0869048321245709
1017500000.0 -0.04616810039460364 -0.17541938976350638
1024000000.0 0.14401318590215573 -0.0823102593976293
1030500000.0 0.11841735488728264 0.09488460551605232
1037000000.0 -0.04632341953857293 -0.1313267771034016
1043500000.0 -0.06555235104567521 -0.11192682125429551
1050000000.0 0.12176481301908382 -0.02158053526973286
1056500000.0 -0.10276154981282463 -0.055953739031097675
1063000000.0 0.10088744771681184 0.045756070078035976
1069500000.0 0.10394162566305645 -0.0017395042949316217
1076000000.0 0.005622765947241051 -0.10193974579392542
1082500000.0 0.042008948686312206 -0.08970765969067045
1089000000.0 -0.08491431684319418 -0.05333127649704821
1095500000.0 0.07535885288438178 0.06602468135836936
1102000000.0 -0.10547055471890061 -0.012065458464627761
1108500000.0 0.0761365643682583 -0.08102269052514419
1115000000.0 -0.0921199852630283 -0.07661638890266453
1121500000.0 -0.009872495706659984 0.13526926015792864
1128000000.0 -0.0214843608366254 -0.14938102603214914
1134500000.0 0.04255674600798971 0.1598918478132742
1141000000.0 -0.08808489381735699 -0.16158731705321722
1147500000.0 0.11845819636046231 -0.16362907677311567
1154000000.0 0.1913809266747345 0.09090210716981609
1160500000.0 0.018230607875117155 0.2194667516404283
1167000000.0 -0.22182981593332343 -0.044056384689249224
1173500000.0 0.22617232689576952 0.0006560422364656634
1180000000.0 -0.2244224080291421 -0.044578260338030855
1186500000.0 0.0820318848764696 0.21286378961968486
1193000000.0 0.21273647901644813 -0.10077882749259015
1199500000.0 -0.23515622003520928 -0.05810855251819807
1206000000.0 -0.2260635748525809 0.11027684517336359
1212500000.0 0.26503725898282754 -0.02558759911957492
1219000000.0 -0.27752383479853415 0.04882367454488235
1225500000.0 0.2889559261114624 -0.004473662103151744
1232000000.0 -0.20069325192047469 -0.22308184561032085
1238500000.0 -0.24692641538839863 0.18667771669599095
1245000000.0 0.19818662044987606 0.2460352923686018
1251500000.0 0.20087461577843324 -0.25523539861671424
1258000000.0 -0.21934305225379036 -0.24638994472415665
1264500000.0 -0.3255368078830004 -0.07671096223268015
1271000000.0 -0.1388652608763341 0.3132698584411986
1277500000.0 0.16259982964701095 0.30631463615975735
1284000000.0 0.351852461709097 -0.014921519440733246
1290500000.0 0.2159208967299154 -0.28045070541816003
1297000000.0 -0.15821427697533777 -0.32210345443488675
1303500000.0 -0.357674665739386 0.01773969520474107
1310000000.0 -0.12028630878218871 0.3367251864495319
1316500000.0 0.3590354308660387 0.01528246545691892
1323000000.0 -0.03500444112041692 -0.3561304086338431
1329500000.0 -0.041503032482019864 0.35241790482231383
1336000000.0 0.3293059930498651 -0.10802358530429007
1342500000.0 -0.32999155951042825 -0.08922024813918904
1349000000.0 0.16801000106820155 0.2881773256087113
1355500000.0 0.3194449859910932 -0.08033452184258189
1362000000.0 -0.21758468237629744 -0.24106982502063148
1368500000.0 -0.32435003953395297 -0.013310115957179118
1375000000.0 0.04479114834586447 0.3292800659844775
1381500000.0 0.25969992480219767 -0.21346918653327784
1388000000.0 -0.3343120093730573 -0.08590916714084781
1394500000.0 0.12696212229974796 0.329090677464809
1401000000.0 0.12702529236118404 0.3365913867778837
1407500000.0 0.2974166174380032 -0.2126683578002951
1414000000.0 -0.1578808789017482 -0.33809690916247204
1420500000.0 -0.30444819221569763 0.22483035679467597
1427000000.0 -0.16837039845131213 0.33937720880349315
1433500000.0 0.042141668334791584 0.3808126756159426
1440000000.0 0.10166779081902012 0.36616433102866314
1446500000.0 0.07736941505129706 0.3770599210695053
1453000000.0 0.21135571280879278 0.3212751969587201
1459500000.0 0.23398624640673857 0.3036301059745449
1466000000.0 0.3771055704005439 -0.05792726042346705
1472500000.0 0.32300631282121534 -0.19274126129268782
1479000000.0 0.025751934311053222 -0.3669372652136643
1485500000.0 -0.2507190831150348 -0.25755174307956613
1492000000.0 -0.32068081544472493 0.13462130524691038
1498500000.0 0.09801830297412727 0.3193886708169617
1505000000.0 0.3218330533146924 0.01900696786095399
1511500000.0 0.10268452875579291 -0.2925782182223288
1518000000.0 -0.21850405748349466 -0.20332043720688173
1524500000.0 0.22567156648183614 0.18166378090171284
1531000000.0 0.14439288767364075 -0.23627356876592467
1537500000.0 -0.2313195670110431 0.1463417316587884
1544000000.0 0.2583225654682901 -0.057829967232547075
1550500000.0 -0.15761471338495658 0.2134402903332589
1557000000.0 0.06128198962667039 -0.2504220738423652
1563500000.0 -0.24533198354368538 0.06949963547405281
1570000000.0 -0.25406585556209604 -0.006123708598509056
1576500000.0 0.020167685435573016 0.2555216216529778
1583000000.0 0.23610924196675012 0.11101844333455878
1589500000.0 0.17642780010070194 -0.19546338123148582
1596000000.0 -0.17988072855540416 -0.19046036932751995
1602500000.0 -0.25786522119172756 0.039212829672915686
1609000000.0 -0.25047380781137785 0.053340245426865295
1615500000.0 -0.17779043241440629 0.17267273187299617
1622000000.0 -0.011744189101480201 -0.24155374697335882
1628500000.0 0.12310479706080138 -0.20236079433484544
1635000000.0 0.22157476669679446 0.06375252038043867
1641500000.0 0.0333922975314743 0.22143589920902115
1648000000.0 -0.2186403741458065 0.014733868481412239
1654500000.0 -0.025969231807812947 -0.21152969340925504
1661000000.0 -0.11305792751166616 -0.17648688728965076
1667500000.0 -0.1999686584627415 0.02724659245051168
1674000000.0 0.11056406657410953 0.15444914880723853
1680500000.0 0.16203398720401638 -0.0581694769738795
1687000000.0 -0.07040938735850519 -0.14239780324075738
1693500000.0 -0.06916640713772015 0.1235709809929448
1700000000.0 0.1007622247895137 -0.08737336929621953
1706500000.0 -0.08852900492618179 0.08221901045242187
1713000000.0 0.007037550482829466 -0.11357975857260748
1719500000.0 -0.08342213507077795 0.07175588086665936
1726000000.0 -0.07647294236098534 -0.0770282601820318
1732500000.0 0.009316327470855644 -0.10614284314828144
1739000000.0 0.09141466873620276 0.05841530398640602
1745500000.0 -0.09529227846828471 0.04720807160249111
1752000000.0 0.017041313430029487 -0.1066490319129056
1758500000.0 -0.06892247333033105 0.08173289071852913
1765000000.0 0.09569666511394496 0.047028007175414145
1771500000.0 0.10200402455938835 0.018430810786737598
1778000000.0 0.05425884897038145 0.08589100465795398
1784500000.0 -0.0007477904298875383 0.10174075281181603
1791000000.0 -0.04245477759340728 -0.0907311644251122
1797500000.0 -0.08964518945846064 0.04270840141023021
1804000000.0 -0.05612720168575303 -0.08209128994047284
1810500000.0 0.09921187678028606 0.009096570895319196
1817000000.0 0.067715251874336 0.06894917939763813
1823500000.0 0.06758659673919257 -0.060978668839684516
1830000000.0 0.04136339077598885 -0.06989946128849454
1836500000.0 0.03735515225272965 -0.06169811215558138
1843000000.0 0.028426525089690926 0.048541831788792116
1849500000.0 -0.041021558428420424 -0.015388433833038975
1856000000.0 0.028265403766531277 0.014996703164829307
1862500000.0 -0.02127486229179449 -0.005984740513117063
1869000000.0 0.009255092126018953 -0.017735112422401653
1875500000.0 0.0061628977819367745 -0.017849772440181013
1882000000.0 -0.014347639810971119 -0.000965158372801829
1888500000.0 0.01129538176144072 -0.008956273469668092
1895000000.0 0.0023042443564838663 0.017418720122394506
1901500000.0 0.011322210440515226 -0.018044142971055208
1908000000.0 0.01808454147970293 0.013156969770187443
1914500000.0 -0.015669515217980514 0.019534826649295088
1921000000.0 -0.024485675249842163 0.007930840010980818
1927500000.0 7.057592103337882e-05 0.023736860556127674
1934000000.0 0.01925302355502553 -0.012764503014280372
1940500000.0 0.01498262685988763 0.011444011338271807
1947000000.0 0.01739525213973004 0.010396216362709857
1953500000.0 -0.0034949536219158893 -0.023022295902618214
1960000000.0 0.008062463395427034 -0.021016884144173183
1966500000.0 -0.012082249183869897 0.030274553483819244
1973000000.0 -0.03732953272636238 -0.01516887773168562
1979500000.0 -0.01903089912007434 -0.04788452494226718
1986000000.0 -0.030992706633186495 -0.05781276867001703
1992500000.0 -0.07299765727265599 0.023655067603596855
1999000000.0 -0.06387967021435216 -0.06066257305026561
2005500000.0 -0.09897884174736617 0.006290126811496214
2012000000.0 -0.0962959986035447 -0.05357797548454953
2018500000.0 0.01774748241990484 -0.11646856292556376
2025000000.0 0.10246134930467875 -0.07775999819907804
2031500000.0 0.1302807539045018 0.02001170580361773
2038000000.0 0.06915126308455567 0.11729602924584598
2044500000.0 -0.12902204350978597 0.05026974666683125
2051000000.0 -0.13028281701446945 -0.05741872800951062
2057500000.0 -0.1386304620116244 -0.02064267408892759
2064000000.0 -0.14089740393458397 -0.004502327209105025
2070500000.0 -0.13137804819209145 0.03553224687561966
2077000000.0 0.08853843827985809 0.09494870638058873
2083500000.0 0.10102830315827659 -0.06910634999676152
2090000000.0 -0.11683139294423987 0.0065696483952249985
2096500000.0 0.043419643157673604 0.10056065502919607
2103000000.0 -0.10268061622750758 0.028439804281949695
2109500000.0 -0.0232685714393715 -0.101927725965526
2116000000.0 -0.10801061638049686 0.000511037814053094
2122500000.0 -0.011969874047419737 0.11075877450231238
2129000000.0 0.12159434131101228 0.01597037632017137
2135500000.0 0.05624060671703206 -0.11679853388334542
2142000000.0 -0.012476151539714207 0.14127023033934502
2148500000.0 -0.1354074360088119 -0.0717374490692847
2155000000.0 0.1394643709849416 0.09251079148564147
2161500000.0 -0.09595356426452502 -0.15133537015002016
2168000000.0 -0.14342701354160148 0.13191617680528778
2174500000.0 -0.07170303069616238 0.19346333636254615
2181000000.0 -0.05077858687697583 0.21250998613630936
2187500000.0 0.03141492736360179 0.2290214970814004
2194000000.0 0.05827522328721008 0.23627693875362393
2200500000.0 0.04214054883398616 0.25000583738890375
2207000000.0 0.2517668049719397 0.05722691305217686
2213500000.0 0.23707981528800934 0.10668925758012718
2220000000.0 0.2592613267726679 0.011850967411218917
2226500000.0 0.20643581732573713 0.14594581268806883
2233000000.0 0.18796416879208924 0.16155996912439385
2239500000.0 -0.1492259366478594 0.1903560563725062
2246000000.0 -0.1964711727136414 0.1279671047402016
2252500000.0 -0.22432670563403542 0.011279401080803653
2259000000.0 -0.21385950045245172 -0.05135562317097925
2265500000.0 -0.20292200063546847 0.06661343949165718
2272000000.0 -0.05977183752248561 0.19786426336280852
2278500000.0 0.12734311688725072 -0.15585869505416214
2285000000.0 -0.09819182961873017 0.16543631102612236
2291500000.0 0.004272325030111869 -0.1824475482519814
2298000000.0 -0.0067194298859149125 0.1720394547890069
2304500000.0 -0.11169039860256334 -0.12494696081722285
2311000000.0 -0.15478834134792993 0.0008045536248490157
2317500000.0 0.010148270503109541 0.1543062889765557
2324000000.0 -0.05455027749309779 -0.14111325370080738
2330500000.0 -0.13809055376712956 0.06291559878642143
2337000000.0 0.12285641782081494 0.08946275126722987
2343500000.0 0.06743832836060212 -0.1393640300254769
2350000000.0 -0.15549646133106376 0.0011095431864769048
2356500000.0 -0.14629815679992145 0.06250165705858081
2363000000.0 -0.020694573310554517 0.16015950255888198
2369500000.0 0.15552711854352644 0.04696377204904448
2376000000.0 0.16171469130384758 -0.01735373236176016
2382500000.0 0.1518728089386551 -0.05084236768363753
2389000000.0 0.14362689064830958 0.06982843757843851
2395500000.0 -0.007377498357307461 0.1586947374575447
2402000000.0 -0.15568781391167766 0.029619853580623544
2408500000.0 -0.15611699076172098 0.034236682252533845
2415000000.0 -0.13833077711685096 0.08022784717527227
2421500000.0 -0.14903519325371198 0.052125750557958865
2428000000.0 -0.08716196970489731 0.12923475977305465
2434500000.0 0.020151874090100358 0.15075273023432637
2441000000.0 -0.008094741514404858 0.15155051672084696
2447500000.0 0.1257386864984946 0.08082725701627845
2454000000.0 0.1408395153901399 -0.04624984987528093
2460500000.0 0.13691924574237205 -0.05505877361500679
2467000000.0 0.13571700887969373 -0.057171049974683676
2473500000.0 0.11353531843789398 -0.09464968260486467
2480000000.0 0.14909346786068764 0.008536382411358387
2486500000.0 0.15183890122794438 -0.03187959960827953
2493000000.0 0.025994871775970794 0.15317165565530957
2499500000.0 0.07004077752287359 0.14078371512924318
2506000000.0 0.08035650887127675 0.1375774836749191
2512500000.0 -0.0851167040979729 -0.13449193854696156
2519000000.0 0.1559227578704942 -0.042737318265925674
2525500000.0 -0.1219474354323957 0.11040380719880313
2532000000.0 0.0647350019697631 -0.15501803883018478
2538500000.0 -0.04506928035823962 0.16219335168780294
2545000000.0 -0.09512091155406262 -0.14136940740295492
2551500000.0 0.09944522269298407 0.1366737025487749
2558000000.0 0.0830556846134929 -0.1472745262120557
2564500000.0 -0.05155358385989079 0.15837050395336702
2571000000.0 0.1519807711035046 -0.06433181344001626
2577500000.0 -0.14670343444207487 -0.06020751725904209
2584000000.0 -0.1549221370724595 -0.022637398244627273
2590500000.0 -0.022262596024906517 0.15123640803927715
2597000000.0 0.15195847474196067 0.01382622600247392
2603500000.0 0.03461209389930331 -0.14540219628444778
2610000000.0 -0.0280250960610236 0.14606274122688245
2616500000.0 0.022815379560236763 -0.14161489500485872
2623000000.0 0.051039763972133306 0.12927332423940446
2629500000.0 -0.08423512426105509 -0.09908463839410733
2636000000.0 0.12204535194879577 -0.0033795275902100607
2642500000.0 -0.10975138278972707 0.023953782527041216
2649000000.0 -0.08527162181381145 -0.061520903925467975
2655500000.0 0.08631312957373344 0.041604330597744286
2662000000.0 0.06922933415594372 -0.058530295626002746
2668500000.0 0.03976595860804304 -0.07636213025047732
2675000000.0 -0.026090557895242384 0.07989487501556033
2681500000.0 -0.05751514746679077 0.058858516172200996
2688000000.0 -0.0007542669016867699 0.08298280216391038
2694500000.0 0.07885096306659035 0.0345417596904168
2701000000.0 -0.0395592167703649 0.07964696399361999
2707500000.0 -0.09552829652155226 -0.019919632030728208
2714000000.0 0.09993520156063278 -0.034709498983441514
2720500000.0 -0.0058859214512881385 -0.11714547557731576
2727000000.0 -0.12836081898474938 0.0018262184905750158
2733500000.0 -0.025127687213575507 -0.13878275224067949
2740000000.0 -0.10809339500566136 -0.11260627229702148
2746500000.0 0.09058113847723147 -0.1409143646848566
2753000000.0 0.18188084494489026 0.017670473699638267
2759500000.0 0.1316273687955599 0.14101722630232735
2766000000.0 -0.17423056932414901 0.1030507606188662
2772500000.0 -0.08138772920371294 -0.19485424581838034
2779000000.0 0.09136569450930886 0.19857580238450906
2785500000.0 -0.1907082973989048 -0.11965035288337272
2792000000.0 0.19908891442822077 0.12059686843223322
2798500000.0 -0.2231500629792704 0.08893260400502266
2805000000.0 0.20884757058455128 -0.12912333571917198
