!Created with skrf (http://scikit-rf.org).
# Hz S RI R 50.0 
!freq ReS11 ImS11
400000000.0 -0.7087952629108419 0.12392823212583026
406500000.0 -0.3466065591974273 -0.6095299569217744
413000000.0 0.6776839453772582 0.013959894573085056
419500000.0 -0.6667247046152192 -0.005833099352375662
426000000.0 0.26883171492387925 0.6000617846499451
432500000.0 -0.46434017669432887 -0.45142202526162967
439000000.0 0.6247009411797162 0.11661308139516985
445500000.0 -0.6220294252737226 0.07372092072663086
452000000.0 0.5446001597428594 -0.29470286566201
458500000.0 -0.18784633372082016 0.5934167965107945
465000000.0 -0.49891778344371296 -0.37219031913035877
471500000.0 -0.21783085568469993 -0.5802584487298106
478000000.0 -0.0659737668202965 -0.6079476757679747
484500000.0 0.2403588005548372 -0.554385330661129
491000000.0 0.0829890858428456 -0.5846316144090616
497500000.0 -0.2957636966849698 -0.4872166654170903
504000000.0 -0.44538014515376856 0.3034887830674901
510500000.0 0.03995172462218189 0.49855953600547104
517000000.0 0.4198744821773031 0.18258513580182265
523500000.0 0.11457860489286037 0.41290006590687256
530000000.0 -0.08887154498046296 0.3825930928096209
536500000.0 0.22967785941129154 0.27790590378763796
543000000.0 0.30061398461701266 0.1752765116948481
549500000.0 0.319029383139253 0.09301761136013162
556000000.0 -0.01877529951372525 -0.30631147758807326
562500000.0 0.16229582395182726 -0.24079011350704024
569000000.0 -0.14970800255589303 -0.2286343552801005
575500000.0 0.25913056250590233 0.0396605490434728
582000000.0 0.07504741922278307 -0.2466081766829258
588500000.0 0.20559413367506302 0.16899096993877016
595000000.0 -0.017596803639673093 -0.28454090422848954
601500000.0 0.0722606555690142 -0.28315970668315715
608000000.0 0.21673080993061475 -0.19894204987288977
614500000.0 0.03569735544301936 -0.29797912662044973
621000000.0 -0.02673843285669062 -0.29751533329632823
627500000.0 0.29522680751764807 0.023697707040572846
634000000.0 -0.06016286943413624 0.29571598517340025
640500000.0 -0.2899752648624938 0.026910390767395685
647000000.0 0.2967109566738169 0.03400129461026057
653500000.0 0.20067937314470768 0.22313315782224807
660000000.0 -0.29810753472955254 -0.032783374576666593
666500000.0 0.11700316980466297 -0.2772038959222561
673000000.0 0.11837291011805634 0.27198906378457877
679500000.0 0.29254810324137553 -0.08460052346633229
686000000.0 0.25755608101344013 -0.14888377972869013
692500000.0 -0.28879020737622063 -0.06275208291460557
699000000.0 0.2369572721436934 -0.16610992347307504
705500000.0 -0.2918178029357456 0.00857932239935257
712000000.0 0.29166228659979837 0.026688659370897285
718500000.0 0.146023957201168 -0.26009047636157895
725000000.0 -0.05010232227077445 0.30742542703684766
731500000.0 0.0990186177450175 -0.30225835897873077
738000000.0 0.1412878376885419 0.29924396658395164
744500000.0 -0.32627332198236764 -0.03545785015169093
751000000.0 0.2204733821586744 0.24484861790611415
757500000.0 -0.14635874191486128 -0.3050445437470071
764000000.0 -0.2217012021456319 0.26823275880922165
770500000.0 -0.2114294965214397 -0.2858490245722449
777000000.0 -0.0985629691165127 0.3494325624473987
783500000.0 -0.12190721744690336 -0.3402178185656834
790000000.0 -0.09781824066806676 0.3538820535433919
796500000.0 -0.021926709140446043 -0.3695101817026206
803000000.0 -0.34242583005674176 0.12139395885430575
809500000.0 0.2881334959820709 0.21989093722677103
816000000.0 0.19623378025241062 -0.30301613730956334
822500000.0 -0.09165022472568583 -0.35908709679895995
829000000.0 -0.3325590031666475 0.18801304449212158
835500000.0 -0.3939858448756292 0.01295935014040473
842000000.0 0.4046757629010235 0.073441068272235
848500000.0 -0.24152155932133926 -0.33477617552655103
855000000.0 0.1766307310536413 0.3852997239022796
861500000.0 0.1669918943618705 -0.3925973406825973
868000000.0 -0.28698501157444045 0.3256004827954376
874500000.0 0.35584738175179853 -0.2504337134113426
881000000.0 -0.31484957210880055 0.313206157319465
887500000.0 0.16988300463539102 -0.4145838002300385
894000000.0 0.07035156634996748 0.4396338387933775
900500000.0 -0.4230196918972673 0.11644206054792343
907000000.0 -0.21753018966589305 -0.36997492120782555
913500000.0 0.3938979232122957 0.11763669562041502
920000000.0 -0.15035584347393244 0.3707981895507639
926500000.0 -0.3840462270332895 -0.020139584236841535
933000000.0 -0.10046959087775335 -0.3586562997501541
939500000.0 -0.06581986826870959 -0.35520251974750056
946000000.0 -0.13409083714446493 -0.31447457445966776
952500000.0 -0.06155424853544979 -0.31476492970787556
959000000.0 -0.10156576366365795 -0.2837932383718318
965500000.0 -0.11512669961250431 -0.2589205712338533
972000000.0 0.14769145043188608 0.22353833873987072
978500000.0 -0.14629816835103931 0.21062058020151034
985000000.0 -0.21587171765583277 0.10651037927330588
991500000.0 -0.2011670107774007 -0.10755603379014857
998000000.0 0.09891557876245091 -0.19089565828513633
1004500000.0 0.16982343016781906 0.1117864509364956
1011000000.0 -0.1902970682826056 0.028660043912105696
1017500000.0 0.004601898359996041 -0.18145667708472785
1024000000.0 0.16191065602602356 -0.03327935689153305
1030500000.0 0.09472016942995558 0.11797703243362512
1037000000.0 -0.014526960224111127 -0.13816130884664074
1043500000.0 -0.03659244949435715 -0.12364405984170726
1050000000.0 0.11821686225651862 -0.03395028463675399
1056500000.0 -0.11192290467588036 -0.03207838132336635
1063000000.0 0.10835636314135419 0.020119567865315324
1069500000.0 0.09273822996095811 -0.0465285719578599
1076000000.0 -0.033523634175736075 -0.09682799782707373
1082500000.0 0.038371402964785785 -0.09198244619569335
1089000000.0 -0.07957928377127503 -0.061758391669506654
1095500000.0 0.0686649460878249 0.07332811823389981
1102000000.0 -0.10652161782081428 -0.009258682427208951
1108500000.0 0.09534004131330195 -0.058476877272448505
1115000000.0 -0.07130525963346199 -0.09706535509458025
1121500000.0 -0.07045690383893233 0.11634540124741209
1128000000.0 0.05481776211613322 -0.14090911541113293
1134500000.0 -0.04840482462509893 0.15807586831020148
1141000000.0 -0.038096353632116414 -0.1799657264270861
1147500000.0 0.137009670043193 -0.14778862503453744
1154000000.0 0.17681476851283082 0.11594567379740942
1160500000.0 0.00499625644435232 0.21971952107997947
1167000000.0 -0.21811783706547513 -0.05868471933849776
1173500000.0 0.22505827310565946 0.01918365293793987
1180000000.0 -0.22363059711894595 -0.043980467075700816
1186500000.0 0.12105893377823454 0.19291956857653522
1193000000.0 0.18266624666615663 -0.14807064323858263
1199500000.0 -0.241727528668573 -0.011792394991174494
1206000000.0 -0.20567456228101766 0.14508946263399472
1212500000.0 0.25881249284320157 -0.06426478705856124
1219000000.0 -0.26723200646998163 0.09106245278254843
1225500000.0 0.2871976530633347 -0.039029698753386285
1232000000.0 -0.19411547099462148 -0.22977271124871274
1238500000.0 -0.2349828994538978 0.20213019943931154
1245000000.0 0.21300044897106618 0.23433015363861967
1251500000.0 0.23759583922071018 -0.2223876854499698
1258000000.0 -0.20602910812488465 -0.25888864317676447
1264500000.0 -0.3106291962605136 -0.12745759892446212
1271000000.0 -0.18354410977602742 0.2902667502363901
1277500000.0 0.11226689641235606 0.3291324062740644
1284000000.0 0.35174150170270185 0.023676808993838703
1290500000.0 0.21303103292916056 -0.28257863159568924
1297000000.0 -0.15178119149688854 -0.32481644811386856
1303500000.0 -0.35738688519092243 0.0029739210291164666
1310000000.0 -0.1317562692204747 0.33218539577692996
1316500000.0 0.3587496820609597 0.005744940808491034
1323000000.0 -0.024207630306713246 -0.356255132805239
1329500000.0 -0.05330547125477648 0.3501574589237598
1336000000.0 0.331135392822893 -0.10108017175141207
1342500000.0 -0.3347415995547305 -0.06754950919567557
1349000000.0 0.19493300772637592 0.2704320296745683
1355500000.0 0.3104117354948125 -0.11033274515784061
1362000000.0 -0.24178763886166554 -0.2169145690654137
1368500000.0 -0.32431039727247785 0.019618682436435927
1375000000.0 0.0869612678246289 0.32129489256588806
1381500000.0 0.24502253045967362 -0.2311310080473645
1388000000.0 -0.33687588278185593 -0.07790302923680245
1394500000.0 0.10870914415910075 0.33620222555345125
1401000000.0 0.14907760964466843 0.3282602034515181
1407500000.0 0.32723785140681144 -0.1644462497621706
1414000000.0 -0.10577304761167299 -0.35841580458622047
1420500000.0 -0.3128074284123741 0.21411060000164647
1427000000.0 -0.18627666924500547 0.33037896796577054
1433500000.0 0.01707589809269868 0.3829348600298655
1440000000.0 0.09717073148868942 0.3677836692580794
1446500000.0 0.05293831877684284 0.38105442706091197
1453000000.0 0.21323319503307256 0.319669834166586
1459500000.0 0.22652402397118937 0.3090608463154064
1466000000.0 0.37779773878690426 -0.05256631813064773
1472500000.0 0.339144462762242 -0.16062061483989779
1479000000.0 0.05674353508479374 -0.36294205389924566
1485500000.0 -0.2472486403986953 -0.2599777643094187
1492000000.0 -0.31756544902158657 0.14058905526000026
1498500000.0 0.13473166660691363 0.3054036430874673
1505000000.0 0.3182826057404699 0.049459753950314427
1511500000.0 0.0725187648946821 -0.3014436073986799
1518000000.0 -0.23181572003422982 -0.1882524517896737
1524500000.0 0.23045035112714948 0.1761710442595067
1531000000.0 0.13171413400444087 -0.2441736178425407
1537500000.0 -0.22640169370832453 0.15424657703656117
1544000000.0 0.258516918873642 -0.05853583018993182
1550500000.0 -0.15628642359599335 0.21511554665217433
1557000000.0 0.06332364023180613 -0.25043948706491936
1563500000.0 -0.24834642310394642 0.059654171337141876
1570000000.0 -0.25436138233945704 0.0066476901106054505
1576500000.0 -0.012219470703452863 0.2563033834263025
1583000000.0 0.22416577514846847 0.13500823265821796
1589500000.0 0.19566514005010804 -0.17775770675095173
1596000000.0 -0.1746469146614809 -0.19585810217658334
1602500000.0 -0.258360206066961 0.03913064158668045
1609000000.0 -0.24942259033565942 0.060390323866660746
1615500000.0 -0.19568950957732775 0.15263218089066488
1622000000.0 -0.018835489217669636 -0.24117364859855406
1628500000.0 0.13092064337513967 -0.19772913135675188
1635000000.0 0.2130338047219711 0.08812467572328568
1641500000.0 0.009724939666384621 0.2235604887978392
1648000000.0 -0.21704461195579297 -0.027349223450558187
1654500000.0 -0.004948184216245412 -0.21263889930715174
1661000000.0 -0.10169229442542786 -0.18263088652402473
1667500000.0 -0.1951146175781204 0.048906552319853226
1674000000.0 0.127971699439033 0.13975126107206945
1680500000.0 0.1518477401240716 -0.08006931499813304
1687000000.0 -0.08897336398145891 -0.13155084946669535
1693500000.0 -0.04842692037847127 0.1336812796022722
1700000000.0 0.0628259991657451 -0.11826885064088564
1706500000.0 -0.038463613571001774 0.11485406925480574
1713000000.0 -0.023815423270253145 -0.11180757699484353
1719500000.0 -0.053124470362158345 0.09725175044129647
1726000000.0 -0.07579572989220529 -0.07875109425553106
1732500000.0 -0.0030536720288900773 -0.10676087252118296
1739000000.0 0.08372087876427986 0.07021230203302246
1745500000.0 -0.10342932478334027 0.02753136822642775
1752000000.0 0.052044404377903974 -0.09561738990763602
1758500000.0 -0.09837763208468496 0.04298208764280898
1765000000.0 0.03985976573804786 0.09868979210762767
1771500000.0 0.07107666574979223 0.07563483342515025
1778000000.0 0.022774087951379994 0.09889973658979274
1784500000.0 -0.05534976328109611 0.08491675566907508
1791000000.0 -0.003737573620314263 -0.09968094533480458
1797500000.0 -0.09889799008115754 -0.0052837204766387836
1804000000.0 -0.01827847520493737 -0.09704565201786716
1810500000.0 0.09196851150076514 0.036746083468108016
1817000000.0 0.07161320944563976 0.06406619826815937
1823500000.0 0.057068402280880115 -0.07006744128332337
1830000000.0 0.006605220265053447 -0.08033403671376602
1836500000.0 0.007142258124147306 -0.07111424742645318
1843000000.0 0.040913312888151164 0.0387025448023625
1849500000.0 -0.02916901330544968 0.03236316934886541
1856000000.0 0.018779016514452723 -0.02535928313792648
1862500000.0 0.0011842947891036234 0.022005028124118996
1869000000.0 -0.01949540704797573 0.0012890046833742544
1875500000.0 -0.012151804125387989 0.014107707020991126
1882000000.0 0.006201378984911628 -0.013069606741888121
1888500000.0 -0.014031513450047398 -0.006539162109029556
1895000000.0 0.017155147280275788 0.0075646607905031395
1901500000.0 -0.002609956266686084 0.021905168286836935
1908000000.0 -0.021341025811949715 -0.0058777758965701775
1914500000.0 0.004242249753950494 -0.023971286889529545
1921000000.0 0.0030505397524855106 -0.025105439381243367
1927500000.0 -0.022353837798509923 -0.002764214274915956
1934000000.0 0.021362172584336606 0.003935382646505606
1940500000.0 0.0011085778101912584 -0.017968676192074068
1947000000.0 -0.020001686411816537 0.00022858664004617342
1953500000.0 -0.00517940248348547 0.02359759619585837
1960000000.0 -0.019987259435443466 0.012731435147068851
1966500000.0 -0.000405088448591322 0.03408460855978396
1973000000.0 -0.04134029260695989 -0.004940007181392195
1979500000.0 -0.026928358695834497 -0.04575571962459641
1986000000.0 -0.015210483777962367 -0.06502242835853923
1992500000.0 -0.07601709863476275 -0.016066467772549727
1999000000.0 -0.052967869214427483 -0.07186653614702007
2005500000.0 -0.09691768170022702 -0.025458915873792315
2012000000.0 -0.029032264185367262 -0.10650671471658503
2018500000.0 0.0618291380216447 -0.10093045693106371
2025000000.0 0.12847213097220916 -0.00028741137404946865
2031500000.0 0.08369042612169873 0.10049345209725469
2038000000.0 0.01084815490711398 0.13530640836964536
2044500000.0 -0.13759496712770575 -0.008786339416998273
2051000000.0 -0.11127679206911557 -0.08762707331103323
2057500000.0 -0.13003736980679406 -0.050574578792987865
2064000000.0 -0.1348921812715239 -0.035929085613839375
2070500000.0 -0.1334792335605518 0.016976137284525687
2077000000.0 0.09775882181090831 0.08389478370508899
2083500000.0 0.0725116436826932 -0.09713768825840151
2090000000.0 -0.09597907829355144 0.06496994289652942
2096500000.0 0.09133898222666856 0.05945672637928303
2103000000.0 -0.06845802298708292 0.08143379962957702
2109500000.0 -0.07734466282778595 -0.07049554496086267
2116000000.0 -0.08823296681227823 0.06319080325804821
2122500000.0 0.037291899978561464 0.10634507111084134
2129000000.0 0.11991351002543232 0.03125579235036501
2135500000.0 0.09332191406266996 -0.09189411091236135
2142000000.0 -0.07016817362007068 0.12460727144991035
2148500000.0 -0.10528498026320947 -0.11221739745671964
2155000000.0 0.042418314211725115 0.16250777571325578
2161500000.0 0.009526436191055032 -0.17931880637507824
2168000000.0 -0.1938703637174332 0.021969818799196652
2174500000.0 -0.1814449192569984 0.0981896383511387
2181000000.0 -0.12250741785321255 0.18034903413223038
2187500000.0 -0.02682037342028905 0.2290765075561798
2194000000.0 -0.0005450869743809862 0.24206122162403235
2200500000.0 0.006193167897238494 0.2522213813145304
2207000000.0 0.2437000490699471 0.08243164157046212
2213500000.0 0.23737975222761146 0.10337911742281522
2220000000.0 0.2576630233003111 -0.020597167213911645
2226500000.0 0.220763197571862 0.12081126867312666
2233000000.0 0.22361941601781776 0.10507614163229337
2239500000.0 -0.09084136672796825 0.22352445839057045
2246000000.0 -0.1267151720846575 0.19673109644040482
2252500000.0 -0.20604115868236872 0.0907855804186845
2259000000.0 -0.21552212420620392 0.04646353960845872
2265500000.0 -0.1785556844891511 0.11904354813442841
2272000000.0 -0.02845150956472954 0.20578237907737557
2278500000.0 0.10703071148499128 -0.17203417882724267
2285000000.0 -0.10716005471954974 0.16156605243008818
2291500000.0 0.03378183144915489 -0.1807850466611262
2298000000.0 -0.03687401352852848 0.16972482596582797
2304500000.0 -0.051190774293765166 -0.16106953437827304
2311000000.0 -0.14117001283446207 -0.06578666964490873
2317500000.0 -0.07822512660886757 0.13369018499850074
2324000000.0 0.032804857347686636 -0.14775155942328463
2330500000.0 -0.1477089756192141 -0.032890061972586065
2337000000.0 0.06473620584858633 0.13617259111312935
2343500000.0 0.10483022355145709 -0.11208942928074582
2350000000.0 -0.146637017889253 -0.0484429823550669
2356500000.0 -0.14639590826797305 0.05899613849492268
2363000000.0 -0.018638993228718276 0.15912945699917114
2369500000.0 0.15217748398874342 0.05313892714187607
2376000000.0 0.15716515809117898 -0.036596899622967714
2382500000.0 0.12065046881440972 -0.10427016576103681
2389000000.0 0.15571731996582358 0.032870376960375425
2395500000.0 0.0664819341476384 0.14410869505434687
2402000000.0 -0.12422221443002014 0.09841863682234171
2408500000.0 -0.1331282693844601 0.08888278093197395
2415000000.0 -0.09862616554483987 0.12617554507341178
2421500000.0 -0.1321207133209618 0.0877911930175925
2428000000.0 -0.0361816772431697 0.15216084430083546
2434500000.0 0.050826609580750415 0.14433017789208605
2441000000.0 0.03878539924635482 0.14764934840054728
2447500000.0 0.13417031877978094 0.06794479962156359
2454000000.0 0.1492511734716627 -0.008669815579853132
2460500000.0 0.14856049665270274 -0.008341417872298288
2467000000.0 0.14692485564396016 0.02142565947975245
2473500000.0 0.14955968803564368 -0.0012986026751951282
2480000000.0 0.12799299963537528 0.07900235697860396
2486500000.0 0.15134899869420945 0.03622870321015864
2493000000.0 -0.029226175482692858 0.15187160881244105
2499500000.0 0.02101094879430847 0.15522606020059435
2506000000.0 0.029015105302574333 0.15634003161520774
2512500000.0 -0.08640103463694238 -0.13353324232037198
2519000000.0 0.16081375718736557 0.0017422098762194882
2525500000.0 -0.1449049068382674 0.07622401826749316
2532000000.0 0.08055086882103193 -0.1466201594659779
2538500000.0 -0.06664490344621196 0.15360812334995297
2545000000.0 -0.11084328452621024 -0.12785926146592025
2551500000.0 0.10799213428212351 0.12909060286921292
2558000000.0 0.04009668559128546 -0.16375687314661316
2564500000.0 -0.003033719723982526 0.16587889092720706
2571000000.0 0.12296536036893768 -0.10920352370972768
2577500000.0 -0.15738095555522577 -0.015739577619033034
2584000000.0 -0.1502008157857867 0.04347011163905773
2590500000.0 0.045310167697672765 0.14566155372001635
2597000000.0 0.14408352976139008 -0.049991984186147635
2603500000.0 -0.053285578009946884 -0.13970373869968677
2610000000.0 0.053646483666989354 0.13914976815405272
2616500000.0 -0.05705101280522746 -0.13282090821025033
2623000000.0 0.11203181953980484 0.08371177091420692
2629500000.0 -0.1228992264722383 -0.046015437558912874
2636000000.0 0.10244234230980863 -0.06949742503798668
2642500000.0 -0.0916677460519668 0.06751026581879487
2649000000.0 -0.10387526813317535 -0.02552554213435304
2655500000.0 0.09672913578920772 -0.008194580682599793
2662000000.0 0.07899504261210152 -0.04730385649572402
2668500000.0 0.05937163387146074 -0.0642241374454318
2675000000.0 -0.06331106788786789 0.05684572370348921
2681500000.0 -0.08087637782870098 0.019192694551824818
2688000000.0 -0.06958182502523302 0.04639827809814883
2694500000.0 0.030605007679164256 0.08030567439785395
2701000000.0 -0.07953906288763338 0.037237903857288174
2707500000.0 -0.08243274289458336 -0.050527848448726924
2714000000.0 0.10275660192438488 0.015938602134451606
2720500000.0 0.034714291115891686 -0.11079582170187509
2727000000.0 -0.1268820773471075 0.0010746490305501358
2733500000.0 -0.053467403204894175 -0.12966416349092788
2740000000.0 -0.1146423976421636 -0.10403674408152469
2746500000.0 0.03868123714258074 -0.16200215952310162
2753000000.0 0.17407934421422663 -0.05322880114602955
2759500000.0 0.17058828086344316 0.08840399285656259
2766000000.0 -0.13036816020994485 0.1546214076106473
2772500000.0 -0.11766189840465677 -0.1754944300867112
2779000000.0 0.14050580979866625 0.16796938353219412
2785500000.0 -0.2149001144160414 -0.06825277495846689
2792000000.0 0.2287471171788936 0.0452876099423014
2798500000.0 -0.19134633940540302 0.14607415057233222
2805000000.0 0.1684771195831472 -0.18004133905803035
