!Created with skrf (http://scikit-rf.org).
# Hz S RI R 50.0 
!freq ReS11 ImS11
400000000.0 -0.7131724030914834 0.0963002664000901
406500000.0 -0.3034219494016164 -0.6320524849219413
413000000.0 0.6764264317727822 0.042180666550969595
419500000.0 -0.6665933049788668 -0.005972911309399204
426000000.0 0.2808610142434056 0.5943513461739384
432500000.0 -0.489517006516148 -0.4245617699199312
439000000.0 0.6328503235902927 0.06057556222031972
445500000.0 -0.6178150870897376 0.1066057681935185
452000000.0 0.5104208832549523 -0.3515119492190633
458500000.0 -0.12633360142947828 0.6099155869562544
465000000.0 -0.5237510906995608 -0.33715529176736014
471500000.0 -0.26435738073406817 -0.5615593749947911
478000000.0 -0.07854875404795775 -0.6075205567045548
484500000.0 0.2310466962844995 -0.5592826916132535
491000000.0 0.06974568563055271 -0.5871415306569894
497500000.0 -0.28208036661333613 -0.4959646789765437
504000000.0 -0.4531153143678584 0.29306692660035244
510500000.0 0.029011070605040556 0.49986286772237193
517000000.0 0.398346470423509 0.22703206945943605
523500000.0 0.09139741651459686 0.41886123237564454
530000000.0 -0.13995660192249498 0.36675030888520244
536500000.0 0.22711976809717468 0.2794998590831633
543000000.0 0.3064058882571353 0.16357524780859306
549500000.0 0.32202308139627533 0.08008321252314039
556000000.0 -0.04722143286978888 -0.30305360036779905
562500000.0 0.13536411870638537 -0.2565446240098761
569000000.0 -0.18539125871280365 -0.200239566203239
575500000.0 0.26224169926220603 -0.012650026405448597
582000000.0 0.03568196878272745 -0.25626249096303616
588500000.0 0.2255593793486995 0.14319089418392245
595000000.0 -0.03186512202209031 -0.2847103399294168
601500000.0 0.08449662993255734 -0.28061220736163905
608000000.0 0.22136500091023056 -0.19495598366253145
614500000.0 0.053202290373037066 -0.29573967364655696
621000000.0 -0.010292595898574236 -0.29900740851743013
627500000.0 0.2892552987038787 0.06455055874610653
634000000.0 -0.10640287141918407 0.28255103146029437
640500000.0 -0.2912170915108927 -0.004481794007019188
647000000.0 0.2902126159856547 0.06952067604243775
653500000.0 0.176617151062718 0.24163296028735795
660000000.0 -0.291877421534021 -0.06549680021728065
666500000.0 0.10533353799924247 -0.28060615304165376
673000000.0 0.14173580098870928 0.25975953755901904
679500000.0 0.277698875196545 -0.12441843400939305
686000000.0 0.26488284589578315 -0.1344625397997023
692500000.0 -0.2943154949228176 -0.01769546749141122
699000000.0 0.20050287273223605 -0.20881635366395368
705500000.0 -0.28888207293160983 0.04539149671926442
712000000.0 0.2937024686588639 -0.0076241433687928165
718500000.0 0.10251896186832139 -0.2813587243850012
725000000.0 -0.01921672970070132 0.312350408772183
731500000.0 0.10593499506766274 -0.3014490780942473
738000000.0 0.15027108847699702 0.29611796335573737
744500000.0 -0.3243378292055652 -0.05625830486258438
751000000.0 0.22349306770599717 0.2435834042174786
757500000.0 -0.12874330527800376 -0.31366173248683105
764000000.0 -0.2525358279886815 0.24033018881449622
770500000.0 -0.14598441387264954 -0.3244124519239883
777000000.0 -0.13557855595814533 0.3370399381695206
783500000.0 -0.06187233092509147 -0.3552859171802965
790000000.0 -0.12010953950095607 0.34641944110738704
796500000.0 3.999472101334405e-05 -0.3695515487565784
803000000.0 -0.3322538035187927 0.1455514319508285
809500000.0 0.2944062782380659 0.21085799068789152
816000000.0 0.2036178151379003 -0.29739750159478295
822500000.0 -0.06967462504745925 -0.36344451493866964
829000000.0 -0.31047548124542135 0.22171124898012784
835500000.0 -0.3870732755678649 0.07354310042393719
842000000.0 0.4106846966241946 0.03838700399373412
848500000.0 -0.293780398406877 -0.29190447930284563
855000000.0 0.21510338325064646 0.3667591941726604
861500000.0 0.1357595172822103 -0.40531083676736135
868000000.0 -0.25701681410313926 0.3503537834578929
874500000.0 0.34910508448407906 -0.2605510478685328
881000000.0 -0.31479002224210306 0.3139024801970624
887500000.0 0.15726856221684268 -0.4195582706887937
894000000.0 0.06924783998444854 0.4406100706068135
900500000.0 -0.4337478231533984 0.06997955878997401
907000000.0 -0.17105486121103994 -0.39355993981453086
913500000.0 0.3927292296132587 0.12143473305588474
920000000.0 -0.20272371751404933 0.34489273536406573
926500000.0 -0.38182684652023824 -0.04612911479084397
933000000.0 -0.1026793224542407 -0.35746378548815094
939500000.0 -0.06010802888537168 -0.3561286080715675
946000000.0 -0.12480982481968256 -0.3179804499664043
952500000.0 -0.05612626276824446 -0.3157219694256609
959000000.0 -0.12454002002929247 -0.27401139434273675
965500000.0 -0.11433733837554237 -0.259251775206513
972000000.0 0.15603019880313312 0.2182206413881693
978500000.0 -0.12893768086756033 0.2222161687787608
985000000.0 -0.19780250529880739 0.1377026767331104
991500000.0 -0.21056758047864535 -0.08886656414191055
998000000.0 0.08325963317012294 -0.19877986500952222
1004500000.0 0.1801457366552092 0.09589129771741071
1011000000.0 -0.18702492491089326 0.04733765635730248
1017500000.0 -0.012221434840808365 -0.18138764458704823
1024000000.0 0.1635021974586864 -0.028414305394250525
1030500000.0 0.06362102217299656 0.13762153909857186
1037000000.0 0.001449219559884942 -0.13896272760759978
1043500000.0 -0.026681222952924643 -0.12626574454744688
1050000000.0 0.12275572102115502 -0.0036028742087666323
1056500000.0 -0.09767258936415107 -0.0629508934725305
1063000000.0 0.10563934947673886 0.030849065423227823
1069500000.0 0.0945048108389752 -0.04212204356665453
1076000000.0 -0.02340048173407085 -0.09955005252877779
1082500000.0 0.00884399744410192 -0.0991291923833973
1089000000.0 -0.09762423869373581 -0.025269049503865586
1095500000.0 0.08378804909766872 0.05628172254806223
1102000000.0 -0.10698823420495596 -0.0015427513495430596
1108500000.0 0.09114546018132715 -0.06527677651106172
1115000000.0 -0.07646511900039185 -0.09341795502301956
1121500000.0 -0.03326690431292836 0.13220183798351937
1128000000.0 0.015157589566921679 -0.15075697858254447
1134500000.0 -0.049633355710742524 0.15837142339887014
1141000000.0 -0.06488597841805377 -0.1727572490858717
1147500000.0 0.14829071694225682 -0.13729902897191398
1154000000.0 0.16428783722707482 0.1333528244055746
1160500000.0 -0.020004002775997214 0.2186296811995729
1167000000.0 -0.21304828538736514 -0.07375247338411595
1173500000.0 0.2247348210215412 0.015214160760053164
1180000000.0 -0.2251196030225315 -0.03574317238492068
1186500000.0 0.10273092432362783 0.20284340464551157
1193000000.0 0.18907416370409194 -0.13916173917669522
1199500000.0 -0.24184610042657567 -0.006096320474863758
1206000000.0 -0.1985872602720376 0.15414610193357187
1212500000.0 0.25560617333888097 -0.07516822536355366
1219000000.0 -0.2692563428037989 0.08496245151047889
1225500000.0 0.2854243481350979 -0.05048627140602176
1232000000.0 -0.23135337842463824 -0.1924813329119995
1238500000.0 -0.23243260187577128 0.20626721829359054
1245000000.0 0.20965616323342406 0.23817394633227898
1251500000.0 0.19997368206776744 -0.2576721776986716
1258000000.0 -0.18913448521455867 -0.27221520496223156
1264500000.0 -0.316052555527568 -0.11307936343770332
1271000000.0 -0.19267885860796058 0.28485672023561975
1277500000.0 0.08504282750935872 0.337499555831328
1284000000.0 0.34816259704390684 0.0581742444578028
1290500000.0 0.26375560085883903 -0.23641694141004468
1297000000.0 -0.09718762495417105 -0.345411574868574
1303500000.0 -0.35692768607980263 -0.026156029912516806
1310000000.0 -0.16977155569750776 0.3141848343888772
1316500000.0 0.35137600518398204 0.07190992917136531
1323000000.0 0.012147312520012976 -0.35677816856134975
1329500000.0 -0.058459906975077754 0.3490157115947798
1336000000.0 0.3326261010828047 -0.09437511928460039
1342500000.0 -0.33456467385406863 -0.06655065506112211
1349000000.0 0.20575591856936726 0.2618686299413471
1355500000.0 0.3108042752562829 -0.10810165975066291
1362000000.0 -0.24249618379313911 -0.21579430049111598
1368500000.0 -0.3213739648427273 0.04812333467922667
1375000000.0 0.10328533659943773 0.31641908387353296
1381500000.0 0.2300553668861625 -0.24617620340231194
1388000000.0 -0.3426659869076602 -0.0497295957955308
1394500000.0 0.1447751936454822 0.3229964863182847
1401000000.0 0.13156319243777964 0.3362042003301393
1407500000.0 0.30556909467164145 -0.2032884818490742
1414000000.0 -0.1408035277173361 -0.34697548094815356
1420500000.0 -0.32167319679567635 0.20170430957966107
1427000000.0 -0.21626048705263498 0.3124827674800985
1433500000.0 -0.035814901793738994 0.38239777007524706
1440000000.0 0.036974369763413506 0.3789642730642135
1446500000.0 -0.005592586034485111 0.38539357868919577
1453000000.0 0.1430563637078154 0.3572195584338654
1459500000.0 0.18223561446277772 0.3371797462485151
1466000000.0 0.380427426576761 -0.027714306332979673
1472500000.0 0.34153867672318805 -0.15607977738492967
1479000000.0 0.07574365047992028 -0.3591627666685373
1485500000.0 -0.20980650500121475 -0.2908274069226201
1492000000.0 -0.32618658457885735 0.1181528166410371
1498500000.0 0.032662964879028575 0.3315028111483381
1505000000.0 0.2867478961747373 0.1440921975815245
1511500000.0 0.07354646170677596 -0.30068259535353997
1518000000.0 -0.24511409468335016 -0.16978354494863634
1524500000.0 0.25514912030070347 0.13667032426750214
1531000000.0 0.11170381696743671 -0.25371832918401843
1537500000.0 -0.1989236990635722 0.1887028075168747
1544000000.0 0.24469078484024703 -0.10278936503810582
1550500000.0 -0.1355059502535973 0.22991702724748533
1557000000.0 0.040534716519401326 -0.25594178974454845
1563500000.0 -0.24984746779831915 0.05863733831786641
1570000000.0 -0.25395933297041284 -0.02913726832720255
1576500000.0 -0.023789167258179512 0.25673516793520573
1583000000.0 0.20685232396499062 0.16123454032407084
1589500000.0 0.22159250729632762 -0.14429413942030478
1596000000.0 -0.12320854776196401 -0.23234910095078096
1602500000.0 -0.2579976831720821 -0.04314107840764087
1609000000.0 -0.2554045547373959 -0.026556119040336293
1615500000.0 -0.22645771657734345 0.10159383363912239
1622000000.0 0.07326629444142355 -0.23047878564071614
1628500000.0 0.17320766042248162 -0.16128974474432134
1635000000.0 0.1962247076440412 0.12030484596970517
1641500000.0 -0.027536526588950182 0.22174736590677804
1648000000.0 -0.2128187106913448 -0.049563075391522035
1654500000.0 0.01775923822319384 -0.21141652342939024
1661000000.0 -0.09143348028172701 -0.18761138983955644
1667500000.0 -0.19768428140230593 0.03549747930278301
1674000000.0 0.13104798316041588 0.13617031155588485
1680500000.0 0.14004226469636147 -0.0985186971540017
1687000000.0 -0.11130924241031658 -0.11262371195980285
1693500000.0 -0.009195388919203904 0.14150759449202763
1700000000.0 0.04388140188272953 -0.12624734335292961
1706500000.0 -0.022290903153103003 0.11915725238475258
1713000000.0 -0.06329410631259483 -0.09540828044535285
1719500000.0 -0.035392420657522954 0.10531836989721118
1726000000.0 -0.10199653184879555 -0.040587933056631144
1732500000.0 -0.005616995828407238 -0.10797464806864912
1739000000.0 0.08173281467248851 0.07385486389517486
1745500000.0 -0.10744189058509185 0.007379768214306473
1752000000.0 0.08103272299932218 -0.0735737039649455
1758500000.0 -0.10770253233086027 0.004876720496236484
1765000000.0 0.014078684387836415 0.10626845665908881
1771500000.0 0.04739636612697926 0.09238785609071383
1778000000.0 -0.031083940946371152 0.09668020792036851
1784500000.0 -0.0830146044839931 0.05758475721045103
1791000000.0 0.0369602724751174 -0.09228635122519284
1797500000.0 -0.09627022598775728 -0.02041129619500787
1804000000.0 0.0006590965991037569 -0.09827386454108822
1810500000.0 0.08680799606591348 0.04650332780403321
1817000000.0 0.05562325084333187 0.07748686277373636
1823500000.0 0.06533226939598136 -0.06161743408650609
1830000000.0 0.019566752541536905 -0.07769573933970436
1836500000.0 0.001145990179896381 -0.07104335182434243
1843000000.0 0.05525306675915825 -0.00431919554074913
1849500000.0 -0.01756494432330025 0.03928739139251805
1856000000.0 -0.01603408533058411 -0.027040726962021547
1862500000.0 0.017401001161509024 -0.013004676461778292
1869000000.0 0.01424572053780556 0.013671303070811354
1875500000.0 0.018763824197241992 -0.0027304288993979494
1882000000.0 -0.009597077298830612 -0.011527593752355429
1888500000.0 -0.015278739150152583 0.004375752389790065
1895000000.0 -0.01921309462811922 -0.0007081506148807296
1901500000.0 -0.022155138036054112 0.0026183026517407376
1908000000.0 -0.0014986827326851522 -0.022311013257965875
1914500000.0 0.02087099563998775 -0.012645620973819948
1921000000.0 0.014903164053734668 -0.019419956751557922
1927500000.0 -0.014462843606027497 0.016834354767097773
1934000000.0 0.0019748190877298135 -0.021469578940342085
1940500000.0 -0.016391077433266586 -0.006782277777769962
1947000000.0 -0.015733199024297047 0.013273996743838756
1953500000.0 -0.011143397956289573 0.02173258965534549
1960000000.0 -0.023260304358268757 -0.005493108285239673
1966500000.0 0.00406705667269122 0.03396291184270067
1973000000.0 -0.030526567607788803 -0.02873378273054073
1979500000.0 0.012278247770349273 -0.051492999659973844
1986000000.0 0.00939545542511126 -0.06639321521249121
1992500000.0 -0.06742273080793303 -0.039205979705391664
1999000000.0 -0.0016291885407196686 -0.08899360376372054
2005500000.0 -0.08056899526136431 -0.05908690088247338
2012000000.0 -0.020818312697321924 -0.10849204257198589
2018500000.0 0.08792316224875511 -0.07880520883960863
2025000000.0 0.12830668350234314 -0.00011136460398013847
2031500000.0 0.0830642506710934 0.10125803160308726
2038000000.0 0.005412503301240872 0.13514100152600736
2044500000.0 -0.13732062376898663 -0.006727514891437574
2051000000.0 -0.10382081118553471 -0.09547189895694606
2057500000.0 -0.13099522506405972 -0.04547215618623657
2064000000.0 -0.1387678131603947 -0.013394660957183854
2070500000.0 -0.12395918054451961 0.052274671186837256
2077000000.0 0.11381233023748288 0.060077125069729835
2083500000.0 0.05106909079625578 -0.10991136644463048
2090000000.0 -0.08688593396623272 0.07744875421635113
2096500000.0 0.10407318944652515 0.032817009237730295
2103000000.0 -0.045475589486599154 0.09633884290620844
2109500000.0 -0.09247681023560113 -0.049880094031681366
2116000000.0 -0.08695976626982475 0.06599294354793143
2122500000.0 0.021798793058900194 0.11099629368462252
2129000000.0 0.12444020355911961 0.002849924689845448
2135500000.0 0.09561491035324818 -0.09020188781672392
2142000000.0 -0.06727955412923349 0.1268238758326545
2148500000.0 -0.08876586632714978 -0.12652995062483546
2155000000.0 0.05549392410133333 0.15898461142056333
2161500000.0 0.013368744166416063 -0.17930268589417
2168000000.0 -0.19327447651493287 0.025578189452107828
2174500000.0 -0.17715642553773503 0.10476118090642511
2181000000.0 -0.13407091706249144 0.17143406414938295
2187500000.0 -0.027068890680525436 0.22868657420779487
2194000000.0 -0.018228407084022905 0.24129714604717264
2200500000.0 -0.001824336956287774 0.2521361771453605
2207000000.0 0.24670390726440744 0.07146501101063128
2213500000.0 0.23828907199514876 0.10073296087478807
2220000000.0 0.2578515629128629 -0.012673104713170433
2226500000.0 0.22910181571432522 0.10378201568862165
2233000000.0 0.2236357913848559 0.10465163657556247
2239500000.0 -0.08112673598394311 0.22724855280212533
2246000000.0 -0.13602990190262806 0.19073005772093551
2252500000.0 -0.2060418353468456 0.09015285159018593
2259000000.0 -0.2197775396627526 0.020720670248463822
2265500000.0 -0.171505810989116 0.12909667621400162
2272000000.0 -0.009457697018859769 0.2078609424050689
2278500000.0 0.07937507817858971 -0.18636675703920658
2285000000.0 -0.10705928705783743 0.16213276705838756
2291500000.0 0.025093542216533687 -0.1828563911259102
2298000000.0 -0.03076465278851877 0.1709540631533519
2304500000.0 -0.059314825943363875 -0.15837784251334602
2311000000.0 -0.13499170443725278 -0.07819556251898672
2317500000.0 -0.09878835744161553 0.12012182792624167
2324000000.0 0.05440381598843579 -0.14145377398073355
2330500000.0 -0.14389706101904828 -0.048243990539813514
2337000000.0 0.05430394038529693 0.14164426034496921
2343500000.0 0.1370433085449275 -0.06994223945060243
2350000000.0 -0.14289807516449143 -0.058753120744187474
2356500000.0 -0.15527060046245897 0.02826201077913123
2363000000.0 -0.041978542666827864 0.15438593794252822
2369500000.0 0.15645409354791873 0.038262344801457515
2376000000.0 0.15376160859634888 -0.04833612365537941
2382500000.0 0.13257849033814093 -0.08755656259956597
2389000000.0 0.1580197946391673 0.014924851229121181
2395500000.0 0.07191617623056175 0.14081055309905158
2402000000.0 -0.11638018443686417 0.10707338416629447
2408500000.0 -0.11297564196507298 0.11314041436434397
2415000000.0 -0.06729904809885978 0.14534570476132846
2421500000.0 -0.10333400045274602 0.12040159078676084
2428000000.0 -0.00443334022251873 0.1567397664138988
2434500000.0 0.07261324030111531 0.13521412722587928
2441000000.0 0.057262512838550016 0.14188142217264624
2447500000.0 0.14372701176536573 0.04640806877523257
2454000000.0 0.14098555188198322 -0.05128574158264023
2460500000.0 0.1479885555771432 -0.021301677411510882
2467000000.0 0.14843978208034406 0.014029939860680199
2473500000.0 0.1489378327318023 -0.011274498668052328
2480000000.0 0.11458089339619894 0.09773123100406712
2486500000.0 0.1397440537370457 0.06979484725629831
2493000000.0 -0.06634097835751612 0.14108990681730071
2499500000.0 -0.035390039935313075 0.15345206565726807
2506000000.0 -0.039857546445573606 0.15391466516239757
2512500000.0 -0.007469273180643535 -0.1586664686988568
2519000000.0 0.1480709902919678 0.062922388793725
2525500000.0 -0.1551282554546529 0.05229259779377065
2532000000.0 0.11920997943885922 -0.11673239941348003
2538500000.0 -0.09571786455436375 0.13696482703686025
2545000000.0 -0.07293762378610144 -0.15244776528040715
2551500000.0 0.09311508483702892 0.1392319605666742
2558000000.0 0.06536357087330785 -0.1543474721018028
2564500000.0 -0.009988308296260883 0.16479719191952408
2571000000.0 0.1255708401356058 -0.10511096092567657
2577500000.0 -0.15744441590375646 -0.0028819346045096754
2584000000.0 -0.14866336347610176 0.04583188623111905
2590500000.0 0.04736157980225426 0.14452638579793195
2597000000.0 0.13584165821339544 -0.06800008703323182
2603500000.0 -0.05257492192108588 -0.13930879440935945
2610000000.0 0.06193230224708342 0.13508300846076346
2616500000.0 -0.07259404351190551 -0.12375875485646627
2623000000.0 0.11973443300385173 0.07136940418245874
2629500000.0 -0.12980043649329867 -0.016037506500864582
2636000000.0 0.09439573130901129 -0.0792157149345913
2642500000.0 -0.07928070151491504 0.08143351696990449
2649000000.0 -0.10653097243382813 -0.008244256759523741
2655500000.0 0.0972023414436462 -0.0004992492469119674
2662000000.0 0.060314543824280274 -0.07013790269511604
2668500000.0 0.04587748806764295 -0.07504102502908241
2675000000.0 -0.05453688177233191 0.06618677230111093
2681500000.0 -0.08385840667598482 0.00019377563678972773
2688000000.0 -0.07588569073359369 0.03578711780270666
2694500000.0 0.003879566677195859 0.08627898164736675
2701000000.0 -0.08775525478590371 0.012549297429770309
2707500000.0 -0.05199076754006756 -0.08177939509189305
2714000000.0 0.0963027801268378 0.04096720181618772
2720500000.0 0.04603931774631135 -0.10629407947618552
2727000000.0 -0.12172050922164389 -0.03585585835449315
2733500000.0 -0.018510416444257452 -0.13835253184668683
2740000000.0 -0.11219001693025793 -0.10624986664481806
2746500000.0 0.07119111095271118 -0.15012006852909093
2753000000.0 0.17856070130331073 -0.03164648839596344
2759500000.0 0.16767536900224358 0.0930887827353329
2766000000.0 -0.12972283064443474 0.15423990154920633
2772500000.0 -0.15245126708497697 -0.1454016682278874
2779000000.0 0.1631272410061072 0.1451163014565965
2785500000.0 -0.22299135501480336 -0.032351626345834834
2792000000.0 0.23124921720512556 0.030054871295502234
2798500000.0 -0.1778947324214648 0.16263369201642133
2805000000.0 0.15134236259594852 -0.19476866656510872
