!Created with skrf (http://scikit-rf.org).
# Hz S RI R 50.0 
!freq ReS11 ImS11
400000000.0 -0.8138839503493221 0.20629786581351545
420000000.0 0.004870348044338536 -0.7798680053508683
440000000.0 0.095981127112705 0.6569473836236678
460000000.0 -0.28250077309972255 0.4208083284390428
480000000.0 -0.02203932662127475 -0.34455272802088593
500000000.0 0.17263684860043516 0.17484517250726478
520000000.0 0.19382365320667547 -0.22423498825483648
540000000.0 -0.2248089565855329 -0.32943675180964244
560000000.0 0.20119228250169746 0.41310057101591074
580000000.0 -0.39671029749439407 0.3008532211682334
600000000.0 -0.2776501686534486 0.41567291910064946
620000000.0 -0.24115377705745158 0.43728365353349774
640000000.0 0.028988110923694944 0.4946378630516818
660000000.0 0.485825700810659 0.15482655406040235
680000000.0 0.4010980421829792 -0.2932795712239995
700000000.0 0.19431814554794763 0.4261690459039039
720000000.0 0.2388901158380928 0.351530667199835
740000000.0 -0.12453185116358043 -0.34818639623108794
760000000.0 0.0705700396461376 -0.30965109429845245
780000000.0 -0.28381736264688706 -0.10154582762845421
800000000.0 -0.21248181500381164 0.12022326395944152
820000000.0 -0.024901238848553737 0.18013645623018865
840000000.0 0.06182088808752443 0.0873164587363575
860000000.0 -0.04352714202284972 0.026139147432233945
880000000.0 -0.017587772485785594 -0.02426100733985309
900000000.0 -0.09603118775925332 -0.028604154352666052
920000000.0 -0.07460074933182442 0.11922058236010775
940000000.0 0.15559888321605841 -0.07910753700101504
960000000.0 0.15932394682971562 0.14153575008020505
980000000.0 -0.2501087937082461 -0.0522302830077849
1000000000.0 -0.2565633520659259 -0.027344098314162534
1020000000.0 0.2832218973521905 -0.04738236626917853
1040000000.0 0.017813303669416233 -0.27048357903307974
1060000000.0 0.29640477792171765 0.0022724161017557924
1080000000.0 -0.20023005890409498 0.2087161307431175
1100000000.0 -0.2202182094824209 -0.23700173352216442
1120000000.0 0.2514672501768374 -0.15755059444578298
1140000000.0 0.09161057196868688 -0.27812676079064336
1160000000.0 -0.24484857245490493 0.15186653422713306
1180000000.0 0.028374976589319794 0.27588914966059186
1200000000.0 0.2661734605758953 0.013547745837686424
1220000000.0 0.09472831362941501 0.2135869550807611
1240000000.0 -0.11867705155119136 -0.19731034963742491
1260000000.0 0.045742912824246494 0.1940717357958659
1280000000.0 -0.13577057655898664 0.15459234520752033
1300000000.0 -0.11689247043559081 -0.18493662110600834
1320000000.0 0.1311998788220828 -0.18301554786141505
1340000000.0 -0.12785080632188722 0.1712306677442394
1360000000.0 -0.13407503114501498 0.2419076042700305
1380000000.0 -0.2763060119274163 -0.018746638973793115
1400000000.0 0.18834530069408803 0.24284776605844186
1420000000.0 -0.3138966776915225 0.08317325407010785
1440000000.0 -0.00895627142794373 0.3331774317620649
1460000000.0 0.18008979667310915 0.2787645381688
1480000000.0 0.2622935211930581 -0.21928382253709808
1500000000.0 0.06456860537435256 0.32417616072109473
1520000000.0 0.3143827828087749 0.01730423577199936
1540000000.0 0.23641117133201353 0.1900991804196165
1560000000.0 0.026809280895243218 -0.2676960388379638
1580000000.0 0.1597284219340836 -0.1950540910172705
1600000000.0 0.13469660306927866 0.19862991667329286
1620000000.0 -0.2155073966639787 0.04870276719931139
1640000000.0 0.098980374983549 0.19382706940071395
1660000000.0 0.17730086270385273 0.07532769962034472
1680000000.0 0.06943804300734517 0.16429843639061184
1700000000.0 0.11099650027226185 0.11842566303337874
1720000000.0 0.12768174027803741 0.0711402800809368
1740000000.0 -0.11850500360602227 0.014294861677327134
1760000000.0 0.044467437991044655 0.11349937379895685
1780000000.0 0.104969887629096 -0.029880313193278794
1800000000.0 -0.07238766391167406 -0.09413137049801312
1820000000.0 0.047250187720602486 -0.10971369462235182
1840000000.0 -0.1311973516392929 0.030756754996631656
1860000000.0 -0.15795240413932674 0.06809012655720319
1880000000.0 0.11183342930910012 0.15443502707595372
1900000000.0 -0.1427121938002643 0.14796019555225884
1920000000.0 -0.21181441167952633 -0.0798837165616013
1940000000.0 0.1799280792726355 0.15980240303366636
1960000000.0 0.22113913596834917 -0.13228344227803676
1980000000.0 -0.12555635150803116 -0.23917245977997964
2000000000.0 -0.11949594209609293 0.23652511886279848
2020000000.0 -0.15797509013550318 0.21707085717121807
2040000000.0 -0.18667692374444075 -0.1978701511110398
2060000000.0 -0.05707557044345146 0.26423605708936315
2080000000.0 -0.22810265496333945 -0.15003230617791843
2100000000.0 0.2542354648364293 0.08861536366981278
2120000000.0 -0.0826255925303576 -0.24686900055245733
2140000000.0 -0.19470850768430767 0.1553088895276143
2160000000.0 0.23624546327482554 0.05482413581984306
2180000000.0 0.1788544535940343 0.14827090382747737
2200000000.0 0.21113991304204047 -0.026882313961844647
2220000000.0 0.20937552869417608 -0.0316064812209751
2240000000.0 -0.11707798579430143 0.16043025651716708
2260000000.0 0.06424095030993862 -0.17195343174780214
2280000000.0 -0.17089430680513906 -0.02216016284523889
2300000000.0 -0.019598075283813958 -0.16015350327503952
2320000000.0 -0.13570192853117385 -0.02095213699688139
2340000000.0 -0.0903289026410946 0.08272199214038023
2360000000.0 -0.050667612690867656 0.09163833169249049
2380000000.0 -0.06262384729700039 -0.07738838788317585
2400000000.0 0.09515273727999309 0.04299770997262896
2420000000.0 -0.012531691056619871 -0.10328763033165829
2440000000.0 -0.02491743892525623 -0.09872066435192979
2460000000.0 0.035462079371920356 -0.10313177312261347
2480000000.0 0.09919564293715477 -0.042948641273303494
2500000000.0 0.07707603889675195 -0.0825247580532512
2520000000.0 -0.09156932477202277 0.07492178970124248
2540000000.0 0.11271695158656414 0.019170860103537368
2560000000.0 0.06861341495522062 0.10216156835821208
2580000000.0 0.00490997626070528 -0.12842311864127856
2600000000.0 -0.006969422907295864 -0.13214397531908442
2620000000.0 -0.06709867767901656 -0.12473658499852713
2640000000.0 0.12427097911131028 -0.09098720484131109
2660000000.0 0.08504661340088077 0.13351942352790863
2680000000.0 0.04274682181909116 0.15887497865968195
2700000000.0 -0.1090272749165706 0.11880957602877085
2720000000.0 -0.1591977404204021 0.03159018354780348
2740000000.0 0.15515815003083328 -0.03631893046727798
2760000000.0 -0.13615239192496714 -0.06836560619148872
2780000000.0 -0.08124126376777595 -0.13166557711803456
2800000000.0 0.10170565457553962 -0.1170677426425992
2820000000.0 0.08478137170125426 -0.13124124744339077
2840000000.0 0.04001177521852772 -0.1710414112403172
2860000000.0 -0.08788167508938813 -0.16742801052053005
2880000000.0 0.14551994297557874 -0.15882191267717172
2900000000.0 0.17771632448793323 0.14005172436506622
2920000000.0 -0.058268539541402146 -0.22307684122457805
2940000000.0 -0.17705419781629933 -0.15839838650704935
2960000000.0 -0.2233957524002221 -0.08600176674319956
2980000000.0 -0.10697137257904678 -0.20883703817243973
3000000000.0 -0.1286661285940202 -0.19153072252873746
3020000000.0 0.005390380586851327 -0.20922003855112611
3040000000.0 -0.12756707226505856 0.14813305634589252
3060000000.0 -0.14635547312485073 -0.11153185590218634
3080000000.0 0.051399333907559734 -0.16035106727670562
3100000000.0 -0.05999860827506721 0.14218976145554302
3120000000.0 0.030694467176093993 0.13353229944088704
3140000000.0 -0.1288564654531023 0.028085863499249856
3160000000.0 0.06597691031017064 0.11014055355309839
3180000000.0 -0.09081475860978469 -0.10101190020328261
3200000000.0 0.10401909449448267 0.1019436605314509
3220000000.0 -0.08233230710577225 0.13231013390300084
3240000000.0 -0.07132257125989572 -0.1512850075659425
3260000000.0 0.17769605331193536 -0.07054171952518007
3280000000.0 0.16845396635241294 0.12241545640948463
3300000000.0 -0.19291387414184066 0.11930019614534061
3320000000.0 -0.2041593809810285 -0.14224243712942344
3340000000.0 -0.06893710620355298 -0.25541446306990173
3360000000.0 0.18275821655146532 0.21185973598043775
3380000000.0 -0.24368403445523823 0.1605086259257174
3400000000.0 -0.04251144536007262 -0.29367143637769627
3420000000.0 0.298745586655188 0.048761648011088905
3440000000.0 0.22567976902303774 0.19954107111297062
3460000000.0 -0.2294905649636284 0.1815099710467107
3480000000.0 -0.25765788156827935 -0.13066439383958087
3500000000.0 0.04846294339849156 -0.2685059710561083
3520000000.0 0.2525697066145213 0.056585872846219125
3540000000.0 0.04930511629992864 0.24285261703458985
3560000000.0 -0.011672023299707887 0.22889414140252065
3580000000.0 -0.20607786964377203 0.03809193382593466
3600000000.0 -0.18272808035023033 -0.07421983290578955
3620000000.0 0.10918062871852804 0.14670801480601095
3640000000.0 0.15461746403538335 0.09117143397629114
3660000000.0 -0.030006105681939853 0.17065100552412912
3680000000.0 -0.11769746803517524 0.1306521937261758
3700000000.0 -0.08095039529001453 -0.1611647420489077
3720000000.0 -0.1782873946437072 0.08233537648613386
3740000000.0 0.16416985452182942 -0.13713213398767382
3760000000.0 0.05033406051399335 0.23084669620864176
3780000000.0 -0.2618086467438609 0.03589846743382027
3800000000.0 0.2795051336543526 0.054410778258245016
3820000000.0 -0.3062795860549617 -0.004386478361964942
3840000000.0 0.3267504883522468 0.03585756744122951
3860000000.0 -0.23404152835293623 0.24945857603091715
3880000000.0 0.08932482778697254 -0.3388901696766109
3900000000.0 0.3032711258508492 0.1701629612147214
3920000000.0 -0.3433478458302012 0.00840173458787855
3940000000.0 -0.21895756924747592 -0.24614259019929557
3960000000.0 -0.16749344369227492 -0.2550468226836349
3980000000.0 -0.24907972173223553 0.12015114889116002
4000000000.0 0.2244694513619323 0.08442844265775999
