!Created with skrf (http://scikit-rf.org).
# Hz S RI R 50.0 
!freq ReS11 ImS11
400000000.0 0.5959517089042455 0.0793245981937105
420000000.0 0.3974343441887623 0.17739747577772036
440000000.0 -0.02166845206449215 0.18358307879280503
460000000.0 -0.019621097607337663 -0.013768286883564547
480000000.0 -0.21189624330509044 0.08954130728701176
500000000.0 0.2860645795813604 -0.18429558362042023
520000000.0 0.3782099435267367 -0.004191492493733576
540000000.0 -0.18252125363707744 0.46417223384955725
560000000.0 -0.5317038904008253 -0.14328421312828282
580000000.0 -0.48675993979523147 0.19271947796932767
600000000.0 0.19003676688115645 -0.4407672037591395
620000000.0 -0.2463674675073066 -0.34302996393862817
640000000.0 -0.17443275091641583 0.2955872563922762
660000000.0 -0.12756293075428654 0.1512920908146629
680000000.0 -0.14818241239765154 0.06239674908905191
700000000.0 -0.16211165070335434 -0.13430704208136462
720000000.0 -0.005498115144309047 -0.2720095523031293
740000000.0 0.019311081701284098 0.2614894904505146
760000000.0 0.20928218153928993 0.1152459257624608
780000000.0 -0.019269742187711023 -0.20614971313574884
800000000.0 0.1975129505440784 0.002196731287372363
820000000.0 -0.13933794705460004 -0.14320836862145017
840000000.0 0.1743944196308794 0.135398087407213
860000000.0 -0.20691425532082156 0.1154662590653565
880000000.0 -0.20106354020675143 -0.16758693168366165
900000000.0 0.253794265189162 0.06534645157180773
920000000.0 0.2103347356935347 0.12955486687652906
940000000.0 0.2341996385695082 0.06799365556426733
960000000.0 0.22416496875540262 -0.06693788484946091
980000000.0 0.1928295194660084 -0.08853081635784311
1000000000.0 0.11366126871397701 0.15324631865968932
1020000000.0 0.04484263784597333 0.18104339972497288
1040000000.0 -0.1340914405117402 0.11539242670807788
1060000000.0 -0.09048894236135224 -0.16870136826315993
1080000000.0 0.16658705698312437 0.029458355703666565
1100000000.0 0.06481920877008676 -0.13800251112758952
1120000000.0 -0.06704286096235504 -0.1313633904681717
1140000000.0 -0.11128692468079088 -0.11379627226816735
1160000000.0 0.13417683813687858 -0.12096911412498025
1180000000.0 0.18174089894608086 0.05577873173692873
1200000000.0 0.11116614245433092 0.1433570870596961
1220000000.0 0.154333206735142 0.05933111784029366
1240000000.0 0.0647287910249799 -0.1259145657298498
1260000000.0 -0.0822925691951375 -0.09436303182592444
1280000000.0 0.11716683212951708 0.0028384607669444646
1300000000.0 0.08902275662914129 0.08567818724509788
1320000000.0 0.13639824964069713 0.0025178351303891885
1340000000.0 0.12465418092408982 0.10095698471674597
1360000000.0 0.09223544038126288 -0.14272389251045728
1380000000.0 0.13806840530533798 -0.1279458374242315
1400000000.0 0.1695908493441116 -0.14433721262224994
1420000000.0 -0.2276853699713851 0.11076510805368744
1440000000.0 -0.1576403657729064 -0.2295727721999706
1460000000.0 0.21129587711036643 -0.19832647326387048
1480000000.0 0.05168754915030062 0.2853780452585979
1500000000.0 -0.07250063596362544 0.26260745535018415
1520000000.0 0.08212217124334997 -0.227441258704616
1540000000.0 -0.07548469864535334 -0.19673242872661073
1560000000.0 0.02237529935854378 -0.18054613113446305
1580000000.0 0.05306193580243181 -0.15046507479327814
1600000000.0 0.041182771528441145 0.13302921263829848
1620000000.0 0.1251526849480291 -0.04048123586829244
1640000000.0 0.03150589084144017 0.1170767945797639
1660000000.0 0.07579569291204792 0.08817368128919648
1680000000.0 -0.02157706992094176 -0.1078716879213736
1700000000.0 -0.10565832256663069 -0.01702717189845668
1720000000.0 -0.009173792008409573 0.11833373364151634
1740000000.0 0.1485201016174379 0.009289306322110127
1760000000.0 -0.08487196082311811 -0.1758222822236626
1780000000.0 -0.13100688600446422 0.19973378457402072
1800000000.0 0.04340764371631798 -0.27452556469960515
1820000000.0 0.178111859768555 0.23954016757020172
1840000000.0 0.23364569160870838 -0.19690702475648694
1860000000.0 0.14509724264314808 -0.26494647247022635
1880000000.0 0.28537399156682447 0.0775201508070916
1900000000.0 -0.0944326564654096 0.274969670861613
1920000000.0 -0.28669535300159515 -0.026406556461896737
1940000000.0 -0.2611789224165637 -0.10155104208493689
1960000000.0 -0.11380038271243835 -0.24139396930829474
1980000000.0 0.13067652078365505 -0.2221779817406805
2000000000.0 -0.03490340967356482 -0.25153575008143103
2020000000.0 -0.12167867740456483 0.2119806616868605
2040000000.0 0.21905051162751718 0.06856627470053094
2060000000.0 -0.11578730533038767 -0.18237910210806366
2080000000.0 -0.1529472845087744 0.12999883305388962
2100000000.0 -0.18025507753998782 0.03496386724614961
2120000000.0 0.14618388127277868 0.09370618620077203
2140000000.0 -0.09305442696033128 -0.1350757472003186
2160000000.0 -0.05565527009744526 0.15174466530474232
2180000000.0 0.12946251865224562 -0.0971644153857713
2200000000.0 -0.15618713876852333 0.03022815796621918
2220000000.0 0.12122606110356095 0.10047904174734668
2240000000.0 0.15837285107801125 -0.0035466843401167555
2260000000.0 0.1540649556974471 0.009033913843342312
2280000000.0 -0.03871989751362787 0.15654512309904914
2300000000.0 0.16292213900256253 -0.04119838097471273
2320000000.0 -0.132473493220738 -0.11113203040296699
2340000000.0 0.1701004844164242 0.04518068788040105
2360000000.0 -0.1490313491297403 0.09289447559233527
2380000000.0 -0.05793199771160342 -0.1645926180501634
2400000000.0 0.17011726440504077 -0.01924318884655279
2420000000.0 -0.015758324747971605 -0.16655101018445373
2440000000.0 -0.15003468680806403 0.05314979063562437
2460000000.0 0.12717686080724763 -0.08259954408881229
2480000000.0 0.10992050308960753 -0.09383881435147584
2500000000.0 0.1293760319146919 -0.005478885768431022
2520000000.0 0.03189691256036034 0.12026568205034985
2540000000.0 0.10154403520526853 0.06967043679516424
2560000000.0 0.10619708955655859 -0.06307726498395647
2580000000.0 0.12295743657983647 -0.03407403068550611
2600000000.0 -0.044588059795256665 -0.12426022999853502
2620000000.0 0.1118152314112969 -0.07253184706753524
2640000000.0 0.11155077804269879 0.07468707882895445
2660000000.0 0.06709385387374478 0.11060272396826391
2680000000.0 -0.11840497309557146 -0.02614760249319038
2700000000.0 -0.10877937867658874 -0.02294776446969785
2720000000.0 -0.09426872960298369 0.03149961047357893
2740000000.0 0.047779422160564806 0.07385949922097314
2760000000.0 0.021348739154732763 -0.07960451665762212
2780000000.0 0.0795725489674207 0.002720394765682535
2800000000.0 0.08111280795501655 -0.014239491849837615
2820000000.0 0.009767170293864142 -0.09118925829085303
2840000000.0 0.0467250079814429 0.08781180450215863
2860000000.0 0.01573935286303081 0.10935108435460492
2880000000.0 -0.09559932931280199 0.08152461504660269
2900000000.0 -0.04949183602662151 -0.1310270485014791
2920000000.0 0.1370334507434284 0.06281053996421831
2940000000.0 -0.11764896045274928 -0.10551061972119456
2960000000.0 -0.16145967285706847 -0.02293185106139424
2980000000.0 -0.15850116530415415 0.07287343375373168
3000000000.0 0.15386881248505277 0.10168991903306769
3020000000.0 -0.10570212622625294 -0.16118148842296234
3040000000.0 0.19955052887521318 0.017793876051024348
3060000000.0 -0.021994646157924663 0.19885014620262065
3080000000.0 -0.20199373515219873 -0.008117903796315946
3100000000.0 -0.15698320465955956 -0.12997607731316838
3120000000.0 -0.2048969158699622 0.022477986265507264
3140000000.0 0.17463908611007115 0.1135999876456726
3160000000.0 -0.107212234066201 -0.1791404475404538
3180000000.0 -0.015297545394313574 0.2099217517036375
3200000000.0 0.12168364191464988 0.17716148873135115
3220000000.0 0.054717524805254235 -0.21334984261566123
3240000000.0 -0.17894293695673824 -0.13821348805186345
3260000000.0 -0.17861718842946372 -0.14696663848520325
3280000000.0 0.05284723934525397 -0.2307413528971629
3300000000.0 0.17013230989705028 0.17347979177203446
3320000000.0 -0.2403726284913584 -0.06571537460796753
3340000000.0 0.2519080523062247 0.03429980522534074
3360000000.0 -0.20933881996574383 -0.14956912730149183
3380000000.0 -0.02116406856538969 0.2570073339908799
3400000000.0 0.25563684071111137 -0.027292929724114418
3420000000.0 -0.07010701485003944 -0.24741863952812002
3440000000.0 -0.15638620929548006 0.20445404812841853
3460000000.0 0.257095536731945 0.013068633350471225
3480000000.0 -0.18793197483356056 -0.1735760490016793
3500000000.0 0.22045863623243703 0.12332358171953475
3520000000.0 -0.2198362817767113 -0.11404886843520846
3540000000.0 0.2352742805963783 -0.05962126526886
3560000000.0 0.033338946494658545 0.23459620071290593
3580000000.0 -0.09167974478366109 0.21271592770527192
3600000000.0 -0.08471560508912288 0.21002830059916158
3620000000.0 -0.2112004091318499 0.06353986431916245
3640000000.0 -0.07804179113500942 0.2034857117645123
3660000000.0 0.20525868097902866 0.07971708970905887
3680000000.0 0.028226402632892833 -0.2224876890442072
3700000000.0 -0.22161598878151137 -0.07329646445165863
3720000000.0 -0.2431574873196804 0.031545639988776894
3740000000.0 -0.18557363699316826 -0.17762869446368768
3760000000.0 -0.030229074180830356 -0.27009280802690067
3780000000.0 0.28008123170788685 -0.06038382651684517
3800000000.0 -0.1967335751525408 0.22197031141250462
3820000000.0 0.1835666299428512 -0.2417990821820895
3840000000.0 -0.2984812145717959 -0.07374659831418638
3860000000.0 0.10949926976722121 0.28774175017429665
3880000000.0 0.2714965751257467 -0.1411713687631575
3900000000.0 -0.2612807060932389 -0.14927685012075056
3920000000.0 0.05270067157660455 0.2823859998866073
3940000000.0 0.16225312379895276 -0.21472334111983996
3960000000.0 -0.16965729246153813 0.17687850217315773
3980000000.0 -0.023514042253249993 -0.21781907233330167
4000000000.0 0.11842828304223507 -0.14830789841559697
