!Created with skrf (http://scikit-rf.org).
# Hz S RI R 50.0 
!freq ReS11 ImS11
400000000.0 0.17495211623302032 0.7986033841213075
420000000.0 -0.13035205509062534 -0.7220137921003331
440000000.0 0.6687592521288808 0.23911778851929544
460000000.0 -0.5124533605102746 0.38398011080684197
480000000.0 0.4672293040705736 -0.2761731848828495
500000000.0 -0.14355700704199628 -0.5253701214525112
520000000.0 -0.4814006776019419 -0.08708180128895625
540000000.0 -0.023515063021314384 -0.4309484141142584
560000000.0 -0.06434893629180338 0.3969351759397385
580000000.0 -0.19193323428093811 -0.3539779221745626
600000000.0 -0.40671047079167105 0.07636304223321762
620000000.0 0.0025133372183011897 0.40068290598664114
640000000.0 0.33390586372464287 0.2152751414497113
660000000.0 -0.33410184114707697 0.19139899013892023
680000000.0 0.32585277449418154 0.16609535589836272
700000000.0 -0.17501417323587545 -0.3183202975753447
720000000.0 -0.11731679673088824 0.33601608952944895
740000000.0 0.25368955005747484 -0.2148670297795776
760000000.0 -0.2663716877929287 0.0814101447212902
780000000.0 -0.04291157795580826 0.2918121449381596
800000000.0 -0.24531660259959295 -0.05493200215109406
820000000.0 0.16368293007774792 -0.1824308567429104
840000000.0 -0.20869331806372238 0.0629430193853767
860000000.0 -0.19181685777462923 -0.07097397879919755
880000000.0 0.18759782722608848 0.04991343243071728
900000000.0 0.05771021265196554 0.14944427689560738
920000000.0 0.05985514462651402 0.11287975006284451
940000000.0 -0.10525373277262381 -0.05070163863715415
960000000.0 -0.020818333355158664 -0.06020888141559068
980000000.0 0.0024077354651119054 -0.060763785218654436
1000000000.0 -0.0033795466910577637 0.05619334835163053
1020000000.0 -0.03368950351181257 -0.007800246532165002
1040000000.0 -0.03375542175627787 -0.048209837667717664
1060000000.0 -0.07065953965344107 -0.07318755937893551
1080000000.0 0.04362351571077815 0.11953346949098516
1100000000.0 -0.17238092653088824 -0.08404128798401005
1120000000.0 0.1286517804703568 -0.17558214232076033
1140000000.0 0.056115165894657884 0.23669422136131513
1160000000.0 0.275425145776305 0.02430547229361835
1180000000.0 0.07634288059114183 0.27154509510268693
1200000000.0 0.13158128050011272 -0.2682656702023957
1220000000.0 0.21738800642155992 0.2344823605403948
1240000000.0 -0.13647479354495842 0.3170365048785857
1260000000.0 0.31754022140476607 -0.10948691511650012
1280000000.0 0.23122870426095665 0.25128633853113025
1300000000.0 0.3423587618404263 0.08418324764908611
1320000000.0 0.1005769013436505 0.34656099169831567
1340000000.0 -0.029722351433057702 -0.3665159033917721
1360000000.0 0.07172777768625364 -0.36390445169579355
1380000000.0 -0.3520412911048885 0.11035896260543607
1400000000.0 -0.07669102118662187 0.3708965624232248
1420000000.0 0.3642737203138134 -0.06688122747604384
1440000000.0 -0.18110228611279655 -0.3300425312318039
1460000000.0 -0.321902031286836 0.1761692331054698
1480000000.0 0.31208374068031997 0.17913919267005476
1500000000.0 0.3030403538615401 -0.11934894348739761
1520000000.0 -0.10782994577851508 -0.29496460908249716
1540000000.0 -0.22187066441948622 0.17623970612309145
1560000000.0 0.1894033388672237 0.1828022650004225
1580000000.0 -0.19741276790395126 0.10236844861246765
1600000000.0 0.08153941653813371 0.18376534270882586
1620000000.0 -0.1171461733928561 0.11623893788687607
1640000000.0 -0.13932451198556636 0.012573071866925302
1660000000.0 -0.010499162590635712 -0.11250515692938806
1680000000.0 -0.09957199705812055 0.004907845911377437
1700000000.0 0.0787324686684462 -0.009415938229022458
1720000000.0 0.046392302670343936 -0.0559011601457971
1740000000.0 -0.04295045965492841 -0.05203212642391949
1760000000.0 -0.049199844892152 -0.05762953693757378
1780000000.0 0.06403456791924328 -0.08880858760705154
1800000000.0 -0.11550138548574261 -0.07671115209858388
1820000000.0 -0.03600834133232066 -0.15895050131482175
1840000000.0 -0.09850021199327201 -0.18019442107230624
1860000000.0 0.16248425275756373 0.17913777404136397
1880000000.0 0.2648761015290822 0.025608233407814478
1900000000.0 -0.28383011907757716 0.08373353900157891
1920000000.0 0.2944262122488964 0.027513928841573505
1940000000.0 0.1981433533213817 -0.24429254558866276
1960000000.0 -0.30160380058876957 0.08687160559996511
1980000000.0 0.2834731807538977 -0.15757327685561068
2000000000.0 0.22746234972739685 0.22421599733640568
2020000000.0 0.08824023939185685 0.30371921190097856
2040000000.0 -0.019165599051026324 -0.304834473812753
2060000000.0 0.2626948087419541 -0.17526945647815373
2080000000.0 -0.3087296856016054 -0.07083004234028362
2100000000.0 0.17778129479054217 0.2475491847718148
2120000000.0 -0.0036913975637284883 -0.2995630435362393
2140000000.0 0.1099349776254072 0.2769478031361332
2160000000.0 0.09374929591831761 -0.25837236251127776
2180000000.0 -0.025812898965007585 -0.28009212231098785
2200000000.0 -0.2645629247969756 -0.04040825592639012
2220000000.0 -0.034754006665313926 -0.25770874264688076
2240000000.0 -0.042586941034177976 -0.24256373343625823
2260000000.0 0.22021994536255796 -0.10249138509819329
2280000000.0 0.18115817503046774 0.11317828128092354
2300000000.0 -0.18947350397792934 -0.05879296508344116
2320000000.0 0.17101422877852218 0.07637740656381965
2340000000.0 -0.03209076172947074 -0.16925162047722872
2360000000.0 -0.16390446697067707 -0.02874784436060668
2380000000.0 -0.136011779368095 0.11065545232752753
2400000000.0 -0.08393944280824542 -0.16587234276485538
2420000000.0 -0.12352551950053334 0.161649195630578
2440000000.0 -0.06455722259672153 -0.21719529651409125
2460000000.0 0.1261820044611277 -0.217480320730915
2480000000.0 -0.0811799117260946 0.26746928055650615
2500000000.0 0.11581379975339516 0.2869256636290627
2520000000.0 -0.2454196219979342 0.229395009443692
2540000000.0 -0.27656873958390027 0.24241058308505017
2560000000.0 -0.2378000023598353 -0.3098188862275261
2580000000.0 0.3245488751827478 -0.2451180065478164
2600000000.0 0.08401630256584143 0.41713591793505805
2620000000.0 -0.43923423320788907 -0.000754985798621106
2640000000.0 0.07570763897411469 -0.43945592602486727
2660000000.0 0.4466194366302379 0.07048245482317123
2680000000.0 0.22331177600581104 0.3948075554324202
2700000000.0 0.011800125033093094 0.45657794393655027
2720000000.0 0.06846890343015695 0.45404155131056667
2740000000.0 0.2519784508879051 0.3884085005950966
2760000000.0 0.3074226112112126 0.35414637296795953
2780000000.0 -0.4591363470689048 0.11575297917069406
2800000000.0 -0.429407178992478 -0.21394161706153977
2820000000.0 0.04829337354380662 -0.4823111530851197
2840000000.0 0.4039781174979485 0.27703965795221
2860000000.0 -0.44578744434591044 -0.21228048317362583
2880000000.0 0.2810150586517465 0.4093708710495769
2900000000.0 0.20424517810181048 -0.45002762002071905
2920000000.0 -0.47678010381463537 -0.11097955055287186
2940000000.0 -0.10810282747917127 0.46939653356118105
2960000000.0 0.4712537248781029 0.024836128757051105
2980000000.0 -0.05308231044248982 -0.45558526283962303
3000000000.0 -0.3835399713121868 0.22096355499988574
3020000000.0 0.4221513734078671 0.06294190844430692
3040000000.0 -0.16727709758944392 -0.3764937554075944
3060000000.0 0.23739757291677455 0.3240269349236286
3080000000.0 -0.18265036991029984 -0.34384199705662666
3100000000.0 -0.3518617512739452 0.14339850039632882
3120000000.0 0.3751831557696788 0.043699666754604787
3140000000.0 -0.34341416479082987 -0.15388031111861905
3160000000.0 -0.03875423069277834 0.3745878832764826
3180000000.0 0.3625680820093669 -0.10678168389542893
3200000000.0 0.15229241024693763 -0.34098035411616945
3220000000.0 0.09591529655657934 -0.3558191483116414
3240000000.0 -0.07555652929140526 -0.36030169711422394
3260000000.0 0.13829715756785085 -0.3262484714239111
3280000000.0 0.33005373119955916 0.07566695748554927
3300000000.0 0.13404255815083724 0.28919156136145113
3320000000.0 -0.22953644738504939 0.1980275251775187
3340000000.0 0.24637394080883804 -0.14485249908266598
3360000000.0 0.045179236690539366 0.2585333602132586
3380000000.0 -0.22264919869962999 0.08909907447954282
3400000000.0 0.19169666739870825 -0.11267561414003571
3420000000.0 -0.08351062831758556 0.19357880101720223
3440000000.0 0.04611444706513099 -0.19028698572741296
3460000000.0 -0.0009268657207944305 -0.18630885293527935
3480000000.0 -0.08658883202807403 -0.1560864001997884
3500000000.0 0.07801269781847751 0.15387459642549806
3520000000.0 -0.03393291710488897 -0.16607927035502934
3540000000.0 -0.1675696479934568 0.013205546522763772
3560000000.0 -0.09616162632985611 0.14263083479722702
3580000000.0 -0.11024812238985827 -0.13728304115749232
3600000000.0 -0.17925067432146116 -0.008688848479849597
3620000000.0 0.11584106154744625 -0.14391919184564694
3640000000.0 0.19615030394749278 -0.0037497642619154564
3660000000.0 -0.20317682932014863 0.02768589169841224
3680000000.0 0.08637691984120115 -0.18022762664132974
3700000000.0 -0.20048466222776495 0.0011000935361919078
3720000000.0 -0.0835710948738272 0.17451296251046697
3740000000.0 -0.18670577785128928 0.0054764998336565346
3760000000.0 -0.13764676300980827 0.10778924002759066
3780000000.0 -0.15315625827110668 -0.06700686291298547
3800000000.0 -0.042369746870843196 -0.14325594797247893
3820000000.0 0.06884922177079175 0.11353091651046589
3840000000.0 -0.10692647457847494 -0.03587944098273475
3860000000.0 0.019137607637294492 -0.09245730601559264
3880000000.0 0.028002027182502484 0.07382215679073058
3900000000.0 0.006021831978703978 0.07307728447513527
3920000000.0 0.027959197530019027 0.061654359864073444
3940000000.0 0.029634482198772336 0.04661071288025688
3960000000.0 -0.02331651228014027 -0.04378191370720337
3980000000.0 0.028076015465754098 0.025219158103276375
4000000000.0 -0.0251659567126526 0.02178176199953503
