!Created with skrf (http://scikit-rf.org).
# Hz S RI R 50.0 
!freq ReS11 ImS11
400000000.0 0.22717870770805063 0.7866035646116928
420000000.0 -0.2873467336111624 -0.6741954955889382
440000000.0 0.6362137271322548 0.3109586771052951
460000000.0 -0.5634977760240073 0.3087315049461228
480000000.0 0.4144571955922929 -0.35203427839826335
500000000.0 -0.10783544435558866 -0.53028690068996
520000000.0 -0.45079603112235905 -0.19174400884028783
540000000.0 0.01362679537410501 -0.4316370876684135
560000000.0 0.019378921149356253 0.4035623527469102
580000000.0 -0.2361092788716029 -0.3236139380461209
600000000.0 -0.4054473682998846 0.07677512336729142
620000000.0 -0.07967301424503749 0.394120051971294
640000000.0 0.32690995839964626 0.22977436350133779
660000000.0 -0.2869551000986528 0.2560812615851878
680000000.0 0.3405563607222879 0.13724907005445489
700000000.0 -0.20163976523443808 -0.3048353068670642
720000000.0 -0.1557131331816399 0.3178571811178497
740000000.0 0.33337963845109087 -0.039573957826463856
760000000.0 -0.2773616039923453 0.03081954165607629
780000000.0 -0.030082265859115324 0.29210614286624637
800000000.0 -0.2289014017938621 -0.10365060057932722
820000000.0 0.14646606132834591 -0.19410400751656517
840000000.0 -0.20699276869931502 0.06317605715654386
860000000.0 -0.1913850403909612 -0.07277311471885792
880000000.0 0.1819852401560898 -0.06803105657385253
900000000.0 0.1420386910958385 0.07779602751832448
920000000.0 0.05071612522785189 0.11918959836466997
940000000.0 -0.0879197591299328 -0.079581402951396
960000000.0 0.0018081008405777792 -0.06511414718957072
980000000.0 0.06212498653205512 0.002649930475352622
1000000000.0 -0.05034984411643095 -0.02582220924163837
1020000000.0 0.013181537246288138 -0.03149982771493211
1040000000.0 0.04557082685780479 0.03828825086214164
1060000000.0 -0.10082749629611977 0.01791553187769002
1080000000.0 0.07087198542907527 0.10861470444387518
1100000000.0 -0.15656959506702 -0.11503733119054974
1120000000.0 0.14457791465132033 -0.16649726039583623
1140000000.0 -0.06456711529081918 0.23663627171395596
1160000000.0 0.2379518803213046 0.14310521216804153
1180000000.0 -0.025596445389052796 0.28055178292389177
1200000000.0 0.2565394584095557 -0.15196798360542935
1220000000.0 0.1537470882451329 0.27944771966887266
1240000000.0 -0.12568673270888311 0.3195578744647632
1260000000.0 0.2915989546342924 -0.1638195675828147
1280000000.0 0.27109572738435406 0.2065823136742079
1300000000.0 0.35093862515562174 -0.04107011320326758
1320000000.0 0.19077563209397283 0.30828534195514656
1340000000.0 -0.07589449915116478 -0.36226939590688206
1360000000.0 0.08182512082469232 -0.3655821296609
1380000000.0 -0.3606005652936858 0.08940150731528816
1400000000.0 -0.15773455161189157 0.34900569024248845
1420000000.0 0.3706067984322391 0.04253787927777217
1440000000.0 -0.04207568889655596 -0.37548616086681896
1460000000.0 -0.36811288059663744 0.006662543853286657
1480000000.0 0.1825371796468697 0.31137100080238156
1500000000.0 0.32377911251425673 -0.02276951107923785
1520000000.0 -0.05528649187934267 -0.3084625357461524
1540000000.0 -0.23284786321088902 0.15840545437808798
1560000000.0 0.22103846168920815 0.1397859835696208
1580000000.0 -0.17236037539938928 0.1383017902847424
1600000000.0 0.16465396875682312 0.11641361009365285
1620000000.0 -0.00026711342173389805 0.16620556347944868
1640000000.0 -0.07922460599359267 0.11583321135548767
1660000000.0 -0.06458456754607475 -0.09551945337194179
1680000000.0 -0.09723648545698038 0.030652608725413706
1700000000.0 0.07491563388107308 -0.03391257617945005
1720000000.0 0.05459168464900726 -0.05142411903174184
1740000000.0 -0.025568152973770943 -0.06378962189271252
1760000000.0 -0.004855920968672207 -0.07804444984332114
1780000000.0 0.07854111175387235 -0.07961910811686833
1800000000.0 -0.08485202279986287 -0.11260026957886937
1820000000.0 0.04459456449410439 -0.15753009459184483
1840000000.0 0.04966238085083754 -0.2002329720351933
1860000000.0 0.07324244205321506 0.23018569824335045
1880000000.0 0.23501832743937714 0.1235412748469995
1900000000.0 -0.2949394500459852 -0.00511910491926031
1920000000.0 0.2778838805383707 0.0967054748436384
1940000000.0 0.14988139422383806 -0.2753119016800437
1960000000.0 -0.2832742333481286 0.131561785401376
1980000000.0 0.23427702969366537 -0.2244296372714819
2000000000.0 0.29579339668144816 0.11866924999820874
2020000000.0 0.08033978580066391 0.3072735844404545
2040000000.0 -0.11349590913412332 -0.2853638469173518
2060000000.0 0.21922481464673418 -0.2313310646033038
2080000000.0 -0.3116493151732023 -0.06571933092994302
2100000000.0 0.06012384280580577 0.29982773052076045
2120000000.0 0.0756275406190084 -0.2926205268512725
2140000000.0 -0.045100736941699665 0.29404829546461486
2160000000.0 0.2214048417616658 -0.1654674918770003
2180000000.0 0.02038257118320654 -0.28034654496540456
2200000000.0 -0.2557011910854111 -0.07078095944326909
2220000000.0 0.054800380032309456 -0.25162870571551804
2240000000.0 -0.02242318579783661 -0.24604815693924356
2260000000.0 0.16177187848131627 -0.1791511765721684
2280000000.0 0.20265465725831142 0.06473357524935716
2300000000.0 -0.19783198139311495 0.014777449772150175
2320000000.0 0.18636432985190046 -0.0060417185909948275
2340000000.0 -0.050512499474050114 -0.1660410496069779
2360000000.0 -0.16070625177745207 0.04699229976108202
2380000000.0 -0.08157638187932074 0.15681338208692833
2400000000.0 -0.12131026685859944 -0.14166739912603132
2420000000.0 -0.11938354163117891 0.16693758613109758
2440000000.0 0.014933708564771643 -0.22779588938902853
2460000000.0 0.19642737047013517 -0.16037148554981728
2480000000.0 -0.12235931798570998 0.2520756470488837
2500000000.0 0.02631435360933446 0.3076578697534212
2520000000.0 -0.2902953453413853 0.1681623401504591
2540000000.0 -0.29660891496652864 0.2152783284921585
2560000000.0 -0.19421892484694409 -0.33780258997710627
2580000000.0 0.3017037289403281 -0.2716716491198491
2600000000.0 0.13556733546533697 0.4029468290424208
2620000000.0 -0.43073149924426496 0.08549374184713349
2640000000.0 0.029013913046901325 -0.4457130409783323
2660000000.0 0.45230699835626825 0.03321954625333684
2680000000.0 0.2555345323269872 0.37682294530103333
2700000000.0 0.0011246774309388635 0.45821510535710686
2720000000.0 0.03901689309954508 0.4590192697687868
2740000000.0 0.15923115959406614 0.43564249975992325
2760000000.0 0.2200882837201522 0.41393483486919397
2780000000.0 -0.4729176066043053 0.019294153040726666
2800000000.0 -0.4075270755198067 -0.25195882748688897
2820000000.0 0.09060569428317856 -0.47517724285875107
2840000000.0 0.39607400189697994 0.2868583290119997
2860000000.0 -0.4587638355153606 -0.18143963255543397
2880000000.0 0.3127665889737989 0.38567691484795014
2900000000.0 0.13817836868046482 -0.474339771106867
2920000000.0 -0.48835605162092977 -0.03813094053999548
2940000000.0 -0.03802862329804589 0.48114428638376827
2960000000.0 0.4732637144653234 0.0163683593431156
2980000000.0 -0.02571313870744299 -0.45962624181385675
3000000000.0 -0.40958517523859006 0.17206483243834744
3020000000.0 0.3999494227195274 0.15256782611703434
3040000000.0 -0.06240546820572317 -0.4079518324525068
3060000000.0 0.13985668994674277 0.3770703387424485
3080000000.0 -0.10856859681336499 -0.37352785066426
3100000000.0 -0.37793811767595376 -0.032644518675909
3120000000.0 0.3660059435414171 0.08874225366311891
3140000000.0 -0.3329977064401072 -0.17313009231601365
3160000000.0 0.008517700081335736 0.375368682770029
3180000000.0 0.3483769864972701 -0.14358755908214368
3200000000.0 0.11828816694616452 -0.35441601460341143
3220000000.0 0.01597092366207497 -0.36849941998548313
3240000000.0 -0.14302591139649792 -0.3405323087853744
3260000000.0 0.09876060203731314 -0.3412712750770019
3280000000.0 0.33678246556375424 0.04898977255636039
3300000000.0 0.12763837386309101 0.2942503354690658
3320000000.0 -0.263495934849272 0.15441730952106597
3340000000.0 0.25902281355439616 -0.125066129993545
3360000000.0 -0.030622760242572815 0.26156323051939173
3380000000.0 -0.23983166616477192 -0.021726058448227815
3400000000.0 0.2216096851489591 -0.02815094466027081
3420000000.0 -0.15901857824000412 0.13876757990198516
3440000000.0 0.14577594917435935 -0.13052680055800392
3460000000.0 0.06933286779287644 -0.17164162091317464
3480000000.0 -0.04772480901132848 -0.17068743255844493
3500000000.0 0.05193035924025403 0.16224906228353483
3520000000.0 -0.03173967650297299 -0.16524616444434065
3540000000.0 -0.12896655346643102 0.10613662468917362
3560000000.0 -0.02535799725783609 0.16898196376253277
3580000000.0 -0.15595300153500913 -0.08201277779528614
3600000000.0 -0.13691035661848736 0.1163190265572353
3620000000.0 0.058167739847611734 -0.17659848093738403
3640000000.0 0.1965487544829961 -0.02914100073393979
3660000000.0 -0.19643097320568437 0.06547878546692895
3680000000.0 0.08167053901013442 -0.18476180872327738
3700000000.0 -0.19903732348211942 -0.039307036554535414
3720000000.0 -0.15134978712819222 0.12342441041968275
3740000000.0 -0.1355323247402625 -0.13080101670205363
3760000000.0 -0.16904768821572877 -0.05035280595835962
3780000000.0 -0.11486928696034356 -0.12200344932027365
3800000000.0 0.0891756494571906 -0.11931135578306563
3820000000.0 -0.045806221149806994 0.124670312926455
3840000000.0 0.006983782455288319 -0.111415449538469
3860000000.0 0.09212297970230895 -0.014944481558956613
3880000000.0 -0.044962638659615535 0.06328215967854939
3900000000.0 -0.0550151608318207 0.04671872669265007
3920000000.0 -0.04073511374985946 0.05183040953882697
3940000000.0 -0.01887688871943996 0.050808444504867406
3960000000.0 -0.02326865759586818 -0.04213547403496726
3980000000.0 0.03681921340357676 -0.003783077993640236
4000000000.0 0.03256890971460966 -0.004135313731724503
