!Created with skrf (http://scikit-rf.org).
# Hz S RI R 50.0 
!freq ReS11 ImS11
400000000.0 0.2162011111569878 0.7903938682258886
420000000.0 -0.28491905547307245 -0.6746275133796517
440000000.0 0.6673960636307339 0.23314121584739012
460000000.0 -0.5637652097618284 0.3031084565331846
480000000.0 0.5378638193807447 -0.07404455809964912
500000000.0 -0.19670220543923256 -0.5103300755521795
520000000.0 -0.48700484644976205 0.04796393277393338
540000000.0 -0.09175058203471251 -0.42126320476755164
560000000.0 -0.023254876230832795 0.40035851230754743
580000000.0 -0.018031534548591067 -0.40007332301426596
600000000.0 -0.3877652165319924 -0.15103913435472016
620000000.0 0.09579089895068542 0.39410133292741023
640000000.0 0.39204233864711463 0.06969113751579632
660000000.0 -0.18198249779304324 0.3362912641552669
680000000.0 0.3397307762277738 0.14234646551717567
700000000.0 -0.1358412169633646 -0.3406210750204255
720000000.0 -0.11322289791965925 0.33574782650265256
740000000.0 0.33501103241697866 -0.02928825017534126
760000000.0 -0.2709734154537614 0.06234209689711769
780000000.0 -0.080062209783033 0.28383383488669084
800000000.0 -0.23407856431184887 -0.0890981007434319
820000000.0 0.1910167125375613 -0.14812881630663727
840000000.0 -0.2118686372209722 0.05149300091562667
860000000.0 -0.18561024455428668 -0.08686442367498735
880000000.0 0.19238001661700804 -0.031955968885988076
900000000.0 0.13560765787602755 0.08695528393583987
920000000.0 0.10654081186860428 0.07274522968997446
940000000.0 -0.10149253180703927 -0.060852770720122164
960000000.0 -0.01639934595429807 -0.06344976939728987
980000000.0 0.060510841781306064 -0.013229940882811337
1000000000.0 -0.01718767596838265 -0.05461895460937286
1020000000.0 0.03230644665724937 -0.007366169558219098
1040000000.0 0.04677450101273609 0.03752341682749737
1060000000.0 -0.09643070193764922 0.03502748216207201
1080000000.0 0.023584754693645647 0.12704777406463413
1100000000.0 -0.1628974656348376 -0.10466215284718675
1120000000.0 0.1256574095997086 -0.18042504711021365
1140000000.0 -0.10161325554901042 0.22358964169607404
1160000000.0 0.25632491769775717 0.10604295506866093
1180000000.0 0.003080270164178306 0.2823891879444526
1200000000.0 0.26479521554112817 -0.13687168800664853
1220000000.0 0.11744673290788304 0.2972170024325751
1240000000.0 -0.1809378502125949 0.292751419740754
1260000000.0 0.24608717209757347 -0.22735289540859663
1280000000.0 0.24293340078259756 0.23726818132163896
1300000000.0 0.3527716212379916 -0.02091536257879124
1320000000.0 0.25388308235226326 0.25802111450390836
1340000000.0 -0.08534371443380581 -0.3600153979362185
1360000000.0 0.04328153781932421 -0.37329670408676313
1380000000.0 -0.34746875906985747 0.1289529634953271
1400000000.0 -0.14962539393870422 0.35048461325191277
1420000000.0 0.37092187193553217 -0.026126481010687052
1440000000.0 -0.09110590941042024 -0.366704529349229
1460000000.0 -0.35791433865227096 0.08470052439319872
1480000000.0 0.22553719983476736 0.2809366317129466
1500000000.0 0.32652797313072723 -0.010117772596089708
1520000000.0 -0.08350660017156794 -0.3023702575741882
1540000000.0 -0.23574826972422427 0.15272962416993038
1560000000.0 0.17310573699573498 0.196146363436616
1580000000.0 -0.17142248301485669 0.13801028842601826
1600000000.0 0.11072707457185073 0.16846537292398325
1620000000.0 0.0027916842049389066 0.16588277825746614
1640000000.0 -0.06414555011204465 0.125315444204937
1660000000.0 -0.051964143045186935 -0.10196072007968919
1680000000.0 -0.102058785736074 -0.006201828692761946
1700000000.0 0.07075486139230026 -0.041500673114393975
1720000000.0 -0.02004143721298631 -0.07288972749700741
1740000000.0 -0.031257901581941354 -0.06162009095291805
1760000000.0 -0.061088134646130075 -0.05053378345488228
1780000000.0 0.07622783944539475 -0.08013574834704446
1800000000.0 -0.06627037995720932 -0.12469564220103876
1820000000.0 0.02762590504815327 -0.16309020160920096
1840000000.0 0.014995206205458075 -0.20607787416111148
1860000000.0 0.056074057541564234 0.23450343628507367
1880000000.0 0.2570669660191529 0.0709390613706708
1900000000.0 -0.29434317819569694 0.009019427669823629
1920000000.0 0.27813347033097485 0.09739779489551671
1940000000.0 0.17192727391246018 -0.2611234537366391
1960000000.0 -0.270469468504815 0.15876987924140304
1980000000.0 0.2183359856057757 -0.23800877537524734
2000000000.0 0.25017533957771915 0.19860301091688948
2020000000.0 0.15450505046745971 0.27722797619268025
2040000000.0 -0.06505179544519435 -0.2983750159075976
2060000000.0 0.23008472291312787 -0.21904528629287484
2080000000.0 -0.30307795103422824 -0.09528111313813716
2100000000.0 0.11630091379696393 0.2835352207767418
2120000000.0 0.031495798297622 -0.2988143913266803
2140000000.0 -0.03384672159088833 0.2967568254990376
2160000000.0 0.14102321525350187 -0.23694113748022844
2180000000.0 0.02859684078842865 -0.2778826718888631
2200000000.0 -0.2607754090376217 -0.05873496129045379
2220000000.0 -0.04666933332666777 -0.25438729736184373
2240000000.0 -0.07538451194858475 -0.2335628890046185
2260000000.0 0.18290174563812858 -0.15794710427856412
2280000000.0 0.1968864795749336 0.0830356440287772
2300000000.0 -0.17994198215752627 -0.08192255152673023
2320000000.0 0.18023513159642635 0.05470532535734432
2340000000.0 -0.05802262630720444 -0.1628865025931782
2360000000.0 -0.16336977399429575 -0.036292004488157455
2380000000.0 -0.15567543188577462 0.08146356731902597
2400000000.0 -0.05874847476606662 -0.17686436715767276
2420000000.0 -0.09724375102415608 0.17953389111825613
2440000000.0 0.03163222237431391 -0.22387828295772838
2460000000.0 0.1663135655424841 -0.18899750665740478
2480000000.0 -0.14190768342346713 0.2397999894272613
2500000000.0 0.030627865168339253 0.30694227750448133
2520000000.0 -0.25184822978503607 0.22095968575082123
2540000000.0 -0.2886357418350211 0.22621165099289367
2560000000.0 -0.25031381713279344 -0.29944822059715015
2580000000.0 0.32592666087812916 -0.24288125981237227
2600000000.0 0.15174392054217137 0.3973803367110451
2620000000.0 -0.4384614391837201 0.025837086433076643
2640000000.0 0.0441404400884804 -0.44431747216795237
2660000000.0 0.45017975937870053 0.041652482077851
2680000000.0 0.23300672616210197 0.3894335807977273
2700000000.0 0.04960187383717058 0.4535160368370613
2720000000.0 0.11393685461998901 0.4452628948223557
2740000000.0 0.23875951379076904 0.39681214097940615
2760000000.0 0.19607142042958295 0.42528441506550513
2780000000.0 -0.46549045268979267 0.08626086583045536
2800000000.0 -0.4271661726580465 -0.21824506480711459
2820000000.0 0.021387043955817767 -0.4842944110722382
2840000000.0 0.4204741113085468 0.2516672867060074
2860000000.0 -0.42486905193978697 -0.25146982752342967
2880000000.0 0.2644885348101771 0.41999250835069357
2900000000.0 0.1808903316148199 -0.45949178896282844
2920000000.0 -0.4809351626737584 -0.09036405484076737
2940000000.0 -0.0736586643411956 0.47655810182538666
2960000000.0 0.47188177150830546 0.018536569785777054
2980000000.0 -0.0751518509987972 -0.45252387960249185
3000000000.0 -0.3905297211831623 0.20903321294673782
3020000000.0 0.40637965727101727 0.1340328119920849
3040000000.0 -0.08581615777497421 -0.40431197269590446
3060000000.0 0.2515190113471869 0.31520175827640284
3080000000.0 -0.10869600997469205 -0.3742039397377472
3100000000.0 -0.377404624397994 0.040732384697598795
3120000000.0 0.3699015942849054 0.07215398282425572
3140000000.0 -0.31478139737076294 -0.2053595735946077
3160000000.0 -0.031734786289676395 0.37420587524039334
3180000000.0 0.3603256925016708 -0.1127115586346968
3200000000.0 0.14056883672499212 -0.3455887080581272
3220000000.0 0.004880556383501554 -0.36812185448778895
3240000000.0 -0.17301592102355362 -0.3251272667472146
3260000000.0 0.13647737181225672 -0.32830678594307733
3280000000.0 0.3363864024578475 0.05382741065733671
3300000000.0 0.13169429030865568 0.29169526321935824
3320000000.0 -0.2770158440685237 0.12658333942175617
3340000000.0 0.25432357871808103 -0.13331049796305605
3360000000.0 -0.034437145825621344 0.2602354662800006
3380000000.0 -0.2400933629681874 0.00699064734400748
3400000000.0 0.21736899893766587 -0.04200739169402902
3420000000.0 -0.1398845942771343 0.1566545502416313
3440000000.0 0.08826078003701444 -0.17487775438452696
3460000000.0 0.014258919951854392 -0.1850742292295302
3480000000.0 -0.04176466587062597 -0.17188483720771874
3500000000.0 0.11605500233768794 0.12644605610455814
3520000000.0 -0.09974333280868367 -0.13613103333857046
3540000000.0 -0.16189439995266172 0.03997079402423799
3560000000.0 -0.017195695734188353 0.17079404143262006
3580000000.0 -0.16022802149143642 -0.07224016787681978
3600000000.0 -0.17314904099294104 0.05019594543178372
3620000000.0 0.037221992593218914 -0.18293534134043066
3640000000.0 0.19827233466675573 0.000975440926705101
3660000000.0 -0.20534010403065264 0.029080228901725087
3680000000.0 0.10524291252876379 -0.17278522423735648
3700000000.0 -0.201198726164846 -0.021838235703525066
3720000000.0 -0.0964549964169835 0.1685519489581152
3740000000.0 -0.1768734298924931 -0.06526300408150404
3760000000.0 -0.17514295957124462 0.001643049255554714
3780000000.0 -0.12403862948940632 -0.11251541316303755
3800000000.0 0.06441763012180489 -0.13598880118734027
3820000000.0 0.039237797898097414 0.12758998750340583
3840000000.0 -0.08915865512489707 -0.06754634329805705
3860000000.0 0.030503057823684517 -0.08956893503911093
3880000000.0 -0.025129322962959975 0.074356256646431
3900000000.0 0.060658190418828604 0.0402450828621849
3920000000.0 0.05880746847792461 0.029714557325914052
3940000000.0 0.03588288435985164 0.03990331782245085
3960000000.0 -0.04234009654386793 -0.02192738220701102
3980000000.0 0.03586633453480969 0.011157434954567065
4000000000.0 -0.01788663824138803 -0.029008851472172737
