!Created with skrf (http://scikit-rf.org).
# Hz S RI R 50.0 
!freq ReS11 ImS11
400000000.0 0.4288086288964344 -0.31686549333543773
420000000.0 -0.30635108361037117 -0.19594050835724186
440000000.0 -0.20048939799896498 -0.003353756990557776
460000000.0 0.03439120317601336 -0.20307957520559075
480000000.0 -0.19393254631936047 -0.2250038087228359
500000000.0 -0.32424155526030796 -0.05305196004007236
520000000.0 0.08827582535534972 0.33630227997630086
540000000.0 -0.07480299651942766 0.38034563379803427
560000000.0 0.3890274109056582 -0.19268846155014627
580000000.0 -0.29957958258210693 -0.3806950664071962
600000000.0 -0.16822235654771162 0.463576478794438
620000000.0 0.46412183252651934 0.11424291595630731
640000000.0 -0.04184085324210547 0.4288781563390016
660000000.0 -0.30316811269676713 0.23551422948968098
680000000.0 0.3439697782673782 -0.16061088024640066
700000000.0 -0.3470455838652489 0.09659193506198364
720000000.0 -0.29698992865841545 0.07178500716219821
740000000.0 -0.06318530189022593 -0.21492951995809528
760000000.0 0.1432849682362445 0.08167348498774873
780000000.0 -0.10103016291996515 -0.01615735234158767
800000000.0 0.009500951118799296 -0.0006889051460838753
820000000.0 -0.0377381479874016 0.08835934186783151
840000000.0 -0.14972629901622883 0.01781534292714761
860000000.0 -0.03164909038049016 -0.18046158050396424
880000000.0 -0.15210657950657358 -0.11899529455060472
900000000.0 0.17618219021604214 -0.03839458735772432
920000000.0 0.08863704501616465 -0.19004091491255123
940000000.0 0.07557693242442291 -0.22240475487409175
960000000.0 0.08901221391205506 0.22587064712473215
980000000.0 0.12408673704047511 0.232609387363861
1000000000.0 0.2527687024501704 0.1205008247928179
1020000000.0 -0.06154452281369051 -0.2793728066770605
1040000000.0 0.2910433142538933 -0.020550767960620914
1060000000.0 0.25017521973048734 0.12792467661583445
1080000000.0 0.09989820587996848 -0.24381447846821033
1100000000.0 -0.2262364782483073 -0.10006345030446506
1120000000.0 -0.07149403993277252 0.2300564013354634
1140000000.0 -0.0530744966966014 -0.22263614860674807
1160000000.0 0.10866871250760018 0.1948524005143465
1180000000.0 -0.09610661139283616 -0.18090330279671174
1200000000.0 -0.022040199750249945 0.18389085069788683
1220000000.0 -0.05594530673669542 0.15878555842427192
1240000000.0 -0.1422711281651091 0.01642333241022171
1260000000.0 0.046512412680281535 -0.1178641632496158
1280000000.0 0.11390163932011448 -0.012251552787223704
1300000000.0 0.09706627579346755 0.059822525698344446
1320000000.0 -0.10790773363930672 0.07493738890019166
1340000000.0 -0.06663078228617793 -0.13572789853166442
1360000000.0 0.1549565972106644 -0.0962169267400747
1380000000.0 0.189889802402183 0.07451081936377411
1400000000.0 -0.21084226852523083 -0.05073519151793019
1420000000.0 -0.14548441107471743 0.16845557031859643
1440000000.0 -0.2099348065647254 0.0921864269861601
1460000000.0 -0.19985100934451594 0.12345951389103174
1480000000.0 0.16521839137672195 0.1513102240848193
1500000000.0 0.10890871610357414 0.17423276044286695
1520000000.0 0.0034679972592312736 -0.1877930102513759
1540000000.0 0.1720775122794222 -0.005184274484564673
1560000000.0 0.08618861653195185 -0.12484409317045247
1580000000.0 -0.05341854997781064 0.1330413706182174
1600000000.0 -0.05399575447893318 -0.12670950554584282
1620000000.0 -0.008640960001371779 -0.13405750151830512
1640000000.0 0.09541947871434185 -0.08806730767692031
1660000000.0 -0.06898084761685917 0.11468412947211244
1680000000.0 0.14447750509590568 0.004974669212932405
1700000000.0 0.13326937723726826 -0.06101655865234596
1720000000.0 -0.1455846667788595 0.009513906648728341
1740000000.0 0.05110571367599211 0.14073826000113862
1760000000.0 0.14481546963363867 -0.07736170133686963
1780000000.0 -0.06385698375559486 0.1689985920252187
1800000000.0 -0.03139818404363724 -0.19212177105675207
1820000000.0 -0.20824229197517957 -0.009948556233514476
1840000000.0 -0.16793517754193402 0.14759169353745089
1860000000.0 0.13083110319140534 -0.20409430134077478
1880000000.0 0.042319111646112566 0.2473158365863233
1900000000.0 -0.1995320123863047 -0.16766468759619654
1920000000.0 -0.10041822282664196 -0.24246493050480136
1940000000.0 0.20932195143948076 -0.15403677558050397
1960000000.0 -0.04903426465088305 0.252097528008504
1980000000.0 0.22864478298036658 0.12867127922759156
2000000000.0 -0.24721425352034584 -0.0665661689600523
2020000000.0 0.07334146229357445 0.23191296288228425
2040000000.0 -0.009323840139551723 -0.23424740045941306
2060000000.0 0.22236610356117126 0.028942397518994
2080000000.0 -0.08821090072046679 0.19782731246674595
2100000000.0 0.189780346022069 -0.06458623054237185
2120000000.0 -0.10468859574329462 -0.1495686432990145
2140000000.0 0.07106553037235823 -0.1533026592969707
2160000000.0 -0.11446657888179657 0.11235039851195978
2180000000.0 0.12945197149350396 0.08983978640610299
2200000000.0 -0.1325430589731293 -0.0834590028530261
2220000000.0 0.12640070025079087 0.08412975037083549
2240000000.0 -0.07466625467248433 0.13044496040579193
2260000000.0 -0.14528533569119353 0.039623140445319144
2280000000.0 0.002995468279622604 0.1482538103497033
2300000000.0 0.13199285120055976 0.06047920641744642
2340000000.0 -0.09501302500727292 0.10619473173591906
2320000000.0 -0.021899163798658014 0.13988861794109933
2360000000.0 0.13485211330966704 0.046454894829863355
2380000000.0 -0.13389615944783118 -0.04040333900453243
2400000000.0 0.1161049094281034 -0.0720059966070986
2420000000.0 -0.024143064590400127 -0.12666549095783947
2440000000.0 -0.03903774658628735 -0.11285167726920278
2460000000.0 0.024973866374284285 0.10883315060811412
2480000000.0 0.048022344322882576 -0.09362206596267636
2500000000.0 0.04577106344667845 -0.0935132608701573
2520000000.0 -0.0825070795846588 -0.06560276506110468
2540000000.0 -0.10115914728264191 0.04319878541990148
2560000000.0 -0.008115526731383521 0.11494167669176794
2580000000.0 -0.09074889833222954 0.07782318792805144
2600000000.0 0.02095312825064397 -0.12787048301418347
2620000000.0 -0.11137462868309238 0.07682729009189311
2640000000.0 0.1409544218975006 0.01507158622565325
2660000000.0 -0.11447788729928783 -0.08782916746012781
2680000000.0 0.07059491283023574 0.12482878457657101
2700000000.0 0.04566778814326665 0.131144182125459
2720000000.0 -0.04773058278349701 0.12036630446201814
2740000000.0 0.09894398773882974 0.07088537786524429
2760000000.0 -0.06148317861959646 -0.09980362397100333
2780000000.0 0.11114060580906368 0.039814647396946366
2800000000.0 -0.0881615479054045 0.08706875647011192
2820000000.0 0.06859862135727997 0.11209006100529122
2840000000.0 0.044878560090514705 0.13613084502479605
2860000000.0 -0.1531318208398322 0.02320183012276394
2880000000.0 0.15976908110509622 0.03685030958335649
2900000000.0 0.14810613374678253 0.08635393929264885
2920000000.0 -0.08038157747259317 0.15540030764479815
2940000000.0 0.06919545628997312 -0.16324255772457075
2960000000.0 -0.16870787680732435 0.066693022703051
2980000000.0 0.18099382262506064 -0.00720601788718381
3000000000.0 -0.13812634007388205 -0.11661125693137507
3020000000.0 -0.03231279430763573 0.1767690735774686
3040000000.0 -0.012366952232619197 -0.1810299816170126
3060000000.0 0.17279429761211765 -0.0511602114502168
3080000000.0 0.15591111662239115 0.08043696715943656
3100000000.0 0.033249731528442135 0.16564001116125115
3120000000.0 -0.05803334795774179 0.15588276618295954
3140000000.0 0.15574025868129268 0.06034969836268618
3160000000.0 0.1366270330219998 -0.0981754585868357
3180000000.0 -0.10563431760423989 -0.13739174094132883
3200000000.0 0.010775178558736744 -0.1797116372096347
3220000000.0 -0.1683773079628986 -0.08593718350740559
3240000000.0 -0.19389809806325062 -0.049072064519531895
3260000000.0 -0.18950502883056425 -0.0926766108842596
3280000000.0 -0.07161747944523265 -0.20762660817288697
3300000000.0 0.21871716345703815 -0.0713005205220144
3320000000.0 0.09026150365823037 0.219702024732297
3340000000.0 -0.22498860759613787 -0.0940354469501996
3360000000.0 0.23487153747400735 -0.08314634761352786
3380000000.0 -0.20903395547641315 0.1370703546344262
3400000000.0 0.24730930039393956 -0.02755675076595118
3420000000.0 -0.24547900063523856 -0.03353258611035775
3440000000.0 0.2250299133539484 0.10109848766340405
3460000000.0 -0.1830171398674005 -0.16320493319947355
3480000000.0 0.06382981111892776 0.23327489713501215
3500000000.0 -0.13277062252235888 -0.19979925570193224
3520000000.0 0.22683195127742956 0.06492862151340416
3540000000.0 -0.13790275504399213 0.18513109894198196
3560000000.0 -0.22004600359485543 -0.044377544102225
3580000000.0 -0.05582503051743812 -0.21070959131266623
3600000000.0 -0.05482001854643518 -0.20811534255315897
3620000000.0 0.13731683932032246 -0.1619049331337207
3640000000.0 -0.09166917531446456 -0.1901736754912436
3660000000.0 -0.17397693163238737 0.12124792071882974
3680000000.0 0.14995004109238608 0.15551451819895618
3700000000.0 0.2126418125216497 -0.06292695553668808
3720000000.0 0.2247620541048801 -0.05593476136238498
3740000000.0 0.1497067294024477 0.19026497133325196
3760000000.0 -0.01885602984258643 0.2534724325812576
3780000000.0 -0.250886231968451 -0.09752561260371123
3800000000.0 0.2762428998380518 -0.03924860039843327
3820000000.0 -0.2851328741557594 0.026818373829265597
3840000000.0 0.2884115734342796 0.044314077741077304
3860000000.0 -0.18389988841999189 -0.22849557904859258
3880000000.0 -0.07059127501928004 0.2837229564566396
3900000000.0 0.2783392472624864 -0.0776111412148615
3920000000.0 -0.2419094526104647 -0.13851833945816508
3940000000.0 0.1377272157264148 0.22700858382763037
3960000000.0 -0.24232559591386924 -0.04561939752916009
3980000000.0 -0.12327793893755846 -0.18230531109404302
4000000000.0 -0.1825856353678049 -0.054683984121239725
