!Created with skrf (http://scikit-rf.org).
# Hz S RI R 50.0 
!freq ReS11 ImS11
400000000.0 -0.38004923099065113 -0.7370483529669597
420000000.0 -0.30635096987924304 0.7213760401136238
440000000.0 -0.4545665529394371 0.6115183366583455
460000000.0 -0.46252738238791674 -0.5275725675607048
480000000.0 -0.5454922498977819 -0.29645059836767085
500000000.0 0.17650323085709274 0.5159134771435931
520000000.0 -0.40218978149136964 0.11376534468388609
540000000.0 0.3485190403105476 -0.2810977135599832
560000000.0 -0.23971471766271382 -0.41171280781132685
580000000.0 0.4347780984945236 0.01135659859096261
600000000.0 0.3751309760107475 0.10405208130277582
620000000.0 0.25183738468703665 -0.25124007746482135
640000000.0 -0.2652683465895617 -0.23919045977522727
660000000.0 -0.1275696939575034 0.3313596802615668
680000000.0 0.20993997409129733 -0.286560384951282
700000000.0 0.14024628980292267 -0.3168664714497704
720000000.0 0.211445008505971 -0.26652800926607545
740000000.0 0.2306463898168037 -0.2160468235261813
760000000.0 0.24604209200236818 0.19226272353300042
780000000.0 -0.24059426334587541 -0.12982079723882842
800000000.0 0.25109978231683194 0.023375577830955514
820000000.0 0.13704387961971687 0.1598157086278728
840000000.0 -0.17076309120232727 0.09002712447111147
860000000.0 -0.17589056307519538 0.05855608898706398
880000000.0 -0.03141507113939322 -0.18212831390872145
900000000.0 -0.09168330850352646 0.121909950075762
920000000.0 -0.1437834995130275 -0.014724032670554282
940000000.0 -0.11753911526923709 -0.06858624878064387
960000000.0 -0.09967470172601713 0.03416610138149998
980000000.0 -0.03958377611678834 -0.05158122399001387
1000000000.0 0.03587704485173524 -0.00018551307111460197
1020000000.0 0.03064691823150664 -0.012466789779006945
1040000000.0 -0.04164054248934626 -0.05963077699337101
1060000000.0 0.11954588712305313 0.025320802061539284
1080000000.0 0.04274567929129295 -0.14675461461871955
1100000000.0 0.06871291144232278 -0.17803411402881847
1120000000.0 0.19492793100347006 -0.10933901756448261
1140000000.0 0.26932256996385345 0.0013640705904456284
1160000000.0 0.26664254369537105 -0.11568886126602976
1180000000.0 -0.0017754015623195386 0.31819320076180774
1200000000.0 0.08286617855372763 0.3261301160731331
1220000000.0 0.03995064813338272 0.3425106852668044
1240000000.0 0.01546987743896656 0.33883161938782724
1260000000.0 -0.1272418058294801 0.3131248902191629
1280000000.0 -0.07261295584443028 -0.33413301398376855
1300000000.0 0.20934313952141148 -0.286351810432011
1320000000.0 0.358005117665171 -0.03792795700259234
1340000000.0 -0.06237535231454846 0.36676078654504063
1360000000.0 -0.28767222580246277 -0.24879297131610273
1380000000.0 0.24670157601288445 -0.29108012974256936
1400000000.0 -0.30388187434451164 0.2248094278513075
1420000000.0 0.18056398708365823 0.3203998437971726
1440000000.0 0.35019883769495863 0.07433027854632376
1460000000.0 0.30674048776506596 -0.1785217068619294
1480000000.0 -0.015547628382709299 -0.3429402648448938
1500000000.0 -0.19694249362899724 0.2694846896996446
1520000000.0 0.08989167718608904 -0.29570251251418705
1540000000.0 -0.277027205086235 -0.013832442773551163
1560000000.0 0.21239730165083903 0.11647045563844417
1580000000.0 -0.20040100049059478 0.05281171116856408
1600000000.0 -0.05584659977860878 0.16337196345249344
1620000000.0 0.13442623916157573 -0.07337527051718057
1640000000.0 0.0845353552079179 0.1041576483214268
1660000000.0 -0.017738707352052942 0.10667403666991955
1680000000.0 -0.014855238927730016 0.08460079882951387
1700000000.0 -0.06417042099606861 0.035958226035276535
1720000000.0 0.05310566358457384 -0.006982661366534729
1740000000.0 -0.046347407696909614 0.016287149029374934
1760000000.0 -0.04333683922329209 0.036000268582998096
1780000000.0 -0.023333291230031215 0.08439873624442581
1800000000.0 0.057546461301304266 0.10836110659476884
1820000000.0 0.12661226121171992 0.0931563098847913
1840000000.0 -0.07497273277196524 0.17041486126638952
1860000000.0 0.09144781635839694 0.2006307993514047
1880000000.0 0.2258152291952862 0.09072748061388183
1900000000.0 0.10089183347488022 -0.2462474021591713
1920000000.0 -0.28732103603038894 -0.0100729236157763
1940000000.0 0.17705809580162046 0.24233101257906375
1960000000.0 -0.2675200777909318 -0.16006564664783784
1980000000.0 -0.03188552257446372 -0.31813989319699815
2000000000.0 0.06018833669283909 -0.31205081666644535
2020000000.0 0.3155011311628795 -0.01833044969951902
2040000000.0 0.30661703386740163 0.05363033625155387
2060000000.0 0.19520905064974167 0.23979375933862804
2080000000.0 -0.3084096771490322 0.019342998175901238
2100000000.0 0.28111032607480696 -0.1378327083674807
2120000000.0 -0.005930616692730198 0.3125158837935953
2140000000.0 -0.1793854746885013 -0.24895956807570477
2160000000.0 -0.07014223203583737 0.29175665509322335
2180000000.0 0.2899630974848816 0.05185875836599295
2200000000.0 0.2870445053252573 0.008233849680528637
2220000000.0 0.08301629693470093 0.2651224461879751
2240000000.0 -0.10078232821034756 0.25568387735454834
2260000000.0 -0.2664776922266525 0.0158065205498161
2280000000.0 0.004803631757206947 -0.2516338320968305
2300000000.0 0.20774001827735497 0.12782696681573052
2320000000.0 -0.20372519545401588 0.120659869397723
2340000000.0 0.21603156786062175 -0.07032776148406121
2360000000.0 -0.22862063783559705 -0.01979458001506755
2380000000.0 0.22046521839091718 0.08992146227567971
2400000000.0 0.1688676614618148 0.18826075977248
2420000000.0 0.0018940779926776917 0.2784390115581216
2440000000.0 -0.021910227722862465 -0.311899725721091
2460000000.0 0.2083769835154863 0.2735751234292846
2480000000.0 0.03992319670290886 -0.3729053231524285
2500000000.0 0.34931976529570685 0.21911112074868905
2520000000.0 -0.3563512114377044 0.27879599432160923
2540000000.0 -0.07933754384992656 -0.48065906933948177
2560000000.0 0.4581405014348441 0.24883301879906272
2580000000.0 -0.555223317890414 0.007420716798325879
2600000000.0 0.42627106321596897 -0.40001601503086814
2620000000.0 -0.10586519760855764 0.5991454929501524
2640000000.0 -0.3725087683093226 -0.5027614879894121
2660000000.0 0.640689463589706 0.02686270819956823
2680000000.0 -0.11907455006670521 0.6400216803661785
2700000000.0 -0.6224766697862738 0.21970893187716392
2720000000.0 -0.6615721805718245 -0.06335124642581452
2740000000.0 -0.6297169319258618 -0.21667092358782294
2760000000.0 -0.6490335927794045 -0.15167100388936544
2780000000.0 0.1319900731611571 -0.6470342107208161
2800000000.0 0.3792133078179381 -0.5298037292927814
2820000000.0 0.6386193471606806 -0.05250613339164881
2840000000.0 0.030862071134905956 0.6272909446457449
2860000000.0 -0.27789624232937965 -0.5474527638841392
2880000000.0 0.2060007764869711 0.5647599785214663
2900000000.0 0.3033474165903039 -0.49779939304281684
2920000000.0 -0.4562097417035664 -0.3249897228214028
2940000000.0 -0.35148330644593817 0.40740109296721116
2960000000.0 0.05715809072189344 0.5092435158577507
2980000000.0 0.44949943156548317 0.19985145216582928
3000000000.0 0.04153389210575904 -0.46857809994344435
3020000000.0 -0.4115712556941401 0.16447119132768062
3040000000.0 0.30728825182256947 0.27916302394800824
3060000000.0 -0.14285215119625125 -0.3631795438186102
3080000000.0 -0.016808418697534997 0.3693207283479811
3100000000.0 -0.10367446329844114 -0.3369400493463028
3120000000.0 -0.3348055480183369 -0.06397740242429743
3140000000.0 0.32774042279137466 -0.059066522937906256
3160000000.0 -0.2702982568989926 -0.18631047601279305
3180000000.0 0.20735135491249995 0.25293733742952806
3200000000.0 -0.01999576194516886 -0.3203370171391719
3220000000.0 -0.1923797452828221 0.24772313464069257
3240000000.0 -0.11188755911626867 0.27247061549491153
3260000000.0 -0.25491032672567887 0.11153103400237749
3280000000.0 -0.06470698264189298 -0.24915606126640058
3300000000.0 0.21825284062097877 0.1152682055396899
3320000000.0 -0.22012910068226704 0.041255126416410416
3340000000.0 0.009831394560881331 -0.20767167929175503
3360000000.0 0.17398028570754734 -0.050238211353978865
3380000000.0 -0.08232258624930522 -0.12680793966796414
3400000000.0 -0.049564369268600986 -0.11948014864440458
3420000000.0 -0.10639777261229333 -0.051703020981404856
3440000000.0 0.08993289751642278 0.061212754951143374
3460000000.0 -0.09526297913073467 -0.04081868468181003
3480000000.0 0.03354024543965 0.08735628394638202
3500000000.0 0.07668822700882463 -0.022585290975459825
3520000000.0 0.06722780474465344 0.03361937546007091
3540000000.0 0.06361228468370946 -0.02286056518972941
3560000000.0 -0.009401277935073494 0.07288078481368447
3580000000.0 -0.0298898570104873 -0.07377266822607917
3600000000.0 -0.039036819710057936 -0.08154514756783002
3620000000.0 -0.03889391676137783 0.09344956326692483
3640000000.0 -0.006083433037273881 0.11028412844755456
3660000000.0 0.051704048449079644 0.09857401837490748
3680000000.0 0.02770201421565612 -0.10438167280771718
3700000000.0 0.0830057342869189 -0.05529925629653722
3720000000.0 -0.08569969373441828 -0.02333488152373403
3740000000.0 0.0034773891706043505 -0.08550248916177337
3760000000.0 -0.05983198578644788 -0.04484803754723029
3780000000.0 -0.04608155045177507 -0.04913702991169704
3800000000.0 -0.02105702650904735 -0.04349318956453898
3820000000.0 0.015862085063313613 0.034821640116560706
3840000000.0 -0.03651775855769394 0.03748190958667126
3860000000.0 0.013718249309899623 0.07250446575362421
3880000000.0 -0.09046163450705112 0.00868285923751468
3900000000.0 -0.042809975531903896 -0.09216044573179571
3920000000.0 0.02392368211955914 0.10178169846288299
3940000000.0 -0.033761038506512256 -0.09842640434245967
3960000000.0 -0.09395654415804719 0.03661991117321251
3980000000.0 0.04948710825399843 0.08100518330354521
4000000000.0 -0.04256344989456034 -0.07020954552470943
