!Created with skrf (http://scikit-rf.org).
# Hz S RI R 50.0 
!freq ReS11 ImS11
400000000.0 -0.3591207109063653 -0.7451623717972174
420000000.0 -0.3363743262408038 0.7099286391286128
440000000.0 -0.4509267052852651 0.6144527144414643
460000000.0 -0.4559362073761377 -0.5339094874475263
480000000.0 -0.4720398288941003 -0.4007612282870289
500000000.0 0.18866574581261497 0.5134762579940432
520000000.0 -0.28712838976404387 0.3011447175187828
540000000.0 0.3731986441678785 -0.2449212212804895
560000000.0 -0.08722230611519241 -0.4683537999550821
580000000.0 0.43310327055202325 0.01864120092291978
600000000.0 0.25656219876981506 0.2939593405592207
620000000.0 0.11473630250125305 -0.33898104293286474
640000000.0 -0.3054145468578393 -0.18917774750244037
660000000.0 0.17271616974453588 0.3064541135867637
680000000.0 0.35064643392511574 0.027693140315581555
700000000.0 0.1896918493670323 -0.29142797999003267
720000000.0 0.33170079061625346 -0.0912041260922924
740000000.0 -0.12440964597782905 -0.29667444890782035
760000000.0 0.3004299493951138 -0.06334046434535086
780000000.0 -0.13678556345785017 -0.23377769020258068
800000000.0 0.09355490739127567 0.23266730501791766
820000000.0 0.16936652087469764 0.1353919534423073
840000000.0 0.11113609359989077 0.15403766691266954
860000000.0 -0.15957163492526188 -0.08533455134807198
880000000.0 0.17792964608738454 -0.05336931633041782
900000000.0 0.02118223836401488 0.15514834412638132
920000000.0 -0.02488247118399715 0.13982063686597984
940000000.0 -0.1053046291057433 -0.08175635023346833
960000000.0 -0.048282205520981974 -0.09251233510685779
980000000.0 -0.001322956489532212 -0.06875575149132511
1000000000.0 -0.008653368162181829 0.03719637422475385
1020000000.0 0.016647794820775552 0.03029560733689509
1040000000.0 0.050461143827435 -0.04616988296223531
1060000000.0 -0.11716261428035245 -0.0024923491262280133
1080000000.0 0.15314252361025002 -0.02460514478693565
1100000000.0 -0.15013463614601388 -0.12289448654521447
1120000000.0 0.09916469759163207 -0.19806935359324304
1140000000.0 0.2662835831414018 -0.02133312630560455
1160000000.0 0.28416422875212305 0.05704446728385608
1180000000.0 -0.09836022655259387 0.3038843565409939
1200000000.0 0.16799399258749342 0.292865750846857
1220000000.0 0.17787011899635066 0.29187216544247485
1240000000.0 -0.05651813697902135 0.333466388758374
1260000000.0 -0.11048053413245983 0.3208232670574007
1280000000.0 -0.0852586768753567 -0.3294901325981245
1300000000.0 0.2383819661494175 -0.26554805479505345
1320000000.0 0.30614969066087816 -0.18949095025069074
1340000000.0 -0.0771178950249659 0.3627350959180757
1360000000.0 -0.24515014055411247 -0.2937304105714206
1380000000.0 0.23125776991469882 -0.3040349085428024
1400000000.0 -0.3223746419833809 0.1977133441355522
1420000000.0 0.1793565437547325 0.3207415614676286
1440000000.0 0.35127590369746886 0.07196878802157262
1460000000.0 0.3249471974526071 -0.140496510317264
1480000000.0 0.05901318855542078 -0.33939978996698716
1500000000.0 -0.08557570522457716 0.32384611832014476
1520000000.0 0.003228383644773693 -0.305899626950039
1540000000.0 -0.21132179616061492 -0.17797088357514507
1560000000.0 0.1511562705690185 0.19189881386051957
1580000000.0 -0.07142521152090645 0.1970952602239371
1600000000.0 0.01661376739779083 0.17006901715039965
1620000000.0 0.14928505663817704 0.019174179697586394
1640000000.0 -0.02164570723729291 0.13467174611484448
1660000000.0 0.09341909982575228 0.05609490226714733
1680000000.0 -0.019208715098620266 0.08360545696756784
1700000000.0 -0.07092951087725802 -0.019380433202155708
1720000000.0 0.052511349504354224 0.007615052635646755
1740000000.0 -0.048583219033300165 -0.012822768986571847
1760000000.0 -0.05548120117845341 0.008452150297479928
1780000000.0 -0.06914262189135464 0.05356149971452821
1800000000.0 0.10417701469473699 0.0668220433407791
1820000000.0 0.11610957408753966 0.1043678001610649
1840000000.0 -0.09353002713852313 0.1597037290934922
1860000000.0 -0.03500353310912246 0.21822111433685631
1880000000.0 0.24537153166899456 -0.0006741059749502894
1900000000.0 -0.0138626018836645 -0.2645164323466895
1920000000.0 -0.2829183339479611 -0.03212838094900331
1940000000.0 0.03693499453446783 0.29837450226051493
1960000000.0 -0.3084791993785448 -0.05887539377378944
1980000000.0 -0.16130299474562954 -0.2753549985877724
2000000000.0 0.05864458608660133 -0.3107995315555247
2020000000.0 0.31055083419238144 0.06071762943627746
2040000000.0 0.31175650937362065 0.022477938478138424
2060000000.0 0.20526677674496832 0.23167913833526382
2080000000.0 -0.309032203804611 0.0024633838812765543
2100000000.0 0.28021964917132813 -0.13823328809736515
2120000000.0 -0.08023658817306079 0.3014511882860122
2140000000.0 -0.19387797510398172 -0.23951623223926213
2160000000.0 -0.026497558704405583 0.29907927815233337
2180000000.0 0.2765561148559272 0.09855865153913938
2200000000.0 0.28620513053936575 0.016966231856591754
2220000000.0 0.0587262378170933 0.27217679844461073
2240000000.0 -0.04232165339745321 0.272131880765824
2260000000.0 -0.2649857223654142 0.028987739882337327
2280000000.0 0.04765513552079903 -0.24687969524823636
2300000000.0 0.21276466125054982 0.11845400610164535
2320000000.0 -0.2099310164705289 0.111134299570943
2340000000.0 0.19210552116495158 -0.12068420674435114
2360000000.0 -0.22819160484583884 0.025172650630071798
2380000000.0 0.20365745015977813 0.12299545438834983
2400000000.0 0.16016931723198374 0.1968240809959621
2420000000.0 0.06146690274495358 0.27216435692615665
2440000000.0 -0.011907299252736972 -0.31170578896204637
2460000000.0 0.18211404441495485 0.2923101107526702
2480000000.0 0.07766595910654513 -0.3675486128602992
2500000000.0 0.3319654600300565 0.2442660717420791
2520000000.0 -0.38047365532851607 0.2436211267239144
2540000000.0 -0.0799242969024185 -0.4808181797463728
2560000000.0 0.4674187122738549 0.23074119723009087
2580000000.0 -0.5543547952418721 0.018403969202333014
2600000000.0 0.43148788073669414 -0.3941099341160847
2620000000.0 -0.11453091060435645 0.5982180702174706
2640000000.0 -0.37729443339415564 -0.4998319514710937
2660000000.0 0.6392040294967216 0.05685049338950885
2680000000.0 -0.14127044945043218 0.635786189580994
2700000000.0 -0.6307733392871546 0.19574920246095873
2720000000.0 -0.6620173289034783 -0.06000296654806042
2740000000.0 -0.6541727559631377 -0.12508402189750545
2760000000.0 -0.6600653244379768 -0.09453514225680164
2780000000.0 0.18979490032027466 -0.6322626364417331
2800000000.0 0.43262129036209873 -0.486749124733727
2820000000.0 0.6402363748509571 -0.01712573625800604
2840000000.0 0.024399592206208506 0.6277777310581114
2860000000.0 -0.29971263358275296 -0.535695404525616
2880000000.0 0.21459036904929005 0.5608200041170277
2900000000.0 0.2836520969089648 -0.509317968126283
2920000000.0 -0.4932717890917648 -0.26429008145702576
2940000000.0 -0.3576964460990323 0.4027429992931188
2960000000.0 0.03847137413251008 0.5129944656420472
2980000000.0 0.446865421560047 0.20707123890943835
3000000000.0 0.018939336815666948 -0.4696176455459729
3020000000.0 -0.41035939912853925 0.1694642091958694
3040000000.0 0.2372329881325506 0.34268748144637456
3060000000.0 -0.1423593881623627 -0.3630438348856655
3080000000.0 -0.054491128045203 0.3655836705566937
3100000000.0 -0.03222189238574841 -0.35128751601282077
3120000000.0 -0.33670587363882415 -0.048895572640306646
3140000000.0 0.33298802075521955 -0.008298644928818818
3160000000.0 -0.27891909325737296 -0.17424033324483548
3180000000.0 0.2534749227679581 0.20583178777186462
3200000000.0 0.002921531757218451 -0.3200436617836661
3220000000.0 -0.18613022789327865 0.25400904359506915
3240000000.0 -0.08987071121243276 0.28030055933989245
3260000000.0 -0.24560340559358212 0.13149646198359802
3280000000.0 -0.08346058218520244 -0.24447242705935338
3300000000.0 0.21942046194175047 0.11166565890808167
3320000000.0 -0.22370684984578185 -0.008310219800666256
3340000000.0 0.02360032141434553 -0.20767506177289874
3360000000.0 0.1677892278765011 -0.06687536571760261
3380000000.0 -0.10300445402695782 -0.11082227484274039
3400000000.0 0.025798053005420558 -0.1270393773528394
3420000000.0 -0.09398263151541326 -0.07032379581890312
3440000000.0 0.0739658868851332 0.07984984276427642
3460000000.0 -0.09961908036170276 -0.026430238659907578
3480000000.0 0.0630702748681671 0.0684803289872379
3500000000.0 0.07979614357696024 -0.0001368498514538225
3520000000.0 0.0686534237222975 0.03163277233369272
3540000000.0 0.02998875694236092 -0.061581258839794616
3560000000.0 -0.0014103363226835156 0.07251922624744954
3580000000.0 -0.010605808631490262 -0.07999617077298815
3600000000.0 -0.03260224460677338 -0.08459713804544403
3620000000.0 -0.07778557400415481 0.06582516986265537
3640000000.0 0.005138069970372632 0.11169166021347247
3660000000.0 0.0991147252496046 0.049869504558363746
3680000000.0 0.09368026989276222 -0.0527872903206548
3700000000.0 0.0906683142210589 -0.043476395730274967
3720000000.0 -0.0811482828004854 -0.03850857643518206
3740000000.0 -0.003084597635157245 -0.08505234358371008
3760000000.0 0.012754301018660135 -0.07328009590825793
3780000000.0 -0.0052975514004242035 -0.0674349594225465
3800000000.0 -0.04557218811872396 0.01528997843822178
3820000000.0 -0.012151047408341803 0.03599670822588105
3840000000.0 0.0029446532344262876 0.05343483168902216
3860000000.0 0.0637027500350399 0.03445181042403426
3880000000.0 -0.05871862471901548 -0.0683640018213516
3900000000.0 -0.06493081651102525 -0.08118225653968983
3920000000.0 0.10143181283693206 0.026936011056786505
3940000000.0 -0.027028734844064272 -0.09993750894209785
3960000000.0 -0.10171365253625843 -0.006201815230639121
3980000000.0 0.05294022184150053 0.0812654826542978
4000000000.0 -0.08316444735884665 -0.011174193971756386
