!Created with skrf (http://scikit-rf.org).
# Hz S RI R 50.0 
!freq ReS11 ImS11
400000000.0 -0.4592721648459249 -0.6901974815910205
420000000.0 -0.3650118840182269 0.6935958200111307
440000000.0 -0.4307384935152382 0.6285539625684194
460000000.0 -0.43562110058839043 -0.5513855805461875
480000000.0 -0.4685593532715039 -0.4041081206430608
500000000.0 0.19316403246510924 0.5121327921411606
520000000.0 -0.39338278089775336 0.14285776044918158
540000000.0 0.2168019381018457 -0.39032490249628404
560000000.0 -0.18168437453476696 -0.43964358025712413
580000000.0 0.4197227277288901 0.10774444367851331
600000000.0 0.35211743406862345 0.16725885402979962
620000000.0 0.3566879718340001 0.03104433670177776
640000000.0 -0.24073109361093017 -0.27213024540399183
660000000.0 0.20881716251886298 0.28838802871463903
680000000.0 -0.038019540535882364 -0.3471287745091304
700000000.0 0.3348091840389906 0.061814051792816405
720000000.0 0.3424913307873392 0.034347879099081643
740000000.0 0.13841477950919812 -0.29306837387841045
760000000.0 0.269490152330487 -0.1576268749119904
780000000.0 -0.2117125057941922 -0.16818147300200317
800000000.0 0.15629849331310208 0.19401775062958693
820000000.0 0.12924150903499038 0.1647338215966282
840000000.0 -0.13375442972850235 0.14109418351665245
860000000.0 -0.1753406932696423 -0.05389257969744724
880000000.0 0.05329278327665843 -0.18023675746489526
900000000.0 0.04595446543961736 0.14690024611117755
920000000.0 0.09159417877877384 0.10826035668622806
940000000.0 0.030291670049828474 -0.12841402821893513
960000000.0 -0.011894548650539311 -0.10422614938373001
980000000.0 -0.02222767661972661 0.06343268172056528
1000000000.0 0.03702538842233552 -0.01220343112324952
1020000000.0 -0.027716429570726262 0.0197832047445425
1040000000.0 0.0718114582970346 -0.0003306888813653506
1060000000.0 -0.003248534004549974 0.11810405958985594
1080000000.0 0.13114935701895436 -0.07817680203094518
1100000000.0 -0.09279717453953187 -0.1719952587488588
1120000000.0 0.0455430628804476 -0.21841952626955324
1140000000.0 0.2505213426851605 -0.08561017230349788
1160000000.0 0.26870917871974864 0.10691992171996187
1180000000.0 -0.07511924991260326 0.31246614168582687
1200000000.0 0.17383038363905995 0.2909969971504635
1220000000.0 0.25157983447217963 0.23191868207856187
1240000000.0 -0.05596079568826344 0.3311125872073921
1260000000.0 -0.2752883082065353 0.19569194709897028
1280000000.0 -0.10926778316515863 -0.32800068256203235
1300000000.0 0.07389446765403335 -0.34717402188150753
1320000000.0 0.3485657183631817 -0.09178383587716442
1340000000.0 -0.16032584316103335 0.3347581999459587
1360000000.0 -0.20661981896679066 -0.3208562026752653
1380000000.0 0.2300628141768051 -0.304084491231126
1400000000.0 -0.2996024366929755 0.2285328227300337
1420000000.0 0.13528062272761293 0.3428952705005344
1440000000.0 0.3592270606066876 -0.008188754400514704
1460000000.0 0.30732495792360603 -0.17260949480499163
1480000000.0 0.14202759651432925 -0.31232425072322845
1500000000.0 -0.14164848930728316 0.30506857690607253
1520000000.0 -0.022136227784511554 -0.30689322469988983
1540000000.0 -0.2722236016143143 -0.038303119434187495
1560000000.0 0.15844524810604813 0.18290581248238727
1580000000.0 -0.2002232986334978 0.06279010884251994
1600000000.0 0.05016785241327787 0.16610235172614968
1620000000.0 0.04771859166631118 -0.1446391731941049
1640000000.0 0.027897867498862503 0.12983822977276754
1660000000.0 -0.05848580390593829 0.092665208851662
1680000000.0 -0.0682872200396537 0.054931151434366436
1700000000.0 -0.03330148526628342 0.06697371609611623
1720000000.0 0.04452793031209999 0.028853250852571927
1740000000.0 -0.01524642627395143 -0.04551319056295335
1760000000.0 -0.01919423243336185 -0.054386442348374316
1780000000.0 -0.022374857537178827 0.08504978636785271
1800000000.0 0.12051642345744303 -0.020339976266421582
1820000000.0 0.05958533888776906 0.14253823509881283
1840000000.0 -0.15574557042489692 0.10092088396743296
1860000000.0 -0.0031055714468365167 0.2218426674361268
1880000000.0 0.24091641065573274 -0.043237399950769105
1900000000.0 0.006194379402977062 -0.26452128570746897
1920000000.0 -0.27889226334762696 -0.059097256432297636
1940000000.0 0.046275266059186 0.2976228622890157
1960000000.0 -0.3025086267443034 -0.08525373450496396
1980000000.0 -0.19255950285104148 -0.2546015502486786
2000000000.0 0.09859614304502416 -0.3004758013205078
2020000000.0 0.301220441721554 0.10005358066719766
2040000000.0 0.3072263746677222 -0.056939885601961344
2060000000.0 0.19367880923292716 0.24000632212497647
2080000000.0 -0.30798022130750025 0.021454741326623204
2100000000.0 0.30244557389835863 -0.08454511957518876
2120000000.0 -0.02141125630368377 0.3122716283672661
2140000000.0 -0.24454561574720804 -0.18580519055290662
2160000000.0 -0.08909202092909414 0.28473304368967295
2180000000.0 0.2520182798592133 0.15117298066306453
2200000000.0 0.28737830501607053 0.02687048472999891
2220000000.0 0.13570396252325173 0.242965371459783
2240000000.0 -0.04741324055293956 0.26970584295480976
2260000000.0 -0.26506167410395143 -0.02383382416562734
2280000000.0 0.016215400016537335 -0.25249626683090454
2300000000.0 0.2176337848938555 0.10847582097660113
2320000000.0 -0.19738080461378008 0.13163053887962411
2340000000.0 0.15764170576940856 -0.16287451683099272
2360000000.0 -0.2221264456027215 -0.05614836061275968
2380000000.0 0.22437067978179928 0.08040485866597291
2400000000.0 0.14740673072448726 0.20637038387124024
2420000000.0 0.11102078314472678 0.2560747384351689
2440000000.0 -0.017999664574894506 -0.3112728105742901
2460000000.0 0.16063334812701965 0.30412981933976047
2480000000.0 0.10624849641459008 -0.3607821090182748
2500000000.0 0.3188680229265911 0.2616633103188348
2520000000.0 -0.3817296877574781 0.24056212953641515
2540000000.0 -0.0482461876227117 -0.48451144215227315
2560000000.0 0.45508794509647293 0.2537680097951662
2580000000.0 -0.552917951764832 0.041123014073428006
2600000000.0 0.4409387054584239 -0.384054214570261
2620000000.0 -0.11345875316698924 0.5982742897151375
2640000000.0 -0.3858433013596666 -0.4929141682025499
2660000000.0 0.6405597485995674 0.04155792958859617
2680000000.0 -0.1207756818273697 0.6402521842228098
2700000000.0 -0.6261542404474293 0.21132733486548655
2720000000.0 -0.6579729358394828 -0.09645804398425677
2740000000.0 -0.6581321141008647 -0.10448107086610832
2760000000.0 -0.6412197414242438 -0.1825907020557644
2780000000.0 0.17359422322417703 -0.6367184587100223
2800000000.0 0.3919081284689044 -0.5195388625149008
2820000000.0 0.6397425046755736 -0.019353745310890076
2840000000.0 0.014975709806985198 0.6279552813754762
2860000000.0 -0.3531833685641005 -0.5024684894025543
2880000000.0 0.22173933830529405 0.558156944615017
2900000000.0 0.2334383752141388 -0.5338727759727783
2920000000.0 -0.46508996727097796 -0.31208602293878257
2940000000.0 -0.34223802829131383 0.4158689905857116
2960000000.0 0.06856173808768282 0.5097056029888204
2980000000.0 0.4767612722037454 0.12683006163370897
3000000000.0 0.035718151017566785 -0.4681684727796056
3020000000.0 -0.41850286346171606 0.14588559977302573
3040000000.0 0.26390085591579676 0.3218691260538438
3060000000.0 -0.18126932009092186 -0.3465459209060846
3080000000.0 -0.04279503525291885 0.3674498475639877
3100000000.0 -0.0815623912237722 -0.3421484283075634
3120000000.0 -0.3378007617453799 -0.035106543464171545
3140000000.0 0.3327191027206106 -0.006973334554018817
3160000000.0 -0.2578295650001593 -0.20361385196355508
3180000000.0 0.2625617867511137 0.1961181372794178
3200000000.0 -0.06934678065570854 -0.31340332833127255
3220000000.0 -0.19283011947851517 0.2482687187109668
3240000000.0 -0.07452367293705829 0.2852488905879757
3260000000.0 -0.23775127342401023 0.14392794088821378
3280000000.0 -0.03280607286249838 -0.2565091204930702
3300000000.0 0.2153733760495102 0.11937761798666983
3320000000.0 -0.22318206981756258 0.029291886191136644
3340000000.0 -0.08483582834036933 -0.18987558423353454
3360000000.0 0.17608162209690853 -0.034418041776036
3380000000.0 -0.00011306024549133884 -0.15137550020828167
3400000000.0 -0.05623780310578243 -0.1183233706451078
3420000000.0 -0.11627086493234227 0.009753329726146115
3440000000.0 0.09150784243181387 0.05740680588578221
3460000000.0 -0.10329326479010524 0.0060073632283135555
3480000000.0 0.07444827435235564 0.055664018889033995
3500000000.0 0.08025642686070689 0.0018485335622669
3520000000.0 0.07602440575067602 -0.0063034037374553155
3540000000.0 0.04704567201530478 -0.04994729516813493
3560000000.0 0.05603551472873461 0.04771162643016874
3580000000.0 -0.006318379760072196 -0.07895210092572143
3600000000.0 -0.019745096816245176 -0.08782650860161223
3620000000.0 -0.10162329865399893 0.011877598149621001
3640000000.0 0.06423460874168603 0.09149336092003553
3660000000.0 0.10860622965661239 0.024557414391660228
3680000000.0 0.08035393033205697 -0.06991977033196223
3700000000.0 0.10055248856644956 -0.0029718697110012434
3720000000.0 -0.08923537770766203 0.008755202438455855
3740000000.0 -0.031697442539230056 -0.07960929261632375
3760000000.0 -0.001236916617106815 -0.07433729134735133
3780000000.0 -0.022643937730004303 -0.06449482050319973
3800000000.0 -0.047994986562705504 0.0002501999109167904
3820000000.0 -0.010217019567222938 0.037806733100911226
3840000000.0 0.022938223642559912 0.048018837010642634
3860000000.0 0.07139308163458045 0.014826395137865827
3880000000.0 -0.0846488730359161 -0.03064225297110336
3900000000.0 -0.012026482641462848 -0.10330320899850236
3920000000.0 0.09131892965757973 0.053559909053824004
3940000000.0 -0.028550497757147526 -0.09956058162514231
3960000000.0 -0.09744308011485343 -0.025599827974548968
3980000000.0 0.02040654779246546 0.09485228621658719
4000000000.0 -0.0626532938966054 -0.05448758489261544
