!Created with skrf (http://scikit-rf.org).
# Hz S RI R 50.0 
!freq ReS11 ImS11
400000000.0 -0.2846436645345073 -0.7758963419000994
420000000.0 -0.276628181237805 0.7348050048286318
440000000.0 -0.4701332914389255 0.5998636670253257
460000000.0 -0.4897924559680632 -0.5054547057865184
480000000.0 -0.48717547258499827 -0.38135693619567995
500000000.0 0.1332778664240146 0.5314804480518512
520000000.0 -0.029920287824591066 0.4152081601198277
540000000.0 0.4429512234054038 0.03723612233082115
560000000.0 -0.13764985938858837 -0.4567920784188789
580000000.0 0.43112649447491086 -0.031973643497542885
600000000.0 0.36531504525232256 0.1484458926807994
620000000.0 0.18091167178794204 -0.3081898456053979
640000000.0 -0.3618716778835551 -0.02860998586916071
660000000.0 0.2210188160261293 0.26811613470764617
680000000.0 0.3449734592484236 0.06775425567851126
700000000.0 0.3048827371287267 -0.170893447160592
720000000.0 0.3118166037529948 -0.14767496161534996
740000000.0 -0.045350235391776156 -0.31886869558584113
760000000.0 0.27969270372914656 -0.13188944221343488
780000000.0 -0.1591556305071898 -0.21606616664262934
800000000.0 0.10114046704271083 0.22687985190545573
820000000.0 0.07642402706084626 0.19839125940288557
840000000.0 -0.12551481405975828 0.15097664190080046
860000000.0 -0.1504444576023315 0.10593613795344582
880000000.0 -0.10596268329324773 -0.14976045168658506
900000000.0 -0.05308551225623604 0.1404737091879856
920000000.0 -0.1397810748264591 -0.03553970221345863
940000000.0 0.05609730637761504 -0.12463334345642954
960000000.0 -0.07173564646006965 0.08076649582539878
980000000.0 0.008675938570577876 0.06529937076773906
1000000000.0 3.516113084361897e-05 -0.03095186913589546
1020000000.0 -0.011686887492634452 0.02912804733016873
1040000000.0 -0.0513763297976222 0.05184957402802473
1060000000.0 0.024629665410327857 0.12226811559175181
1080000000.0 0.055330410174987604 -0.14251074640358938
1100000000.0 0.01896716855657042 -0.18783411674634404
1120000000.0 0.21369193629427488 -0.0650458847136025
1140000000.0 0.2667827363529587 -0.04720008675370708
1160000000.0 0.2563304602389244 -0.13331545709752626
1180000000.0 -0.03068602286180993 0.3144944102767828
1200000000.0 0.02907747371609649 0.3361967860783144
1220000000.0 0.11162214038730445 0.3247856439272176
1240000000.0 0.09167642897487738 0.32409580450716696
1260000000.0 -0.17733001990552577 0.2882719898289223
1280000000.0 -0.14130095920268243 -0.3129469881311838
1300000000.0 0.13308558885242083 -0.3286965019030087
1320000000.0 0.3587512304206445 -0.0010722299959829325
1340000000.0 -0.1398320591903214 0.3455915908868201
1360000000.0 -0.28155202012846997 -0.2610681288818043
1380000000.0 0.13564019054461254 -0.3542963525279549
1400000000.0 -0.35190233535805004 0.13421611634316374
1420000000.0 0.09696578208965487 0.35605331046940397
1440000000.0 0.3579315191858051 -0.028283372065412607
1460000000.0 0.33900097440478527 -0.10121041100223026
1480000000.0 0.06343181180145688 -0.33750175995992854
1500000000.0 -0.12976790529849275 0.3071314423617277
1520000000.0 0.10130683980395275 -0.29071803867603685
1540000000.0 -0.2723073625442444 -0.05512032880504417
1560000000.0 0.20942557243663937 0.12302834149466546
1580000000.0 -0.17219283354027826 0.11611998397458724
1600000000.0 -0.06596832949684842 0.15957910675680623
1620000000.0 0.1087311101395309 -0.10763143210420721
1640000000.0 0.05376297391673215 0.12277230987556298
1660000000.0 -0.029017616314917716 0.10445490425003061
1680000000.0 -0.04817211596447652 0.07261572597214536
1700000000.0 -0.05097446744419066 0.05347073473022109
1720000000.0 0.03496173051352316 -0.039970578449837424
1740000000.0 0.01080138883838786 -0.049075439657050024
1760000000.0 -0.05736764521880468 -0.00014887194143251725
1780000000.0 0.011871788798965867 0.08716213009534733
1800000000.0 0.0499320389688837 0.11137646498828277
1820000000.0 0.09118074117870648 0.1271710591477841
1840000000.0 -0.12206903095541466 0.14057149626662174
1860000000.0 0.01952763996504857 0.21932046045545942
1880000000.0 0.2419503845078005 0.03173607999348588
1900000000.0 0.01784957028265065 -0.26357726415970567
1920000000.0 -0.279571029756894 -0.06318621514729479
1940000000.0 0.04531573951036092 0.2964766984988657
1960000000.0 -0.308556918032344 -0.05052710256514
1980000000.0 -0.09366483977545209 -0.3052601858358743
2000000000.0 0.0062081221040600825 -0.31661990554937713
2020000000.0 0.3168463784976289 0.0048684074013954845
2040000000.0 0.30460448670024615 0.06895772883626548
2060000000.0 0.1797591162372256 0.2525727287366688
2080000000.0 -0.3081789341492958 0.016321488753351855
2100000000.0 0.30460437264887735 -0.07405890150108659
2120000000.0 -0.05848530137613305 0.30708333040050745
2140000000.0 -0.1907735671782281 -0.24030648793869142
2160000000.0 -0.08466037073635284 0.28845994071505154
2180000000.0 0.2671369870397628 0.12142166235112362
2200000000.0 0.2868888171981181 0.018845784128836827
2220000000.0 0.08925472910706507 0.26257717338525843
2240000000.0 -0.09947856155605031 0.25623800044631845
2260000000.0 -0.26461814886707297 0.03549649966437784
2280000000.0 -0.025284293047686163 -0.25025327473700526
2300000000.0 0.2175497507660746 0.10837133194780141
2320000000.0 -0.21361885751388116 0.10502265804629159
2340000000.0 0.1731887996450228 -0.14658922441429598
2360000000.0 -0.21795743470508225 0.07332347826992343
2380000000.0 0.2090890900539237 0.11339583030528175
2400000000.0 0.143755393154575 0.20980144408384654
2420000000.0 0.0937189178241027 0.26321439997153334
2440000000.0 0.05783941055864419 -0.3074937345386052
2460000000.0 0.20362929002747673 0.2775968642325813
2480000000.0 0.10008047059642354 -0.3613090435772173
2500000000.0 0.23965854093945982 0.3351129343250006
2520000000.0 -0.3754910943090247 0.25124157629284755
2540000000.0 -0.0770770837591736 -0.4799240776041881
2560000000.0 0.4329540861167958 0.2891485319961383
2580000000.0 -0.5489789081085538 0.08000142436725974
2600000000.0 0.3998524157998057 -0.42608543962207807
2620000000.0 -0.11226237180460681 0.5987366147170735
2640000000.0 -0.3441257720411863 -0.5238939421620776
2660000000.0 0.6418645851429348 0.006102989328417289
2680000000.0 -0.12915434496621997 0.6393703893757431
2700000000.0 -0.6323624181864101 0.19274106459415097
2720000000.0 -0.6561779889719073 -0.11051585183773897
2740000000.0 -0.6129218896183894 -0.2613753578607596
2760000000.0 -0.6376642800974099 -0.19476389726794258
2780000000.0 0.23044480799627148 -0.6185884582052356
2800000000.0 0.4208780396859718 -0.49692249974002306
2820000000.0 0.6383818681663541 -0.04648798057029982
2840000000.0 0.06659636091870498 0.6240915987584952
2860000000.0 -0.3588245691633518 -0.49824579057704443
2880000000.0 0.24824775103052793 0.5474928191690239
2900000000.0 0.23539250513249674 -0.5333800289216735
2920000000.0 -0.489419520761685 -0.2738553408573575
2940000000.0 -0.3081459296263296 0.44177822387799837
2960000000.0 0.05516836093514118 0.5114042996473893
2980000000.0 0.4442117583556578 0.2126910331062365
3000000000.0 0.0880399805567324 -0.4632438861602827
3020000000.0 -0.4312521501133298 0.10392971552787209
3040000000.0 0.21971903077003213 0.35301117832189177
3060000000.0 -0.18747065869569798 -0.34343199719752265
3080000000.0 -0.04656516320644202 0.36731168948829834
3100000000.0 -0.13225304980027194 -0.3268421152778093
3120000000.0 -0.32959685792936544 -0.08535787732023083
3140000000.0 0.33221168766412906 0.0010727551433566817
3160000000.0 -0.2690642797318706 -0.18932467009804457
3180000000.0 0.26441478016876147 0.19321208341037274
3200000000.0 -0.026958843912868874 -0.31927202576085184
3220000000.0 -0.210468448746287 0.23334605361408733
3240000000.0 -0.05922622431337 0.2898308407590185
3260000000.0 -0.21295255173346964 0.17840304468176207
3280000000.0 -0.04523852393698076 -0.2528785237817837
3300000000.0 0.2051709632393558 0.13819605092139564
3320000000.0 -0.21130091597231881 0.07514675728754966
3340000000.0 -0.01666221027196382 -0.20786688175568496
3360000000.0 0.1776942732045457 -0.03301961447257625
3380000000.0 -0.041702515047625545 -0.14560751117681056
3400000000.0 -0.026018603957338203 -0.12761443451215917
3420000000.0 -0.11723008578699719 0.011169785067357238
3440000000.0 0.09208126291650645 0.05620749704370191
3460000000.0 -0.09073413958173063 -0.050068489661398326
3480000000.0 0.0541668985940366 0.07701121153215298
3500000000.0 0.06167128433178227 -0.05092296836045109
3520000000.0 0.06934320571267934 -0.02860269694906326
3540000000.0 0.06706532079247506 -0.00796514875544783
3560000000.0 0.0068014862352837255 0.07324615509098999
3580000000.0 -0.030231325981855357 -0.07478414859805783
3600000000.0 -0.05822323160108202 -0.0702539737060118
3620000000.0 -0.052264093846823366 0.08689078485457738
3640000000.0 0.002887117117996509 0.11110644249736255
3660000000.0 0.07457277310014693 0.08314071355341639
3680000000.0 0.031530377620458516 -0.1043560388201359
3700000000.0 0.057364084091835965 -0.08185983015033342
3720000000.0 -0.02110714979035479 -0.0873023173163517
3740000000.0 0.019440915216466383 -0.08480623315599242
3760000000.0 -0.06685890061014667 -0.032886378740245664
3780000000.0 0.0639014525856827 -0.02093314938909373
3800000000.0 0.013739974865159174 -0.04681855960154494
3820000000.0 -0.00620037544804229 0.03800247429834154
3840000000.0 -0.05250029151871813 0.011977035437447615
3860000000.0 0.06348543063070537 0.03876616365490694
3880000000.0 -0.07165912973801605 -0.05469133969959285
3900000000.0 0.0043336333521976815 -0.1033569998698183
3920000000.0 0.05886843749396471 0.08746102259648249
3940000000.0 0.0397847852296815 -0.0955422443808381
3960000000.0 -0.09198564905405704 -0.04055610806605984
3980000000.0 -0.023537140779493045 0.09233876924490812
4000000000.0 -0.02340763664115365 -0.07863462965998837
