!Created with skrf (http://scikit-rf.org).
# Hz S RI R 50.0 
!freq ReS11 ImS11
400000000.0 -0.2613360572769858 -0.7833582706955897
420000000.0 -0.32029048446539277 0.7177021339699702
440000000.0 -0.4859681455606824 0.5902799537263754
460000000.0 -0.581911892293965 -0.39348499580131274
480000000.0 -0.46412313386883775 -0.4115210658767976
500000000.0 0.20826449285511855 0.5090264562200121
520000000.0 -0.3465439200828124 0.21566095502880786
540000000.0 0.4401306441146843 0.0920924103818424
560000000.0 -0.003353473951137276 -0.47652558525239014
580000000.0 0.43490515954320746 -0.048476694711428986
600000000.0 0.38372569611169977 -0.08871422027660367
620000000.0 0.007024736287417334 -0.35423534371222
640000000.0 -0.1479497413141341 -0.32727445758007717
660000000.0 0.06798701635611273 0.34587141469772786
680000000.0 0.34204858242189873 0.08109371465954819
700000000.0 0.3336542882669523 -0.10831020331546783
720000000.0 0.2178357749893666 -0.27121916132215973
740000000.0 -0.3183692756585783 -0.009552744100143425
760000000.0 0.11686643950766612 0.27636389628311553
780000000.0 -0.04750551949814781 -0.26920857277725946
800000000.0 0.06818872418594561 0.24450416327433586
820000000.0 0.19967361091891958 -0.08255381976789461
840000000.0 0.17095004658327914 0.08417173641324893
860000000.0 -0.09314984561373595 -0.15412904462060892
880000000.0 0.18413875338807048 -0.025580432853144566
900000000.0 -0.06486814513251928 0.14421007875507857
920000000.0 0.03458103546788173 0.14037273413541035
940000000.0 0.03899554484196017 -0.1253859583083245
960000000.0 -0.02888591115733061 -0.09979430849973298
980000000.0 0.06666007501493365 0.01130467447901686
1000000000.0 0.03397904586001753 -0.016055210974666605
1020000000.0 0.02065929497027193 0.02401764630609588
1040000000.0 -0.0688360399448028 0.012477200787346657
1060000000.0 -0.1208201059292709 0.014557690570849144
1080000000.0 0.04221503944772514 -0.14826091434126992
1100000000.0 -0.18462453536507165 -0.05634217091197368
1120000000.0 0.21524901344457975 -0.05076442227365526
1140000000.0 0.25705717998302713 0.07619482630262757
1160000000.0 0.2881306792026343 0.04211465411824312
1180000000.0 -0.10587180809396589 0.30083565208971497
1200000000.0 0.2684347104416255 0.20500161391981675
1220000000.0 0.08473641365774973 0.32805740525071897
1240000000.0 -0.15518670389310266 0.3002136507849052
1260000000.0 -0.19396970566583083 0.27931228515875584
1280000000.0 -0.2923004012696747 -0.1851063522701389
1300000000.0 0.04951216050783014 -0.3477155622701867
1320000000.0 0.3498861897355373 0.08276163601488706
1340000000.0 -0.1930222143380762 0.3230251661508246
1360000000.0 -0.35398093793942775 -0.1483978730316031
1380000000.0 0.1798613834374805 -0.3348512291906122
1400000000.0 -0.341589767872727 0.15747577002776003
1420000000.0 -0.02703357584683447 0.3683099471813486
1440000000.0 0.35810657242629373 0.03117945981852167
1460000000.0 0.2993271352957885 -0.18809141797180054
1480000000.0 0.07975540747450387 -0.3333260239731411
1500000000.0 -0.2095419764437684 0.25869577311639974
1520000000.0 0.05379376857637655 -0.30457626941962385
1540000000.0 -0.2766137472918851 -0.004050246502548816
1560000000.0 0.2094914113761728 0.11961825812816984
1580000000.0 -0.20262096932690132 0.0488857926298675
1600000000.0 0.010470079329772819 0.1738666586683084
1620000000.0 -0.007000496802519893 -0.1518773924165971
1640000000.0 0.03616108002646179 0.12871765649479705
1660000000.0 -0.01949749896939568 0.10837956721005684
1680000000.0 -0.05360372372339554 0.06991719271751122
1700000000.0 -0.06026707181748268 0.044051644008942785
1720000000.0 0.03513098414410463 0.03942104012687079
1740000000.0 0.0390785727990195 0.032901019749092944
1760000000.0 -0.044217359741865345 0.03673302003517535
1780000000.0 -0.07527009308565567 0.04347951803362481
1800000000.0 0.03900898039753138 0.11706728125583564
1820000000.0 0.08900120294332203 0.12883485780207538
1840000000.0 -0.16492674822519393 0.08526361662767412
1860000000.0 0.048946806623889914 0.21430800029125785
1880000000.0 0.22992235500766328 0.07677015767559449
1900000000.0 0.05950657765912192 -0.25804988950629065
1920000000.0 -0.2850160443729497 0.022831211084754353
1940000000.0 0.13310726921191107 0.267384858857595
1960000000.0 -0.29351492441281185 -0.1080744900433092
1980000000.0 -0.1350773703515871 -0.28995874781618763
2000000000.0 -0.019599122540103087 -0.316612978419918
2020000000.0 0.31779104814414333 0.007158928742433894
2040000000.0 0.3127485821748138 0.00032839700946362635
2060000000.0 0.20359020788148605 0.23271426598298742
2080000000.0 -0.29492595284939777 -0.09297982566125891
2100000000.0 0.3141398743315219 -0.021701838145135283
2120000000.0 -0.06526816804739874 0.30548981218127047
2140000000.0 -0.17934503787520562 -0.24904932499076224
2160000000.0 -0.13943340025583512 0.26416719091615387
2180000000.0 0.22342582908300007 0.18899084854399187
2200000000.0 0.28739995183320305 0.005221297364705095
2220000000.0 0.15831444293351254 0.22751697042847957
2240000000.0 -0.08002118491411893 0.2617293327495968
2260000000.0 -0.2663088359569427 -0.0014325646772285663
2280000000.0 -0.0331885553303221 -0.25020781674234926
2300000000.0 0.23058506414602065 0.0783158992287509
2320000000.0 -0.202332776682343 0.1258065433907638
2340000000.0 0.14421951410058476 -0.175532781201419
2360000000.0 -0.22737666626418646 0.037793126210704596
2380000000.0 0.21901850597989708 0.09566388877913266
2400000000.0 0.13515948592138527 0.21493001388615934
2420000000.0 0.045711466051113286 0.2764058729821194
2440000000.0 0.02955991520621274 -0.31139549099930014
2460000000.0 0.14001704976277957 0.3136045626631573
2480000000.0 0.17951340733871407 -0.33004161984903224
2500000000.0 0.25000761334814503 0.32739817876977073
2520000000.0 -0.4016778444611392 0.2055928870521709
2540000000.0 -0.07110463250782438 -0.4814195004535085
2560000000.0 0.4359762344669163 0.2839398700079271
2580000000.0 -0.5528636061337733 0.04338127000993853
2600000000.0 0.426051008137356 -0.3998183386403644
2620000000.0 -0.10569676339661202 0.6003782683130623
2640000000.0 -0.35816712481645596 -0.5141162349730838
2660000000.0 0.6405611002938371 0.05462509613530617
2680000000.0 -0.10713558099054384 0.6433910852380919
2700000000.0 -0.6415059230999255 0.1614544740456822
2720000000.0 -0.6548697620747972 -0.11875844149200429
2740000000.0 -0.5842674134450853 -0.32137177391080624
2760000000.0 -0.6258258725882989 -0.2310644482361258
2780000000.0 0.23170801829621157 -0.6182010100176446
2800000000.0 0.49316949726814546 -0.4244231584674333
2820000000.0 0.6389883618370923 0.036905991502422936
2840000000.0 -0.0037627740322851797 0.6279577150839722
2860000000.0 -0.32200479810045696 -0.5221458439204092
2880000000.0 0.24445416043649112 0.5486321380609908
2900000000.0 0.224747171715678 -0.5374183294813553
2920000000.0 -0.49388139747491056 -0.26450133199398823
2940000000.0 -0.33942036055685765 0.41892609810699705
2960000000.0 0.0315773860773393 0.5146741989159112
2980000000.0 0.4730271898219677 0.14404793472911923
3000000000.0 0.0658275911657302 -0.46565050340678027
3020000000.0 -0.44178170310802645 0.04542366549206847
3040000000.0 0.0967011577430053 0.40646172943460923
3060000000.0 -0.10182284308147353 -0.3786925074196433
3080000000.0 -0.05523234020020316 0.36624665140877305
3100000000.0 -0.04669306409824285 -0.3473302760999492
3120000000.0 -0.26304824417381834 -0.215603543888758
3140000000.0 0.33163417096490294 0.03246574348916818
3160000000.0 -0.29984089958366644 -0.1360218282107385
3180000000.0 0.2549627906490965 0.2029133922471571
3200000000.0 -0.035720725962268086 -0.3173830154149279
3220000000.0 -0.19217845700585962 0.24766641140077073
3240000000.0 -0.015263767675125916 0.2948116962058576
3260000000.0 -0.22112196748486557 0.17036291050996294
3280000000.0 -0.14817736837043086 -0.21126789093318757
3300000000.0 0.22839742532582147 0.09323424665970526
3320000000.0 -0.22521280757737105 0.005507426776334895
3340000000.0 -0.010147615082610128 -0.20906637675797674
3360000000.0 0.16708508864447016 -0.07064050937952432
3380000000.0 -0.025654956425630704 -0.14972607822651454
3400000000.0 0.0072915072472969624 -0.12891673991675226
3420000000.0 -0.04762428433148557 -0.10726528984833641
3440000000.0 0.0806248012041767 0.07283759811906675
3460000000.0 -0.10249327740531759 0.004782627370302467
3480000000.0 0.0027345273020545615 0.09289197939273562
3500000000.0 0.07223388380712602 -0.03185848907268392
3520000000.0 0.06821231515001579 -0.03075393372989463
3540000000.0 0.009892062835907439 -0.06674106867586946
3560000000.0 0.006949221697786091 0.07265587421819873
3580000000.0 -0.07960062749966437 0.013118734190074898
3600000000.0 -0.04965449439350158 -0.07616326465593196
3620000000.0 -0.06471382717676445 0.07892269010572592
3640000000.0 0.0037780384070804666 0.11257603395538833
3660000000.0 0.10638567267077209 0.036167129483450966
3680000000.0 0.08632496342878583 -0.06407226555489286
3700000000.0 0.10087806569073349 0.004337573615623498
3720000000.0 -0.03970449198815263 -0.08187105527780493
3740000000.0 -0.0004136495938816016 -0.08663180565251202
3760000000.0 0.02041519217130978 -0.07057399643560229
3780000000.0 0.0681361790056923 0.000768739343826244
3800000000.0 -0.023482409349046104 -0.042734474956643655
3820000000.0 -0.037800459817334285 0.0013363983268095674
3840000000.0 -0.04284753711971138 -0.03271026782802007
3860000000.0 0.007661372798478526 0.0741735811421977
3880000000.0 -0.02620996957294409 -0.08597089007183847
3900000000.0 0.043594263625838944 -0.09389230020997996
3920000000.0 0.03404004847653247 0.0989077705425878
3940000000.0 0.05988029561161675 -0.08421132352005495
3960000000.0 -0.09103556541391172 -0.04434872953481501
3980000000.0 0.03300164117118133 0.08903984627117897
4000000000.0 0.026186006087501785 -0.07742318000989369
