!Created with skrf (http://scikit-rf.org).
# Hz S RI R 50.0 
!freq ReS11 ImS11
400000000.0 -0.3623731783512026 -0.7435134496571212
420000000.0 -0.3081884525943043 0.7219575698034346
440000000.0 -0.4975377085542584 0.5781926344391293
460000000.0 -0.4748473149790519 -0.5173134793446225
480000000.0 -0.4807952862423375 -0.3887527070642832
500000000.0 0.13417342390488007 0.5291852735369181
520000000.0 -0.10234343276637026 0.40643824392470923
540000000.0 0.39613777927349264 -0.19591145322549045
560000000.0 0.05935994554984212 -0.4732022094910338
580000000.0 0.42404099418538094 0.0948836694949742
600000000.0 0.3551648625018638 0.16742181525746955
620000000.0 0.12766634057404366 -0.3324829746774301
640000000.0 -0.306935801219922 -0.19285109310114648
660000000.0 0.28224914405669177 0.2067010166574003
680000000.0 0.34708478832078143 0.04656693789888912
700000000.0 0.2325453182087552 -0.25935269948805756
720000000.0 0.3437960341550967 -0.02824242979796397
740000000.0 -0.068558208587254 -0.3143945237929194
760000000.0 0.2814802098475565 -0.1307351231482109
780000000.0 -0.18423715818357447 -0.19653274740191937
800000000.0 0.1818976501916654 0.1702974117079231
820000000.0 -0.0031842414306137933 0.2154473714975096
840000000.0 -0.030125844037961837 0.19048561552490298
860000000.0 -0.18006221644022627 0.03228193963555924
880000000.0 0.060865757450618715 -0.17677764817380617
900000000.0 0.04104053048025366 0.1452974869488735
920000000.0 -0.14193518159549326 -0.008529915094425149
940000000.0 -0.08610077228017492 -0.10627763184217175
960000000.0 -0.09454113615177345 0.04841880638520139
980000000.0 -0.05350208223985559 -0.03862545824987248
1000000000.0 0.02324570654171454 0.027346856682627006
1020000000.0 -0.0038331657850553358 -0.034526879466508495
1040000000.0 0.05036746087532944 0.05055110542159273
1060000000.0 -0.04871408446312629 0.11192906846404656
1080000000.0 0.051455827866233816 -0.143767218350651
1100000000.0 -0.028300513822032736 -0.18725833827739233
1120000000.0 0.19853284834576468 -0.10469741601641465
1140000000.0 0.25463110308065817 -0.09048136567241456
1160000000.0 0.2880537027325988 -0.004446441378403741
1180000000.0 -0.10862735734317151 0.29956110303491634
1200000000.0 0.16216779412069293 0.29545944409521413
1220000000.0 0.07699750556787203 0.3334234308464865
1240000000.0 -0.01424995067142618 0.3386972226966048
1260000000.0 -0.14715312806472192 0.3053773291088263
1280000000.0 -0.0841768398961864 -0.3313689496545635
1300000000.0 0.138301702334602 -0.3259987970970196
1320000000.0 0.3534036738993141 -0.07083104503096821
1340000000.0 -0.036035674032212764 0.3707420164874963
1360000000.0 -0.2255613133957273 -0.30800888830470324
1380000000.0 0.2658884336994953 -0.27262748261185854
1400000000.0 -0.2482691187539718 0.28543111832188783
1420000000.0 0.1287634799319767 0.34415904150010707
1440000000.0 0.34974007973699583 0.07735799500655761
1460000000.0 0.3176643314438565 -0.15823662691566945
1480000000.0 -0.0075223266123868385 -0.344485724291986
1500000000.0 -0.06876625638329142 0.32531285102591734
1520000000.0 0.15826601124526135 -0.2637723341466266
1540000000.0 -0.26776510864291386 -0.07633856111796887
1560000000.0 0.22011213632482096 0.10360325461615619
1580000000.0 -0.16630128044637466 0.12306434000393861
1600000000.0 -0.09721342660919079 0.14384747626628758
1620000000.0 0.06245737444276906 -0.13978339608579463
1640000000.0 0.0031085863415309775 0.1328313323792314
1660000000.0 -0.012613581944106122 0.10915925466330587
1680000000.0 0.03467224737411909 0.07996950623202768
1700000000.0 -0.057819195835722245 0.04481838682280444
1720000000.0 0.052599106052688506 0.005545247891285972
1740000000.0 -0.014444248856112096 -0.048841942215121885
1760000000.0 -0.030921996813556205 0.045863643323725695
1780000000.0 -0.045677496734977764 0.0760294684514921
1800000000.0 0.09347664405978282 0.08020941654363457
1820000000.0 0.11730795219776687 0.10203569617334526
1840000000.0 -0.14452536732986293 0.11616236044761094
1860000000.0 -0.006453270557127985 0.22214147279471405
1880000000.0 0.24029990413558247 -0.04458058150674536
1900000000.0 0.013126849581379637 -0.26389569760337384
1920000000.0 -0.27744535277246946 -0.06763680873233444
1940000000.0 0.027284322031136954 0.30006108541055637
1960000000.0 -0.3131695025280438 -0.01880369773930721
1980000000.0 -0.14849876358811726 -0.28180368494563907
2000000000.0 0.10304337658901583 -0.2990033587450718
2020000000.0 0.31278934383679063 0.05270676649244332
2040000000.0 0.3123851853125919 0.004426209224052518
2060000000.0 0.19414929763180333 0.23933353864979265
2080000000.0 -0.30636270093223633 0.04330767474041947
2100000000.0 0.28474167915160653 -0.1298066310249127
2120000000.0 -0.08082441464686217 0.30204396183097215
2140000000.0 -0.17944131474090447 -0.24953432018326943
2160000000.0 -0.11713859253305339 0.2749431995276859
2180000000.0 0.28537793673879963 0.07333877355263448
2200000000.0 0.2868313092672814 0.009474098559816737
2220000000.0 0.12864081005861885 0.24658606562698993
2240000000.0 -0.1059682297219209 0.2538302978834694
2260000000.0 -0.266595621980621 0.009148482852634986
2280000000.0 0.02277164428807652 -0.2512853536691566
2300000000.0 0.22665652198385988 0.08752593844128015
2320000000.0 -0.22812355874679702 0.06803366619572086
2340000000.0 0.16543745829237255 -0.1549396680192239
2360000000.0 -0.22838122929434831 0.018524010804580163
2380000000.0 0.20887865160274732 0.11436351308557798
2400000000.0 0.15565134495236965 0.20007838733139716
2420000000.0 0.06539824866137994 0.27102618429318215
2440000000.0 0.007040574047704037 -0.3120990897006383
2460000000.0 0.2293919786389423 0.25682154077095376
2480000000.0 0.06457661889438714 -0.36990326107597327
2500000000.0 0.2686728334458384 0.31289705946549473
2520000000.0 -0.3855281822867934 0.23593974409633098
2540000000.0 -0.1252019252389824 -0.47089565087039936
2560000000.0 0.4313023952857567 0.29207857209627897
2580000000.0 -0.554168785621206 0.03409471898150106
2600000000.0 0.43787741378259387 -0.38770260830494185
2620000000.0 -0.14128759272326433 0.592149917529
2640000000.0 -0.3581645771423303 -0.5131705070880017
2660000000.0 0.6399373033834522 0.047055574416582584
2680000000.0 -0.1248002614606052 0.639294520991744
2700000000.0 -0.6257202963729142 0.2113114727615459
2720000000.0 -0.661332766326136 -0.0659607062240845
2740000000.0 -0.6534939671988327 -0.12937655305140053
2760000000.0 -0.660735757381585 -0.0907813527837129
2780000000.0 0.2154078985815536 -0.6240345669585279
2800000000.0 0.4503429696896387 -0.4702654199081408
2820000000.0 0.6395617983132774 -0.03312679349402998
2840000000.0 -0.07731103422023271 0.623584523403063
2860000000.0 -0.3249671815277501 -0.5213229955269385
2880000000.0 0.22168844944485933 0.5580695087132246
2900000000.0 0.2670237497243856 -0.5173698621355048
2920000000.0 -0.45310579732557504 -0.3290782418558469
2940000000.0 -0.35107875895081775 0.40860476035736665
2960000000.0 0.11091311260374015 0.5021669718947072
2980000000.0 0.4572762806338981 0.18366712032343446
3000000000.0 0.05983839166495412 -0.4660279025206903
3020000000.0 -0.4264923918470137 0.11934802746819631
3040000000.0 0.2262127028502641 0.3498333006852123
3060000000.0 -0.15604686120383146 -0.3586749090431613
3080000000.0 -0.006703642570641525 0.36954337395895637
3100000000.0 -0.10008141647867623 -0.3369698245120488
3120000000.0 -0.3254425769118562 -0.10156028347247846
3140000000.0 0.3296580446887582 -0.04397530712995023
3160000000.0 -0.2534516391486008 -0.21034508237051555
3180000000.0 0.25516421340313755 0.204663984209919
3200000000.0 -0.028685052140731648 -0.31799048778163996
3220000000.0 -0.22957227521575496 0.21495526472528423
3240000000.0 -0.06834435649946237 0.2873958509664994
3260000000.0 -0.23243705164784553 0.15283327742486125
3280000000.0 -0.07010288632587303 -0.24817918734708722
3300000000.0 0.20411313435346107 0.13805813865168323
3320000000.0 -0.22184895698705964 0.03724100961849212
3340000000.0 -0.007830694453112397 -0.2074830877977949
3360000000.0 0.15504556476291423 -0.09223938117381225
3380000000.0 -0.08784809039182351 -0.12382960373869946
3400000000.0 -0.05423683880342141 -0.11780060757440465
3420000000.0 -0.11489302326554586 -0.02520399818296375
3440000000.0 0.08152096633902617 0.07134694653256417
3460000000.0 -0.09561970574254855 -0.04133951516313999
3480000000.0 0.04750016398367874 0.08010634620990133
3500000000.0 0.051835379590281616 -0.060506958318884335
3520000000.0 0.07283047350142106 0.014934039779498207
3540000000.0 0.04990263722154448 0.04614423152269696
3560000000.0 0.023464044380667202 0.07095999581220892
3580000000.0 -0.07402570425652504 -0.027699406270667304
3600000000.0 0.028518204381609194 -0.08546994952193894
3620000000.0 -0.10132424904194734 0.017854827762254458
3640000000.0 0.07063856436767885 0.08592565172042642
3660000000.0 0.10756804229735614 0.027105030926549246
3680000000.0 0.0629945843037784 -0.08587939348385018
3700000000.0 0.09673462446239511 -0.03112298033525828
3720000000.0 -0.086898194250085 -0.021760721643067825
3740000000.0 -0.0015886773444624249 -0.08518285768944235
3760000000.0 0.020252958453316906 -0.07168650610832845
3780000000.0 0.004467485708084708 -0.06808661390649733
3800000000.0 -0.04183207664539744 0.022413012273691916
3820000000.0 -0.03617954903486145 0.012940282236733307
3840000000.0 0.0002808935246547928 0.05359380202083123
3860000000.0 0.060594845174840706 0.03940940040902442
3880000000.0 -0.06218835542540568 -0.06493226208100635
3900000000.0 -0.053343939631022665 -0.08871838373914721
3920000000.0 0.0770118825683841 0.07168909103765485
3940000000.0 -0.0034191135456636524 -0.10316406196627693
3960000000.0 -0.09854273850671932 -0.02068768517020953
3980000000.0 0.022916715982189865 0.09432614796451409
4000000000.0 -0.07966147841485371 -0.025752179927693915
