!Created with skrf (http://scikit-rf.org).
# Hz S RI R 50.0 
!freq ReS11 ImS11
400000000.0 -0.4303167977666659 -0.7101653428622086
420000000.0 -0.23249732391392428 0.7465301530899925
440000000.0 -0.3979392735574646 0.6497140894061233
460000000.0 -0.28509038880474985 -0.6405171260735645
480000000.0 -0.5189902509228109 -0.3423495630061355
500000000.0 0.3045066323008324 0.45700820281005855
520000000.0 -0.35689719945969245 0.20945640164658672
540000000.0 0.3108320527075431 -0.31737195859239165
560000000.0 -0.0053922722433213085 -0.47942520185113924
580000000.0 0.42768101458607705 0.08721562359514219
600000000.0 0.386947708197303 0.046562509540021384
620000000.0 0.3130799692824184 -0.16495229433279038
640000000.0 -0.27205290702718543 -0.2367999216880854
660000000.0 0.12395879706981676 0.3341682147101668
680000000.0 0.14340234699282708 -0.32008310012194585
700000000.0 0.33302538183523217 -0.08777943822948685
720000000.0 0.27693230991916745 -0.2031743586563696
740000000.0 0.11692559494715225 -0.300169016502695
760000000.0 0.29831797641415697 -0.07965891999137799
780000000.0 -0.2127800340411102 -0.1664814391723825
800000000.0 0.1682062785582135 0.18580386177643046
820000000.0 0.04248043002006678 0.20926467254223283
840000000.0 0.04065004790130002 0.19080598272060767
860000000.0 -0.13379900598865582 0.12474594892481818
880000000.0 0.07418161631919346 -0.1674214687896194
900000000.0 -0.11161217607586933 0.10655096429019746
920000000.0 -0.1443528943769295 0.01679090194091872
940000000.0 -0.07978107666921802 0.10993441803713382
960000000.0 -0.07410339809182101 -0.06928469077416326
980000000.0 0.03434993613156127 0.05401749434648391
1000000000.0 0.007126422417633901 0.03651157010477366
1020000000.0 -0.0001428252298107421 0.03440059413638724
1040000000.0 -0.07320918993992165 0.010308092337348305
1060000000.0 0.10688760880053215 0.0574208916971384
1080000000.0 -0.026484510483726745 -0.1503653479325836
1100000000.0 0.034011896989886464 -0.18794088911595344
1120000000.0 0.18104056455684087 -0.1312329317832302
1140000000.0 0.2660279066322446 0.002523307548229656
1160000000.0 0.24378074789164103 0.15861452579562155
1180000000.0 0.00951237309901408 0.320577993237635
1200000000.0 0.19831778051304103 0.2753992787123669
1220000000.0 0.2529303053307451 0.2290024472522297
1240000000.0 -0.05273278140265039 0.33016117159531805
1260000000.0 -0.33473074814569515 0.04909151185214474
1280000000.0 -0.16800240374229197 -0.3036425667255834
1300000000.0 0.006235566808828752 -0.354552497362433
1320000000.0 0.3132331010959 -0.17368130792459685
1340000000.0 -0.2221089906554304 0.297359182329603
1360000000.0 -0.24388118134932635 -0.29621143291093854
1380000000.0 0.1383570306817326 -0.354967212008102
1400000000.0 -0.29953540674339657 0.22879487038739452
1420000000.0 0.10242728931628245 0.3535583143685983
1440000000.0 0.3587132000010642 -0.03282883640423577
1460000000.0 0.2722121571694935 -0.22531363976014296
1480000000.0 0.08787822929462794 -0.3310104362449641
1500000000.0 -0.19705591933572264 0.27115000880998774
1520000000.0 0.07402262381490052 -0.29954933581299437
1540000000.0 -0.27683647268864836 -0.019657314752973793
1560000000.0 0.2280583350419923 0.07946805567151738
1580000000.0 -0.2053277236740386 0.036119137598722116
1600000000.0 -0.02052361741857321 0.17128862976848183
1620000000.0 0.09851734256172459 -0.1173269384212168
1640000000.0 0.027804156781271704 0.12997564438843603
1660000000.0 0.019461760261332606 0.10680577168015697
1680000000.0 -0.05144894377241228 0.06980448138983102
1700000000.0 -0.046471803626394026 0.05702210700085513
1720000000.0 0.0480352507201656 -0.020725706680826003
1740000000.0 -0.022743945635928818 -0.04371835711964569
1760000000.0 -0.05473196559328878 0.016944759232451066
1780000000.0 0.021513344019754826 0.0844205150974167
1800000000.0 0.11076494828841582 0.05256823966794085
1820000000.0 0.08429586633100353 0.13080997392509575
1840000000.0 -0.13271730697654072 0.13184962568257577
1860000000.0 0.06441052165724163 0.2111050707261794
1880000000.0 0.2438579877227737 0.008551862734112957
1900000000.0 0.06984566175992882 -0.25578613353540497
1920000000.0 -0.2828844011459631 -0.04309189303620527
1940000000.0 0.13255333049513932 0.27027778654846424
1960000000.0 -0.3016569153236828 -0.08149514340263561
1980000000.0 -0.09527962986628682 -0.3041746816557902
2000000000.0 0.08805209305478971 -0.3049991990082399
2020000000.0 0.3162371678848641 0.029096912638202084
2040000000.0 0.31038904910859194 -0.028157865558195456
2060000000.0 0.1847623468509713 0.2470689802345379
2080000000.0 -0.30849567879464235 0.002751859734621627
2100000000.0 0.30286337119841605 -0.08109317602709559
2120000000.0 -0.029967879461771277 0.31116345525941114
2140000000.0 -0.22515147820641063 -0.2100921386227883
2160000000.0 -0.07979080098700775 0.28816372301737825
2180000000.0 0.26770903142534075 0.12022447761240102
2200000000.0 0.2856060322151107 0.03657510633434389
2220000000.0 0.11664849190000509 0.2532700356434707
2240000000.0 -0.06791643654179365 0.26661291415948035
2260000000.0 -0.26341067510567695 0.03615309832982818
2280000000.0 0.05704351240239471 -0.2457512025493146
2300000000.0 0.2055580421223365 0.13101611926708906
2320000000.0 -0.20394752449859335 0.12132890269242975
2340000000.0 0.20488267726751 -0.09774816063070295
2360000000.0 -0.22871319773828083 -0.013238985993538826
2380000000.0 0.21946753981721745 0.09201454244713722
2400000000.0 0.13726372164773445 0.21179725489682932
2420000000.0 0.065287159737518 0.27186529606139564
2440000000.0 -0.04721270380132445 -0.30804277446903594
2460000000.0 0.22959661701030856 0.25644200782931353
2480000000.0 0.06267220781053272 -0.3705139694398965
2500000000.0 0.29880152205635 0.28409837116587916
2520000000.0 -0.3825707387013247 0.2401811249884444
2540000000.0 -0.07400332884953209 -0.48162514061370953
2560000000.0 0.44635362366975223 0.2698635312663176
2580000000.0 -0.5502304034617167 0.07415613377618718
2600000000.0 0.4278565677980933 -0.39803131183588825
2620000000.0 -0.11858376006549691 0.5967358175627773
2640000000.0 -0.3632172994133817 -0.5097287858072235
2660000000.0 0.6395034813238457 0.05321228389479887
2680000000.0 -0.08107516258671825 0.6462054082309628
2700000000.0 -0.617378004746655 0.23462806836279493
2720000000.0 -0.6639039512127433 -0.027648836782303093
2740000000.0 -0.661165698064842 -0.08188150392161404
2760000000.0 -0.6601969176612211 -0.09448382748407408
2780000000.0 0.16156097528932237 -0.64006495315897
2800000000.0 0.39963956084559477 -0.5142352522743124
2820000000.0 0.64058218133001 -0.016175479967116508
2840000000.0 0.029064320077537707 0.6275769127605707
2860000000.0 -0.3405653098070327 -0.5110129468400112
2880000000.0 0.23555416894682138 0.5520408474922758
2900000000.0 0.27709851589922385 -0.5120522451422096
2920000000.0 -0.4616090629104451 -0.31716287033565566
2940000000.0 -0.355331129672515 0.40436485332294875
2960000000.0 0.06875564433929354 0.510145042089291
2980000000.0 0.4584072293218682 0.17884201188664403
3000000000.0 0.0319064444128914 -0.4687012887261777
3020000000.0 -0.43245986495280003 0.09573506832897022
3040000000.0 0.27804370666736516 0.3089935640434845
3060000000.0 -0.21315882866971778 -0.3279594922812408
3080000000.0 0.025755120708738696 0.36906323434046984
3100000000.0 -0.05425415296118614 -0.3467389667036739
3120000000.0 -0.326570272676669 -0.09719040215547749
3140000000.0 0.3220359747335434 -0.08608927266938422
3160000000.0 -0.2766476333203029 -0.1771823460979469
3180000000.0 0.23615075794687626 0.2267808440112938
3200000000.0 -0.06306728554082368 -0.3139692205287694
3220000000.0 -0.20449622597300457 0.23951016480079806
3240000000.0 -0.10128804687772631 0.27720392970076374
3260000000.0 -0.24357964423638506 0.13401952759469993
3280000000.0 -0.04307856693590954 -0.2542535933653444
3300000000.0 0.209682069130879 0.12876249241928817
3320000000.0 -0.22378748315434005 0.01881550213575512
3340000000.0 -0.04222863560932721 -0.20379716182948857
3360000000.0 0.13871169368404343 -0.11319275374579635
3380000000.0 -0.03607546706518145 -0.14726800848990185
3400000000.0 -0.061049477095956296 -0.11456524021222414
3420000000.0 -0.11808624524775924 -0.004146902141419618
3440000000.0 0.09411185184094474 0.05444500974279789
3460000000.0 -0.10158915296478346 0.016626988340405085
3480000000.0 0.040807711183247164 0.08299036085455923
3500000000.0 0.047536858018111965 0.06444032856857003
3520000000.0 0.0775169571746951 0.0008179859389088011
3540000000.0 0.008326305742682241 -0.06811830506458727
3560000000.0 -0.008990686433370875 0.07107514047433913
3580000000.0 0.011528276317440937 -0.07831557670725013
3600000000.0 0.00493139670394672 -0.09012394213106449
3620000000.0 -0.0917259834192715 0.04598518032166656
3640000000.0 0.03556692863718089 0.10611606635446774
3660000000.0 0.10981156438451761 0.012144200912734042
3680000000.0 0.05125205904878497 -0.09314575943824732
3700000000.0 0.09900253706488357 -0.01332131777925737
3720000000.0 -0.06955314870265883 -0.058868136308915985
3740000000.0 -0.08381992570427396 -0.015280820854955518
3760000000.0 0.006176006843505351 -0.07362111363474463
3780000000.0 0.035869662895719426 -0.0577624882391666
3800000000.0 -0.03983012788013594 -0.027913956631357068
3820000000.0 -0.014394159526046802 0.03489684018288629
3840000000.0 0.026289702345571174 0.04697042792141298
3860000000.0 0.06119690869586296 0.0393655355956456
3880000000.0 -0.07597070595022705 -0.04791997825607737
3900000000.0 -0.03543344943883496 -0.0975475990195646
3920000000.0 0.0981667673255432 0.03875027904470976
3940000000.0 -0.054763775622259286 -0.08771510301044068
3960000000.0 -0.09831932786349246 -0.02311848722378629
3980000000.0 0.06324966803988298 0.07491546619781568
4000000000.0 -0.08304898353386499 0.013537047827513984
