!Created with skrf (http://scikit-rf.org).
# Hz S RI R 50.0 
!freq ReS11 ImS11
400000000.0 -0.6574107116451781 -0.5273570884005349
420000000.0 0.6780894545761471 0.3984353290158163
440000000.0 -0.17682735383139803 0.731607303093354
460000000.0 -0.6595137416448594 0.25019893579868435
480000000.0 -0.25298612182350566 0.5698908448370786
500000000.0 -0.0768310827057096 -0.49005666523878766
520000000.0 -0.3875983461929882 0.07924641358323037
540000000.0 0.24687210152090935 0.38984763264209704
560000000.0 0.11987349785088319 -0.4637726227948399
580000000.0 0.21482870682709085 0.3800236858087314
600000000.0 -0.25636720842640426 0.30347190031677124
620000000.0 0.2169233947367584 0.30571414625348636
640000000.0 -0.3660279577896292 -0.06389588099617216
660000000.0 0.05234870093575189 -0.3377764126199447
680000000.0 0.3296487632244193 0.06630099020295181
700000000.0 0.341538828225546 -0.05853771128918269
720000000.0 0.3078342799365798 -0.15243312573902726
740000000.0 0.0923663528015912 -0.31618873349660037
760000000.0 0.16464735052171095 -0.2509570099198878
780000000.0 0.07944481108357572 -0.2666388129956328
800000000.0 0.24317910475807986 -0.027093297295816002
820000000.0 -0.2065466617568053 0.06682414420387889
840000000.0 0.19876617777536387 -0.021216839965865382
860000000.0 -0.1794449726701111 -0.01703778457743092
880000000.0 -0.11223983958727504 -0.13953548731899917
900000000.0 -0.09474776271334405 0.12733305829829122
920000000.0 0.00450273971969576 -0.14265184694912464
940000000.0 0.06826894926644152 0.11368587979255773
960000000.0 0.05142091162899221 0.08798320490231352
980000000.0 -0.008372900847544593 -0.056965820435954696
1000000000.0 0.023829133746909946 0.03606335405500271
1020000000.0 0.02803767288826821 -0.018161816880703938
1040000000.0 0.020670466267972025 0.0770279039982709
1060000000.0 -0.08437278697534607 0.08701340978155539
1080000000.0 -0.13828154094105133 -0.0504457774583186
1100000000.0 0.00961362579414047 -0.18742211820909974
1120000000.0 0.1778907809237192 -0.14097212545361631
1140000000.0 0.2666250760769667 -0.02875344398016635
1160000000.0 0.2846924256639393 -0.033641477281307286
1180000000.0 0.11255602276347991 0.2992301794548527
1200000000.0 0.17517590945381423 0.28457979195879046
1220000000.0 -0.14236456584876336 0.30868319519105897
1240000000.0 -0.16859968407464923 0.2936882543639224
1260000000.0 -0.2833409954337885 0.18765508583601476
1280000000.0 -0.28537424356232255 -0.1973531830713522
1300000000.0 0.10027544285286173 -0.33962563701413484
1320000000.0 0.32448599908037884 -0.145941108340637
1340000000.0 -0.1185567205904075 0.35364685530471046
1360000000.0 -0.3577658916508953 -0.1410367614967411
1380000000.0 -0.006619691254080479 -0.37558112210353606
1400000000.0 -0.37400180444415543 0.050476575754066506
1420000000.0 0.17467453598387198 0.3275675016131325
1440000000.0 0.35848092953604216 -0.047701568386626286
1460000000.0 0.17441104617547523 -0.31420907247210506
1480000000.0 0.10015721615602391 -0.33088399790805334
1500000000.0 -0.12681960220021407 0.3089710005384512
1520000000.0 0.11492208825990337 -0.2878292787460199
1540000000.0 -0.2316618375370433 0.15494356305016543
1560000000.0 0.23677923092825495 0.04428283340065954
1580000000.0 -0.2034476966669174 0.02595395210644534
1600000000.0 0.023044321367861137 0.17404620075195423
1620000000.0 -0.034018660706757395 -0.14448011580304868
1640000000.0 0.10825422270124929 -0.07288840414572789
1660000000.0 0.08344262122645763 0.06367996818656292
1680000000.0 -0.04332254867081215 -0.07285869746170873
1700000000.0 0.06400222826060983 0.02765066526106755
1720000000.0 -0.024802439013647856 0.04488506249512237
1740000000.0 -0.024389186118552116 0.04380789339302799
1760000000.0 -0.03365600691002178 -0.05375160705014819
1780000000.0 -0.05662856793531349 0.06892491255569608
1800000000.0 0.005775910300101908 -0.12535729758300176
1820000000.0 0.03753600068751943 -0.15384731321067968
1840000000.0 0.053952270009430967 0.1816712391688768
1860000000.0 0.21308043760671488 0.06458957854992008
1880000000.0 0.20767828311076753 -0.12828543584989216
1900000000.0 0.029568492197707723 -0.26467120357297047
1920000000.0 -0.266104823041042 -0.11135109758748479
1940000000.0 0.21313956952941945 0.2132449929339537
1960000000.0 -0.3141664339626107 -0.005630140167268552
1980000000.0 -0.1319310325466556 -0.28977426518585503
2000000000.0 0.15830163578596576 -0.2736656798656749
2020000000.0 0.31540875490380543 0.017528289998083587
2040000000.0 0.3121999205084786 -0.029043091810723745
2060000000.0 0.18637157470863075 0.24656645394237317
2080000000.0 -0.2245747469189185 0.21477682392516334
2100000000.0 0.21408490494889337 -0.230821010710272
2120000000.0 0.0948511445760719 0.2978771446517888
2140000000.0 -0.17004099801146963 -0.2573352740615748
2160000000.0 -0.03890185054254517 0.3014684648990464
2180000000.0 0.2984222142450058 -0.0046204582243174145
2200000000.0 0.27335226890907965 -0.09263902257541852
2220000000.0 0.22439413321223742 0.17235277272948638
2240000000.0 -0.17313280908995762 0.21508377086690386
2260000000.0 -0.25968544191970855 0.06986322844851955
2280000000.0 -0.006188592045879915 -0.2541976910505627
2300000000.0 0.21078044685341393 0.13039435007948721
2320000000.0 -0.21790935295443922 0.08908014657354425
2340000000.0 0.1737626569795252 0.14878820781156124
2360000000.0 -0.1740755903334524 -0.15368025519962092
2380000000.0 0.2279918045205674 0.0868885663668018
2400000000.0 0.24917538212660195 -0.07010630832161541
2420000000.0 0.2718216533411652 -0.08403427556288576
2440000000.0 -0.29468311405722497 0.11424065061668773
2460000000.0 0.2563766130886067 -0.23494616229390025
2480000000.0 -0.3623074667342573 -0.12527003483333768
2500000000.0 0.2223034047970201 -0.35894763710759975
2520000000.0 0.36083568805716876 0.28709746937944125
2540000000.0 -0.4774499997696404 0.13408525592108525
2560000000.0 0.2291254446375274 -0.4769204010378799
2580000000.0 0.043373631895147466 0.5597494003799588
2600000000.0 -0.4031095498041604 -0.42870768935074016
2620000000.0 0.6076193759470861 0.06004502667489332
2640000000.0 -0.5205218793820625 0.3502692287206157
2660000000.0 -0.1480537288502722 -0.6235579072263372
2680000000.0 0.6161744797471665 -0.203561447592669
2700000000.0 0.5734191597489444 0.31956759205707236
2720000000.0 0.45487675635844993 0.47738637260099603
2740000000.0 0.4447063409565195 0.4884693286450251
2760000000.0 0.4414192157227418 0.4887113473243543
2780000000.0 -0.5640568339917192 0.32308409535507276
2800000000.0 -0.6387715686802615 0.03660469956498188
2820000000.0 -0.28723375574438187 -0.5593417380388026
2840000000.0 0.5948447937523086 -0.15693160729182717
2860000000.0 -0.5207762670708443 0.30200985898990207
2880000000.0 0.5845059826826832 -0.06381584740539326
2900000000.0 -0.226591276225929 -0.5219501274729488
2920000000.0 -0.5373843581578908 0.10794616209080954
2940000000.0 0.011773179241399381 0.5271338364915286
2960000000.0 0.2899776653374632 0.4095596075147182
2980000000.0 0.41807340823781314 -0.23667310673570124
3000000000.0 -0.15089455639811677 -0.4301048932215772
3020000000.0 -0.3272184142049833 0.28252262314942606
3040000000.0 0.4071350730151776 -0.02207359379815757
3060000000.0 -0.32472160400062644 0.196816980911554
3080000000.0 0.31516275760381646 0.17238191688560284
3100000000.0 -0.33332069467959474 -0.07080648879017114
3120000000.0 -0.2138509581400415 0.25227723694803017
3140000000.0 0.3040984928354517 -0.11666917403961147
3160000000.0 -0.32503117334805753 0.01150458508435281
3180000000.0 0.3194962145293437 0.021735470307426775
3200000000.0 -0.15906415557219097 -0.2711346128645357
3220000000.0 -0.18718663005037495 0.24257145636714883
3240000000.0 -0.13829258210750126 0.2551453530508624
3260000000.0 -0.2641435392483234 0.06913256728411707
3280000000.0 0.046294053213631725 -0.25135161625138036
3300000000.0 0.22675282269690683 0.06966463773526206
3320000000.0 -0.1998445765948534 -0.08612880174572403
3340000000.0 0.00830141663898026 -0.20036606999729156
3360000000.0 0.13481025758406226 0.11139869289562286
3380000000.0 0.022294382846160532 -0.14558389863582727
3400000000.0 0.05022182431163161 -0.11701156327890773
3420000000.0 -0.11425017237840274 -0.022320447909364563
3440000000.0 -0.05363076750038423 0.09157475903340893
3460000000.0 -0.10340042484497976 -0.009284239284727049
3480000000.0 -0.087468463769447 -0.024274691062151993
3500000000.0 -0.02494292488245235 0.0803333285732106
3520000000.0 0.0519623980366536 -0.05370075879007435
3540000000.0 -0.06014583468722056 0.03282759651707557
3560000000.0 -0.01893640998756241 0.07005020229016695
3580000000.0 0.0777411007947655 0.014796501903911491
3600000000.0 0.08102368954383997 -0.03820422154926959
3620000000.0 -0.06485681749650535 -0.07608691433777548
3640000000.0 0.028246724222533933 0.10430020670418631
3660000000.0 -0.10242813562732098 0.032694782636481616
3680000000.0 0.08914941236127052 -0.057733631102013336
3700000000.0 0.06966376988891762 -0.06624700960070255
3720000000.0 0.04048122398057655 -0.08045046852773334
3740000000.0 0.0675280175313372 0.04279257193142438
3760000000.0 0.0024637885616454304 0.0754495293449612
3780000000.0 0.06631295736698069 -0.011110863235869585
3800000000.0 0.014078249063354266 0.045205428742296085
3820000000.0 -0.01364855988941554 -0.034295817258033996
3840000000.0 -0.058817304988854416 0.0012408364966404188
3860000000.0 -0.05314932841987453 0.05335764579395471
3880000000.0 -0.061817821748406734 -0.07225454246972747
3900000000.0 -0.05386946389604899 -0.08896510766850954
3920000000.0 0.05580770557214138 0.09015102217168947
3940000000.0 0.02260777544364829 -0.10082332289243424
3960000000.0 -0.061402910360102717 -0.08351303276177828
3980000000.0 0.017249513039106927 -0.09365867331902376
4000000000.0 -0.0340216520714986 -0.07407405810087543
