!Created with skrf (http://scikit-rf.org).
# Hz S RI R 50.0 
!freq ReS11 ImS11
400000000.0 -0.2917949222037125 -0.7776516564979672
420000000.0 -0.12207279417313381 0.7745015498470609
440000000.0 -0.5378787870165265 0.5413562936400121
460000000.0 -0.44238319108225926 -0.5443243188670254
480000000.0 -0.5694689972931906 -0.24545432418856702
500000000.0 0.24513174085492506 0.48832847967215814
520000000.0 -0.26859935146214015 0.3141759082297803
540000000.0 0.3925031804603362 -0.22733016457109376
560000000.0 -0.34384223984355256 -0.32409507025162937
580000000.0 0.37368078880396494 0.21273995835587614
600000000.0 0.29858213515500387 0.2629886748228288
620000000.0 0.0367523519232348 -0.3607665146874938
640000000.0 -0.31546386718489455 0.1676649434606971
660000000.0 -0.02395901270578329 0.3463811851019834
680000000.0 0.2807529215252458 0.2072173567859416
700000000.0 0.29649574599788275 -0.19312853726535448
720000000.0 0.049210777487652194 -0.339134479190021
740000000.0 -0.07540603788918608 -0.31224972166660525
760000000.0 0.2984305764159402 -0.07112297031277391
780000000.0 -0.2044346223619785 -0.17847128328737755
800000000.0 0.02746202676748745 0.2466278757743608
820000000.0 -0.11108172567930368 0.1852555929169781
840000000.0 0.021292411334223185 0.19372520234228063
860000000.0 -0.11255221979569623 0.1399822047533712
880000000.0 0.1780112450857085 -0.041092359311237364
900000000.0 -0.14669313024425018 0.047855674987605755
920000000.0 -0.04261232467857421 0.13871553112269736
940000000.0 -0.08790289076165696 -0.09881500579560745
960000000.0 -0.08713568216987783 -0.06152697745766377
980000000.0 -0.055443120904087054 -0.03744280008862616
1000000000.0 0.03571804615567194 -0.0012165900040423522
1020000000.0 0.013303843508104964 -0.03248491557635639
1040000000.0 0.06340743425525318 0.028959342604097684
1060000000.0 0.015008425830606704 0.11840855594412693
1080000000.0 0.15089904313703115 0.024871226831432714
1100000000.0 -0.17878864114044074 -0.0700591335035233
1120000000.0 0.10288780802218053 -0.19680128906975405
1140000000.0 0.2643609085347684 -0.048930674253836064
1160000000.0 0.288481190339907 0.03255566427662484
1180000000.0 0.03376879731534888 0.317147358334405
1200000000.0 0.18793098171826347 0.27787140271084904
1220000000.0 0.01928412153915425 0.343691688264252
1240000000.0 -0.011479799773624177 0.3379860106586596
1260000000.0 -0.1871631351836587 0.28322089949528223
1280000000.0 -0.17159356002916454 -0.2969819185579109
1300000000.0 0.151399648420768 -0.3197236998998687
1320000000.0 0.3577603905025837 -0.013532725410914713
1340000000.0 -0.16202329262256873 0.3359641625517244
1360000000.0 -0.32578117277960383 -0.20035483381717503
1380000000.0 0.13354588485964738 -0.3564739894949604
1400000000.0 -0.32585271285176126 0.18737221511539678
1420000000.0 0.11861143461840014 0.3500946737773213
1440000000.0 0.35813534434380984 -0.005512662007484509
1460000000.0 0.2871537053497652 -0.20933039904315476
1480000000.0 0.05058333550643599 -0.33976952484506884
1500000000.0 -0.13407412707444993 0.306528491526995
1520000000.0 0.12617620899747678 -0.2809447911087826
1540000000.0 -0.2653466648634717 -0.08360404356641135
1560000000.0 0.21378418196118043 0.11410577312650076
1580000000.0 -0.19747846558700308 0.06456352084927557
1600000000.0 -0.12180654646793239 0.12176558135873636
1620000000.0 0.07513823293057911 -0.13386123693027047
1640000000.0 0.0612547637018409 0.1174056147230262
1660000000.0 -0.03821883848154637 0.10101356860545267
1680000000.0 0.041923087737397155 0.07556929683043843
1700000000.0 -0.027746053400983788 0.06890434856074619
1720000000.0 0.03589440013550677 -0.03914825034901638
1740000000.0 -0.022379634690850594 -0.04327211335343275
1760000000.0 -0.052076979842725926 0.024376266665365336
1780000000.0 0.03447642621318119 0.07941877519935045
1800000000.0 0.07360977267118586 0.09794953563098246
1820000000.0 0.14879395477302385 0.04980395947523966
1840000000.0 -0.05542775520020022 0.17734505000836742
1860000000.0 0.029593250345274588 0.2200955999234574
1880000000.0 0.24292277471751902 0.034789477617604064
1900000000.0 0.041479265311337665 -0.2616707647334414
1920000000.0 -0.28580351426184425 -0.024032733574562294
1940000000.0 0.05026283719383303 0.2967169472770299
1960000000.0 -0.2892996153413057 -0.11906015712234747
1980000000.0 -0.06519621667624766 -0.3129603789050389
2000000000.0 0.057893975858160314 -0.3119099456851304
2020000000.0 0.31420005631410125 0.02425035748173976
2040000000.0 0.30958545025315737 0.03205559970392097
2060000000.0 0.20652590352374006 0.22922663442789537
2080000000.0 -0.3076605467563065 0.022168428731344437
2100000000.0 0.24098671412622177 -0.20040789366583855
2120000000.0 -0.046886141794848624 0.30766905359134566
2140000000.0 -0.17545713085940703 -0.253571580010541
2160000000.0 0.02402810412555501 0.29993756224136264
2180000000.0 0.26337672652150895 0.13029701245952793
2200000000.0 0.27908297967219753 0.06986595126736708
2220000000.0 0.09752846057129771 0.261694660296231
2240000000.0 -0.08849826524465532 0.26092983971060835
2260000000.0 -0.2543792105148521 -0.08125988441205888
2280000000.0 0.052045845923086476 -0.24676329813050568
2300000000.0 0.20572116307020621 0.12951257166863314
2320000000.0 -0.23371046302624404 0.03991221614839822
2340000000.0 0.21562585244527652 -0.06950933786663845
2360000000.0 -0.2287755585384118 0.007896575756215336
2380000000.0 0.2196943325460625 0.087806562309814
2400000000.0 0.13702525850117322 0.21249621336566196
2420000000.0 0.07884578608537754 0.26719061512973885
2440000000.0 -0.08249493683054206 -0.30041834401396234
2460000000.0 0.20482703419516343 0.27569376916935706
2480000000.0 0.09403218332677948 -0.36379957256899087
2500000000.0 0.3739103914121051 0.17655402212317362
2520000000.0 -0.3524536861434721 0.28331773691084705
2540000000.0 -0.05829090251567022 -0.4840790671715045
2560000000.0 0.4503992048892839 0.26413998417222767
2580000000.0 -0.5542457236802549 0.03028979727515163
2600000000.0 0.44083414279661826 -0.38348007774076287
2620000000.0 -0.17880702796401038 0.5823865511241378
2640000000.0 -0.30669629510434343 -0.5455322221856311
2660000000.0 0.6326497561954111 0.1035677313677198
2680000000.0 -0.18186547486477042 0.6249277324687225
2700000000.0 -0.6310305085390883 0.19117261075345499
2720000000.0 -0.6609990409941533 -0.06404925200142543
2740000000.0 -0.6636317514790379 -0.05237593352961756
2760000000.0 -0.6639411339656335 -0.06139345597513447
2780000000.0 0.1697331836315802 -0.6374123026301394
2800000000.0 0.35306943728981016 -0.5478172298999362
2820000000.0 0.6369792807827592 -0.07311023889871118
2840000000.0 0.07867931905618929 0.6236532322455136
2860000000.0 -0.27685175124933364 -0.5484340279642991
2880000000.0 0.17834332453545992 0.5736621584033353
2900000000.0 0.2910204844346972 -0.5045603785069946
2920000000.0 -0.4292111880975367 -0.359436485005314
2940000000.0 -0.4298313700401999 0.323110825961208
2960000000.0 0.06311814081281429 0.508694083884821
2980000000.0 0.43963215155476687 0.21927314203756276
3000000000.0 0.03379349323941583 -0.46737795492819
3020000000.0 -0.42061469680363595 0.13462464950208988
3040000000.0 0.31812450936208225 0.2657196114724743
3060000000.0 -0.19168992117400785 -0.33947810680578455
3080000000.0 0.06620533137074948 0.36315339223037174
3100000000.0 -0.14959951296069485 -0.31823387819950716
3120000000.0 -0.3368336472490807 -0.053239926995494895
3140000000.0 0.3223185736421701 -0.08319901923588026
3160000000.0 -0.2837530181578214 -0.16822697873753006
3180000000.0 0.24435596398056283 0.21896407475747592
3200000000.0 0.02809480599860249 -0.3189263202095427
3220000000.0 -0.25848605655727197 0.17962109624650555
3240000000.0 -0.09942988069391145 0.27761887254981577
3260000000.0 -0.24514430384015104 0.12966695436871029
3280000000.0 0.0007235551440894428 -0.2574213882365095
3300000000.0 0.16973238955997805 0.17786709412916607
3320000000.0 -0.21026761339806188 0.07946049640417051
3340000000.0 -0.018025115987166548 -0.2061278185696155
3360000000.0 0.179668173190196 0.017452765079792532
3380000000.0 -0.102726384607758 -0.11144277636681801
3400000000.0 -0.056178685866020366 -0.11792868141562941
3420000000.0 -0.11020559892659851 -0.04151670701240568
3440000000.0 0.09060381454950704 0.060635468390058414
3460000000.0 -0.09051672499693304 -0.05110569106264009
3480000000.0 0.049949830829443834 0.08028017343888051
3500000000.0 0.08016595769810442 -0.00849128740628328
3520000000.0 0.07420648029901046 0.008897711202092665
3540000000.0 0.017900651806209106 0.06554623703812602
3560000000.0 -0.06013142185484747 0.04155605862692767
3580000000.0 -0.026856761627646736 -0.07462690136163215
3600000000.0 -0.011374153218500252 -0.09008571439362903
3620000000.0 -0.09503658268530972 0.03291119382446702
3640000000.0 0.00178429323869592 0.1110308522147559
3660000000.0 0.08611476969174492 0.07025089155978809
3680000000.0 0.023754235619494923 -0.10373150715517075
3700000000.0 0.09006548516971523 -0.04417738925143568
3720000000.0 -0.07633959193814284 -0.045917635817114506
3740000000.0 -0.03132189971725079 -0.08049299674647643
3760000000.0 -0.0749299114374226 -4.5260700646287215e-05
3780000000.0 -0.022930824916112185 -0.0627662372678839
3800000000.0 -0.02406569809301458 -0.04273237687711073
3820000000.0 0.02182648861006276 -0.0317866615794247
3840000000.0 -0.0166043625574768 0.05006833865229538
3860000000.0 0.05989713219718682 0.04260213372169731
3880000000.0 -0.08096154036234453 -0.03981499418028621
3900000000.0 -0.0982245341125082 -0.032483735630695766
3920000000.0 0.1031925956297903 0.016095656891604967
3940000000.0 -0.04802084532753809 -0.0924425850190151
3960000000.0 -0.08483772628231459 0.05635673160941421
3980000000.0 0.096291711741175 0.012567228566094777
4000000000.0 -0.08081371837933463 -0.02473439144769362
