!Created with skrf (http://scikit-rf.org).
# Hz S RI R 50.0 
!freq ReS11 ImS11
400000000.0 -0.21100058701726593 -0.8911770685906417
420000000.0 -0.19569748243298127 -0.8476142539931442
440000000.0 -0.295478896866692 -0.769944773255419
460000000.0 0.48618950926947774 0.5812492392287747
480000000.0 0.6656841937594469 -0.2667546806285564
500000000.0 -0.4128959612091625 -0.6108301594771538
520000000.0 -0.42556212760276735 -0.5703127677834002
540000000.0 0.6488838043415783 0.2350784902436618
560000000.0 -0.45174974470181917 -0.4733174805510741
580000000.0 -0.12739666814136824 -0.529424158851724
600000000.0 0.5402550889240512 -0.2266923277387571
620000000.0 -0.5577425654833279 0.07255712444989061
640000000.0 -0.506558269293348 -0.12424594215307191
660000000.0 -0.02599723626191708 -0.5293184387203027
680000000.0 -0.11244723998844254 -0.5175218162645905
700000000.0 -0.529346235734517 0.11157223590151831
720000000.0 -0.4367259745302666 0.32708872559298147
740000000.0 0.47956011140936355 -0.15776253437654855
760000000.0 -0.2714353736913461 0.3911926871060981
780000000.0 -0.3126351915838116 0.33604344578199313
800000000.0 -0.32618795344499507 -0.2617472919742732
820000000.0 0.10951071658475976 -0.3517014852862945
840000000.0 0.3152515153007378 -0.02912991935800738
860000000.0 -0.05177065269925277 -0.28912294019883605
880000000.0 -0.15465591640290666 0.22986298904090138
900000000.0 0.2258929178841974 0.11885301141745062
920000000.0 0.22559118854041094 -0.017927380471708602
940000000.0 0.2033355016080054 -0.05382259784073046
960000000.0 0.00283359902530269 -0.1805273785042225
980000000.0 0.020226754390093166 0.13795179695931795
1000000000.0 0.10728344140506253 -0.026845157431768636
1020000000.0 -0.09617159723189898 -0.013761955635382387
1040000000.0 -0.09979149062021372 0.05495741150753475
1060000000.0 -0.14691161870166966 0.021479315590150237
1080000000.0 0.0907087205288221 -0.15626444262715472
1100000000.0 0.1900573884995684 -0.1578343538973708
1120000000.0 0.13799112920118675 0.24331953834492207
1140000000.0 -0.11102393545376078 -0.2825707071597825
1160000000.0 0.2646145856805443 -0.18951487009949458
1180000000.0 0.3301943651002327 -0.06784946643623462
1200000000.0 -0.14936100234052732 0.32556639141297267
1220000000.0 -0.3452695092362386 -0.10572510507150491
1240000000.0 -0.3330318050374366 0.16026823233652024
1260000000.0 -0.3135381360130584 -0.19178668440723204
1280000000.0 -0.2042354628776313 -0.30845416581572227
1300000000.0 -0.1473613232606906 -0.34754175843508583
1320000000.0 0.19239314339216254 -0.31992628083624575
1340000000.0 -0.04913223953861759 0.3617300422919788
1360000000.0 0.3742603049320783 0.0360138484155585
1380000000.0 0.03194462763090689 0.38437473651553994
1400000000.0 0.36164842415939263 -0.0955326301835367
1420000000.0 0.3780083429472841 -0.07226301837271216
1440000000.0 0.17401070744613142 -0.3349568090690595
1460000000.0 0.3460149004752024 -0.15632715467271344
1480000000.0 -0.17149319573202515 -0.3519524433010643
1500000000.0 -0.17169158728930406 0.3411700271695049
1520000000.0 0.36086158227302134 0.11559815732339884
1540000000.0 0.046087798489532886 0.3624675072926236
1560000000.0 -0.2280435558130842 0.24973071649454806
1580000000.0 -0.016863722077760348 -0.29352587385497425
1600000000.0 -0.10461967294939215 -0.23982272779734304
1620000000.0 0.057290670891457236 -0.2168277781839129
1640000000.0 0.16954401914971398 0.08340870070878338
1660000000.0 -0.06398320164973445 0.14981842162257264
1680000000.0 -0.08317541485838292 -0.10169309868639974
1700000000.0 0.041022467725450026 -0.08915598556588539
1720000000.0 0.061158371885225216 -0.04806925389718669
1740000000.0 -0.023126474763373057 0.05502785037121649
1760000000.0 -0.07752365561919713 -0.00833412709759871
1780000000.0 0.028293682269638284 -0.09657094023965708
1800000000.0 -0.09894315696181463 0.07397125085277154
1820000000.0 0.1419717530473441 0.04308235882975423
1840000000.0 0.06683671467228416 -0.18126697620429397
1860000000.0 -0.16602407377788525 0.15009110531334216
1880000000.0 -0.08525518688572555 0.22674889497820946
1900000000.0 -0.23247196650422397 0.1273308726045314
1920000000.0 0.2647452287414319 -0.11912687458150531
1940000000.0 -0.29252745102291006 0.027503507010140923
1960000000.0 0.025465340839130372 0.29907573594560566
1980000000.0 -0.2722384546823442 -0.16535984357207184
2000000000.0 0.1332440455769453 -0.2918960166453946
2020000000.0 0.19659010869085525 -0.2580585553040784
2040000000.0 0.3168672623482883 0.06911091530338462
2060000000.0 0.3046979303770503 0.10511715125496471
2080000000.0 0.2967823569038904 0.1154019695461139
2100000000.0 0.203301833329096 -0.24094347827069407
2120000000.0 0.07896124909751344 0.31022236825493466
2140000000.0 -0.021701168109234288 -0.3086670401917832
2160000000.0 -0.2947642942552751 0.08083500816864503
2180000000.0 -0.02793502254727288 0.3048035433013816
2200000000.0 0.2862299784455437 -0.07501090265189606
2220000000.0 0.1473645568902256 0.2425251976086126
2240000000.0 -0.21148866736810643 -0.17909596364435396
2260000000.0 0.2680988601693764 0.05098094984144176
2280000000.0 -0.13124219989503202 0.2392236335672149
2300000000.0 -0.27124890914122346 0.04411430354961631
2320000000.0 -0.2420587473722949 0.11385265266697804
2340000000.0 -0.21935676012912628 -0.13408761316095333
2360000000.0 0.25774371446195377 -0.009879712765533127
2380000000.0 0.21956220423895292 0.13451310984355364
2400000000.0 0.1835291778687503 0.1935317303931751
2420000000.0 -0.1452247805023064 0.2438784330188805
2440000000.0 0.30333090329169204 0.05776737104091221
2460000000.0 -0.10054497175475596 -0.3152613929357171
2480000000.0 -0.3433533574883056 -0.11600786776980211
2500000000.0 0.39679398045784414 -0.06754674912917147
2520000000.0 -0.3512858685447029 0.26022951959100366
2540000000.0 0.17277735708363812 -0.4460055839067229
2560000000.0 0.017708298212898963 0.5112073362252506
2580000000.0 -0.34208733377721867 -0.42618644522089283
2600000000.0 0.5164769176226522 0.24712490429323222
2620000000.0 -0.5504624618927254 -0.2275615334611148
2640000000.0 0.6152314815295965 -0.06586606329775725
2660000000.0 -0.4558075558360636 0.443321316228618
2680000000.0 -0.2387827027927573 -0.6021375055087469
2700000000.0 0.5188545184048429 -0.40793398587130125
2720000000.0 0.6673860688922859 -0.011518619821607071
2740000000.0 0.6666367955546841 0.09054890236776167
2760000000.0 0.666041296285529 0.11655225488013647
2780000000.0 -0.25263367123285 0.6253319529468703
2800000000.0 -0.31997281094849833 0.5846509208450212
2820000000.0 -0.5548042062039537 0.3480825687340207
2840000000.0 -0.42136636675791805 -0.4820037571147729
2860000000.0 0.6161072787890419 0.09529005158385123
2880000000.0 -0.5753659779605691 -0.18649583559461402
2900000000.0 0.22967610275207437 0.5349046580769201
2920000000.0 0.5453586641157128 0.12221562458019322
2940000000.0 0.2427061181240636 -0.48251885828835045
2960000000.0 -0.1685846316078889 -0.48147850842379103
2980000000.0 -0.22401075680246876 -0.4335840704686752
3000000000.0 -0.4502439590076271 -0.13904819698305212
3020000000.0 -0.0019355374504145364 0.44844855362990343
3040000000.0 0.2779856225878353 0.31985460288924333
3060000000.0 -0.023749625259382703 -0.4085459775395245
3080000000.0 0.08025634490214067 0.3876735115076293
3100000000.0 0.22332493677957316 -0.2979943189214943
3120000000.0 -0.1803444131611212 -0.32065543348240555
3140000000.0 0.2753448870525904 0.2357277132932168
3160000000.0 -0.23344804867480068 -0.274651735258021
3180000000.0 0.09129268138931067 0.34478138055076185
3200000000.0 -0.15915924207180865 -0.3219776334755809
3220000000.0 -0.3201595258763395 0.12853709350783868
3240000000.0 -0.04992760598989014 0.33248756347609815
3260000000.0 0.12261804962599472 0.3048344418959859
3280000000.0 0.2960892761437579 -0.08082696309180902
3300000000.0 0.06261088032386604 0.28363956301788784
3320000000.0 0.14690296413267306 0.2234226365231
3340000000.0 -0.18234420987398134 0.15904234770814465
3360000000.0 0.16662924164861165 -0.12096203220877688
3380000000.0 -0.09618878309815344 -0.16547246373209126
3400000000.0 0.07200171863534306 -0.15506334748385991
3420000000.0 0.10436690674809088 -0.11280003743530627
3440000000.0 -0.09982448713928323 0.08564890420009742
3460000000.0 -0.07078065811678863 0.09199036891522132
3480000000.0 0.10079654729712607 -0.032454733868239743
3500000000.0 0.039418065116242545 -0.08780154658297194
3520000000.0 -0.03553598150351091 -0.09208701433701116
3540000000.0 -0.0018608104056864019 0.0975642955704897
3560000000.0 0.06913546743912988 -0.07613856391032241
3580000000.0 -0.012095594202236206 0.10963763048408356
3600000000.0 0.02544372353568211 0.11547019773560223
3620000000.0 -0.04310532234830066 0.12207869291283162
3640000000.0 0.12921581991566228 0.05748737615253626
3660000000.0 -0.11910653040075288 0.08999324332727257
3680000000.0 0.1334843579075684 0.07231748298471437
3700000000.0 -0.1111631776478481 -0.08767817423676039
3720000000.0 -0.05759587262471076 -0.11695806416793587
3740000000.0 -0.06582430374581409 0.0805154178626922
3760000000.0 0.05573803746362851 -0.06323077378992824
3780000000.0 -0.06427604147251667 0.01742898587975846
3800000000.0 -0.023703380211308484 0.026413888994273844
3820000000.0 -0.004043316792357652 0.002388090858370424
3840000000.0 0.0337533934633949 0.0029390559696463106
3860000000.0 -0.05619200363176304 0.030025906551435808
3880000000.0 -0.08695741724379982 -0.03359041911422547
3900000000.0 0.04640916225894649 -0.09745662442831578
3920000000.0 -0.10943514720456747 0.051056024489188494
3940000000.0 0.0319252931388333 -0.1308626691810248
3960000000.0 0.08199981362729235 0.10102944992991997
3980000000.0 0.09235865392046173 0.08547871470082673
4000000000.0 -0.07742210654898228 0.06678870100897653
