!Created with skrf (http://scikit-rf.org).
# Hz S RI R 50.0 
!freq ReS11 ImS11
400000000.0 -0.1968430897322403 -0.8944447470181236
420000000.0 -0.14728705147320093 -0.8567331537373205
440000000.0 -0.3139278103163362 -0.7642529384620135
460000000.0 0.2376306058005999 0.7221476286184879
480000000.0 0.5368640650890211 -0.47296367644253434
500000000.0 -0.49816830751603913 -0.5428659387386389
520000000.0 -0.5404272326945121 -0.4566666250660079
540000000.0 0.44921319520415953 0.5188527549616152
560000000.0 0.0262702521665047 -0.6587365564447678
580000000.0 -0.2533207231300234 -0.4895304468641993
600000000.0 -0.14929520251911227 -0.5640959976351415
620000000.0 -0.49621306339368515 -0.24209975151852836
640000000.0 -0.3967216884216587 -0.3369069472329885
660000000.0 0.33830339594069186 -0.41412666742015575
680000000.0 -0.42609912603903016 -0.32072791046832627
700000000.0 -0.5343176778760205 0.10495931388934651
720000000.0 -0.16946187501610507 0.5140887554010178
740000000.0 0.4977913037781098 0.08738176858533646
760000000.0 -0.3711105186429096 0.2927701118737438
780000000.0 -0.4509794766881008 0.09589534571963262
800000000.0 -0.40099124889172316 -0.1265224280602415
820000000.0 -0.09729998362934184 -0.3548787893656008
840000000.0 0.2990216137725753 0.12058710953130587
860000000.0 -0.26112372271476275 -0.124244391007585
880000000.0 -0.23850268667628546 -0.1237979197041039
900000000.0 -0.24563390985268113 0.07969785227670247
920000000.0 0.19179057591338985 -0.1378126024310072
940000000.0 0.10185031400782794 -0.18392648787444915
960000000.0 -0.17523479931112348 0.019616785294470685
980000000.0 0.12714711400239298 -0.0273891230408075
1000000000.0 0.08291297881291539 0.061162878659389096
1020000000.0 -0.08432254429617726 -0.05774205218832815
1040000000.0 -0.09876619317827016 -0.06424839033184016
1060000000.0 -0.14955856107630344 0.0029961246048066316
1080000000.0 0.17018464675144254 -0.06797827724730295
1100000000.0 0.21540414133401098 -0.11562739434209193
1120000000.0 0.07724932892851494 0.2654794355813089
1140000000.0 -0.00799933169808779 -0.3042214040095138
1160000000.0 0.303432469090666 -0.12082188301882964
1180000000.0 0.26333130782158215 -0.2111485624730114
1200000000.0 -0.04033231639547122 0.3579208951701073
1220000000.0 -0.35745195292559384 -0.02666852272304404
1240000000.0 -0.3402853611774527 0.13927993857587245
1260000000.0 -0.2384049435427128 -0.28015311517834424
1280000000.0 -0.008197237602529554 -0.37066844000282934
1300000000.0 -0.21730547167870734 -0.3135511791054575
1320000000.0 -0.035645993238018925 -0.37130618043843494
1340000000.0 -0.1041172389456474 0.34764273483522207
1360000000.0 0.3712556506167888 -0.047041699980042824
1380000000.0 -0.0647116660618213 0.37902753002567885
1400000000.0 0.34143175589403396 -0.15510034991863125
1420000000.0 0.33837275047611387 -0.17956030014908836
1440000000.0 0.18312703300546 -0.33186385407685004
1460000000.0 0.19120287379604445 -0.32920793139586224
1480000000.0 -0.13315413415665317 -0.36261795480504355
1500000000.0 -0.3500790466809012 0.1643008718227131
1520000000.0 0.3499144670573279 -0.1533918413162335
1540000000.0 0.04168028035051735 0.35842183388007104
1560000000.0 -0.33752986250887307 0.02618575973327435
1580000000.0 -0.14623721568669618 -0.2557142257063507
1600000000.0 -0.048474737022121246 -0.2563033761014301
1620000000.0 0.010455248776134619 -0.22587434292520714
1640000000.0 0.19009529879566356 -0.013139742976768422
1660000000.0 0.15775775345012602 0.028797330058258457
1680000000.0 0.12522337966886196 0.03419866384348352
1700000000.0 0.10503894700284226 -0.0046055662315250415
1720000000.0 -0.029325164420412393 0.07099532323469929
1740000000.0 0.009171060321917078 -0.05847791002463032
1760000000.0 -0.07839596125542503 -0.005271650836992016
1780000000.0 0.053365726680873374 -0.08538572455841408
1800000000.0 -0.06099186300283473 0.10845289018535603
1820000000.0 0.14182541751014396 0.04559080012423814
1840000000.0 -0.021328649291196128 -0.19216099537876144
1860000000.0 -0.18745236217364974 0.11921191996860199
1880000000.0 -0.20942054974008179 0.12304097532280187
1900000000.0 -0.21221328805978085 0.15869014426249434
1920000000.0 0.26054277777127416 -0.12283682773412526
1940000000.0 -0.2898436434901969 -0.05651121271869949
1960000000.0 0.07131245885881927 0.2923616526506119
1980000000.0 -0.2446080977459615 -0.19954975090326893
2000000000.0 0.24334639498236516 -0.20898065128426638
2020000000.0 0.06513333194631434 -0.32004628347168507
2040000000.0 0.3126863828280629 -0.06864311956169328
2060000000.0 0.2543964089611762 0.19551825859022207
2080000000.0 0.23648522037377748 0.2198432125961973
2100000000.0 0.04785048976873271 -0.3126244494276792
2120000000.0 0.04334114529758498 0.31522244040682734
2140000000.0 0.009258063804712873 -0.3090962701431042
2160000000.0 -0.3031387003534331 0.036159691108147186
2180000000.0 -0.13740706944892786 0.27349809006880405
2200000000.0 0.2913596022472647 -0.0594258111096694
2220000000.0 0.26820841691980624 0.0926858402477317
2240000000.0 -0.24842470868780128 -0.11131274079391354
2260000000.0 0.2043719619433257 0.17946978536535352
2280000000.0 -0.12932884250410984 0.24225780241237876
2300000000.0 -0.21349008555840632 0.17246759558889382
2320000000.0 -0.23487235484531233 0.12920604256296608
2340000000.0 -0.25676849882501723 0.010912593667752258
2360000000.0 0.24669783328067935 -0.054490969990090454
2380000000.0 0.04293421783993508 0.25306768266781227
2400000000.0 0.11908374461039122 0.24156120930117714
2420000000.0 -0.03085050575188205 0.2793415513747186
2440000000.0 0.3038301966246851 0.0064921253925230675
2460000000.0 -0.0627452909607469 -0.3236794059205813
2480000000.0 -0.3472519975460216 -0.08985966756607532
2500000000.0 0.38597570181978086 0.10072657562076631
2520000000.0 -0.3919325828370762 0.19001715111069553
2540000000.0 0.3064835122301947 -0.365325918888323
2560000000.0 -0.09615313003316123 0.5004073183791239
2580000000.0 -0.2795581460905943 -0.4671434605182672
2600000000.0 0.4064892774324171 0.4005650480849978
2620000000.0 -0.4371645284828328 -0.4033216095331381
2640000000.0 0.5903592156670069 0.17825944989493495
2660000000.0 -0.5855290054675932 0.2432556162118193
2680000000.0 -0.026362759174600587 -0.6465422672158807
2700000000.0 0.6257485921028993 -0.2091924732627081
2720000000.0 0.6101504134037444 0.267762243293574
2740000000.0 0.5404790804726708 0.4018312559303595
2760000000.0 0.3920331871947368 0.5523946667040804
2780000000.0 -0.5035657346525173 0.45026680406193753
2800000000.0 -0.5366704082413385 0.39679345314833053
2820000000.0 -0.6565328274161348 0.02338850425066205
2840000000.0 -0.18829837199804236 -0.6150249236370948
2860000000.0 0.6040613406539563 0.16630314166374582
2880000000.0 -0.47842480851739244 -0.3736703476114805
2900000000.0 0.09429868739129428 0.5770506532921654
2920000000.0 0.5188271101085988 0.2191745282618966
2940000000.0 0.3172498363370952 -0.4411262425256261
2960000000.0 -0.07544983157735002 -0.5089901625034796
2980000000.0 -0.2764330131822678 -0.40954568538236913
3000000000.0 -0.4663225199338302 -0.08087021521186255
3020000000.0 -0.1471883019202644 0.42645634126546456
3040000000.0 0.339801228886331 0.2623726526250036
3060000000.0 -0.07439024723985883 -0.402000712192328
3080000000.0 -0.11609532493966455 0.3792705271437238
3100000000.0 0.28495979546718003 -0.24539492160445295
3120000000.0 -0.16290448534499247 -0.3335764400810614
3140000000.0 0.2990091085980397 0.20696494868102672
3160000000.0 -0.30782135427701995 -0.18962280128426978
3180000000.0 0.11032539717438722 0.33996056353552917
3200000000.0 -0.10971281314279442 -0.3416542981374511
3220000000.0 -0.34209439701294514 0.06111231699309737
3240000000.0 0.022717731820742642 0.33853478589044933
3260000000.0 0.2446264300790712 0.2212111381999197
3280000000.0 0.30079822850228577 -0.07400331186938335
3300000000.0 0.0882618174074877 0.2806352086754817
3320000000.0 0.15965194654507353 0.2152828357372393
3340000000.0 -0.17221114151557582 0.17233585370081417
3360000000.0 0.02295636344013826 -0.20869734088483036
3380000000.0 -0.13421078794601662 -0.1368549378477558
3400000000.0 0.08437103415953111 -0.15115730876519534
3420000000.0 0.0887838709161489 -0.12826047632845927
3440000000.0 -0.024885561025586162 0.13163660372928115
3460000000.0 -0.009090051941022022 0.11490393079864104
3480000000.0 0.09680583687047888 -0.041635694082007096
3500000000.0 0.0025484279585976 -0.09561400093805693
3520000000.0 -0.08106099751875005 -0.059634780778163206
3540000000.0 0.09890247893099799 -0.01344364511840644
3560000000.0 -0.09986268946349569 -0.020455684953224043
3580000000.0 -0.05689277741443754 0.09358195662249362
3600000000.0 0.012607808746136132 0.11931345837840227
3620000000.0 -0.03055146026351611 0.1264346377038328
3640000000.0 0.13885324146188488 0.029288912847636392
3660000000.0 0.013747173482367408 0.14885634626127847
3680000000.0 0.14989029655382574 -0.008376491607410014
3700000000.0 -0.10737168538771041 -0.09390305095077034
3720000000.0 -0.11870450829462452 -0.05271233318719467
3740000000.0 0.045044098919706156 0.09133475969922657
3760000000.0 0.0781862689400458 -0.029481413777480956
3780000000.0 -0.0022724062888484125 0.06969287396543837
3800000000.0 -0.0339909600384903 -0.010511930490107452
3820000000.0 0.00018961599110430005 -0.0045503393729768
3840000000.0 -0.01721587281499198 -0.028534208457334544
3860000000.0 0.05724170697844722 0.03184903441592159
3880000000.0 0.02130818741466459 -0.09199423311672432
3900000000.0 0.04618091667794644 -0.09833376633585235
3920000000.0 -0.02201162811742557 -0.11353753527348784
3940000000.0 0.13286587312076428 -0.016601931667342727
3960000000.0 -0.016323007703607756 0.1273494770079287
3980000000.0 -0.11711317536809183 0.03362971532040144
4000000000.0 -0.002765325826627864 -0.10482102468900818
