!Created with skrf (http://scikit-rf.org).
# Hz S RI R 50.0 
!freq ReS11 ImS11
400000000.0 -0.23601340851522443 -0.8850014655164762
420000000.0 -0.15640147086496714 -0.8551403283868252
440000000.0 -0.30586740674284757 -0.7681380797305711
460000000.0 0.30927419595833494 0.6911516287165961
480000000.0 0.4615384045656038 -0.5491928459407523
500000000.0 -0.2754258776973168 -0.6819519097110569
520000000.0 -0.4607303719497293 -0.5424736968394052
540000000.0 0.5790545550479249 0.37747759350837956
560000000.0 -0.41708420213632735 -0.5045828357328732
580000000.0 -0.007081890305345203 -0.548224288475687
600000000.0 0.44717157570679394 -0.3740114574321404
620000000.0 -0.5539747673577402 0.0996671676998107
640000000.0 -0.4172802691997462 -0.30452255402490963
660000000.0 0.15227284484043008 -0.5068554613878817
680000000.0 -0.25038858425494775 -0.47431363880324057
700000000.0 -0.5256797739229053 -0.1110222098106094
720000000.0 -0.3788165501092455 0.3948724714194767
740000000.0 0.4246774554503879 -0.2856013701974795
760000000.0 0.28079405141918107 0.3740558343850769
780000000.0 -0.40952434992520126 0.1824450534794157
800000000.0 0.2417405490053412 -0.35120187524901997
820000000.0 -0.06883944204428544 -0.37306756900302035
840000000.0 0.1950203082552879 -0.25566612960806834
860000000.0 -0.27871888482984825 0.06340060807415525
880000000.0 -0.23497860160124395 0.12154806433424287
900000000.0 -0.26005626773667856 0.03373038557991447
920000000.0 0.12032140434565888 -0.20710164483969004
940000000.0 -0.0958017839603227 -0.182569513955522
960000000.0 -0.0989989270804323 0.14421925403731642
980000000.0 -0.11688061227162584 0.05763380751791876
1000000000.0 -0.08879330805869474 -0.05269984171573107
1020000000.0 -0.09713904068877385 0.041666435675577915
1040000000.0 -0.08305322006886577 0.08590421850474256
1060000000.0 -0.11453759187089543 0.09663136592102177
1080000000.0 0.1620113675985382 -0.08185118992974981
1100000000.0 0.2408781848189062 -0.03694180076360946
1120000000.0 0.20079516577725873 0.1873546982134878
1140000000.0 0.06958113862201508 -0.29634059513737887
1160000000.0 0.3136191765017858 -0.08826174629385711
1180000000.0 0.3370704423270816 -0.033087409874605
1200000000.0 -0.07552202155488895 0.3520525114721991
1220000000.0 -0.3587386667785557 0.036061044251577495
1240000000.0 -0.3369265903960393 0.14169190359626946
1260000000.0 -0.13428389214561678 -0.3433498786712917
1280000000.0 -0.11748856785259684 -0.3548918697265884
1300000000.0 -0.3571274356365747 -0.12671944885811154
1320000000.0 0.13605642023167794 -0.3451021110826056
1340000000.0 -0.2277325049244956 0.28180045892909433
1360000000.0 0.3737798278122874 0.04844455377809667
1380000000.0 0.006509119716380939 0.386671037981649
1400000000.0 0.2597441998431074 -0.2718900429136145
1420000000.0 0.3504896105383547 -0.15113159409181723
1440000000.0 0.32500648659804593 -0.19188747988439672
1460000000.0 0.30629860598534886 -0.22804593061665818
1480000000.0 -0.19976683817926363 -0.33324066098973426
1500000000.0 -0.275787050475511 0.26302995133604423
1520000000.0 0.3784993520844194 0.05037594151101397
1540000000.0 0.06276017195885632 0.3570660643598507
1560000000.0 -0.32421787369085664 0.10086137721149833
1580000000.0 -0.21883652373510712 -0.19999197084321968
1600000000.0 -0.17568976472130604 -0.19066405710990963
1620000000.0 0.1341484922929556 -0.18110550998768438
1640000000.0 0.17042539429659176 0.08997679276573317
1660000000.0 0.16018382696145333 0.026178956748849833
1680000000.0 0.09945753263374907 -0.08018035778425003
1700000000.0 0.09797759846971776 0.004317769041459475
1720000000.0 0.0018012543230127966 -0.0798431883831638
1740000000.0 -0.05437091945911082 0.026289272281307546
1760000000.0 -0.07280810732773169 0.02498033367450563
1780000000.0 0.09498863768649615 -0.0332668411316269
1800000000.0 -0.11697842772151226 0.042346075240588345
1820000000.0 0.14995127336153008 0.011977040331931085
1840000000.0 -0.08309885429717494 -0.17311672565052869
1860000000.0 -0.1800082632523358 0.13045400012491648
1880000000.0 -0.13549425434713658 0.19969096866272545
1900000000.0 -0.22348362987147963 0.1480042914804213
1920000000.0 0.212687769029861 -0.19869375556314306
1940000000.0 -0.2872347247610202 0.06152012735706748
1960000000.0 -0.05391347694192719 0.2946564740149373
1980000000.0 -0.2039065663797655 -0.24393454652357954
2000000000.0 0.20023174894321225 -0.2510690276006569
2020000000.0 0.1638130450906213 -0.28138844622946857
2040000000.0 0.3220224532784556 -0.005719674415310963
2060000000.0 0.3109220464387672 0.07299046544175003
2080000000.0 0.19065109670286642 0.2554979905759242
2100000000.0 0.13265531409634584 -0.2885723642987556
2120000000.0 0.13958747739683447 0.28694727441539847
2140000000.0 -0.09413236891087139 -0.29366857975632393
2160000000.0 -0.30516130972250183 -0.021917459398071323
2180000000.0 -0.03347618413629082 0.30636625276488155
2200000000.0 0.2649754715013308 -0.13046343805786642
2220000000.0 0.163915936554865 0.23288995624528108
2240000000.0 -0.21949426134241123 -0.16952471291642632
2260000000.0 0.27069256742860315 0.029672163994594717
2280000000.0 -0.22829038551374967 0.14694840837843784
2300000000.0 -0.27639242743371467 0.02548018625693516
2320000000.0 -0.21609061401494 0.15697396263592583
2340000000.0 -0.1823476214781483 -0.18000494192673788
2360000000.0 0.2495066527966055 -0.05323333687673388
2380000000.0 0.21775703068257904 0.13268969527801616
2400000000.0 0.029147136293168806 0.2660090086878739
2420000000.0 -0.07443738323864271 0.2749253752208804
2440000000.0 0.2886495369760599 -0.09983608872445969
2460000000.0 -0.05097111562469777 -0.3263043254629279
2480000000.0 -0.353163783764798 -0.08354602500179487
2500000000.0 0.40224501454455497 -0.01470213703836255
2520000000.0 -0.3760664170562101 0.22030575752338108
2540000000.0 0.26760107200528804 -0.39521185067228465
2560000000.0 -0.05982489473673778 0.5085268253861512
2580000000.0 -0.30698546041309077 -0.45105573479316136
2600000000.0 0.489764159969219 0.2945483058146608
2620000000.0 -0.5274516909056898 -0.2768192204714444
2640000000.0 0.6144275876361249 0.06552487696498716
2660000000.0 -0.4825511997811137 0.41225332213601573
2680000000.0 -0.18824393489816685 -0.6196310363715009
2700000000.0 0.5379006943863301 -0.38299846944075455
2720000000.0 0.6645843022867451 0.05053872443292807
2740000000.0 0.6250942052114034 0.24902476169683876
2760000000.0 0.6398641239685202 0.2215642671793886
2780000000.0 -0.31397821470591825 0.597535263665356
2800000000.0 -0.3927231387264432 0.5390852145068631
2820000000.0 -0.6134638742052627 0.2309145823978255
2840000000.0 -0.3332455692814978 -0.5473070553886975
2860000000.0 0.6096266667895779 0.13192159130072997
2880000000.0 -0.5391065279606096 -0.27350793420478553
2900000000.0 0.15186285517321937 0.5625766575113842
2920000000.0 0.5545483148387859 0.07929645005971385
2940000000.0 0.25382620008792517 -0.4767609727658355
2960000000.0 -0.13085267328475278 -0.4940832889450955
2980000000.0 -0.3027519598600144 -0.3852365759203536
3000000000.0 -0.4658422749301045 -0.07431360346872229
3020000000.0 -0.18485437029294882 0.4084541414020797
3040000000.0 0.3042248204719631 0.29954676039688993
3060000000.0 -0.09537063441231151 -0.39829957963377755
3080000000.0 -0.03441994669936414 0.3942629152645876
3100000000.0 0.14553247047168333 -0.34491996665602515
3120000000.0 -0.19428181871285247 -0.31262420992343276
3140000000.0 0.22068852862558716 0.2863610185562425
3160000000.0 -0.284600584587634 -0.22235626022198596
3180000000.0 0.1186409878711539 0.33849016078826766
3200000000.0 -0.1282751542847475 -0.3344165652861417
3220000000.0 -0.33718849925778543 0.07978176673780189
3240000000.0 -0.0013690102942145765 0.33668251157846785
3260000000.0 0.17892469823728036 0.27428089120204413
3280000000.0 0.3003780789078996 -0.05682312792238735
3300000000.0 0.08853887575387606 0.27865340261747074
3320000000.0 0.11674497970781768 0.24105457701782979
3340000000.0 -0.17750447153549817 0.1620014119511671
3360000000.0 0.06359450028021035 -0.1977264049446617
3380000000.0 -0.17983315291033988 -0.05891835801904759
3400000000.0 0.06189875819099735 -0.15913795448590637
3420000000.0 0.05461425684530417 -0.1450615872368173
3440000000.0 -0.026174227645867288 0.12966433396551724
3460000000.0 -0.06098171542922613 0.09841618798655684
3480000000.0 0.04210745472119923 -0.09680824293116706
3500000000.0 0.0240191118748496 -0.09287694372063354
3520000000.0 -0.030443763626591354 -0.09561940189984228
3540000000.0 0.028215564018386995 0.09578122859126868
3560000000.0 -0.041062699826293715 -0.09388162505454785
3580000000.0 -0.09780338575906596 0.05133711585530321
3600000000.0 -0.00037840254841255974 0.11888347196398173
3620000000.0 -0.07426188960456431 0.10416979889740824
3640000000.0 0.045014887367455486 0.1349676925456234
3660000000.0 -0.027450278955042318 0.14831840630679566
3680000000.0 0.14933297097405188 -0.016352840455564708
3700000000.0 -0.013265080389015266 -0.1403959113062784
3720000000.0 -0.030870323738264226 -0.12866558615539164
3740000000.0 0.044014478288852944 0.09427029910659891
3760000000.0 0.08359065460484755 -0.00745449139835091
3780000000.0 -0.05127537753265531 0.04550163481901057
3800000000.0 -0.013063967049983135 0.0327150451332753
3820000000.0 0.0036977676797715865 -0.002393297501712651
3840000000.0 -0.023463365573973594 0.023079103435858075
3860000000.0 -0.033897216678948655 -0.05341848783765131
3880000000.0 -0.0754278536167401 -0.05536922905248536
3900000000.0 -0.015597271100331551 -0.10775073285044655
3920000000.0 -0.10262126299428932 0.06175037545538986
3940000000.0 -0.022702237712386126 -0.13280596014181573
3960000000.0 0.11303089514102382 0.06263051425922109
3980000000.0 0.04991978826191151 0.11470932056491369
4000000000.0 -0.10356407798732065 0.01078961221762227
