!Created with skrf (http://scikit-rf.org).
# Hz S RI R 50.0 
!freq ReS11 ImS11
400000000.0 -0.21950019404232912 -0.8895416199593681
420000000.0 -0.20863003251707865 -0.8437271480583319
440000000.0 -0.32797882045034327 -0.7571057050925285
460000000.0 0.29215769477559805 0.703606693732629
480000000.0 0.5500314757300433 -0.4572946091441588
500000000.0 -0.3423268939402797 -0.6541765923760225
520000000.0 -0.6225182420169091 -0.34042291070546726
540000000.0 0.5575214574167069 0.3990592926600492
560000000.0 -0.01108994765563798 -0.654676763383476
580000000.0 -0.022837342961404536 -0.5520909848242689
600000000.0 0.017899791979842664 -0.5909356132403837
620000000.0 -0.535023618237439 0.14522362201789266
640000000.0 -0.4266606543623539 -0.29292669979562275
660000000.0 0.45959491018197507 -0.26508032239993223
680000000.0 -0.25351218376924756 -0.47132638068318167
700000000.0 -0.5323915079452136 0.12815064811312055
720000000.0 -0.14731257161549302 0.5201007472143624
740000000.0 0.49494609970185427 0.11186213131471807
760000000.0 -0.0590487030366661 0.4666266261719042
780000000.0 -0.45600423656087063 0.030699026622060182
800000000.0 -0.2750059797179745 -0.3220469561196384
820000000.0 0.020639233746876075 -0.37362613871015615
840000000.0 0.25531190127338427 -0.20022496240391147
860000000.0 -0.2818478417226826 -0.02612813868227028
880000000.0 -0.21592643764320038 -0.16050740741547045
900000000.0 -0.14657799958461798 0.21143392461832206
920000000.0 0.23868975783074942 0.0033721642787053756
940000000.0 0.10378738316577442 -0.18346313497143418
960000000.0 -0.17575309457853888 -0.00158837096991175
980000000.0 0.1311321424597214 -0.02516180923865308
1000000000.0 0.05509819032986632 -0.08681991474872257
1020000000.0 0.021110380327729213 -0.09368849270495512
1040000000.0 0.05836206769879942 -0.10463748351607656
1060000000.0 -0.14888563895155021 0.04114316738996303
1080000000.0 -0.05362211226794458 -0.17449114779712963
1100000000.0 0.24435948710064181 -0.01213321939178873
1120000000.0 -0.0003811823751515101 0.27627246102108965
1140000000.0 -0.09279194861771814 -0.2901859665688837
1160000000.0 0.23549873650425074 -0.2253057459024065
1180000000.0 0.32411067465982357 -0.08099919510982756
1200000000.0 -0.14719170660927766 0.32992817446880157
1220000000.0 -0.33793731501570196 0.12780031629867938
1240000000.0 -0.32028819119690605 0.17302659229803785
1260000000.0 -0.17825201881463767 -0.32230751644316846
1280000000.0 -0.07916738147461563 -0.3640302606629839
1300000000.0 -0.2667429613794943 -0.2712477674312511
1320000000.0 0.012696120218543475 -0.37075573743019297
1340000000.0 -0.17953040890899244 0.3152827575566272
1360000000.0 0.3729318115323757 -0.020019259428110003
1380000000.0 -0.14208927505310529 0.3577741180840695
1400000000.0 0.19092007677821263 -0.32374417231463926
1420000000.0 0.33142679209081777 -0.19163583117722446
1440000000.0 0.2512744940130934 -0.2817716854664166
1460000000.0 0.245373859120393 -0.2920993817867642
1480000000.0 -0.23126012443464342 -0.31214656449615286
1500000000.0 -0.30646709172068676 0.22997066506229724
1520000000.0 0.38114396453400656 0.022354571659808576
1540000000.0 0.016665676081634263 0.3624546633305868
1560000000.0 -0.31462965341448934 0.12766396906548888
1580000000.0 -0.1883567130607198 -0.2258463831559376
1600000000.0 -0.04393975681093112 -0.2562564141444718
1620000000.0 0.0925935808892645 -0.20692419106250334
1640000000.0 0.1898431327146118 -0.012571782767607714
1660000000.0 0.14944724754794256 0.06043084048606294
1680000000.0 0.08218749421273712 -0.10264557727055511
1700000000.0 0.10225787492434281 0.0017003571142948952
1720000000.0 -0.03571500535759825 -0.0692290808465785
1740000000.0 -0.0498055726619325 -0.03439028448591378
1760000000.0 -0.04905215887169068 0.060667315716954905
1780000000.0 0.09214730586070867 -0.03959825211455577
1800000000.0 -0.10378150425168549 0.06890563730360334
1820000000.0 0.1494561295410032 -0.010622251391133352
1840000000.0 -0.06562819663857286 -0.18076496085841648
1860000000.0 -0.19554049328472753 0.10301126928593357
1880000000.0 -0.21636613580956396 0.11068668982414548
1900000000.0 -0.20258708356887903 0.17486342547515105
1920000000.0 0.21554645015025037 -0.19114174331905168
1940000000.0 -0.29231988018083915 -0.019093109243810347
1960000000.0 -0.034159656647860234 0.29899665945532844
1980000000.0 -0.2661412862852521 -0.17354587704665647
2000000000.0 0.18437529322347734 -0.2602360241371847
2020000000.0 0.21025224605523604 -0.2480085837556654
2040000000.0 0.324333985327101 -0.01235555065268193
2060000000.0 0.30586605548802265 0.09668389270996956
2080000000.0 0.2052454275810474 0.24521776333424247
2100000000.0 0.1973062003722316 -0.24898919679671194
2120000000.0 0.0369676873374567 0.31678540629612356
2140000000.0 0.04496035814570592 -0.30504906926888453
2160000000.0 -0.30307601696098113 0.04094675189724682
2180000000.0 -0.01836163355613859 0.3043699985041465
2200000000.0 0.2924461323104478 0.04182568343692339
2220000000.0 0.20052805109976893 0.20162961497465626
2240000000.0 -0.2754052661014108 0.009059671287889193
2260000000.0 0.2665042348908998 -0.044232618402778034
2280000000.0 -0.2133337112077203 0.167994586762452
2300000000.0 -0.26950230543442805 0.06208682220401723
2320000000.0 -0.144187243931741 0.22669304465439594
2340000000.0 -0.24526030968416956 -0.07458120280133335
2360000000.0 0.23739298796681993 -0.09247202314305401
2380000000.0 0.1672847908106171 0.1936660721827464
2400000000.0 0.06930924097130903 0.2575866613001791
2420000000.0 -0.13856219807276132 0.24598751122827686
2440000000.0 0.2990288490422389 0.06337157013575534
2460000000.0 0.02143306516242343 -0.32861523595357467
2480000000.0 -0.360921768818772 -0.008742387399575526
2500000000.0 0.39672449768481466 0.03667811862151766
2520000000.0 -0.39940473887569794 0.17036638556358566
2540000000.0 0.3101688225224592 -0.36280690009036554
2560000000.0 -0.07011538474631838 0.5054928367115522
2580000000.0 -0.27826326817771824 -0.4676752028429816
2600000000.0 0.41055138563329197 0.3969472657263416
2620000000.0 -0.4409442720573806 -0.3990874191656769
2640000000.0 0.5991375247475091 0.14780018034578699
2660000000.0 -0.5720584055772969 0.27326447536597226
2680000000.0 -0.012626837962528944 -0.6469574367850675
2700000000.0 0.6224182101146803 -0.21858305738160289
2720000000.0 0.5916877989835773 0.3082722670011542
2740000000.0 0.528673291641819 0.4178147134738353
2760000000.0 0.4625087913593481 0.49533056266138614
2780000000.0 -0.5180646008665286 0.4329103093748215
2800000000.0 -0.542518684062108 0.3879851685405249
2820000000.0 -0.6529456965978051 0.06693824313020746
2840000000.0 -0.19601898850466734 -0.6116443491075522
2860000000.0 0.5957244708479763 0.1936956751487551
2880000000.0 -0.5034979009926509 -0.33901515010873795
2900000000.0 0.10444573989311169 0.5756901664761526
2920000000.0 0.5292233276137066 0.19008224169534857
2940000000.0 0.29936782705050324 -0.4524789849455763
2960000000.0 -0.07452555965894998 -0.5095178609108192
2980000000.0 -0.2900577006416495 -0.39888345350253385
3000000000.0 -0.47396191134532323 0.003368085509821878
3020000000.0 -0.19377450093858997 0.4068949647295452
3040000000.0 0.2696167187883423 0.3327937694135535
3060000000.0 0.01476172334538912 -0.41042738090118597
3080000000.0 -0.04013696223013026 0.3962622163771254
3100000000.0 0.15516304356152255 -0.34191636729906055
3120000000.0 -0.15750345697273313 -0.3327651739594216
3140000000.0 0.17598045016060843 0.31555847384510216
3160000000.0 -0.1849910327327163 -0.3114547917355616
3180000000.0 0.1521886530736556 0.32548384452339324
3200000000.0 -0.22223059705522796 -0.28223609647583586
3220000000.0 -0.2910858906797564 0.18812586217813182
3240000000.0 0.08630843250729933 0.3249144102298647
3260000000.0 0.12949320695916347 0.30203563971754344
3280000000.0 0.29530293617021525 -0.09487637609815905
3300000000.0 0.1578726647318919 0.25091767076471405
3320000000.0 0.21347408551266905 0.16178867909135042
3340000000.0 -0.1733657845455951 0.16912099817298729
3360000000.0 0.1242144255209142 -0.17103689356063417
3380000000.0 -0.14721854551898997 -0.12467798952400638
3400000000.0 0.08789829458552838 -0.1484111012761595
3420000000.0 0.09712073876484521 -0.1220415990940949
3440000000.0 -0.05626050490230983 0.12008564197093684
3460000000.0 -0.08651499219927149 0.0784374650390291
3480000000.0 0.05605954163180629 -0.091236567470586
3500000000.0 -0.07879496469914589 -0.052012409123452626
3520000000.0 -0.04881009313411546 -0.0859665595350494
3540000000.0 0.05690902660452674 0.08063463109559472
3560000000.0 -0.06674375821701738 -0.07859090530246082
3580000000.0 -0.04483250223549694 0.10256094078383059
3600000000.0 0.0724379141620026 0.09582998525088904
3620000000.0 -0.017006915175232173 0.1276834106666696
3640000000.0 0.12568143779416807 0.06172341155677229
3660000000.0 -0.10529467784592074 0.10730434561469333
3680000000.0 0.12644625831878373 -0.08198014781018648
3700000000.0 -0.09351111843471557 -0.10533535537078635
3720000000.0 -0.08853194581215908 -0.09507298224852724
3740000000.0 0.018133291537987938 0.10073651386677428
3760000000.0 0.07745643532717346 -0.03175444417150955
3780000000.0 0.06436573670389795 0.026308410215341364
3800000000.0 -0.020402163310625793 0.027623092965162653
3820000000.0 0.0007221742243693632 0.001828975192524527
3840000000.0 -0.005490428566660032 0.0336000545045812
3860000000.0 0.021420152865427783 -0.0593854290630856
3880000000.0 0.023351574166749076 -0.08967486626991383
3900000000.0 0.10525372049394645 0.009537877987571072
3920000000.0 0.10827028311657527 -0.04582746091289646
3940000000.0 0.12938528191347745 -0.03884307683259922
3960000000.0 0.012864881671603752 0.1268306221176331
3980000000.0 -0.07495120917454269 0.09545915175950961
4000000000.0 -0.04168658832020439 -0.09168750309308712
