!Created with skrf (http://scikit-rf.org).
# Hz S RI R 50.0 
!freq ReS11 ImS11
400000000.0 0.6674111657638417 -0.624323530374069
420000000.0 0.8711228872319488 -0.009576622990319722
440000000.0 0.5234701402749319 0.646263121465337
460000000.0 -0.44040565400691506 -0.6593924296192545
480000000.0 0.03669250226731151 -0.779268155544528
500000000.0 -0.592824251278907 0.49765531682332265
520000000.0 0.6109305660943364 0.38093222722108333
540000000.0 -0.01117493274482548 -0.690568055666338
560000000.0 -0.5091022524779234 0.4102155178760923
580000000.0 -0.03231412766879051 0.5595959775920263
600000000.0 -0.48832203436652183 0.30539403809827415
620000000.0 0.12231265271687032 0.5475333681157433
640000000.0 0.2156853191834409 -0.4997038910714899
660000000.0 -0.417913477222788 -0.3236053951338642
680000000.0 -0.43855537788416454 -0.20672635082097035
700000000.0 -0.11840385526344291 -0.45989811265545544
720000000.0 0.3465582699897479 0.31889460287970267
740000000.0 -0.46431557023334313 0.0130485098288404
760000000.0 -0.2139833647128921 -0.39304108044642366
780000000.0 -0.37727098162922623 -0.2269750375573095
800000000.0 -0.3383631040020981 0.19536708789171853
820000000.0 -0.0750152601865642 0.330773820706199
840000000.0 -0.22894624097511335 -0.20817687407396462
860000000.0 0.27428148474865316 0.0672408476889426
880000000.0 -0.24471473043321867 0.08717964134887668
900000000.0 -0.18009122685504123 -0.16003786352345312
920000000.0 0.20432050292345488 0.07539270209627513
940000000.0 -0.10272346763190764 0.1714281187643996
960000000.0 -0.12397441547385453 -0.09756840666619776
980000000.0 0.1077386245257419 -0.01308321889630561
1000000000.0 -0.0011546828797690768 0.0734738589386462
1020000000.0 -0.06491811806127895 0.03206115306292713
1040000000.0 -0.01407794786783451 0.09236816367635897
1060000000.0 -0.02068016820916092 -0.1350496091030026
1080000000.0 -0.17465249878452033 -0.06978890734532266
1100000000.0 0.09333927257268403 0.21003001890052328
1120000000.0 -0.20276045547987886 -0.16605405100785522
1140000000.0 -0.21407203093287341 -0.1808497126364266
1160000000.0 0.17604501730819466 0.24163377904975766
1180000000.0 0.09928559373622503 0.32084951986651233
1200000000.0 0.23602715485287332 0.2599539672175305
1220000000.0 -0.3076569352643898 0.1767654836211796
1240000000.0 -0.24848802305446813 -0.253699111774433
1260000000.0 -0.09933331237035718 -0.34403008591548
1280000000.0 0.35491601415494056 -0.08598861815711073
1300000000.0 -0.1906970642211569 -0.33020030460745037
1320000000.0 0.3633360457400482 -0.05269058211118519
1340000000.0 -0.3822251795044865 -0.0165223501808454
1360000000.0 -0.17309148440025923 -0.3435940531534019
1380000000.0 -0.10667116606851405 0.36578704689915703
1400000000.0 0.2402230245827857 -0.3089479175085226
1420000000.0 -0.35114298264114363 -0.15249491212628896
1440000000.0 -0.019762621731866707 -0.3766201471915959
1460000000.0 -0.30183600534732735 -0.23053262222254486
1480000000.0 -0.3743735618071185 0.006521713526717979
1500000000.0 -0.37355101176692185 -0.048435624365944174
1520000000.0 0.3744990524835616 0.014129227358512696
1540000000.0 -0.06441588652053142 0.3602710147920026
1560000000.0 -0.3017786973766798 0.14380344566223038
1580000000.0 -0.13490284853151094 0.26166559507813625
1600000000.0 -0.24680431378465148 -0.06023561189299325
1620000000.0 -0.20869325573103614 -0.0534157555109833
1640000000.0 0.17829299638146565 -0.036992094839383975
1660000000.0 -0.0036969792466628707 0.15051238271020032
1680000000.0 -0.048345066591370826 0.10663011859608573
1700000000.0 -0.044137314214984597 -0.08567660071120387
1720000000.0 0.04544245780979393 -0.06918889411956146
1740000000.0 0.0031743714816144185 0.06639737260781957
1760000000.0 -0.09013595113163063 -0.015937437617963936
1780000000.0 0.059227822047432 0.08467543468536658
1800000000.0 0.1262358510334631 -0.01733723150540508
1820000000.0 0.15420363752436225 0.025055000850289787
1840000000.0 0.14506234445105032 0.11452155742239832
1860000000.0 0.129377414792722 -0.17101121763612842
1880000000.0 -0.22227802546185832 -0.10707250194997676
1900000000.0 -0.2651026163652345 -0.01687373097848006
1920000000.0 0.22968773395758296 0.17694144700992703
1940000000.0 -0.094356861196511 -0.2887657967034906
1960000000.0 0.3132436157613337 0.013343322990105032
1980000000.0 -0.29090560011854827 0.1258830571271041
2000000000.0 -0.2023437568925001 -0.2523215702735808
2020000000.0 0.013645936658443249 -0.31997384778630983
2040000000.0 0.29990191444703984 -0.11450266266201266
2060000000.0 0.25611681880784076 0.1989948013158812
2080000000.0 0.2984230145036524 0.11803117011732776
2100000000.0 -0.08148385438889895 -0.3026044623120997
2120000000.0 -0.18294060341132368 0.2511389619773897
2140000000.0 0.24388241886950773 -0.19317713199994882
2160000000.0 -0.29841819751108034 -0.08354265288760636
2180000000.0 0.09127933117038245 0.29232977452313663
2200000000.0 0.2186351699799353 0.1977488156905535
2220000000.0 0.03295690194605035 0.28290051646580305
2240000000.0 -0.17800602069946853 -0.2124339217839601
2260000000.0 0.16438683953914707 0.22019169113922263
2280000000.0 -0.12316582740704057 0.24636249999911233
2300000000.0 -0.2748607573098991 -0.016918950703374593
2320000000.0 -0.27067896903615996 -0.029277296550923974
2340000000.0 -0.22034418367564623 -0.13845764626714194
2360000000.0 0.2546108763023582 -0.005372145887559237
2380000000.0 0.15683843523950797 0.2083783044895922
2400000000.0 -0.0570974332466793 0.25810276000530974
2420000000.0 -0.18602638552994205 0.21938453406911923
2440000000.0 0.3065206973464149 0.04102461032673386
2460000000.0 -0.26057769860505403 -0.21970844073974305
2480000000.0 -0.24049049661271985 0.2796872912010488
2500000000.0 0.1826490576843507 -0.3604734918364526
2520000000.0 -0.13142376175535342 0.42488408947632833
2540000000.0 -0.3658684571563553 -0.31078905048360633
2560000000.0 0.4692618362308117 0.21184712866242927
2580000000.0 -0.5440369494362896 0.07754507140158952
2600000000.0 0.4999637747226535 -0.2835516490163762
2620000000.0 -0.4612595050192794 0.3815357156056797
2640000000.0 0.30184642279528157 -0.539297488556185
2660000000.0 0.22254743569048022 0.5957402165056024
2680000000.0 -0.643652971741028 0.04378987650218648
2700000000.0 -0.10299149784530787 -0.6473433138135495
2720000000.0 0.21261037662791885 -0.627854133995398
2740000000.0 0.3569685376928061 -0.5630827918613518
2760000000.0 0.440078379120177 -0.5035388613368473
2780000000.0 0.37063683968060024 0.5526442825978812
2800000000.0 0.23961853150289697 0.6131603725183256
2820000000.0 -0.1649534394935102 0.6254589449965111
2840000000.0 -0.6066308808179008 -0.17775205283537662
2860000000.0 0.5734559136673376 -0.2305257973868449
2880000000.0 -0.5345543472950418 0.2702903521185704
2900000000.0 0.4452889137652762 0.3648427974503091
2920000000.0 0.39403834539679466 -0.39031408298775777
2940000000.0 -0.17997007473018314 -0.4957528743271803
2960000000.0 -0.21752343764853746 -0.44938393842990276
2980000000.0 -0.29716648156886016 -0.37317387078871406
3000000000.0 -0.37986776283953577 -0.2524801507161609
3020000000.0 -0.43509158828168704 0.009523015498307788
3040000000.0 -0.17138724514063663 0.38339157186437206
3060000000.0 0.4006930861224907 -0.01782542400113981
3080000000.0 -0.14169497492033842 -0.3601146902225167
3100000000.0 -0.09518510282305946 0.3663228087706657
3120000000.0 0.3241571910503598 -0.18494581171414748
3140000000.0 -0.11128365217929563 0.348779645683716
3160000000.0 0.15322482233677 -0.32872617173391916
3180000000.0 0.06441714597626234 0.35761504741255873
3200000000.0 0.061723508793822164 -0.3513809994496308
3220000000.0 -0.26287767328568207 0.2251367052617454
3240000000.0 -0.11412509197354927 0.3190005810898204
3260000000.0 0.28688112309125585 0.14994767991704805
3280000000.0 -0.0071476476031841485 0.3049358905715173
3300000000.0 0.07548408233817179 0.2823926254937985
3320000000.0 -0.005115365140465924 0.2645781586819703
3340000000.0 -0.06742476181668798 -0.22497032587203425
3360000000.0 -0.022437060347248027 0.21210876769042597
3380000000.0 -0.13687910915991552 -0.13556792957831104
3400000000.0 0.1681165226019197 0.031995037930196174
3420000000.0 0.014324034808943516 0.1548230722579272
3440000000.0 0.08341729551420735 0.10824593755374118
3460000000.0 -0.10168003732899518 0.04463571912084697
3480000000.0 0.09473824489066672 0.046592006954245535
3500000000.0 -0.09294975993185065 0.0436658204167461
3520000000.0 0.0836178066819445 0.036342066219628634
3540000000.0 0.08386310561993537 -0.05273910138197352
3560000000.0 -0.08674006205331311 0.06093774294525285
3580000000.0 0.07433568382992309 -0.07573824877501457
3600000000.0 0.11131911904475243 0.009659386897961275
3620000000.0 -0.008224630971021942 0.12454728435423439
3640000000.0 0.10834610722881752 0.07593219153048433
3660000000.0 -0.0026789043825138593 0.14300453459261392
3680000000.0 -0.012486345768380397 0.1456823975810923
3700000000.0 -0.07729770215258853 0.10947817807723095
3720000000.0 0.09596908285188192 -0.06817085646340253
3740000000.0 -0.09991625279585178 0.0031321895353037146
3760000000.0 -0.011509255858360781 -0.08021787275560481
3780000000.0 -0.031359464632591684 -0.053950234178616614
3800000000.0 0.033600380851207236 0.006370108050892568
3820000000.0 0.0045225624383834 -0.002781611267453745
3840000000.0 -0.010043395594879911 0.03711212598780042
3860000000.0 -0.06308899005026163 -0.03193382566764912
3880000000.0 -0.08557740495799324 -0.03612096732021664
3900000000.0 0.058487010649340664 -0.09255962712227332
3920000000.0 -0.04111316846828568 -0.1189151700838828
3940000000.0 -0.050724982546013334 -0.12152682314202917
3960000000.0 -0.13318752331710915 0.002273529977935244
3980000000.0 -0.031722885901285414 0.1254166297515308
4000000000.0 0.05784283306096411 0.08971656779083757
