!Created with skrf (http://scikit-rf.org).
# Hz S RI R 50.0 
!freq ReS11 ImS11
400000000.0 -0.4758062790335803 -0.6838625654062271
420000000.0 0.16633964819358926 0.7692761014940519
440000000.0 -0.1933709677599316 0.7379294918326831
460000000.0 -0.6975708463436997 0.10131011156998766
480000000.0 -0.4877618429561528 0.3602198252173472
500000000.0 0.503333260607103 -0.16641975964286895
520000000.0 -0.23595704565365527 -0.317426857890699
540000000.0 0.07238209587155996 0.44421147768564706
560000000.0 0.3556243267628191 -0.31678678329208665
580000000.0 0.3106875853451703 0.3036526622405211
600000000.0 0.01714231394792319 0.3977080024050451
620000000.0 -0.05543321688064853 -0.3577620973304768
640000000.0 -0.28706863578773845 -0.22138954559602997
660000000.0 0.17706631890194308 0.309932535570282
680000000.0 0.32341831231486456 -0.13232689547617296
700000000.0 0.1823285426411612 -0.2957186093580785
720000000.0 0.3325891941881596 -0.07990643571377756
740000000.0 -0.08441609561633845 -0.31553841408126865
760000000.0 0.10483834435157359 -0.2885480130125844
780000000.0 -0.10502004762713288 -0.24470949543842296
800000000.0 -0.10861415509450753 0.2267718811041002
820000000.0 0.21704596876754648 0.03075744249763206
840000000.0 0.1282388461465341 0.13989653934707652
860000000.0 0.12431970210761428 -0.12883625226511733
880000000.0 0.1840325374058173 -0.041174116536951556
900000000.0 0.1452845138833193 0.058604488243564117
920000000.0 0.11401558100958678 0.07786341664966606
940000000.0 0.12241786585861113 0.04590964160440388
960000000.0 0.09836459463212847 -0.045164774238581305
980000000.0 -0.031713314460882956 -0.06126129143985777
1000000000.0 -0.03289743819651549 -0.013147625667786
1020000000.0 -0.02927976795491086 0.005628134141707417
1040000000.0 0.03080312010623532 -0.062201623249797874
1060000000.0 -0.026376541925263206 0.11514545314451229
1080000000.0 0.15191111450828185 -0.015425939925315775
1100000000.0 -0.15952663760880126 -0.11141524565279866
1120000000.0 0.1445136133904913 -0.1714363840639703
1140000000.0 0.1822389717700386 -0.19149496064358265
1160000000.0 0.2235131209084553 0.18535516926950207
1180000000.0 -0.046699469952819365 0.3205212231434974
1200000000.0 0.26063658278071916 0.21303386631130677
1220000000.0 0.13938433923111118 0.30943980329261345
1240000000.0 -0.11829549233171228 0.31997848298780845
1260000000.0 -0.30165559076767545 0.1545958718055091
1280000000.0 -0.2438575042115541 -0.24397266965023467
1300000000.0 0.14355660445001883 -0.3244702244045645
1320000000.0 0.35380850382431583 -0.052809371033949726
1340000000.0 -0.13090845368358497 0.34633338876161995
1360000000.0 -0.2327464003646172 -0.30269269164502366
1380000000.0 0.09677293512217246 -0.36975239844797314
1400000000.0 -0.30714181069412105 0.21675093047608332
1420000000.0 0.19250293191278983 0.3099036656384879
1440000000.0 0.3604747721045461 0.027305188165437613
1460000000.0 0.30540500704064033 -0.18329937647233185
1480000000.0 -0.040262198790985616 -0.3412481923521625
1500000000.0 -0.07999012831368944 0.3261318674019413
1520000000.0 0.07437320351863982 -0.30050588555126934
1540000000.0 -0.2654149485368088 -0.07757527460742086
1560000000.0 0.15982373375468673 0.18538696036058208
1580000000.0 -0.1339821559365252 0.16039521192903455
1600000000.0 -0.07172817814129827 0.15433670373726033
1620000000.0 0.1322036833789096 -0.07096623201324614
1640000000.0 0.09129187841717759 0.09787304852099611
1660000000.0 0.05666317468306656 0.09107135781634929
1680000000.0 -0.021343495724760728 0.0816055781960355
1700000000.0 -0.05537831377557444 0.04815128256878813
1720000000.0 -0.0021675429586514995 -0.05471154349887017
1740000000.0 -0.02845357719305295 -0.0391258254029481
1760000000.0 -0.05538687587866103 -0.008725154405241521
1780000000.0 0.05110625798859177 0.07213954080838295
1800000000.0 0.09853080919214426 -0.07385207831763958
1820000000.0 0.1354445003996246 0.07809221753169487
1840000000.0 -0.010380514106090989 0.18443234778352202
1860000000.0 -0.04273062405920956 0.2180469450099281
1880000000.0 0.24569722483100148 -0.018017471862644158
1900000000.0 -0.026808815636413685 -0.264238855389081
1920000000.0 -0.2625733022795285 -0.11069827509228736
1940000000.0 0.03311981855574241 0.2993117503672592
1960000000.0 -0.3006101022280441 -0.08917204396680527
1980000000.0 -0.13036240695176385 -0.290539347172317
2000000000.0 0.028449769634980644 -0.3158671866194211
2020000000.0 0.2916110374562889 0.1206182019743832
2040000000.0 0.3058141722971087 0.06600887276017992
2060000000.0 0.24986685648951507 0.18244376901608755
2080000000.0 -0.2965812237559263 0.08232496280533926
2100000000.0 0.28782093223904337 -0.12282489482359354
2120000000.0 0.010311061702243059 0.3127445945201545
2140000000.0 -0.2448999668500363 -0.18611964731920885
2160000000.0 -0.0015556877871679084 0.2994911314163474
2180000000.0 0.2782960144720693 0.09255977904494671
2200000000.0 0.2800240974768245 0.06164471329678463
2220000000.0 0.1328163651603606 0.2463665248219875
2240000000.0 -0.08215364556971863 0.26350197549077964
2260000000.0 -0.2655821818315753 -0.023855282560453217
2280000000.0 0.022411554301279567 -0.2522530543911973
2300000000.0 0.21156324733699394 0.1209279013620779
2320000000.0 -0.22893429768831172 0.06159105649529617
2340000000.0 0.22135130020209656 -0.04767595252569609
2360000000.0 -0.22305485308470047 0.05235365005422678
2380000000.0 0.2025840744803023 0.12099097162379822
2400000000.0 0.06317418255260866 0.2441466679092651
2420000000.0 0.13614880303703428 0.24263222456665404
2440000000.0 -0.10077774710633539 -0.2953699482146295
2460000000.0 0.28710063158291094 0.18838688579438115
2480000000.0 0.04376956486611659 -0.37257896710101995
2500000000.0 0.40440390540463256 0.09089920795990909
2520000000.0 -0.23185777230539292 0.3889456225275616
2540000000.0 -0.16661728962038486 -0.46006613260078383
2560000000.0 0.4844178010118624 0.1974338661018715
2580000000.0 -0.5526353047778658 0.06303036843601187
2600000000.0 0.46826742654421755 -0.3511070880587533
2620000000.0 -0.14441809251046336 0.5917399498566807
2640000000.0 -0.3197693836796661 -0.5374438697046475
2660000000.0 0.6374571844936382 0.05609533732046317
2680000000.0 -0.0897957750374628 0.6432464713653702
2700000000.0 -0.6013526186547659 0.27003072467197126
2720000000.0 -0.6603728548742559 0.05170687889202942
2740000000.0 -0.6618659561644996 0.06603544409344511
2760000000.0 -0.6600063343244403 0.09379908468990408
2780000000.0 0.02710432315197634 -0.6605110460292948
2800000000.0 0.2897667284175106 -0.5837226250688394
2820000000.0 0.6349848374452076 -0.09565323312925349
2840000000.0 0.0921114819071166 0.622208304944932
2860000000.0 -0.3052850981811047 -0.5337494837218236
2880000000.0 0.21081814024877987 0.5619939416204262
2900000000.0 0.2915683659910562 -0.5034446001926735
2920000000.0 -0.40246201819027977 -0.3878912162306485
2940000000.0 -0.40816848408752465 0.34893328485507197
2960000000.0 0.07512816777406628 0.5065116628778573
2980000000.0 0.4826616988521121 0.08814245114523975
3000000000.0 0.04014807179644969 -0.46476446083252826
3020000000.0 -0.4202942016635871 0.13599391038823233
3040000000.0 0.36434069837858796 0.2002780248539586
3060000000.0 -0.30211665381385505 -0.24877655642520058
3080000000.0 0.08314384204771721 0.3608364576274978
3100000000.0 -0.14560255032920802 -0.32264981743176196
3120000000.0 -0.3411428659976498 -0.03427874899321699
3140000000.0 0.33444120101352737 0.00460199440522495
3160000000.0 -0.2858259557207731 -0.16494436888854966
3180000000.0 0.18890272115515844 0.2675708122999673
3200000000.0 0.06713518306116703 -0.31347343582928255
3220000000.0 -0.2463096790623344 0.19507648139821723
3240000000.0 -0.03909661611902426 0.29118838395334856
3260000000.0 -0.22448784704450409 0.16133754543091328
3280000000.0 -0.07293415628160937 -0.24678722682288007
3300000000.0 0.22672855966023514 0.09127383156811161
3320000000.0 -0.2120594074073972 0.06781744075695827
3340000000.0 0.07547588065988903 -0.19277334274376096
3360000000.0 0.17045362740675243 -0.060618938388797776
3380000000.0 -0.10114371658539055 -0.11090299266458344
3400000000.0 -0.025162030103321232 -0.12711639498690666
3420000000.0 -0.11045906523621532 -0.03825344181396432
3440000000.0 0.10691779822393938 0.02150088515124179
3460000000.0 -0.10446421162557938 -0.008146660538636103
3480000000.0 0.08537479231493547 0.036897975859979
3500000000.0 0.04529338478124174 0.06589319655549537
3520000000.0 0.042377844947761464 -0.06334773427938548
3540000000.0 0.003614332506531451 -0.0682890111160124
3560000000.0 0.07344611072592744 0.004776533609139184
3580000000.0 -0.04719666435696463 -0.06637105232741382
3600000000.0 0.013317355257919538 -0.0908558340097705
3620000000.0 0.0035198630317298148 0.10407932871438914
3640000000.0 0.08928804241553588 0.06750822737434821
3660000000.0 0.07763402757906174 0.07936285690975445
3680000000.0 0.10671407039546775 0.014419351160697298
3700000000.0 0.09331622191129046 -0.04295069124349833
3720000000.0 -0.08929938194209878 -0.016956950912891643
3740000000.0 -0.024619999764842346 -0.08020031294541038
3760000000.0 -0.05075819424482893 -0.055339175220269925
3780000000.0 -0.005448880869195759 -0.06926741007092177
3800000000.0 -0.0197901908712713 0.043668108540591125
3820000000.0 0.035774202169447857 0.013776202180219152
3840000000.0 0.04700043694009171 0.01925522816009005
3860000000.0 0.03708366178433222 0.06156047942638656
3880000000.0 -0.08831246993832165 -0.01868293790688785
3900000000.0 -0.09789566276439722 -0.028571221023853455
3920000000.0 0.08798097282000605 0.059491632823510984
3940000000.0 -0.09684823943860328 -0.04014580711797034
3960000000.0 -0.05280917697107245 0.08803656768203594
3980000000.0 0.03851480787053261 -0.09142007524083597
4000000000.0 -0.029391845894216666 0.07962316801136651
