!Created with skrf (http://scikit-rf.org).
# Hz S RI R 50.0 
!freq ReS11 ImS11
400000000.0 -0.19896034877370292 0.4887332067638505
420000000.0 -0.12909481872111617 0.4431687863990814
440000000.0 -0.20075781773820028 0.3186750300518341
460000000.0 0.0034387520657287547 -0.3323226837505652
480000000.0 -0.16588273738330636 0.21613364964176612
500000000.0 -0.19888835433129287 -0.14487983229328322
520000000.0 -0.15170822860404934 -0.18855482513405902
540000000.0 -0.16499359080813886 -0.17106814328428158
560000000.0 0.19624338807204292 -0.17841659500853008
580000000.0 -0.29620159697125226 -0.061950041353194554
600000000.0 0.25358657037321275 -0.16399877519971023
620000000.0 0.06130943801218911 -0.27394351779471326
640000000.0 -0.11318868653024694 0.24266037333594787
660000000.0 -0.09791208671375057 0.29208139114517573
680000000.0 0.25063850907358715 0.13628028705695436
700000000.0 -0.18852359348802633 -0.15373621298096113
720000000.0 -0.0015719473483612365 0.22443598966242
740000000.0 0.09717482839299527 -0.15441184316421627
760000000.0 0.10490980689128268 0.17753434994860512
780000000.0 -0.15525986795043614 -0.10998558793512368
800000000.0 -0.12247955293983302 0.12781099240167784
820000000.0 -0.17090611129391423 -0.024551746118723378
840000000.0 0.13951787238645874 -0.08077265060035832
860000000.0 0.16325327074501259 -0.051949478729284876
880000000.0 0.06333507400668688 -0.1375813270537758
900000000.0 -0.015370922449458525 -0.13118201841642335
920000000.0 0.11492439426229303 0.0021797785102142617
940000000.0 0.09988403979622063 0.0818355752071717
960000000.0 -0.07057651971316102 0.10484106664119958
980000000.0 -0.07675299707071635 0.08838507439381658
1000000000.0 -0.02919914425606846 -0.09509819876194632
1020000000.0 0.09628720519202312 -0.0753514452841659
1040000000.0 -0.16054661726279176 -0.06885839955444298
1060000000.0 0.18499591987863628 -0.08334399802813014
1080000000.0 -0.21721524106504306 0.0031924528371635396
1100000000.0 -0.21132813483251378 -0.08538631374660434
1120000000.0 -0.018921076011484426 -0.23972905283033308
1140000000.0 0.01270302365622973 0.24264733597022953
1160000000.0 -0.23906689466105643 -0.029421584306654536
1180000000.0 0.2670202493456523 -0.05695425356267318
1200000000.0 -0.014019187132542054 -0.27603229543677554
1220000000.0 0.09696795409265613 -0.24612433625374985
1240000000.0 0.0893944956668431 -0.23384274045111397
1260000000.0 -0.21745010446539206 -0.0723547349953874
1280000000.0 -0.22763974487733787 -0.0201349520859326
1300000000.0 -0.1474060405841513 0.15813854758999937
1320000000.0 -0.22732066075706198 -0.006380575056712623
1340000000.0 -0.1777765252864495 -0.13430852693557957
1360000000.0 0.20412989204025034 -0.059656998507425056
1380000000.0 0.1955959555730155 -0.0044680633210852526
1400000000.0 0.19540701447170442 0.014636387186669857
1420000000.0 -0.06774350334474846 0.16931684015421578
1440000000.0 0.16133266657540274 0.06673828880797719
1460000000.0 -0.11671761825776476 0.11569413464813709
1480000000.0 -0.07473490559963049 -0.1342206780008994
1500000000.0 -0.14701750963244958 -0.0026476779678507923
1520000000.0 0.1330987920538496 0.07048476562790568
1540000000.0 -0.05711407379386365 0.13666069409391607
1560000000.0 0.13260509115485397 -0.027642857211084136
1580000000.0 0.10285242727106092 -0.06779790254171714
1600000000.0 0.1359498282447842 -0.004442110516005664
1620000000.0 0.08990896225461419 -0.12044761465311705
1640000000.0 0.1494224045653716 -0.018440860904960193
1660000000.0 -0.0032411405818924383 -0.14083941723578527
1680000000.0 -0.09975924626686952 -0.09492118548507247
1700000000.0 -0.056397217033592933 -0.13529264048527787
1720000000.0 -0.1576007648800395 0.025451218637330013
1740000000.0 0.16444692131318986 0.027447307668063
1760000000.0 -0.15757352284708798 -0.07056627430824845
1780000000.0 -0.0053465883558572675 0.17522084406861724
1800000000.0 -0.17710275401781803 0.05867220599865299
1820000000.0 0.012510612122737096 0.20026865881758388
1840000000.0 0.20178817039579072 -0.04605022391120247
1860000000.0 -0.1185747659727129 -0.1726489292807541
1880000000.0 -0.02850695693656284 -0.19737146916252093
1900000000.0 -0.1874691987746446 -0.037067095938905836
1920000000.0 0.08831180282295452 -0.15918788812644175
1940000000.0 -0.016129665123257305 -0.1732104393045216
1960000000.0 -0.16570185107625565 -0.01843858787386011
1980000000.0 0.14595933303064723 0.06303824957878047
2000000000.0 -0.14737331338871967 -0.009732175490667546
2020000000.0 0.08505768060730971 0.10537654185406119
2040000000.0 0.08502607049649664 -0.10146497175437422
2060000000.0 0.1269888685450829 -0.00851008799117508
2080000000.0 -0.1081127218790668 0.054418501940261654
2100000000.0 -0.027528838635573948 0.11441649618889023
2120000000.0 -0.025026235093521487 0.1091960466824498
2140000000.0 -0.10333225242576421 0.027273834389034704
2160000000.0 0.10545840723246444 -0.02967200131561965
2180000000.0 0.01046596100226383 0.10809259094825124
2200000000.0 0.05295199369231374 -0.0941739755120239
2220000000.0 -0.10184467807048085 0.034268623570345165
2240000000.0 -0.08290021704519307 0.07197050114233051
2260000000.0 0.0666044493566464 0.09211165329751092
2280000000.0 0.013900479573129123 -0.11508368750407959
2300000000.0 0.11535864699702186 -0.005866860456939721
2320000000.0 -0.03633555814876806 -0.10759077119402548
2340000000.0 0.04026495303135229 0.11146129895698831
2360000000.0 0.09521992480614194 0.07232929611943391
2380000000.0 0.12166204780723283 -0.006402293670122785
2400000000.0 -0.07283806516515785 -0.10065583649699561
2420000000.0 0.09907466723497448 -0.07649612489225263
2440000000.0 0.12076459426969485 0.03874702874198919
2460000000.0 0.1093772265828293 -0.07480013172602297
2480000000.0 0.13439129647307926 0.008109406084955318
2500000000.0 0.0017331876714035744 0.1362894385749268
2520000000.0 0.0012358893095661746 -0.1424936777246775
2540000000.0 0.022102129280694736 0.15179906547991684
2560000000.0 0.15291754241846328 -0.04343407656183542
2580000000.0 0.1523738342358243 -0.06361680370361918
2600000000.0 0.054539882386522125 -0.16507782151809722
2620000000.0 -0.04263665212028011 -0.1732207157713671
2640000000.0 -0.15664328995963106 -0.09116891964598818
2660000000.0 -0.054693742255291854 0.1701887710313998
2680000000.0 0.10123195704069242 0.13558052893930886
2700000000.0 0.11995661589062079 0.10926870287900643
2720000000.0 -0.061956431206212643 -0.14465118333546945
2740000000.0 0.14858241093239352 0.0035127236082723523
2760000000.0 0.0613962659195508 0.1244268487834063
2780000000.0 -0.03608151444264942 0.12525663901046954
2800000000.0 -0.033415471262603504 -0.12183570656044074
2820000000.0 -0.115075936004715 0.05453052955189952
2840000000.0 0.08553568579252038 -0.10189814673366626
2860000000.0 -0.12716037639956226 0.05036182514937952
2880000000.0 -0.145043779913611 -0.0017582529942017785
2900000000.0 0.04165214016353338 -0.14888629620248628
2920000000.0 0.15110008916010062 0.06476281422248703
2940000000.0 -0.16611750525638333 -0.04585822007595239
2960000000.0 0.16372056337486984 0.0740518842082847
2980000000.0 -0.1557322601969634 -0.10277901309693618
3000000000.0 0.1761654826325424 -0.07055051065228135
3020000000.0 -0.14421646270627433 0.1207050249202245
3040000000.0 0.11026695065972003 -0.14941136609784667
3060000000.0 0.04379064861374516 0.1766592219395544
3080000000.0 -0.14192699956516613 0.10476129641656959
3100000000.0 -0.1692570701285502 -0.011900147773053357
3120000000.0 -0.10969558994401687 0.11992254284593402
3140000000.0 0.15174358598858054 -0.030511642163078667
3160000000.0 -0.11769703745339528 -0.0919506766467395
3180000000.0 0.1384219897975042 0.051641022501626326
3200000000.0 -0.11818447588813243 0.0941361964944067
3220000000.0 0.14700044541064392 0.049196980798085765
3240000000.0 0.01590846842120047 -0.15970328623981384
3260000000.0 -0.04683722411690523 -0.16237075451941227
3280000000.0 -0.059347054424134925 -0.1679374594582565
3300000000.0 0.09234965327686126 -0.16281896097669893
3320000000.0 0.10046368250347117 0.16577965977659095
3340000000.0 -0.11864670206900256 -0.16187708160088918
3360000000.0 0.030341685671392192 0.20405011092919678
3380000000.0 0.09928953502836992 -0.1864324001017738
3400000000.0 -0.21150150126713915 -0.0230533001014747
3420000000.0 0.17711363106321898 0.12362064302391826
3440000000.0 -0.20413333518812657 -0.07568209611907128
3460000000.0 0.2077244608729168 0.06031071534589583
3480000000.0 -0.20594705371918795 -0.05467533558411106
3500000000.0 0.19862429686788954 -0.0635626537818784
3520000000.0 0.012265219975129618 0.202949124862872
3540000000.0 -0.12973114799605032 0.1452247182307827
3560000000.0 -0.10750346047218683 0.15270440528864931
3580000000.0 -0.09050323551775809 0.1543843093696788
3600000000.0 0.13346102131360751 0.1187914303014846
3620000000.0 0.12805768886534225 -0.12350307711919979
3640000000.0 0.008231436600800954 0.17970920477736263
3660000000.0 -0.015998164555633985 -0.18493360055376137
3680000000.0 -0.08548719914929963 0.17607184639284748
3700000000.0 0.16772523821796778 0.12626042387751543
3720000000.0 0.17392950472252786 0.1456515153045635
3740000000.0 -0.1811384710447357 0.16354385425683823
3760000000.0 -0.25756260227859373 -0.04481969401987191
3780000000.0 0.13988854602001588 -0.24025027616262432
3800000000.0 -0.1839822664139079 0.2210227704432969
3820000000.0 0.27473250541515837 -0.11304387324669385
3840000000.0 -0.2867711649373156 -0.08578867055721848
3860000000.0 0.23471059703050998 0.18328272285476577
3880000000.0 -0.09272359139236198 -0.2751641972938329
3900000000.0 -0.16187836093951977 0.22987290066713906
3920000000.0 0.15971798502598222 -0.2105782356422826
3940000000.0 -0.06490599450539754 0.23451963943720627
3960000000.0 -0.2194899473030651 -0.007970547879660169
3980000000.0 -0.1472648495176467 0.12432537356033628
4000000000.0 0.1647537487931019 0.015866166633936574
