!Created with skrf (http://scikit-rf.org).
# Hz S RI R 50.0 
!freq ReS11 ImS11
400000000.0 -0.17167714556076955 0.49875692010600764
420000000.0 -0.1830519174261567 0.42518071297181753
440000000.0 -0.17694186527009312 0.330926008014499
460000000.0 0.05680072222642705 -0.32678201319320976
480000000.0 0.01029642333806703 0.2742195767007868
500000000.0 -0.0938974739481122 -0.22596225834329434
520000000.0 -0.0163497999825411 -0.24306277603689724
540000000.0 -0.22412396324610295 -0.07846886951815087
560000000.0 0.20108416685099237 -0.17315854643732903
580000000.0 -0.2858506309876766 -0.10029724769951995
600000000.0 0.2524336839897616 -0.16656348845462038
620000000.0 0.12736641319994624 -0.24824571719364857
640000000.0 0.03490430249624938 0.26697119535025726
660000000.0 -0.11359132061690827 0.2850578612289132
680000000.0 0.25871042061186744 0.12143448097815548
700000000.0 -0.17039571931962885 -0.17222272372285652
720000000.0 0.046521346745979505 0.2197105960419059
740000000.0 0.11037038196294952 -0.14801898977555902
760000000.0 0.18062933239957762 0.09797503239352784
780000000.0 -0.07359251865710384 -0.1772970093911786
800000000.0 -0.019911565799867845 0.17750942726596122
820000000.0 -0.1725020830007768 -0.010277998230177632
840000000.0 0.14606043255557152 -0.06622302356588194
860000000.0 0.1726736152914937 -0.010417484365069726
880000000.0 0.03746973492210848 -0.14811573488715973
900000000.0 0.07749688668634928 -0.103241103134152
920000000.0 0.10607168033849687 0.049862022120259475
940000000.0 0.12473958788841494 -0.03120395195226937
960000000.0 -0.08195346756118427 0.09488566890685733
980000000.0 -0.10122777409696128 0.057487629998713735
1000000000.0 -0.053242322553304806 -0.08469923726049533
1020000000.0 0.044711830838979644 -0.11158430020696078
1040000000.0 -0.1595307580875792 -0.07269088445121308
1060000000.0 0.18491974653776355 -0.08474660241158445
1080000000.0 -0.21067084388561746 0.05017060792068459
1100000000.0 -0.18116190183414718 -0.13917278655425425
1120000000.0 0.012402772390024356 -0.2397386925601492
1140000000.0 0.019531677786304942 0.24222726149162038
1160000000.0 -0.23862826400576598 -0.03265533878645715
1180000000.0 0.2735627419909727 -0.012549501270088097
1200000000.0 -0.08078225940981437 -0.2642977233399813
1220000000.0 0.10884208858765373 -0.23993348386656915
1240000000.0 0.1108623032462098 -0.22492739736266268
1260000000.0 -0.20387414211017094 -0.10562610341990325
1280000000.0 -0.22800407847933937 0.006603251319731733
1300000000.0 -0.14066752534077037 0.1633057264177528
1320000000.0 -0.2249658716065887 -0.03566360109290698
1340000000.0 -0.18292500639581644 -0.1289472350945818
1360000000.0 0.20881389291051175 -0.03513728214534902
1380000000.0 0.1871483736250388 -0.05643966855833732
1400000000.0 0.19173876137643525 0.04282640050646525
1420000000.0 -0.041662277844786426 0.17725255942217202
1440000000.0 0.1648300559641405 0.05818207016866415
1460000000.0 -0.10915079172542781 0.12238324206638303
1480000000.0 -0.07283939755222647 -0.13569202085783663
1500000000.0 -0.14552854003779167 0.016487098598485937
1520000000.0 0.13416531406974005 0.06844282964075415
1540000000.0 -0.053014795963742194 0.13789173992349626
1560000000.0 0.12569265589688608 -0.050625760873359425
1580000000.0 0.09676980679189072 -0.07581490391802631
1600000000.0 0.13426087177786739 -0.021159784151638095
1620000000.0 0.09250022364516117 -0.11878993420059321
1640000000.0 0.14953317061719382 -0.018933390069128034
1660000000.0 -0.017513207167986915 -0.13973458235781377
1680000000.0 -0.10002394975965237 -0.09461494160374798
1700000000.0 -0.061372170632982746 -0.13280233015877405
1720000000.0 -0.15420443267960562 0.041347189759247775
1740000000.0 0.1609227922316911 0.04462130945760797
1760000000.0 -0.15392793192893778 -0.07765483622856001
1780000000.0 0.0035004914472764647 0.17510585600908815
1800000000.0 -0.17550533177973784 0.06248191393518812
1820000000.0 0.03200018302869798 0.19801747707066034
1840000000.0 0.20056826567777286 -0.05173586855731595
1860000000.0 -0.1264169007054435 -0.16707381745643546
1880000000.0 -0.0475208288648146 -0.19387354403313248
1900000000.0 -0.1906800886018812 -0.015960258464089362
1920000000.0 0.09021131260714897 -0.1581695431325427
1940000000.0 0.00022528402755074933 -0.17424921142345653
1960000000.0 -0.16581631272093802 -0.014875576271734093
1980000000.0 0.13932072364707399 0.07617381717282395
2000000000.0 -0.14717289016689716 -0.014087056353253363
2020000000.0 0.09705888730737257 0.09414071159539983
2040000000.0 0.09263639893117609 -0.09481494574627138
2060000000.0 0.12253142325655696 -0.03407482599758278
2080000000.0 -0.11369193476139618 0.04125134679485777
2100000000.0 -0.030149191868993543 0.11369026451631419
2120000000.0 -0.02864214650187674 0.10797708047631344
2140000000.0 -0.10493948887974901 0.02045338607541756
2160000000.0 0.10850978724003521 -0.014862784549381006
2180000000.0 0.01391654461353916 0.10795215925654358
2200000000.0 0.05133662544644393 -0.094987921566346
2220000000.0 -0.10670191720921472 0.00985014185921987
2240000000.0 -0.08700427674208418 0.06692542512081262
2260000000.0 0.049089081493673296 0.1025222453954408
2280000000.0 0.023330505561499047 -0.11380699789235904
2300000000.0 0.11519676148856171 -0.007380114568356759
2320000000.0 -0.033423186076324204 -0.10835441672068309
2340000000.0 0.05485956393206001 0.10506127416913423
2360000000.0 0.09740020839989451 0.0697430716922981
2380000000.0 0.12218571802567976 0.0008596630809647311
2400000000.0 -0.0710562193570398 -0.10180854543661506
2420000000.0 0.09352382876974154 -0.08331670247431842
2440000000.0 0.12215719895426023 0.033892303850421274
2460000000.0 0.11603484653722992 -0.06417022461618356
2480000000.0 0.13276702748695124 0.021565485308630446
2500000000.0 -0.01749870874303971 0.13514731910055486
2520000000.0 0.010597617803220466 -0.14219671220144364
2540000000.0 0.02382802453836033 0.15147068982608164
2560000000.0 0.1532505351284808 -0.04192444108400292
2580000000.0 0.15360928684321523 -0.06062674351069506
2600000000.0 0.04518139177603113 -0.16770897391159256
2620000000.0 -0.047242378098043915 -0.17192426449560327
2640000000.0 -0.1577284974082846 -0.08938376072463672
2660000000.0 -0.05615048489700463 0.16960420858462522
2680000000.0 0.0918315956102375 0.1422541462845196
2700000000.0 0.10987638023576558 0.11952178056504592
2720000000.0 -0.0729011192641167 -0.1392657926814955
2740000000.0 0.14823305383179197 0.011068861664727578
2760000000.0 0.07678484611560281 0.11540406660519027
2780000000.0 -0.04088324490506022 0.12378333783151331
2800000000.0 -0.035831043833485184 -0.12109606122731575
2820000000.0 -0.11664455903119317 0.050760813591982895
2840000000.0 0.0744571403108234 -0.11003382570910654
2860000000.0 -0.127165052939547 0.05026988171697321
2880000000.0 -0.14482734815285878 -0.0007292524074581909
2900000000.0 0.040370114152622434 -0.14916334938402856
2920000000.0 0.15337536645836247 0.059064292430210844
2940000000.0 -0.16653178442760885 -0.044599495670375015
2960000000.0 0.16095034522604515 0.08019863857097463
2980000000.0 -0.14960397327238456 -0.11178439456911363
3000000000.0 0.164340088541294 -0.0942190473980265
3020000000.0 -0.13150835228191174 0.13432964169631378
3040000000.0 0.12628444208751577 -0.13727113298878446
3060000000.0 0.04256367649992316 0.17716537866140403
3080000000.0 -0.1412816995316742 0.10573660865139581
3100000000.0 -0.16951281350927438 -0.005848733288635905
3120000000.0 -0.11716267413425145 0.11263010041686224
3140000000.0 0.15270894675675006 -0.026100420193317653
3160000000.0 -0.10502852559676115 -0.10649770456388914
3180000000.0 0.1382773920859244 0.05223663934159085
3200000000.0 -0.12124955456714424 0.0899749896156546
3220000000.0 0.14297067223321483 0.059749978369323324
3240000000.0 0.005794053171203989 -0.16034240248132534
3260000000.0 -0.05362378198414294 -0.16019998100224048
3280000000.0 -0.06886844125323771 -0.16430463831255238
3300000000.0 0.0860346688286802 -0.1661240706713515
3320000000.0 0.10302388847772671 0.16435677419143627
3340000000.0 -0.11894832586707513 -0.16170494327322565
3360000000.0 0.023807722271713537 0.20504804609670418
3380000000.0 0.09864221514066895 -0.18653912587707036
3400000000.0 -0.21149104263233487 -0.025261557110314373
3420000000.0 0.1866514215036994 0.10811547343696601
3440000000.0 -0.20169851536035296 -0.08203161511637301
3460000000.0 0.1773105731998824 0.1242684217129283
3480000000.0 -0.2061585416159693 -0.05330385098889946
3500000000.0 0.20505582505110476 -0.03769986186513547
3520000000.0 0.019633396097321308 0.20230829701813485
3540000000.0 -0.127399928798589 0.1471358604724831
3560000000.0 -0.09404156859748351 0.16120162088078688
3580000000.0 -0.06417091746459984 0.1675662592872299
3600000000.0 0.12783840658641105 0.12467424536106322
3620000000.0 0.1252016254280506 -0.126355679466496
3640000000.0 0.015873269639860195 0.17930062913834427
3660000000.0 -0.012067793888398081 -0.18540413620302637
3680000000.0 -0.09883658159618301 0.16905828292899153
3700000000.0 0.15631173978684262 0.1400715704277661
3720000000.0 0.16252374585033397 0.1585835006652837
3740000000.0 -0.19303427046888874 0.14933443722667047
3760000000.0 -0.2554935752121634 -0.05495056088043637
3780000000.0 0.1395158172890027 -0.24019305078920924
3800000000.0 -0.18523344447858586 0.21975037192740915
3820000000.0 0.2594784683097172 -0.14394350383522678
3840000000.0 -0.29592007799513187 -0.04440849743199163
3860000000.0 0.23060888241673846 0.18836230129307702
3880000000.0 -0.07247511249380206 -0.2811041452120724
3900000000.0 -0.17341144839279618 0.22095744145229315
3920000000.0 0.17806950287279832 -0.19489127157927955
3940000000.0 -0.06525316324317544 0.23398086996137596
3960000000.0 -0.2190048985573061 0.0016344212115358327
3980000000.0 -0.14181323194845605 0.12998256179634046
4000000000.0 0.1648083329833839 -0.014739642357898073
