!Created with skrf (http://scikit-rf.org).
# Hz S RI R 50.0 
!freq ReS11 ImS11
400000000.0 -0.2097420717187509 0.48382501174429765
420000000.0 -0.1698238851770686 0.4290867563400214
440000000.0 -0.21305149667534073 0.3126926616530821
460000000.0 -0.041643699128891626 -0.32949812197179457
480000000.0 -0.14820151657909622 0.22896232550059425
500000000.0 -0.18006782470100308 -0.1646158522947914
520000000.0 -0.12311743054029196 -0.20939719362709827
540000000.0 -0.20132087227752557 -0.12774343740116106
560000000.0 0.22129819806166587 -0.14303760545111754
580000000.0 -0.30016138419532 -0.0520769082902069
600000000.0 0.24990516236090554 -0.17389338318372233
620000000.0 0.010254792882379106 -0.27905689938263023
640000000.0 0.024016984987043688 0.2668900234023875
660000000.0 -0.12108803685178016 0.2813514148849093
680000000.0 0.24477918860922046 0.1479817183505754
700000000.0 -0.17755997621985095 -0.16356702247187063
720000000.0 -0.08115462532845151 0.21057942529381846
740000000.0 0.04641913912426607 -0.17797701233191857
760000000.0 0.06748356547478274 0.1937302409141769
780000000.0 -0.1796638970315913 -0.06063673386752807
800000000.0 -0.14725543944906405 0.09858349231678923
820000000.0 -0.17221700915098703 -0.009682390933073654
840000000.0 0.12301320929755116 -0.10419208162347841
860000000.0 0.16683576484235013 -0.03718680602411364
880000000.0 0.08473078136037362 -0.12519425458340872
900000000.0 -0.013488857423428778 -0.13259124489190946
920000000.0 0.11202613806917164 -0.022038020122757945
940000000.0 0.11812721111541312 0.05049444893636404
960000000.0 -0.038632202641387135 0.11993160314038241
980000000.0 -0.10668579112415308 0.046602616732336885
1000000000.0 0.041657485803237054 -0.09053770052581729
1020000000.0 0.08097642007057347 -0.09323240658346145
1040000000.0 -0.175206052665325 -0.009737322261129996
1060000000.0 0.16669958491108308 -0.11456357657112748
1080000000.0 -0.21483602419239645 -0.024358017159420205
1100000000.0 -0.21250007710446694 -0.08183747373938086
1120000000.0 0.01618910873554862 -0.23976191703814204
1140000000.0 -0.006058423163998016 0.24324808042769802
1160000000.0 -0.239673709502571 -0.020196339111426674
1180000000.0 0.2647638439062821 -0.06872711706314216
1200000000.0 -0.04111341156288957 -0.2730545399925291
1220000000.0 0.08061283401094643 -0.25136219223067835
1240000000.0 0.12576387350413867 -0.21484764139403453
1260000000.0 -0.20235545897296203 -0.11040539004563549
1280000000.0 -0.22927756970482002 0.005723672607930607
1300000000.0 -0.12078651359719669 0.17849851950917753
1320000000.0 -0.224611697171872 0.035570477612764044
1340000000.0 -0.1674496752240379 -0.14651639841567224
1360000000.0 0.21017548769202177 -0.0234963252563796
1380000000.0 0.19476768762647068 -0.026147781169512416
1400000000.0 0.19632764299162672 -0.005177804830403252
1420000000.0 -0.018125532741086033 0.18127648957739098
1440000000.0 0.15233645745820157 0.0854433184913335
1460000000.0 -0.11426481114991033 0.11845928778966656
1480000000.0 -0.09199944898043619 -0.12241702124422647
1500000000.0 -0.14482661261544802 -0.025429928114293503
1520000000.0 0.15041799867058284 0.015236826594795137
1540000000.0 -0.04660711959460669 0.14035330358855713
1560000000.0 0.13542908792469027 -0.00205622226755184
1580000000.0 0.10104495176693318 -0.07115550570431693
1600000000.0 0.13533467395075494 -0.010383298767069631
1620000000.0 0.1021289545337334 -0.11046604680615844
1640000000.0 0.1507905309709115 0.0025721053895569716
1660000000.0 0.004591204519620472 -0.1417478095972859
1680000000.0 -0.11051570050682628 -0.08163198715096472
1700000000.0 -0.06064107483906566 -0.13313234369255092
1720000000.0 -0.1535744450500686 0.042662378603870024
1740000000.0 0.15843760426139777 0.05198156295466901
1760000000.0 -0.16199440881509705 -0.0603897821587029
1780000000.0 0.0012678160727997508 0.17511091554628397
1800000000.0 -0.17013395358129557 0.07600446841196852
1820000000.0 0.021577490075735527 0.19947056430716043
1840000000.0 0.19968247251522242 -0.055482351290729155
1860000000.0 -0.1177201023336629 -0.1733936844159286
1880000000.0 -0.03393631929633829 -0.19667073786959727
1900000000.0 -0.19015225278264322 -0.02221097783659944
1920000000.0 0.08588992575139603 -0.16036110037241572
1940000000.0 0.007940422581270942 -0.1735599745352989
1960000000.0 -0.16566141264663312 -0.017239088041554336
1980000000.0 0.14561131601137878 0.06448268740032399
2000000000.0 -0.14707872561616486 0.014018886583310453
2020000000.0 0.09810456769084103 0.0923876798996713
2040000000.0 0.10643599078868633 -0.07908209010312212
2060000000.0 0.12646636430100694 -0.01315653599875894
2080000000.0 -0.11442314552412212 0.04068407009057319
2100000000.0 -0.01758150317762054 0.11647000220755284
2120000000.0 -0.01838795633861636 0.11025179845840687
2140000000.0 -0.10259596374300246 0.03051201063371586
2160000000.0 0.1088684615062181 -0.014205192960788366
2180000000.0 0.010686672124509236 0.10813718734317149
2200000000.0 0.06287296909037673 -0.08764112917850635
2220000000.0 -0.10408505261019074 0.025303080364338152
2240000000.0 -0.0860043832274343 0.06785941043002668
2260000000.0 0.05949499472621087 0.0966923321020362
2280000000.0 0.02556957374460217 -0.11308847915697523
2300000000.0 0.11509500857224274 -0.00880551429529734
2320000000.0 -0.03449553073604281 -0.10805984004130112
2340000000.0 0.03920691072943358 0.11191706789629709
2360000000.0 0.10381704364480891 0.05927569586515956
2380000000.0 0.12167639228230623 -0.002713746459279005
2400000000.0 -0.08201686460460002 -0.09314662323910777
2420000000.0 0.08860929205471155 -0.08832972378602731
2440000000.0 0.1210794192664169 0.036777409554103406
2460000000.0 0.11492840710741527 -0.06614528192969699
2480000000.0 0.13421909645136879 0.00883933158532214
2500000000.0 0.0378954868660538 0.13107072167458772
2520000000.0 0.010937521243892835 -0.14222481522799824
2540000000.0 0.028295095780155762 0.15071941885781448
2560000000.0 0.15039038519345158 -0.051410813582932785
2580000000.0 0.15352788346835908 -0.060676123946833846
2600000000.0 0.05859565534909951 -0.16366232564803207
2620000000.0 -0.043889500889106356 -0.1728435152252144
2640000000.0 -0.16003451898947346 -0.08535980698978965
2660000000.0 -0.059939928724285975 0.1683873261761221
2680000000.0 0.0801084413175439 0.14944230023878607
2700000000.0 0.10977642210039949 0.11979189600615468
2720000000.0 -0.05551268841308783 -0.14716421360786924
2740000000.0 0.14754418277507905 -0.01459799035131658
2760000000.0 0.09060867123797277 0.10465477184814279
2780000000.0 -0.03433267866981088 0.12558758038128834
2800000000.0 -0.047680218735822295 -0.11678175307523161
2820000000.0 -0.10716652497553435 0.06886844476787184
2840000000.0 0.07563195882395643 -0.10959561252418216
2860000000.0 -0.11949211740934262 0.06692471861472025
2880000000.0 -0.14533738650300831 -0.0014929047397572296
2900000000.0 0.05508208387755946 -0.14457112596568641
2920000000.0 0.1485729676028081 0.0705708934165378
2940000000.0 -0.16446746731170345 -0.05257844072194954
2960000000.0 0.1600212094152851 0.08166468265064526
2980000000.0 -0.15230076116183858 -0.10790536171598264
3000000000.0 0.1755131780758222 -0.07173100489528147
3020000000.0 -0.15894463561340566 0.10074086272068816
3040000000.0 0.11381563508704537 -0.14690982884448334
3060000000.0 0.04560524319585345 0.17585047334172768
3080000000.0 -0.13621312613451872 0.11187560046240186
3100000000.0 -0.16613573035093318 -0.0356283889583245
3120000000.0 -0.08232910636623157 0.1401742122733331
3140000000.0 0.14379950782062506 -0.05750957248475852
3160000000.0 -0.13135853217219637 -0.07167818478701225
3180000000.0 0.13681342034538188 0.05620736483995974
3200000000.0 -0.11627251142260078 0.09661608440647165
3220000000.0 0.13029964257911095 0.08333270796951568
3240000000.0 0.018885745775263415 -0.15973220634029095
3260000000.0 -0.04861564013472559 -0.16203062529660534
3280000000.0 -0.058027777123247665 -0.16827981611641116
3300000000.0 0.09464395345669982 -0.1614956394801079
3320000000.0 0.09547841137097779 0.1682473791488199
3340000000.0 -0.11165454604769835 -0.16673571224074768
3360000000.0 0.022699071661791193 0.20521080666046668
3380000000.0 0.08434270431484713 -0.19293949977984237
3400000000.0 -0.20733537635477461 -0.05128252896705932
3420000000.0 0.1629009246296639 0.14210477899387006
3440000000.0 -0.20809035293851114 -0.06443300863863695
3460000000.0 0.16779489385722945 0.13720149272438056
3480000000.0 -0.18220788066130839 -0.11062205202646139
3500000000.0 0.18628582403448493 -0.09401615197332742
3520000000.0 0.08117706661034284 0.1865620426498247
3540000000.0 -0.12267551053971383 0.1517257302453019
3560000000.0 -0.09559329936551221 0.1605684117466874
3580000000.0 -0.08210519248222907 0.1592454803965232
3600000000.0 0.12035311342688054 0.13152685460044572
3620000000.0 0.12853585670826612 -0.1228631376768259
3640000000.0 0.004925284913916814 0.17959570999490385
3660000000.0 -0.0160033254024449 -0.18479084924886505
3680000000.0 -0.09497938523482878 0.1711596163362954
3700000000.0 0.15809201703865294 0.1379351771369302
3720000000.0 0.17448196717193015 0.1454505285347062
3740000000.0 -0.18998894770551308 0.15373755589932395
3760000000.0 -0.2573146996439428 -0.04650179630149832
3780000000.0 0.1279376724559934 -0.24679849517472213
3800000000.0 -0.17941182899392488 0.22463294210375265
3820000000.0 0.2773353827249936 -0.10663118419640748
3840000000.0 -0.29056853670141214 -0.07098433454155856
3860000000.0 0.23034758250293463 0.18842316421423225
3880000000.0 -0.09050617827365334 -0.27537740747290923
3900000000.0 -0.17679882635470984 0.21756213185745576
3920000000.0 0.15900516819893604 -0.21055381925653052
3940000000.0 -0.04385661983168259 0.23884427766781202
3960000000.0 -0.21723740847244336 0.027251456503968655
3980000000.0 -0.11835968271039839 0.15177353242438482
4000000000.0 0.15827773359759412 -0.04852083004198246
