!Created with skrf (http://scikit-rf.org).
# Hz S RI R 50.0 
!freq ReS11 ImS11
400000000.0 -0.20955926497578195 0.4839528223478255
420000000.0 -0.09212993407686583 0.45294839109352586
440000000.0 -0.24698457830193626 0.2821104787018053
460000000.0 0.035511738640358885 -0.32991133529796335
480000000.0 0.07766818290274606 0.2616724160966191
500000000.0 -0.023160977792580827 -0.2437479672259741
520000000.0 -0.12651457509769434 -0.20736568133191952
540000000.0 -0.20275336910722186 -0.1234855128718878
560000000.0 0.24206503963523038 -0.11069316411098494
580000000.0 -0.2969866865011096 -0.060950742782058566
600000000.0 0.19043683512231632 -0.23514484870533311
620000000.0 0.13563283392325315 -0.24391505030583857
640000000.0 -0.07178078904246303 0.25846255179723865
660000000.0 -0.07563599910645297 0.2985286581113062
680000000.0 0.2235054795525643 0.17804478062303322
700000000.0 -0.17151998158188023 -0.17207975430510206
720000000.0 -0.02035173592941042 0.22367666162588087
740000000.0 -0.028284743674700883 -0.1816101931839227
760000000.0 0.01796611149069487 0.2050390712565643
780000000.0 -0.1902808641585651 -0.003145782388711565
800000000.0 -0.1620262928574642 0.06620176164907955
820000000.0 -0.14509890958125204 -0.096027839421555
840000000.0 0.08746672330892956 -0.13627484891602684
860000000.0 0.11444958876928277 -0.12786827779575494
880000000.0 0.10236468282191134 -0.10867052860591082
900000000.0 -0.034177841188943056 -0.12747401334363218
920000000.0 0.11255039075270157 -0.027153800065711105
940000000.0 0.12113353979055846 0.045216602940206484
960000000.0 -0.06360208707444943 0.10860597458647696
980000000.0 -0.10890115673018776 0.039593104870013836
1000000000.0 -0.03765482055980529 -0.09269620455698789
1020000000.0 0.028854895091255228 -0.11777736881461016
1040000000.0 -0.15464446222720155 -0.08410068587567959
1060000000.0 0.16163117923058604 -0.12292108682007707
1080000000.0 -0.21295824818526216 0.03951319945480745
1100000000.0 -0.1676878951016617 -0.15500443795567773
1120000000.0 0.039701667660478855 -0.23706049545116714
1140000000.0 -0.009576996218161342 0.24342699716123456
1160000000.0 -0.2398557253421774 0.01564914422025168
1180000000.0 0.26831628875917635 -0.05061032931346402
1200000000.0 -0.05214765339380769 -0.2705523225943167
1220000000.0 0.12391407149512088 -0.23279370726517637
1240000000.0 0.11798131132767588 -0.22093293257017751
1260000000.0 -0.2099271297864354 -0.09196839977979838
1280000000.0 -0.2288269108661097 0.002210976570161344
1300000000.0 -0.11586425736078056 0.18220045138009763
1320000000.0 -0.2284118479965868 0.0011034293382687298
1340000000.0 -0.20398841962751593 -0.08779326969941523
1360000000.0 0.2121055638885266 0.009500454107725514
1380000000.0 0.1958783660644679 -0.006397512571106001
1400000000.0 0.18932869515592332 0.05063045544024606
1420000000.0 -0.08501266884025373 0.16135104729858377
1440000000.0 0.17343494295334977 0.01746102516696508
1460000000.0 -0.09603421280595212 0.13213089752726512
1480000000.0 -0.04777062270401322 -0.1455339474012861
1500000000.0 -0.14479633788201562 -0.026029611544378915
1520000000.0 0.15017335849814512 0.012741960478474012
1540000000.0 -0.05199540304485892 0.13870838854521614
1560000000.0 0.11719507923009355 -0.06701029237347902
1580000000.0 0.11307282658365381 -0.04788635986904286
1600000000.0 0.13542746515000728 -0.014796273993457875
1620000000.0 0.08758457477556778 -0.12275214105015977
1640000000.0 0.14836091805005097 -0.025498626558899538
1660000000.0 -0.012568144602715832 -0.14034861227905315
1680000000.0 -0.07006589714289935 -0.11870213720329652
1700000000.0 0.006901530769829459 -0.14604898664104307
1720000000.0 -0.15945985445449035 0.011403822882896448
1740000000.0 0.16409217042458474 0.030726327497488982
1760000000.0 -0.13513905028323775 -0.10768749928027997
1780000000.0 -0.0006624998720736623 0.17475034592146738
1800000000.0 -0.1764283979599199 0.059322529273852564
1820000000.0 0.02196631582912842 0.1991752148469211
1840000000.0 0.19906014240605527 -0.05743560325614329
1860000000.0 -0.12959151200478433 -0.16510814575659097
1880000000.0 -0.06349975309804824 -0.18921338401423551
1900000000.0 -0.18954470049834987 -0.025801537109205352
1920000000.0 0.09408485523093196 -0.15626146635348942
1940000000.0 -0.0040429397195305816 -0.1741630913672019
1960000000.0 -0.16264481300691366 -0.035490933058268656
1980000000.0 0.1466761334912285 0.06148849223086071
2000000000.0 -0.14778980414662102 0.0005114784076228103
2020000000.0 0.10046183224018712 0.09023010564027534
2040000000.0 0.10354838683258968 -0.08305214906530184
2060000000.0 0.1252598001144541 -0.021290432826411097
2080000000.0 -0.12065129392477335 0.013016075194884257
2100000000.0 -0.024073069813501963 0.1150709692121336
2120000000.0 -0.009585683736689155 0.11176840058633626
2140000000.0 -0.09685024137388125 0.04531437829474204
2160000000.0 0.1081139776008795 -0.018123003350527994
2180000000.0 -0.004290087066283528 0.10805312572269096
2200000000.0 0.063189226391804 -0.08807823516026476
2220000000.0 -0.10249909098111314 0.03141575151447082
2240000000.0 -0.0845568675087008 0.07018238353790736
2260000000.0 0.043152401847757246 0.10477581450691037
2280000000.0 0.037713801826797365 -0.10947351930075362
2300000000.0 0.11463710944049972 -0.01405519387164817
2320000000.0 -0.02486471243364835 -0.11088149229467173
2340000000.0 0.04466894315851139 0.10963933437356849
2360000000.0 0.10449312332754815 0.058942953724845475
2380000000.0 0.1218689174457201 -0.006838789235889123
2400000000.0 -0.08901157685535382 -0.08630589540764352
2420000000.0 0.07168721566360589 -0.1025495509491631
2440000000.0 0.1267116330486721 0.0013774965085531984
2460000000.0 0.12178482786200022 -0.05206973159118749
2480000000.0 0.1311912790739401 0.029951327495847106
2500000000.0 0.009349904346014772 0.135929527132527
2520000000.0 0.01801059225646018 -0.14166925407978304
2540000000.0 0.04253865211074326 0.1474138854138319
2560000000.0 0.15277007621279112 -0.04286066116211821
2580000000.0 0.15361260293943552 -0.06029078574252828
2600000000.0 0.06170869692278287 -0.16224141048800075
2620000000.0 -0.04410737090563204 -0.17274821508346128
2640000000.0 -0.1613580499488295 -0.08274360392800902
2660000000.0 -0.03988326325329789 0.17431868719479168
2680000000.0 0.1039281974347496 0.1336165947281644
2700000000.0 0.11789990966598368 0.1121287064415909
2720000000.0 -0.06851649114097677 -0.1417410306987039
2740000000.0 0.13791770891545616 -0.05461411852797184
2760000000.0 0.048752402001272864 0.12987213379363927
2780000000.0 -0.03163665782664707 0.12641824578940977
2800000000.0 -0.03555842700804193 -0.12114641075068286
2820000000.0 -0.11144296755043612 0.061135275340559375
2840000000.0 0.0789468535631151 -0.10685477130298128
2860000000.0 -0.12289230355496214 0.06006563827611206
2880000000.0 -0.1450278121562234 0.0003195071126550305
2900000000.0 0.03780435223618732 -0.1497493469585301
2920000000.0 0.15333599136679674 0.05919839110075147
2940000000.0 -0.16839902713474375 -0.037145084564306007
2960000000.0 0.16464136367422708 0.07187381271619635
2980000000.0 -0.16441344144031853 -0.08828661225904567
3000000000.0 0.1650608025173669 -0.093361229015499
3020000000.0 -0.14452998951742405 0.1204837214307343
3040000000.0 0.12592157175211519 -0.1370114642253385
3060000000.0 0.03897722505678373 0.17759882970494248
3080000000.0 -0.14828434006991137 0.0960143201591096
3100000000.0 -0.16939046572227787 0.0071341105778934474
3120000000.0 -0.10948986256397836 0.12012589610236422
3140000000.0 0.15166914972632112 -0.03047925750840896
3160000000.0 -0.09983964762308119 -0.11111504429958473
3180000000.0 0.12020166110362071 0.08505671641176658
3200000000.0 -0.12114700127904926 0.09019799060795858
3220000000.0 0.14155849409567542 0.06148859090115368
3240000000.0 -0.008543433330767174 -0.16035297951368513
3260000000.0 -0.06404551871178962 -0.15659543178022026
3280000000.0 -0.07838225953209971 -0.1599018796932951
3300000000.0 0.09105663293851662 -0.16365925520322525
3320000000.0 0.09846425665982507 0.1668858224241381
3340000000.0 -0.108813820935794 -0.1689114276536668
3360000000.0 0.015423487880718746 0.2059684501482572
3380000000.0 0.11343487721488692 -0.17838646300459823
3400000000.0 -0.20766760650681987 -0.04733832159925349
3420000000.0 0.16424421088799157 0.1396764111189437
3440000000.0 -0.20147064861438999 -0.08267269153346231
3460000000.0 0.17761754275438768 0.12348358275994979
3480000000.0 -0.21074708850607332 -0.029552193411658507
3500000000.0 0.20040985667478725 -0.05647196823644016
3520000000.0 0.01979848709932078 0.20225168834198162
3540000000.0 -0.11239386612809275 0.15877101597636228
3560000000.0 -0.08042336506912272 0.16848720119596422
3580000000.0 -0.04589037815394063 0.1735547632293557
3600000000.0 0.12548142073346735 0.12689711653318875
3620000000.0 0.11560548868270534 -0.13546270099030636
3640000000.0 0.009735076585523902 0.17964231505148967
3660000000.0 -0.017746957268655085 -0.18483725979238155
3680000000.0 -0.09233062273488439 0.17278778896821143
3700000000.0 0.1544830951439021 0.14197656571103498
3720000000.0 0.17502597155791733 0.14442289784277343
3740000000.0 -0.17743780354613825 0.16741061845977376
3760000000.0 -0.2508819447860288 -0.07344533144794557
3780000000.0 0.1186317603907499 -0.2515394013517734
3800000000.0 -0.17780131342519057 0.22599223159861964
3820000000.0 0.24787988110154632 -0.1637766626681761
3840000000.0 -0.29925113455663993 -0.0010688891636083048
3860000000.0 0.25687172221567617 0.15104518628209743
3880000000.0 -0.10004008907407454 -0.2729118620256747
3900000000.0 -0.1840125091753001 0.21213295209851704
3920000000.0 0.17193424952013336 -0.20067999599933145
3940000000.0 -0.042665369675465206 0.2392836247101451
3960000000.0 -0.2191894651551037 0.008559724089508374
3980000000.0 -0.1412857514601594 0.1317299664663922
4000000000.0 0.16202416289009294 0.03592583144940327
