!Created with skrf (http://scikit-rf.org).
# Hz S RI R 50.0 
!freq ReS11 ImS11
400000000.0 -0.20032676042302766 0.4884567541286116
420000000.0 -0.1603772983090323 0.4327640812171324
440000000.0 -0.22007415266962355 0.30476539071632697
460000000.0 -0.13485759366600567 -0.30187501600243943
480000000.0 -0.18574096820566363 0.20233210210340907
500000000.0 -0.11936659435687225 -0.2144466250016862
520000000.0 -0.08758659411233236 -0.22452289169934275
540000000.0 -0.18824312272868907 -0.14528762802679454
560000000.0 0.21865726533351834 -0.1503093626377306
580000000.0 -0.3027999295345969 0.024089366907699254
600000000.0 0.2802196263478239 -0.11017468884246334
620000000.0 0.155793719638278 -0.23176587596971224
640000000.0 0.0661688981504633 0.2614093062787262
660000000.0 -0.15289198308119165 0.26475729496190026
680000000.0 0.23469449328237305 0.16396262956757074
700000000.0 -0.11010920339105804 -0.2159625503979001
720000000.0 0.009726328202373104 0.22486319646402958
740000000.0 0.11347894198947844 -0.1458471678339257
760000000.0 0.1687434101827477 0.11768657216471605
780000000.0 -0.014386388097017236 -0.18649187237466935
800000000.0 -0.058120594530046504 0.1719928142096851
820000000.0 -0.160443549351845 0.05943432107003008
840000000.0 0.1591165757207681 0.015167876519806184
860000000.0 0.1714391640627023 0.024936784918351478
880000000.0 -0.043194017889965956 -0.1452303869818455
900000000.0 0.07089020117675592 -0.10800376780832266
920000000.0 0.09684267748127641 0.0651060768697142
940000000.0 0.12377826471323257 -0.03718813936694928
960000000.0 -0.08342735445729825 0.09242495803576388
980000000.0 -0.10572443027044048 0.04933157890473093
1000000000.0 -0.04733184310958549 -0.0897217184559906
1020000000.0 0.0604800254611014 -0.10421250711699169
1040000000.0 -0.16275406896987665 -0.06351975609284723
1060000000.0 0.18448290337957274 -0.08909038896931629
1080000000.0 -0.21525528789695003 -0.0003878546666092681
1100000000.0 -0.20194643096301512 -0.10694218380079107
1120000000.0 0.04824630125908761 -0.23576037695627594
1140000000.0 0.03743294955326625 0.2405709591099542
1160000000.0 -0.23527207943734404 -0.04939357198959315
1180000000.0 0.26940218343873784 -0.04673191925795568
1200000000.0 -0.058471240452504715 -0.26946151583555034
1220000000.0 0.11922006673700003 -0.23531659313407294
1240000000.0 0.12454674090604881 -0.21703921929946243
1260000000.0 -0.21641747854812995 -0.07867886197822167
1280000000.0 -0.22687575240392016 0.029642907055001062
1300000000.0 -0.14230981050838964 0.16245950253878946
1320000000.0 -0.22712706456234974 0.022778914797789034
1340000000.0 -0.18465244922914928 -0.12460342925849399
1360000000.0 0.21191305036255986 0.021317222003618068
1380000000.0 0.19402316072703268 -0.012500800180537253
1400000000.0 0.19515540935601075 0.020202625456684054
1420000000.0 -0.10020100581492851 0.15265440259095406
1440000000.0 0.16015423124346612 0.06961405251860513
1460000000.0 -0.10854585702914257 0.12280855628271538
1480000000.0 0.004660040234161113 -0.1537756868057994
1500000000.0 -0.14385251891281126 -0.030787266556904877
1520000000.0 0.1441158295336747 0.043527614720229035
1540000000.0 -0.04756800443221923 0.13969127581715995
1560000000.0 0.13355072906772805 -0.018352061216658028
1580000000.0 0.11474277766584733 -0.04499951504774721
1600000000.0 0.1326663975085209 -0.029006933923125283
1620000000.0 0.08499324738694718 -0.12422237087940086
1640000000.0 0.15046219647968945 0.002712141071203252
1660000000.0 0.01917902200560295 -0.13984575804014554
1680000000.0 -0.10165757472965113 -0.09352541077204929
1700000000.0 -0.04691691418897538 -0.1387067948380471
1720000000.0 -0.15149218902715794 0.05020702700819586
1740000000.0 0.15642551452539785 0.05831091306567927
1760000000.0 -0.14172282249681728 -0.09825757218507114
1780000000.0 -0.009053869363622317 0.17458644568642231
1800000000.0 -0.1841720502703911 0.028710928225962457
1820000000.0 0.02687962427611614 0.1982532971582674
1840000000.0 0.19768477012302324 -0.06026022450136404
1860000000.0 -0.13597517741788823 -0.1591277663192745
1880000000.0 -0.05708685643421338 -0.19081049686558174
1900000000.0 -0.19083015224315947 -0.01598195227860505
1920000000.0 0.08492691749236866 -0.16094692607176878
1940000000.0 -0.02146656974119585 -0.1728679243189499
1960000000.0 -0.16538350436510058 -0.018296698776848988
1980000000.0 0.1457091901320449 0.06400022846328357
2000000000.0 -0.14742037576115224 -0.018009788018708627
2020000000.0 0.06547312830232438 0.11856924194551482
2040000000.0 0.08705731996908843 -0.10038366751410727
2060000000.0 0.12582854427915902 -0.019120403016955632
2080000000.0 -0.12004956600896456 0.017368342031969883
2100000000.0 -0.03105163213998871 0.11305886124593173
2120000000.0 -0.03365891524156204 0.10680359856967282
2140000000.0 -0.09580362319030619 0.04765476675097241
2160000000.0 0.10927436553501352 -0.007127784287467489
2180000000.0 0.019091386085966493 0.10653186423415766
2200000000.0 0.05291008530086441 -0.09414999600254047
2220000000.0 -0.09665986991117487 0.04598995007954764
2240000000.0 -0.07993840126188091 0.07512870510952148
2260000000.0 0.0607740069374119 0.09605174271466661
2280000000.0 0.020863648518111785 -0.11431697621555731
2300000000.0 0.11399197265310713 -0.019902074699636032
2320000000.0 -0.030862401208645123 -0.10926722550822798
2340000000.0 0.04289906321937744 0.11082992285179745
2360000000.0 0.08938862157563846 0.07985510927348229
2380000000.0 0.12172719195446571 0.0033385906043378296
2400000000.0 -0.06801542589901013 -0.10400463325106443
2420000000.0 0.09797502306240881 -0.07820764921976374
2440000000.0 0.12418491560228119 0.025193195792318514
2460000000.0 0.11258140130624923 -0.06945812204831867
2480000000.0 0.13009209832513333 0.03409992770659956
2500000000.0 0.009082548776609321 0.13595338449098665
2520000000.0 0.03535381784439827 -0.13798776288632578
2540000000.0 0.00764769203904468 0.153516986974193
2560000000.0 0.15015855777818699 -0.0529552918201569
2580000000.0 0.15330397048418803 -0.06127268407076892
2600000000.0 0.05336711145296774 -0.1654608491002617
2620000000.0 -0.03173722786495625 -0.1752858351224038
2640000000.0 -0.15131374745461607 -0.0995008134986618
2660000000.0 -0.06527455392172843 0.16660986307133413
2680000000.0 0.09094154756867989 0.14297777179817103
2700000000.0 0.11755394357669273 0.11213111794516285
2720000000.0 -0.05821750686301429 -0.1463166898928614
2740000000.0 0.14789893052179498 0.01478263209067996
2760000000.0 0.07932580269627278 0.11347936353724043
2780000000.0 -0.03769106085451178 0.12491746431973048
2800000000.0 -0.03390181290775038 -0.12178418920474986
2820000000.0 -0.11379551066372523 0.056715252107507746
2840000000.0 0.08310083335654789 -0.10367087757885533
2860000000.0 -0.12939549064168734 0.045596797124400464
2880000000.0 -0.1446144818838911 -0.01374464108144219
2900000000.0 0.05224406070896629 -0.1454389395496996
2920000000.0 0.14811747415452006 0.0710090238946921
2940000000.0 -0.16560098500149217 -0.04738453593900048
2960000000.0 0.15731836270992822 0.08687776448406279
2980000000.0 -0.14629307599540614 -0.11581423232590146
3000000000.0 0.17871625985666673 -0.06399049583800724
3020000000.0 -0.1523157687447355 0.11110354477507028
3040000000.0 0.13397433139144166 -0.12940411971617094
3060000000.0 0.04884036196121691 0.1747504548141098
3080000000.0 -0.14994529137946774 0.09317991912403155
3100000000.0 -0.16978440817992968 -0.0019329816392301186
3120000000.0 -0.12436701016939564 0.10496593097740414
3140000000.0 0.1512660812033216 -0.033019817226492415
3160000000.0 -0.10638344178151746 -0.10495441529283955
3180000000.0 0.12909012478647924 0.07167689385821666
3200000000.0 -0.12304964824713437 0.0878164260983585
3220000000.0 0.141955462961689 0.06235178719046529
3240000000.0 0.01880236803340423 -0.1591565568522676
3260000000.0 -0.05039137684460536 -0.16139825294839116
3280000000.0 -0.05031314701022973 -0.1708413015014978
3300000000.0 0.09571412820899569 -0.16094325971272022
3320000000.0 0.09176717166530136 0.17067409866672098
3340000000.0 -0.10220340335362964 -0.1724211784242762
3360000000.0 0.013315802918950398 0.20566465034549408
3380000000.0 0.12058941576416342 -0.17356601503539504
3400000000.0 -0.21005850822922856 -0.03219495915223624
3420000000.0 0.15833866484377745 0.14656042382016327
3440000000.0 -0.183310123273103 -0.1172977607153575
3460000000.0 0.1754768925534082 0.12639461508207073
3480000000.0 -0.1945749268618196 -0.0862488171851043
3500000000.0 0.2042365551751207 -0.04003717701731352
3520000000.0 0.011900500591766743 0.2027638081079905
3540000000.0 -0.12790735545890738 0.14653876886908243
3560000000.0 -0.09479983036707719 0.16053325911521032
3580000000.0 -0.060478867884403036 0.16847560254297383
3600000000.0 0.13678756531486796 0.11432167451608077
3620000000.0 0.11053207666336337 -0.13940936410942928
3640000000.0 0.02628765780892731 0.1781050809223435
3660000000.0 -0.020059578969742364 -0.18459996647487134
3680000000.0 -0.09767491933197096 0.17000953603760838
3700000000.0 0.1432526793062679 0.15356148145302648
3720000000.0 0.14843465322487442 0.17209770678735253
3740000000.0 -0.1998132091158377 0.14026232375852163
3760000000.0 -0.2412514816051107 -0.10126821439686341
3780000000.0 0.15931923546376195 -0.22747421458923442
3800000000.0 -0.19476153829779583 0.21106152289302055
3820000000.0 0.2559264219999076 -0.14955977466716217
3840000000.0 -0.29592520495369595 -0.041054857244164016
3860000000.0 0.23350025213996273 0.1836683914712469
3880000000.0 -0.10915002897400851 -0.26866680239449164
3900000000.0 -0.16640081731512305 0.22578967596040042
3920000000.0 0.12523345581498155 -0.23248708821744268
3940000000.0 -0.0029141418543856116 0.24310250239691047
3960000000.0 -0.21350570008518965 0.051627046985881504
3980000000.0 -0.13093429631302642 0.14253813251784067
4000000000.0 0.16653451366864885 -0.003204278916602877
