!Created with skrf (http://scikit-rf.org).
# Hz S RI R 50.0 
!freq ReS11 ImS11
400000000.0 -0.2057272314314867 0.4858344971102895
420000000.0 -0.11822305218398223 0.4464857771502979
440000000.0 -0.23209417935677912 0.2942984611324337
460000000.0 -0.09787643435038039 -0.3162205936228374
480000000.0 -0.0722869880429399 0.2639307281963237
500000000.0 -0.11654671278341505 -0.21545025671824425
520000000.0 -0.12525684602740933 -0.2072525725587286
540000000.0 -0.2036650776930125 -0.12179972828072616
560000000.0 0.24503351864113815 -0.10418179575996649
580000000.0 -0.30099877040751677 0.041857971226195556
600000000.0 0.2574772740080875 -0.15744447881682114
620000000.0 0.11176700079825248 -0.2555565667831687
640000000.0 0.026787011773239014 0.26806159302592775
660000000.0 -0.12099896437486403 0.28187824633813263
680000000.0 0.22517309103894942 0.1768436025765967
700000000.0 -0.10831197923590392 -0.21687051251225128
720000000.0 0.014573597274210356 0.22392465399740594
740000000.0 0.1451115674713234 -0.11452887886384983
760000000.0 0.19724260464482912 0.05851552005508596
780000000.0 -0.0026015434144386947 -0.18764038687606935
800000000.0 -0.05813311046238834 0.17177142401033196
820000000.0 -0.16609364881209618 0.03930581418776067
840000000.0 0.15738525610699514 -0.029325257950420854
860000000.0 0.1714841670977816 -0.02905491338756561
880000000.0 -0.09647751251753638 -0.11801840409815499
900000000.0 0.09264854103607625 -0.0903776813039083
920000000.0 0.061405538021948015 0.09953295405243968
940000000.0 0.12250566076354483 -0.04095689782124984
960000000.0 -0.09860241034251455 0.07762343488223161
980000000.0 -0.10534768568716679 0.05052303301409417
1000000000.0 0.0022174489462797793 -0.10082730811868398
1020000000.0 0.048533738132644916 -0.11102979773572907
1040000000.0 -0.16486967135477096 -0.059017150392972756
1060000000.0 0.1961393658061971 -0.052415413152785945
1080000000.0 -0.21442919556798157 0.021612652911680484
1100000000.0 -0.20170463170502806 -0.1076052638658304
1120000000.0 0.029533802760897333 -0.23917451628529968
1140000000.0 0.04013692823093625 0.24028313140426702
1160000000.0 -0.24003564180500891 -0.016466588366252713
1180000000.0 0.2634162264918299 -0.07309473736086503
1200000000.0 -0.05955443716752691 -0.26933960985163286
1220000000.0 0.11447773828619447 -0.23781322065516866
1240000000.0 0.11022226218506702 -0.22476045319510907
1260000000.0 -0.20909744503736535 -0.09539763119696162
1280000000.0 -0.22839375593527186 0.01760992757775759
1300000000.0 -0.14063583286381143 0.16419325988383998
1320000000.0 -0.22806243964627698 0.0066195913211478
1340000000.0 -0.18020636420655853 -0.13032924323077527
1360000000.0 0.21260360869154502 -0.009230143790762632
1380000000.0 0.19246308949096755 -0.027803643805667588
1400000000.0 0.19650373185376457 0.00352713557267658
1420000000.0 -0.10606249260148627 0.1482622693864008
1440000000.0 0.16448478723012114 0.059759739953852906
1460000000.0 -0.09394548237387335 0.1343090449613927
1480000000.0 -0.011086849095676865 -0.15282706690410638
1500000000.0 -0.1447569673873929 -0.023757055823530042
1520000000.0 0.13987874920662277 0.056497651563706966
1540000000.0 -0.043708047547081706 0.1411040509378027
1560000000.0 0.12391374790775889 -0.05363977114714352
1580000000.0 0.1110587925030271 -0.05260873549205314
1600000000.0 0.13591821212182106 -0.001921166030778839
1620000000.0 0.09012088316103496 -0.12121506858018079
1640000000.0 0.14768839504292194 -0.029679988067564615
1660000000.0 -0.0022424521847328165 -0.14065465455324627
1680000000.0 -0.07763777655848787 -0.11409810506966112
1700000000.0 -0.025229906984565065 -0.14410410620598038
1720000000.0 -0.15537141878582017 0.03789314151972386
1740000000.0 0.16336455712892728 0.033542004196349555
1760000000.0 -0.13290717418889336 -0.1097100511663514
1780000000.0 -0.017764590556148003 0.1735786991414
1800000000.0 -0.18177784386599097 0.040863750691991746
1820000000.0 0.033610613384872645 0.19721201703018232
1840000000.0 0.19658303869047442 -0.06424992416719041
1860000000.0 -0.13248440637413242 -0.16229953516144216
1880000000.0 -0.06128040903333845 -0.18976004545376207
1900000000.0 -0.1898382765760068 -0.025616894085609316
1920000000.0 0.09126346895382295 -0.15756291375538234
1940000000.0 -0.01976719991124285 -0.17294096223867847
1960000000.0 -0.16421987685506448 -0.027510674066679962
1980000000.0 0.14296892675708256 0.06978790324831238
2000000000.0 -0.14804493347287265 -0.0015618388047004242
2020000000.0 0.08408525604000329 0.1061773473618456
2040000000.0 0.08227068457566737 -0.10436962651915216
2060000000.0 0.12423214750974593 -0.026186363552447977
2080000000.0 -0.12094457330866358 0.0038220424698936837
2100000000.0 -0.007796200566001382 0.11669312924231985
2120000000.0 -0.058852027015710476 0.09505058855573773
2140000000.0 -0.09906528391171032 0.04017543016825806
2160000000.0 0.10468106660362159 -0.0319410516709081
2180000000.0 0.025133276134977504 0.10541592949491647
2200000000.0 0.05503341426262552 -0.0929405693863799
2220000000.0 -0.10328745354492387 0.02855142558774972
2240000000.0 -0.09338162066745914 0.057691173951964936
2260000000.0 0.04489536995204704 0.10408860729557991
2280000000.0 0.013197084152997512 -0.11529264813528282
2300000000.0 0.11318348101261605 -0.024016875809634807
2320000000.0 -0.030633284905950454 -0.10927291041030336
2340000000.0 0.04101429800120917 0.11128811610622386
2360000000.0 0.10017943997590055 0.06566311102021571
2380000000.0 0.12176609786368976 0.005401639643415775
2400000000.0 -0.07428643917958305 -0.09944626919132102
2420000000.0 0.0882253309835319 -0.0887696967624289
2440000000.0 0.12154240589948252 0.03702543463752787
2460000000.0 0.10996370713924374 -0.07428267352252582
2480000000.0 0.13195771157755234 0.026777989592069094
2500000000.0 0.031572376566823615 0.1329559081641522
2520000000.0 0.02978434544251092 -0.13896155913976863
2540000000.0 -0.0011123798295605207 0.15343894728163499
2560000000.0 0.155487580105385 -0.03227427907626975
2580000000.0 0.15186684905545894 -0.06480576462770005
2600000000.0 0.041039586706537255 -0.16912235310810025
2620000000.0 -0.052482223289028615 -0.17035769696922345
2640000000.0 -0.15785056581957949 -0.08892462885936393
2660000000.0 -0.05357819830187723 0.17046763835962142
2680000000.0 0.0827990729359615 0.14808108405055473
2700000000.0 0.1103584072397184 0.11938714786939324
2720000000.0 -0.05555635355479121 -0.1473099991485056
2740000000.0 0.145655287736632 -0.028648930022233312
2760000000.0 0.06986319046885679 0.11964623722884847
2780000000.0 -0.03164523989805919 0.1264823169931025
2800000000.0 -0.038296479346732644 -0.12036688473845901
2820000000.0 -0.11716309524872226 0.049027285462764934
2840000000.0 0.08449136858209814 -0.10219397185659218
2860000000.0 -0.12589339389598317 0.05268206515094187
2880000000.0 -0.1450162064889399 -0.003143113110620569
2900000000.0 0.03828119062024712 -0.1496445474977214
2920000000.0 0.15082767305949735 0.06500003157541329
2940000000.0 -0.16877063867293912 -0.035954238570493936
2960000000.0 0.16089749498896758 0.08017479689229041
2980000000.0 -0.15152292907418036 -0.10961408116567944
3000000000.0 0.1666061028215968 -0.09068784180298722
3020000000.0 -0.14466154082169713 0.12007962964863694
3040000000.0 0.13623293059462516 -0.12707989591224392
3060000000.0 0.02450541446607256 0.18036561352243619
3080000000.0 -0.15546530716730914 0.08384136112805639
3100000000.0 -0.1690823131991315 0.011026276016950116
3120000000.0 -0.04622229145284863 0.15539927880549698
3140000000.0 0.15447498773344556 -0.007998879060811547
3160000000.0 -0.1013746053397518 -0.10957993850464996
3180000000.0 0.12562430110145043 0.0766966471771049
3200000000.0 -0.11857075663107819 0.09355433452682736
3220000000.0 0.1477897216574744 0.046940806254077705
3240000000.0 -0.005953925564525572 -0.16120933750244873
3260000000.0 -0.060644893288585175 -0.1579414410315879
3280000000.0 -0.052238263557590404 -0.17043271136407004
3300000000.0 0.09972932421703909 -0.15855276659746245
3320000000.0 0.08035763820887008 0.17653091534214882
3340000000.0 -0.10066197653663644 -0.17357915364797677
3360000000.0 0.015627366144592283 0.20538675374250492
3380000000.0 0.13081082417405074 -0.16593263270505518
3400000000.0 -0.21104907873040102 -0.021056880069354345
3420000000.0 0.15736961089363233 0.14748037230955213
3440000000.0 -0.18499270060424125 -0.1144048893200364
3460000000.0 0.18433033862070036 0.11247009741691102
3480000000.0 -0.20521599678904734 -0.055620177127378
3500000000.0 0.2004469947753493 -0.05562161215248939
3520000000.0 0.015321897833840834 0.2025031356220577
3540000000.0 -0.12676768766637936 0.14734615577764992
3560000000.0 -0.09326304559099918 0.16150071101534721
3580000000.0 -0.06393069208682155 0.1673226292835205
3600000000.0 0.13510516079957696 0.11653112665825154
3620000000.0 0.12059323775723943 -0.1311934974096539
3640000000.0 0.002115380542013694 0.1800794486324867
3660000000.0 -0.007242267952462137 -0.1855986861094364
3680000000.0 -0.09465550327500362 0.1716481044516048
3700000000.0 0.1490146591008045 0.14799910185635282
3720000000.0 0.13643100388020638 0.1823720110306719
3740000000.0 -0.20622902559245446 0.13063760350958553
3760000000.0 -0.2495814339895146 -0.07798916027641054
3780000000.0 0.12983698956840892 -0.24534725571655458
3800000000.0 -0.1749867555472097 0.22736671091880756
3820000000.0 0.2728986192782098 -0.11640597837243648
3840000000.0 -0.28566632133005965 -0.08772074838004613
3860000000.0 0.23703095586535428 0.17931800907573675
3880000000.0 -0.0915764775044573 -0.27540829442709247
3900000000.0 -0.1859043824828282 0.20971682604896888
3920000000.0 0.17372870215121727 -0.19854673333758036
3940000000.0 0.008171130640573522 0.24297677814942947
3960000000.0 -0.21251681851493043 0.054435118455381924
3980000000.0 -0.12275102509622081 0.14869648425094917
4000000000.0 0.1608763587968827 -0.04188145381191698
