!Created with skrf (http://scikit-rf.org).
# Hz S RI R 50.0 
!freq ReS11 ImS11
400000000.0 -0.1733851712526473 0.497891734875462
420000000.0 -0.12731700749832495 0.44282785145236825
440000000.0 -0.18245153511391085 0.32953834992538356
460000000.0 0.0029298589963606706 -0.33177840339037507
480000000.0 -0.09079196236107707 0.25802875008030274
500000000.0 -0.16968068292751456 -0.17698382243103108
520000000.0 -0.14164164758746248 -0.19605729302323482
540000000.0 -0.16432377292528694 -0.172055822826688
560000000.0 0.20021179789276364 -0.17370518977995159
580000000.0 -0.2646769085130286 -0.14740472799745313
600000000.0 0.22610015997906155 -0.20111105892245942
620000000.0 0.030637615298251694 -0.2780397846045217
640000000.0 -0.10774357565455094 0.24560405516507297
660000000.0 -0.071469579542915 0.29948138614237
680000000.0 0.24528264365891211 0.1477402346636404
700000000.0 -0.16095418691492075 -0.18154852586313966
720000000.0 0.05394766782958791 0.21818533557782657
740000000.0 0.15911445641633926 -0.0913712245735523
760000000.0 0.1376364412762508 0.15426287962984334
780000000.0 -0.16053641633424787 -0.09838931230626463
800000000.0 -0.14651488035234495 0.10240384228824065
820000000.0 -0.17225985486051437 -0.0042542903934999435
840000000.0 0.13533391655126562 -0.08852832861744717
860000000.0 0.13481466335210412 -0.10597400344393716
880000000.0 0.017847191320298637 -0.15147764091284766
900000000.0 -0.04482112449702828 -0.12188892854334654
920000000.0 0.08606938005915261 0.07759268676265937
940000000.0 0.12929556785785318 -0.015890478074008764
960000000.0 -0.020158461589108185 0.12448728371016984
980000000.0 -0.08054136455677677 0.08389276673824814
1000000000.0 -0.0055918933279283465 -0.09967960318314413
1020000000.0 0.12096384784084308 -0.01058502804076255
1040000000.0 -0.1654685593760969 -0.060717669918158496
1060000000.0 0.17379270253001025 -0.10561072276155581
1080000000.0 -0.21438745776225313 0.027371921807172538
1100000000.0 -0.18911940632770688 -0.12722128176509262
1120000000.0 0.04722725299656782 -0.23548888182251232
1140000000.0 0.013969075301248465 0.2430160691104407
1160000000.0 -0.24006539111617473 0.016615303732335763
1180000000.0 0.26937912575019385 -0.043518799085641886
1200000000.0 -0.04742775279171522 -0.27189195536329114
1220000000.0 0.11350828865277582 -0.23821123483730122
1240000000.0 0.07172061066366664 -0.24004975517995217
1260000000.0 -0.2069921326764914 -0.09867393365589644
1280000000.0 -0.22704908020738612 -0.026153586968453352
1300000000.0 -0.13235602708304156 0.17085841067075558
1320000000.0 -0.2278133648168438 -0.014654396976337268
1340000000.0 -0.2010700102055351 -0.09596131211492406
1360000000.0 0.1944682330923679 -0.08297759585913302
1380000000.0 0.1956830863008718 -0.0037679085591072526
1400000000.0 0.19222219535719173 0.041226455805111646
1420000000.0 -0.01567030794924154 0.18178838626179913
1440000000.0 0.17035902998023494 0.036039099024713084
1460000000.0 -0.1121289595404615 0.12009970670904084
1480000000.0 -0.07087334292816169 -0.13591680152085536
1500000000.0 -0.14238201471230985 -0.03619470423503643
1520000000.0 0.13843459373504932 0.05962258869030705
1540000000.0 -0.026006154303148506 0.14574047234145482
1560000000.0 0.11899993825872529 -0.06274683547656106
1580000000.0 0.11724190471148295 -0.03634985923013778
1600000000.0 0.1364627599540641 0.0114038465170523
1620000000.0 0.07652771971569043 -0.1297431728495708
1640000000.0 0.14815278522684594 -0.023278922633941244
1660000000.0 0.02716212920164735 -0.1382780608137549
1680000000.0 -0.08096115582171387 -0.11154169904876622
1700000000.0 -0.040169565889384785 -0.14042053298749851
1720000000.0 -0.15933549656425852 0.01333988732546321
1740000000.0 0.16243092554898084 0.03891217728895371
1760000000.0 -0.1555082446901046 -0.07498772051207797
1780000000.0 -0.011769113468412739 0.17447157833903537
1800000000.0 -0.17972749617370096 0.04870993329041922
1820000000.0 0.007885442678837543 0.20012515864306443
1840000000.0 0.2021589447037765 -0.04376976940958479
1860000000.0 -0.13657691291967733 -0.15936114648659952
1880000000.0 -0.055228268208544276 -0.19151262279555
1900000000.0 -0.18979184958305165 -0.024244556970334574
1920000000.0 0.08877134405793626 -0.15879961200405743
1940000000.0 -0.002823174712196237 -0.1739167049784674
1960000000.0 -0.1651197853955993 -0.021947765006389303
1980000000.0 0.14327234943374215 0.06896258836842235
2000000000.0 -0.14777487263099412 0.00392161876169739
2020000000.0 0.10255239736611084 0.087247015049545
2040000000.0 0.09439407510308041 -0.09326520816101078
2060000000.0 0.12565524669276137 -0.019258485445820716
2080000000.0 -0.12152592316455248 -0.0014001435044513264
2100000000.0 -0.026856729776321746 0.11467914115159696
2120000000.0 -0.029995595920437726 0.10754282409920402
2140000000.0 -0.0999547613800591 0.03751346641291649
2160000000.0 0.10977015318848103 0.0033920572826002197
2180000000.0 0.02903521734013588 0.10464947906834113
2200000000.0 0.06224936432972847 -0.08839618914457252
2220000000.0 -0.10515074288837237 0.021001274507140757
2240000000.0 -0.06719643009643503 0.08672808103497583
2260000000.0 0.04885311292093087 0.10254927105307607
2280000000.0 0.03988373909214293 -0.10861144247415822
2300000000.0 0.1155126182708954 0.0057727886491901505
2320000000.0 -0.03724181064650112 -0.10709097733259598
2340000000.0 0.051419341216156725 0.1068932178595965
2360000000.0 0.10178407513639179 0.0628145687684842
2380000000.0 0.12167539017044511 0.004189553266331286
2400000000.0 -0.08221857878819719 -0.09310250381412818
2420000000.0 0.08617057741098161 -0.09095395914537861
2440000000.0 0.12094097904811818 0.037225004869651725
2460000000.0 0.11367885833294353 -0.0682615562124261
2480000000.0 0.1291001888865869 0.03740569627546146
2500000000.0 0.024258454805381205 0.13439825377274722
2520000000.0 0.010731060530479614 -0.14224352508053467
2540000000.0 0.03724743037230014 0.1487771565640309
2560000000.0 0.14960137381898983 -0.052919192749684
2580000000.0 0.14734444202837982 -0.07451459048799638
2600000000.0 0.048218651695992945 -0.16689125794398918
2620000000.0 -0.048778227764159854 -0.17182859081697033
2640000000.0 -0.1603292686958817 -0.08482819330960796
2660000000.0 -0.05290527846319618 0.17109770474089728
2680000000.0 0.09162667644559916 0.14272200918939137
2700000000.0 0.09016383447491595 0.13542220928722598
2720000000.0 -0.029651191396983734 -0.15492841735070678
2740000000.0 0.14428972671534793 -0.03501640382896413
2760000000.0 0.06614763247742525 0.12150323878928924
2780000000.0 -0.03110884622496318 0.12630794999444425
2800000000.0 -0.024845470128475444 -0.12364837198023992
2820000000.0 -0.10826001514149475 0.06737073504375504
2840000000.0 0.07068517213422612 -0.11296892868570263
2860000000.0 -0.12556703418006274 0.054222759151649556
2880000000.0 -0.14499909190747062 -0.0003754231841867505
2900000000.0 0.046688262503515814 -0.1474484878396276
2920000000.0 0.14916884880938555 0.06915967622547761
2940000000.0 -0.16701794357463493 -0.04387590578785622
2960000000.0 0.1586897468074726 0.08434129461449065
2980000000.0 -0.14609095828828403 -0.11679881706901345
3000000000.0 0.1645463311094327 -0.09384048126226142
3020000000.0 -0.14542885389229718 0.11898643892254837
3040000000.0 0.12597630387029107 -0.137540592015364
3060000000.0 0.02980034350396284 0.17924705791924
3080000000.0 -0.14587655709358457 0.09912497944587789
3100000000.0 -0.1694957933628108 -0.003297250971485721
3120000000.0 -0.1097179648834704 0.11988921546329645
3140000000.0 0.15054913274859325 -0.035317533834724434
3160000000.0 -0.10541413383643942 -0.10594934440713769
3180000000.0 0.13938365618882376 0.05009527178879423
3200000000.0 -0.11900377413081502 0.09341296379948673
3220000000.0 0.14642094499696798 0.05143424227426191
3240000000.0 0.017039553448335906 -0.15961794134163756
3260000000.0 -0.05359177042772116 -0.16022986644931217
3280000000.0 -0.058924225377698675 -0.16798641516155477
3300000000.0 0.08750876416574993 -0.16544802904631153
3320000000.0 0.10313536670146015 0.16382363828603466
3340000000.0 -0.11226666815193555 -0.16643615912150983
3360000000.0 0.016245052317319434 0.2058565439132651
3380000000.0 0.09095246087639179 -0.19028652798412965
3400000000.0 -0.20845294525612149 -0.0440715817682086
3420000000.0 0.1616790484820778 0.1435513525367145
3440000000.0 -0.20247372825743312 -0.08029392662709173
3460000000.0 0.16477299622820504 0.14087631295524047
3480000000.0 -0.17129053306290543 -0.12727359488816686
3500000000.0 0.20460413916417763 -0.03998939921638629
3520000000.0 0.0069358014901384265 0.20325047968452473
3540000000.0 -0.09485778863424221 0.17065817014652213
3560000000.0 -0.09540284798812276 0.16066198907942006
3580000000.0 -0.08132371264087897 0.15953635030514704
3600000000.0 0.11556363394972723 0.13543378731828296
3620000000.0 0.1266071414867461 -0.12488393212876248
3640000000.0 0.008017649549288993 0.17943245385959608
3660000000.0 -0.022907201672159205 -0.18422844324202725
3680000000.0 -0.0760107255637983 0.1803010416874127
3700000000.0 0.16421641976185256 0.13102683385469371
3720000000.0 0.17193306829702346 0.14845630101087254
3740000000.0 -0.18264384756412333 0.1623120548936021
3760000000.0 -0.2574155812520677 -0.04603142114003914
3780000000.0 0.14930285397686524 -0.23477655561210392
3800000000.0 -0.19039440349073486 0.21587070349695925
3820000000.0 0.25283013262384607 -0.15587892265006617
3840000000.0 -0.2960818470386597 -0.043911565583695786
3860000000.0 0.21242699610826557 0.2085985546832514
3880000000.0 -0.05371795483974467 -0.28546394973191375
3900000000.0 -0.19760196725944823 0.1991374091800594
3920000000.0 0.1831819769146439 -0.1897580659524801
3940000000.0 -0.03742195104018543 0.23992474784474263
3960000000.0 -0.2181860887990991 0.02100025384908952
3980000000.0 -0.13332045250948285 0.13877620986585532
4000000000.0 0.16434041360407692 -0.020954399658863233
