!Created with skrf (http://scikit-rf.org).
# Hz S RI R 50.0 
!freq ReS11 ImS11
400000000.0 -0.22558616694933245 0.47682159345420816
420000000.0 -0.06170661862706716 0.45639135021740745
440000000.0 -0.24226964906522366 0.28888402233942817
460000000.0 -0.04184824192427507 -0.32844378275090647
480000000.0 -0.1254380076186833 0.24264137028311766
500000000.0 -0.11815933573754449 -0.21614775441760956
520000000.0 -0.09494754736632902 -0.2225145807259184
540000000.0 -0.19774715350151423 -0.12986767472144706
560000000.0 0.2610931717899201 -0.05384567905050652
580000000.0 -0.3018457587207009 0.023978088318375796
600000000.0 0.29160848586166993 -0.07815961258167625
620000000.0 0.10910932382497636 -0.2580207327283346
640000000.0 -0.08801675383067809 0.2534898464744956
660000000.0 -0.1127497951237003 0.28475588455447376
680000000.0 0.232635541446249 0.16751442775894063
700000000.0 -0.044227564932330314 -0.23830833884223307
720000000.0 0.02714285052415592 0.22198727012136607
740000000.0 0.1511242478750855 -0.10638758720085896
760000000.0 0.17297907350277192 0.11122374600601745
780000000.0 -0.11264516687258197 -0.14987685670666084
800000000.0 -0.11645245609264718 0.13526343112051256
820000000.0 -0.17017327255967857 0.04079262106914573
840000000.0 0.14005733114004137 -0.07468308207490258
860000000.0 0.14121919242884312 -0.10033978754296007
880000000.0 0.08886645967041241 -0.12173717852480917
900000000.0 -0.026363460289772787 -0.12843070487774427
920000000.0 0.09203548410698771 0.07004890660761588
940000000.0 0.12824268508822906 0.009238654216516718
960000000.0 -0.027123086468775693 0.12241513998447552
980000000.0 -0.09051343523001598 0.07348042033058198
1000000000.0 -0.04655577362136559 -0.08984903242319063
1020000000.0 0.04556019275339142 -0.11289873418377634
1040000000.0 -0.1596187199489927 -0.06945945210510271
1060000000.0 0.18681000187292476 -0.08029291457691677
1080000000.0 -0.21676454379381724 0.00803009764436447
1100000000.0 -0.20802603854305518 -0.094054202759322
1120000000.0 0.034094075035718645 -0.23790205703082806
1140000000.0 0.00446398682007628 0.24346186915498397
1160000000.0 -0.24073722312335935 -0.007193737351429157
1180000000.0 0.2678504022491831 -0.053473541596507156
1200000000.0 -0.021664058140007537 -0.2747985971374055
1220000000.0 0.14054561593446854 -0.2240826339498408
1240000000.0 0.08146170871332632 -0.2373589334399721
1260000000.0 -0.21767171611319447 -0.07149814158357919
1280000000.0 -0.22662473693972446 -0.028966922936055555
1300000000.0 -0.13166471952774064 0.17166309089401324
1320000000.0 -0.2271678909323631 0.021716617956523125
1340000000.0 -0.1842561660505371 -0.12357080850506216
1360000000.0 0.20982287356959894 0.03642786782504908
1380000000.0 0.19247160523298554 -0.03250386319720427
1400000000.0 0.19339230650497796 0.029718737761412106
1420000000.0 -0.07010864061693768 0.16831191346860125
1440000000.0 0.15967806438127682 0.07127995473370456
1460000000.0 -0.09483921884291588 0.13359949262457083
1480000000.0 -0.06133406545218751 -0.1403047357668667
1500000000.0 -0.14007506072034961 -0.043003058561582666
1520000000.0 0.14684375760379123 0.033182187517527516
1540000000.0 -0.014832838644671728 0.14740764340721063
1560000000.0 0.12388143960927155 -0.05299656644856479
1580000000.0 0.11738042781138949 -0.03688661505476534
1600000000.0 0.1359550748980056 -0.008458254857955051
1620000000.0 0.09144624993386796 -0.11938889993843438
1640000000.0 0.15054398206297348 -0.0039063342625572945
1660000000.0 0.0008813165029022364 -0.14118056721518601
1680000000.0 -0.079149518953023 -0.11305032465220904
1700000000.0 -0.039608756397333356 -0.14101825946299387
1720000000.0 -0.15509358804961593 0.039675210295751745
1740000000.0 0.1596176082738569 0.04928621074351236
1760000000.0 -0.1433241612372236 -0.09664159838830964
1780000000.0 -0.03699709756187814 0.1707306535668898
1800000000.0 -0.17721722597544096 0.05714565968461698
1820000000.0 0.022505043641366584 0.1990832832368783
1840000000.0 0.1977442606893471 -0.059836690935814014
1860000000.0 -0.12855836767718365 -0.16545488731559918
1880000000.0 -0.05709226297892745 -0.19118946454798566
1900000000.0 -0.19067642450253508 -0.016654367654297467
1920000000.0 0.09014419417443852 -0.15821435143558232
1940000000.0 -0.02661433753291136 -0.17196010393560285
1960000000.0 -0.16531687874639697 -0.022087133040798883
1980000000.0 0.1396897065770178 0.0761494132493205
2000000000.0 -0.14779253050530602 -0.002617213870851507
2020000000.0 0.08028453615028902 0.10881879683977935
2040000000.0 0.0979343363644057 -0.08977616714751502
2060000000.0 0.12690006572862642 -0.008847493631093079
2080000000.0 -0.11915452563821885 -0.021836727338352433
2100000000.0 -0.03181462372927047 0.11285265144631822
2120000000.0 -0.007975010760157764 0.11147389488806446
2140000000.0 -0.09453015838556875 0.049774083587542255
2160000000.0 0.10757891471832279 -0.0207665504694451
2180000000.0 0.02004694636354037 0.10648856292376563
2200000000.0 0.04341132703333448 -0.09905357836270609
2220000000.0 -0.10147410491809408 0.0341461492249567
2240000000.0 -0.07849231497693425 0.07702402870810847
2260000000.0 0.06730591743045401 0.0917966083142707
2280000000.0 0.017376541533040368 -0.11465569298710629
2300000000.0 0.11211275485941546 -0.027556433121720257
2320000000.0 -0.030277979342689394 -0.10932492922968629
2340000000.0 0.029900444856414535 0.11453229590616981
2360000000.0 0.09989975581142636 0.06624296286192372
2380000000.0 0.12146188385668871 -0.005270918306057398
2400000000.0 -0.07350037228665988 -0.10047601809392591
2420000000.0 0.09859966656320833 -0.07753427447288165
2440000000.0 0.12485736474756715 0.02006447362651745
2460000000.0 0.11019958706633623 -0.07361025370970496
2480000000.0 0.1264692231982621 0.04584377740368505
2500000000.0 0.019605406642189772 0.13490847022201694
2520000000.0 0.036894847814617826 -0.13795654227880974
2540000000.0 0.023505186040376887 0.15202292208702647
2560000000.0 0.15147365492028445 -0.04769130789716881
2580000000.0 0.150478813409423 -0.06773131589521236
2600000000.0 0.053967264956188296 -0.16479553641703493
2620000000.0 -0.031038296013078708 -0.17526872213727532
2640000000.0 -0.14724357140644295 -0.10581188558758887
2660000000.0 -0.0629701690300967 0.16785490855832008
2680000000.0 0.08776227446897467 0.1453330096879484
2700000000.0 0.113947589366569 0.11599375237895533
2720000000.0 -0.05984165659765096 -0.145470274160409
2740000000.0 0.14639961920071962 -0.024318437583654526
2760000000.0 0.0715611502533796 0.11879554626902661
2780000000.0 -0.04819747596426821 0.12104947565138778
2800000000.0 -0.02941047061657709 -0.12285226691165503
2820000000.0 -0.11596217036257825 0.05211462951641185
2840000000.0 0.08350718609550253 -0.10352345159954716
2860000000.0 -0.1250927697131696 0.05495452316043767
2880000000.0 -0.14501564686039076 0.0018814383440241915
2900000000.0 0.031771671406749975 -0.1510580754365763
2920000000.0 0.1496750119193087 0.06757153815768095
2940000000.0 -0.16553183225510104 -0.04864339240289223
2960000000.0 0.16426916076146836 0.07320644816834844
2980000000.0 -0.14781639229168086 -0.11404978630340801
3000000000.0 0.16587568935609226 -0.09220036074494366
3020000000.0 -0.14806743474552833 0.11633287683630487
3040000000.0 0.1330592438604277 -0.1297860766900923
3060000000.0 0.014548238173180275 0.1813510490079148
3080000000.0 -0.15035422844495772 0.09209999363707502
3100000000.0 -0.1694508619059645 -0.0009396082403489624
3120000000.0 -0.12890608449469643 0.09898809318842719
3140000000.0 0.15453188789687342 -0.0077308703782242956
3160000000.0 -0.10462518636938452 -0.10660173144766395
3180000000.0 0.13039122135822154 0.06878068347973534
3200000000.0 -0.12000357914011775 0.0915560346226354
3220000000.0 0.14291510372985636 0.05867074862245938
3240000000.0 0.002454707789888199 -0.16079484767057883
3260000000.0 -0.0474719078108963 -0.1623507567989271
3280000000.0 -0.07339273868791756 -0.16247667967920804
3300000000.0 0.09552728708796272 -0.16119023486631268
3320000000.0 0.08428514122357052 0.17446992258221003
3340000000.0 -0.09838544911789533 -0.17501018090630008
3360000000.0 -0.0058804367525406 0.20636785998379403
3380000000.0 0.11098134229776538 -0.17930847177480175
3400000000.0 -0.20229872656109363 -0.06708417694764061
3420000000.0 0.1294967083310017 0.17299119049023312
3440000000.0 -0.19165410403723532 -0.10261075039065971
3460000000.0 0.16261426466911744 0.14254560876071132
3480000000.0 -0.2009397888917169 -0.06940669301737176
3500000000.0 0.2046483439728119 -0.03698136244405131
3520000000.0 0.013954565419479767 0.2024269728769952
3540000000.0 -0.12657728961262585 0.14729903238913775
3560000000.0 -0.09661827373873487 0.1596956425949897
3580000000.0 -0.06385222827254133 0.16712019385052587
3600000000.0 0.12417894348344378 0.12773779525851897
3620000000.0 0.12061102304555925 -0.13085747969702993
3640000000.0 0.019171019937750094 0.17901913192449886
3660000000.0 -0.01106584270624909 -0.18558422325612434
3680000000.0 -0.0933145922257034 0.17232631374007026
3700000000.0 0.14218522182484303 0.15471291055644332
3720000000.0 0.15628202850375225 0.16487504232199424
3740000000.0 -0.19636784418955186 0.1446802690050011
3760000000.0 -0.24216857054593569 -0.09862163290565973
3780000000.0 0.13116463272735734 -0.2444572283418357
3800000000.0 -0.1677136613211745 0.23289884554253745
3820000000.0 0.25674162355680613 -0.14885544118000424
3840000000.0 -0.2980228809649673 -0.024234743636017932
3860000000.0 0.2456059258230782 0.16816207507307077
3880000000.0 -0.09469973115810258 -0.27419574396996765
3900000000.0 -0.16872001106353754 0.22416821910451623
3920000000.0 0.15539034395008164 -0.21347001913116595
3940000000.0 -0.03700305056828346 0.2402937608452717
3960000000.0 -0.216360750363469 0.03765949309234569
3980000000.0 -0.1395983194218211 0.1340170766729849
4000000000.0 0.1647924762496624 0.024424176814364124
