!Created with skrf (http://scikit-rf.org).
# Hz S RI R 50.0 
!freq ReS11 ImS11
400000000.0 -0.1861338391180421 0.4936729698987809
420000000.0 -0.11457055524732909 0.4469861249162921
440000000.0 -0.20873300754101706 0.3127656987596694
460000000.0 -0.029042175588783622 -0.3315630676058279
480000000.0 -0.11467115246871327 0.2476177422258263
500000000.0 -0.17086209372632818 -0.17569979603391844
520000000.0 -0.14107013879270788 -0.1964533071652366
540000000.0 -0.17564478898303104 -0.1604736256736059
560000000.0 0.21655326741275477 -0.15289550982835146
580000000.0 -0.2812060402690837 -0.11377089574074586
600000000.0 0.24700288261414002 -0.17498538032166872
620000000.0 0.06403042042073862 -0.2715016976301505
640000000.0 -0.09244939840881372 0.2521015614943223
660000000.0 -0.06352450283026154 0.3011843534655566
680000000.0 0.24431163842120915 0.14827337857434805
700000000.0 -0.1629502212001821 -0.1803787395611574
720000000.0 0.04898596112454184 0.2186678520611028
740000000.0 0.15914469794841807 -0.09149628282246823
760000000.0 0.1570852679731179 0.1353954129687237
780000000.0 -0.13116640032112964 -0.1346056013373002
800000000.0 -0.1349796458158346 0.1181438585726683
820000000.0 -0.15939384664426143 -0.0669571066712081
840000000.0 0.13448752019290428 -0.08920848417433115
860000000.0 0.16521289408757206 -0.04454149863188397
880000000.0 -0.025614115491226337 -0.1501873804717465
900000000.0 -0.03744963892164082 -0.12343369174035299
920000000.0 0.08163885614803872 0.08262125384002912
940000000.0 0.12639746858683606 -0.03098824897494937
960000000.0 -0.02965143743095988 0.12230890332623301
980000000.0 -0.06781332749349864 0.09371614465304473
1000000000.0 -0.011303689424603363 -0.0991535726402267
1020000000.0 0.11833767194312284 -0.02696940941214631
1040000000.0 -0.1629815284635054 -0.06566951401842568
1060000000.0 0.17058625371920486 -0.11114150007860839
1080000000.0 -0.21260081294138347 0.03997739273307845
1100000000.0 -0.19413585591305815 -0.12015998626741613
1120000000.0 0.012271131166009398 -0.24003917542688757
1140000000.0 -0.007964988856464234 0.24262213865488166
1160000000.0 -0.24068126729118353 -0.0068663945847596795
1180000000.0 0.26875892843613897 -0.05018511586618398
1200000000.0 -0.0581921119131444 -0.2699139162966222
1220000000.0 0.08815278508041492 -0.2485128423886343
1240000000.0 0.09348500932663285 -0.23212755569832955
1260000000.0 -0.19952464194249955 -0.11415136208874062
1280000000.0 -0.22828130606902772 -0.015320237354021361
1300000000.0 -0.11629751324914324 0.18172145679627133
1320000000.0 -0.22817827298034793 -0.013714181871202824
1340000000.0 -0.19889029756737966 -0.1003177843065539
1360000000.0 0.20670945593687126 -0.04460926159730719
1380000000.0 0.1948450868209924 -0.022370736930501147
1400000000.0 0.18747709850857494 0.05839895106391164
1420000000.0 -0.05413072203201598 0.1738613998745616
1440000000.0 0.17128347421095005 0.03234564616519267
1460000000.0 -0.1078778937151309 0.124126595993145
1480000000.0 -0.08510566990216736 -0.12728570018151417
1500000000.0 -0.1389822981572692 -0.04787524004942761
1520000000.0 0.1420450207535448 0.0512628002311534
1540000000.0 -0.0323657415252877 0.1443382386015185
1560000000.0 0.11341536255723046 -0.07238532832759946
1580000000.0 0.11949981003330011 -0.027248468899727363
1600000000.0 0.13576083850736148 0.01570772762682366
1620000000.0 0.07072895711298968 -0.13281256011283465
1640000000.0 0.14557714328975982 -0.037287853850381136
1660000000.0 0.013753036585695964 -0.1404208156913812
1680000000.0 -0.07342600860881571 -0.11708975625916779
1700000000.0 -0.007936471710706229 -0.14602778445428968
1720000000.0 -0.15835401912071662 0.0220477638644405
1740000000.0 0.16487281671293397 0.026686877451350007
1760000000.0 -0.14211546163237654 -0.0980902155011415
1780000000.0 -0.017416115835042566 0.17394178924426917
1800000000.0 -0.17639410455725948 0.059431597502750635
1820000000.0 0.05101323827510913 0.19423145439389294
1840000000.0 0.19948466122971234 -0.05502511190706179
1860000000.0 -0.1365108310971438 -0.15912297436435077
1880000000.0 -0.05114255260735712 -0.19239205473308785
1900000000.0 -0.19041764219222557 -0.016544682993475186
1920000000.0 0.08337652798012864 -0.16180911344911633
1940000000.0 -0.022622047584978874 -0.17257828777670792
1960000000.0 -0.16621189838226513 -0.013837871368958867
1980000000.0 0.14004197989030723 0.07617677665994298
2000000000.0 -0.14793637767766438 -0.006237090101555372
2020000000.0 0.09588891461176623 0.09488448654766454
2040000000.0 0.09601213225034562 -0.09144653180296877
2060000000.0 0.1269569440633134 -0.006092872214379088
2080000000.0 -0.12074128288523436 0.013751378131703301
2100000000.0 -0.022142482527995718 0.11550320676287552
2120000000.0 -0.025794427953965506 0.10860414357793703
2140000000.0 -0.09986514461899115 0.037403774675237735
2160000000.0 0.10963648286499819 -0.0038772752530328446
2180000000.0 0.024148076045913198 0.10590211866970325
2200000000.0 0.051313559988672604 -0.09502092761819607
2220000000.0 -0.10315233905612797 0.029024445167400662
2240000000.0 -0.06071258582426515 0.09137419435557488
2260000000.0 0.05593111976930659 0.0990373952044369
2280000000.0 0.03854269411460244 -0.1092171543379524
2300000000.0 0.11570276223545126 0.0022316239655094214
2320000000.0 -0.031605398975844336 -0.10899314950672102
2340000000.0 0.04270074326245524 0.11070161943465372
2360000000.0 0.1054869600277209 0.05660459787104634
2380000000.0 0.12078245652059899 0.014193850878018385
2400000000.0 -0.07694385057260528 -0.09765686731713735
2420000000.0 0.09307854489736837 -0.08378390518698209
2440000000.0 0.12086549012718742 0.037321458252440785
2460000000.0 0.11483941749688903 -0.06643798700080532
2480000000.0 0.13003829257268743 0.03436653446381184
2500000000.0 0.021832733439717644 0.1347908177572183
2520000000.0 -0.0005624414634845777 -0.14289231442106348
2540000000.0 0.020359853719083054 0.15195345803862154
2560000000.0 0.1530453432712059 -0.04212312676821287
2580000000.0 0.15306070730316884 -0.06185589431017376
2600000000.0 0.06401933933391088 -0.16152321346739662
2620000000.0 -0.03595128580407266 -0.17484707718939477
2640000000.0 -0.15526827298099297 -0.09337738490320178
2660000000.0 -0.04991480567369631 0.17178466344024546
2680000000.0 0.10069398733101138 0.1359760583537983
2700000000.0 0.10470060230374469 0.12442988418971744
2720000000.0 -0.031917274529634485 -0.1545606663481387
2740000000.0 0.14250953770483554 -0.041555542050234665
2760000000.0 0.09578043483453999 0.10010783607714957
2780000000.0 -0.03744992820733257 0.12477547474781489
2800000000.0 -0.03424419693315551 -0.12150454679926592
2820000000.0 -0.11805495537079662 0.04790341342255537
2840000000.0 0.08157554682940887 -0.10520910584951555
2860000000.0 -0.12661172299910992 0.05186043637344045
2880000000.0 -0.144391659182874 -0.013505773625130814
2900000000.0 0.04180379790128755 -0.14849077254932128
2920000000.0 0.14497847623570456 0.07716892997732246
2940000000.0 -0.1665420435230482 -0.04483100632855393
2960000000.0 0.16314596426010727 0.07536380078775347
2980000000.0 -0.1587295700042418 -0.09896855418250673
3000000000.0 0.169185125500822 -0.08562169538399814
3020000000.0 -0.15236899212264815 0.11052642655643569
3040000000.0 0.11940141706355845 -0.1425597829189728
3060000000.0 0.049075670356018765 0.17506525078263283
3080000000.0 -0.13543487788726624 0.11315543714998914
3100000000.0 -0.16148994167411937 -0.05413085645957417
3120000000.0 -0.10077950165352904 0.12756174466849887
3140000000.0 0.1485156819826763 -0.043385843086725835
3160000000.0 -0.11816460753780483 -0.0917014014466491
3180000000.0 0.13582694164918616 0.05865900321181521
3200000000.0 -0.11896052106809127 0.09315555222549617
3220000000.0 0.136053239342332 0.0732988745122589
3240000000.0 0.005667421704495044 -0.160690420197168
3260000000.0 -0.048326309148235456 -0.16196771851528546
3280000000.0 -0.07056227458590429 -0.16348375933039166
3300000000.0 0.08401667962807242 -0.16709905291731253
3320000000.0 0.10442995899006564 0.16317824735624978
3340000000.0 -0.11822596770807953 -0.16233047166033196
3360000000.0 0.020368756262846687 0.20554856538940702
3380000000.0 0.07820564258298189 -0.19586884751798594
3400000000.0 -0.2067557720811978 -0.05368077740623649
3420000000.0 0.15397909998125228 0.15242753748932952
3440000000.0 -0.20123377835806763 -0.08300301253206904
3460000000.0 0.1593738276127097 0.14692791333686403
3480000000.0 -0.20614706897759827 -0.053313261482746975
3500000000.0 0.20725105975766384 -0.02183028336167337
3520000000.0 0.031797809510096066 0.200806727604191
3540000000.0 -0.12885063676371036 0.14565629289748616
3560000000.0 -0.09582998351507949 0.16001883216993254
3580000000.0 -0.06201866933040965 0.16823705761603158
3600000000.0 0.1250568660750932 0.12688212305035151
3620000000.0 0.11986228819410277 -0.13158874400582815
3640000000.0 0.00623329127086782 0.17965725927567017
3660000000.0 -0.01978657037820432 -0.1847100878939332
3680000000.0 -0.0879343134756184 0.17505215059111517
3700000000.0 0.15191610128963773 0.1448382990693412
3720000000.0 0.16662732093380236 0.15453321142807486
3740000000.0 -0.1875262686497862 0.15651205812615818
3760000000.0 -0.25488008465032375 -0.05846750539584878
3780000000.0 0.12142817551643169 -0.24990632962673168
3800000000.0 -0.17825019565695083 0.2256864215060712
3820000000.0 0.25458754038510595 -0.1530979706920633
3840000000.0 -0.29831697246717137 -0.023684247240536183
3860000000.0 0.2519273821462105 0.15852617300408983
3880000000.0 -0.09534871541688716 -0.274172183749382
3900000000.0 -0.1834338434123867 0.21197492931999362
3920000000.0 0.1775451899618904 -0.19523516546625275
3940000000.0 -0.04198892262534923 0.23904864026461506
3960000000.0 -0.21802476906680773 0.020744741291715586
3980000000.0 -0.11910279499858407 0.1509522512002384
4000000000.0 0.1599266334405223 -0.043017218433186656
