!Created with skrf (http://scikit-rf.org).
# Hz S RI R 50.0 
!freq ReS11 ImS11
400000000.0 -0.18007099655746062 0.49551563323125647
420000000.0 -0.11126720297039984 0.4489694758656495
440000000.0 -0.2482569069944926 0.28163550647040564
460000000.0 0.039221320521974516 -0.3301636508647033
480000000.0 0.0529200641179596 0.2676620350716082
500000000.0 -0.14544199052671386 -0.1975219977532062
520000000.0 -0.12018637870468828 -0.21088265189655162
540000000.0 -0.21152299467536997 -0.10770863064766042
560000000.0 0.22649410471671666 -0.13876245143019955
580000000.0 -0.28264388823463354 -0.11197879168259971
600000000.0 0.21654550676670814 -0.211560056226544
620000000.0 0.08538933222979772 -0.26613520429765064
640000000.0 -0.07999896838389162 0.2558882462519339
660000000.0 -0.06509503132190464 0.30043311966764874
680000000.0 0.23973242295107966 0.15455578182733729
700000000.0 -0.20112361346422133 -0.13738415220698955
720000000.0 -0.013329566586498287 0.22337996842969168
740000000.0 -0.03439451120006008 -0.18063148574558346
760000000.0 0.019823656019933425 0.20561710565887484
780000000.0 -0.18944013510358526 -0.02341712676060636
800000000.0 -0.15111772019918643 0.08851085080550375
820000000.0 -0.1405429096349055 -0.10195363732962806
840000000.0 0.11720416698153294 -0.11189138490675009
860000000.0 0.12058093874400065 -0.12230309111325557
880000000.0 0.10434296653279851 -0.10745819018964692
900000000.0 -0.03355922931802564 -0.12738219861991648
920000000.0 0.1079591880024987 -0.04039465355980948
940000000.0 0.12576261002072772 0.03093646598903224
960000000.0 -0.05480988223498644 0.11347270997310796
980000000.0 -0.10222419301760799 0.05512572258101652
1000000000.0 -0.029720469445099533 -0.09533344738997485
1020000000.0 0.03155494272622324 -0.11682403635519127
1040000000.0 -0.1605943544859346 -0.07245667133349559
1060000000.0 0.18122367019048422 -0.09130567552450133
1080000000.0 -0.20984756002983723 0.054776050677967515
1100000000.0 -0.1845617984836387 -0.1342398079571883
1120000000.0 0.03435773232971554 -0.2381267758964511
1140000000.0 -0.0042144370908587 0.24324787116313332
1160000000.0 -0.24029393923427445 0.006727400575045611
1180000000.0 0.27076241184970595 -0.03550451532161622
1200000000.0 -0.036166111409098485 -0.2737056632964833
1220000000.0 0.11897271844170947 -0.23542255660116498
1240000000.0 0.09945894097234872 -0.2302833444828199
1260000000.0 -0.21093077278619074 -0.08822886734133843
1280000000.0 -0.22361058347400892 -0.046180138729390655
1300000000.0 -0.1290416151429807 0.17382432241519036
1320000000.0 -0.22775887128020458 0.02090319664909709
1340000000.0 -0.20360146185644476 -0.08810317844192313
1360000000.0 0.21190393356719325 -0.005021363128177364
1380000000.0 0.1949666638697446 -0.02399458768168257
1400000000.0 0.19344140841019916 0.030388483108528153
1420000000.0 -0.06021966396854544 0.17169692871396205
1440000000.0 0.17314267220437232 0.020919416781161434
1460000000.0 -0.09532767485612594 0.13311211567611436
1480000000.0 -0.00824548798002829 -0.1534442665587607
1500000000.0 -0.14112329049188269 -0.04099495976718204
1520000000.0 0.14704974781385327 0.03477836958850995
1540000000.0 -0.021809352297086273 0.14639112914935987
1560000000.0 0.11607622641155257 -0.06892647368868772
1580000000.0 0.11807420203061957 -0.034705227992989224
1600000000.0 0.13586348085281194 -0.013914309208007642
1620000000.0 0.08751623711449352 -0.12282468927526899
1640000000.0 0.1453759052713438 -0.03880471281350672
1660000000.0 0.0022346542772871576 -0.1409102737385366
1680000000.0 -0.07577610860658673 -0.11523565382126016
1700000000.0 0.0002472810734332653 -0.14592992763831988
1720000000.0 -0.15734388885600115 0.027638655118829427
1740000000.0 0.15829719765982694 0.05353130295789138
1760000000.0 -0.15542469999025735 -0.07470223962499324
1780000000.0 -0.01053305439871512 0.17425185272254673
1800000000.0 -0.17882286649394544 0.051574243337974196
1820000000.0 0.023322765361144443 0.19885393683077507
1840000000.0 0.1975285556007179 -0.061939534730638256
1860000000.0 -0.12609977156682825 -0.16770612365137175
1880000000.0 -0.07265485174040327 -0.18565838102688076
1900000000.0 -0.18942982272047104 -0.02558420298734603
1920000000.0 0.08811099727096551 -0.15957970615474976
1940000000.0 -0.010953190350092765 -0.173668822619616
1960000000.0 -0.1636558132159742 -0.030538658287023953
1980000000.0 0.14600510136651346 0.06327648569864565
2000000000.0 -0.14796208951809356 0.0018524145580133189
2020000000.0 0.09435960653973723 0.09668649792693536
2040000000.0 0.099477089089568 -0.08787868705188147
2060000000.0 0.1271144581854061 0.00220044733624012
2080000000.0 -0.11746778177702126 0.02968783452161277
2100000000.0 -0.02274230707493515 0.11530051065750208
2120000000.0 -0.016838071435989713 0.11036457091042189
2140000000.0 -0.099429584286403 0.03913661042703609
2160000000.0 0.1088775169109936 -0.011735605754810759
2180000000.0 0.01183962866764364 0.10779578174331782
2200000000.0 0.06259171850837457 -0.0883495650597504
2220000000.0 -0.10492778781113783 0.022604804848697358
2240000000.0 -0.08031253996353811 0.07497274611057475
2260000000.0 0.05114441236402493 0.10126970953249306
2280000000.0 0.03910365211383639 -0.10917000147163809
2300000000.0 0.11502627192796079 -0.010639853256500582
2320000000.0 -0.025566459930754046 -0.11040602212026855
2340000000.0 0.04640840475798477 0.10918049819146333
2360000000.0 0.10421130360811007 0.05853976520519468
2380000000.0 0.12116285539322116 -0.008245776838823089
2400000000.0 -0.08182472279400588 -0.09332810496896005
2420000000.0 0.0790996759836627 -0.09698196460510829
2440000000.0 0.12595622805450882 0.01604544002058838
2460000000.0 0.10989681929475266 -0.07426857961898953
2480000000.0 0.13143166120806182 0.028285297447572383
2500000000.0 0.0013275898229919568 0.13639921867235738
2520000000.0 0.00771072169631272 -0.14252162504220262
2540000000.0 0.031177656194236396 0.1504448227122913
2560000000.0 0.15344166308055962 -0.040879942686262875
2580000000.0 0.14874764196850038 -0.07142448230999071
2600000000.0 0.05659898598967795 -0.1640461072486118
2620000000.0 -0.04793245932716706 -0.17161759902517598
2640000000.0 -0.15806971433252812 -0.08857016351602258
2660000000.0 -0.04616573034219449 0.1727941746552984
2680000000.0 0.10835882767666255 0.13035226175969578
2700000000.0 0.12321371719338713 0.10590674357528831
2720000000.0 -0.05956640704942868 -0.14582398936171778
2740000000.0 0.14864373325194222 -0.004348978738486719
2760000000.0 0.08352334094027329 0.11069728859038289
2780000000.0 -0.045320387624443285 0.12214503721890697
2800000000.0 -0.03704149542159485 -0.12059465271954653
2820000000.0 -0.11347429915448262 0.0576989206815511
2840000000.0 0.09671937998167633 -0.09041760424236792
2860000000.0 -0.12517739311524242 0.05472052632361022
2880000000.0 -0.144878110814995 0.0018171678279589926
2900000000.0 0.03486838856499087 -0.15016324143003473
2920000000.0 0.15346751707403497 0.05889217996406154
2940000000.0 -0.16835772899123022 -0.03751945953630274
2960000000.0 0.16458547966122192 0.0724091347900239
2980000000.0 -0.16065116429456985 -0.09579325198639241
3000000000.0 0.162242656239814 -0.09856025214353967
3020000000.0 -0.142747170389886 0.1227340929314376
3040000000.0 0.11935560777297115 -0.14299386914970905
3060000000.0 0.03899233908137706 0.17763220218614437
3080000000.0 -0.15043454418729854 0.09219452704327225
3100000000.0 -0.15982740192130251 -0.05810217227237149
3120000000.0 -0.11558811455461403 0.11401970987975509
3140000000.0 0.15243976327842787 -0.025600070663109608
3160000000.0 -0.10942121038064696 -0.1016343585211342
3180000000.0 0.13555722381402058 0.058439399012820234
3200000000.0 -0.11052677118067598 0.10274369442964612
3220000000.0 0.1522647435268821 0.029747960153094884
3240000000.0 -0.0032980919234601273 -0.16032047835855748
3260000000.0 -0.05574914145010132 -0.15968394784094236
3280000000.0 -0.0646648856726796 -0.16611186084810622
3300000000.0 0.08900559613766149 -0.16520914776753115
3320000000.0 0.0925661909723089 0.17029910649253457
3340000000.0 -0.1008510272068225 -0.17401741073117644
3360000000.0 -0.0016134279576864453 0.20665014286622627
3380000000.0 0.10734524504896822 -0.18166476561321063
3400000000.0 -0.20822999412239077 -0.0446506040979781
3420000000.0 0.15999618889137385 0.1446384969094067
3440000000.0 -0.18029430995332632 -0.12299135312649326
3460000000.0 0.20200066637551564 0.0766320747306794
3480000000.0 -0.19983821253176134 -0.07362700752128881
3500000000.0 0.1981296693053324 -0.06393427391381831
3520000000.0 0.040842851462226576 0.1990975872616672
3540000000.0 -0.12253384024725641 0.15134438970948358
3560000000.0 -0.08683354116230596 0.16543279447371934
3580000000.0 -0.061329922997419885 0.1686628452499024
3600000000.0 0.1225751827410308 0.12962189719247735
3620000000.0 0.12089884777711321 -0.130618368007353
3640000000.0 0.011487608557681057 0.1795377405199372
3660000000.0 -0.021584444981393447 -0.18429876329330014
3680000000.0 -0.09115857472040349 0.17303875219393
3700000000.0 0.1504356578760439 0.146707704128692
3720000000.0 0.16945030708831332 0.1509713631339658
3740000000.0 -0.20439751015657023 0.13392875672196752
3760000000.0 -0.2598650410715521 -0.025374102071096836
3780000000.0 0.15929591215892747 -0.22810947355288433
3800000000.0 -0.18030090892721656 0.22405401318437768
3820000000.0 0.2503943116051025 -0.15943374707416
3840000000.0 -0.2984095000308356 -0.023830171959331504
3860000000.0 0.25019882947022254 0.1617642684278382
3880000000.0 -0.09383435153630484 -0.2751343320759975
3900000000.0 -0.184686597221857 0.21164712534394997
3920000000.0 0.16762670908484867 -0.20419193733654042
3940000000.0 -0.06520074113557717 0.23407918873979
3960000000.0 -0.21942619163499608 -0.00034247106035085415
3980000000.0 -0.13479406298630606 0.13825592481791876
4000000000.0 0.1642727861796772 0.02357160748255739
