!Created with skrf (http://scikit-rf.org).
# Hz S RI R 50.0 
!freq ReS11 ImS11
400000000.0 -0.18938454411451403 0.49301537652996824
420000000.0 -0.08701180175084933 0.45363993269083686
440000000.0 -0.20361649022235237 0.3137592806761459
460000000.0 -0.12873932446095723 -0.30585989997550966
480000000.0 -0.14627103116683524 0.23196641073229243
500000000.0 -0.14325367078738555 -0.19850991586784847
520000000.0 -0.0692877064764954 -0.23131856239082607
540000000.0 -0.19966417002250142 -0.1287945435344925
560000000.0 0.21181110808824394 -0.15980596096652427
580000000.0 -0.29997756307254175 -0.04611806981213133
600000000.0 0.24862865064786704 -0.1727881769521618
620000000.0 0.11814864978953103 -0.2531606603213149
640000000.0 0.014212036195382376 0.2684486205046639
660000000.0 -0.07171802955972724 0.2978544159510705
680000000.0 0.24738255856226027 0.1453673910912652
700000000.0 -0.09888569208062012 -0.22126406945198013
720000000.0 0.022265949380362457 0.22356891272881552
740000000.0 0.15554606642402868 -0.10086525335773541
760000000.0 0.18522967793851325 0.09067824393463135
780000000.0 0.06124921556565077 -0.17802331571815017
800000000.0 0.0008232125427274768 0.18063400372689267
820000000.0 -0.16976858081493135 0.028491619291320602
840000000.0 0.15435608722655747 0.04141078048658849
860000000.0 0.17370385473624544 0.0033138936313111635
880000000.0 -0.13338340966040957 -0.07071413967252622
900000000.0 0.12356133102474608 -0.03592316685803224
920000000.0 0.09339831382247817 0.07160754779396851
940000000.0 0.12377097566462615 -0.034341394370103494
960000000.0 -0.09483759791119081 0.08249415780922803
980000000.0 -0.07771443498567966 0.08575850172341859
1000000000.0 -0.03980197038059305 -0.09237975410719743
1020000000.0 0.04742356791656236 -0.1119715640727743
1040000000.0 -0.16279344704172585 -0.06367958118499734
1060000000.0 0.18685480295565884 -0.07958875765066432
1080000000.0 -0.2150784726110797 -0.020124850575905913
1100000000.0 -0.18809517092580688 -0.13093824485551403
1120000000.0 0.045731773295596335 -0.23615189078081358
1140000000.0 0.01555511728306339 0.24222107890390143
1160000000.0 -0.23957203150740045 -0.021257978432801583
1180000000.0 0.26846331342968166 -0.052640905491718806
1200000000.0 -0.07261581003192877 -0.266174340954048
1220000000.0 0.11211668120823713 -0.2392951597173724
1240000000.0 0.13813206776539555 -0.20854557644436192
1260000000.0 -0.2203981834346251 -0.06484173333584178
1280000000.0 -0.2284996767367218 0.01688849783793735
1300000000.0 -0.13066975346126763 0.17224649994504476
1320000000.0 -0.22671726754426497 0.023981169705966376
1340000000.0 -0.176369272199524 -0.13603156028258648
1360000000.0 0.21235732853904968 0.017247638215990284
1380000000.0 0.19480087671598076 -0.00497392314509355
1400000000.0 0.19196036081164236 0.04137278041174012
1420000000.0 -0.10175892562818842 0.15169607169270222
1440000000.0 0.17025818846165386 0.041991766533736305
1460000000.0 -0.09805404287843252 0.13101930403658318
1480000000.0 -0.05136171739204195 -0.14446247335904597
1500000000.0 -0.1452142223817852 -0.021911815214522627
1520000000.0 0.1383242140062094 0.05932779784463669
1540000000.0 -0.03590583820256332 0.1435766177569352
1560000000.0 0.12875709720700082 -0.0404096831048711
1580000000.0 0.1080339314418531 -0.057793772824761946
1600000000.0 0.1360510882984371 0.002864807047861452
1620000000.0 0.09071128591336623 -0.12070058175331137
1640000000.0 0.1467771972864824 -0.034401383093192815
1660000000.0 0.0016034486904831485 -0.14068348905925382
1680000000.0 -0.08450459183733446 -0.10950085473678914
1700000000.0 -0.035591677896862586 -0.14210105266980513
1720000000.0 -0.15718401523921371 0.028770695959018034
1740000000.0 0.16655002313059128 0.012600354856277331
1760000000.0 -0.14053994759697222 -0.10020194564228922
1780000000.0 -0.0203868045320652 0.17359277073138205
1800000000.0 -0.18574886791575154 0.008085586762579443
1820000000.0 0.04590833942205968 0.195298652628688
1840000000.0 0.19923232183092604 -0.05515759212890112
1860000000.0 -0.13551503021862935 -0.15949053772189362
1880000000.0 -0.05726272434357505 -0.1908554920351439
1900000000.0 -0.19102028943021157 -0.011382370117125938
1920000000.0 0.08534594906707778 -0.16086626001753648
1940000000.0 -0.03522718874326394 -0.17072954233760437
1960000000.0 -0.16305534617124787 -0.03411337786773846
1980000000.0 0.14842431854162155 0.0566856805478808
2000000000.0 -0.14760058447082536 0.0057944237406787925
2020000000.0 0.07550806385891493 0.11259726476533272
2040000000.0 0.08778220748809501 -0.09939956461266025
2060000000.0 0.1201499878393679 -0.04093201918381847
2080000000.0 -0.12104930022921007 0.0018378210355791255
2100000000.0 -0.03403138227206103 0.11225905893354991
2120000000.0 -0.03606830864396721 0.10580614071896254
2140000000.0 -0.09997952808318931 0.038703252088194445
2160000000.0 0.10499618451911859 -0.031311513033253635
2180000000.0 0.019741872413438957 0.10646012733814285
2200000000.0 0.06205285225877238 -0.0881697370752338
2220000000.0 -0.1048558198750897 0.021342919950824265
2240000000.0 -0.08715501741888859 0.0664850626119613
2260000000.0 0.07322918680203323 0.08724159271414264
2280000000.0 0.01708375798823676 -0.1147404687353735
2300000000.0 0.11227522741209332 -0.027119775401876413
2320000000.0 -0.031421282323810584 -0.10915782394084819
2340000000.0 0.04776019208758146 0.10866619278797333
2360000000.0 0.09901358945424295 0.06762906222283394
2380000000.0 0.12213726745984838 0.0018131868234361763
2400000000.0 -0.08935542415966334 -0.08622798794075044
2420000000.0 0.0860280865104568 -0.09113300657550066
2440000000.0 0.12172040262779892 0.03493185035797926
2460000000.0 0.11162035080488933 -0.07132175236408551
2480000000.0 0.130123665785161 0.03475069637584223
2500000000.0 -0.006121263545585987 0.13594788942755637
2520000000.0 0.028728630862733164 -0.13963338856058014
2540000000.0 0.01644150821296472 0.15268965134659535
2560000000.0 0.14956209613858518 -0.053358209462435524
2580000000.0 0.1500947882459956 -0.06854414151059669
2600000000.0 0.055213421555149494 -0.16451864769110935
2620000000.0 -0.041900980553606415 -0.1732020216049196
2640000000.0 -0.15587376803856884 -0.09255319506458255
2660000000.0 -0.048751800313794884 0.17222942976791417
2680000000.0 0.10502768290541441 0.13325058309746432
2700000000.0 0.12696197921062252 0.10155082207339973
2720000000.0 -0.06206609466739188 -0.14461871220754194
2740000000.0 0.1486278373707022 0.0030049252900345236
2760000000.0 0.0532307283241657 0.1279854093267419
2780000000.0 -0.05029038948287128 0.12034372619593059
2800000000.0 -0.02773560581360113 -0.12317112299760172
2820000000.0 -0.11760253981822082 0.04861424860619906
2840000000.0 0.07722986817484762 -0.10805678468619195
2860000000.0 -0.12359525216326205 0.05800221453031514
2880000000.0 -0.14493110382298688 -0.0015169695768859725
2900000000.0 0.031715282736401604 -0.15085735634056352
2920000000.0 0.15115779198359344 0.06419873533811181
2940000000.0 -0.17006399681622963 -0.029495856417218524
2960000000.0 0.16523140957915836 0.07079741505201857
2980000000.0 -0.15307250960745358 -0.10688974970957964
3000000000.0 0.16773047943008204 -0.08986042148983991
3020000000.0 -0.14827808915968294 0.11665799342803491
3040000000.0 0.14210175969604052 -0.12087533892734345
3060000000.0 0.038536005472267626 0.1778391601789803
3080000000.0 -0.15084336297793371 0.09200121343790961
3100000000.0 -0.1691058641986326 0.013086519393823125
3120000000.0 -0.13599889582211142 0.08930834882268973
3140000000.0 0.15434746846543917 0.009333984704441503
3160000000.0 -0.09501827639984464 -0.11512368511989152
3180000000.0 0.12754321758438467 0.07395025179882053
3200000000.0 -0.12109966115403557 0.09029176764653628
3220000000.0 0.13969389870215723 0.06600968152142628
3240000000.0 -0.005520606058706264 -0.160798497890671
3260000000.0 -0.05949502038320981 -0.15865856712229046
3280000000.0 -0.0714147735681207 -0.16340153932400728
3300000000.0 0.09714552304151151 -0.15997240800879664
3320000000.0 0.08254709465534855 0.1751123647240916
3340000000.0 -0.09849833755194032 -0.17512406100818728
3360000000.0 0.004310498648566527 0.20654113741877814
3380000000.0 0.10568343966894747 -0.1822910830032246
3400000000.0 -0.20271765433643443 -0.06545849364573289
3420000000.0 0.14634603464233764 0.1587506788592868
3440000000.0 -0.19744041134497917 -0.0911302177487163
3460000000.0 0.16636934079950466 0.13840591592060972
3480000000.0 -0.19603807294555034 -0.08262530739199327
3500000000.0 0.20536170816647148 -0.03249098187610849
3520000000.0 0.013411873959755828 0.2026017901533582
3540000000.0 -0.12984859498481052 0.1444864196746898
3560000000.0 -0.0951070001572769 0.16049589980478282
3580000000.0 -0.060691708350527326 0.16841927805922277
3600000000.0 0.1267037848617745 0.12529215598413315
3620000000.0 0.11514096694673788 -0.13573612482393307
3640000000.0 0.010022458958614217 0.1796444277720341
3660000000.0 -0.023097489945859292 -0.18425430575210494
3680000000.0 -0.08464006158478724 0.17681575447340364
3700000000.0 0.14373800089681016 0.1533444628204189
3720000000.0 0.15615617969364226 0.16509471196106099
3740000000.0 -0.1816111445106641 0.16332095502533303
3760000000.0 -0.24970001097147798 -0.07786442345848896
3780000000.0 0.14863497352416374 -0.23492614920343727
3800000000.0 -0.1965463936318655 0.20964056603407344
3820000000.0 0.2644438416634664 -0.13432427312017667
3840000000.0 -0.2952012443720367 -0.04710535097147256
3860000000.0 0.22884727532196691 0.19015282705408543
3880000000.0 -0.07696590141148515 -0.2798630161040938
3900000000.0 -0.1389491004134114 0.24412374332419384
3920000000.0 0.16724151309930457 -0.20407126943123322
3940000000.0 0.022174090321024246 0.24241823576726315
3960000000.0 -0.21838769026946245 0.021376999382586432
3980000000.0 -0.13783641888970538 0.1355038523048175
4000000000.0 0.16615645316698371 -0.008157899021102226
