!Created with skrf (http://scikit-rf.org).
# Hz S RI R 50.0 
!freq ReS11 ImS11
400000000.0 -0.20073256113015223 0.4874857756161078
420000000.0 -0.20644235160700375 0.4129607441231117
440000000.0 -0.14946806028192428 0.34748008817835274
460000000.0 -0.05770451728699414 -0.32378607610967786
480000000.0 -0.23256565953462746 0.14673807477622905
500000000.0 -0.17661315404447422 -0.16852026374826945
520000000.0 -0.12343242081965124 -0.20858916866832578
540000000.0 -0.19223609628140345 -0.14065240276534524
560000000.0 0.22554885109436448 -0.13933926286353923
580000000.0 -0.30126572851354744 0.026998743462204145
600000000.0 0.2768957937908444 -0.1198201476072401
620000000.0 0.1865047431814266 -0.2083941072448894
640000000.0 -0.012135233111864187 0.2677974029176186
660000000.0 -0.07701170491519853 0.2962916131182231
680000000.0 0.23048244285803826 0.16899725295419973
700000000.0 -0.1044496737102624 -0.21907991704433769
720000000.0 -0.028299055495195548 0.22281810432148172
740000000.0 0.10663448646282474 -0.14720172838665949
760000000.0 0.20590222297635763 0.00894464334164277
780000000.0 -0.0187637286977763 -0.188353279691693
800000000.0 -0.028564659431554576 0.1762175790429844
820000000.0 -0.16436063402588383 -0.05130938285520853
840000000.0 0.13507603957043238 -0.0887123810104479
860000000.0 0.163247189751706 -0.05627890949743615
880000000.0 0.11350881314316459 -0.09915674268870123
900000000.0 0.02523317171760492 -0.12692901278683577
920000000.0 0.11182063575738634 0.03093578507995209
940000000.0 0.12808012209312938 -0.010623834380205737
960000000.0 -0.09415278297391035 0.08185066617876031
980000000.0 -0.10644608595451203 0.04548429944788373
1000000000.0 -0.07469042587975178 -0.06887666945126628
1020000000.0 0.010492002412116485 -0.11972588541689014
1040000000.0 -0.1405562391396759 -0.10444971057955497
1060000000.0 0.18473838028938655 -0.08612265514869996
1080000000.0 -0.2137670832572292 0.03164845284271444
1100000000.0 -0.1884844222667226 -0.12790039145464643
1120000000.0 0.0033912695410129603 -0.24072876769314655
1140000000.0 -0.008944772678655375 0.2428454468897159
1160000000.0 -0.23879025470633355 -0.029285621945111286
1180000000.0 0.2714523981204045 -0.03118132449582005
1200000000.0 -0.059078999961755224 -0.26985312540449624
1220000000.0 0.12971129601597864 -0.23000183588654485
1240000000.0 0.11417995898697259 -0.22222735152718537
1260000000.0 -0.20591944915284194 -0.10309949761953606
1280000000.0 -0.22859408267368886 -0.01180581437929017
1300000000.0 -0.11253379058298886 0.1849007134103005
1320000000.0 -0.22644958233930434 0.019085522479653345
1340000000.0 -0.17737569146450793 -0.13487558250474754
1360000000.0 0.21158322288786607 -0.019586787697192066
1380000000.0 0.18891804583547217 -0.050179703255432515
1400000000.0 0.18628702053447804 0.06072956056181785
1420000000.0 -0.09244147212124508 0.15741667546123905
1440000000.0 0.1683588719273706 0.045355492517129746
1460000000.0 -0.11770138414174779 0.1142355342380317
1480000000.0 -0.001969577459664299 -0.15407052774625435
1500000000.0 -0.1470543314253253 -0.0015987762895563753
1520000000.0 0.14274493164168228 0.04748178631211556
1540000000.0 -0.06087305804782633 0.13429425558076746
1560000000.0 0.12633032176241837 -0.047818171581591365
1580000000.0 0.1131420322702906 -0.048708241603787374
1600000000.0 0.13637952574865786 -0.0026039789100476118
1620000000.0 0.08741563541060643 -0.12193726917778629
1640000000.0 0.15079475468529263 0.0009386238354364389
1660000000.0 0.023639831146161264 -0.13896912638557707
1680000000.0 -0.10781251928549833 -0.08620388623911898
1700000000.0 -0.008632604543591285 -0.14606032223920576
1720000000.0 -0.14848547357567576 0.059490888096392684
1740000000.0 0.1592264220593729 0.05021994983826491
1760000000.0 -0.15079458140163637 -0.08356576415762469
1780000000.0 -0.03424277748353237 0.17185097308023445
1800000000.0 -0.18308330461855626 0.034029911036816594
1820000000.0 0.04367439493327609 0.19574328284289905
1840000000.0 0.19723544197425594 -0.06256657548789306
1860000000.0 -0.139404594648725 -0.15625913211223602
1880000000.0 -0.045981168403681896 -0.19398290740303797
1900000000.0 -0.18801895023232534 -0.03708755588253989
1920000000.0 0.08717325872377915 -0.15974796224031448
1940000000.0 -0.004112757585616435 -0.17400062849948084
1960000000.0 -0.16579031503631564 -0.012997567023642864
1980000000.0 0.1395877975410828 0.07709348177340476
2000000000.0 -0.1481246530786094 -0.008751470246699982
2020000000.0 0.09161280252334636 0.0991921735856644
2040000000.0 0.0798618695112187 -0.10618652438024553
2060000000.0 0.1265491193448031 -0.01270253419903358
2080000000.0 -0.11819206277668928 0.026858887623305076
2100000000.0 -0.04232092237609457 0.10948169559232822
2120000000.0 -0.04817278342134882 0.10096630210461735
2140000000.0 -0.10203167656299601 0.03207633603602877
2160000000.0 0.10949744905784616 -0.008173265873369678
2180000000.0 0.008722147675656577 0.10754877325324534
2200000000.0 0.062401629919263533 -0.08827644066836307
2220000000.0 -0.10561818711661995 0.014876786530045791
2240000000.0 -0.08960003988173204 0.06340371031910302
2260000000.0 0.06788363769672048 0.09096154434304637
2280000000.0 0.005990791340804721 -0.11607574056314103
2300000000.0 0.11212421475519055 -0.02860966160368153
2320000000.0 -0.033945978719504576 -0.10845686439725703
2340000000.0 0.052092941380682434 0.10650992460415598
2360000000.0 0.09552119134821192 0.07220991290424725
2380000000.0 0.12167697083515241 -0.0064907051974718
2400000000.0 -0.07786260130399189 -0.09680121613609338
2420000000.0 0.0942184411381906 -0.08291850830715247
2440000000.0 0.1222211734929509 0.03400619892357227
2460000000.0 0.11476459615395762 -0.06582295950346168
2480000000.0 0.11852198712868092 0.06288002078857986
2500000000.0 -0.0017894392036961393 0.13610148423719126
2520000000.0 0.04202607877009836 -0.1358241392221884
2540000000.0 0.022745588238061845 0.1520246509477685
2560000000.0 0.14826208902245255 -0.05743239538822306
2580000000.0 0.14921241997310825 -0.0703508561986374
2600000000.0 0.04711110768969831 -0.16694008522454062
2620000000.0 -0.03381220285187241 -0.17483757654427232
2640000000.0 -0.15017173618657279 -0.10138493779395921
2660000000.0 -0.05726678327769592 0.16966190689066776
2680000000.0 0.09316344836143674 0.14154101027905824
2700000000.0 0.108277034311568 0.12103616290156277
2720000000.0 -0.057617722883900276 -0.146538021530634
2740000000.0 0.14357609479363045 -0.037281411170405315
2760000000.0 0.07714353765013143 0.11501234352645114
2780000000.0 -0.038782429213050126 0.12462772588243141
2800000000.0 -0.024691257092299523 -0.12369802048341526
2820000000.0 -0.11231775391616063 0.059637015719638954
2840000000.0 0.07970570354230942 -0.10630563032655663
2860000000.0 -0.12399617081845271 0.05929929116515795
2880000000.0 -0.1440626615848824 -0.01651532847653157
2900000000.0 0.03892550662323186 -0.14947055223682876
2920000000.0 0.14991565894810033 0.06742571481619561
2940000000.0 -0.16473072324308063 -0.0504574435722716
2960000000.0 0.1570206046165081 0.08741028559157028
2980000000.0 -0.14396591227160718 -0.11927856633546964
3000000000.0 0.17323772731032996 -0.07737245601124677
3020000000.0 -0.14552558287920048 0.11897540057123288
3040000000.0 0.13532103821484195 -0.1275522751098474
3060000000.0 0.023554735951904226 0.17999492325727384
3080000000.0 -0.14715993714262765 0.09698579123926622
3100000000.0 -0.16378939098880907 -0.04607035146178229
3120000000.0 -0.10689552619230319 0.12222568953013499
3140000000.0 0.15330322501520524 -0.020494172963602876
3160000000.0 -0.11755366372461502 -0.09216220327031101
3180000000.0 0.13220528331756362 0.06576757763967978
3200000000.0 -0.11516613414746939 0.09795375186627588
3220000000.0 0.13389969810777771 0.07691244936887662
3240000000.0 0.005217481416606022 -0.1606612442748202
3260000000.0 -0.04410497915472612 -0.16340317345471478
3280000000.0 -0.058373750082701584 -0.16839550036765652
3300000000.0 0.10407782765811197 -0.155696120104857
3320000000.0 0.08408353445834726 0.1745525901271358
3340000000.0 -0.1019473239592831 -0.17285163010997728
3360000000.0 0.006011558464064193 0.2062059887033606
3380000000.0 0.11798221535380142 -0.174853273059262
3400000000.0 -0.20325626091090118 -0.06455521953173018
3420000000.0 0.14045281903142562 0.1643562618209373
3440000000.0 -0.1934295944443792 -0.09912329337707697
3460000000.0 0.15391158228058427 0.15229869746957758
3480000000.0 -0.18740286823114916 -0.10097698782432868
3500000000.0 0.20498809744174964 -0.03584297415399606
3520000000.0 -0.017729196916849536 0.20213090213527313
3540000000.0 -0.14767247066347164 0.12619762689524378
3560000000.0 -0.10690116427827097 0.1528384402370397
3580000000.0 -0.08702588901837242 0.15612975964459833
3600000000.0 0.12751444493109854 0.1242616710532181
3620000000.0 0.11661848540983584 -0.13416507230998592
3640000000.0 0.024965704754330565 0.17806675986788978
3660000000.0 -0.019482895971924402 -0.18470431602861023
3680000000.0 -0.09047552425924861 0.17398475667132968
3700000000.0 0.15585707085045933 0.14081737820947765
3720000000.0 0.1567343698600795 0.16468245004070248
3740000000.0 -0.20001377697564204 0.14022927518025338
3760000000.0 -0.2505355174288906 -0.07465086453686051
3780000000.0 0.16586164354816318 -0.22314245031630697
3800000000.0 -0.19848052090790358 0.20786440953304205
3820000000.0 0.25663538329162117 -0.14858132468186871
3840000000.0 -0.29177950498959837 -0.06481272377597701
3860000000.0 0.23531887275134084 0.18186506223989068
3880000000.0 -0.03244647456768505 -0.2880597254892565
3900000000.0 -0.2126053000112072 0.18219193602408976
3920000000.0 0.15067775481745374 -0.2161823410044289
3940000000.0 -0.028695707720570784 0.2407243772461667
3960000000.0 -0.2146108997315406 0.041875342235167146
3980000000.0 -0.0948150524856948 0.16766345532252186
4000000000.0 0.14774942069407004 -0.07605657473145622
