!Created with skrf (http://scikit-rf.org).
# Hz S RI R 50.0 
!freq ReS11 ImS11
400000000.0 0.7006842150829365 -0.5883746335774404
420000000.0 0.860703785674709 -0.12790771096583203
440000000.0 0.4899966200322473 0.6716609572637482
460000000.0 -0.37954539667471393 -0.6976182543046449
480000000.0 -0.012785074012649751 -0.7809176310139251
500000000.0 -0.5710694869618604 0.52444648916288
520000000.0 0.6808135436149724 0.2357085955926838
540000000.0 -0.026640041741495573 -0.6874418975801804
560000000.0 -0.4495740461113089 0.47280682522512035
580000000.0 -0.1954205039092453 0.5241101554326454
600000000.0 -0.4906571780480045 0.3098682511666865
620000000.0 0.06999644083903077 0.5571101639776265
640000000.0 0.0896249803843879 -0.5367117978838001
660000000.0 -0.4452673607637733 -0.2785118702722086
680000000.0 -0.48356298380285373 -0.020074476175835278
700000000.0 0.15301500134387142 -0.4509365810607414
720000000.0 0.29535960264488315 0.37259917966866635
740000000.0 -0.46123879528102685 0.026190972097302527
760000000.0 -0.32992081925762345 -0.3075845522015516
780000000.0 -0.39382465825842483 -0.19315002459629294
800000000.0 -0.2382877920595106 0.30845670631065214
820000000.0 -0.1345381599512987 0.311130710688754
840000000.0 0.09468379905233888 -0.29754296789789375
860000000.0 0.2461248898730729 0.14438809002815228
880000000.0 -0.2518591830448842 -0.06767288561341887
900000000.0 -0.17877753566353005 -0.1621146506892173
920000000.0 0.21318455718335244 0.03266503603329764
940000000.0 -0.04402093536159359 0.19368349873841767
960000000.0 0.05347418527939388 -0.14731959370469627
980000000.0 -0.024247809494310008 0.10487644799470154
1000000000.0 -0.053498742537407745 -0.056821636317918894
1020000000.0 0.07443204832352525 0.020568396913208893
1040000000.0 0.07745979887204688 0.051212787106965384
1060000000.0 -0.1250398749958054 -0.052020672271651455
1080000000.0 -0.14716197656922642 -0.1103288189979579
1100000000.0 -0.06114458000131102 0.2182214803018216
1120000000.0 -0.11019240327299049 -0.2408934969795051
1140000000.0 -0.21820674808752238 -0.17794692049914684
1160000000.0 0.26904358257452715 0.13153740982532577
1180000000.0 0.19781221960067907 0.27050820603382764
1200000000.0 0.1511338671583568 0.3157345129151926
1220000000.0 -0.30655026702306254 0.17816902386703234
1240000000.0 -0.1644827160827853 -0.31450823738172246
1260000000.0 -0.05525703462961434 -0.3549103330135843
1280000000.0 0.3216314765572235 -0.1765070326064695
1300000000.0 -0.2299280155901145 -0.30400320781089685
1320000000.0 0.36180895919340866 -0.064154611693241
1340000000.0 -0.37771561981380436 -0.03741113177996493
1360000000.0 -0.0853862059205523 -0.3738824143047001
1380000000.0 -0.0783987238912325 0.37506045482133665
1400000000.0 0.17365503333911428 -0.35063801486601204
1420000000.0 -0.3744242989007074 -0.0860960985589335
1440000000.0 0.0011855838750026374 -0.37746920254563626
1460000000.0 -0.21569980543399644 -0.31061232734082217
1480000000.0 -0.37304975825782716 0.03834800220986996
1500000000.0 -0.37663204160380637 -0.009466728419025853
1520000000.0 0.3580730520042212 -0.11534004466166102
1540000000.0 -0.06547973437440333 0.358309369683314
1560000000.0 -0.3174012198003721 0.09858422403796835
1580000000.0 -0.1808890766172295 0.23515753937248332
1600000000.0 -0.2515445887326891 -0.031133599187226017
1620000000.0 -0.21096057233759888 -0.0441085554072355
1640000000.0 0.17915351375343655 -0.02069760775262137
1660000000.0 0.012974595468126415 0.15015740127451133
1680000000.0 -0.06313423402241872 0.09748566920520912
1700000000.0 -0.039973168215056906 -0.08831535181778677
1720000000.0 -0.017816626506733556 -0.08124675716610019
1740000000.0 -0.013833839001557881 0.06379481791486791
1760000000.0 -0.08608963676758688 0.029892530206258393
1780000000.0 -0.033704777558187946 0.0979475978847072
1800000000.0 0.10448114207144676 -0.06994516601068285
1820000000.0 0.14400969288399684 0.06422319087765166
1840000000.0 0.18108738374822125 0.035922199130656904
1860000000.0 0.13373177099188882 -0.16629987692966877
1880000000.0 -0.20007074587812304 -0.1447597897057575
1900000000.0 -0.26529315618603955 0.007595680627231976
1920000000.0 0.23983626736244018 0.1659348277351171
1940000000.0 -0.10794138654074938 -0.28257089893615583
1960000000.0 0.31265996199511203 -0.0055518834403169666
1980000000.0 -0.30287458724539407 0.09199982060751156
2000000000.0 -0.15155370799326834 -0.28537690505841445
2020000000.0 0.017198482152217583 -0.3203613303144847
2040000000.0 0.2845672598858627 -0.14790668180112918
2060000000.0 0.24312506431517047 0.21338652425477958
2080000000.0 0.2900922072649612 0.13519173140131752
2100000000.0 -0.08549319183307766 -0.30112665873934097
2120000000.0 -0.20084317419541486 0.2371635520814562
2140000000.0 0.22039179130914277 -0.22015781250167638
2160000000.0 -0.3077698122398684 -0.04145017783685392
2180000000.0 0.16937767666448184 0.2546641939404636
2200000000.0 0.19141474342980103 0.22413767894058567
2220000000.0 0.01950314129469419 0.28484096862351044
2240000000.0 -0.13836887794432454 -0.2417007706089852
2260000000.0 0.1972526949910295 0.19245590953172986
2280000000.0 -0.09847635586016376 0.2557171758217257
2300000000.0 -0.2726313229820043 -0.03747468986030698
2320000000.0 -0.2584513842110406 -0.08538191430493339
2340000000.0 -0.2318664167371077 -0.11850970058290922
2360000000.0 0.2446745064667845 -0.0748322348326729
2380000000.0 0.17403866350920372 0.19199470141676356
2400000000.0 -0.12948091807692508 0.22968137200739047
2420000000.0 -0.19769661925374982 0.20923997091361626
2440000000.0 0.3002499220689548 0.07604583628100345
2460000000.0 -0.28584119962717086 -0.18613790774241398
2480000000.0 -0.23932616191820982 0.2795758989025656
2500000000.0 0.19568748348237505 -0.35341362676374366
2520000000.0 -0.1478931295305129 0.41884133538496926
2540000000.0 -0.35268129468631 -0.3278089318796077
2560000000.0 0.47242900953996514 0.20643024096537346
2580000000.0 -0.5417298170026607 0.0903154188758927
2600000000.0 0.5203926882879938 -0.2456231961848466
2620000000.0 -0.46707189947357414 0.3729301923336101
2640000000.0 0.33650497141305874 -0.5185798091939519
2660000000.0 0.22376455474816506 0.5954410058783463
2680000000.0 -0.6302474909797583 0.13554338061363824
2700000000.0 -0.1890644917241133 -0.627574143661594
2720000000.0 0.18276484202966478 -0.6368860441707896
2740000000.0 0.26636963951167353 -0.6116826391987044
2760000000.0 0.47507825447099206 -0.4698733031919946
2780000000.0 0.4020847873299778 0.5305744047826306
2800000000.0 0.2518375578907183 0.6081584412543565
2820000000.0 -0.1789613316963555 0.6218343867700086
2840000000.0 -0.6144858022932652 -0.14900401857747303
2860000000.0 0.5713501740174246 -0.23497098332452437
2880000000.0 -0.5344024142222633 0.27015059542675696
2900000000.0 0.45741841352673623 0.34887014281176065
2920000000.0 0.36831369675362824 -0.41268611343323924
2940000000.0 -0.19037909510350828 -0.4913574767032364
2960000000.0 -0.19574739637269065 -0.4600021939218733
2980000000.0 -0.3176281036833351 -0.355500686444802
3000000000.0 -0.39557469039147775 -0.2263182809726748
3020000000.0 -0.4243197830647988 -0.08784428693664542
3040000000.0 -0.21792953276992397 0.35966109855785483
3060000000.0 0.3896686249100336 -0.09908324306997342
3080000000.0 -0.2100995402624929 -0.32492145684320195
3100000000.0 -0.16665630718332625 0.33847999505579746
3120000000.0 0.30170828302723424 -0.21973742990275005
3140000000.0 -0.14881891769215358 0.3339989940174864
3160000000.0 0.18547117307729677 -0.31286475319160983
3180000000.0 0.1422937646197888 0.3338708518890637
3200000000.0 0.0479222628181771 -0.35306375405848583
3220000000.0 -0.2865262029662992 0.1964016022814007
3240000000.0 -0.14086112306651039 0.3073205365662437
3260000000.0 0.26864449416967523 0.1813137644316868
3280000000.0 -0.025306012666660202 0.30563797590883307
3300000000.0 0.116466856753819 0.26608108185621665
3320000000.0 -0.019105823766582878 0.26311888473202005
3340000000.0 -0.007771756493880501 -0.23471146722328448
3360000000.0 -0.060133091134679725 0.2045333577311129
3380000000.0 -0.1603782704953943 -0.10586219937137036
3400000000.0 0.16481030524118617 0.04337810001771944
3420000000.0 0.011301507769438593 0.15448815631170856
3440000000.0 0.09532567050171487 0.09887915878821386
3460000000.0 -0.10013894632597911 0.048304092259633113
3480000000.0 0.10554617200138823 0.002173906031740305
3500000000.0 -0.07910883520358211 0.06600632815168228
3520000000.0 0.08558277935798368 0.03163874978506046
3540000000.0 0.04197110233787294 -0.09023806822421246
3560000000.0 -0.09931922588266444 0.035847635333831916
3580000000.0 0.10205584609439641 -0.03256523903391024
3600000000.0 0.10886471229131249 0.019309323542140534
3620000000.0 0.005022407912851898 0.12480425842513125
3640000000.0 0.0871420771322395 0.09797689330326667
3660000000.0 0.003551639147028978 0.14247570784225666
3680000000.0 0.0046577443680435975 0.1451553132075892
3700000000.0 -0.02619964205671604 0.13070552392674095
3720000000.0 0.10769636509074626 -0.046912127758470624
3740000000.0 -0.10010724306246456 -0.008800326167203264
3760000000.0 -0.00362255995060598 -0.08150464133399059
3780000000.0 -0.06075520991966046 0.013989535826479828
3800000000.0 0.033210043671157284 -0.009138619075903213
3820000000.0 -0.0011783030162681345 0.005437235757618186
3840000000.0 -0.009363884879126493 0.03610415314978553
3860000000.0 -0.0496324513107953 -0.04882573629723242
3880000000.0 -0.07964300968310695 -0.04763375947357928
3900000000.0 0.06706752498097802 -0.08694361399452936
3920000000.0 -0.08129142142842173 -0.09461900394862566
3940000000.0 -0.050623612007562144 -0.12133715340580895
3960000000.0 -0.12516360378922753 0.04590712300880071
3980000000.0 0.021797478187308254 0.12876065477505644
4000000000.0 0.09200833425651027 0.05494196477107737
