!Created with skrf (http://scikit-rf.org).
# Hz S RI R 50.0 
!freq ReS11 ImS11
400000000.0 0.7077656104302982 -0.579592612944542
420000000.0 0.8527945888605236 -0.17719833665163243
440000000.0 0.4853515490068074 0.6744604294330532
460000000.0 -0.44261310792800657 -0.6594632179024543
480000000.0 0.03240398194171169 -0.7781873521784767
500000000.0 -0.6308942866131737 0.44973425815506834
520000000.0 0.6915501396809286 0.20386409803727498
540000000.0 -0.20369881710581983 -0.6581228201620305
560000000.0 -0.355197613196704 0.5435754062811594
580000000.0 -0.48848174015642565 0.2700150367773431
600000000.0 -0.28240065988156265 0.5042330960994396
620000000.0 0.00887114961115598 0.5630081251225234
640000000.0 -0.006380086550750128 -0.5435422207973367
660000000.0 -0.3484071355688647 -0.38811088759976625
680000000.0 -0.483538420494845 0.05093104897887595
700000000.0 0.34566196384305087 -0.3247612558146746
720000000.0 0.36899737722676007 0.3033347134079753
740000000.0 -0.43856094502287907 -0.14212812750268058
760000000.0 -0.44150913023770105 -0.10124626928393868
780000000.0 -0.4012313565823585 -0.16594112307562453
800000000.0 -0.39063267203608487 0.009775350812666232
820000000.0 -0.24179722347198937 0.2366922483073984
840000000.0 -0.01010717071575697 -0.31621711303809835
860000000.0 0.23487328440597197 -0.14936302522062123
880000000.0 -0.23681461457989375 -0.10429184023364028
900000000.0 0.04054267645123009 -0.24165013132972332
920000000.0 0.09227563670952009 0.20175264338491314
940000000.0 0.1856476923500795 -0.07656371523832525
960000000.0 -0.024988775976057954 -0.14592750683861336
980000000.0 0.006077638137190488 -0.10667329706456424
1000000000.0 0.03737328563251216 -0.070859323040727
1020000000.0 0.02193586252029053 0.07758554107350414
1040000000.0 0.02828716456200639 -0.09148780980787437
1060000000.0 -0.13452680617662188 -0.0032137401172765184
1080000000.0 -0.18017850719299766 0.04114518604392307
1100000000.0 -0.14117476037108542 0.17000870012368005
1120000000.0 0.19951942734456746 -0.18058465297865064
1140000000.0 -0.27692027359510457 -0.04750665717668624
1160000000.0 0.29416696165818124 0.06360940448966332
1180000000.0 0.2814779147861972 0.17300068398691962
1200000000.0 -0.1316432636785983 0.32556803348281105
1220000000.0 -0.2987263598644147 0.1917143910196208
1240000000.0 -0.26718037390762156 -0.23745257399874767
1260000000.0 -0.2496222015232486 -0.2534129245367596
1280000000.0 0.35191576739010755 0.09356984784333916
1300000000.0 -0.022521868160147233 -0.3821966748935784
1320000000.0 0.33964427302851824 -0.1454982194245057
1340000000.0 -0.3747135371528693 0.04275991807229842
1360000000.0 -0.028507870704502634 -0.3818910239278963
1380000000.0 -0.2185652236227879 0.31522639031774985
1400000000.0 0.17338914067379554 -0.35072689302435933
1420000000.0 -0.3838454703602547 -0.019748687870285896
1440000000.0 -0.031852440798073214 -0.375167150852696
1460000000.0 -0.1176186116624745 -0.3581049480793447
1480000000.0 -0.3720942760380794 0.0560604456979074
1500000000.0 -0.3720449512573956 0.0656987000312347
1520000000.0 0.3261511822800927 -0.1873273824895048
1540000000.0 -0.17172374426067588 0.3190212176575504
1560000000.0 -0.33221687919052595 0.04583950570867235
1580000000.0 -0.18182071842809422 0.2351259121585474
1600000000.0 -0.2363587879530674 0.09337792406934763
1620000000.0 -0.18988090459950488 -0.09672405372459314
1640000000.0 0.12919179219078136 0.12750975079808521
1660000000.0 0.078371784566563 0.1274271257187467
1680000000.0 0.1034167484345039 0.05204389950648477
1700000000.0 -0.06329340213256607 -0.07105421263146595
1720000000.0 0.059364822924348574 -0.05943340837297567
1740000000.0 0.0396557341434457 0.05307685953666912
1760000000.0 -0.03093379303022648 0.08618769345811127
1780000000.0 -0.05051617269576892 0.08748328487802172
1800000000.0 0.11919373267312917 -0.04466723000088349
1820000000.0 0.15459003484508563 -0.026008825134167118
1840000000.0 0.1820578613535021 0.03486582863395134
1860000000.0 0.15390020777148178 -0.1469463362443498
1880000000.0 -0.20868696782163942 -0.13421722956944954
1900000000.0 -0.26451642865033503 -0.017429613550533102
1920000000.0 0.2361093036283371 0.17334583062018705
1940000000.0 -0.14158500187974732 -0.26797917800695537
1960000000.0 0.3030433400590988 0.07517995131632282
1980000000.0 -0.29278361931010016 0.12044776985740684
2000000000.0 -0.08562495012550672 -0.31170467755375064
2020000000.0 -0.027460289613069656 -0.3190736884339067
2040000000.0 0.30176841924644476 -0.10738588318363054
2060000000.0 0.24296220645367944 0.21407798045265994
2080000000.0 0.3027779826733943 0.10209447728857014
2100000000.0 -0.032071246323451416 -0.31117214646108954
2120000000.0 -0.21293873863801613 0.22665058008417907
2140000000.0 0.21034423289498044 -0.22967092107313528
2160000000.0 -0.3058599299821056 0.05194715802608401
2180000000.0 0.06614288499030804 0.2990670145886496
2200000000.0 0.234972328151235 0.17796865982998433
2220000000.0 -0.05017933532487007 0.2808226217720227
2240000000.0 -0.2288689440515147 -0.15978179127819372
2260000000.0 0.1402161435512779 0.23714020536346045
2280000000.0 0.049109101402570014 0.26809330972535855
2300000000.0 -0.21125932353818544 -0.1759296167625723
2320000000.0 -0.2729312173586699 -0.020394313995602237
2340000000.0 -0.21359860953920135 -0.14932721592415016
2360000000.0 0.19284769599064866 -0.16472570313725526
2380000000.0 0.03390722777152699 0.2563778433477023
2400000000.0 0.07706922518160578 0.2549702308272703
2420000000.0 -0.2148021272288567 0.1903724834445258
2440000000.0 0.31076707784011115 0.013841576980668888
2460000000.0 -0.19727143732308555 -0.2778523156705352
2480000000.0 -0.14426878054245357 0.33970239751646325
2500000000.0 0.2766182184162554 -0.2929534383359152
2520000000.0 -0.02895937951341408 0.44478577798039437
2540000000.0 -0.28650039228384067 -0.3856107808669524
2560000000.0 0.4858914270109026 0.174442032524408
2580000000.0 -0.5467363045174439 0.04038366999278222
2600000000.0 0.4873609078765009 -0.30807128026637703
2620000000.0 -0.45664726083681456 0.38355253719261095
2640000000.0 0.34761440778914293 -0.5119559013663556
2660000000.0 0.2544419802251541 0.5826071543849196
2680000000.0 -0.6344126321456409 0.11409810858989582
2700000000.0 -0.19831570716204097 -0.6245710775643489
2720000000.0 0.25362328137215484 -0.6128384052976139
2740000000.0 0.296510278960541 -0.5975867942844015
2760000000.0 0.44997987419260876 -0.49377494722699267
2780000000.0 0.39894711236794056 0.5325416182184005
2800000000.0 0.2654307805276748 0.60184439218741
2820000000.0 -0.17395808455624473 0.6232865761557187
2840000000.0 -0.6216662924179275 -0.11658543339578445
2860000000.0 0.5430982191325375 -0.2948922851063554
2880000000.0 -0.5357272128573769 0.2673686201946531
2900000000.0 0.4535647390477388 0.35395121421396253
2920000000.0 0.3068293750699882 -0.46061259265162713
2940000000.0 -0.13737740040714205 -0.5089358419452422
2960000000.0 -0.2067329208267843 -0.4550954204751806
2980000000.0 -0.32007144950386973 -0.3528501284990145
3000000000.0 -0.4005554081395338 -0.21649783002222805
3020000000.0 -0.43214499437801607 -0.010092814969993173
3040000000.0 -0.24011310403009659 0.34545536621925493
3060000000.0 0.38246411073941705 -0.11856469709030655
3080000000.0 -0.18543477554442156 -0.34008082390178124
3100000000.0 0.043965836025317825 0.3732418972441809
3120000000.0 0.31552516443553186 -0.19986670240350163
3140000000.0 -0.037394274759902826 0.3631534798158334
3160000000.0 0.11706367626902897 -0.3465490049035982
3180000000.0 0.15850820410672326 0.3264409414450864
3200000000.0 0.04832578005788439 -0.3521976169932075
3220000000.0 -0.2522177169513318 0.24013436643128425
3240000000.0 -0.1906962007642133 0.28051709140481784
3260000000.0 0.30748184409947016 0.09631012513351139
3280000000.0 -0.06194651647778273 0.2996187518764215
3300000000.0 0.14671715928103632 0.24983297966252574
3320000000.0 -0.09062061689176643 0.24712167195514667
3340000000.0 -0.014198627602244314 -0.23417912123061138
3360000000.0 0.03824070230422566 0.20810492183982265
3380000000.0 -0.1836900024428685 -0.05779559385757951
3400000000.0 0.14654112989466617 0.0850121777415619
3420000000.0 0.0759548991152736 0.13631902565096207
3440000000.0 0.09339354138480134 0.1003422197029817
3460000000.0 -0.04675457506310135 0.10158371468517434
3480000000.0 0.09775595454736272 0.03829540419376367
3500000000.0 -0.09917386594892634 0.03362893293138557
3520000000.0 0.062311986931029795 0.0667458954118182
3540000000.0 0.09768851366712455 -0.02438693677022595
3560000000.0 -0.10516363769064449 -0.0018622242839285684
3580000000.0 0.10542486218898317 0.017744166757356513
3600000000.0 0.09141018093461675 0.06049056621669751
3620000000.0 -0.06366583191181698 0.10922958750662261
3640000000.0 0.09365343190091127 0.09154567804248032
3660000000.0 -0.07465399134264797 0.11973074065067812
3680000000.0 0.026712475641236473 0.1434763608603609
3700000000.0 -0.07376069213260952 0.11197842858228436
3720000000.0 0.02114056039959512 -0.11568803165996523
3740000000.0 -0.07951648535047093 -0.060447499722087135
3760000000.0 -0.07999101432500212 0.01668829889081053
3780000000.0 -0.06113576841333391 -0.013730801883280887
3800000000.0 0.006652272571902512 0.0347133099524686
3820000000.0 0.002184636303413428 -0.00541570840245231
3840000000.0 -0.0015198183601602244 -0.037176723838336756
3860000000.0 -0.06238638019671329 -0.03415120963281773
3880000000.0 0.0024867783212739213 -0.09271141876079715
3900000000.0 0.03445169222990764 -0.10551911273317172
3920000000.0 0.018715585944837253 -0.12224155831951194
3940000000.0 -0.04308387128254104 -0.12498252319625001
3960000000.0 -0.13310891835304767 -0.0011533553470344114
3980000000.0 0.041947657696441376 0.12210782339308625
4000000000.0 0.03121473117684357 0.10087664655734979
