!Created with skrf (http://scikit-rf.org).
# Hz S RI R 50.0 
!freq ReS11 ImS11
400000000.0 -0.710815185633328 0.12384251368998664
406500000.0 -0.3419196412652519 -0.6148702649664025
413000000.0 0.678079280860585 0.05469941194686176
419500000.0 -0.6470772693703809 0.17763840404354359
426000000.0 0.3789499307608853 0.5390974892422374
432500000.0 -0.6002357270850478 -0.2519466198643456
439000000.0 0.5650807994154778 -0.29562018207594304
445500000.0 -0.497429058024415 0.3829734660656753
452000000.0 0.13355755549853857 -0.602990735502835
458500000.0 0.2643201157872276 0.5575061291817727
465000000.0 -0.6164418203431902 0.02447442261786943
471500000.0 -0.4258567671878617 -0.4415082222159086
478000000.0 -0.1547038737423794 -0.5866681330928097
484500000.0 0.23321832231445067 -0.5508961729752606
491000000.0 0.09065452704615685 -0.5804366925018402
497500000.0 -0.33703481040053945 -0.4572598214575427
504000000.0 -0.35612371335706405 0.39922245441758736
510500000.0 0.11434135611614163 0.48597777957580135
517000000.0 0.4509639705871374 -0.04187679800490407
523500000.0 0.2719891918451885 0.321389403078529
530000000.0 -0.0010802898975182987 0.385340585303745
536500000.0 0.26251747293174393 0.23076830784134336
543000000.0 0.07973982009089274 0.3281857066675229
549500000.0 0.133401748119957 0.29164298434638175
556000000.0 0.29779269373713135 0.011370243047160538
562500000.0 -0.10135384335571809 0.265399924422454
569000000.0 0.24819526706038364 0.11754599853083793
575500000.0 -0.2621963063331631 0.04775824202771831
582000000.0 0.15811951460681348 0.21660476718458505
588500000.0 0.040591505848955343 0.27433932802231353
595000000.0 0.025155082977127277 -0.29556280086547515
601500000.0 -0.22809218649565166 -0.19506312106410847
608000000.0 -0.1418921139295909 -0.26298442573113384
614500000.0 -0.26392172942487174 -0.1417303602941507
621000000.0 -0.2306131604429712 -0.18588686122852982
627500000.0 0.2879985135035728 0.035906427288022603
634000000.0 -0.20154411833783786 0.22085130594278032
640500000.0 -0.28129492022711144 -0.07070036271860917
647000000.0 0.2074286672901863 0.2125815176009066
653500000.0 -0.026196352366364164 0.30036041817609294
660000000.0 -0.25630901026821523 -0.15703945545873077
666500000.0 0.24401015339722443 -0.17690664190225816
673000000.0 0.10207541842713685 0.2813658412520995
679500000.0 0.23481853728281973 -0.19676696782376488
686000000.0 0.17938663312542324 -0.23642561133070647
692500000.0 -0.2936356148045788 0.003906835699235548
699000000.0 0.1932865396894239 -0.21261781294967605
705500000.0 -0.27267405223507213 -0.09301178686549776
712000000.0 0.2297940649741004 0.18226668959839115
718500000.0 0.21250765767147817 -0.20863953795084164
725000000.0 -0.18208325272725565 0.2557470945913739
731500000.0 0.13466981062766262 -0.28906269680071217
738000000.0 0.03645647066814225 0.3280556671772425
744500000.0 -0.28831593692813606 -0.16226354455183936
751000000.0 0.27575113759829806 0.18904883264620453
757500000.0 -0.14704588494593235 -0.309465045558065
764000000.0 -0.08814387442200328 0.3414333812751343
770500000.0 -0.24849537841380037 -0.25784763176333525
777000000.0 -0.0014644081250534762 0.36338735540655004
783500000.0 -0.27063704467056277 -0.24027602419794913
790000000.0 0.08281471064608126 0.3556224763980034
796500000.0 -0.04726920969414592 -0.3668060385486538
803000000.0 -0.2732835913979938 0.23344554187035113
809500000.0 0.27556589268056203 0.22898168402012603
816000000.0 0.2515607639265111 -0.2558556940308752
822500000.0 0.07123604726785958 -0.3607885604704228
829000000.0 -0.3815835067527089 0.00853068324795503
835500000.0 -0.39636183284185034 -0.01822358929633022
842000000.0 0.4097124930696319 0.0600680390781752
848500000.0 -0.3127084098136351 -0.2728313842193997
855000000.0 0.2058250092245609 0.3721120386927356
861500000.0 0.028996893534661124 -0.4270752763736984
868000000.0 -0.2887711427898678 0.3230551392737975
874500000.0 0.3366775680721927 -0.27750645631463633
881000000.0 -0.38161222370408 0.22605904861470977
887500000.0 0.3242056597481672 -0.3080284842173566
894000000.0 -0.10895398217679128 0.4335012465156136
900500000.0 -0.42808321936055604 -0.1099596466270797
907000000.0 0.12004720877485077 -0.41875196065050513
913500000.0 0.31689012634462316 0.27623586461316746
920000000.0 -0.18381083746734309 0.3684108414068107
926500000.0 -0.3139688937127096 0.24639957984654523
933000000.0 -0.3821122542032423 0.04523926863936538
939500000.0 -0.3058836409910863 0.20851105785958343
946000000.0 -0.16792164347595648 0.3022940742947212
952500000.0 -0.23064636386753243 0.2233119322823243
959000000.0 -0.2229211590503894 0.20110920649504221
965500000.0 -0.225532951248581 0.16871415316443206
972000000.0 0.16865099134375214 -0.20635988426802793
978500000.0 0.23958408248075588 0.0838602280077504
985000000.0 0.2108478971463721 0.10997895950518594
991500000.0 -0.019137959627646726 0.22289607314054352
998000000.0 -0.19987659726095156 -0.06248462230799227
1004500000.0 0.09703214771402809 -0.17214388759331323
1011000000.0 0.029289680532155252 0.1842972302769037
1017500000.0 -0.17226353711252604 -0.018795513312611225
1024000000.0 0.08166012802358873 -0.13619576810394105
1030500000.0 0.12462496505810305 0.07256538235616798
1037000000.0 -0.027925553457048096 -0.13150880149711788
1043500000.0 -0.08373819850556588 -0.09256485767130568
1050000000.0 0.03861042645729807 -0.11326144033406246
1056500000.0 -0.0831359132114232 0.07350978586684934
1063000000.0 0.0026561680107373966 -0.10375139782297535
1069500000.0 -0.046279811671551666 -0.0827646759578479
1076000000.0 -0.08603112077423988 -0.03165303956302431
1082500000.0 0.06082269377058336 -0.06221848820056216
1089000000.0 -0.07864840349304422 -0.04053653998809623
1095500000.0 0.02110434694116061 -0.0870487075151178
1102000000.0 -0.06875316828220589 0.07093243878854366
1108500000.0 0.1076861323911489 0.010055275233621607
1115000000.0 -0.11373023354672948 -0.04771618010707988
1121500000.0 0.05508104457991561 -0.1314966066819335
1128000000.0 0.15547147726550622 0.03637722032781165
1134500000.0 0.08389555899053411 0.153716598443803
1141000000.0 -0.18134983629648074 0.055165299152148
1147500000.0 -0.20359919205600469 -0.0121433567741484
1154000000.0 -0.08116631109828341 -0.1923171068684525
1160500000.0 0.19963520913976887 0.06939346971669844
1167000000.0 -0.21579414289879315 0.02048678721974911
1173500000.0 0.0494041215434846 0.2106260363720215
1180000000.0 0.2041183303207604 -0.0888224945009227
1186500000.0 -0.18723197425884963 -0.1312433092558104
1193000000.0 -0.11318100490701356 0.21093847572581473
1199500000.0 0.16752749759812066 -0.18716928132998562
1206000000.0 -0.2620119135511864 -0.0346101097146977
1212500000.0 0.26195978153319316 -0.09030289655903188
1219000000.0 -0.11598792314470113 0.2675277385089665
1225500000.0 0.027993569957889302 -0.29446896990979493
1232000000.0 -0.2709779856788409 0.13423370546858351
1238500000.0 0.05992896448523098 0.30526494203674365
1245000000.0 0.3129950563074482 -0.03883582484980645
1251500000.0 0.02658812995974117 -0.3231779762918085
1258000000.0 -0.3261629548228733 -0.05236257665874061
1264500000.0 -0.3127918739851269 0.11716563542386137
1271000000.0 -0.07749422652556807 0.3325274266200038
1277500000.0 0.23117046157422952 0.25923197824169353
1284000000.0 0.3189888865981124 -0.14935840914947382
1290500000.0 -0.007489662068743581 -0.35396575561647003
1297000000.0 -0.35120262121148504 -0.06757184962918496
1303500000.0 -0.17216420038481745 0.30745235330310533
1310000000.0 0.16694967155695942 0.30859535221140444
1316500000.0 0.2750751865888671 -0.21768077944494962
1323000000.0 -0.11324781826223476 -0.32786919044395807
1329500000.0 -0.1314421753481149 0.31776675226586176
1336000000.0 0.2663043793709043 0.20214863519047555
1342500000.0 0.17053394332913038 -0.283075823079557
1349000000.0 -0.31786207308024644 -0.08082143773255604
1355500000.0 -0.2787105314640171 0.17288178791062925
1362000000.0 0.2757608462052153 0.18041919410210566
1368500000.0 0.11551719606379056 -0.3167732794846278
1375000000.0 -0.21319162598720892 0.2713571507195839
1381500000.0 0.2655991281299161 -0.22835732662309205
1388000000.0 -0.34264768140323076 0.1016062196380223
1394500000.0 0.32975139410831245 0.14711141856379958
1401000000.0 0.3563974881390457 0.08068694896569342
1407500000.0 -0.023065372070872434 -0.36931318297988086
1414000000.0 -0.3634859529544036 -0.0893453405380832
1420500000.0 -0.07923983772596899 0.3691588398687686
1427000000.0 -0.060625387953750914 0.37343664194853965
1433500000.0 0.08184798877597693 0.37483875752898227
1440000000.0 0.18682717116173825 0.33606064259862894
1446500000.0 0.273822117288976 0.27509273273243817
1453000000.0 0.36121198148081335 0.14554123997602178
1459500000.0 0.35456983704831524 -0.15132134007990178
1466000000.0 0.06499677538331092 -0.3767204003561639
1472500000.0 -0.125820988306408 -0.3513929200575108
1479000000.0 -0.3311010440893951 -0.14716797262209752
1485500000.0 -0.3494445212253988 -0.026646024442416073
1492000000.0 -0.28339234516126177 0.1870537542434342
1498500000.0 -0.06161205702802647 0.3189626910243842
1505000000.0 -0.21774154859797826 0.22473915439854514
1511500000.0 0.2870178592021748 -0.10882291759006446
1518000000.0 -0.052514969782776345 -0.29177976730995275
1524500000.0 -0.0699815197758637 0.28078374416117813
1531000000.0 0.2546655577044 -0.11490505799752841
1537500000.0 -0.2695713863684697 0.05070206854196503
1544000000.0 0.2597133553629728 -0.06347051641060508
1550500000.0 -0.14854962407621886 0.21898403321423257
1557000000.0 0.13280497677652256 -0.22011285450396847
1563500000.0 -0.2416767173877717 -0.07926651605200784
1570000000.0 -0.2538483702026821 -0.03807000845425945
1576500000.0 0.024087962342602024 0.255116221552988
1583000000.0 0.2593250433617419 -0.035012677754809284
1589500000.0 0.006864749790418021 -0.260776003602987
1596000000.0 -0.22348367967586394 -0.13253661401980685
1602500000.0 -0.2547440177894363 0.0336425587891125
1609000000.0 -0.2177310565468466 -0.13154234586126362
1615500000.0 -0.2304136927021575 -0.09226652306991175
1622000000.0 0.16278123097984792 -0.18384464210118892
1628500000.0 0.2361887336680996 -0.05451915448879659
1635000000.0 0.22806600580420558 0.06228623829146464
1641500000.0 0.11223786881988505 0.20245560331907528
1648000000.0 -0.023393924453821865 0.22394468270706125
1654500000.0 -0.12132355212648253 0.18060054599819567
1661000000.0 0.016641609196246514 0.2073694925218663
1667500000.0 0.1243588812802971 0.15229988078517562
1674000000.0 0.16498344965235706 -0.07652029153794838
1680500000.0 0.16212217458012063 -0.034842422072934406
1687000000.0 0.035328290917304016 -0.14936755001029142
1693500000.0 -0.09190147472743555 -0.10691866842315294
1700000000.0 0.10028156610049412 0.0862521590647305
1706500000.0 -0.06033900873273773 -0.10837719421158773
1713000000.0 0.04053782353952301 -0.11014454797003423
1719500000.0 -0.01068412609665825 0.11468102672573494
1726000000.0 0.04043596463835587 0.10436302693844707
1732500000.0 -0.03790195692311869 0.10245669928229316
1739000000.0 -0.09021954308453518 0.06127957956259812
1745500000.0 0.009179659224794821 -0.10279269885546427
1752000000.0 0.07155614165704667 0.07279940321197309
1758500000.0 0.09297871788892315 0.02998153702658108
1765000000.0 0.07011848068595657 0.06469694522045849
1771500000.0 -0.09424560836640575 -0.0065917760538771065
1778000000.0 0.08382135335185548 -0.045987716103648546
1784500000.0 0.05064642456771532 0.08607997291901194
1791000000.0 -0.05447393358856087 -0.08695789754393024
1797500000.0 0.10422515877668369 -0.022714450320145026
1804000000.0 0.07183826822730566 -0.07986149336606692
1810500000.0 -0.02239947621609046 -0.10421828582009972
1817000000.0 0.00386369485770498 -0.0981769950739099
1823500000.0 -0.0862660851945468 0.027837064384926696
1830000000.0 -0.022693340262189218 -0.07378894503512304
1836500000.0 0.05972220588654043 0.03563424879406421
1843000000.0 0.020140301557579166 0.05119371787714064
1849500000.0 0.012313876450141169 -0.04566054316343195
1856000000.0 -0.0341983324362556 0.020548114790167094
1862500000.0 -0.020382744089770848 0.027213472613796724
1869000000.0 0.029721976807012433 -0.0018779184302082372
1875500000.0 0.02060050263400757 -0.01841006779101486
1882000000.0 -0.006020755003327699 0.01986256286296142
1888500000.0 -0.012467304774283124 -0.01938395013404629
1895000000.0 -0.01647698975740992 0.020712216216969854
1901500000.0 -0.0006386604726759694 -0.030099715317078966
1908000000.0 0.004253733430144801 0.02765270777586915
1914500000.0 0.028893256216722788 0.0032389463642600665
1921000000.0 -0.015106979884342595 0.021812036236474052
1927500000.0 -0.01374061439049969 0.018946521930564675
1934000000.0 -0.005603605944182877 0.020439504015138388
1940500000.0 0.01499712244537096 0.009053530705798759
1947000000.0 -0.016063348140750697 -0.006438154515214792
1953500000.0 -0.019347679779165503 0.004030058288305455
1960000000.0 0.015218427452002727 0.014913983375454024
1966500000.0 0.03409923938274882 -0.004731379703309936
1973000000.0 -0.04774984316917438 0.0029659731567752974
1979500000.0 0.05457084653981789 0.025455322812175742
1986000000.0 -0.06336786147199515 0.04272339715384213
1992500000.0 0.07273351854590641 0.046794902708263315
1999000000.0 -0.0687408487646328 -0.06781331960753614
2005500000.0 -0.03851949122931922 -0.09641574229104999
2012000000.0 0.007672774652483835 -0.1102968299025173
2018500000.0 0.07741772722793834 0.0858374014814465
2025000000.0 -0.11674058472807833 0.03586154224008088
2031500000.0 0.04241476368881971 -0.11749623137060729
2038000000.0 0.08026358348043032 0.10140574896498615
2044500000.0 -0.1325230616627139 0.019144515192263598
2051000000.0 -0.089862963438469 -0.10374555739632085
2057500000.0 -0.082279690688934 -0.1091001428809199
2064000000.0 -0.07968279150530831 -0.10982662876711564
2070500000.0 -0.1010327019574717 -0.08620493359473948
2077000000.0 -0.06941347348474802 0.10404955336325712
2083500000.0 0.08996504623671003 0.07851212552526504
2090000000.0 0.040995132155712 -0.10522488789754789
2096500000.0 -0.09646829316286298 0.05136029580671498
2103000000.0 -0.07058131873062437 -0.07698571265357669
2109500000.0 0.06332945463659737 -0.08320200437838457
2116000000.0 -0.10639915683603327 -0.002029449093008542
2122500000.0 -0.05636487373551802 0.09503520756274592
2129000000.0 0.10231439628979255 0.06169451940232511
2135500000.0 0.07052003485897188 0.1055234686598019
2142000000.0 -0.10884287591507619 -0.08607571596278031
2148500000.0 0.12278650071761263 0.0903511130733937
2155000000.0 -0.161476215118499 -0.05058280413835136
2161500000.0 0.16542438855079006 0.08267861387260657
2168000000.0 -0.09209174855631057 -0.18004511554028788
2174500000.0 -0.21198622474956566 0.04559694072462449
2181000000.0 -0.07457139203761808 0.21590175009558588
2187500000.0 0.23445572340415874 0.05214722954495124
2194000000.0 0.24419232710952454 -0.04156239877108768
2200500000.0 0.21822944113796008 -0.13330036840330384
2207000000.0 0.08140301985300978 -0.2418745043519247
2213500000.0 0.19374862549263874 -0.16444389299948972
2220000000.0 0.2448711578765874 -0.06538905451862441
2226500000.0 0.17462875276117673 0.1757599488925943
2233000000.0 -0.07247017501558276 0.2334465231017165
2239500000.0 -0.22818689651105933 0.08226211389750183
2246000000.0 -0.23644805347781156 0.01088121306807516
2252500000.0 -0.20666654296435946 0.09867842808737595
2259000000.0 -0.1458768970714477 0.17058379126595508
2265500000.0 0.11823797869698185 0.1813048869750948
2272000000.0 0.18272125817644122 -0.09782935409596574
2278500000.0 -0.18554677495554844 0.06433403664294532
2285000000.0 0.14390511218629198 0.11729572947116773
2291500000.0 -0.12847002934217883 -0.11835945858573022
2298000000.0 -0.12983042864822444 0.10167917773783257
2304500000.0 0.12418654833134099 -0.10218294027883745
2311000000.0 -0.12056339572744212 -0.09647205024752778
2317500000.0 -0.1496407430625974 -0.03428937355644112
2324000000.0 0.13411909583798223 0.07773422452435169
2330500000.0 -0.1549918879604904 0.005181717674630978
2337000000.0 0.0538031461118669 0.14609642796859149
2343500000.0 -0.006709847961033176 -0.1568382888424982
2350000000.0 -0.15627736243296342 0.020064141887156224
2356500000.0 -0.09023518339567022 0.12987177200094122
2363000000.0 -0.017763039159618944 0.16032704068066533
2369500000.0 0.14606367617176502 0.06623472787318126
2376000000.0 0.09115513849105908 0.1320128260267467
2382500000.0 0.08108155938326869 0.13849307900203092
2389000000.0 -0.010104324981277423 0.16141792692939896
2395500000.0 -0.09308203129469188 0.13240682958603028
2402000000.0 -0.13086827597621473 0.09635489118851998
2408500000.0 -0.0831289779805483 0.14064050941880996
2415000000.0 0.09111673456320422 0.13337026954531425
2421500000.0 0.057330340993739605 0.14778614324791164
2428000000.0 0.10535876228635108 0.11301805312535272
2434500000.0 0.12436968345229328 0.08670384171209668
2441000000.0 0.12321012168895581 0.08716905002679541
2447500000.0 0.14480111376235333 0.03168452321433597
2454000000.0 0.07088308479174894 -0.13039257135864946
2460500000.0 0.07854937074458633 -0.12589497735739955
2467000000.0 -0.009348693912021963 -0.1486190269683878
2473500000.0 -0.12410597074386377 -0.07916721899266004
2480000000.0 -0.1232776335926458 -0.08159617104711392
2486500000.0 -0.009173428128552413 -0.14906649997411334
2493000000.0 0.1193945062578677 0.09200249898866722
2499500000.0 -0.031121597725904043 0.14793852829880874
2506000000.0 -0.1328626485790323 0.07952813294053702
2512500000.0 0.07406448243971234 -0.1365381759845293
2519000000.0 0.03123040347585558 0.15679991404096935
2525500000.0 -0.11374915639017273 -0.11759237539170302
2532000000.0 0.16810679201424975 0.015027005143891384
2538500000.0 -0.1670997307556849 0.027770550172847738
2545000000.0 0.03187581789824143 -0.16892160423114835
2551500000.0 0.011275058873280562 0.17039181681741378
2558000000.0 0.15027846688549706 -0.08234971386321983
2564500000.0 -0.13986497732250625 0.0954929154843743
2571000000.0 0.16721920899849682 0.006669515650800175
2577500000.0 -0.09019587638148027 -0.13695289015810921
2584000000.0 -0.08615421131469049 0.13613438725082602
2590500000.0 0.14793999223431228 0.056431137939534304
2597000000.0 -0.08429112575664573 -0.12813402944465804
2603500000.0 -0.09919273666622735 0.11332843675302307
2610000000.0 0.13373645534308715 -0.05488911411382615
2616500000.0 -0.13481631952187517 -0.039901414807131365
2623000000.0 0.10531757930016208 0.08182323411797623
2629500000.0 -0.04826521972915509 -0.11747961760390625
2636000000.0 0.10527744950647906 0.055987723712939155
2642500000.0 -0.10570812123641744 -0.03790241908731374
2649000000.0 0.058499904049236606 -0.08814813664272539
2655500000.0 0.0938988128102197 0.029041071816704973
2662000000.0 0.06907140367298487 -0.06136844178506025
2668500000.0 -0.08456500018709881 0.02453042563684596
2675000000.0 0.08320163573437082 0.002940793933394184
2681500000.0 0.07977368912510299 -0.005226628642781459
2688000000.0 0.05341744599829026 0.05929348145122473
2694500000.0 0.07736519267323659 -0.025855019520440593
2701000000.0 -0.07264924596436724 -0.0416863899580915
2707500000.0 0.019137683149412485 -0.09230380595873111
2714000000.0 -0.07377199138597046 0.07100789668471426
2720500000.0 0.10423404877480945 0.0533882070597691
2727000000.0 0.05266168580588659 -0.11860464032053644
2733500000.0 -0.02520892830587803 -0.1419303469560171
2740000000.0 -0.0898995827473872 -0.1303313772209232
2746500000.0 -0.10226765347339042 -0.13641577874933317
2753000000.0 0.06870142796752843 -0.16852020088881062
2759500000.0 0.18907178396862903 -0.0075126765980290475
2766000000.0 -0.1765229784091444 0.08792165893892927
2772500000.0 0.12985854426807444 -0.16030109167350234
2779000000.0 -0.20961034618055668 0.05589711360285434
2785500000.0 0.10590133557495017 -0.20066661048408563
2792000000.0 0.003712100321627411 0.23700041679363062
2798500000.0 -0.24190425238193786 -0.049951014946698805
2805000000.0 0.07713716856274602 -0.24083732939294317
2811500000.0 0.22767176677502085 0.12593640524750113
