!Created with skrf (http://scikit-rf.org).
# Hz S RI R 50.0 
!freq ReS11 ImS11
400000000.0 -0.6649348216676162 0.48850541699379596
420000000.0 0.38084902978984575 -0.6744280466302013
440000000.0 0.44237433670306214 -0.5991296135082478
460000000.0 -0.20457414667825918 -0.620073710361886
480000000.0 -0.09903544667884312 -0.5254154693287076
500000000.0 -0.27492423184494363 0.3021001990046408
520000000.0 -0.35097909989735976 0.27971987533187515
540000000.0 0.35314829635937167 -0.33480097417135074
560000000.0 0.1582135268952149 -0.43727335315087124
580000000.0 0.1396103244742355 0.39407958251415903
600000000.0 -0.13032630197263204 -0.37030224515777044
620000000.0 -0.21991446840585369 -0.2920378264208666
640000000.0 0.3528527871338633 -0.010432597285885884
660000000.0 0.33495235847933336 0.09374789285167409
680000000.0 -0.1658305272490806 -0.2985608356650565
700000000.0 -0.3357249978971385 -0.15646199549593767
720000000.0 0.3189449853003103 -0.15671815969093592
740000000.0 0.3232069119090146 0.005899162310709592
760000000.0 -0.08644886392355358 -0.2982982721328906
780000000.0 0.04050930882129896 -0.29736803956080876
800000000.0 0.2550970389469768 0.07139814014753625
820000000.0 -0.13517646660553131 0.18556622981493862
840000000.0 0.13186658645013177 -0.16598764601343824
860000000.0 0.09292060010365069 0.17460787108414957
880000000.0 -0.12483706385799778 -0.1532192471959352
900000000.0 0.1491114214087513 0.06091857814525276
920000000.0 -0.14049675567222597 -0.024122402821929803
940000000.0 0.02240750266599532 0.13524747881777674
960000000.0 0.05486093260757823 0.09241521198253752
980000000.0 -0.06175869708177594 0.022581188979848607
1000000000.0 0.0315355326278152 -0.015989707241556322
1020000000.0 -0.05021207620188228 -0.004937560417043531
1040000000.0 0.07008585673630374 0.050144394571328896
1060000000.0 0.09446023092779576 -0.06955039088430115
1080000000.0 -0.14904392890926488 0.0378581648520008
1100000000.0 0.1764527243182269 -0.040679822761055515
1120000000.0 0.020317974699762768 -0.21616311313478828
1140000000.0 -0.23617656067804482 -0.0997050299552724
1160000000.0 0.2732395354123545 0.061622456477521945
1180000000.0 0.2434331532806577 0.18461124941198398
1200000000.0 -0.047879217694573054 0.31685333946927235
1220000000.0 0.025707437627111304 0.3315454067412254
1240000000.0 -0.276040565667397 0.18065725302287827
1260000000.0 -0.3099591830780651 -0.13562735909516596
1280000000.0 -0.3416912436488441 -0.03077795566531936
1300000000.0 0.20239640181097177 -0.2839853078813927
1320000000.0 0.30299785225514586 0.20169731768163598
1340000000.0 -0.16759454570343105 0.3323948181918045
1360000000.0 -0.12292170047306397 -0.36278941342536514
1380000000.0 0.26914496541972815 -0.2717104476352843
1400000000.0 -0.2464047544609346 -0.2848177690518056
1420000000.0 -0.15163972886636068 0.34312633267527626
1440000000.0 0.21111469478210182 0.30113235338175953
1460000000.0 0.20855935964406638 -0.2951634278865409
1480000000.0 -0.021168432347483515 -0.3469894144618414
1500000000.0 -0.1489936932318262 0.3017780009901454
1520000000.0 -0.021395044421111963 -0.30851787337496916
1540000000.0 -0.2542311627551118 -0.1002194406441943
1560000000.0 0.11359697809678143 0.2207632460340749
1580000000.0 -0.1496313355787435 -0.1489052724065083
1600000000.0 0.1162435203123782 0.13889020122711432
1620000000.0 -0.11943935768635125 -0.10451009457121042
1640000000.0 0.016320893715585667 -0.13132536924967012
1660000000.0 0.09688714889926027 0.05035577948096972
1680000000.0 -0.05606417458056372 0.07001739485906558
1700000000.0 0.03391678875968434 0.06284759306104536
1720000000.0 0.04888570630111955 -0.014929336488014085
1740000000.0 0.050848592401486176 0.010320089033894215
1760000000.0 -0.05635948003275874 -0.02244834714166854
1780000000.0 -0.01873121710707082 -0.09464232906541377
1800000000.0 0.017405710666585417 0.12279563556128692
1820000000.0 -0.02111748151806526 0.15669204477227805
1840000000.0 -0.05743950577689956 0.1840747225804761
1860000000.0 0.0997408018606188 0.19473667767412914
1880000000.0 0.013004580505923284 0.23989968518057214
1900000000.0 0.26499424022199114 0.03617254828307643
1920000000.0 -0.2788711925193367 -0.07182992539824554
1940000000.0 -0.10131909876724789 0.28054482929432006
1960000000.0 -0.31245685728118766 -0.03514333714669267
1980000000.0 -0.07322718438766113 -0.3054877290637436
2000000000.0 0.2993103647029706 0.08389970388882158
2020000000.0 0.17731150648437657 0.2624468794209899
2040000000.0 0.13545046589031204 0.28297122707447825
2060000000.0 -0.1441810978612375 0.2722024894475804
2080000000.0 -0.2521633751215508 -0.17962996060614497
2100000000.0 0.30666593838312367 0.0280631215354899
2120000000.0 -0.30267081234806126 0.055162822606899586
2140000000.0 0.1591623071839704 -0.25534887952389146
2160000000.0 -0.24267128420873935 0.17109654868223245
2180000000.0 0.1127263255002061 0.26742682392754774
2200000000.0 0.2741900460543994 0.06659466832468097
2220000000.0 0.22385674100674702 0.15610345274158455
2240000000.0 0.06740522915507341 0.2628002962748418
2260000000.0 -0.12939639894717286 0.2229270444450585
2280000000.0 -0.15287628129344225 -0.19502881691317703
2300000000.0 0.23404112494162718 -0.04532554951472895
2320000000.0 -0.16623545182784896 0.15717291786838833
2340000000.0 0.16298560765642642 -0.14909333032235522
2360000000.0 -0.09874234214053375 0.19934978290581776
2380000000.0 0.17756407928807275 -0.14561226082751305
2400000000.0 -0.12795810135637417 0.21087319277023372
2420000000.0 0.1695912902628671 0.214616771163406
2440000000.0 0.12718730472186146 -0.2744340496792886
2460000000.0 -0.13335923377988956 0.31038607215467967
2480000000.0 0.35996683636375637 -0.09094209527892193
2500000000.0 0.08469560218299085 0.40014968218750596
2520000000.0 -0.4291061207693586 -0.11468895207532374
2540000000.0 0.10481025077506251 -0.47015845013738494
2560000000.0 0.2881628599467445 0.42830113675528425
2580000000.0 -0.528793647610608 -0.14306973983243798
2600000000.0 0.5089611452449991 -0.2712430948973575
2620000000.0 -0.25703336805353366 0.543470989714899
2640000000.0 -0.11659697918483397 -0.6097025045005215
2660000000.0 0.5952834220263018 0.22736133722867694
2680000000.0 -0.40961175304991654 0.5041710189904718
2700000000.0 -0.6192102833661737 -0.2280006143226401
2720000000.0 -0.28328847511290045 -0.6030010816416762
2740000000.0 -0.19651200222718873 -0.6405800140219071
2760000000.0 -0.1304754304861714 -0.6580671640866281
2780000000.0 0.6637380447717101 0.05677438078249869
2800000000.0 0.6103268993559174 0.24455876681340524
2820000000.0 0.22100333251653426 0.6058133583082369
2840000000.0 -0.5893077979400195 0.2319455890226901
2860000000.0 0.2023969922594916 -0.5864008118332288
2880000000.0 -0.30341385335688226 0.5202715745174751
2900000000.0 0.5743753012130294 -0.11110086884203837
2920000000.0 -0.39375507304383656 -0.40616370922660183
2940000000.0 -0.48757000732830497 0.22980761339056538
2960000000.0 -0.1181740894636596 0.5039173218667322
2980000000.0 0.4073600240192162 0.28080944219025833
3000000000.0 0.3073398208090895 -0.3579996961325802
3020000000.0 -0.3451741616605609 -0.284204096379688
3040000000.0 0.2833271311633425 0.31440688175112735
3060000000.0 -0.11855222579830318 -0.3750467121230662
3080000000.0 -0.12882135734237113 0.34750637412066987
3100000000.0 0.07201967804000567 -0.3434001677481817
3120000000.0 -0.05843676238800296 -0.3305064277776493
3140000000.0 -0.08561439010916065 0.32097586469793155
3160000000.0 -0.03679416140013163 -0.3246500785303128
3180000000.0 -0.004206245460253629 0.3211005777803996
3200000000.0 0.14839387245643654 -0.2807093516156694
3220000000.0 -0.30572729438451873 -0.010709704180613233
3240000000.0 -0.26290718767848764 0.1298282049090488
3260000000.0 -0.23025495342507868 0.1518233815252535
3280000000.0 -0.13646215890090982 -0.22269275321530407
3300000000.0 0.2075667027470891 -0.13069499092835876
3320000000.0 0.05664300137022607 0.21761804584708833
3340000000.0 -0.2062333477390936 -0.03109864622046863
3360000000.0 -0.06703088647904125 -0.1690618026297043
3380000000.0 -0.1529273938207528 0.0077836345143283674
3400000000.0 -0.009656211417444372 0.12928963623978496
3420000000.0 -0.11611563365198684 -0.02131081989727668
3440000000.0 0.07672280080581613 -0.07763108066905273
3460000000.0 0.06851362744056601 0.07357157733118544
3480000000.0 -0.06808476917272374 -0.05836142722275145
3500000000.0 -0.012200040035804851 0.07930746245166558
3520000000.0 -0.02667979544200202 0.06422179862232591
3540000000.0 -0.06433788708372021 0.018444907242735915
3560000000.0 0.032161670761492595 -0.05982835106889855
3580000000.0 0.04132235567493617 -0.06401525989120993
3600000000.0 -0.050213955320658726 -0.07334876537506764
3620000000.0 0.1001525953048754 -0.008251211523951373
3640000000.0 -0.004801508517879684 0.10750427129320844
3660000000.0 0.08532449287581459 0.0723490160230203
3680000000.0 0.012803623621533563 -0.10944887991330493
3700000000.0 -0.07274306039234944 -0.06986286811978668
3720000000.0 0.0734700504904104 -0.05440197591867384
3740000000.0 -0.011238003902997624 -0.08014870572722925
3760000000.0 -0.04043482895807807 -0.06512110524344066
3780000000.0 0.02888220748440484 0.058521695505202864
3800000000.0 -0.023887364697970703 -0.03563354535303881
3820000000.0 0.03682760963871379 -0.017347030558683977
3840000000.0 -0.041989552511363396 0.024704313098077905
3860000000.0 0.018741406680691367 0.0722505971354153
3880000000.0 -0.05826449751006555 -0.07002814574401224
3900000000.0 0.04040030696730239 -0.09651764967735778
3920000000.0 -0.0961647480625127 0.04531702176177585
3940000000.0 0.03407558559723264 0.10203235678247698
3960000000.0 0.07418931068392907 -0.0721944626219308
3980000000.0 -0.08483630414902049 0.04707811204851705
4000000000.0 -0.0001335528412706231 0.08427470752740042
