!Created with skrf (http://scikit-rf.org).
# Hz S RI R 50.0 
!freq ReS11 ImS11
400000000.0 -0.8143617537345268 -0.1518923476675174
420000000.0 -0.6243043123167704 0.43834917990496636
440000000.0 -0.05265506091140411 -0.7509701110244005
460000000.0 0.4213383253949922 -0.5812537004472924
480000000.0 0.45272184424562834 0.455373346309395
500000000.0 0.37063322742002375 -0.3134017133447137
520000000.0 0.17286388251137805 -0.3681372071272082
540000000.0 0.3179710619998498 0.38555078564422685
560000000.0 0.2470810955995677 -0.4317914039702896
580000000.0 -0.25904607978576616 0.33744819185359676
600000000.0 -0.3694724777805986 0.24658819089340456
620000000.0 0.3519177743738827 -0.16045909805286646
640000000.0 -0.3400450813640938 -0.027126455775893298
660000000.0 -0.2109704661734024 0.3124980355360941
680000000.0 0.16147338701669992 -0.3154191454382758
700000000.0 0.08557736598143205 -0.35703490823090667
720000000.0 -0.2851224012633451 -0.21050666970842688
740000000.0 -0.3151014772124335 -0.11440014372845228
760000000.0 0.3092262616294713 -0.05398886936804692
780000000.0 -0.23856973396254774 -0.1577416195748687
800000000.0 0.06924442296041262 0.22200732288648972
820000000.0 0.19436741664405857 -0.00395411237482047
840000000.0 -0.15329435676485895 0.10878056936684619
860000000.0 -0.11496594622768708 -0.1355108116107218
880000000.0 -0.07353552231748348 0.15597924004321112
900000000.0 0.021907836568477737 -0.1693344146677628
920000000.0 -0.07365802633492907 -0.1400887479794923
940000000.0 0.10657699094365031 -0.08590709614406768
960000000.0 -0.09583367895110159 0.03186251286819286
980000000.0 0.0579692737989575 -0.02019484129949283
1000000000.0 -0.03638246660131023 -0.006787318650381588
1020000000.0 -0.0358534052981283 -0.026574822738286652
1040000000.0 -0.07544757834288665 0.009067479693720865
1060000000.0 0.09420079406892443 0.02692618809297266
1080000000.0 -0.12115675419572489 0.07780671441570415
1100000000.0 0.030077690976756208 -0.1836489209046658
1120000000.0 0.2198273603663576 0.041671978262874
1140000000.0 -0.03162008876475719 0.26414959706555746
1160000000.0 0.13002449384108616 -0.268844552387326
1180000000.0 0.20825203080159493 0.24312716321191885
1200000000.0 0.11999880843379594 -0.3062194359484302
1220000000.0 0.13995091752881567 0.29633451615592177
1240000000.0 -0.10873478766013353 0.3095448512224818
1260000000.0 -0.17762874875024648 -0.2750142770335608
1280000000.0 0.3288710474520078 -0.07708737309452511
1300000000.0 0.17489668454467844 0.3074998763433191
1320000000.0 0.3692369254077987 -0.058039535837299545
1340000000.0 -0.2863129669419325 0.2524633895691936
1360000000.0 -0.322512790793482 0.19172149090188031
1380000000.0 0.3295382852524051 0.16745745152947514
1400000000.0 0.1751558961899285 -0.3378187942668968
1420000000.0 -0.07637225660897887 0.37412674895190334
1440000000.0 0.32506891477933625 -0.16392420960317583
1460000000.0 0.0934368435433159 -0.34153545240399774
1480000000.0 0.317568517798136 -0.14040405930146785
1500000000.0 -0.2880008941733384 -0.17468984766461307
1520000000.0 -0.018505030536937177 -0.32600577097138633
1540000000.0 0.18695561351942389 -0.21081310296521702
1560000000.0 -0.1758779168655747 -0.14888020357206883
1580000000.0 0.06838576641970102 -0.1830440260530386
1600000000.0 -0.0146224543029266 0.180623831303227
1620000000.0 -0.08772901588174266 -0.11982192505942482
1640000000.0 -0.11342276964265237 0.057033304730330664
1660000000.0 -0.0974589200603204 0.0586343695838717
1680000000.0 -0.0984696319753638 0.005363352073675694
1700000000.0 -0.03733423455502255 0.07082899870149571
1720000000.0 -0.05597123681425587 0.003506143106230132
1740000000.0 -0.004091928765602752 0.036117971187687094
1760000000.0 0.025215574430926535 -0.0500498863256636
1780000000.0 -0.09066232520652175 0.018657606928993938
1800000000.0 -0.107894538716798 0.0762143190309291
1820000000.0 -0.019719901681496673 0.16183611433449857
1840000000.0 0.11312241469013914 -0.15692676553445656
1860000000.0 0.0458058950955944 0.20764956043542984
1880000000.0 0.05031759367919965 0.2325615994961938
1900000000.0 0.2256936186285009 0.14440180804930955
1920000000.0 -0.27932179908910626 0.08249219969615926
1940000000.0 0.25722298017216627 -0.15750521781238497
1960000000.0 0.005324441959401608 0.30449030951287226
1980000000.0 -0.2712922080842731 -0.139847644710394
2000000000.0 0.2966320958904552 -0.07780488337858082
2020000000.0 -0.03935574312597691 0.3067118572630593
2040000000.0 -0.13873549105355373 0.285911017928676
2060000000.0 -0.11251227994718568 0.2990395961243509
2080000000.0 -0.2861045238168346 0.13481626007973976
2100000000.0 0.260128349453359 -0.17634114226991762
2120000000.0 -0.012444997261400617 0.3135733806624432
2140000000.0 -0.28045769912985363 -0.11914430172547204
2160000000.0 -0.13850375376292645 0.2610730409460096
2180000000.0 0.21433181378095603 0.19630798126617663
2200000000.0 0.2647246755658088 0.09007822463099517
2220000000.0 0.1347047994822312 0.23544557368865512
2240000000.0 -0.26310576037725686 -0.009813835766507106
2260000000.0 0.044109167879601376 -0.25972137787652894
2280000000.0 0.21402246884999557 0.14161484856416465
2300000000.0 0.18842577626208742 0.16386058710121784
2320000000.0 -0.18812455254079496 0.14263449230720476
2340000000.0 0.10683410199842905 -0.19792572335877304
2360000000.0 -0.15308708063335855 -0.15946302716358735
2380000000.0 0.03554204984584625 0.228478941935901
2400000000.0 -0.21613710846857093 0.12360967397777506
2420000000.0 -0.09617362473588996 0.256278479238563
2440000000.0 0.2739516315919374 0.12974485708196729
2460000000.0 -0.2558954553303088 0.22064101614281162
2480000000.0 0.3559854615538185 -0.09081872734192509
2500000000.0 -0.23978129480128854 0.31847319223966913
2520000000.0 0.13633492762079075 -0.41637728175021105
2540000000.0 0.3272363076392331 0.34725565688851473
2560000000.0 -0.49334547855093236 0.15089345339924776
2580000000.0 0.08167960759422498 -0.5406052497489217
2600000000.0 0.20771395536298526 0.5360655984544406
2620000000.0 -0.43245604779449975 -0.4129548003158584
2640000000.0 0.599994754682448 0.14356596547941047
2660000000.0 -0.4918889785448188 0.40201406290799124
2680000000.0 -0.21997787668800756 -0.6089169005040131
2700000000.0 0.4258385556497651 -0.5023642427792241
2720000000.0 0.6501654823069635 -0.13933704392228907
2740000000.0 0.6633181531975629 0.09158303473551797
2760000000.0 0.673186458940577 0.0027902899020610973
2780000000.0 -0.21247345863888328 0.635265068223924
2800000000.0 -0.367382786582176 0.5501658047699254
2820000000.0 -0.614407154009686 0.21753831395643092
2840000000.0 -0.28806808122775357 -0.5712720582324116
2860000000.0 0.6058197580106184 0.15957375618062786
2880000000.0 -0.5868026102520087 -0.17502727987222663
2900000000.0 0.31410360789626907 0.5067521162397001
2920000000.0 0.3054113412281219 -0.4893959512548609
2940000000.0 -0.4435092165118336 -0.33358027263143514
2960000000.0 -0.41139679185530664 0.3344405701229946
2980000000.0 0.12516384581874274 0.49005978157496594
3000000000.0 0.46146877626033145 -0.14455985139254923
3020000000.0 -0.27752382886651844 -0.3644842944185513
3040000000.0 0.019937719335388956 0.43172338928332
3060000000.0 0.04845705638696137 -0.4016210623651237
3080000000.0 -0.33412470611691275 0.18054548955716684
3100000000.0 0.25151100901463447 -0.25985499828389735
3120000000.0 -0.08406876551548184 -0.33928563398305744
3140000000.0 0.08075985769794404 0.3316823949575336
3160000000.0 -0.002945413027666635 -0.33535425132434105
3180000000.0 -0.13335993269201346 0.3057436687422817
3200000000.0 0.21356325008098592 -0.25086789137748694
3220000000.0 -0.27379290244793086 -0.15858407385957468
3240000000.0 -0.2830057612703566 0.11356774201835983
3260000000.0 -0.2605779694073884 0.12168068533320406
3280000000.0 -0.006477588735219799 -0.27000461224937844
3300000000.0 0.1916181180707571 -0.16460383490822103
3320000000.0 0.06625508337522003 0.22184499120215193
3340000000.0 -0.18882497868368203 -0.08624798865887084
3360000000.0 -0.05279727138390525 0.17503816923083426
3380000000.0 0.13005291077008302 -0.09989676691067352
3400000000.0 -0.14337532773170983 -0.01735252026570386
3420000000.0 0.10621679980031312 -0.07091602260545715
3440000000.0 -0.03735941715360525 -0.11267822697827826
3460000000.0 -0.014185158085400022 -0.10254945038095929
3480000000.0 -0.08752427366298002 0.020855678553831396
3500000000.0 0.001844229215127759 0.08563766802792297
3520000000.0 -0.05069677978009025 0.054983971582105315
3540000000.0 -0.012530499542457897 0.07236035377853874
3560000000.0 -0.05174088304839815 -0.06217498312988491
3580000000.0 0.0895074060693359 -0.007242368243227001
3600000000.0 -0.02650887101280371 0.09269492778159294
3620000000.0 0.10531759047311667 0.002991956790027014
3640000000.0 -0.07712300959411962 0.07316600748389486
3660000000.0 0.07912360832433991 -0.08002349134701967
3680000000.0 0.08154627714873308 -0.07903647570806059
3700000000.0 0.10505148400875942 0.009278696482794967
3720000000.0 0.09531511480232023 0.007805910518444611
3740000000.0 -0.08263716278789138 -0.00101612793511421
3760000000.0 0.00537203880293847 -0.0765150213654036
3780000000.0 -0.0018052750356929899 0.06704957241661251
3800000000.0 -0.027635846013516128 0.03785706994974076
3820000000.0 0.015231025946094412 0.03506339872039338
3840000000.0 -0.01826717590101598 -0.044133564250162356
3860000000.0 -0.0043769326329498905 -0.0724660113912585
3880000000.0 -0.058846972139622325 -0.07427896178950633
3900000000.0 0.08234557789156127 -0.061680692133001494
3920000000.0 0.08874179398622502 -0.059382117767340356
3940000000.0 0.08171117341432509 -0.06400856087649387
3960000000.0 -0.08671448642162054 -0.06010293595250764
3980000000.0 0.014553639047428632 -0.09585090978250624
4000000000.0 -0.04597151643082463 -0.06589526087913578
