!Created with skrf (http://scikit-rf.org).
# Hz S RI R 50.0 
!freq ReS11 ImS11
400000000.0 -0.8048106161311244 -0.18604024533959587
420000000.0 -0.5491255875998114 0.5309245544708561
440000000.0 0.2025895646959982 -0.721389014752621
460000000.0 0.4672261832160146 -0.5616006503105345
480000000.0 0.4522168159555922 0.4598434080792746
500000000.0 -0.42165978938779736 -0.2524181468021331
520000000.0 0.21579747563729895 -0.32406333874022025
540000000.0 0.3128051556835479 0.3809760383859872
560000000.0 0.4845355223483153 -0.1034373571501272
580000000.0 -0.19883464761019265 0.3775981140306928
600000000.0 -0.41828214567324695 -0.10819857407639813
620000000.0 -0.1560996856783726 0.35369076525753895
640000000.0 -0.3436977551404065 -0.0753548584336586
660000000.0 -0.31580335628252665 0.22052024951507818
680000000.0 -0.07315583123122019 -0.3700766954872577
700000000.0 -0.05116770661775674 0.3607380477926554
720000000.0 -0.16269752191694065 0.30427310414070896
740000000.0 -0.11627988462132155 0.30053241433531197
760000000.0 0.033627906955463055 0.29713692952491694
780000000.0 0.2631252562307726 0.08720014401143311
800000000.0 0.036056338617434396 -0.23329140737529183
820000000.0 0.07755436507070256 0.19744568635673032
840000000.0 -0.1277349926235916 0.14166018757185622
860000000.0 0.18315752474811625 0.024776034069746846
880000000.0 -0.08499087671539608 -0.15193107481886298
900000000.0 -0.14547673442496284 -0.04228963976604287
920000000.0 0.1068259629436168 0.11611099850798744
940000000.0 0.13770558233459726 0.019405650424371413
960000000.0 -0.09848145227222319 0.012402961526782283
980000000.0 -0.054425125369573536 0.02184856558707102
1000000000.0 -0.044181720714545326 0.006268937396628252
1020000000.0 0.03794280943013204 -0.02551147116767261
1040000000.0 0.054804772895617866 0.03464436882824219
1060000000.0 -0.002956416728994991 0.09152267941543539
1080000000.0 0.07159283479790204 0.13016792163881932
1100000000.0 -0.06096469477242279 -0.1804143587959105
1120000000.0 0.18566264850888553 0.1370594404769279
1140000000.0 0.2675353287590449 -0.031847378065747146
1160000000.0 -0.1392193061482934 -0.25980369299946665
1180000000.0 0.23215324366180384 0.20957057748115956
1200000000.0 0.3252107088469086 -0.0154400850747598
1220000000.0 -0.20233265785291818 0.2585093356686725
1240000000.0 -0.11474348108927954 0.31470743537319756
1260000000.0 -0.32669018561740903 0.045970344680270406
1280000000.0 0.29934997275265973 -0.15837868379305092
1300000000.0 0.30009607676875355 0.19126811163590923
1320000000.0 0.16526098624893418 -0.33565109987035946
1340000000.0 -0.2402279409830957 0.28306917596895714
1360000000.0 -0.010928037593155755 -0.3728769404474312
1380000000.0 0.26971219472471036 0.26512864615028586
1400000000.0 -0.11304540269658213 -0.3627748916612006
1420000000.0 -0.18303894251806063 0.3329043566049773
1440000000.0 0.3624409709973224 0.053753636278749115
1460000000.0 0.1736345554875064 -0.3139470674949007
1480000000.0 -0.19042427602685424 -0.2938632644356284
1500000000.0 -0.217374694551281 0.24739345100042445
1520000000.0 0.2690194510935474 -0.16581124285163928
1540000000.0 -0.00021971662223104328 0.28144472954468036
1560000000.0 -0.1470552258700379 -0.193295660113537
1580000000.0 -0.15594287580185567 0.11775132415106915
1600000000.0 0.03276173078680939 0.1725686276010961
1620000000.0 0.14344313428995958 -0.05528453188749074
1640000000.0 -0.09509845498922107 0.09134102065142308
1660000000.0 0.04867976415418094 -0.10300809143670066
1680000000.0 0.034164543486998766 0.08790127615160137
1700000000.0 -0.06833001020407312 -0.030673055162602835
1720000000.0 0.05671831127659717 -0.013609112693684146
1740000000.0 0.030670951962850933 0.01960719212912497
1760000000.0 -0.04861038388042408 0.03007731877364741
1780000000.0 0.0185631304298525 0.09923826726676101
1800000000.0 -0.015455126118087756 -0.13217293791224435
1820000000.0 0.12193190102437135 0.0911815468191728
1840000000.0 0.07773562845667331 0.17047615543511035
1860000000.0 -0.20735228454007568 -0.061492147316045284
1880000000.0 -0.07021023332481886 0.23319000850190194
1900000000.0 0.26779298273513547 0.056607113465053545
1920000000.0 -0.19533656789180048 0.2197985011470474
1940000000.0 0.005055650776964072 -0.29814488786042287
1960000000.0 0.09333101415993238 0.2864744056156639
1980000000.0 -0.2749764876770226 -0.12501301785877755
2000000000.0 0.3000801549376226 0.034830875588414946
2020000000.0 -0.20622337585106493 0.22854600052087215
2040000000.0 -0.2969024617073832 0.11520341010735556
2060000000.0 -0.2563534525942806 0.1954976450447614
2080000000.0 -0.2831565267561091 0.15587042557016365
2100000000.0 0.057341167457630494 -0.3150572913859622
2120000000.0 0.26576276876070715 0.16236407875274167
2140000000.0 -0.28980402135956784 0.07818881144091112
2160000000.0 -0.22900042875430338 0.17985087916644196
2180000000.0 -0.13132430897471017 0.25637780352627554
2200000000.0 0.08381923339149434 0.26968017668475974
2220000000.0 0.05681729437978899 0.2689828659473414
2240000000.0 -0.2564065735022653 0.07698040393627752
2260000000.0 -0.2154690411697885 -0.14853295692810856
2280000000.0 0.25375233872206915 0.004085816505044263
2300000000.0 0.11121701923512349 0.21971213390936462
2320000000.0 -0.23306295733106328 0.037032296008636015
2340000000.0 0.09885789825901742 -0.20360496607678158
2360000000.0 -0.1275230343176095 -0.17960695257007303
2380000000.0 -0.02203700600699325 0.23035729965669277
2400000000.0 -0.2196519596832356 0.12231006130206608
2420000000.0 -0.061070533273865454 0.2709586167211731
2440000000.0 0.25002243020918774 -0.1732428019273881
2460000000.0 -0.11516271975911659 0.31289524064220103
2480000000.0 0.2667361179600243 0.24677832825446558
2500000000.0 -0.37718520262477406 0.12919436259829067
2520000000.0 0.20796687444029024 -0.38698473816609924
2540000000.0 0.3707339185001082 0.3031342282524242
2560000000.0 -0.4600592877126152 0.2322262200123308
2580000000.0 0.061366055847084655 -0.5417833049478339
2600000000.0 0.16169053001780634 0.5502945593654885
2620000000.0 -0.4362439710258137 -0.40993630703960515
2640000000.0 0.6078062013276648 0.11190531073480255
2660000000.0 -0.4713660215302662 0.4259112012843162
2680000000.0 -0.30227236961971904 -0.5726971663769406
2700000000.0 0.44697186139786793 -0.48429647497177875
2720000000.0 0.6531743046422198 -0.12521835051054087
2740000000.0 0.6638657646247083 0.09093384904343217
2760000000.0 0.6669671929321449 0.09029883700817691
2780000000.0 -0.32737753907937045 0.5840458940065407
2800000000.0 -0.40549087158882346 0.5227849098598394
2820000000.0 -0.6217559148298953 0.19475374397990922
2840000000.0 -0.2408646875506624 -0.5928525261884662
2860000000.0 0.5874476837428312 0.22216978761190637
2880000000.0 -0.600993241182368 -0.12451952954408334
2900000000.0 0.3498137356470302 0.4847688321350237
2920000000.0 0.21252483095656824 -0.5366466432584959
2940000000.0 -0.475969675746052 -0.2820055556751179
2960000000.0 -0.4269338134403405 0.31227365698102594
2980000000.0 -0.06773926012334107 0.5021867037326303
3000000000.0 0.4830930708812478 -0.05786892156622441
3020000000.0 -0.3544756761310646 -0.29379909016371974
3040000000.0 0.14935127118142558 0.4068228324614307
3060000000.0 0.009484057635118903 -0.4029842728125325
3080000000.0 -0.3358373174278656 0.17218522755762028
3100000000.0 0.35747794666503613 -0.050359452309947705
3120000000.0 -0.10536828872303108 -0.333245325843511
3140000000.0 -0.009613715189456449 0.3412396085591897
3160000000.0 0.0022522745610160625 -0.337759292455005
3180000000.0 -0.022196135191326658 0.3326367187555431
3200000000.0 0.14756976272082445 -0.29281843004504193
3220000000.0 -0.19518545494488684 -0.2506834625893172
3240000000.0 -0.2539842310902182 0.16696860333991465
3260000000.0 -0.2736870028781429 0.08944751104692532
3280000000.0 -0.16816353441714826 -0.21211449626162457
3300000000.0 0.07997490250934106 -0.23692803485828567
3320000000.0 -0.12357412135848096 0.19428780041726323
3340000000.0 -0.15139083699807024 -0.14883468197951294
3360000000.0 0.09150392344083713 0.15986429117044584
3380000000.0 0.13852321409595117 -0.08981301812579609
3400000000.0 -0.11958206249903927 0.08341051133292957
3420000000.0 0.08476344808136846 -0.09421760447215957
3440000000.0 0.02755978536495497 -0.11266938087557854
3460000000.0 0.08551619075477859 0.05712952708756428
3480000000.0 0.0038924649355106837 -0.09254950609926248
3500000000.0 -0.0787391876858002 -0.034885159386702516
3520000000.0 -0.07129862201691625 -0.030904668826247657
3540000000.0 -0.04264803094302289 -0.06388293095965915
3560000000.0 0.07314729967342484 0.02623054027892895
3580000000.0 -0.06888475951885291 -0.0468869565945774
3600000000.0 -0.07944596875545983 0.04632265230966383
3620000000.0 -0.031314193477814625 0.09669582827719035
3640000000.0 -0.04844240369892012 -0.10135947068382135
3660000000.0 -0.04950845154895057 -0.10955152452470661
3680000000.0 -0.07303086363557733 0.09088229689816048
3700000000.0 -0.03185660367870408 -0.09542508689276359
3720000000.0 0.03280038725599257 0.08993926407823206
3740000000.0 -0.011903086004731655 -0.08153788291214889
3760000000.0 0.07536278891378498 0.021316940261164548
3780000000.0 -0.07119257399410814 -0.00542616843555621
3800000000.0 0.031470525550155594 0.037853326888464774
3820000000.0 -0.03638160000494604 0.0069904899407650725
3840000000.0 -0.0002454255942857211 -0.05018846981710883
3860000000.0 0.03442491727108949 -0.06586143648322683
3880000000.0 0.057471468648083696 -0.07680283166357933
3900000000.0 0.09589521115476513 -0.04329617931242532
3920000000.0 0.1064080910404517 0.022849880542507788
3940000000.0 0.04614662310661439 -0.09441300897989428
3960000000.0 -0.012600092006513894 -0.10145676569032758
3980000000.0 0.0002682679173257668 0.0965409183986148
4000000000.0 0.017706476524322654 -0.08190334256586439
