!Created with skrf (http://scikit-rf.org).
# Hz S RI R 50.0 
!freq ReS11 ImS11
400000000.0 -0.8095261208483441 -0.16505846275466324
420000000.0 -0.5018807561261857 0.5719842626050635
440000000.0 0.15143090143659507 -0.7366750869189573
460000000.0 0.5185057379875756 -0.5207090538245495
480000000.0 0.5301097996974148 0.3762131043444704
500000000.0 -0.4740758261116955 0.08409700686655883
520000000.0 0.3299184602364668 -0.23376556252570474
540000000.0 0.35879112800865154 0.34126068090234607
560000000.0 0.4791004166653765 0.04664890873109706
580000000.0 -0.42322513976665804 0.04519882759304313
600000000.0 -0.4335603675188544 -0.07240255080564116
620000000.0 -0.036662413892156354 0.38801783964549363
640000000.0 -0.33500978963005545 -0.09042107217492294
660000000.0 -0.24880880962087107 0.298853719145941
680000000.0 0.3196682948747935 -0.19131261308069883
700000000.0 -0.03890127773911082 0.3655932323841901
720000000.0 0.15010938722241712 0.3195144115900789
740000000.0 0.09292391837437927 0.3125589344087001
760000000.0 0.1393162074590482 0.25797852305957836
780000000.0 -0.051309144321450104 0.2765878588490593
800000000.0 -0.17360779351579947 -0.15750389345410915
820000000.0 0.16225624244634293 0.1284700800622856
840000000.0 -0.1742136338567557 0.0996207638140889
860000000.0 -0.11735481691007794 -0.13618859073570097
880000000.0 0.10091153727506195 -0.14613526478406627
900000000.0 0.04685651913864742 0.14966738188815593
920000000.0 -0.06054732916169771 -0.13578470299247933
940000000.0 0.026483374801113624 0.12577802647693495
960000000.0 0.007829321801255956 0.09981603215387005
980000000.0 0.040836436201828696 -0.053161637098374334
1000000000.0 0.025203171445947196 -0.043341447206415626
1020000000.0 -0.0506275953528885 -0.013320050987717208
1040000000.0 0.059246984704845865 0.03427756233544273
1060000000.0 0.027319859275364476 -0.09031881716290834
1080000000.0 0.10852863429346757 -0.09564992131932505
1100000000.0 0.107646107598768 -0.15075933125980787
1120000000.0 0.08046637965228368 0.21504044369193698
1140000000.0 0.25006377932084556 -0.10642711859708652
1160000000.0 -0.2643462605207823 -0.12836745817119719
1180000000.0 -0.14109101772059862 0.27324314695005636
1200000000.0 0.19731055221788926 0.263915783296511
1220000000.0 -0.09315404996326357 0.3217938149789036
1240000000.0 0.30053860454026615 0.1512117196359797
1260000000.0 -0.30181973893385816 0.12205419973483522
1280000000.0 0.24661967797393644 -0.2194142200625719
1300000000.0 -0.08147650516997741 0.34067240095081386
1320000000.0 0.3716160702422732 0.06451160379368641
1340000000.0 -0.2367678131589559 0.29604071088615913
1360000000.0 -0.37392436421660386 -0.044192049969303766
1380000000.0 0.36367419360720993 0.09089343724997613
1400000000.0 -0.020944218291656696 -0.3751937523844275
1420000000.0 -0.3686059202854797 0.08240025802516461
1440000000.0 0.2974203700264598 0.21620656216947
1460000000.0 0.05844286308903957 -0.3568809872563373
1480000000.0 -0.013090911073961055 -0.3552027837054103
1500000000.0 -0.054911156828597533 0.3252123401037126
1520000000.0 0.2372132816645716 -0.20425226354284293
1540000000.0 -0.029656184066042077 0.2755120478226301
1560000000.0 0.13734187270449624 -0.2006642506979334
1580000000.0 -0.05284078952597569 0.19491500543542029
1600000000.0 0.1675464819204955 0.05319869720478251
1620000000.0 0.07952493453495561 -0.1267705024971911
1640000000.0 -0.10841203647011786 0.07044995698719331
1660000000.0 0.11483296267304044 -0.014043737227402896
1680000000.0 0.07662985260481928 0.06179076728447081
1700000000.0 -0.01969589278129992 0.0712260532932111
1720000000.0 -0.048546284575061834 -0.025909074421350684
1740000000.0 -0.005954057932216153 -0.04233605695597301
1760000000.0 0.020160494736626733 0.05320643038601512
1780000000.0 0.08236226668697952 0.04650685771118031
1800000000.0 0.07788824783396352 0.10131169247595195
1820000000.0 -0.026386825236590233 0.15342119815534647
1840000000.0 -0.13620112573275384 0.13036429129403335
1860000000.0 -0.21253936450651312 0.057058331464812
1880000000.0 0.23093982475129385 0.07931175277814992
1900000000.0 0.2546225244991615 -0.08566820640416724
1920000000.0 -0.23204494227415876 0.17481689248923313
1940000000.0 0.23092183964476648 -0.18952260305966895
1960000000.0 0.08675794148966152 0.2940516310547621
1980000000.0 -0.2735870486512729 0.13622613570670888
2000000000.0 0.22638508564375656 -0.19575049053622898
2020000000.0 -0.26797551027842087 0.13835820264164622
2040000000.0 -0.19220898768010286 -0.2543393903156954
2060000000.0 -0.29553691344694555 0.13935317934113395
2080000000.0 -0.20774095354469796 0.25136954138122714
2100000000.0 -0.17461396983317948 -0.2657146998572714
2120000000.0 0.3041953827410392 0.040456608591420626
2140000000.0 -0.250143261806866 -0.15920010296877796
2160000000.0 -0.28894310550572805 -0.06535100551053312
2180000000.0 -0.001866526277031505 0.2949900582218503
2200000000.0 0.27246503302131375 -0.07780275748122929
2220000000.0 0.09590105962939899 0.25139355442029415
2240000000.0 -0.23127469074724416 -0.13127742346157198
2260000000.0 -0.03950589769694431 -0.26178152195330906
2280000000.0 0.23678640468928447 -0.09932100876255555
2300000000.0 0.2245018782534676 0.10045083023025776
2320000000.0 -0.23146129187690714 0.017397103396195795
2340000000.0 0.21122024573669929 -0.07981627493176731
2360000000.0 -0.0889500434416419 -0.20419366520446866
2380000000.0 0.1298031682255919 0.19192867390671442
2400000000.0 -0.24846413441934406 0.03276899184584284
2420000000.0 -0.05077917790489566 0.2707677499047287
2440000000.0 0.27378694067627274 -0.12693110701183585
2460000000.0 -0.2020411258666939 0.26527429424711835
2480000000.0 0.3474952003225047 0.11297047334071059
2500000000.0 -0.3879617216909896 0.09234485852086219
2520000000.0 0.040464140477708126 -0.43757364574346824
2540000000.0 0.37500692067865565 0.2955016056663255
2560000000.0 -0.496522840501714 0.1350557673019649
2580000000.0 0.12566114558022684 -0.5315021157744575
2600000000.0 0.20294657231364416 0.5388112285808334
2620000000.0 -0.47928672772050207 -0.35858189382757066
2640000000.0 0.6114554555720046 0.07824488569214395
2660000000.0 -0.49290248893530036 0.39973071227559515
2680000000.0 -0.24758497239365085 -0.5987454987144244
2700000000.0 0.49284393200174714 -0.43732805629620225
2720000000.0 0.6617242639372233 -0.07130172832241961
2740000000.0 0.6633617236443738 0.09310361647685199
2760000000.0 0.6626087220707597 0.11629943640060673
2780000000.0 -0.2768564697193798 0.6098570599919205
2800000000.0 -0.4154626232888349 0.5152070928058182
2820000000.0 -0.6171154492399066 0.21205766150426064
2840000000.0 -0.27360387088474647 -0.5796996835605627
2860000000.0 0.6077902784937977 0.15513543339837357
2880000000.0 -0.6016349474850693 -0.1192875876578976
2900000000.0 0.3713286516665009 0.46746700442092803
2920000000.0 0.2681020965875625 -0.5095871610649767
2940000000.0 -0.4154011980046374 -0.3669400231112088
2960000000.0 -0.42244762753455634 0.32290452828505645
2980000000.0 0.10821262347040615 0.4959912876771534
3000000000.0 0.46678455107736977 -0.13175393903903854
3020000000.0 -0.30695190388506155 -0.33971003987403653
3040000000.0 -0.11979692940518574 0.4138948095004697
3060000000.0 0.20653791560850443 -0.3479027777908634
3080000000.0 -0.35032396416337686 0.14917087717850827
3100000000.0 0.2703958318262909 -0.24342066800372628
3120000000.0 -0.2014554472483809 -0.2829414163384384
3140000000.0 -0.09519056765743542 0.3243456859783505
3160000000.0 0.14344124385496654 -0.3022474252621294
3180000000.0 -0.2789467787064774 0.1843431455530754
3200000000.0 0.17505407227112815 -0.27975557924267774
3220000000.0 -0.3171405333569401 -0.051567275650287334
3240000000.0 -0.09024590572602223 0.28965962711632987
3260000000.0 -0.25845230993657436 0.11880424768596347
3280000000.0 -0.04719569947904348 -0.2661749643307186
3300000000.0 0.24787315711882346 -0.04039692979658603
3320000000.0 -0.2042895789408113 0.11543399731102615
3340000000.0 -0.20320274035850378 -0.0634771209461909
3360000000.0 0.13762996979649686 0.12517053905965483
3380000000.0 0.1097625372631898 -0.1167528345908786
3400000000.0 -0.07913634125184145 -0.12049061794154778
3420000000.0 0.1202726275127572 0.039245917023972204
3440000000.0 0.1130543504561781 -0.026465722119731486
3460000000.0 0.09950210432644652 0.03248234636817485
3480000000.0 -0.06252334329305398 -0.06808548067698451
3500000000.0 -0.020982442141103605 0.08346780688673788
3520000000.0 -0.019674811452822724 0.07386769308653011
3540000000.0 -0.029001969016963145 -0.06587584163488867
3560000000.0 -0.07166956653140451 0.02576534757750634
3580000000.0 0.08558468560298525 -0.0030861006300041366
3600000000.0 -0.029355807682666754 0.09218780498370066
3620000000.0 -0.03986772780076029 0.0953295502728162
3640000000.0 -0.10741052880443003 -0.01710021212337526
3660000000.0 0.005537776425799186 -0.11689125444083122
3680000000.0 -0.0870969941889905 -0.07636527658397614
3700000000.0 0.07336262025200405 -0.07013722323433448
3720000000.0 -0.040900104950511516 0.08681396237052809
3740000000.0 -0.055781618149089794 -0.058686401195610235
3760000000.0 0.05787114032454709 0.04956971812155849
3780000000.0 -0.06307531319268928 -0.024498608003943125
3800000000.0 -0.04579973263157586 0.015590842772811463
3820000000.0 0.03201021835097913 0.021678318292470498
3840000000.0 -0.010639458242406459 -0.0457949216702323
3860000000.0 0.06793267064527907 0.026457209795500154
3880000000.0 0.09636732426347222 0.0026454966150335837
3900000000.0 0.06520791422924324 -0.08300498436022274
3920000000.0 0.10375830703010593 0.023562924761766614
3940000000.0 0.07822931140257292 -0.06377755494448126
3960000000.0 0.10040997353212934 0.0067364978008647
3980000000.0 -0.03938503230651326 0.08918671102727935
4000000000.0 0.03478297876875029 -0.07461001970715374
