!Created with skrf (http://scikit-rf.org).
# Hz S RI R 50.0 
!freq ReS11 ImS11
400000000.0 -0.8203894250428759 0.07299179020158547
420000000.0 -0.7009821254750007 0.3067125795996259
440000000.0 0.04815643510342018 -0.7445206055322398
460000000.0 0.6545736896435234 -0.30605753809425706
480000000.0 0.2432332108084139 0.5946280237135054
500000000.0 -0.1337649032429631 -0.4713864732221675
520000000.0 0.15448648321586553 -0.3868730018095477
540000000.0 0.18692253474710024 0.46557273050816184
560000000.0 0.4011349535701892 -0.3084166956481964
580000000.0 0.4305059814209871 0.0034687084780673986
600000000.0 -0.012417327909565892 0.43435949348528985
620000000.0 -0.05952518510290146 0.37872748167643844
640000000.0 -0.2871139669625296 -0.2187860943034384
660000000.0 0.19584739346673893 -0.3155121015621904
680000000.0 -0.34635730420506405 -0.07803766635710907
700000000.0 0.20994517270995905 0.27379137948925514
720000000.0 0.2792971588475129 0.1466801305489507
740000000.0 -0.26080882845428055 0.2022090395791085
760000000.0 -0.3180851463025891 0.015164277032309334
780000000.0 -0.07123535267322599 0.29681851765787315
800000000.0 0.25104037581896854 0.01193055432190311
820000000.0 -0.20098470486948433 -0.029224777266603903
840000000.0 0.1771482756132968 0.07746633756566203
860000000.0 0.14462423042535308 -0.10495443338644007
880000000.0 0.17448470711268496 0.017281119056137436
900000000.0 0.09185016820689473 -0.10976057297145894
920000000.0 0.07760837758744447 0.11073890746160495
940000000.0 0.03337457444384249 -0.1122291200427733
960000000.0 -0.02456354463330321 0.09641189909328864
980000000.0 -0.03984845421057506 0.057304422165015384
1000000000.0 0.04612286513483199 -0.014604222201602944
1020000000.0 0.046766057336875416 0.025334725253991486
1040000000.0 0.031605146023392025 0.0854500377292601
1060000000.0 -0.1064705423835666 -0.04794431797089175
1080000000.0 0.0730508673066197 -0.1441914692389935
1100000000.0 0.012314670683303174 0.18782180707594984
1120000000.0 -0.13896967571146374 -0.18185244274109588
1140000000.0 -0.19773938278802142 -0.16039550565730823
1160000000.0 0.1475363725578994 -0.24213283277175687
1180000000.0 -0.08054702902786198 0.29306500855442785
1200000000.0 -0.15883369320246324 0.27110501163441336
1220000000.0 0.1215359882318765 -0.31105288601379255
1240000000.0 -0.06900470516809666 -0.3414450102461645
1260000000.0 -0.3535605134313898 0.042918829233470374
1280000000.0 -0.2103013871509078 0.2789092672780311
1300000000.0 -0.1403299223853739 -0.3162770728812641
1320000000.0 0.2706246701995008 -0.24236896562939875
1340000000.0 -0.27994449813825156 0.2425119042222033
1360000000.0 -0.35261907030069783 -0.11096795303948774
1380000000.0 0.2607196811489931 0.2647506430235689
1400000000.0 -0.019049528822182367 -0.3752054699028195
1420000000.0 -0.3682737749587434 0.06830780834092745
1440000000.0 -0.03802357149162824 0.3665043502300459
1460000000.0 0.0974647078027823 -0.3533236914744421
1480000000.0 -0.15862638062185852 -0.31683988846062994
1500000000.0 0.033843622236265095 0.3298910979103967
1520000000.0 0.17143789723207248 -0.26090375694900714
1540000000.0 -0.24514473832995878 0.13123024502392674
1560000000.0 0.12063605877349705 -0.21377594944241002
1580000000.0 -0.20564981405555746 0.036455514873081254
1600000000.0 -0.16151966707146515 -0.07602215428585346
1620000000.0 0.0981882724638022 0.10382235683229207
1640000000.0 -0.07904751713149424 -0.08687883498328593
1660000000.0 0.02583399931428766 -0.10386276615034018
1680000000.0 0.09402754786384715 -0.032825609640462015
1700000000.0 -0.07594171868152125 0.017087009893479027
1720000000.0 0.053258456231389306 0.004116893752456049
1740000000.0 -0.036025129252480935 -0.030053773968853805
1760000000.0 -0.04631398387033496 -0.036059032648451055
1780000000.0 -0.08991151649909779 0.017986729350521185
1800000000.0 -0.03652383646899988 0.11239617966699034
1820000000.0 -0.09146248508025476 -0.12938956279617422
1840000000.0 0.1637230642530439 0.09816098818070813
1860000000.0 -0.21042606574628914 -0.04471920927348029
1880000000.0 -0.05547245996623976 0.23986546181304275
1900000000.0 0.2021687626865079 -0.18236860425723295
1920000000.0 -0.1924727401013622 0.21770238494340718
1940000000.0 0.2527399192415611 -0.1548321275629959
1960000000.0 -0.11951108890522524 0.279966649113489
1980000000.0 -0.12246330408521212 -0.2853283589733241
2000000000.0 0.17771008885741812 -0.25464969166214474
2020000000.0 0.3099432883787751 0.0029057380139111233
2040000000.0 0.2143383228665404 0.22782620937451453
2060000000.0 -0.007283342250945373 0.3125047726302786
2080000000.0 -0.30997829062375265 0.024518955289867514
2100000000.0 0.2701319137759927 0.15213347124838225
2120000000.0 -0.3109376722744196 -0.043363050820525065
2140000000.0 -0.08025242236240358 -0.3024196878658895
2160000000.0 -0.033995329831929065 0.3028973409908136
2180000000.0 0.2899105875707961 -0.034781732076631176
2200000000.0 0.23627120612612454 0.14445957167113607
2220000000.0 -0.06103993762223807 0.26497673314568165
2240000000.0 -0.2580964269531255 -0.0750605476597342
2260000000.0 -0.24032611907866713 -0.10860185423807404
2280000000.0 0.21066841211855394 -0.13739090098430387
2300000000.0 0.1835271077466025 0.15592754335142664
2320000000.0 0.029272171190740142 -0.22880320952198047
2340000000.0 0.2019162293657157 0.11154708224410423
2360000000.0 -0.17339116188943396 -0.1463528116374145
2380000000.0 0.2316856932226103 0.04871262615691212
2400000000.0 0.1153925086500125 0.2209344837068049
2420000000.0 0.03368612748729567 0.26921064948092543
2440000000.0 0.29743771076901554 0.04075091047544524
2460000000.0 -0.3270062110041857 0.0636626963331583
2480000000.0 0.29697028003891085 0.21505477746253052
2500000000.0 -0.39993747477191743 0.03454939372338991
2520000000.0 0.11617432755379137 -0.4289116060556736
2540000000.0 0.4799501836555714 -0.007389713260924128
2560000000.0 -0.39555245836940445 0.32562860705743707
2580000000.0 0.0968921019888382 -0.5342744268714008
2600000000.0 0.09715112762532174 0.5650832848069148
2620000000.0 -0.44830565800716526 -0.3974019300234647
2640000000.0 0.6137047288527844 0.07442648982446144
2660000000.0 -0.4604111955462646 0.43850707078959344
2680000000.0 -0.3378521766586047 -0.552798566736269
2700000000.0 0.4353039257903153 -0.494554601962405
2720000000.0 0.6440603674287619 -0.16714632839769317
2740000000.0 0.6696361691685144 0.031059038835152427
2760000000.0 0.6648147776868514 0.10653324901175086
2780000000.0 -0.24849273529526175 0.621204011670738
2800000000.0 -0.4057435720472411 0.5222575271510599
2820000000.0 -0.6186484090971924 0.20639381877441731
2840000000.0 -0.2986922068045439 -0.5670726570053104
2860000000.0 0.6163443256138589 0.12366902710554684
2880000000.0 -0.6087619301913397 -0.07901020499983974
2900000000.0 0.45297953149595094 0.38754929405132615
2920000000.0 0.21363440059851518 -0.5336542139947898
2940000000.0 -0.4426980192336064 -0.3286857130144678
2960000000.0 -0.49389274323575216 0.19004535194906813
2980000000.0 0.0012335410036818824 0.5068968611525195
3000000000.0 0.4837228892133718 -0.02167946491589636
3020000000.0 -0.2611071541996961 -0.3768573520669858
3040000000.0 -0.07619207412507242 0.4282743559831276
3060000000.0 0.10442767141322899 -0.39225272798034805
3080000000.0 -0.2616927297083384 0.2779560987507508
3100000000.0 0.1856493412219014 -0.3084000086189411
3120000000.0 -0.1117790744836215 -0.32804708779009056
3140000000.0 0.006780208493649819 0.33952896421259904
3160000000.0 0.0028989473158525115 -0.3348467940574429
3180000000.0 0.01568103944680037 0.33190845147618886
3200000000.0 0.1914596750895684 -0.2633971435406773
3220000000.0 -0.15172595254815913 -0.2740438161490015
3240000000.0 -0.27018779036303114 -0.13869498463130553
3260000000.0 -0.2586040392573322 -0.1366274743327463
3280000000.0 -0.1340667810178517 -0.24004975743143947
3300000000.0 0.17276323865676435 -0.18464578560285133
3320000000.0 -0.0028289459805149373 0.23321977587344292
3340000000.0 -0.19745202739051096 0.06816552218553237
3360000000.0 0.17297101232842022 0.05266183214581889
3380000000.0 0.09567298200777709 -0.12899958414807008
3400000000.0 -0.13340504262576192 -0.04591218441181168
3420000000.0 -0.10235709573990087 0.0746190129070548
3440000000.0 0.10961711468875614 0.050320495954192676
3460000000.0 -0.014679737420811557 -0.10704751134842228
3480000000.0 -0.06800823628033877 0.06337379944101967
3500000000.0 0.06835414360740213 0.05388258588456048
3520000000.0 0.04993343346180431 0.05618513374747056
3540000000.0 0.07110837801766806 -0.0013144786573115244
3560000000.0 -0.07033308425634012 0.030513357988330696
3580000000.0 0.07635518874525236 -0.04084469957366822
3600000000.0 -0.02916854832390486 0.08879724459510163
3620000000.0 0.05996532277170972 0.08420025316267862
3640000000.0 -0.10691645732294076 0.008037962752188902
3660000000.0 0.020899549815324676 -0.11458506975942644
3680000000.0 -0.09584835929739677 -0.06522690726338806
3700000000.0 -0.013678534803712773 -0.10204766966921819
3720000000.0 -0.06765447039707546 0.06569734636886532
3740000000.0 0.08599316309737724 -0.0038997781796257713
3760000000.0 -0.008460767728694052 -0.07798604523747785
3780000000.0 -0.05100122144529428 0.04491411065988228
3800000000.0 -0.004286852426721369 -0.04790506373095337
3820000000.0 -0.018817014790754687 0.03301803453227629
3840000000.0 0.03600888401960523 -0.03166698675911891
3860000000.0 0.062467272609599944 -0.04545390198147535
3880000000.0 0.05013087351326608 -0.08359191967289979
3900000000.0 0.06264967410141163 -0.08628723067535879
3920000000.0 0.10579937762783886 0.0015817256035154748
3940000000.0 0.04618675185524984 -0.09212949900601304
3960000000.0 0.011585777938953249 -0.10039595068056478
3980000000.0 -0.0792756942305741 0.05502275900170758
4000000000.0 0.08486280619823908 -0.013648650535554373
