!Created with skrf (http://scikit-rf.org).
# Hz S RI R 50.0 
!freq ReS11 ImS11
400000000.0 -0.8247320859827126 -0.036456796484150955
420000000.0 -0.5412031750323499 0.5356475308416877
440000000.0 0.21872833818661225 -0.7223028913808199
460000000.0 0.4654613439801724 -0.5696140683506704
480000000.0 0.48927613901586 0.42535170122100374
500000000.0 -0.4828380543776638 0.0077820082454252894
520000000.0 0.2758996557001493 -0.28599659736651856
540000000.0 0.0615392701462707 0.4964897166653611
560000000.0 0.3942509558360081 -0.2938579933596421
580000000.0 -0.018028989281422162 0.4186946439930306
600000000.0 -0.4171901702437742 -0.12011893553652314
620000000.0 -0.3654706732110493 0.12419469289023272
640000000.0 -0.34531750532170796 -0.06820999801182409
660000000.0 -0.29361880933067924 0.25749920802899834
680000000.0 0.05625181446171049 -0.36997850224377965
700000000.0 0.011547278597982292 0.3640726300434267
720000000.0 -0.05339376231372959 0.3467776758109853
740000000.0 -0.22534191428273925 0.23469086117458884
760000000.0 0.2527870204678499 0.16233330937072954
780000000.0 0.18414981483422554 0.20832392409191458
800000000.0 -0.036631549799299376 -0.22932100698969582
820000000.0 0.11165517769589853 0.17699593557576682
840000000.0 -0.12131970498105435 0.15750621477833912
860000000.0 -0.05673158286103073 -0.17429439529460805
880000000.0 0.12866926753358376 -0.11922678070936375
900000000.0 0.061514122584211725 0.14042876187268857
920000000.0 0.11160472870540028 -0.09958605906039439
940000000.0 0.03766491793315002 0.13022819266455074
960000000.0 -0.09655229319431853 -0.004703816537390718
980000000.0 -0.05109643076330598 0.028695342087228518
1000000000.0 0.03941369246864242 0.01990163351199282
1020000000.0 -0.04448355924705943 -0.021043824346817883
1040000000.0 -0.06920535523259551 0.013113882864833547
1060000000.0 0.042709119915071383 -0.08909019696405424
1080000000.0 -0.1474522558259978 0.006077429044971437
1100000000.0 -0.06839508117313792 -0.16730427059907624
1120000000.0 -0.16182578355959937 0.15823621486733463
1140000000.0 0.273068049554188 -0.029030151767789114
1160000000.0 -0.2650137877491551 -0.127703292136558
1180000000.0 -0.016369934874845282 0.30972892029712834
1200000000.0 0.23891375626263978 0.22380474446588114
1220000000.0 -0.12918008722450372 0.3085200672223804
1240000000.0 0.20986252941403283 0.2626411733304305
1260000000.0 -0.2980510024477624 0.14150289256484108
1280000000.0 0.19821914774103455 -0.26211782677688883
1300000000.0 -0.08973164761140778 0.3397975210585819
1320000000.0 0.3735840712663881 0.039364799915867346
1340000000.0 -0.2721520146226977 0.2634033699632395
1360000000.0 -0.3497664218201477 -0.14086085659886607
1380000000.0 0.37544390085770535 0.005337983317105961
1400000000.0 -0.14540430470922405 -0.34537654994248507
1420000000.0 -0.37261504954611413 0.062223055350645436
1440000000.0 0.2776548114683853 0.24057046065629462
1460000000.0 0.12843430644517143 -0.3398406748472719
1480000000.0 -0.09823839873902732 -0.3407853045668364
1500000000.0 0.03240586584443296 0.32704910274048044
1520000000.0 0.2734350991466877 -0.15089464791466936
1540000000.0 -0.027786383425370344 0.27601303497710916
1560000000.0 0.1372881854866159 -0.20187379943216513
1580000000.0 -0.04215303376905251 0.1962326810959241
1600000000.0 0.17498865335611463 0.01013653110990852
1620000000.0 0.07592493382604339 -0.12911830201032454
1640000000.0 -0.12301067590371005 0.04011459074504562
1660000000.0 0.10476963675148349 -0.050360248403470455
1680000000.0 0.08741745433553091 0.039954214985238316
1700000000.0 -0.04819518179729413 0.05646613433575885
1720000000.0 -0.05415631302282907 -0.010468622585652839
1740000000.0 -0.023950126860149287 -0.034916174683885845
1760000000.0 0.0118071946660866 0.05526512951697925
1780000000.0 0.09168047238514737 -0.02701788092920481
1800000000.0 0.12750835020695778 -0.013997856063100982
1820000000.0 -0.06368898520719055 0.1397949319190399
1840000000.0 -0.16838485337980566 0.08894342718312448
1860000000.0 -0.2049552038050663 0.08183979801706869
1880000000.0 0.23718252178322 0.05818341315207268
1900000000.0 0.2658841459971049 -0.026575895873690178
1920000000.0 -0.24977000197484645 0.1470543770999106
1940000000.0 0.20574376905656339 -0.21761493858479722
1960000000.0 0.10627450534133763 0.2865840509095779
1980000000.0 -0.3011820699408275 0.05031436116679482
2000000000.0 0.21897461273437638 -0.20619205726449086
2020000000.0 -0.2279469124891836 0.19681307097719183
2040000000.0 -0.23752052598653114 -0.21083305222250845
2060000000.0 -0.3218806013553783 0.05864011713407676
2080000000.0 -0.13110405290083954 0.29950603454469027
2100000000.0 -0.15379664194647694 -0.27732541561610186
2120000000.0 0.30259937240700524 0.05841714018517268
2140000000.0 -0.23386489598953805 -0.18208624858684547
2160000000.0 -0.29320113891365734 -0.037829132226436704
2180000000.0 0.0044844644595172 0.293805491040444
2200000000.0 0.28180557998055855 0.023667911297393894
2220000000.0 0.06222148273683105 0.26263443673854603
2240000000.0 -0.22952710825563283 -0.1336998370972222
2260000000.0 -0.042581404512267114 -0.2609192548923426
2280000000.0 0.23038417474746004 -0.11359548502667804
2300000000.0 0.234330909045268 0.07327878326371108
2320000000.0 -0.23094437478474703 -0.013231852010094657
2340000000.0 0.22509374299953236 -0.0256792171585373
2360000000.0 -0.0772155730406137 -0.2102293879750216
2380000000.0 0.1987847471431668 0.11918914095679581
2400000000.0 -0.24600863103451592 0.033889742615047895
2420000000.0 -0.20468961505527067 0.18537739369262096
2440000000.0 0.2701407431176667 -0.13837223882322472
2460000000.0 -0.17552752926348122 0.2843828503664023
2480000000.0 0.3584738008873101 0.06477919996266884
2500000000.0 -0.3800576932687943 0.1193510751825646
2520000000.0 0.1148644982489739 -0.4240319113820497
2540000000.0 0.3587536575275014 0.315008117339215
2560000000.0 -0.4900900395808083 0.15765940300783574
2580000000.0 0.17343431010682844 -0.5175983442784208
2600000000.0 0.1698822819030969 0.5501941328795341
2620000000.0 -0.4866026007979028 -0.3487019248745239
2640000000.0 0.6152545858388797 0.04545424871614632
2660000000.0 -0.5212783630955573 0.3621370553646857
2680000000.0 -0.26716698739837585 -0.590338414395784
2700000000.0 0.4652264814203492 -0.46671610520976153
2720000000.0 0.6548901170894645 -0.11531897677102673
2740000000.0 0.6629880152647113 0.09667899447978584
2760000000.0 0.6663100364918586 0.09556699034671211
2780000000.0 -0.2130897482254351 0.6349713154624831
2800000000.0 -0.37242677814855457 0.5473137453432553
2820000000.0 -0.6286675134951649 0.17444534172740822
2840000000.0 -0.24242297364775017 -0.5930060188551162
2860000000.0 0.6081340392582792 0.15616282814897742
2880000000.0 -0.6027683484351652 -0.11786187833169161
2900000000.0 0.4014246893603259 0.44131642490867945
2920000000.0 0.278399867588856 -0.5039060903786081
2940000000.0 -0.3915826353778545 -0.3922594505094728
2960000000.0 -0.4441719210761323 0.29309306366161914
2980000000.0 0.12327576506674096 0.49186189961276394
3000000000.0 0.4540546483880952 -0.16965692726438195
3020000000.0 -0.32645392485752855 -0.31978683814883263
3040000000.0 -0.12176265409230541 0.4143937504324843
3060000000.0 0.2655990914772326 -0.30623736256549633
3080000000.0 -0.3287166393321958 0.19322125480606767
3100000000.0 0.22815213780849786 -0.2823575243562817
3120000000.0 -0.21232980955816122 -0.27528204323086003
3140000000.0 -0.11973299803057053 0.31669866448327866
3160000000.0 0.17455384531264476 -0.28637429461328845
3180000000.0 -0.2740940950264588 0.19254824146011087
3200000000.0 0.18093683660397572 -0.27561258614001577
3220000000.0 -0.31425188761535894 -0.06287770212912766
3240000000.0 -0.11188966304076009 0.28269025684092364
3260000000.0 -0.24819362992056235 0.13805761232231464
3280000000.0 -0.07445318715804572 -0.25926739651566927
3300000000.0 0.24818684679367764 -0.041063904674120855
3320000000.0 -0.17652397945966436 0.15440998653341484
3340000000.0 -0.197122525459383 -0.07975651106191631
3360000000.0 0.15979711263173568 0.09496465411866373
3380000000.0 0.12196005766577411 -0.10567080725121468
3400000000.0 -0.13539531880383854 -0.0495537371812873
3420000000.0 0.12582125770634475 0.0036381831474436017
3440000000.0 0.11670742557888156 -3.698907724831091e-05
3460000000.0 0.09379914742988622 0.04796315152978847
3480000000.0 -0.07170331141076165 -0.0600163041963857
3500000000.0 -0.021468799527956245 0.08191307478686734
3520000000.0 -0.05320714901848937 0.05444492268575559
3540000000.0 -0.006705632481860897 -0.0713212102044671
3560000000.0 -0.06915154654190242 0.034314536152337705
3580000000.0 0.026524275421747505 -0.08205267067922932
3600000000.0 0.010283885727398015 0.09460667774088971
3620000000.0 -0.06355649771558325 0.08007877102924578
3640000000.0 -0.1010247963872591 -0.04602501203133008
3660000000.0 0.010885844616403814 -0.1184947069784242
3680000000.0 -0.09374174632006561 0.06660678219753585
3700000000.0 0.09842091211018397 0.023450891902714883
3720000000.0 -0.06004651352192436 0.07537489655994861
3740000000.0 -0.042399698372378725 -0.07066159964556282
3760000000.0 0.07574786589230556 0.004958622249983742
3780000000.0 -0.03166966083413454 -0.05895995770496317
3800000000.0 -0.03666631594646236 -0.03236911801011975
3820000000.0 0.03897756072018188 0.0038497909950422748
3840000000.0 0.012068942111667291 -0.045451506350515654
3860000000.0 0.024286683771291822 0.06981502565984153
3880000000.0 0.09598130945185251 0.011982488983927803
3900000000.0 0.04373710158005904 -0.0951048871894571
3920000000.0 0.09515140459207498 0.04825440084190391
3940000000.0 0.09052669918252966 -0.04657271963772705
3960000000.0 0.06450546408198335 -0.07806047919186972
3980000000.0 0.0051333267837800805 0.0975015468288895
4000000000.0 0.00867069088505953 -0.0835495734922594
