!Created with skrf (http://scikit-rf.org).
# Hz S RI R 50.0 
!freq ReS11 ImS11
400000000.0 -0.7969915048312227 -0.22957485980087275
420000000.0 -0.3127475760146977 0.6968770271835028
440000000.0 -0.09126108892042925 -0.7418441200408218
460000000.0 0.5758606515885393 -0.4591084188676189
480000000.0 0.5328057669067833 0.3688300849828524
500000000.0 -0.41858887824236357 -0.23230715655838088
520000000.0 0.4001300735714343 -0.02278229446175615
540000000.0 0.28473443424300005 0.41883051874463
560000000.0 0.3568434095045121 -0.341965055138738
580000000.0 -0.25916413978947545 0.3338886564901255
600000000.0 -0.3565331363726112 0.2518584870495584
620000000.0 -0.00442299321617341 0.37789119056940085
640000000.0 -0.2447291487918995 -0.2486657001890576
660000000.0 -0.2574759352012594 0.2936615195167495
680000000.0 0.2140693861247083 -0.3069163545678924
700000000.0 -0.07326647396065909 0.3649206832770798
720000000.0 0.21700257915753549 0.27028617954346734
740000000.0 -0.3226494178760009 0.07425722855340558
760000000.0 0.1186395384923074 -0.2733427632346736
780000000.0 0.020069134499696637 0.2742242356150098
800000000.0 0.2048129382443717 -0.0991245042037758
820000000.0 0.18403152833287534 0.1016728616740817
840000000.0 -0.17231394039459644 0.1004177159798142
860000000.0 0.17302057854961073 -0.057748165661525123
880000000.0 0.16887899930041284 -0.0468133915249883
900000000.0 -0.0026050602869790137 0.1588884443241767
920000000.0 -0.10626871844693452 -0.10982858573361083
940000000.0 0.03697830595020031 -0.12840979288578788
960000000.0 -0.08508487739959189 0.034101988668380254
980000000.0 0.02421740825246423 0.05056675526260472
1000000000.0 -0.023303828075135202 -0.03963490535637092
1020000000.0 -0.05074754967033775 -0.014211808284365437
1040000000.0 0.021548372553699433 0.06764643405177415
1060000000.0 0.04612837973118824 -0.08064547241352331
1080000000.0 0.08151530909531424 -0.12434332917477905
1100000000.0 0.06821227830601329 -0.16993353106563022
1120000000.0 0.0645029598840753 0.22065962802868336
1140000000.0 0.23608735777712542 -0.13956046422989865
1160000000.0 -0.2863696662828234 -0.06211051085049252
1180000000.0 0.11191625377333832 0.28988903740828165
1200000000.0 0.3208395565710483 0.06253236938937826
1220000000.0 -0.17150094292644885 0.2845946315550307
1240000000.0 -0.060947804577032944 0.3319165115238817
1260000000.0 -0.3295264988151336 -0.04273896948187706
1280000000.0 0.06721916101360526 -0.3260664450610754
1300000000.0 0.24153130519296806 0.25205216019732085
1320000000.0 0.3566349996057925 0.10607029550461543
1340000000.0 -0.31100858476986254 0.21886453085304455
1360000000.0 -0.37223142466830306 -0.05856027284906119
1380000000.0 0.36604127458643065 0.0715501096730467
1400000000.0 -0.10537079050208595 -0.3615909766398716
1420000000.0 -0.3371026429545441 0.1719018291867897
1440000000.0 0.24699191944583457 0.27117882369771873
1460000000.0 0.15583715803718826 -0.32878321000520294
1480000000.0 -0.28008577843306465 -0.21464682968607568
1500000000.0 0.1198499609596628 0.30365930613828773
1520000000.0 0.3066325807417424 -0.05168777597232426
1540000000.0 -0.16769580229965073 0.22172092736384286
1560000000.0 0.2210966925833091 -0.1071620808003377
1580000000.0 0.028056605827681963 0.20185222475620399
1600000000.0 0.14427514750980602 -0.09778178462776324
1620000000.0 -0.011093309652196383 -0.1465946375460369
1640000000.0 -0.12625501544863305 -0.024463758520434035
1660000000.0 -0.012952022909546676 0.11729132074764191
1680000000.0 0.018273156458001736 0.09738076115328617
1700000000.0 0.06731079523920697 0.0348835129648115
1720000000.0 0.054662964171678596 -0.002707516741722602
1740000000.0 0.03014689647353728 -0.02325834798114237
1760000000.0 0.027336886698507194 -0.05042784695358898
1780000000.0 0.09685494336549753 -0.007754715627796698
1800000000.0 0.12332542825903473 -0.0416722588487601
1820000000.0 0.07909303503863807 0.13500634983355095
1840000000.0 -0.07025885527906031 0.17352286218345292
1860000000.0 -0.2170176439512241 -0.0026889564952834472
1880000000.0 0.1369193544691381 0.20162765773307267
1900000000.0 0.25630130152630426 0.08328877554337222
1920000000.0 -0.27132290122560404 0.10513904622288929
1940000000.0 0.13787815894399308 -0.2670735098742857
1960000000.0 0.14647836510583193 0.267879725530191
1980000000.0 -0.3019751665541236 0.04787283995231746
2000000000.0 0.16016904963270215 -0.25544603801967497
2020000000.0 -0.12588937057085947 0.272335649735322
2040000000.0 -0.19115769537073218 -0.2505263485112101
2060000000.0 -0.3260875027000859 -0.0017745658986724352
2080000000.0 -0.24242222981743416 0.21981313944055386
2100000000.0 -0.15570997639286419 -0.2786835290698102
2120000000.0 0.308308921752553 0.005193611731380882
2140000000.0 -0.27606418869987803 -0.11150816087501171
2160000000.0 -0.29508190400695494 -0.017058853434836704
2180000000.0 0.1351682741513041 0.2599637272407962
2200000000.0 0.26359874327563715 0.09730227487877419
2220000000.0 0.009025984379432831 0.2697629875567024
2240000000.0 -0.22750198772408653 -0.13872320955835596
2260000000.0 -0.041059432062992327 -0.26220961132280646
2280000000.0 0.21866376700183265 -0.1364393304730507
2300000000.0 0.24162917405313197 -0.041894319087063155
2320000000.0 -0.22751291661595524 -0.03208743966615195
2340000000.0 0.20030249529511107 0.10326415984954487
2360000000.0 -0.031488405109041946 -0.22329730930157735
2380000000.0 0.18975762561772677 0.1347211188628359
2400000000.0 -0.15644272387525962 0.19479248617994793
2420000000.0 -0.07199362347277762 0.2640297304183762
2440000000.0 0.2941661900574806 -0.061712898590379955
2460000000.0 -0.29770836643120285 0.14950659746695347
2480000000.0 0.32357441614133114 0.1724870978212435
2500000000.0 -0.35594967881970857 0.1834889536944232
2520000000.0 0.041707001353552 -0.4381684173945734
2540000000.0 0.39506283475612947 0.2682163145533589
2560000000.0 -0.45266117764883235 0.24216543748918984
2580000000.0 0.19029396606947982 -0.510276993225333
2600000000.0 0.10351123503225958 0.5664360293276599
2620000000.0 -0.45306768663431346 -0.392152399091809
2640000000.0 0.6170037524564769 0.014202891885751483
2660000000.0 -0.494995266953568 0.3987091627590043
2680000000.0 -0.2355894585655611 -0.6039203455159861
2700000000.0 0.49317003753425126 -0.4370018770699974
2720000000.0 0.6621621932083278 -0.06521707105290098
2740000000.0 0.6609901269249043 0.10790010661415017
2760000000.0 0.6603699651705636 0.1284862823428067
2780000000.0 -0.29648944358673707 0.6008311574052273
2800000000.0 -0.3591138692778629 0.5561062024949539
2820000000.0 -0.62839947089046 0.1754454294040722
2840000000.0 -0.23771432917191507 -0.5951061475064485
2860000000.0 0.5905089830547616 0.2136222750532687
2880000000.0 -0.6025367316048306 -0.11657426474158837
2900000000.0 0.3955772643556498 0.447420581060152
2920000000.0 0.2634365144145735 -0.512632507144338
2940000000.0 -0.4394194192028214 -0.33682645529764776
2960000000.0 -0.4267883093215227 0.31506866008085765
2980000000.0 0.03812025304802953 0.5063403362913874
3000000000.0 0.4671321725130086 -0.13410194893944435
3020000000.0 -0.3895548362825659 -0.2430160061766027
3040000000.0 0.04396323926246491 0.42901376846184264
3060000000.0 0.11677328418302904 -0.3858517815280697
3080000000.0 -0.35357871845707395 0.13858371106414608
3100000000.0 0.3235478794310848 -0.16446924630535717
3120000000.0 -0.14704895325881265 -0.31671607330955476
3140000000.0 0.0033208050636888424 0.34030614687195454
3160000000.0 0.1646232888267695 -0.29165625031129094
3180000000.0 -0.21382373462037765 0.2563213694899351
3200000000.0 0.1853092185703805 -0.27238241030846494
3220000000.0 -0.28995531171070726 -0.13453514430399857
3240000000.0 -0.18706583097780535 0.24012565012137563
3260000000.0 -0.2259517889179431 0.17533299516489334
3280000000.0 -0.10576069051559539 -0.24838772110654295
3300000000.0 0.24998622262143683 -0.033364554400145637
3320000000.0 -0.14180722252074504 0.18593070786711685
3340000000.0 -0.1964566967795287 -0.08022322179944145
3360000000.0 0.049976089710773636 0.17912707770099306
3380000000.0 0.07413690833133242 -0.1417290742571879
3400000000.0 -0.08638979381960701 -0.11556339187298063
3420000000.0 0.09149278595015811 0.08983220467725912
3440000000.0 -0.03380339572096014 -0.11378559491187773
3460000000.0 0.06741331161485163 -0.07746876678092397
3480000000.0 -0.009789424602103686 -0.08890462512848242
3500000000.0 -0.07870164254483217 0.03252740747311473
3520000000.0 -0.07422324342535636 -0.017188588136759702
3540000000.0 -0.027324757822885484 -0.06874781473304471
3560000000.0 0.015200152650214847 0.07716028754448657
3580000000.0 -0.04392208122408722 -0.07158010186763156
3600000000.0 -0.039662695941562576 0.08516822914579915
3620000000.0 -0.08688830797871502 0.05504694369851609
3640000000.0 -0.10835269229526732 0.020699924628385588
3660000000.0 0.021473445092403856 -0.11581147976142034
3680000000.0 -0.10796801998099392 -0.04181446095634437
3700000000.0 0.08471836725615224 -0.05957121605854924
3720000000.0 0.029926566220498396 0.09197860628492205
3740000000.0 -0.04227718978790488 -0.06934627425970746
3760000000.0 0.03487167436817497 0.06620384013929836
3780000000.0 0.06300947340250802 -0.027263679821717176
3800000000.0 -0.04594743200096805 0.021206609740151122
3820000000.0 -0.030260388401765256 -0.023425853388546226
3840000000.0 0.04622582032559937 0.0010149319474912289
3860000000.0 -0.004129069163388968 0.07482249077308117
3880000000.0 0.07914827677450488 0.05693563658675889
3900000000.0 0.040968994230086105 -0.09796691457358606
3920000000.0 0.09702640120632879 -0.04153783859573724
3940000000.0 0.08957190943266218 0.04411666806338762
3960000000.0 0.10087176752849945 -0.019192533251847065
3980000000.0 0.0721645831339798 0.06495714317747259
4000000000.0 0.04869110568231178 -0.06630790272813732
