!Created with skrf (http://scikit-rf.org).
# Hz S RI R 50.0 
!freq ReS11 ImS11
400000000.0 -0.3063068464002181 -0.7656805212796972
420000000.0 -0.4890525161674217 0.5902888622720147
440000000.0 -0.38902784371330784 -0.6400393632689844
460000000.0 0.5047273623749875 -0.5346894960933511
480000000.0 0.6205406924137804 0.17011701638945267
500000000.0 0.44346665026743814 -0.15461837452202903
520000000.0 0.3976924566878573 -0.10360774946955703
540000000.0 -0.09132217840036606 0.49227449831827835
560000000.0 0.00965965094335538 0.49697676466647966
580000000.0 0.2351973794663224 0.3768215155446855
600000000.0 0.4414528905293564 0.048741479405916395
620000000.0 0.06904337731447152 0.38801241442058754
640000000.0 -0.27468168065852094 0.22663704330639187
660000000.0 0.32885416717807825 -0.1800319181244923
680000000.0 -0.31670471519715526 -0.1315008389970877
700000000.0 -0.35708279458649056 -0.03558268741483159
720000000.0 -0.2127025228926313 0.2629340821360309
740000000.0 -0.03968961025233819 -0.32189264829194336
760000000.0 0.23133234872650935 0.196250770155689
780000000.0 0.246012147544343 0.13079154000068646
800000000.0 -0.1807831265799452 -0.14560778959906076
820000000.0 -0.11088607872356056 0.1743426088528298
840000000.0 -0.18821270747878843 -0.05779443883127518
860000000.0 -0.1871112356350436 0.0131123548223518
880000000.0 -0.1788723278956256 -0.04445389093358176
900000000.0 0.029143441189621748 0.16470930720287733
920000000.0 -0.152126126318639 -0.02144361401572985
940000000.0 0.12830911195146755 -0.03242217216759131
960000000.0 0.06471707068610916 0.07260694778513363
980000000.0 -0.05316739504995996 0.005128281870737147
1000000000.0 -0.032800451540752285 -0.009882821319219701
1020000000.0 -0.03689809203395299 0.001948532332028002
1040000000.0 0.0672113902338321 -0.029615453756977408
1060000000.0 -0.11619777905011797 0.04632008719953155
1080000000.0 -0.10620656495034482 -0.12981282720826884
1100000000.0 -0.019200952805015076 0.18641164526060533
1120000000.0 0.04468623411547425 0.21963705969436037
1140000000.0 -0.0020278652288863008 -0.24798538387540955
1160000000.0 0.2762399488693529 0.06009228038576443
1180000000.0 -0.028977377328835388 0.30472064412627065
1200000000.0 0.1609638698525668 0.2792312845819233
1220000000.0 -0.27357686578175644 -0.17287825422947325
1240000000.0 -0.2911568820824767 -0.17024379206377438
1260000000.0 0.05481851523856802 -0.3399951010452043
1280000000.0 -0.09358816955567853 -0.3389255054703315
1300000000.0 0.02788979673365081 -0.3552252632658375
1320000000.0 0.0493898363072578 -0.3597591361603579
1340000000.0 -0.34555283073945364 0.1285994327325654
1360000000.0 -0.11262773949177339 -0.35719648752779165
1380000000.0 0.27018973787080347 0.2707463347192646
1400000000.0 -0.3836244843586001 -0.014347378270443363
1420000000.0 0.22557450499716042 0.2944918185578412
1440000000.0 0.2453347382330005 0.2647059577848193
1460000000.0 0.1684448768835957 -0.3169991075404425
1480000000.0 0.15473648580749896 -0.30813100863514337
1500000000.0 -0.30180162251449855 0.138944005335474
1520000000.0 0.30038772916957684 -0.09354187753279908
1540000000.0 -0.25804365230713694 0.1104283255748024
1560000000.0 0.24528962417189032 0.00992341403032577
1580000000.0 -0.16135231956059934 -0.1378244205005013
1600000000.0 -0.18046555558579924 -0.04744342241625588
1620000000.0 0.14418086748949524 0.036845581306882216
1640000000.0 0.0633704515701437 -0.10528537637320143
1660000000.0 0.03219480704307715 -0.0994351483692765
1680000000.0 -0.07710303414890131 0.04770587738454626
1700000000.0 0.04264860820045638 -0.055470475034093525
1720000000.0 0.0020797460382904484 -0.052276778452446895
1740000000.0 0.021532072955382647 0.04714721410777983
1760000000.0 0.04905025722403664 0.03979101099035048
1780000000.0 0.04100037637259299 0.08289698182149738
1800000000.0 -0.006901079282848362 -0.11895138688769383
1820000000.0 -0.12286186140433607 0.08690717964740086
1840000000.0 -0.149010272973453 0.1154004326211148
1860000000.0 -0.21828943862216918 -0.014244709142320459
1880000000.0 0.20421459042250636 0.13689485807736634
1900000000.0 0.18432088440085406 -0.19375933786228236
1920000000.0 -0.2872168596209869 0.023969440850100047
1940000000.0 0.2929113707806936 -0.048744931486364024
1960000000.0 -0.2631163066916289 0.15359959647386326
1980000000.0 0.0331544632153233 -0.3110313044960463
2000000000.0 0.2949616050900273 -0.11651979951334213
2020000000.0 0.29328058122388423 -0.12048218192841739
2040000000.0 0.3144787728814002 -0.015791077783484035
2060000000.0 0.29080970939994555 0.10723630696357235
2080000000.0 -0.25236636062046475 0.17379960242795542
2100000000.0 0.30225477524567324 -0.04695143063899796
2120000000.0 -0.28561373485608654 0.11255184216783572
2140000000.0 0.21235442088587433 -0.21556982384332535
2160000000.0 -0.2946204234213765 -0.08052981227776457
2180000000.0 0.25414622673070264 0.1572410374763863
2200000000.0 0.2443965983728584 -0.1511124342564738
2220000000.0 0.272261383197579 -0.03158141648419814
2240000000.0 -0.1802816857666956 0.19246260240600932
2260000000.0 -0.12645199142933106 -0.2252511863570189
2280000000.0 0.2405857759896582 0.08099071766395963
2300000000.0 0.12342955796034591 0.21153350108101904
2320000000.0 -0.1857413218711444 -0.13837814250410213
2340000000.0 0.22200133111538722 0.04369718671331073
2360000000.0 -0.07320433402126515 -0.21433608833171006
2380000000.0 0.1925447842997404 0.12830166998393863
2400000000.0 -0.16638724853645612 0.18628206649306134
2420000000.0 -0.0786601158052885 0.2621790925588859
2440000000.0 0.2939904043487321 -0.0684855532510416
2460000000.0 -0.2848621620605175 0.1704741839363645
2480000000.0 0.32044179357123215 0.17540003293480555
2500000000.0 -0.3641851449314025 0.16926354778915464
2520000000.0 0.02880696442153537 -0.43878941051300824
2540000000.0 0.3646113455408332 0.30698340319689066
2560000000.0 -0.4527952181373361 0.24271451631955024
2580000000.0 0.1436344817554636 -0.5243593791431647
2600000000.0 0.0519907075656306 0.5710505071812401
2620000000.0 -0.44445897650484645 -0.4002425117697945
2640000000.0 0.6037816385255185 0.13185626091872285
2660000000.0 -0.45791659617992486 0.43981747549364486
2680000000.0 -0.29980779654744627 -0.5736642926508118
2700000000.0 0.4807247722126015 -0.44995320346953116
2720000000.0 0.6650226717607082 0.02437377509127446
2740000000.0 0.6622304530737727 0.1018111345564853
2760000000.0 0.6540586169807655 0.1595757200155597
2780000000.0 -0.29406713518652017 0.6011513086445499
2800000000.0 -0.4527183896999228 0.48260526332089043
2820000000.0 -0.6484799838066112 0.07741761059840783
2840000000.0 -0.21097112726253706 -0.6056803180937613
2860000000.0 0.5834576781376206 0.23258365622746902
2880000000.0 -0.596326562693249 -0.14359416359293187
2900000000.0 0.40765388804786856 0.4362944437736356
2920000000.0 0.2731507331267645 -0.5087341134745458
2940000000.0 -0.4407373057571075 -0.3355509625047938
2960000000.0 -0.4778609024095867 0.2302815828323059
2980000000.0 -0.04729830056371507 0.506359513897247
3000000000.0 0.4748936451674971 -0.10628756846318932
3020000000.0 -0.28544973451938954 -0.3618785414723952
3040000000.0 -0.05258411546866661 0.43003366591217307
3060000000.0 0.1808062155874903 -0.36288700197939583
3080000000.0 -0.31738889774712836 0.21121775500809667
3100000000.0 0.2895685180410089 -0.21378747449961769
3120000000.0 -0.12525044604691907 -0.3246187335533782
3140000000.0 -0.004411948705016006 0.3403472079627749
3160000000.0 0.07703713829307184 -0.3260431073009382
3180000000.0 -0.09778152166677509 0.3195220682220065
3200000000.0 0.1306227169464148 -0.3028381970304157
3220000000.0 -0.2831449462531768 -0.14674813685456808
3240000000.0 -0.1831886515275284 0.24270392490649698
3260000000.0 -0.24950742752811303 0.1422167775520194
3280000000.0 0.022502715377504402 -0.2686991485736861
3300000000.0 0.23028779932863178 -0.10541502299043408
3320000000.0 -0.21993037490553602 0.07415213331599028
3340000000.0 -0.04076294927877199 -0.21010952645458647
3360000000.0 0.11676134580136421 0.1504818124602695
3380000000.0 -0.16149329232017554 0.008202279935248578
3400000000.0 -0.03350860138020755 0.13450756710265893
3420000000.0 0.07406751285809397 0.09904994280959756
3440000000.0 0.11288693562747061 0.00597026494457718
3460000000.0 0.055687664103891886 0.08766891223363886
3480000000.0 0.09296035974958114 0.023031396347057198
3500000000.0 -0.07271676847843252 0.056219315073590834
3520000000.0 0.06881508760365818 0.045811374526736746
3540000000.0 -0.06154045534246041 0.044424568987490656
3560000000.0 0.044678430981339924 -0.061970132369762045
3580000000.0 -0.060048255617580704 -0.056151213701462574
3600000000.0 -0.08796832221715922 0.02474307241520479
3620000000.0 -0.10192362032974267 0.003146182922041306
3640000000.0 -0.07084027409335181 -0.08560384805860749
3660000000.0 0.07513880437189786 -0.08960525697472677
3680000000.0 -0.0986215619050215 -0.05737998592598273
3700000000.0 0.026578665012276032 -0.0986724781599868
3720000000.0 -0.05216464507357466 0.08076456465549794
3740000000.0 -0.01290941037188842 -0.08057202262915543
3760000000.0 0.07780428491477313 -0.004572452279113426
3780000000.0 0.029058577030784627 0.06402164475170238
3800000000.0 -0.032053464333800935 -0.031905126394898675
3820000000.0 0.02507165921554799 0.025320921753105376
3840000000.0 0.05131081963851488 -0.001115600564649299
3860000000.0 -0.058430916751337166 0.04935967952625541
3880000000.0 -0.08722186698456569 -0.03561052972458401
3900000000.0 -0.017222459712469898 -0.09928808846719343
3920000000.0 0.010102091619963822 0.1040695399039594
3940000000.0 0.09906013657645402 0.029661392659604456
3960000000.0 0.009952874922677471 -0.10266851304260839
3980000000.0 0.07039115283029243 0.06687200397182366
4000000000.0 0.05175374452787183 -0.06455053536802464
