!Created with skrf (http://scikit-rf.org).
# Hz S RI R 50.0 
!freq ReS11 ImS11
400000000.0 -0.8272371910276551 0.04858771146662721
420000000.0 -0.722046223599446 0.2461127470725374
440000000.0 -0.19128115321257733 -0.7263875709908338
460000000.0 0.1532057251938545 -0.7003000019532519
480000000.0 0.34951648884387376 0.529621494796583
500000000.0 0.4670299347056287 -0.113715953232854
520000000.0 0.35006973908583927 0.22915147401600516
540000000.0 0.2882592509312159 0.4218159369781286
560000000.0 0.17975539246126881 -0.47560875026307114
580000000.0 0.387204887672097 0.19080722971653843
600000000.0 0.30804723579996074 0.312742887871985
620000000.0 0.2579483221326762 -0.28894616372406645
640000000.0 -0.3093186549414544 0.1600255722570518
660000000.0 0.34001725322029575 -0.1272806203113985
680000000.0 -0.1261628094303302 -0.32000666583302884
700000000.0 -0.32521616996057146 0.13542460996041478
720000000.0 0.3144675858571935 -0.05012851444534172
740000000.0 -0.3266313372898221 0.05393982318313549
760000000.0 -0.31718129443769816 0.031029985018166763
780000000.0 0.30136109134485217 0.0750701350003148
800000000.0 0.16183933475048748 0.18818564932136161
820000000.0 -0.012385425957747269 0.2098470098258111
840000000.0 0.1518242457400053 -0.10626474093096577
860000000.0 -0.006566951195370878 0.16957927213794158
880000000.0 0.033894271804389975 0.16674771823283302
900000000.0 0.03914417339542869 -0.14588934249250002
920000000.0 -0.07818301362077956 0.1254405999071691
940000000.0 0.1295767927360414 -0.004360778223233701
960000000.0 -0.08863876542456658 -0.020441795729668307
980000000.0 0.055747954984162795 -0.014102193305188028
1000000000.0 0.010885363624993854 -0.04384160000023073
1020000000.0 -0.029630440474025056 -0.03552396753920565
1040000000.0 0.08506219052396055 0.014355448735369317
1060000000.0 0.12498260967969387 0.010483283313961096
1080000000.0 0.10916336822943663 0.12664692533473762
1100000000.0 -0.00562118383643404 0.19842340716141885
1120000000.0 -0.01901187179237458 -0.23345162010072715
1140000000.0 0.002143416760321612 0.23914374104902075
1160000000.0 0.26547339370859346 0.009138957266645098
1180000000.0 0.20554332134977502 -0.2201038795128289
1200000000.0 -0.30084364646412315 -0.13865854650142742
1220000000.0 -0.11481915683739485 -0.31990290131094884
1240000000.0 -0.33901602767569855 -0.0838958259381274
1260000000.0 -0.3393688962399561 -0.0909009994907444
1280000000.0 -0.1526982660591678 0.3172526755079761
1300000000.0 -0.2811384868581781 -0.20305609666991256
1320000000.0 0.03220633667707061 -0.35874284521892347
1340000000.0 -0.3374627163003626 0.1430030265130962
1360000000.0 -0.3341593149310785 -0.16077891507003525
1380000000.0 0.2448903497467707 0.27997791071108674
1400000000.0 -0.07151366559766244 -0.36744304278795087
1420000000.0 -0.36705971642160073 0.05718427882367724
1440000000.0 -0.3113247244615403 0.19777106318714965
1460000000.0 0.26594088431415425 -0.25907824041777394
1480000000.0 -0.30718211727649924 -0.18821358922729914
1500000000.0 0.2799470784733596 0.18086754399418475
1520000000.0 -0.20685446363110802 -0.23190882247626268
1540000000.0 -0.04222028241007138 0.268910246960798
1560000000.0 0.23708183253405274 0.005561599133455488
1580000000.0 0.06565003951617102 -0.19458393750127137
1600000000.0 0.1614212346918181 -0.091536445181867
1620000000.0 0.07970037464002294 0.12308656627895719
1640000000.0 -0.11734297389153485 -0.015023905971298523
1660000000.0 -0.10817195166559464 0.013390265223333047
1680000000.0 -0.05463735861378763 -0.08265754110852505
1700000000.0 -0.07505862443576196 -0.01670652020729809
1720000000.0 -0.03162524512832528 0.044046878610332546
1740000000.0 -0.023546604990690286 0.036124150357174444
1760000000.0 -0.007554911773888817 0.061589986467156195
1780000000.0 -0.07823335421069227 0.05272887572807552
1800000000.0 0.0890436509298621 -0.08022685231709283
1820000000.0 -0.05821789611107528 -0.1404378874936281
1840000000.0 -0.06558526881477524 0.18020731215253322
1860000000.0 -0.21306961037518737 0.0591831439449693
1880000000.0 0.20101031641842843 0.13955202206292586
1900000000.0 0.23590071731568577 -0.12178247580490024
1920000000.0 -0.2819910944362601 -0.06556142304018521
1940000000.0 0.29815436827588765 -0.037416499580097115
1960000000.0 0.061617361419906536 0.29997141965348717
1980000000.0 -0.19156338578642662 -0.24075530032244633
2000000000.0 0.3068254616872367 -0.04893294814005532
2020000000.0 0.2933780735010533 0.12013199621967396
2040000000.0 0.31607086678006574 -0.0070265612781758875
2060000000.0 0.2105080262620257 0.229031281738913
2080000000.0 -0.292766069846388 0.09808532928459701
2100000000.0 0.30124158816343255 0.06142960118262019
2120000000.0 -0.3072884661784418 0.039708567411055405
2140000000.0 0.15665074539428342 -0.26555108808621386
2160000000.0 -0.29449023170475 0.08307822340077461
2180000000.0 0.2518388199486676 0.15951021966485474
2200000000.0 0.27430987772148785 -0.07225018700847209
2220000000.0 0.26692180759966805 0.054634805173378834
2240000000.0 -0.11919745724050482 0.23501885114635476
2260000000.0 -0.13579511489514284 -0.21914175267654737
2280000000.0 0.22341333581894254 0.11323213315412187
2300000000.0 0.02490878518454631 0.24213518283501165
2320000000.0 -0.01290461191026067 -0.2323372976449504
2340000000.0 0.11716819656279481 0.19874185479495873
2360000000.0 -0.20647806048800266 -0.09923361972711332
2380000000.0 0.18431948858607425 -0.14911166953438088
2400000000.0 0.2167084476664205 0.11833179802368297
2420000000.0 0.049854067342473676 0.2628537668122171
2440000000.0 0.23079412157871612 0.18747809845763233
2460000000.0 -0.3114320432291187 -0.11923621428384874
2480000000.0 0.26921764803081727 0.2555715323328492
2500000000.0 -0.3570679135237232 0.1867597846113882
2520000000.0 -0.07074550971444961 -0.43745158454973965
2540000000.0 0.467079825261899 0.10108819633912029
2560000000.0 -0.4216644412754666 0.2910951771773564
2580000000.0 0.14640003458024312 -0.5244111874096617
2600000000.0 0.10643938378317444 0.5647372748797416
2620000000.0 -0.44718817634488306 -0.39855552816529655
2640000000.0 0.6162360930224381 0.04386814829200904
2660000000.0 -0.4688097179911428 0.42807528297689496
2680000000.0 -0.23252551978004257 -0.6048214582157626
2700000000.0 0.44092088355284065 -0.48908143924147357
2720000000.0 0.6448534150300653 -0.1647953508040769
2740000000.0 0.6691805506055551 0.03462702096835784
2760000000.0 0.6608614084202549 0.12661961475756933
2780000000.0 -0.20289241195531918 0.6382093873463635
2800000000.0 -0.34307136262059845 0.5655807308645822
2820000000.0 -0.600186736001788 0.25631007796208355
2840000000.0 -0.3271709641146234 -0.5512328378148733
2860000000.0 0.6027833541189752 0.18034320142154228
2880000000.0 -0.6103136910726799 -0.06655226373703417
2900000000.0 0.4633284662554639 0.3739825148608238
2920000000.0 0.20843500004215723 -0.5351891420058785
2940000000.0 -0.40871925083179994 -0.3682529084284109
2960000000.0 -0.49238392359047406 0.19140040166979186
2980000000.0 -0.12050133779651781 0.4919349634319782
3000000000.0 0.48686853502590643 -0.015829901240605734
3020000000.0 -0.3437772362874882 -0.3060666005042703
3040000000.0 -0.012946479178591066 0.43380553108431524
3060000000.0 0.15841467615280996 -0.3713606161129345
3080000000.0 -0.32335751187012235 0.2007729027797811
3100000000.0 0.22124342959452312 -0.28358312334546576
3120000000.0 -0.07035642945969503 -0.34009668792563863
3140000000.0 0.0029931354007290065 0.34087486333825723
3160000000.0 -0.027639444806501472 -0.3336474869036372
3180000000.0 -0.006199459744105238 0.3314251042869066
3200000000.0 0.1937158963246119 -0.26092821740957806
3220000000.0 -0.1644231693697438 -0.2686660035910497
3240000000.0 -0.28951810081932855 -0.09415683551539912
3260000000.0 -0.28348866060696026 -0.06293072954429228
3280000000.0 -0.04059524792686598 -0.2709380217370501
3300000000.0 0.12426081347325428 -0.2213231171936824
3320000000.0 0.025519345373094113 0.23032972245098057
3340000000.0 -0.200811424414829 -0.057355565871422536
3360000000.0 0.1771787352787268 0.03880620838697458
3380000000.0 0.10334530470019865 -0.12168530070151506
3400000000.0 -0.04173344265224958 -0.1354831604399228
3420000000.0 -0.019725238996493706 0.12655877501368143
3440000000.0 0.11516286952213936 -0.033544244688407804
3460000000.0 -0.10202763518350143 -0.030668537537551735
3480000000.0 -0.06368663989366119 0.06598429543813716
3500000000.0 0.08418019093863513 0.008217069862584829
3520000000.0 -0.05307518421634817 -0.05106154793145041
3540000000.0 -9.058883820009862e-05 0.07310408945922904
3560000000.0 -0.05842095524568747 0.05565518723881607
3580000000.0 0.061353812965061844 -0.06580825570267043
3600000000.0 0.08572606097634654 0.03967154603444124
3620000000.0 0.0965291739524578 -0.03272864737963004
3640000000.0 -0.0953637782637685 -0.041396932682777984
3660000000.0 0.10082640383924682 -0.054412018094547765
3680000000.0 -0.041215336749433035 -0.10488364843280701
3700000000.0 0.08754203721586058 0.0557097035543385
3720000000.0 -0.09553326680121943 0.010025092872140403
3740000000.0 0.04877732267630714 -0.07165073264185637
3760000000.0 -0.07132866997245821 -0.03730869599089593
3780000000.0 0.0661515798331898 0.0008355957831641101
3800000000.0 -0.027590894361109085 0.033364392975235586
3820000000.0 -0.03481635308776539 -0.008912924833866019
3840000000.0 0.05319514515238672 -0.005422755348154447
3860000000.0 0.05636286297893246 0.05409456884107495
3880000000.0 -0.09017044592566775 -0.02218771097893241
3900000000.0 0.08339001447939016 -0.058508778118256596
3920000000.0 0.022931252781600183 0.1015094219020082
3940000000.0 0.08520449862026537 0.05722920212162031
3960000000.0 0.046514412521811405 -0.09271274490043271
3980000000.0 0.064346225671422 0.07462578711472001
4000000000.0 -0.08441409813953808 -0.018290191705948748
