!Created with skrf (http://scikit-rf.org).
# Hz S RI R 50.0 
!freq ReS11 ImS11
400000000.0 -0.7971910128676168 -0.2162285779480605
420000000.0 -0.5105777231732359 0.5673579125818654
440000000.0 0.2461520272819739 -0.7084246324078777
460000000.0 0.4491307404287526 -0.5765035180674641
480000000.0 0.43309024923006234 0.47886609932904983
500000000.0 -0.44276063407999305 -0.2114492269718481
520000000.0 0.19662381801868517 -0.3349066715750306
540000000.0 0.3077712351962682 0.3893785606817473
560000000.0 0.49305538423305495 -0.03290895396510036
580000000.0 -0.20957864548715957 0.3716573178810205
600000000.0 -0.41095891619437097 -0.13338124641867247
620000000.0 -0.15874590559476795 0.35305087597336116
640000000.0 -0.3503425804857956 0.00255944073265496
660000000.0 -0.3073610453854831 0.23328393870995254
680000000.0 -0.0672256032680703 -0.3711747532849829
700000000.0 -0.0539736545895369 0.35968135108108956
720000000.0 -0.17658783196237746 0.29575247556761686
740000000.0 -0.15057921768869284 0.2849632609043404
760000000.0 0.054298040896361144 0.29411954387856465
780000000.0 0.2739721121565926 0.04201189887161912
800000000.0 0.08230114648260352 -0.2214771611452706
820000000.0 0.13112174896658868 0.16637647552222273
840000000.0 -0.15592758487235836 0.10913208369047937
860000000.0 0.18470946290669996 0.011203273979784736
880000000.0 -0.1228197449190296 -0.12337271938683543
900000000.0 -0.12620428808474457 -0.08670941859018858
920000000.0 0.1326481701012661 0.08371444923015271
940000000.0 0.12824703969574155 0.04982555037873832
960000000.0 -0.09934809527375596 -0.0089497501331456
980000000.0 0.034844998370444386 0.04847757036860899
1000000000.0 0.041336244132839844 -0.008778525627108139
1020000000.0 0.03621161235836371 0.027330374711626224
1040000000.0 0.011482029934145448 0.06402352723915176
1060000000.0 0.05426153181432438 0.07427639907618246
1080000000.0 0.12555454655903966 0.07597352489490103
1100000000.0 0.007607096635155213 -0.18965177169512198
1120000000.0 0.20000694076133585 0.11655459948809893
1140000000.0 0.2595443710940689 -0.07281356908856762
1160000000.0 -0.12412271040040708 -0.268149075322703
1180000000.0 0.2072912494278405 0.23490612502827285
1200000000.0 0.3212218469456852 -0.05103720816102134
1220000000.0 -0.2130625376195618 0.24986176562473722
1240000000.0 -0.08414501707841651 0.32395666905943804
1260000000.0 -0.32814392287236194 -0.02855750143346349
1280000000.0 0.2878820913051237 -0.17953767131666726
1300000000.0 0.3000001628533572 0.1914747184651544
1320000000.0 0.15200572804916393 -0.3412571186269322
1340000000.0 -0.23353429018354724 0.2886527476539845
1360000000.0 -0.05976078808487838 -0.36861521351240767
1380000000.0 0.2645529323655552 0.2697682889257453
1400000000.0 -0.07924082801552172 -0.3711971949671488
1420000000.0 -0.1911899343240628 0.32909971381831155
1440000000.0 0.36107307735492034 0.06264574513520159
1460000000.0 0.15718407184551936 -0.32261892374720536
1480000000.0 -0.09549607798048737 -0.33757157844462077
1500000000.0 -0.2020099764840605 0.25975503235073283
1520000000.0 0.28133738559365556 -0.14360009752163275
1540000000.0 -0.012636009718219975 0.28127515982594753
1560000000.0 -0.17657406870906087 -0.1673763586616554
1580000000.0 -0.16137413923306224 0.10841235726044882
1600000000.0 0.01403803876080674 0.17489286538479443
1620000000.0 0.12209295331988422 -0.09449746352920885
1640000000.0 -0.05404458416488061 0.11902398302052201
1660000000.0 0.05054664996306083 -0.10186438662677516
1680000000.0 0.028120243902826792 0.09011230565774725
1700000000.0 -0.047858587909552414 -0.05875482300844645
1720000000.0 0.054452379754431256 -0.0221085794729014
1740000000.0 0.03600201429072699 0.0037026547779928356
1760000000.0 -0.019218236418930126 0.05363955763205955
1780000000.0 0.0024054313650480707 0.10086408267987321
1800000000.0 0.012692433117003441 -0.1324859678970786
1820000000.0 0.10791168950046047 0.10828939180893803
1840000000.0 0.09497600184393892 0.16183264083960675
1860000000.0 -0.2083092175339797 -0.0576353670734201
1880000000.0 -0.05995628668934715 0.23558019500306274
1900000000.0 0.265331473999928 0.06464340294323324
1920000000.0 -0.20774053032659073 0.20784905817100813
1940000000.0 -0.006986161638866002 -0.2982394158756216
1960000000.0 0.08701687732398287 0.28832349323071504
1980000000.0 -0.2734200631491811 -0.12829589752057205
2000000000.0 0.3012473207939575 0.022224571662074394
2020000000.0 -0.19258996063087316 0.23999232060026401
2040000000.0 -0.3061731079907336 0.08851145017082905
2060000000.0 -0.24405253674909339 0.210140102101401
2080000000.0 -0.26311995719285086 0.18745561170631855
2100000000.0 0.07018892212997865 -0.31226818711817644
2120000000.0 0.24775363495514935 0.18854594949115538
2140000000.0 -0.2911659556307556 0.0715576550499527
2160000000.0 -0.22434955263427503 0.18551842393106383
2180000000.0 -0.10921983444685783 0.2664503625282197
2200000000.0 0.07971416818377489 0.27083532487977136
2220000000.0 0.08343453435819921 0.26171800049409166
2240000000.0 -0.262015177723351 0.05539427057325953
2260000000.0 -0.21433080750848651 -0.1505487395608119
2280000000.0 0.25402739114957507 -0.00553519650980768
2300000000.0 0.10047251369359912 0.22513042806804048
2320000000.0 -0.2285086235352156 0.05898269083622593
2340000000.0 0.1077794709703356 -0.19825860473293266
2360000000.0 -0.08702837592537808 -0.20201516761565205
2380000000.0 -0.006615672363031463 0.2317395096546807
2400000000.0 -0.22051053905554518 0.12107147176150221
2420000000.0 -0.05961524000126729 0.2712016456432645
2440000000.0 0.2581724972352732 -0.15984368622056844
2460000000.0 -0.11070836688358655 0.3143323597734845
2480000000.0 0.30430711046460396 0.19887686930020929
2500000000.0 -0.38590066989185057 0.09974349936954624
2520000000.0 0.20181064361861784 -0.3903365077512681
2540000000.0 0.4045852752277103 0.2574044711361752
2560000000.0 -0.447815665177717 0.2546352671573548
2580000000.0 0.07172223815647338 -0.5406704684827336
2600000000.0 0.14160237642427137 0.5558933655557715
2620000000.0 -0.39800561393082434 -0.44718028352445993
2640000000.0 0.6102658888103081 0.09687685463835109
2660000000.0 -0.4907361419697767 0.4037746138853439
2680000000.0 -0.2259745407140491 -0.6067337161398512
2700000000.0 0.43075626404688755 -0.4986206948220548
2720000000.0 0.6584522048591233 -0.09528225487210185
2740000000.0 0.6621785795889784 0.10199065833826262
2760000000.0 0.6610198006607999 0.12633606611139755
2780000000.0 -0.2665574586713584 0.6145004463945575
2800000000.0 -0.4246746227142148 0.5075051432379813
2820000000.0 -0.6346038231099785 0.14871787127489672
2840000000.0 -0.23598021950140655 -0.5948855633468701
2860000000.0 0.6046674044221623 0.16758309402034136
2880000000.0 -0.5819433360136471 -0.19407853604562528
2900000000.0 0.36422609058639777 0.473494302098693
2920000000.0 0.21014268785163684 -0.5370515348916066
2940000000.0 -0.4645627325318842 -0.30006436793578534
2960000000.0 -0.44184687331525335 0.2915790236000423
2980000000.0 -0.05155536304936603 0.503715507293604
3000000000.0 0.48689382045124413 -0.003979527056219269
3020000000.0 -0.3103794467240209 -0.3406943799218447
3040000000.0 0.11296954813904138 0.41851513092920817
3060000000.0 0.08110804097311862 -0.3949857548313771
3080000000.0 -0.3458460396190996 0.15246294230876795
3100000000.0 0.34769286293201584 -0.09877372873988095
3120000000.0 -0.1137801339099413 -0.3301952198397049
3140000000.0 -0.07491770658993001 0.3325011043050369
3160000000.0 -0.023257790895663294 -0.33745045734215995
3180000000.0 0.00447338334753285 0.33301683236473245
3200000000.0 0.1675283077050797 -0.28172847124178274
3220000000.0 -0.1934887619335529 -0.2513709125130522
3240000000.0 -0.23830408518863852 0.1898726505060053
3260000000.0 -0.2781790872889138 0.07439482930121334
3280000000.0 -0.1731175172069648 -0.2074960668575898
3300000000.0 0.10459192152744323 -0.22861060388517612
3320000000.0 -0.1411865529525229 0.18211338658312962
3340000000.0 -0.1523853993108745 -0.14771843671342422
3360000000.0 0.11927328467123216 0.14077462936896362
3380000000.0 0.15463448668735208 -0.05710913984066433
3400000000.0 -0.1019935841634347 0.10439343398981915
3420000000.0 0.09721738000094292 -0.08170596314457691
3440000000.0 0.006892391321502628 -0.11589275549852736
3460000000.0 0.09144001996751114 0.04570832212487036
3480000000.0 0.040101653893243876 -0.08289784835588714
3500000000.0 -0.08585767820596099 0.012487559319959051
3520000000.0 -0.07238156066139895 -0.028162063773417113
3540000000.0 -0.059205340000021214 -0.048152632780354344
3560000000.0 0.05722647414918897 0.05375642870510486
3580000000.0 -0.0772867256674688 -0.03204338508321824
3600000000.0 -0.08303583927393593 0.04043728195508792
3620000000.0 -0.08647174830217859 0.05343780909321544
3640000000.0 -0.008751710964743448 -0.11264186551075653
3660000000.0 -0.023931291571123066 -0.11800463688284608
3680000000.0 -0.09952150523338477 0.06022678853836085
3700000000.0 -0.023093224270795742 -0.09878861690965068
3720000000.0 0.02814377000583341 0.09018760244736114
3740000000.0 0.0144342888324363 -0.08093885181168338
3760000000.0 0.07772279223376269 0.0002017476838939775
3780000000.0 -0.07094578141730018 0.003558595329665585
3800000000.0 0.027920726517218098 0.04083433501859556
3820000000.0 -0.029536261260374837 0.019794252766681893
3840000000.0 0.033304632047629096 -0.03699114119573221
3860000000.0 0.006275874874263102 -0.07382216839147794
3880000000.0 0.06060284317342364 -0.07281736787108829
3900000000.0 0.0885354582314351 -0.05663338041421689
3920000000.0 0.10816804123802354 -0.010333105409367221
3940000000.0 0.02547981466779544 -0.10120175212632403
3960000000.0 -0.017826551970404947 -0.10094784653183628
3980000000.0 0.005128724215447028 0.09701669691722342
4000000000.0 0.022564575653057552 -0.07982981544126852
