!Created with skrf (http://scikit-rf.org).
# Hz S RI R 50.0 
!freq ReS11 ImS11
400000000.0 -0.30590015607381754 -0.7639582437995799
420000000.0 -0.6554691173295611 0.399303403145161
440000000.0 -0.12681109608371258 -0.7462082406180671
460000000.0 0.13279178035423916 -0.716948675319739
480000000.0 0.6337669800513683 0.08475676433494864
500000000.0 0.4654195242142843 -0.11541343950180263
520000000.0 0.2518250920830305 -0.32883043417172525
540000000.0 0.4483578268258413 0.21003627786551576
560000000.0 0.46859514011182685 0.15785037546801578
580000000.0 0.10403438711417735 0.4351463698856172
600000000.0 0.36668605075957644 -0.23924241154751028
620000000.0 0.000700533964529311 0.3757400551721562
640000000.0 -0.2408934206832554 -0.26378608259923386
660000000.0 0.36963801038359484 -0.08812874785045563
680000000.0 -0.33938354856022107 0.07933880376931442
700000000.0 -0.030261783964191245 0.35026288542011325
720000000.0 -0.2908273943228249 -0.14772514673998682
740000000.0 0.2901685530308342 0.16319100996730265
760000000.0 0.1893741694142412 -0.2346533410358926
780000000.0 -0.22586225553185235 0.15552752666343717
800000000.0 0.10076414739432592 0.2272363956116355
820000000.0 0.16248997100022283 -0.13531590261165632
840000000.0 0.036802121046389226 0.19986203313883466
860000000.0 -0.04373053726397797 -0.18801073087146425
880000000.0 -0.09679595309019133 -0.14449878531152954
900000000.0 0.08589321263480128 0.12139852874805826
920000000.0 -0.030632799509435878 -0.13802369566785583
940000000.0 -0.08034386587451904 -0.09856112889946382
960000000.0 -0.07626501043487736 -0.05709119396371443
980000000.0 0.028718499907382577 -0.04356507321410054
1000000000.0 0.026790348938244606 0.0035716819257443277
1020000000.0 -0.031579799268969984 -0.014097852736874786
1040000000.0 -0.06083995333157322 0.04106146521702606
1060000000.0 0.11447841195109078 -0.01867550373862268
1080000000.0 -0.10091735740252288 0.11975545416420631
1100000000.0 -0.042880746147925565 0.18406476049720683
1120000000.0 -0.11878101204409286 -0.19308646140007246
1140000000.0 0.23545675470596683 -0.09819175648523738
1160000000.0 0.2561041388500674 -0.12573836197387206
1180000000.0 -0.11391226289878796 0.2905529453372604
1200000000.0 0.06026808730440701 0.32369265037188866
1220000000.0 -0.012298952419306099 0.3307137145321285
1240000000.0 -0.3040129938237982 0.1374819960991128
1260000000.0 -0.2032402958393304 -0.2739027331941656
1280000000.0 -0.22751445959095132 -0.25849429201301094
1300000000.0 0.215554670895508 -0.2746242502984155
1320000000.0 0.35981420246901 -0.06497627448707625
1340000000.0 -0.3389270678719792 0.15105215370789116
1360000000.0 -0.01648429129951274 -0.3758219352153235
1380000000.0 0.30838222223713996 0.22685462597676848
1400000000.0 -0.36050437033829535 -0.11873567948256612
1420000000.0 -0.196085399530384 0.3180604606780957
1440000000.0 0.30203186217321937 0.20870087173640683
1460000000.0 0.21425557320376953 -0.28981627951122696
1480000000.0 -0.15498426606368798 -0.31392732124073386
1500000000.0 -0.20994811505877994 0.25256064904232073
1520000000.0 0.3122534805976826 -0.013575440482560241
1540000000.0 -0.18253554548260742 0.2140852307042657
1560000000.0 0.22477004202462786 -0.0921997925363952
1580000000.0 -0.18980991198977176 0.08257171357121683
1600000000.0 0.047984911342496946 -0.17601661241866506
1620000000.0 -0.14614318444027863 0.03215778447049529
1640000000.0 0.09832067327156258 0.0810124744033454
1660000000.0 -0.010530132857008753 -0.10456097738964706
1680000000.0 -0.08188736978386535 -0.04550587247434344
1700000000.0 -0.024268999458058254 -0.06830342454389017
1720000000.0 -0.047233696376065976 -0.024621114995260984
1740000000.0 -0.0343101273545282 0.024968003143467064
1760000000.0 -0.024281806648879675 0.05666924264280407
1780000000.0 -0.060350724707816474 -0.07579332072425324
1800000000.0 -0.06203749550828718 -0.10590237495195623
1820000000.0 -0.12491465669697417 0.08941150977736513
1840000000.0 0.08147203772954989 0.16998120727227586
1860000000.0 -0.10974262479126039 0.1851366818025401
1880000000.0 0.08500975588087666 0.22523241906743569
1900000000.0 0.25641785409346823 -0.07049976083816438
1920000000.0 -0.2873024827106476 -0.03521100581187431
1940000000.0 0.2993460243164227 0.011737563795199751
1960000000.0 -0.22207041307172495 0.211507470395997
1980000000.0 -0.13630068243966129 -0.28224949777016567
2000000000.0 0.19329397209693147 -0.2486709993124775
2020000000.0 0.3020371679582176 -0.08509704885687439
2040000000.0 0.26211004027626256 0.17154899699589304
2060000000.0 0.1952242938948604 0.2425174783773015
2080000000.0 -0.29261350803552516 0.10341757720826593
2100000000.0 0.30172558699225543 -0.0702468495875835
2120000000.0 -0.2245895733085803 0.21056098183263527
2140000000.0 0.06472868650040293 -0.2976480632389612
2160000000.0 -0.295444109264097 0.06761691950214169
2180000000.0 0.2690343929797294 0.12407752968676472
2200000000.0 0.27229258310301996 -0.06860031373848832
2220000000.0 0.06216181208216936 0.2652040874774504
2240000000.0 -0.2693192488012485 0.0313028859467033
2260000000.0 -0.26005517535965517 0.028553197159020924
2280000000.0 0.22284307211577076 -0.11755630883081399
2300000000.0 0.08983737605628302 0.22574667282737315
2320000000.0 -0.15186924729178192 -0.17568924560141452
2340000000.0 0.2275220445819626 -0.006438062719808474
2360000000.0 -0.1051293943261616 -0.19746687724953518
2380000000.0 0.16942353665024565 0.16170149818463603
2400000000.0 -0.06838084928252956 0.240215593306646
2420000000.0 -0.08246924421734009 0.2585912683325596
2440000000.0 0.3005208326655397 0.0073419692111443904
2460000000.0 -0.2834887544575091 0.1748250722117939
2480000000.0 0.3342586873097004 0.1537628301741424
2500000000.0 -0.2780113640790036 0.2893741726798583
2520000000.0 0.037119713961661596 -0.4366735612064991
2540000000.0 0.38613105221965616 0.27813669529368756
2560000000.0 -0.4926068069460809 0.13791017054257196
2580000000.0 0.23243903184914289 -0.49178174301478056
2600000000.0 0.07531096829877705 0.5690035462767029
2620000000.0 -0.4000242177729807 -0.4451733677753807
2640000000.0 0.6133076096308403 0.07956466070647567
2660000000.0 -0.48350628215795094 0.4125652028385642
2680000000.0 -0.23159106282642533 -0.6047723613718768
2700000000.0 0.4989797110077672 -0.42974937298255045
2720000000.0 0.663110228025617 -0.06025530473021995
2740000000.0 0.6440985721723319 0.18528754067035025
2760000000.0 0.6418216152687902 0.20160168484874808
2780000000.0 -0.36795721133819886 0.5591478754924919
2800000000.0 -0.4650958585309715 0.4710900028809543
2820000000.0 -0.6509412473383146 0.050059233265577915
2840000000.0 -0.1863682713175858 -0.6136711275826434
2860000000.0 0.5810769144001268 0.23821278576281707
2880000000.0 -0.5976002645091819 -0.141920986289432
2900000000.0 0.3804468018202951 0.46091800189935755
2920000000.0 0.24347205621966952 -0.5233004094648527
2940000000.0 -0.4243152566404151 -0.3567616841804135
2960000000.0 -0.4782705594566737 0.23276371150086467
2980000000.0 0.0860537502974857 0.5004934644014872
3000000000.0 0.4842554767861552 0.020876223447131935
3020000000.0 -0.29713995415215483 -0.35449001060828067
3040000000.0 0.18991456430845163 0.3898189530875847
3060000000.0 0.1933582280984363 -0.3549981985161459
3080000000.0 -0.35288633678514175 0.14205363682141542
3100000000.0 0.32378832016239734 -0.1590602040969715
3120000000.0 -0.06998307024753132 -0.341426406404031
3140000000.0 -0.08656853469686125 0.3306556629317129
3160000000.0 -0.00733934390976787 -0.3377299526457783
3180000000.0 0.026900463716266133 0.33392446649934104
3200000000.0 0.09206840176593552 -0.3154917004054057
3220000000.0 -0.2991564316151021 -0.10135370149322445
3240000000.0 -0.264627523511927 0.14707002973281863
3260000000.0 -0.2799391119696876 0.07096462890475391
3280000000.0 -0.017860992363725136 -0.26712490788007553
3300000000.0 0.23966439306657003 0.08780323708928446
3320000000.0 -0.1733302651162191 0.15858528843396236
3340000000.0 -0.16130235604811072 -0.14184935949797942
3360000000.0 0.1587177784536661 -0.10190618796866856
3380000000.0 -0.1568957260273046 0.009708168771773652
3400000000.0 -0.12303308130225617 -0.06180201280191788
3420000000.0 -0.08065885172615424 0.09909630471180317
3440000000.0 0.06852636044383935 -0.09630748421887031
3460000000.0 0.10362327993717059 -0.013295489116171623
3480000000.0 0.052377683617574035 -0.0810989222833754
3500000000.0 0.07875733309234055 0.045601780441365085
3520000000.0 0.07788735524713562 0.01633747283228867
3540000000.0 -0.013433634924391218 0.0726158866283142
3560000000.0 -0.022906251502262328 0.06924114980490116
3580000000.0 0.05510629059914918 0.0621252668645946
3600000000.0 -0.09040727248292153 -0.022841438116807906
3620000000.0 -0.1017194245563061 -0.027503395279675852
3640000000.0 -0.0625784617212268 0.09153038070015249
3660000000.0 -0.11170798868793927 -0.023314969008096126
3680000000.0 -0.017478068093048863 -0.11048255660128835
3700000000.0 0.10367956670179324 0.01097843692459646
3720000000.0 0.039871126517817 0.08833275524516543
3740000000.0 -0.08311798062126727 0.012159078531361084
3760000000.0 0.05499966706478161 -0.05346200720201222
3780000000.0 -0.06701984946091433 0.011664536698124861
3800000000.0 -0.030967445775286307 0.03784354606014618
3820000000.0 -0.017158643501201325 -0.03153134272733404
3840000000.0 0.004742535568014039 -0.05091877161516586
3860000000.0 -0.024719395840395807 0.07105932803604693
3880000000.0 0.040365813329942685 -0.08398518563047831
3900000000.0 0.10100094815821947 -0.016065258591048855
3920000000.0 0.04468518491267745 0.09637549819163681
3940000000.0 0.0999892852072094 -0.029994863069486465
3960000000.0 0.02573921267391596 -0.09699971658345784
3980000000.0 -0.0964249673429711 0.00936486512610827
4000000000.0 0.07484834635023778 -0.039259964777591416
