!Created with skrf (http://scikit-rf.org).
# Hz S RI R 50.0 
!freq ReS11 ImS11
400000000.0 -0.8103251247819757 -0.1606782910947301
420000000.0 -0.6228441944694588 0.44416465490276974
440000000.0 0.10401443900800698 -0.7434030877257403
460000000.0 0.5390998726933584 -0.5028790969932994
480000000.0 0.5356399547606306 0.36476752102968535
500000000.0 -0.4571446191819571 -0.16546885524676774
520000000.0 0.3875024017574696 -0.04567404344701832
540000000.0 0.2633021824620768 0.42398374476069434
560000000.0 0.41717483534943783 -0.2647908077226846
580000000.0 -0.1510784211357007 0.39919383005848597
600000000.0 -0.4315920634827618 -0.01552561902817472
620000000.0 -0.2522175269433082 0.2933807924175867
640000000.0 -0.34636354500509897 -0.06946387641976827
660000000.0 -0.16107119256823801 0.35033887566286326
680000000.0 0.21370393670012552 -0.30354389641722346
700000000.0 -0.2224006868217848 0.2914884005971766
720000000.0 0.07790453829496465 0.34194875769617494
740000000.0 -0.10509590949261109 0.3093714369635172
760000000.0 0.294749001892956 0.012494064687824534
780000000.0 0.14715825077393838 0.23632191689192544
800000000.0 0.22998513676662893 -0.03850009728511933
820000000.0 0.18634270398426903 0.10520442425301113
840000000.0 0.058445082936358 0.18647222764389568
860000000.0 -0.02958167778020096 -0.17887884561721426
880000000.0 0.17210700594206288 -0.006955066217006463
900000000.0 -0.09132830672807785 0.12995625905811758
920000000.0 0.09362565231681713 -0.12006302202179019
940000000.0 -0.04100970353953012 0.12842662387694462
960000000.0 -0.04023401684758025 0.09387807917289023
980000000.0 0.054471095605310736 0.02601354245681682
1000000000.0 -0.04591155885294748 0.0006051556727530908
1020000000.0 -0.03030264768715518 0.03693910732417356
1040000000.0 0.05633521742472165 -0.03710954880074643
1060000000.0 0.08603040210590687 0.036575409561907954
1080000000.0 0.01605583980559121 -0.1448028809409985
1100000000.0 0.05890720963778626 -0.17009505497561872
1120000000.0 -0.14717883581234426 0.17745592483343178
1140000000.0 0.27608907284336764 -0.026502141735722077
1160000000.0 -0.2955086945427151 0.007764169056724026
1180000000.0 0.28840275162773876 0.11706074292322302
1200000000.0 0.3192641448997701 0.05114769564176392
1220000000.0 -0.1369520104230058 0.2985703187947577
1240000000.0 -0.15489893908546437 0.29450073237452684
1260000000.0 -0.3314902226635212 -0.004496007258189665
1280000000.0 0.25694072738535306 -0.21659603613240114
1300000000.0 0.12866030367226922 0.33083875534222096
1320000000.0 0.3017143865126418 -0.2231404432312596
1340000000.0 -0.11184091872682289 0.35620041286402565
1360000000.0 -0.344575352122983 -0.13843643484840945
1380000000.0 0.19203307816036258 0.32395383960129825
1400000000.0 -0.049883073052118816 -0.3751893992115498
1420000000.0 -0.2582200713949604 0.2770027085731329
1440000000.0 0.32307242413912524 0.17597459373696678
1460000000.0 -0.028300397695633563 -0.3605455619315873
1480000000.0 0.019705468604896775 -0.35287717437101535
1500000000.0 -0.057209161023138055 0.32689826304438907
1520000000.0 0.09929364017016828 -0.2960492052024727
1540000000.0 -0.09550096292016176 0.25693545304893817
1560000000.0 0.22763932623135905 -0.08096384718926923
1580000000.0 -0.20224040920436612 0.008713443378403194
1600000000.0 0.16802065008436268 -0.0658361828348025
1620000000.0 -0.13625043831185235 -0.061458433705773585
1640000000.0 -0.06888479946249844 0.1050706533897265
1660000000.0 0.06128277902057626 0.09679811513017876
1680000000.0 0.022420157229048027 0.09457334878987876
1700000000.0 0.002060206053451877 -0.07386849582904266
1720000000.0 -0.03942966988460468 0.04583963787297788
1740000000.0 -0.030386328220755154 0.025058584769203862
1760000000.0 0.03401062782321221 0.03894675269342169
1780000000.0 -0.06811557684580817 0.06956807507129648
1800000000.0 0.1003590618796962 0.08976845912008989
1820000000.0 0.15697451994782885 0.0006008399504659523
1840000000.0 0.15746719808546758 0.09816420419649204
1860000000.0 -0.2031807560216973 -0.07407740341030176
1880000000.0 0.1368727799660918 0.20005824775293043
1900000000.0 0.2671096801251628 0.03787027386092463
1920000000.0 -0.26476735433737963 0.12361549309430628
1940000000.0 0.13044359459153665 -0.26949144806760705
1960000000.0 0.061742485578119344 0.2971864693464814
1980000000.0 -0.3011521962142054 0.044949194523193514
2000000000.0 0.2788483876016422 -0.11431999071650592
2020000000.0 -0.1942531643567394 0.23454769224009828
2040000000.0 -0.3173640433768435 -0.006397327915908932
2060000000.0 -0.27267955097254915 0.17056003540193015
2080000000.0 -0.2820108332283789 0.15506245284373033
2100000000.0 0.1533520155649489 -0.2810501320915463
2120000000.0 0.29299350311668376 0.10982486034859763
2140000000.0 -0.27543917894539427 0.12280779566286973
2160000000.0 -0.18865380541861718 0.22315012123079278
2180000000.0 0.02104018247476494 0.2885097207730315
2200000000.0 0.1849299954669041 0.21141217903219975
2220000000.0 -0.04277248989618863 0.2704352196055708
2240000000.0 -0.24891568164668856 -0.09646947103989789
2260000000.0 -0.09971891330850596 -0.24580100004439057
2280000000.0 0.2074313999059719 -0.15325993751265443
2300000000.0 0.20067814173294102 -0.14066458740428767
2320000000.0 -0.22674898375115085 -0.033045228948494904
2340000000.0 0.21155414043444334 0.07697577224989853
2360000000.0 0.04134347943429069 -0.22073321314654698
2380000000.0 0.1943033572534985 0.1328886509345531
2400000000.0 -0.15725204085073308 0.19438732320777125
2420000000.0 -0.014991094892089685 0.2732990045396019
2440000000.0 0.2724709775558416 -0.124941412719489
2460000000.0 -0.29088704867929815 0.15931094497227097
2480000000.0 0.28885156170361376 0.22338173527657604
2500000000.0 -0.37047050483658106 0.1554576256697793
2520000000.0 -0.022395461224030327 -0.43961739925087767
2540000000.0 0.428031486649713 0.20959930288886935
2560000000.0 -0.4820853031415038 0.17579755611388126
2580000000.0 0.14985931917582065 -0.5237181755999272
2600000000.0 0.10734485690506804 0.564845457864026
2620000000.0 -0.3876087621806498 -0.4572321659169542
2640000000.0 0.6040874942725544 0.13232433535632002
2660000000.0 -0.47357343180948946 0.42348368338232906
2680000000.0 -0.24640921872200353 -0.5990599688753608
2700000000.0 0.47700991805219684 -0.4539126800345302
2720000000.0 0.6606179530408887 -0.07293951475896057
2740000000.0 0.6568184393358462 0.13026248599162876
2760000000.0 0.6684649494593645 0.08085200084199942
2780000000.0 -0.23145770306649627 0.6285446596015493
2800000000.0 -0.396595392891898 0.5298672789891544
2820000000.0 -0.6367223249016918 0.14373649313760237
2840000000.0 -0.23500168170359167 -0.5965608350532694
2860000000.0 0.6072646968632479 0.1601278563912815
2880000000.0 -0.591499397536293 -0.1641471842312101
2900000000.0 0.37450909065829974 0.4647430370933216
2920000000.0 0.28610671264446774 -0.49971764609392144
2940000000.0 -0.415570873819908 -0.36789189517667686
2960000000.0 -0.4642678997079349 0.25868854602267316
2980000000.0 0.06819579484709173 0.5028382715400865
3000000000.0 0.48079739770710933 -0.0680020048210442
3020000000.0 -0.2724558174423933 -0.3701749339636471
3040000000.0 0.002254328597073929 0.43212908014956114
3060000000.0 0.13933278600212506 -0.3788713145402062
3080000000.0 -0.33843656207230827 0.17071762016395856
3100000000.0 0.3344239758591933 -0.13880755065538902
3120000000.0 -0.11781470887990307 -0.32987551019226546
3140000000.0 -0.0369934868648316 0.3383424188993866
3160000000.0 0.044362383837541944 -0.3328007489445272
3180000000.0 -0.1526651363663964 0.29651555930021095
3200000000.0 0.22436142270763287 -0.24062291783253173
3220000000.0 -0.2921242554457476 -0.12860086986080022
3240000000.0 -0.185470676507654 0.2423906030700682
3260000000.0 -0.23786685890005116 0.15913483117647914
3280000000.0 -0.05099622038514006 -0.2664793199339395
3300000000.0 0.21571040852092355 -0.1303217890451895
3320000000.0 -0.07898387156101858 0.2187815482362568
3340000000.0 -0.10939439951699245 -0.18017407212165312
3360000000.0 0.022052536423395337 0.18470965112869886
3380000000.0 0.11640212720499146 -0.11257697650653847
3400000000.0 -0.14488678638000752 0.014737513286462146
3420000000.0 0.12629353154011305 -0.013989987400449719
3440000000.0 0.05276126917759823 -0.10469019411448344
3460000000.0 0.07939152240800429 -0.06510148644296271
3480000000.0 -0.03217066449567539 -0.08586570086735043
3500000000.0 -0.08535503682984914 -0.006354433408228266
3520000000.0 -0.07514205406095836 -0.023802018907634868
3540000000.0 -0.014195045457326685 -0.07297486482542347
3560000000.0 0.07433714758341398 0.023081326050805075
3580000000.0 0.03041824172731381 -0.0795463412478865
3600000000.0 -0.041749353670155476 0.08418216315041152
3620000000.0 -0.07079952669184447 0.07076884575467848
3640000000.0 -0.02791990439328886 -0.1065319169849679
3660000000.0 0.0409062076610794 -0.11184115513781626
3680000000.0 -0.1000185800045849 -0.06022861854915875
3700000000.0 -0.02242597390158127 -0.10098599476313697
3720000000.0 0.07234438774367086 0.06078906733665355
3740000000.0 0.0560852811071749 -0.05602699825157248
3760000000.0 -0.07391702642353394 0.024893344249755915
3780000000.0 -0.06363379475833646 0.030526978271322402
3800000000.0 0.04555060199545176 0.017839765901949294
3820000000.0 -0.006064077881137487 0.03401520496395589
3840000000.0 0.03294260257914423 0.03647394396133213
3860000000.0 0.054076015890768166 -0.05140895930983247
3880000000.0 0.06069796460153138 -0.07318541368515591
3900000000.0 0.08411316792834399 -0.058336794640830365
3920000000.0 0.018886073990241538 0.10535616209974778
3940000000.0 0.040382347070636156 -0.09469610486946818
3960000000.0 -0.07309135039740086 -0.06929821164900879
3980000000.0 0.046830838903961086 0.08418279288014631
4000000000.0 0.08228872512386441 0.013741992275285815
