!Created with skrf (http://scikit-rf.org).
# Hz S RI R 50.0 
!freq ReS11 ImS11
400000000.0 -0.8195056930773551 -0.09094866522248408
420000000.0 -0.5906384366890725 0.48816343502428283
440000000.0 -0.012560227545504137 -0.7523616280318777
460000000.0 0.5015170199293113 -0.5360403472595006
480000000.0 0.5843307823553257 0.2764565599026861
500000000.0 -0.2750584933610231 -0.3975576800229118
520000000.0 0.38513747789533326 -0.11183919587608905
540000000.0 0.4213429242143527 0.2645730830156311
560000000.0 0.4636882654840769 -0.1492672377002413
580000000.0 -0.31149808561074466 0.29191169998623007
600000000.0 -0.42477822761797895 -0.0829912000820471
620000000.0 -0.24942451623901962 0.2992700470504575
640000000.0 -0.3312810494040417 -0.1220289776861259
660000000.0 -0.11694761419336193 0.36645999478387375
680000000.0 0.07693613630058188 -0.3609870037347405
700000000.0 -0.20264897489064024 0.3026782009211406
720000000.0 -0.03702529580370581 0.34637018082715565
740000000.0 -0.29941231123041545 0.14316572611769304
760000000.0 0.1657865831243 -0.24817084106131174
780000000.0 0.27137359191760535 0.04806939277949138
800000000.0 0.2202366980616264 -0.07291383427336401
820000000.0 0.09915895533406965 0.18620242783623342
840000000.0 -0.10435954520167007 0.16449971698678184
860000000.0 0.1831120411790748 -0.026752847113922035
880000000.0 -0.14370854237932024 -0.09793095261435773
900000000.0 -0.12979800303287886 0.08404956588722581
920000000.0 0.1352893223303437 0.07235052540359348
940000000.0 0.10965090101265684 0.07881813450624023
960000000.0 -0.05369411061420861 0.08709639886080192
980000000.0 0.0004574109665336538 0.05932104881385151
1000000000.0 -0.037528492563300424 0.029493441804838042
1020000000.0 -0.027261144543425257 0.04515064404999827
1040000000.0 0.05543689994499135 0.04194612391797731
1060000000.0 0.0887445933363439 0.004407205723151373
1080000000.0 0.002785317429043747 0.14337424856144507
1100000000.0 0.18425032729028384 -0.029250056817199523
1120000000.0 0.11340256823837719 0.20524171968592803
1140000000.0 0.17544015287682674 -0.21359004311918786
1160000000.0 -0.28813125436512926 0.04062745183291988
1180000000.0 0.1267546597777431 0.27608111047272543
1200000000.0 0.08502790214045292 0.31515033605466336
1220000000.0 -0.1332911307088233 0.30545615733145853
1240000000.0 -0.08590006889809713 0.32543722731642144
1260000000.0 -0.31164457735632034 0.10882528380913885
1280000000.0 0.11786993110533947 -0.3108551343943829
1300000000.0 -0.012886990880582415 0.3513427762475325
1320000000.0 0.3740633532292194 -0.03719290763978254
1340000000.0 -0.18494731020266938 0.32658464851449104
1360000000.0 -0.3590351086054106 -0.11010446375030303
1380000000.0 0.3720014289788869 0.04917193967393971
1400000000.0 -0.2053025772903616 -0.31293646123451047
1420000000.0 -0.3735316016550026 0.053653841836508794
1440000000.0 0.20134666568732934 0.3094190347885796
1460000000.0 -0.06479144107572771 -0.35960944669440764
1480000000.0 -0.23214654276950125 -0.2664012131892387
1500000000.0 0.11063401146423203 0.3089824116155505
1520000000.0 0.2591067751250666 -0.168676984913456
1540000000.0 -0.2657460402014842 0.0733565622677399
1560000000.0 0.21489887311119718 -0.1221567245130381
1580000000.0 0.010439109115976283 0.2039360029540397
1600000000.0 0.15400248135216887 -0.08401430226590033
1620000000.0 0.029214323702916836 -0.14464765230319085
1640000000.0 -0.1012372039850095 -0.07919356215089343
1660000000.0 0.11282927045633095 -0.03018345546186156
1680000000.0 0.06282364472995447 0.07762717794127838
1700000000.0 -0.036891450312530986 0.06488832401913162
1720000000.0 -0.04796290162908323 0.030063613011064926
1740000000.0 -0.015798630673165556 0.03580555661313008
1760000000.0 0.05546601978458505 -0.004753777606597703
1780000000.0 0.09491104094605853 -0.01733528995141612
1800000000.0 0.12063871842802432 0.04537991828129614
1820000000.0 0.010294559754557231 0.15504425029845698
1840000000.0 -0.016462669206169706 0.18774417522300227
1860000000.0 -0.14181853522008622 0.16714371856808852
1880000000.0 0.2281750830530156 0.079277403209165
1900000000.0 0.2655670986982757 0.03921695616007983
1920000000.0 -0.28195316993881503 0.07561520572100851
1940000000.0 0.1999651916607303 -0.22422207572044617
1960000000.0 0.11063814116681515 0.28541567108025473
1980000000.0 -0.30372378212949996 0.01703585817562816
2000000000.0 0.25610100163737576 -0.15975710653348857
2020000000.0 -0.1837768535065843 0.24155371402943615
2040000000.0 -0.31110801000043753 -0.05810947629514829
2060000000.0 -0.29289492684363777 0.1357207835698648
2080000000.0 -0.26292856636763023 0.1878302897103861
2100000000.0 0.0395913044207604 -0.3163425837214041
2120000000.0 0.2954941445339257 0.09800436501047124
2140000000.0 -0.29766236201033947 0.03476086984488002
2160000000.0 -0.22755845498182206 0.18872100916365334
2180000000.0 0.14018308665048007 0.254088194411914
2200000000.0 0.2199017478985512 0.1751149852171953
2220000000.0 -0.04984479459112925 0.2666128437373138
2240000000.0 -0.22920258543895522 -0.13949514237243568
2260000000.0 0.022898240403417775 -0.2637590203335134
2280000000.0 0.21725109282125635 -0.1422944760280356
2300000000.0 0.15379012008132242 -0.1924976469909035
2320000000.0 -0.2169934373974042 0.06609643315055391
2340000000.0 0.17839829337865595 0.13274137693582547
2360000000.0 0.14293117106648937 -0.17429654098803962
2380000000.0 0.191130419703943 0.13861190651118144
2400000000.0 -0.12083235430369511 0.21858200716519885
2420000000.0 0.05874071307108576 0.26732982046922693
2440000000.0 0.2508870354125781 -0.16173749204844198
2460000000.0 -0.31453148294303307 0.10318064197181603
2480000000.0 0.2569670747591906 0.26054463587567595
2500000000.0 -0.36629750008716516 0.165750621987837
2520000000.0 -0.0333938496793029 -0.43865800652681
2540000000.0 0.3867469856815018 0.2769168686902102
2560000000.0 -0.4703896896651959 0.2071108660243597
2580000000.0 0.15866392898970688 -0.5212180842673722
2600000000.0 0.12397077572996217 0.5614436067007181
2620000000.0 -0.46133471357486405 -0.3812866001001162
2640000000.0 0.6106785350035487 0.09301307158309247
2660000000.0 -0.4759787244730072 0.4206329576005082
2680000000.0 -0.2773225685141761 -0.5853596972083683
2700000000.0 0.47148606390168324 -0.4598342300010969
2720000000.0 0.6561052933909893 -0.1062426280883932
2740000000.0 0.6617345304800938 0.1017676625049362
2760000000.0 0.6708088920601744 0.056011162870280996
2780000000.0 -0.19280143354497956 0.6411321642841331
2800000000.0 -0.3800107442597237 0.5415034624655062
2820000000.0 -0.6252868753994844 0.18529075078388907
2840000000.0 -0.20933595212333464 -0.6059046649841914
2860000000.0 0.5813506442133354 0.23938289296138765
2880000000.0 -0.6016793774351106 -0.12341656702630718
2900000000.0 0.4250856493936439 0.41868068084300075
2920000000.0 0.3214263975689205 -0.4773201108825569
2940000000.0 -0.39992233108070196 -0.3842288590981906
2960000000.0 -0.4657313509334982 0.2566389285034325
2980000000.0 0.08502742961043136 0.502109727661163
3000000000.0 0.47720939153680214 -0.09035600561308517
3020000000.0 -0.3825853280588227 -0.2510579108225003
3040000000.0 0.0011596073618253704 0.43095020523233313
3060000000.0 0.15350328745198297 -0.3751787764309428
3080000000.0 -0.30325386830222245 0.22825917882635613
3100000000.0 0.27581037443452494 -0.23215191252661335
3120000000.0 -0.07948127417222448 -0.33913935706664367
3140000000.0 -0.10359039997324963 0.32446251173304835
3160000000.0 0.07548564900021454 -0.3295175004556361
3180000000.0 -0.04105681363062922 0.3325977019946212
3200000000.0 0.09702859650968734 -0.31380427626235535
3220000000.0 -0.27512295712504564 -0.15859375762497072
3240000000.0 -0.2807332745356558 0.11676559604675751
3260000000.0 -0.2882730037527834 0.011956006538555098
3280000000.0 -0.18010200129973272 -0.20509364682540845
3300000000.0 0.11951438825512443 -0.22005739846285471
3320000000.0 -0.05180103450977487 0.22367036164414494
3340000000.0 -0.018583844919027752 -0.20916885457951134
3360000000.0 -0.0269621031407758 0.18505130064137076
3380000000.0 0.06919479134481558 -0.14832706011357044
3400000000.0 -0.13748588813439966 0.0435683161526961
3420000000.0 0.11398679376123996 -0.05731045500431915
3440000000.0 -0.0026969640203989313 -0.11566704375841935
3460000000.0 0.08562735702032812 -0.056132439525248636
3480000000.0 0.057642691049667086 -0.0711269933901632
3500000000.0 -0.07997152628168226 -0.03958719919600809
3520000000.0 -0.007050399011775612 0.07935075450279652
3540000000.0 -0.07371665953982857 0.007202529090983196
3560000000.0 0.05697074526220221 0.04876089470826436
3580000000.0 0.08305945951418682 -0.015977291677736823
3600000000.0 -0.09313157452136918 0.018213258680665943
3620000000.0 -0.05973387449773804 0.08277623651342103
3640000000.0 -0.07767885127448784 -0.077177792287887
3660000000.0 0.06850736758232313 -0.09496129019277837
3680000000.0 -0.09750594957654471 -0.06400617439449925
3700000000.0 0.013929190617191238 -0.10252367747744535
3720000000.0 0.08856077729301505 0.03310032759270586
3740000000.0 -0.013229843061150083 -0.0777755127235114
3760000000.0 -0.07606709179588932 -0.0033677930285331255
3780000000.0 -0.04935647390312135 -0.052609446493292446
3800000000.0 0.021908310254923357 -0.045039447898546685
3820000000.0 -0.0034112473241452 -0.033825765210894254
3840000000.0 -0.036557638520485485 -0.032722462811100195
3860000000.0 0.05546825205018498 -0.055239052091217135
3880000000.0 -0.06693215874488241 -0.0671214459456211
3900000000.0 0.03229207607550908 -0.09564165466905528
3920000000.0 -0.040609768280517794 0.09727956331077672
3940000000.0 0.08279460642685106 -0.062094314350333316
3960000000.0 -0.04109591933274092 -0.09366474923264505
3980000000.0 0.09596739819249023 0.014981065141527118
4000000000.0 0.030398261519644892 -0.07694256330707647
