!Created with skrf (http://scikit-rf.org).
# Hz S RI R 50.0 
!freq ReS11 ImS11
400000000.0 -0.8195952116759737 -0.0858919985664878
420000000.0 -0.6248531610599727 0.4395387135200831
440000000.0 0.1773161471017966 -0.7269002410561867
460000000.0 0.5216915670131996 -0.5026121717495765
480000000.0 0.5497259275635157 0.33329875989098107
500000000.0 0.11939273881932758 -0.4730106576773748
520000000.0 0.28513508147376027 -0.29531617193083237
540000000.0 -0.2977284232113682 0.401690044585728
560000000.0 0.4058366455767039 -0.307430941978261
580000000.0 0.1637747852285765 -0.4080241328848669
600000000.0 0.04058075763872811 0.42489747505570463
620000000.0 -0.03277014591180123 0.3869905966784951
640000000.0 -0.35327321085369356 0.022264295353518516
660000000.0 0.29941891894914163 0.2282992323263323
680000000.0 -0.2871395338414361 -0.22024104591159513
700000000.0 0.1052356878435288 0.3360819327184221
720000000.0 0.07149384218452406 -0.3091141051563817
740000000.0 -0.2585339998486161 0.1983143263513628
760000000.0 -0.2515449362662775 0.19744896311183271
780000000.0 0.07911959946001673 0.293081797969533
800000000.0 0.21535827356025244 -0.11188834349355933
820000000.0 0.19344158485425964 -0.0683413174245719
840000000.0 0.1872477032970303 0.0257610255019282
860000000.0 0.17522559803253282 0.04717251098950739
880000000.0 -0.036583537370722424 0.16788374283481025
900000000.0 0.09499628434945616 0.11910857819666701
920000000.0 0.13676893781431423 -0.04414211592886867
940000000.0 0.11899661855450233 0.00980663894408278
960000000.0 -0.08857780396574291 -0.01836472309410644
980000000.0 -0.060015772303807426 0.008795968303071744
1000000000.0 0.012373152102830826 0.036611989232007355
1020000000.0 -0.023140922319098776 0.03307173732639588
1040000000.0 0.047379904603337845 0.06211128574222426
1060000000.0 -0.11372237371892747 0.008313101609976592
1080000000.0 -0.04070757352430262 0.16357330401643846
1100000000.0 -0.17226882874812763 0.09299133090552798
1120000000.0 -0.2066083466810818 0.10651764832584418
1140000000.0 -0.05678409413388207 0.247441809017948
1160000000.0 -0.014280328269652448 -0.2737905759387916
1180000000.0 -0.282540088280558 0.09720077105317723
1200000000.0 -0.31702908062544277 0.04016919844329637
1220000000.0 -0.009800521589127528 -0.33642115445283777
1240000000.0 -0.07472570579793592 -0.3397000149375908
1260000000.0 -0.30697448979656594 -0.17446697201161684
1280000000.0 -0.3177298801824008 0.15642798306796604
1300000000.0 -0.21610681587172276 -0.2742503150615986
1320000000.0 0.1287738094333896 -0.3376786063304202
1340000000.0 -0.26894958176818495 0.25376502093433895
1360000000.0 -0.36997600002961945 0.0005405243742405098
1380000000.0 0.29142581318927463 0.2226325032957272
1400000000.0 0.10741531293667293 -0.3572404249921591
1420000000.0 -0.37025235289677527 -0.07735826533288252
1440000000.0 0.03439658002828315 0.3712062137426309
1460000000.0 0.11131692674900426 -0.3491287238873265
1480000000.0 -0.2559680647577007 -0.24219480126805445
1500000000.0 0.09381236456806127 0.31879307907160576
1520000000.0 0.025313236586230647 -0.30931774115605226
1540000000.0 -0.20818557894148748 0.18044376241250518
1560000000.0 0.22313132826356746 -0.10001658473100632
1580000000.0 -0.18625343765333488 -0.08903374806128907
1600000000.0 -0.066837889299731 -0.16905601096330927
1620000000.0 0.08545187225040754 0.1201134180904109
1640000000.0 0.05986608896613893 0.10476888303539016
1660000000.0 -0.10130397093603584 0.00508184751906815
1680000000.0 0.09228631683606531 0.003536427963238062
1700000000.0 -0.0766330849814 -0.013384314065274468
1720000000.0 -0.06003612885775012 -0.012265499986356818
1740000000.0 -0.03956106092312385 -0.022579181754657396
1760000000.0 0.044667471933051955 -0.030052457998546715
1780000000.0 0.07505023658324168 -0.048985669786249644
1800000000.0 -0.08302048368947544 0.09178440809876905
1820000000.0 -0.09837358261532622 -0.12166034824020464
1840000000.0 0.043954377201761104 0.1854765825696041
1860000000.0 -0.22094377139979846 0.0067264066373423715
1880000000.0 0.21304724488809385 0.12112024303649079
1900000000.0 0.1437064175466119 -0.22597334171936484
1920000000.0 -0.27674808250587796 0.08211186941389619
1940000000.0 0.26026304325636596 -0.14583078678930575
1960000000.0 -0.17747533793002981 0.24774950143688446
1980000000.0 -0.11442098540215691 -0.29058513698135835
2000000000.0 0.16239115031606335 -0.2682557039780757
2020000000.0 0.30215927957486416 -0.07125736019968518
2040000000.0 0.18331359869562988 0.25232486257649156
2060000000.0 0.012331876322657621 0.3120585139356597
2080000000.0 -0.2931602935062557 0.1010507863253481
2100000000.0 0.27906027496008956 0.1306141061171434
2120000000.0 -0.3041344833490928 0.06582209314071191
2140000000.0 0.047588673531850256 -0.3058479682205599
2160000000.0 -0.20397167538667965 0.22552935636391291
2180000000.0 0.2955397740584347 -0.008125410504552179
2200000000.0 0.22692104368192778 -0.161013824705541
2220000000.0 0.21577802004769694 0.1617979687218933
2240000000.0 -0.25730416923523575 -0.05751991058459222
2260000000.0 -0.029110993757011365 -0.2608800978263164
2280000000.0 0.2556114323699931 0.004555707602919396
2300000000.0 0.23126295379497486 0.07906507378560403
2320000000.0 -0.1300451357832535 -0.189789720592378
2340000000.0 0.18427168544708566 0.13361322410641355
2360000000.0 0.07894908755858891 -0.21291483015417745
2380000000.0 0.21328805401402215 0.10356385849867752
2400000000.0 0.11916258961487029 0.22073969474295774
2420000000.0 0.16865674047119036 0.20980320502541802
2440000000.0 0.29864221273085134 0.0007613485141886817
2460000000.0 -0.33151795583272614 0.02204762476110946
2480000000.0 0.23465530424313602 0.2823934668914744
2500000000.0 -0.36700783704008566 0.1637721822642627
2520000000.0 0.06089057649757708 -0.44010968778496296
2540000000.0 0.4759154953116072 0.05357369305035412
2560000000.0 -0.40007657184357487 0.32125563522712064
2580000000.0 0.09369307401393949 -0.5363712065329849
2600000000.0 0.16239144123292173 0.5505255983841777
2620000000.0 -0.43421317264730014 -0.41219961694239754
2640000000.0 0.612122130177061 0.08250547637302565
2660000000.0 -0.4911252834931061 0.40150938786768675
2680000000.0 -0.27931330751091415 -0.5836555922402109
2700000000.0 0.4235532357493825 -0.5040553791386042
2720000000.0 0.6558301714514309 -0.11312676573271971
2740000000.0 0.6697825758102754 -0.002904568089494873
2760000000.0 0.6731701893875093 -0.02266810562299287
2780000000.0 -0.22723675402227622 0.6292958062524446
2800000000.0 -0.38614820783484843 0.5372223406928683
2820000000.0 -0.6236333026599513 0.18990495431968943
2840000000.0 -0.30514323417558453 -0.5634789706219345
2860000000.0 0.6018404734250584 0.18027798706178366
2880000000.0 -0.598363323620453 -0.13501576625905284
2900000000.0 0.4193049794392139 0.4233680217864845
2920000000.0 0.2594110192056458 -0.5131467494065258
2940000000.0 -0.42578949432153734 -0.3497122809136237
2960000000.0 -0.4872218575595526 0.2048705549431141
2980000000.0 -0.07323428908786535 0.5012983228780088
3000000000.0 0.47713264916142245 -0.08024522713912353
3020000000.0 -0.2829228456271348 -0.3607915992961712
3040000000.0 -0.03165479491520809 0.4332294563323691
3060000000.0 0.07597207121005378 -0.3983569717139303
3080000000.0 -0.2781685995679354 0.2604170998157847
3100000000.0 0.11680188523834377 -0.3422933423233231
3120000000.0 -0.28589815990142237 -0.19995819637786516
3140000000.0 0.07442457211949166 0.33038925104443917
3160000000.0 0.06293340638214177 -0.3281333099467925
3180000000.0 -0.15417689480460708 0.2973308909768787
3200000000.0 0.1764156842938357 -0.27740646024637844
3220000000.0 -0.26301804864335465 -0.17324177682400613
3240000000.0 -0.3013048313833179 -0.012719311409405751
3260000000.0 -0.2641559212345805 -0.11592081300090451
3280000000.0 0.12744633412094503 -0.23850872752816038
3300000000.0 0.232206724705974 -0.106100899800623
3320000000.0 0.07566195721520767 0.22289826670238372
3340000000.0 -0.1387367026297266 0.15782073854849674
3360000000.0 0.1361960754766352 -0.119346200025847
3380000000.0 -0.02393801657050021 -0.1545075067405665
3400000000.0 -0.03953894348166941 -0.13061643093779515
3420000000.0 -0.10098414366387284 -0.07773492500108567
3440000000.0 0.11744584503883704 -0.04157088494750918
3460000000.0 -0.08481180637582607 -0.06872311698796814
3480000000.0 0.07780275883704342 0.051165787624773175
3500000000.0 0.07256727505723529 -0.04478581084857888
3520000000.0 -0.0654867273694831 0.03552958810651727
3540000000.0 0.07006413292378987 -0.023195144381348207
3560000000.0 -0.0465949744748084 0.06343664436707319
3580000000.0 0.08230010837582606 0.02641486381949656
3600000000.0 -0.07821015343329381 0.052474267799580046
3620000000.0 -0.037852558327761666 0.09747302697988774
3640000000.0 -0.10837644050109436 -0.0076468106987131025
3660000000.0 0.006009302165112504 -0.11467174224762615
3680000000.0 -0.033935816578844626 -0.10903148634556971
3700000000.0 0.10071887757951005 -0.016159991755216183
3720000000.0 0.027478955521349442 0.08942191215099504
3740000000.0 -0.03288264182610921 -0.07829784710689706
3760000000.0 -0.056291979766002476 0.05077543694697244
3780000000.0 -0.021332384433565544 0.0632834390513355
3800000000.0 0.011454472439412835 0.04635521222879667
3820000000.0 0.03301652003193567 0.01810182638235708
3840000000.0 0.041555472237487096 -0.020444365720860842
3860000000.0 -0.04771779197739489 -0.056925302393338435
3880000000.0 0.028897219972716274 -0.08948200014244186
3900000000.0 0.06991599814495424 -0.0764565634381523
3920000000.0 0.06762007565535695 -0.08396858050017826
3940000000.0 -0.08527510301565792 -0.057521153173561226
3960000000.0 -0.06566083016979757 -0.07518495317642306
3980000000.0 0.05682788383070639 0.07589278401964057
4000000000.0 0.054686426402242326 -0.06188760394077768
