!Created with skrf (http://scikit-rf.org).
# Hz S RI R 50.0 
!freq ReS11 ImS11
400000000.0 -0.810900153385737 -0.15166551639481504
420000000.0 -0.6498345512475326 0.40590644691419514
440000000.0 -0.19807632995366678 -0.7304131927780303
460000000.0 0.22315639768674125 -0.692793585813782
480000000.0 0.16476074495230456 0.6186082343388314
500000000.0 0.39786885346820394 -0.2971177586634296
520000000.0 -0.3475972639967765 -0.198676642324949
540000000.0 0.3679787804543494 0.3288669519497001
560000000.0 0.40144830176697294 -0.2607095575721697
580000000.0 -0.40659756970586924 0.14967351527615297
600000000.0 -0.35452530094209345 0.23596036292880324
620000000.0 -0.3690636812662382 -0.11910051215384251
640000000.0 -0.29270060426573574 0.20507249586981266
660000000.0 -0.26334055049241817 0.2887814573958683
680000000.0 -0.3348873212092248 -0.1613544157986863
700000000.0 -0.32511510095392454 0.15674838211157593
720000000.0 -0.062249105252384036 0.34223074360695716
740000000.0 -0.14710216830597314 0.29287914625459854
760000000.0 -0.103204910137622 0.2827713038791773
780000000.0 0.24324829840999174 -0.1386838942638753
800000000.0 -0.08333592820558042 -0.22161424124800252
820000000.0 0.1513086242455575 0.13569187079298844
840000000.0 -0.18887551661660806 -0.017167110660711655
860000000.0 -0.05677399068183505 0.18252731293394056
880000000.0 -0.0864114582635721 -0.15076275848864956
900000000.0 -0.006454635745465896 0.15702661150647018
920000000.0 0.13490385779480257 -0.0699155806497184
940000000.0 0.12713626214065887 0.03130414743170248
960000000.0 -0.08567910953571667 0.026531022173496125
980000000.0 0.0054174652980655555 0.06407034592463753
1000000000.0 -0.05092716114982591 -0.01917021456095004
1020000000.0 0.011332222855016947 -0.051989875505824935
1040000000.0 0.053151501852211826 -0.05300368277192769
1060000000.0 0.07684921981542676 -0.025526714860748784
1080000000.0 -0.1406534751367811 -0.01847738686122066
1100000000.0 0.05139064129711147 0.18077411739848182
1120000000.0 0.13579790609911754 0.20026835279245508
1140000000.0 -0.25301051660905033 -0.10162299771552556
1160000000.0 -0.28597491137418524 0.023526123875499686
1180000000.0 -0.07220005575702529 0.29938495520359876
1200000000.0 0.24504831324824727 0.21361495989745197
1220000000.0 -0.1674059968324235 0.28682439772183616
1240000000.0 -0.1164753367093417 0.31835245165944864
1260000000.0 -0.32845719005403523 0.011611680154374648
1280000000.0 0.32733607855063773 -0.06620888791472859
1300000000.0 0.31371545552683566 0.17208643831440476
1320000000.0 0.1920860617789421 -0.3186702963613477
1340000000.0 -0.19916169116396817 0.3153259069922927
1360000000.0 -0.2245600471871807 -0.29592266191064426
1380000000.0 0.09442516041894113 0.36280133300629797
1400000000.0 0.1301394313756511 -0.3623200894381204
1420000000.0 0.18449740171808685 0.33773443699106237
1440000000.0 0.30127447014467235 -0.19640114349324084
1460000000.0 0.26831279174116074 -0.23182795841088455
1480000000.0 0.25633113387586726 -0.2405378956482407
1500000000.0 -0.16333558013435198 0.29732006431895924
1520000000.0 -0.05625178710330589 -0.30986371420908065
1540000000.0 0.211681034737933 0.17670177465954967
1560000000.0 0.027468738147366178 -0.23737945340915756
1580000000.0 -0.024061975369816246 -0.19633905518056066
1600000000.0 -0.0959873852094523 0.15220826787328529
1620000000.0 -0.10913471248537987 -0.11048381683113398
1640000000.0 0.1141147026360231 0.05987672202058646
1660000000.0 0.11033109922241699 0.017135236692350644
1680000000.0 -0.05966250515378849 0.07337456913638464
1700000000.0 -0.05652197778930241 -0.048225497892321174
1720000000.0 0.008096046341037808 0.060196621209100125
1740000000.0 0.020798533603601198 -0.030832853591073742
1760000000.0 -0.015878737558403015 -0.05193493513926242
1780000000.0 0.03074819103804103 0.09144078334482868
1800000000.0 0.11207705061553498 0.06888635010551503
1820000000.0 0.15593363123516193 0.015994637482091734
1840000000.0 -0.09132478612460454 0.1624981108892891
1860000000.0 -0.1814576538105205 0.12190760544561144
1880000000.0 0.07357632851257573 0.23234379427490356
1900000000.0 0.25526911172667094 -0.08970249851291552
1920000000.0 -0.2375906077784067 0.16835112879766784
1940000000.0 0.144809488776333 -0.2620834764811986
1960000000.0 0.03506989255941579 0.30355526952162176
1980000000.0 -0.30348314753520306 0.030425903671515746
2000000000.0 0.28586111657236896 -0.09087477746531473
2020000000.0 -0.2031167172201911 0.23105409178160996
2040000000.0 -0.3028085898163061 0.09007561949411161
2060000000.0 -0.25606177352172893 0.1928246390372924
2080000000.0 -0.319834395210267 0.03361992422476793
2100000000.0 0.024516021150132735 -0.32014630052091664
2120000000.0 0.31108043953243153 0.030727722033011225
2140000000.0 -0.21471067508701727 0.20887890767056652
2160000000.0 -0.22187231022543571 0.18681404684879493
2180000000.0 -0.0540634990815948 0.2831935689238542
2200000000.0 0.02270280754407074 0.2837251659813292
2220000000.0 0.01926936766691128 0.2761545515961811
2240000000.0 -0.19106175391753827 0.1892839607412121
2260000000.0 -0.1451760719794959 -0.21775253670857841
2280000000.0 0.25220131907298055 -0.031404857465862177
2300000000.0 0.15297358809768172 0.19164569857955066
2320000000.0 -0.2047022182612336 -0.11458397636876615
2340000000.0 0.17278450977758025 -0.14794256815669846
2360000000.0 -0.13212266195281208 -0.17885455430124764
2380000000.0 0.15219980539654143 0.17362189304164952
2400000000.0 -0.2414538438016163 0.05838116366049232
2420000000.0 -0.16553868740032399 0.21969489530417358
2440000000.0 0.24589753270245274 -0.1783819149042181
2460000000.0 -0.09468957911252933 0.31897858981000476
2480000000.0 0.35178761252029744 0.09076219130906266
2500000000.0 -0.3937832508922054 0.05381023731935888
2520000000.0 0.1564761935374013 -0.4134017989444752
2540000000.0 0.41180342936579345 0.2464536802297886
2560000000.0 -0.39285937975877944 0.3326207180342874
2580000000.0 0.07669374731080719 -0.5383971259309535
2600000000.0 0.08986814035487453 0.5667000224905419
2620000000.0 -0.3819338915305829 -0.4619495397320328
2640000000.0 0.6083151329605815 0.11363368955405694
2660000000.0 -0.4524483594366161 0.44696972285785674
2680000000.0 -0.3603086275207842 -0.5377837123130501
2700000000.0 0.44245332227729745 -0.48616535976606784
2720000000.0 0.6623758626314796 -0.05420571936319965
2740000000.0 0.6610250077662028 0.10741366184444304
2760000000.0 0.6695450199574806 0.0696240535210485
2780000000.0 -0.22886042630480957 0.6290251673833076
2800000000.0 -0.3895043121428773 0.5349225997591133
2820000000.0 -0.6147458260052344 0.22054810244637302
2840000000.0 -0.28523783513687717 -0.5736346198255313
2860000000.0 0.6240502995037437 0.07061694110917491
2880000000.0 -0.6010536666161167 -0.121512987390935
2900000000.0 0.40776919926016136 0.4347767650693049
2920000000.0 0.3349413509289029 -0.4685526469968945
2940000000.0 -0.4166004492804106 -0.3660914790394035
2960000000.0 -0.4483488291926782 0.28586200450601446
2980000000.0 0.10478754944470607 0.4970881456301012
3000000000.0 0.4623061015019592 -0.1463041946024941
3020000000.0 -0.2978832237139888 -0.34630381674310495
3040000000.0 -0.04933907052319219 0.429766897324201
3060000000.0 0.11346518694995968 -0.38760766921868284
3080000000.0 -0.3328935937026065 0.18310593690993063
3100000000.0 0.27244020498742055 -0.2403601894766992
3120000000.0 -0.2047009245058054 -0.28195317967022604
3140000000.0 -0.050836732111617974 0.3359388332806066
3160000000.0 0.14603849452265733 -0.30220170202403634
3180000000.0 -0.18533847103268888 0.2777999163078885
3200000000.0 0.20832622684587174 -0.2567983163879565
3220000000.0 -0.305235200717193 -0.09595692515252538
3240000000.0 -0.19073222440378904 0.23708123275376858
3260000000.0 -0.26250056749768197 0.1123153994015855
3280000000.0 -0.04274166649510562 -0.26643488976201035
3300000000.0 0.21708231731154773 -0.12793647166235977
3320000000.0 -0.1246973947360448 0.19477660403012606
3340000000.0 -0.12832115780766382 -0.1680645489315248
3360000000.0 0.010386276368190062 0.18499403000809242
3380000000.0 0.027370463624139245 -0.16052904755194625
3400000000.0 -0.11635789374601452 0.08294139814975982
3420000000.0 0.12235112045597388 0.025869285790207436
3440000000.0 0.05011795007930323 -0.10419519518769649
3460000000.0 0.1014851313700589 -0.027674416369147695
3480000000.0 -0.08010586042630959 -0.04556735402607683
3500000000.0 0.052890443080377575 0.06786127170214822
3520000000.0 -0.07502618255423175 -0.011168373446600773
3540000000.0 0.06549907680982979 0.03779451299773371
3560000000.0 0.04265711852132855 0.06760433614478968
3580000000.0 -0.0551632467937051 -0.06322499481656893
3600000000.0 -0.09200863892122753 -0.008189547778408463
3620000000.0 -0.07544611086896763 0.06848517372732188
3640000000.0 0.038088141536154994 -0.10171053407738953
3660000000.0 0.07979498368228938 -0.089680205036809
3680000000.0 -0.0810033820727711 0.08551669067758341
3700000000.0 -0.09524971301179565 -0.027665537861376096
3720000000.0 -0.0874256174834335 0.02571894346754564
3740000000.0 0.07528889403746619 0.03368392649144296
3760000000.0 0.07795237237845891 0.010786583071121262
3780000000.0 0.05968728149312136 0.0330017351659403
3800000000.0 0.007651486514166021 0.04534474638603659
3820000000.0 0.011452163689120397 -0.03497649129734205
3840000000.0 -0.02720354453471798 0.041711668704111075
3860000000.0 -0.04824109579641072 -0.052373958982410505
3880000000.0 0.0873137718265465 0.02936054324506784
3900000000.0 0.10256211360949645 0.020210355028288857
3920000000.0 0.08398096105893023 -0.06626487729219963
3940000000.0 0.011736809591519947 -0.10173206755767193
3960000000.0 -0.08198932858808516 -0.058924820278538785
3980000000.0 0.0688233167962209 0.06593770835552933
4000000000.0 0.08238253467749895 0.002339872852006369
