!Created with skrf (http://scikit-rf.org).
# Hz S RI R 50.0 
!freq ReS11 ImS11
400000000.0 0.690626276857842 -0.4384935635294355
420000000.0 -0.7502443223924717 -0.16637582956549962
440000000.0 0.038630187935049694 -0.7336941119545722
460000000.0 0.5920172465534014 0.3880226252125207
480000000.0 -0.07866915456668998 -0.6108965374561134
500000000.0 0.2605696407950099 0.3817008279254877
520000000.0 0.2723272320190717 0.3563261364125696
540000000.0 0.5334981443018209 -0.04544795716535073
560000000.0 0.2335899341511035 -0.46547594372682305
580000000.0 0.29928406522784656 0.3555254587540347
600000000.0 0.45758425913524986 -0.05322616326717336
620000000.0 -0.36356319709222373 -0.20202363689104755
640000000.0 -0.379073140222401 -0.08632979963169278
660000000.0 -0.1911797047271816 0.3673718208830628
680000000.0 0.060139122974885995 -0.406103373063015
700000000.0 0.282317676449534 0.3119594677566563
720000000.0 0.3901546786597179 -0.027008864470582962
740000000.0 -0.09501995205494934 0.37864449230996616
760000000.0 0.14129941401589638 0.3414329588280158
780000000.0 -0.05337888983034678 0.3388818849967806
800000000.0 -0.3105684242667606 -0.060673105050964855
820000000.0 -0.10010195181274524 -0.2598176647970821
840000000.0 0.17871044875309613 0.1722760544417466
860000000.0 0.17344656542071404 -0.15736451041835817
880000000.0 0.08216798601744697 -0.18470508102909605
900000000.0 -0.08956157320226645 -0.12562958909723845
920000000.0 -0.06062586078483328 -0.1177627120786682
940000000.0 -0.019928999399405435 -0.11278205240971814
960000000.0 -0.042908042724486575 -0.07263592752929006
980000000.0 -0.004592307064708955 0.060923762811938176
1000000000.0 0.04536856925804663 -0.0031214633464958456
1020000000.0 0.06559469624033118 0.03289393144530895
1040000000.0 0.08513489987680561 -0.08044445048209176
1060000000.0 -0.07937745662510397 0.12880523423328016
1080000000.0 -0.07014059512463344 0.17791643082291064
1100000000.0 -0.18437576998086813 0.07443311808726166
1120000000.0 -0.09352150370247118 0.21688487621935715
1140000000.0 -0.17229051714909996 0.18686350256930867
1160000000.0 0.1902922506834225 -0.19238777300978394
1180000000.0 -0.28709829839001255 0.028525898793672497
1200000000.0 0.010326472152070925 -0.30219842151441284
1220000000.0 0.010426189871981833 0.31019346755239635
1240000000.0 0.019972906757798597 0.32043281455093553
1260000000.0 0.026030540270057606 0.31959507033758905
1280000000.0 -0.31270710953987835 0.03637999949081492
1300000000.0 0.24765510770074445 -0.20566152517006928
1320000000.0 -0.20256553940501576 0.26055539139576894
1340000000.0 0.3252399493536216 0.12509011535678233
1360000000.0 -0.12464115723721973 0.3387248069634343
1380000000.0 0.10064492401672667 -0.3600993237463577
1400000000.0 -0.07132529331281666 0.37425789917674634
1420000000.0 0.32724198471378285 -0.20276749133646466
1440000000.0 -0.17567826805994594 -0.3381445328020941
1460000000.0 -0.0245811011819653 0.3830913266416853
1480000000.0 0.35251086433030554 0.13406875075790345
1500000000.0 0.04605375360942108 0.36072227954683544
1520000000.0 -0.27701530443593164 -0.19658212802562153
1540000000.0 0.2752836635581296 -0.1274502584168846
1560000000.0 0.21482227474830853 0.1458615037685441
1580000000.0 0.05221110821305267 0.21038611918045716
1600000000.0 -0.098313692464012 0.151972733535107
1620000000.0 0.012050288295704325 -0.13665154934995824
1640000000.0 0.10573187779772773 0.02428240427916538
1660000000.0 -0.09171964949765982 -0.01362637944051056
1680000000.0 -0.00474585244351746 -0.07053720614645798
1700000000.0 -0.0019953581076070886 0.05169510370149474
1720000000.0 0.03172198189064099 0.01634380364199799
1740000000.0 0.04222227709270459 -0.013145418748217855
1760000000.0 -0.07080332192427069 0.03466157370943228
1780000000.0 0.02253365125672152 0.11329516081399514
1800000000.0 0.1296514311965132 -0.07790994475861265
1820000000.0 -0.0959258620394971 -0.15053138709811317
1840000000.0 -0.111431208147939 0.17565465810526437
1860000000.0 -0.2054838659602684 0.08732108287925691
1880000000.0 0.08670923085881124 0.22702928844110254
1900000000.0 0.21584676586548165 0.14243014056260225
1920000000.0 0.266910474096287 -0.03522016235729823
1940000000.0 -0.0052062033186271875 -0.2764062994427314
1960000000.0 -0.2476037456299355 0.14638692416421267
1980000000.0 0.06688930066228922 -0.2867340311658634
2000000000.0 0.2560854138303786 0.15611670861846105
2020000000.0 -0.14431622790314458 0.2621773287690047
2040000000.0 -0.2920562380678108 -0.08080554776279572
2060000000.0 -0.1446641053876726 -0.2726550874361209
2080000000.0 0.2008977069680325 -0.23703557042870485
2100000000.0 -0.2748135113641642 0.1434250294577448
2120000000.0 0.1732099139383291 -0.2671487160469317
2140000000.0 0.1522057272437298 0.28536390921721666
2160000000.0 -0.3150887433911646 0.06856426049089358
2180000000.0 0.24954095108709337 -0.1847660396674069
2200000000.0 -0.14872821528093338 -0.2547810487299208
2220000000.0 -0.16062383245436543 -0.22614310327760168
2240000000.0 0.2554122286303458 0.06388170153616023
2260000000.0 -0.009898177782774504 0.2565729272098433
2280000000.0 -0.09854189822062037 -0.2194163033299882
2300000000.0 0.12118074882153917 0.19774163769036954
2320000000.0 -0.026940976080860265 -0.2204043611114384
2340000000.0 -0.2055604258692959 0.0827541474256999
2360000000.0 0.13971610356286995 0.17195215204279046
2380000000.0 -0.21226846358086704 -0.10954988680144445
2400000000.0 -0.1980232605470826 -0.16639301095943512
2420000000.0 -0.21491346062492075 0.1884501652287196
2440000000.0 0.03157092427418648 -0.31243429104963605
2460000000.0 0.07676687129780486 0.3325606475659634
2480000000.0 0.20700067350587376 -0.305200063825168
2500000000.0 0.14375424812297521 0.3721023263092321
2520000000.0 -0.32172516971663134 -0.29326543140469247
2540000000.0 0.469396475832755 0.026396655036401654
2560000000.0 -0.4756888957435122 0.17370476772219917
2580000000.0 0.2150203976835122 -0.4982640275023032
2600000000.0 0.12098604292683308 0.5581359498157874
2620000000.0 -0.41484763522420687 -0.42810844205384296
2640000000.0 0.5915510976997886 0.16754732037387463
2660000000.0 -0.5012032324065465 0.38738560307328335
2680000000.0 -0.22128886207976858 -0.6065590520258889
2700000000.0 0.5569914538727583 -0.3501399119250032
2720000000.0 0.6628685161096164 0.052045593685544546
2740000000.0 0.6352714436180691 0.21365492495301278
2760000000.0 0.6175400869224149 0.2672780578847477
2780000000.0 -0.3591874711823479 0.5641121399994679
2800000000.0 -0.4821795061666712 0.45338415466024806
2820000000.0 -0.6450067528968693 0.09339183826194342
2840000000.0 -0.0852212062685497 -0.6346220727155779
2860000000.0 0.56547374671408 0.27046575235945963
2880000000.0 -0.5708853852401997 -0.22122723184904236
2900000000.0 0.20732480447058535 0.558397192187555
2920000000.0 0.5101235624840581 -0.2711808761331495
2940000000.0 -0.25949854020433194 -0.49266481758316266
2960000000.0 -0.5322403746641831 0.06742980652666705
2980000000.0 -0.03046001101505437 0.5130533874500816
3000000000.0 0.4726539695005637 -0.12988825676708954
3020000000.0 -0.42780967134957626 -0.18466424795910885
3040000000.0 0.12571436497220173 0.4189451935343439
3060000000.0 -0.14011562309691653 -0.38251343458217446
3080000000.0 -0.09597355472350926 0.36702997950903726
3100000000.0 0.23006870420473943 -0.27741881382399675
3120000000.0 -0.22580433754077123 -0.2651163112777002
3140000000.0 0.29030851684627756 0.17736637182024076
3160000000.0 -0.27875242117403487 -0.18389573556819175
3180000000.0 0.20768121460407732 0.2546315612670419
3200000000.0 0.022096404177245985 -0.31880363577576926
3220000000.0 -0.21912666428894523 -0.21723596967820605
3240000000.0 -0.28858078849155816 -0.06346786165640408
3260000000.0 -0.02689653625685426 -0.2812912772414268
3280000000.0 0.2645501671286376 0.06263242606316526
3300000000.0 0.052800606962669125 0.2544930789620627
3320000000.0 -0.21902111021026763 0.09975731104131436
3340000000.0 -0.19389941459038335 -0.10342667979791466
3360000000.0 0.18671069098995585 -0.043126715281158925
3380000000.0 -0.1112595985667942 0.11893147325955351
3400000000.0 -0.05682182256605312 0.12653189344178864
3420000000.0 -0.0781406832592762 0.09805086836018101
3440000000.0 -0.036767734628846735 -0.11286646934369558
3460000000.0 -0.008197941798994935 -0.1073652588182067
3480000000.0 -0.08398321347941548 0.040749570025901315
3500000000.0 0.05180753124285246 0.06767218861897713
3520000000.0 -0.07686469060753308 0.011071707727072047
3540000000.0 0.06093066519575856 -0.04418700588913389
3560000000.0 -0.04237692071770874 0.06525378974965244
3580000000.0 0.020474118322103337 -0.08192693068092824
3600000000.0 -0.08870840081460073 0.03591301476643201
3620000000.0 -0.021448583281694533 0.10496404321221835
3640000000.0 0.11152452938232812 -0.014222140338252628
3660000000.0 -0.06647192400363285 0.09248474379232244
3680000000.0 -0.023703668909708285 0.10808633300365994
3700000000.0 0.009820820795557484 -0.0974381254543713
3720000000.0 -0.07347590421981634 -0.05415265683926497
3740000000.0 0.014810884989402499 0.08272721764966107
3760000000.0 0.01609181465917765 0.07427894837937701
3780000000.0 0.024525575624836694 -0.06389793471397812
3800000000.0 -0.01477906438279837 -0.04753059675085635
3820000000.0 0.008092615538442193 -0.0437329408451669
3840000000.0 0.015801101083804833 -0.049372806411825655
3860000000.0 -0.07044152926680003 0.021835040496611394
3880000000.0 -0.02116744112209757 0.08498661578395028
3900000000.0 -0.024559308097615903 -0.09287195097711393
3920000000.0 0.06779569756511182 0.06878669761337991
3940000000.0 -0.06805824489100586 -0.06444383903320039
3960000000.0 0.09981914116035243 0.0024963612318022257
3980000000.0 -0.08579192890008841 0.05436262618806551
4000000000.0 -0.03370392683418044 -0.08632211426918224
