!Created with skrf (http://scikit-rf.org).
# Hz S RI R 50.0 
!freq ReS11 ImS11
400000000.0 -0.8169974258754616 -0.1053858238913601
420000000.0 -0.6344470918643701 0.4244168001724761
440000000.0 0.21063854346286165 -0.7204412752059626
460000000.0 0.5272083500161316 -0.4972291175736494
480000000.0 0.39992653930418215 0.5059950245083489
500000000.0 0.09384121362680155 -0.4792540210290603
520000000.0 0.13376236824686763 -0.3898196831637465
540000000.0 -0.1660729954247524 0.4699345896355923
560000000.0 0.48489798169639803 -0.13889909514750798
580000000.0 0.42447344466112846 -0.11459895604340826
600000000.0 0.4036536251416388 0.1613725265547093
620000000.0 0.31817753723108144 0.20301889104051554
640000000.0 -0.32995198255330294 -0.12212508624386846
660000000.0 0.2440124523074339 0.27699261408253323
680000000.0 0.05484561586544268 -0.35747404183315795
700000000.0 0.09960671292015882 0.3398306018286694
720000000.0 0.031173786983965546 -0.31815687065748277
740000000.0 -0.022698843277847696 0.3212624430362028
760000000.0 -0.20238140214251238 -0.24229918132549835
780000000.0 0.15300936650010333 0.2726441554739382
800000000.0 0.07718267186109042 -0.23401744389111803
820000000.0 0.003661467736565037 -0.2058288799329835
840000000.0 -0.04200374653711697 -0.1804077218446504
860000000.0 -0.08084768217339332 0.15294200844410677
880000000.0 -0.17412191597231608 0.0022461480259928853
900000000.0 -0.10490516224299487 0.1107187948617544
920000000.0 0.10248439432150648 0.10665943077668552
940000000.0 0.11935562291400478 -0.029604960547552517
960000000.0 0.013755014456302398 -0.09069490589057491
980000000.0 -0.055990192682994495 0.037871674434083624
1000000000.0 0.036315250625557405 -0.015520842299622294
1020000000.0 0.03515081697156376 -0.025834062016642276
1040000000.0 0.07592700793711266 -0.0028225052714126782
1060000000.0 0.0025727287622431066 -0.11237798719003793
1080000000.0 -0.029393249960230402 0.16829629629550588
1100000000.0 -0.02818058459459362 0.19277886152724635
1120000000.0 -0.010630523871277539 0.22986686867826808
1140000000.0 -0.1795262868244189 0.17574314650219816
1160000000.0 0.09339724262412565 -0.259952787956512
1180000000.0 -0.2839534651243099 0.09012798000912225
1200000000.0 -0.30840676901128933 -0.0790264769981167
1220000000.0 0.11751093554827449 -0.31775439624499563
1240000000.0 -0.04188610395039239 -0.3478122206109798
1260000000.0 -0.35313638452011464 0.020482720309938078
1280000000.0 -0.30748114088918344 0.17187839988522738
1300000000.0 -0.21694549526284285 -0.27325719311792146
1320000000.0 0.0030446727487848414 -0.36183030861695886
1340000000.0 -0.29465054538401736 0.21731739226296323
1360000000.0 -0.3258227825391885 -0.1703258924421116
1380000000.0 0.1540983437799299 0.33624541463644675
1400000000.0 0.038582954377399226 -0.37303708255925333
1420000000.0 -0.3569324312915939 -0.11861607760958667
1440000000.0 0.03938224825718404 0.37270120113085675
1460000000.0 0.025759878822765692 -0.3659259778134394
1480000000.0 -0.33585095269203713 -0.10078466322558616
1500000000.0 -0.060929397293921855 0.3262589470506425
1520000000.0 0.011062274804376644 -0.3125339260518339
1540000000.0 -0.11057414328029708 0.2525116501809512
1560000000.0 0.22614298218211884 -0.08413610308154357
1580000000.0 -0.11527302462299129 -0.16930935804976244
1600000000.0 0.12492159072141666 -0.1354453904207666
1620000000.0 0.07557387703583215 0.1300286904318885
1640000000.0 0.12217673738272353 0.007373785453911535
1660000000.0 0.08831493698940143 0.04940704099894071
1680000000.0 0.01959632242180878 -0.08766298105432349
1700000000.0 -0.012559218180710804 -0.07348076502891637
1720000000.0 0.04627409103796696 -0.039839400989904926
1740000000.0 0.0369601409048069 -0.03170194644252588
1760000000.0 -0.044236059579487105 0.03129553050992043
1780000000.0 -0.08125218866134025 -0.03567408669154214
1800000000.0 -0.1105947306118447 0.04716324513288888
1820000000.0 -0.002636845125190412 -0.15765669532422208
1840000000.0 0.09352916661430126 0.16709716099720331
1860000000.0 -0.21841303787355604 -0.017674759607347323
1880000000.0 0.1925460428756883 0.150699253020094
1900000000.0 0.18592706573957873 -0.1932168751711009
1920000000.0 -0.2683988429887051 0.10713789260811318
1940000000.0 0.2933166980644281 -0.061169067580793955
1960000000.0 -0.08349898870664861 0.2939930075290322
1980000000.0 -0.14601958171411325 -0.2762761598962705
2000000000.0 0.11687122409241743 -0.28943376675524457
2020000000.0 0.2891162071729805 -0.1086198408259203
2040000000.0 0.22357426741294883 0.21417051743875906
2060000000.0 -0.12746873145323678 0.2821424617255333
2080000000.0 -0.2929754515431945 -0.10104301862613205
2100000000.0 0.2346072597179567 0.20459447881114073
2120000000.0 -0.30528192987014574 0.07835485762340037
2140000000.0 -0.12083718611998744 -0.28593468971866465
2160000000.0 -0.04698997380559399 0.2987166038200516
2180000000.0 0.2885511083028355 -0.04885478368590297
2200000000.0 0.26461489856915243 -0.08491470046874983
2220000000.0 0.20284447756136684 0.176958360548586
2240000000.0 -0.2414151986408542 -0.10949720278210644
2260000000.0 0.014008173156917741 -0.26302759356271294
2280000000.0 0.2564383790349575 0.019542934441103253
2300000000.0 0.2423371284326685 0.04382751171216157
2320000000.0 -0.21840592853161533 -0.06972684778169401
2340000000.0 0.2021405082742089 0.10205754609487866
2360000000.0 0.07093893427113358 -0.213380475850181
2380000000.0 0.15297060640483803 0.1814983066833144
2400000000.0 0.01659590759870642 0.24929124723470514
2420000000.0 0.0693765848195135 0.2623614396689082
2440000000.0 0.2966628631479036 -0.045715012314402684
2460000000.0 -0.30407414574379754 0.13275017260637928
2480000000.0 0.31012748652748506 0.19689276056305066
2500000000.0 -0.3530295001720738 0.18967281118857812
2520000000.0 0.13814001252626987 -0.420150532764195
2540000000.0 0.4590513277836924 0.13651991156185145
2560000000.0 -0.4141020090525295 0.30489383994276426
2580000000.0 0.05741266059913933 -0.5418744955979514
2600000000.0 0.14519132575853996 0.5554177919780734
2620000000.0 -0.3978948381104936 -0.447714839605976
2640000000.0 0.6099587252924847 0.09433740203644957
2660000000.0 -0.49285086929061045 0.3996877307231093
2680000000.0 -0.19258949939168626 -0.6177867912122557
2700000000.0 0.43847187486609646 -0.4912430717350932
2720000000.0 0.6477756409455973 -0.1502539576716833
2740000000.0 0.6660795397098268 0.06955880830600901
2760000000.0 0.672369207009764 -0.029793969416524298
2780000000.0 -0.17115510665500677 0.6475669731897344
2800000000.0 -0.37116499401571146 0.5477751211640505
2820000000.0 -0.6134365419442677 0.2206087444451049
2840000000.0 -0.28876613591373407 -0.5716883773238365
2860000000.0 0.61162933295891 0.14182360198948957
2880000000.0 -0.6071493548488742 -0.08633198234527552
2900000000.0 0.39321253225341624 0.4481815801806418
2920000000.0 0.28277224917958804 -0.5011450805786954
2940000000.0 -0.4475450181221098 -0.3238510388213556
2960000000.0 -0.4255008785171656 0.3126446578160522
2980000000.0 -0.07045139615807973 0.49974418210314797
3000000000.0 0.48124495908878184 0.05358270145998988
3020000000.0 -0.20729648099411968 -0.40988307845058725
3040000000.0 0.03908178518557231 0.43241836409765866
3060000000.0 0.12394087476002673 -0.3860958947525492
3080000000.0 -0.28620229403615255 0.252513935942925
3100000000.0 0.143698550132396 -0.3320405240880457
3120000000.0 -0.22910063034422068 -0.2638613101989145
3140000000.0 0.15425099033361436 0.30205297869458747
3160000000.0 -0.014458913581195535 -0.33383997673209687
3180000000.0 -0.10836522581649599 0.31434680542388804
3200000000.0 0.23996122332488254 -0.22088707748252842
3220000000.0 -0.14233511523756123 -0.27944652721759183
3240000000.0 -0.2470187710172507 -0.17634118388618752
3260000000.0 -0.2848921545360713 -0.06049405164098337
3280000000.0 -0.07093423133641902 -0.26389179081795366
3300000000.0 0.13390466112930138 -0.21432896034923207
3320000000.0 0.12535692819660285 0.19491532317549756
3340000000.0 -0.20694821070705435 -0.02813407446297618
3360000000.0 0.16095632772312232 0.08405362043886933
3380000000.0 0.0336287790136446 -0.15488865927347586
3400000000.0 -0.10045288766102543 -0.0958565342265997
3420000000.0 -0.07411539096631158 0.10404789442483266
3440000000.0 0.07050472807645057 -0.09994920681549195
3460000000.0 -0.08651304543843566 -0.060227308050918645
3480000000.0 -0.09164429314867929 -0.00039551209854074646
3500000000.0 0.06458599489251379 0.060356414220668675
3520000000.0 -0.029244853850479407 0.07189570891272651
3540000000.0 -0.06111016308157021 -0.04238330438994314
3560000000.0 -0.023724630556424195 0.07387947817162634
3580000000.0 0.08360967760262224 -0.011323905254307869
3600000000.0 -0.08585982318121503 0.035427679782068504
3620000000.0 -0.09845868049366184 0.03548071421085678
3640000000.0 -0.10865619375011681 -0.012867532094424507
3660000000.0 0.021148648101382592 -0.1147136093900744
3680000000.0 -0.10794529481470365 -0.036835542483166735
3700000000.0 0.016022190867390297 -0.09994147799638495
3720000000.0 -0.014606634039027901 0.09136678600978615
3740000000.0 0.059921836186369 -0.057817593582628814
3760000000.0 -0.04263090233678814 -0.06579197103345995
3780000000.0 0.05034189376513924 0.047549020551177
3800000000.0 0.023514173014746242 -0.04079791330841524
3820000000.0 0.006542403192750214 0.034072089197964506
3840000000.0 -0.016078402299875557 0.045560609316895956
3860000000.0 -0.03496607730529232 -0.0677767890719125
3880000000.0 -0.08997391761441544 -0.02921627044257634
3900000000.0 -0.06733764435393473 -0.07727345990619072
3920000000.0 0.09457061245188328 -0.04662773284505149
3940000000.0 0.01871062806211502 -0.10138253635637792
3960000000.0 -0.06191314308726447 -0.0802782220518198
3980000000.0 0.06315816922016901 0.07253468130698094
4000000000.0 0.06276068497232339 -0.05433059538444181
