!Created with skrf (http://scikit-rf.org).
# Hz S RI R 50.0 
!freq ReS11 ImS11
400000000.0 -0.8184159116074844 -0.08803333811906656
420000000.0 -0.6068003694000232 0.46756107872945923
440000000.0 0.16856954533095228 -0.7347999948335784
460000000.0 0.5457110606465685 -0.49303944084574863
480000000.0 0.6053059227633021 0.22691802883832493
500000000.0 -0.35977960659154395 -0.3162735946164842
520000000.0 0.28455034162766435 -0.28235007472787704
540000000.0 0.4602323248777071 0.18440405034009355
560000000.0 0.46507648502965865 -0.14902843345107783
580000000.0 -0.11644046548361188 0.4107796317837176
600000000.0 -0.37200354332635044 -0.22819568054283185
620000000.0 -0.23283485245395313 0.310624794053579
640000000.0 -0.35130737237337933 -0.011137135423088617
660000000.0 -0.1846863509591885 0.3394738472131908
680000000.0 0.19068953497044716 -0.3180241795270636
700000000.0 0.06383994996228205 0.3609832999150816
720000000.0 0.14352908219100263 0.3169774923463086
740000000.0 -0.2928451494506032 0.1468846293679755
760000000.0 0.24474902499395157 -0.1693639551682073
780000000.0 0.27550326512786427 0.031823009371697776
800000000.0 0.22304712238984753 0.05869639379077359
820000000.0 0.1556963311328084 0.144565559028459
840000000.0 0.029476730943787038 0.19289167691690265
860000000.0 -0.04862222700833035 -0.1778733436940276
880000000.0 0.03891779846755105 -0.168423921171322
900000000.0 -0.15009380296011524 0.04164201431137526
920000000.0 0.14576074685774815 0.04408019898529267
940000000.0 0.1004893341339377 0.08596290893081325
960000000.0 -0.04936600824260724 -0.08840660638164814
980000000.0 -0.054434954543197626 0.029928357823352365
1000000000.0 -0.03696640811209222 -0.03259782625176182
1020000000.0 -0.04339728248337379 0.028206479200707166
1040000000.0 -0.06890599534257986 0.020303964968855902
1060000000.0 -0.019177123829320138 -0.08828143686465534
1080000000.0 0.11885683048235968 -0.0771339465756046
1100000000.0 0.1771255855568722 0.052523883506675986
1120000000.0 0.011844945468814467 0.23364311580182012
1140000000.0 0.217006699523998 -0.17195099968641764
1160000000.0 -0.2884093844267203 -0.05339890687321521
1180000000.0 0.14532787586358423 0.27043486359088537
1200000000.0 0.24674748867543397 0.2130397755983584
1220000000.0 -0.02041113132096534 0.33283473969827265
1240000000.0 -0.05945908733310745 0.3278154436953378
1260000000.0 -0.29992646123297884 0.13777546670337032
1280000000.0 0.23975222870893567 -0.22911164575018433
1300000000.0 -0.06756416188494781 0.3458298438217009
1320000000.0 0.37296555501941653 -0.05672415124862633
1340000000.0 -0.16182011801171706 0.34246618228514747
1360000000.0 -0.3717036426419951 0.05097111232503026
1380000000.0 0.37115618193233324 -0.015229723158369896
1400000000.0 0.050465467562487015 -0.3695737125995563
1420000000.0 -0.3648014135729797 -0.09665656570088213
1440000000.0 0.21753113297777762 0.3012227419439131
1460000000.0 -0.2249075952269075 -0.287871123517005
1480000000.0 -0.25456759189596284 -0.24247807247006714
1500000000.0 0.10123460853165964 0.31229263453355643
1520000000.0 0.28041489356183275 -0.13069383003967028
1540000000.0 -0.2280714402691832 0.15575051687887367
1560000000.0 0.19321906106425074 -0.15059540907602628
1580000000.0 -0.11527740654232028 0.16670875799633553
1600000000.0 0.1777581250824556 -0.009539546397700941
1620000000.0 -0.02612456854054199 -0.14680616236014843
1640000000.0 -0.10254824235751116 0.07552145128420215
1660000000.0 0.11379368072062808 -0.020574374426333846
1680000000.0 -0.002549753076807433 0.09610907093449397
1700000000.0 -0.0517737727598663 -0.05279867138692923
1720000000.0 -0.057181990721435275 0.01660997683658683
1740000000.0 -0.004261646968282411 -0.0385229828592301
1760000000.0 0.05131458257891311 0.011143536633586614
1780000000.0 0.04261270824303429 0.08615126216751158
1800000000.0 0.09468627768041403 0.09227766418793677
1820000000.0 0.14581393011728677 0.05645609963266763
1840000000.0 0.07832400721715024 0.17091555034676667
1860000000.0 -0.20407044611572792 0.07635471034236971
1880000000.0 0.2086467558114706 0.12409417882746787
1900000000.0 0.26715434767798324 -0.009909545985620417
1920000000.0 -0.27316098423498425 0.10050748252566999
1940000000.0 0.2439238655904669 -0.1728581498609122
1960000000.0 -0.0337413037619645 0.3048402160073762
1980000000.0 -0.27797076427313794 0.1305194364178203
2000000000.0 0.1590277331897579 -0.25549859796403734
2020000000.0 -0.1961142134217371 0.2272030413069098
2040000000.0 -0.23469136888045058 -0.21109568365242523
2060000000.0 -0.32552971064428604 -0.008010903130336233
2080000000.0 -0.22426013870959657 0.2360102551571293
2100000000.0 -0.0815953688853592 -0.3077964718242217
2120000000.0 0.30869873848379253 0.022826504594659222
2140000000.0 -0.26611335410245845 -0.1357558037449753
2160000000.0 -0.2616234460109636 0.14104603976475072
2180000000.0 0.1562345601652545 0.24626447929042475
2200000000.0 0.27099160197231914 0.07005754711150912
2220000000.0 -0.06090440982508979 0.26303778659602556
2240000000.0 -0.1407188531396767 -0.22620678566078642
2260000000.0 0.08381588666919182 -0.25312274696418613
2280000000.0 0.188884642983745 -0.17957316889429945
2300000000.0 0.055369234098656184 -0.2392492227966365
2320000000.0 -0.20679312730842966 0.0902140116969443
2340000000.0 0.07273965086834132 0.21020820338032145
2360000000.0 0.12901076025428163 -0.18602424636046
2380000000.0 0.22239396988727914 0.08102716898639999
2400000000.0 -0.06278264117742305 0.24087184920549656
2420000000.0 -0.019119879939174616 0.27169759898583995
2440000000.0 0.28314575727457464 -0.09868093570373798
2460000000.0 -0.2970580317451819 0.14893618581623042
2480000000.0 0.2704387413461955 0.24522394403499873
2500000000.0 -0.3656656479758826 0.1657092983027329
2520000000.0 -0.004240175902049543 -0.43976526550237877
2540000000.0 0.379572264563581 0.288122133613535
2560000000.0 -0.468935068672933 0.2115739462522034
2580000000.0 0.1365713375472989 -0.5269177075648345
2600000000.0 0.13783713635657016 0.5574321797623799
2620000000.0 -0.41942451764793537 -0.4268941928906058
2640000000.0 0.6084259481993172 0.10968696189608546
2660000000.0 -0.47938956503481817 0.41660550437796556
2680000000.0 -0.2785812778906192 -0.5850259651409453
2700000000.0 0.4578669394390972 -0.47346620450072413
2720000000.0 0.6571798522108994 -0.09984540251639704
2740000000.0 0.6565547383136889 0.13252568193050193
2760000000.0 0.6616487152266906 0.1239442365963429
2780000000.0 -0.20318611109293444 0.6379567979455522
2800000000.0 -0.39428516021234566 0.5308610620805362
2820000000.0 -0.6329345789676717 0.15619534997834178
2840000000.0 -0.21701948428640683 -0.6031640174512687
2860000000.0 0.6117792877895042 0.1453103131208711
2880000000.0 -0.6060735100598262 -0.099304591191222
2900000000.0 0.4307911362664749 0.4129467323135631
2920000000.0 0.27752796822596426 -0.5040412187010187
2940000000.0 -0.38045806010080385 -0.40386025486923127
2960000000.0 -0.4602512129579534 0.26694228483591215
2980000000.0 0.07519601911266975 0.502667010552796
3000000000.0 0.4831736597622069 -0.02550934244293056
3020000000.0 -0.24622624547017044 -0.3870909106666642
3040000000.0 -0.009871322361652536 0.4335702949181098
3060000000.0 0.018533362595561365 -0.4041516746601205
3080000000.0 -0.2801653170042461 0.25396947298429084
3100000000.0 0.33029950413399467 -0.14190127686650628
3120000000.0 0.023411993818088332 -0.3476904562116451
3140000000.0 -0.17622475545914837 0.2926691122654951
3160000000.0 0.028607006406503533 -0.33868959808868937
3180000000.0 0.06672738478220092 0.3275608477100347
3200000000.0 0.09368111396703722 -0.31303985548537205
3220000000.0 -0.2560468654440733 -0.1856304618160117
3240000000.0 -0.3025610997305908 -0.01874725631852826
3260000000.0 -0.29083062704696444 -0.010795494665591676
3280000000.0 -0.19371888952073713 -0.19422403862063806
3300000000.0 -0.03516042122033044 -0.246924808495158
3320000000.0 -0.08275457123447247 0.21207301485803895
3340000000.0 0.021843377566266135 -0.20901020870613352
3360000000.0 -0.08113455990425002 0.16937511190017768
3380000000.0 0.053899928788313546 -0.15436238890008147
3400000000.0 -0.13291584126677802 0.05924999779687166
3420000000.0 0.0585358341406586 -0.11233998296669058
3440000000.0 -0.002092221643322697 -0.11581725158616335
3460000000.0 0.09174206675669208 -0.04351095384284804
3480000000.0 0.07557408530317482 -0.04944445449703996
3500000000.0 -0.0694352602769782 0.055623794736389044
3520000000.0 -0.05304602042135582 0.06042452504237085
3540000000.0 -0.07450864352745863 0.01283705507060761
3560000000.0 0.0601491345918356 -0.045931574926126664
3580000000.0 0.0423735022514545 -0.07153459214581903
3600000000.0 -0.08358083754175222 -0.036963534754706345
3620000000.0 -0.0975656169375029 -0.032105699662370944
3640000000.0 -0.0630247308125806 -0.09024749615830605
3660000000.0 -0.04169477416540952 -0.11188800185124052
3680000000.0 -0.11556702970307851 0.006945601815848758
3700000000.0 -0.059540895084497954 -0.08269375996822066
3720000000.0 0.052716352184494976 0.0769890799986306
3740000000.0 0.07035989334650443 -0.038077252508329544
3760000000.0 -0.07691966983984257 0.007779724756541679
3780000000.0 -0.051717439153727264 0.04993871003691241
3800000000.0 -0.0048986989752084565 -0.04849995923569929
3820000000.0 0.025855144491610402 0.02162670885388444
3840000000.0 -0.042544126348683466 0.02543592780668625
3860000000.0 0.03620371146590258 -0.06882334487080184
3880000000.0 -0.08242644923267732 -0.046695032275803024
3900000000.0 0.017109287592642037 -0.0984053463537995
3920000000.0 -0.08609298375044569 0.06319447425156541
3940000000.0 0.10355124353013975 -0.005264752049650343
3960000000.0 -0.04572642305504648 -0.09156494470596231
3980000000.0 0.07400940135027358 0.060364732238686124
4000000000.0 0.073887862559581 -0.03515162355347654
