!Created with skrf (http://scikit-rf.org).
# Hz S RI R 50.0 
!freq ReS11 ImS11
400000000.0 -0.8212173781377723 0.10920998338696532
420000000.0 -0.7046248407496053 0.2869250184232671
440000000.0 0.10705807484896268 -0.7423981380222808
460000000.0 0.5425675929521868 -0.47863814046475506
480000000.0 0.16127551598714696 0.624649015655266
500000000.0 0.16827174567224376 -0.4677193619787714
520000000.0 -0.1926223262075465 -0.35710203787078715
540000000.0 0.0941108903804562 0.4880021631078243
560000000.0 0.40434051621864886 -0.30415570883547566
580000000.0 0.3332378896930858 0.27365785194827724
600000000.0 0.2882270395174558 0.328822668096256
620000000.0 0.34785956645043364 0.1590777759928315
640000000.0 -0.3494706069488641 0.039448552294476226
660000000.0 -0.29548972692551445 0.2168220296596641
680000000.0 0.2890845922129569 -0.21280532767353957
700000000.0 -0.18668214697614016 0.3024818644257736
720000000.0 -0.03306873300402623 -0.33282128088725027
740000000.0 0.25789284965851045 -0.21620685662000913
760000000.0 0.2921456660149496 -0.10114808858041675
780000000.0 -0.0669831817305433 -0.2701092634121574
800000000.0 0.19156948054076134 -0.1333694210304069
820000000.0 -0.20891402336420942 -0.025247690568923127
840000000.0 -0.02246727750309568 0.20176305203845882
860000000.0 0.1792573943637813 -0.07090347284539446
880000000.0 -0.12063743554098495 0.13759714721032254
900000000.0 0.03058394427930717 0.1364409066594669
920000000.0 0.12444093377863578 -0.07039421173713199
940000000.0 -0.08822601394056785 0.08688543182221893
960000000.0 0.050069045475262156 -0.07546746093987709
980000000.0 0.040496602875407135 -0.03124675416713576
1000000000.0 -0.027870150193036212 0.021031332003426204
1020000000.0 0.016931666790161795 -0.03666650239102345
1040000000.0 -0.04507200648337844 -0.05154576562197736
1060000000.0 -0.09754576661272767 0.04163406607400691
1080000000.0 -0.07437676207360784 -0.1508596556901125
1100000000.0 0.031078783418538453 -0.20359527311725276
1120000000.0 0.18515810227455287 0.16256567950017692
1140000000.0 0.22266115297816474 0.1243435427699605
1160000000.0 -0.25117377024764964 -0.08631684429315496
1180000000.0 -0.29246356939564044 -0.03848766101916637
1200000000.0 -0.29885733881715004 0.13097525065452992
1220000000.0 -0.3047160173701618 -0.12008232577660385
1240000000.0 0.1201791867564052 -0.31691292868089993
1260000000.0 0.11071395195758205 -0.3351177961273981
1280000000.0 -0.324723256973156 -0.14500302752175218
1300000000.0 -0.09739981482679277 -0.3417963998593485
1320000000.0 0.04728601097498041 -0.3691464329849983
1340000000.0 0.15438870041126362 0.3356462461297473
1360000000.0 -0.35656138301095947 0.10187575862758032
1380000000.0 0.3287126663949276 -0.1668665676097597
1400000000.0 -0.04807374634331462 -0.35946629662110974
1420000000.0 -0.24056537643409076 -0.278336477474274
1440000000.0 -0.3519458967224269 0.11525211759457699
1460000000.0 0.36651364035484535 -0.05313988069533984
1480000000.0 -0.11806060912638056 -0.34032402635607445
1500000000.0 0.09276714794150728 0.3300701430856337
1520000000.0 -0.2852412903932346 0.1428351713517741
1540000000.0 0.23234758119053558 -0.1425563869758478
1560000000.0 0.04444854262013499 -0.22661537246872956
1580000000.0 -0.06998068684337719 -0.18241733158840984
1600000000.0 -0.03752716190228635 0.17433879848924325
1620000000.0 -0.07324193422519239 -0.1285000840157478
1640000000.0 -0.05152785022197301 -0.11222904277472853
1660000000.0 -0.10447427401371062 0.04343293565231812
1680000000.0 -0.025492447315548172 -0.10197596921178202
1700000000.0 -0.01795428038514724 -0.07994079360888365
1720000000.0 0.04585950721697623 -0.022057152052332017
1740000000.0 0.008372855812062319 0.03679166499776506
1760000000.0 0.04956506435038773 -0.03182782196161864
1780000000.0 0.0860394519911303 -0.04789075504623381
1800000000.0 0.10112327197758474 -0.07482957416185895
1820000000.0 -0.09472905845573268 0.12109701716608831
1840000000.0 0.1176479367383251 0.14850240522684124
1860000000.0 -0.21084334841115496 0.07314440823880813
1880000000.0 0.24488869300815275 0.013833098713619398
1900000000.0 -0.1204905272107169 -0.23387643931262148
1920000000.0 -0.23585414768768312 -0.15013637393621046
1940000000.0 0.1259499730402887 0.26831669293883603
1960000000.0 -0.28997480741592196 -0.11090931969226134
1980000000.0 -0.08343401340228584 -0.3067313622289618
2000000000.0 0.1399728777290418 -0.2847548399597215
2020000000.0 0.21415908311993362 -0.2325036037832656
2040000000.0 0.2624614369348528 -0.16829707155139334
2060000000.0 0.24343295945743118 0.18406700404302334
2080000000.0 -0.26804455563324037 -0.14980195776406968
2100000000.0 0.30723376529486995 0.01296219732682337
2120000000.0 -0.30602035709578934 0.043081990377216016
2140000000.0 0.263041060850861 -0.15948888521679308
2160000000.0 -0.3070280965061215 -0.003088775471848598
2180000000.0 0.26458227027815323 0.1420879663683828
2200000000.0 0.23693595389070285 -0.15821093855287602
2220000000.0 0.27054811255346956 -0.03020248572365471
2240000000.0 -0.180319265722743 0.18972019643281007
2260000000.0 -0.09673629650298388 -0.2384902559860738
2280000000.0 0.2291125809291335 0.10386164511031719
2300000000.0 0.1102644700893069 0.21747711929412372
2320000000.0 0.006871769318049465 -0.23196054316656756
2340000000.0 0.12118442852476287 0.19641015763041483
2360000000.0 -0.2059668877793549 -0.09837699995552247
2380000000.0 0.18826018791236726 0.14270119979766566
2400000000.0 0.18790070066668255 0.1665847876051131
2420000000.0 0.138829835622331 0.23317889026932664
2440000000.0 0.2858570611270518 -0.07867581568482268
2460000000.0 -0.325875683650564 0.062429963033569846
2480000000.0 0.25811016970826883 0.25980535214509143
2500000000.0 -0.3966661504115034 0.06181591856536914
2520000000.0 0.08091443970730884 -0.43718078153194584
2540000000.0 0.46846300736905755 0.11004211429888192
2560000000.0 -0.368282319026271 0.35945858742096615
2580000000.0 0.03611682463786623 -0.5428905056485842
2600000000.0 0.17729221842201062 0.5446458852205889
2620000000.0 -0.4324354953741535 -0.4142048726115516
2640000000.0 0.6031142351947252 0.13341638914425272
2660000000.0 -0.4694029572757859 0.42831888591411627
2680000000.0 -0.34272209412546517 -0.549572430102464
2700000000.0 0.38487029204775264 -0.5339922332162863
2720000000.0 0.6480014392044681 -0.14880050736671113
2740000000.0 0.6703807190629651 0.0007724893586673445
2760000000.0 0.6733813514891093 0.003280606764673754
2780000000.0 -0.19645262159126295 0.6394167682076016
2800000000.0 -0.36157493509464955 0.5538981520581064
2820000000.0 -0.5912271431039583 0.2761176816738693
2840000000.0 -0.3192018989877669 -0.5560585357221008
2860000000.0 0.6051222103985854 0.17042727206644823
2880000000.0 -0.6117007212434378 -0.04537215291730627
2900000000.0 0.4364012612350307 0.40471917187655426
2920000000.0 0.25399399242367077 -0.5156101521294583
2940000000.0 -0.4192182091128755 -0.3570924894127922
2960000000.0 -0.505652266818336 0.15115323041037038
2980000000.0 -0.09506875327966911 0.49744194800477987
3000000000.0 0.4840142223663336 0.01248019117825536
3020000000.0 -0.23690095620835902 -0.39365673609755336
3040000000.0 -0.001018379826031063 0.4356191289133767
3060000000.0 -0.03268696631115339 -0.40397750613795996
3080000000.0 -0.18080456715905155 0.33354233323880594
3100000000.0 0.19246567288668986 -0.30398560012039405
3120000000.0 -0.19840870179395553 -0.2816667491576772
3140000000.0 -0.08721413269896885 0.3241108018652834
3160000000.0 0.24671710166604993 -0.22439670620712113
3180000000.0 -0.2570718722819538 0.213861579507286
3200000000.0 0.2739906379340921 -0.18731617902136127
3220000000.0 -0.3006455369565826 -0.10861790676895217
3240000000.0 -0.14133439428826539 0.2691897009260197
3260000000.0 -0.2659609669886832 0.10034548866401984
3280000000.0 0.06332542869498516 -0.2629342524545689
3300000000.0 0.24711006654720755 -0.0359136822978717
3320000000.0 -0.20727410852958345 0.10015150957489094
3340000000.0 -0.11137879356209289 -0.18115552584183933
3360000000.0 0.16122477847394243 0.09528901634350838
3380000000.0 -0.12500726951566482 -0.10259931372687849
3400000000.0 -0.10469896842280349 0.09101616956159234
3420000000.0 -0.06686495998358422 0.10319917084837096
3440000000.0 0.0842906127285827 0.0843416213981535
3460000000.0 -0.017968824260591883 -0.10707935099191025
3480000000.0 -0.026469468195696438 0.08848182936624677
3500000000.0 0.041533050443004725 0.07478496082387863
3520000000.0 -0.07413247500100781 0.0026306092701398314
3540000000.0 -0.0253493690368333 0.06869969449101662
3560000000.0 -0.07985479712172994 0.001093669969562218
3580000000.0 0.0183938226791041 -0.08788331990801365
3600000000.0 -0.015724389701725707 0.09207730006256612
3620000000.0 0.052747164400021 0.08990552944904785
3640000000.0 0.01400385825339395 0.10747142015567986
3660000000.0 -0.11339228050633345 -0.006652269219014298
3680000000.0 -0.07416185189982849 -0.08090684582742579
3700000000.0 -0.00586565618988646 0.09942660300906134
3720000000.0 0.031899135054624064 -0.09187609373040265
3740000000.0 -0.02517689668984502 -0.08431711462422851
3760000000.0 -0.07063754484580104 -0.036092621425410525
3780000000.0 -0.0017104272362640188 0.06837428798692541
3800000000.0 0.039846563247057654 0.02236844196161939
3820000000.0 -0.00617436326769433 -0.03374495141951086
3840000000.0 -0.04795201933089869 0.003887702811580629
3860000000.0 0.08027161380897484 -0.007662036282517871
3880000000.0 -0.08141116337011746 -0.057586516198851995
3900000000.0 -0.10414906735435128 -0.011934544366801705
3920000000.0 0.10141397193838074 -0.020902324659209038
3940000000.0 0.0473194103540887 -0.0883805911322305
3960000000.0 0.08313787024094302 -0.05318663785845091
3980000000.0 -0.09123449903486384 -0.02825747737271767
4000000000.0 0.07628393912594847 -0.03993298341983804
