!Created with skrf (http://scikit-rf.org).
# Hz S RI R 50.0 
!freq ReS11 ImS11
400000000.0 -0.7970884195010861 -0.20676050525504533
420000000.0 -0.38974673869542636 0.6590746291385577
440000000.0 -0.0319570158023229 -0.7501510163960889
460000000.0 0.06235917415847292 -0.7328176479681972
480000000.0 0.6296097316291774 -0.06461946378346563
500000000.0 0.14707608968763117 -0.44169116363099986
520000000.0 -0.16854289423724592 0.38202056017299624
540000000.0 0.44536287202658814 0.2386169348676886
560000000.0 0.44085770687733794 0.22796069757883725
580000000.0 -0.08952579539445372 0.4219701427624577
600000000.0 0.29534574831993826 0.3191944721911204
620000000.0 -0.39218519372392896 -0.04786218464835682
640000000.0 -0.22151491208223806 -0.2855894491336896
660000000.0 0.35937107411244235 -0.04393686471156326
680000000.0 0.23869602820507613 -0.26599301449626256
700000000.0 -0.1888217994758062 0.3056748556566912
720000000.0 -0.2635888139327516 -0.21145352566837075
740000000.0 -0.27126677921353354 -0.19391593982542038
760000000.0 0.3052681190851897 0.010479433825007687
780000000.0 0.25824994542889046 0.10847984565611876
800000000.0 -0.15317497330085356 0.17991799100652667
820000000.0 0.15971142343763486 0.12420134015134937
840000000.0 -0.1891237825230435 -0.05002881420371196
860000000.0 -0.12861622610967205 -0.1309851735600825
880000000.0 -0.0865855973096834 0.16614788695868368
900000000.0 -0.029210658950235252 -0.14943542044523112
920000000.0 -0.05799498882231284 0.1300470403989443
940000000.0 0.07394651955896742 -0.1204835874658511
960000000.0 0.0944193676767591 -0.03128860033400223
980000000.0 0.04173064216172919 0.026597606699828892
1000000000.0 0.00011951076764733966 -0.029449120558333635
1020000000.0 0.0031145137631868984 -0.031964628107164425
1040000000.0 -0.04353796384725269 0.055568861168617596
1060000000.0 -0.10522241426854502 -0.03718113869590933
1080000000.0 -0.14533236400084565 0.05560974377657475
1100000000.0 0.004819432928587532 -0.18727424030779832
1120000000.0 0.227050649716306 -0.02635808962707755
1140000000.0 0.21543553020312345 -0.16199904774300983
1160000000.0 -0.07150007639315867 -0.2922478717092386
1180000000.0 0.12071512957455251 -0.28627012284518294
1200000000.0 0.3194220521368307 -0.01683791474489263
1220000000.0 0.14187155161316967 0.28961262218509487
1240000000.0 -0.3130114490984594 -0.09776049114379468
1260000000.0 -0.1537359251369368 -0.2990559000467332
1280000000.0 0.14998110417252247 -0.30503586172348995
1300000000.0 0.3531039934570237 0.03276068421241438
1320000000.0 0.30235690056635744 0.2031804557224688
1340000000.0 -0.360545497790858 -0.10740681554241678
1360000000.0 -0.03940987171070205 -0.38157533427650825
1380000000.0 0.36976983732140156 -0.10837333443795295
1400000000.0 -0.36968109662428966 -0.08457665588624734
1420000000.0 -0.13963502243684173 0.34816724605250043
1440000000.0 0.3107989334221557 0.1907933002542694
1460000000.0 0.08670570838797075 -0.3492660945192821
1480000000.0 -0.06428976028290402 -0.3430374904134406
1500000000.0 0.10786667621425662 0.31189452249092814
1520000000.0 0.26539686114023464 -0.15332951137866585
1540000000.0 -0.2605409805322193 -0.0932761592801944
1560000000.0 0.2361862310115212 0.06619046176091954
1580000000.0 -0.20827570600382087 -0.037653567671440416
1600000000.0 -0.10957664061534454 -0.1465089280390386
1620000000.0 -0.02551096059433244 0.14660512354741534
1640000000.0 0.09624351169703325 0.07184672140474384
1660000000.0 -0.08721978617582993 0.06484313174431358
1680000000.0 0.07768904824046072 -0.05809131699532936
1700000000.0 0.02732589790078473 0.07678574348699278
1720000000.0 0.04998503209208274 -0.02039473441058244
1740000000.0 -0.01846427723640876 0.03429982250239196
1760000000.0 0.03893315924395939 -0.038986800197889006
1780000000.0 -0.07769937810505985 0.06186828890437621
1800000000.0 0.1203627279458766 -0.045828720729341944
1820000000.0 0.09146632846935313 0.12859086570751208
1840000000.0 0.06249369676999244 0.18024973035700828
1860000000.0 0.04071759378142688 0.21274742399260196
1880000000.0 0.18595360006863548 0.15473782807608286
1900000000.0 0.15439254460602012 -0.21775937503639775
1920000000.0 -0.2597962627373702 0.12218886487218397
1940000000.0 0.28280363872998543 -0.08685636144238348
1960000000.0 -0.24855936542349452 0.1786773406315793
1980000000.0 -0.20262273904228076 -0.23483532067183854
2000000000.0 0.29093792181009487 -0.11176312881811254
2020000000.0 0.29200766843962983 0.10980407450655422
2040000000.0 0.11499165607553398 0.29245974012410364
2060000000.0 -0.06589946062040529 0.30501539385461196
2080000000.0 -0.3129120102610027 -0.007569037799298088
2100000000.0 0.2952764293826208 0.10147605112675968
2120000000.0 -0.16291965977879927 0.2700434822250919
2140000000.0 -0.26983938252610434 -0.14876589589107955
2160000000.0 0.005624503154691533 0.29942336673405917
2180000000.0 0.28006760539617104 -0.0745075509990079
2200000000.0 0.22994055909405692 0.15243432941625956
2220000000.0 -0.114471957883112 0.24544311604294564
2240000000.0 -0.26463784490203973 -0.0656621018074334
2260000000.0 -0.24133318305256893 -0.10029057447928938
2280000000.0 0.2191400931312855 -0.12594593362700574
2300000000.0 0.16769058869900713 0.17907803936941097
2320000000.0 -0.2157281472904604 -0.08431011850939367
2340000000.0 0.1811250554789773 0.1381639090144365
2360000000.0 -0.22688134889960512 -0.005073743342511267
2380000000.0 0.19236435817787054 0.1246843664940092
2400000000.0 -0.2350506664343767 0.07638114754057307
2420000000.0 -0.20706027213029057 0.18324492442233317
2440000000.0 0.2760416993434349 -0.12511802015749077
2460000000.0 -0.22056123012761283 0.2511838744175585
2480000000.0 0.3644384752229601 -0.02393379011216362
2500000000.0 -0.3411559297861259 0.20456968794307834
2520000000.0 0.09142805817154337 -0.426595933989517
2540000000.0 0.2902752681552259 0.37662846780620557
2560000000.0 -0.512457347785791 0.04036968534066982
2580000000.0 0.21204168867336864 -0.5040939302435988
2600000000.0 0.16041412167416 0.553202309002594
2620000000.0 -0.45597013238903494 -0.38900504374283634
2640000000.0 0.6123762371541169 0.07850955051053245
2660000000.0 -0.4758625146298935 0.41976769529535785
2680000000.0 -0.2374005804468427 -0.6020156652720142
2700000000.0 0.47876893736382675 -0.4508817920351948
2720000000.0 0.6648459364254393 -0.018863160028840528
2740000000.0 0.6371797804821591 0.20910485606548646
2760000000.0 0.6505630863267277 0.172480775319303
2780000000.0 -0.33836510361099126 0.5781637125308359
2800000000.0 -0.44836440622003015 0.4870966983135285
2820000000.0 -0.6434192481969104 0.1098916582132273
2840000000.0 -0.20891403172368683 -0.6064236567097038
2860000000.0 0.5918630498222223 0.20943936874641178
2880000000.0 -0.6032310264432679 -0.10834621073799752
2900000000.0 0.3355383215634174 0.4937860579120077
2920000000.0 0.3063289639204748 -0.48768452915211186
2940000000.0 -0.4176977740272659 -0.3658424515806169
2960000000.0 -0.44714790689329886 0.28880826405316395
2980000000.0 0.04601145664110331 0.5049094949864192
3000000000.0 0.48360296382615336 -0.044789343185713336
3020000000.0 -0.3767429470343424 -0.2667740545499868
3040000000.0 0.0996752210293685 0.4205167919112625
3060000000.0 0.1704006300328306 -0.36629906765656434
3080000000.0 -0.3026729151437945 0.22987824598508913
3100000000.0 0.29831591575909683 -0.20074833211767856
3120000000.0 -0.07822978466746264 -0.33827685344277103
3140000000.0 -0.02426307748947906 0.3407361609754849
3160000000.0 0.028377928835223283 -0.33604966560680777
3180000000.0 -0.1396636486504563 0.30270582339936714
3200000000.0 0.19328906854319347 -0.2663747073037641
3220000000.0 -0.3191976971450535 -0.01283145655843865
3240000000.0 -0.13375218603280759 0.2718985864465639
3260000000.0 -0.2684124685772925 0.09551411601298095
3280000000.0 -0.029509370095220807 -0.26843422400142075
3300000000.0 0.25142189316310454 0.025225575956708653
3320000000.0 -0.2291228982171868 0.048883664982940486
3340000000.0 -0.06726810685612801 -0.20577435500835098
3360000000.0 0.1862134551877226 -0.03819112452067141
3380000000.0 -0.15105450542133397 0.04586332151429386
3400000000.0 -0.13464005585720332 0.019785591448136776
3420000000.0 -0.1117822814533479 0.04805442720850419
3440000000.0 0.07411253594179454 0.09247078317115034
3460000000.0 0.10891625925600233 -0.005144786550820032
3480000000.0 -0.09425644609304885 -0.023271736075969832
3500000000.0 0.08057590941836903 -0.03723439359986894
3520000000.0 0.07886918371628597 -0.010752508382666195
3540000000.0 -0.057627166918545074 0.04678502537587405
3560000000.0 0.06896251124827069 0.02675498474395329
3580000000.0 0.07725503603791066 -0.025103076943517367
3600000000.0 -0.06521777097608722 -0.06639698436618303
3620000000.0 -0.005714400526606648 -0.1023094031163035
3640000000.0 -0.05362462659548024 -0.09890641763038868
3660000000.0 -0.03118317019657424 -0.11495393462764661
3680000000.0 -0.09839529506289049 0.057879224077056673
3700000000.0 0.0706391134626437 -0.07537260916585956
3720000000.0 -0.01374784810661205 0.09390026848365624
3740000000.0 -0.06988708684203057 -0.039607594508908814
3760000000.0 0.04143661565080605 -0.0635652505649897
3780000000.0 -0.04211517264679589 -0.053108475274502756
3800000000.0 0.01037143330983537 0.04759439862625566
3820000000.0 0.007348788077814307 0.03595462356956641
3840000000.0 -0.037781018722910474 -0.028822830558099474
3860000000.0 -0.0615521108959217 -0.041328397289949116
3880000000.0 0.08652785649578011 -0.03582984471034152
3900000000.0 -0.004104626402489334 -0.10507753490565544
3920000000.0 0.06273082998530725 0.08542436315437492
3940000000.0 0.10350215643739667 -0.007279384274965511
3960000000.0 -0.01665302575384 -0.1003486306019984
3980000000.0 0.06871630268283903 0.06634993976253291
4000000000.0 0.08051523357890453 -0.015371046835295046
