!Created with skrf (http://scikit-rf.org).
# Hz S RI R 50.0 
!freq ReS11 ImS11
400000000.0 -0.8155345518780543 -0.13249827846975365
420000000.0 -0.5682331499326974 0.5103468064661528
440000000.0 0.2670457068832611 -0.6996643250837787
460000000.0 0.5423449210391245 -0.4895536181445257
480000000.0 0.44669166649411435 0.4659526410314761
500000000.0 -0.41798009127605473 -0.2606726580754918
520000000.0 0.11442144650017945 -0.37198416240113386
540000000.0 0.37475977770987473 0.32223514333093817
560000000.0 0.48093619977717816 -0.11192704838346347
580000000.0 -0.25623666722664873 0.3395059961506606
600000000.0 -0.41775261210894976 -0.11257881437402967
620000000.0 -0.18977219748652766 0.3338709835480558
640000000.0 -0.2499968236700963 -0.2502686554970022
660000000.0 -0.2924550838479266 0.25174311719351444
680000000.0 -0.1301526912741047 -0.3559219073625326
700000000.0 -0.010610854078933444 0.3632507024464783
720000000.0 -0.16887407004465693 0.3010009046069881
740000000.0 -0.052518644526890035 0.3193685681286502
760000000.0 0.019428826308936557 0.2960737010251498
780000000.0 0.2247543848185561 0.1608888714396149
800000000.0 0.08362221528417738 -0.2212947633020644
820000000.0 0.09916484175715776 0.18962478101092767
840000000.0 -0.040748768465770996 0.18523168095812614
860000000.0 0.1862449346261806 -0.010674520859692423
880000000.0 -0.161583006038523 -0.0637753514671732
900000000.0 -0.15024965226754305 -0.004526014789987146
920000000.0 0.03764276889916676 0.15074011672174079
940000000.0 0.1132715834199689 0.0818360503780246
960000000.0 -0.07266393958296626 0.06405796381798484
980000000.0 -0.03666823813909671 -0.04678981205298559
1000000000.0 0.03965293019427478 -0.02173292097076375
1020000000.0 0.029954436455519304 0.03849887895145146
1040000000.0 0.06525996907899748 -0.01070451546767164
1060000000.0 0.05136038414787201 0.07550600414029045
1080000000.0 0.12131787689723719 0.08562992409095788
1100000000.0 -0.051069209805721064 -0.18267556660623477
1120000000.0 0.2188429129302201 0.07352674591732947
1140000000.0 0.2556252514483267 -0.08333946800060492
1160000000.0 -0.1069129318107573 -0.27339563922547344
1180000000.0 0.10515868272447872 0.29537177146123234
1200000000.0 0.3139351955662723 0.09181398087592889
1220000000.0 -0.037065365383568465 0.32740654994446833
1240000000.0 -0.013601671759559548 0.3334015490918767
1260000000.0 -0.3280008360811375 0.020071940097011243
1280000000.0 0.3007730678071741 -0.15523901925109337
1300000000.0 0.287290271938619 0.20856289807038572
1320000000.0 0.27467449987808795 -0.25364145391226706
1340000000.0 -0.2385760898235499 0.2875388603225192
1360000000.0 -0.1663858976180066 -0.33464589390991456
1380000000.0 0.339999409679024 0.1660904360233133
1400000000.0 -0.11776036998625918 -0.3587849567773372
1420000000.0 -0.302225932693727 0.2274215805570791
1440000000.0 0.29716463304424723 0.21965730229352656
1460000000.0 0.033674006779305266 -0.3597168721188744
1480000000.0 -0.202609557171178 -0.2829769028499842
1500000000.0 -0.21223126487731847 0.2494031644005424
1520000000.0 0.31414166924222986 -0.019428802149522948
1540000000.0 -0.006508340455135482 0.28369137066103856
1560000000.0 -0.19578151321288287 -0.1430456088611672
1580000000.0 -0.14409290532715896 0.13041816812351545
1600000000.0 -0.02492132417663784 0.17321752883808827
1620000000.0 0.11830405849712833 -0.10122100997255659
1640000000.0 0.022899177070396192 0.12952012748694203
1660000000.0 0.08499945152734546 -0.07388086955103534
1680000000.0 0.0017826168545954353 0.09480497136618413
1700000000.0 -0.04204029082243421 -0.06400447276059347
1720000000.0 0.0566500631737721 -0.013710908425141761
1740000000.0 0.03529220366272178 0.007021454847718352
1760000000.0 -0.03952952102545906 0.04199751156259501
1780000000.0 0.030720467597222346 0.09566617418209862
1800000000.0 0.07238516063689983 -0.11166272880779841
1820000000.0 0.1195161305572569 0.0936952821520318
1840000000.0 0.01832650223800966 0.18725772097927595
1860000000.0 -0.21136116575003122 -0.051785339062713556
1880000000.0 0.04195049479619591 0.2396410737195093
1900000000.0 0.27034602335226404 0.007000260931101932
1920000000.0 -0.26210585421606003 0.1291806912626021
1940000000.0 0.1392474518415157 -0.26612354646273745
1960000000.0 0.14199711107176696 0.26891807831202524
1980000000.0 -0.3007391026746666 0.03147566435532812
2000000000.0 0.29685547074492524 -0.04454851170252947
2020000000.0 -0.24146616891540218 0.18920382352272755
2040000000.0 -0.31803883157090246 0.007834578803396608
2060000000.0 -0.2576462126647783 0.1965680323402509
2080000000.0 -0.26195979619126203 0.1906853405470348
2100000000.0 0.048057069877282046 -0.3157197306694446
2120000000.0 0.20434315402282444 0.23532054635515043
2140000000.0 -0.29522237302110105 0.056515925492665334
2160000000.0 -0.15579545920950488 0.24574901433638383
2180000000.0 -0.08701529111471101 0.27319220207905326
2200000000.0 0.010819511232351114 0.28091509414601296
2220000000.0 -0.05405509115226483 0.26932161455336395
2240000000.0 -0.26939305451757967 0.018353877265290853
2260000000.0 -0.2531294405776206 -0.07426561536986044
2280000000.0 0.21375300114628468 -0.1381826206290954
2300000000.0 0.18808514693018508 0.15329298190044285
2320000000.0 -0.16525948003777807 -0.1645346931712079
2340000000.0 0.21558146043848614 -0.07596917942597807
2360000000.0 -0.15381972212292064 -0.1610576792731728
2380000000.0 0.1282292803520778 0.1942665324527539
2400000000.0 -0.12847242046285623 0.21352485374962044
2420000000.0 -0.06447733219054595 0.2661179474412731
2440000000.0 0.30251828903978834 0.018381925582081467
2460000000.0 -0.19412465084225228 0.2738940719929829
2480000000.0 0.32480150721193424 0.16917600089806506
2500000000.0 -0.32728307995327793 0.22989141708403138
2520000000.0 0.0872152932520638 -0.42970624513003536
2540000000.0 0.351119281617168 0.32238026798577063
2560000000.0 -0.49148048719985504 0.15319554331142837
2580000000.0 0.1632180665386183 -0.5213204699947852
2600000000.0 0.1422153771159599 0.5571371268751003
2620000000.0 -0.4377631664492166 -0.4086448655724188
2640000000.0 0.6082010838237963 0.10766490024653966
2660000000.0 -0.4696216818905727 0.427137248839785
2680000000.0 -0.30885788645529394 -0.5687572888817989
2700000000.0 0.4436236419065158 -0.48704783495306225
2720000000.0 0.6524851918093936 -0.1275480319097481
2740000000.0 0.6654946980776473 0.08043222904686996
2760000000.0 0.6711409078078926 0.056670584698635014
2780000000.0 -0.23807834740055384 0.6260045613451991
2800000000.0 -0.44358372835851007 0.4910424557983416
2820000000.0 -0.6380017772010942 0.1351974419553352
2840000000.0 -0.27422663746351195 -0.578373228905555
2860000000.0 0.5960736769534937 0.1944498403052394
2880000000.0 -0.5902566069771655 -0.16352352553399482
2900000000.0 0.34059983362033097 0.4902162867120953
2920000000.0 0.3070712642427872 -0.4890620616297119
2940000000.0 -0.46201641067375737 -0.30570280836503305
2960000000.0 -0.4461087917777152 0.28625879131325377
2980000000.0 0.01857390767700981 0.5067074755741277
3000000000.0 0.4742652975907178 -0.105308652710314
3020000000.0 -0.3097364539165889 -0.3393329388932489
3040000000.0 -0.07341555842098046 0.42717639635173477
3060000000.0 0.12934737729061746 -0.383427059693823
3080000000.0 -0.3512134231235692 0.14353192537156506
3100000000.0 0.3555105453803897 -0.06529538921469369
3120000000.0 -0.13952611235729137 -0.3197963819159826
3140000000.0 0.03137800612466088 0.33850921425473074
3160000000.0 0.007467017238468151 -0.33529935088219637
3180000000.0 -0.11517344596661545 0.31134424990837056
3200000000.0 0.2596095378074457 -0.20221027802732072
3220000000.0 -0.24950736224888634 -0.19976247413918233
3240000000.0 -0.15307781022705266 0.2645286379600968
3260000000.0 -0.1751398071738857 0.2264183464558412
3280000000.0 -0.11333357825571358 -0.2434611764916524
3300000000.0 0.20232114842233298 -0.1467176712853856
3320000000.0 -0.15384804861428278 0.17449694779853359
3340000000.0 -0.09286481693417864 -0.19270802017613736
3360000000.0 0.1359555506374713 0.1275100861042134
3380000000.0 -0.024427952774676884 -0.16192500420375053
3400000000.0 -0.14169029533231764 0.011383103000827809
3420000000.0 0.10956599679264481 0.06319854493865446
3440000000.0 0.1187172309768825 -0.00458983436416779
3460000000.0 0.10254332933727386 0.019671848687842768
3480000000.0 -0.08270032889213084 0.04290821657288924
3500000000.0 -0.015524236887990499 0.08331983041728397
3520000000.0 -0.05286640828753271 -0.05256335628330354
3540000000.0 0.05713500337991487 -0.048105759860171085
3560000000.0 -0.017702082514887297 0.07766156945930032
3580000000.0 -0.024588063309067806 -0.08276058196494795
3600000000.0 0.013802199713752527 0.092916061793354
3620000000.0 0.04681817788464395 0.08996125465485048
3640000000.0 -0.04733525064168562 -0.1005910621955309
3660000000.0 0.050799182148861435 -0.10845174409026462
3680000000.0 -0.1164978763314228 -0.004007857096349503
3700000000.0 0.0016638490096180592 -0.10090725947823606
3720000000.0 -0.038161024573474374 0.08826769690997674
3740000000.0 -0.07087130261295727 -0.044514499604209244
3760000000.0 0.06844721410282532 -0.033869981738317435
3780000000.0 -0.06345339396358532 -0.027620499807083004
3800000000.0 -0.04646117038819002 -0.017514478088897414
3820000000.0 -0.035342043736525226 0.014782200887496938
3840000000.0 -0.04436756734873021 0.019016138145660406
3860000000.0 0.07011086888296704 0.01746905692120878
3880000000.0 0.09304725425883074 -0.02318070327757942
3900000000.0 0.09098502428866827 -0.05520376395992105
3920000000.0 0.07976711395338866 -0.07432920865650441
3940000000.0 -0.01257562529099786 -0.10382115249229015
3960000000.0 -0.018289852750358097 -0.09959264865899203
3980000000.0 0.003815400899186266 0.09594303193513284
4000000000.0 0.06279026946260403 -0.057059256875781963
