!Created with skrf (http://scikit-rf.org).
# Hz S RI R 50.0 
!freq ReS11 ImS11
400000000.0 -0.8213822963626587 -0.09360263714956482
420000000.0 -0.6147709453096738 0.4544079018541492
440000000.0 -0.13322433787222843 -0.7380889075824176
460000000.0 0.6659090829670772 -0.30442408078025296
480000000.0 0.2996946785329517 0.5726939127303784
500000000.0 -0.24979365019953045 -0.42868237860382946
520000000.0 -0.18875751429322285 -0.3437835474415512
540000000.0 0.06420155266187867 0.49265539334849745
560000000.0 0.35664845697609493 -0.3391109845765198
580000000.0 -0.18785584648733136 0.37863472860255676
600000000.0 -0.4312723645217262 0.0071675534523096595
620000000.0 -0.39005566936957903 0.018860245852380796
640000000.0 -0.3187817482998884 -0.156677737347946
660000000.0 -0.1615402120109326 0.35168546647553
680000000.0 -0.20150860989028158 -0.30851472732071783
700000000.0 -0.16649285996795113 0.31947227984740445
720000000.0 -0.3162772991958856 -0.14547685686347306
740000000.0 -0.27303770436436003 0.19308048486666915
760000000.0 0.18065048765734187 -0.24383744145316305
780000000.0 0.12093769674743608 -0.2506646630187995
800000000.0 -0.22015248804068346 0.0629360493780952
820000000.0 -0.16738611255280955 0.10919595090753367
840000000.0 0.17215811733128408 -0.09363380942496588
860000000.0 0.1709724281455639 0.10216554824427924
880000000.0 -0.03081280731122409 0.17313593260869156
900000000.0 0.12739396475804804 0.08988950718378959
920000000.0 -0.08909564577153364 -0.11851877917533316
940000000.0 -0.029090830180032105 0.12134952416629344
960000000.0 -0.014341107266452276 0.09903926210956297
980000000.0 -0.022314170886114672 0.05323311261288092
1000000000.0 -0.03330473130772163 0.024666931161795937
1020000000.0 0.04741752762976408 -0.0004226810887923565
1040000000.0 -0.03605972067747187 -0.059922536585589575
1060000000.0 0.013785064907585324 0.0952005107415505
1080000000.0 -0.11103480785099666 -0.10163648453429973
1100000000.0 -0.16662258019273748 -0.07954871600013089
1120000000.0 0.22499871040633077 0.008783537129336114
1140000000.0 0.18908164664782207 0.19140146606837877
1160000000.0 -0.0846715542998045 -0.2847352893459036
1180000000.0 0.29420916412770015 0.1196298018275967
1200000000.0 0.2539701577956043 -0.1985666664975123
1220000000.0 -0.21681741312463443 0.24074930894239133
1240000000.0 -0.33510744854895474 0.02233382540007564
1260000000.0 -0.3210566500486565 -0.09312377827064316
1280000000.0 -0.015151270872455543 -0.33866854577678474
1300000000.0 0.3457633409045266 0.06713237807148596
1320000000.0 0.30846012996534633 -0.19862986964263052
1340000000.0 -0.3497989013805675 0.13174512935823562
1360000000.0 -0.2725765983469332 -0.2572286052157665
1380000000.0 0.160438687933319 0.3440346337006332
1400000000.0 -0.2417759088339408 -0.2958623528880271
1420000000.0 0.07775429431937786 0.3687487362983018
1440000000.0 0.29398708869364476 0.21271728826144612
1460000000.0 0.2835170876907868 -0.22491726614192042
1480000000.0 -0.08739580762058527 -0.34196733003801394
1500000000.0 -0.11875546382836423 0.3112925699722177
1520000000.0 0.11178338561843333 -0.29458866653434573
1540000000.0 0.008994308662608547 0.2770729529094716
1560000000.0 0.12766435069305648 -0.2012523512610505
1580000000.0 -0.19758206150050645 0.04848629670468088
1600000000.0 0.17711190185396775 -0.004764771290355076
1620000000.0 0.055457796663232375 -0.13830702366397638
1640000000.0 -0.11283520896939836 0.061686511755924815
1660000000.0 0.053012827531066044 0.10229863017763392
1680000000.0 0.05974279109855101 0.0818813049935475
1700000000.0 0.045423793976525004 0.059119325405990936
1720000000.0 -0.026886597760989565 0.046106480968076624
1740000000.0 0.03881933103117604 -0.010214091238999658
1760000000.0 -0.03047459769646907 -0.050029550108140475
1780000000.0 0.0008587334351343302 -0.09579216897962335
1800000000.0 0.05778060845283905 0.11199537538317769
1820000000.0 -0.12094359147141526 0.10565157130426815
1840000000.0 0.13495605519610743 0.13463432761810468
1860000000.0 -0.08797558530757882 0.19734590859216272
1880000000.0 0.174476349277213 0.16279947768761083
1900000000.0 0.13084943701198432 0.2335314714603645
1920000000.0 -0.29216762709548016 -0.04981598135906458
1940000000.0 -0.10541949256414118 -0.2855174981815996
1960000000.0 0.24159124173487898 0.18114586605256192
1980000000.0 -0.29990540378603436 -0.028983586217380727
2000000000.0 0.2985344195335586 -0.0400199524407026
2020000000.0 -0.23628250917384327 0.19405255082240402
2040000000.0 -0.3063178578884472 -0.08464853024023998
2060000000.0 -0.2500031204501331 0.2046955100560808
2080000000.0 -0.29024341849113916 0.14302325876722344
2100000000.0 -0.010823092006681618 -0.3191048997501963
2120000000.0 0.2887495907041931 0.11637568076134029
2140000000.0 -0.28336008026767 0.09760142939924617
2160000000.0 -0.24318686695841582 0.16393388172171983
2180000000.0 -0.06380203857789772 0.28212171478378034
2200000000.0 0.14378204570791084 0.24350488478001944
2220000000.0 0.06524090640506088 0.26579018453291486
2240000000.0 -0.265149455465509 -0.03354003906307364
2260000000.0 -0.1258104394986985 -0.2309388879584326
2280000000.0 0.2564114340391212 0.00015105180836470517
2300000000.0 0.24187298426674067 0.0558939470003017
2320000000.0 -0.1982187165375428 0.11756250066699063
2340000000.0 0.21866418468242216 -0.0456711053864737
2360000000.0 0.0783907234128417 -0.20762488277189498
2380000000.0 0.06615012457028588 0.22611758768931728
2400000000.0 -0.09867422325691966 0.2296251348294828
2420000000.0 0.03305259535054416 0.2710055792579896
2440000000.0 0.2809761241003769 -0.10576049146988259
2460000000.0 -0.26606316533387875 0.19949565864890983
2480000000.0 0.3208783385661556 0.17537941103555965
2500000000.0 -0.3794004388987867 0.12739037832600736
2520000000.0 0.015316764974090001 -0.440055535483489
2540000000.0 0.3983460010333456 0.2627031151473681
2560000000.0 -0.4689587006617029 0.20833120584331072
2580000000.0 0.23421074286961177 -0.49185250433128186
2600000000.0 0.07367054534001709 0.5703828449541661
2620000000.0 -0.44817519733717665 -0.39771106237167864
2640000000.0 0.607101043184496 0.11463642951813235
2660000000.0 -0.4740856272690112 0.42272502694673875
2680000000.0 -0.2641615940500272 -0.5909122582706666
2700000000.0 0.4738783253723523 -0.45703440254253885
2720000000.0 0.6613115767884316 -0.06872745770842809
2740000000.0 0.6532391305373267 0.14824858229105278
2760000000.0 0.6606193921537773 0.1286400414953286
2780000000.0 -0.2588334029187994 0.6181405111815407
2800000000.0 -0.3943942970360169 0.5319019679468333
2820000000.0 -0.6356048962978269 0.14699853460221052
2840000000.0 -0.21019376504050466 -0.6054455566292588
2860000000.0 0.5825876150847016 0.23434556380291516
2880000000.0 -0.5941853771019554 -0.15421615992911653
2900000000.0 0.3916938000217352 0.45078349547285634
2920000000.0 0.30709388783050673 -0.4876542540495031
2940000000.0 -0.41597179249587235 -0.36666161561212335
2960000000.0 -0.46996441401088507 0.24720035375514135
2980000000.0 0.052738032822833694 0.5055500955422744
3000000000.0 0.4735530708866674 -0.1093778992415108
3020000000.0 -0.36180087579136055 -0.28262658716635347
3040000000.0 0.061481433601529335 0.42673780386238197
3060000000.0 0.27278139247081545 -0.2969554898888419
3080000000.0 -0.3689215448550521 0.0982493811064843
3100000000.0 0.27034735293448003 -0.2419532967349367
3120000000.0 -0.07689442027105078 -0.33923264087185034
3140000000.0 -0.07830179739229808 0.3302376212677225
3160000000.0 0.1258188097734898 -0.3119613834725197
3180000000.0 -0.14419356937828529 0.30106966525758405
3200000000.0 0.15500571123550225 -0.29056970085652545
3220000000.0 -0.27345198866095305 -0.16487661580290613
3240000000.0 -0.20334787371167248 0.22671633176975436
3260000000.0 -0.21401236539330476 0.1920267453407363
3280000000.0 -0.1914676835817618 -0.18981349160503236
3300000000.0 0.2405789886896112 -0.0678733830299127
3320000000.0 -0.1326191466341941 0.19219635327869997
3340000000.0 -0.13714487112324358 -0.16141349899988913
3360000000.0 0.08277526769896926 0.16753094662687668
3380000000.0 0.08020673490642992 -0.141047258627886
3400000000.0 -0.14298420734020215 -0.014285733658363704
3420000000.0 0.12053817238436434 0.04145229230926197
3440000000.0 -0.006576995752904704 -0.11630926737007746
3460000000.0 0.09755930064547262 -0.030314311886131876
3480000000.0 0.05549913036997372 -0.07282608216895817
3500000000.0 -0.07678371333308555 0.043974444571069755
3520000000.0 0.00798558380934896 0.07647900606117504
3540000000.0 -0.04063841752180966 -0.06062324569301078
3560000000.0 0.028016291566319698 0.07180442615573068
3580000000.0 0.08307816192164892 -0.01205694526962904
3600000000.0 -0.09201574118466777 -0.02450824264579704
3620000000.0 -0.010526759110145967 0.10297619617111256
3640000000.0 -0.10675714425972133 -0.02362452248358801
3660000000.0 0.04031843851138508 -0.11022901808689602
3680000000.0 -0.09289575608211201 -0.06716135875232775
3700000000.0 0.100347405585437 -0.022628118430608406
3720000000.0 0.0785643256201796 0.056272656634989315
3740000000.0 -0.05914705415969354 -0.055064133249598225
3760000000.0 -0.0033232482418224605 0.07512782376280357
3780000000.0 -0.00907159125549932 -0.06876886676191739
3800000000.0 -0.005010965494694567 0.049736525048558355
3820000000.0 -0.013753139511436065 -0.03273737868683551
3840000000.0 0.04805361691303355 0.0057087012979238376
3860000000.0 0.058015412292079856 -0.04868130619904668
3880000000.0 0.018743503166444388 -0.09197711111141905
3900000000.0 0.10187959744191563 -0.012734607856425877
3920000000.0 0.09806305366927674 0.04316345795133079
3940000000.0 0.034467490596588934 -0.0963917026212699
3960000000.0 -0.005041806518549884 -0.10207480668338498
3980000000.0 0.0757269290959371 0.06060164605837446
4000000000.0 0.08015840318366867 -0.01754383049945831
