!Created with skrf (http://scikit-rf.org).
# Hz S RI R 50.0 
!freq ReS11 ImS11
400000000.0 -0.7857237286677792 -0.26032647762987265
420000000.0 -0.6240389837801942 0.44870882852253896
440000000.0 -0.11003431391091234 -0.7478766467035631
460000000.0 0.32455916307734267 -0.653959386633191
480000000.0 0.4272800758480791 0.4890974967929041
500000000.0 -0.1172795287046802 -0.49252789598624147
520000000.0 -0.21935225037725709 0.33908597078396135
540000000.0 -0.24824211647359024 0.4237051184559608
560000000.0 0.2676098382625231 -0.4140811523477552
580000000.0 0.2612684446461403 0.3444866751018916
600000000.0 0.151813552194685 0.39623396924860554
620000000.0 0.1869476174347079 0.3557674116086432
640000000.0 -0.28991177566017884 0.1886829217189304
660000000.0 0.20460253091174874 0.29360635422077297
680000000.0 0.1412984430700547 -0.29883873530669375
700000000.0 0.26758945573951276 0.22425734438582826
720000000.0 0.31792827276478863 -0.10013580491999445
740000000.0 -0.0958863093510305 -0.31682969083838675
760000000.0 0.036213205227750594 -0.3316904808080315
780000000.0 0.10877883145153136 0.301531328047664
800000000.0 -0.2514780216509999 0.07833945230854486
820000000.0 -0.1251793326132244 0.16093808153371653
840000000.0 -0.10502054607799617 0.1606829349184816
860000000.0 -0.15622185495140176 0.04512157078242632
880000000.0 -0.025148722935546708 0.16487233283576175
900000000.0 -0.0668433353944025 0.13289033947228915
920000000.0 -0.08644049700581914 0.11659612547413725
940000000.0 0.12058152271343543 -0.0167299144901473
960000000.0 -0.006640029382251468 0.08142349127065206
980000000.0 0.013235068513500118 0.06866594156244589
1000000000.0 0.04632251821162199 0.0020725079956498186
1020000000.0 -0.0385812533875862 -0.02745832912629788
1040000000.0 -0.06206439832169211 -0.03669393809747333
1060000000.0 -0.10494860202037039 0.030280353290315816
1080000000.0 -0.1406638328366663 -0.08170111644705975
1100000000.0 -0.1934644580245361 -0.014305670457306834
1120000000.0 0.07929638470768642 0.2208595965786572
1140000000.0 -0.23341429748183937 0.0941846180128824
1160000000.0 -0.06817280486791388 -0.26809243568074503
1180000000.0 -0.2760387554148023 -0.10885911060897081
1200000000.0 -0.304417272016625 0.10323296704364168
1220000000.0 0.262359175971666 -0.20230290060586031
1240000000.0 -0.07543060258386881 -0.34922778555353867
1260000000.0 -0.3497140450722516 0.0602925998009011
1280000000.0 -0.3321899354248801 0.12079660030924014
1300000000.0 -0.2718193380350096 -0.226099717657154
1320000000.0 -0.26886440575160203 -0.2406615398742392
1340000000.0 -0.2844988946452507 0.23052894450936665
1360000000.0 -0.3654936604459151 0.042393002146256784
1380000000.0 0.21889722688332197 0.2941874876153989
1400000000.0 -0.021444398818542307 -0.37098120811656565
1420000000.0 -0.3512122820898074 -0.11783080884764012
1440000000.0 -0.3566053783479136 0.08890802632703293
1460000000.0 0.312649845569746 0.20325106077980287
1480000000.0 -0.09851985398914763 -0.35167373223576615
1500000000.0 0.3284625865377929 0.1022994623464635
1520000000.0 -0.312485609420924 0.01800682221113248
1540000000.0 0.24661979544519408 0.1279586130536197
1560000000.0 -0.06062269025352623 -0.2267917593731643
1580000000.0 -0.1539013973237477 -0.12311538006437343
1600000000.0 0.14268335793445558 0.10053285703998797
1620000000.0 -0.03041966751294397 -0.14180143042975257
1640000000.0 -0.03910439379299147 -0.11613922320515088
1660000000.0 -0.002769855355497323 -0.11016597810517575
1680000000.0 -0.08785238130485201 -0.05513814411795478
1700000000.0 -0.005943079041480384 -0.0783837755613337
1720000000.0 -0.04945078577501968 -0.024649480994577155
1740000000.0 -0.04106205719679868 -0.023548295515436052
1760000000.0 0.04286474802579956 -0.03907399256909125
1780000000.0 -0.02942915858197436 -0.0762307462194823
1800000000.0 0.04998413792540452 -0.1067079661843611
1820000000.0 0.14874305283148054 0.06023503424710173
1840000000.0 -0.11136188961452664 0.1683949657205455
1860000000.0 0.06797819850572481 0.21448927263935158
1880000000.0 0.21595325874659008 -0.11975865893492507
1900000000.0 -0.04838119813289438 -0.258430521170088
1920000000.0 -0.19799361160085002 0.20461740005720566
1940000000.0 0.19931339698154968 -0.2121496379758977
1960000000.0 -0.28038640675178716 -0.10670606801120075
1980000000.0 0.25076532858077727 -0.1866885174094268
2000000000.0 0.2827834953804781 -0.14211156061481123
2020000000.0 0.30295203150935057 0.0851991919254765
2040000000.0 0.2860216005856619 0.13722430926346518
2060000000.0 0.07696559676797514 0.3031706978077575
2080000000.0 -0.303688399919961 0.07415386407075711
2100000000.0 0.3069604747578818 -0.06167686018682499
2120000000.0 -0.07774820266947498 0.3023214518392013
2140000000.0 -0.11953948631595333 -0.2831840010588498
2160000000.0 -0.12050109582669513 0.2757543878950281
2180000000.0 0.2733669743076564 0.09938801234514646
2200000000.0 0.13396096969680726 0.2444620617024951
2220000000.0 0.0452810262045668 0.2717641735098904
2240000000.0 -0.23589324533506045 0.12494811745182209
2260000000.0 -0.2366077329415068 -0.10668813513267698
2280000000.0 0.23830058763191833 -0.0736243872772565
2300000000.0 -0.09734253681243277 0.2210243945212721
2320000000.0 0.14753526624708527 -0.18303225638878784
2340000000.0 0.18595643821778987 0.1445306005285771
2360000000.0 -0.22411143995771426 0.06593267365673425
2380000000.0 0.027211845645815896 -0.23420701911892872
2400000000.0 0.24583906745317277 0.01901536528883129
2420000000.0 0.03004280948615574 0.26231097515933327
2440000000.0 0.2954351838198277 0.02010861057628636
2460000000.0 -0.30655245767646716 -0.12574652244644985
2480000000.0 0.12503476346655792 0.34647443684169865
2500000000.0 -0.35679442398373523 0.1914394489367348
2520000000.0 -0.0679828102863191 -0.4381004923131192
2540000000.0 0.4736125017470514 0.0600288575864321
2560000000.0 -0.4866474832372372 0.16157241065814418
2580000000.0 0.23192395880757244 -0.492975033773981
2600000000.0 0.13120843308822536 0.5608350602788704
2620000000.0 -0.4835666272491221 -0.3556541035950301
2640000000.0 0.6173959023775769 0.043599465703252134
2660000000.0 -0.4522769045860139 0.44663320414676877
2680000000.0 -0.3372878773461611 -0.5528668152992782
2700000000.0 0.40567134477779204 -0.5192627323007762
2720000000.0 0.6467815083939653 -0.15774577200982262
2740000000.0 0.6687870851094485 -0.052086211047937724
2760000000.0 0.6736722466185606 -0.008282808479603613
2780000000.0 -0.11877084674914762 0.6584762028283689
2800000000.0 -0.30343603575862993 0.5865844617737164
2820000000.0 -0.5727792939735734 0.3111342366525386
2840000000.0 -0.3222256102150867 -0.5515827012407545
2860000000.0 0.6186070617179892 0.09944281334334233
2880000000.0 -0.598322881228706 -0.1282069870191367
2900000000.0 0.3305294281577712 0.49352330918144444
2920000000.0 0.33980088581830964 -0.46225123206084867
2940000000.0 -0.34558506344422585 -0.43191455287856106
2960000000.0 -0.5189848961195686 0.11341414369854082
2980000000.0 -0.027713740961224368 0.5085991942571473
3000000000.0 0.4849159857211509 -0.05598451537176126
3020000000.0 -0.41196079953664116 -0.20628461459948003
3040000000.0 0.14168241156594297 0.40825600369043075
3060000000.0 0.04523911987719481 -0.4018661399816164
3080000000.0 -0.20978596860531964 0.31629787047135727
3100000000.0 0.23774004057689554 -0.2683399287177001
3120000000.0 -0.19355619801401425 -0.28612620748211515
3140000000.0 0.023804618389584562 0.33850960169118816
3160000000.0 0.014933073313504413 -0.3308385494766354
3180000000.0 -0.25469557651381225 0.20923216564659944
3200000000.0 0.2745394469030569 -0.177801549309221
3220000000.0 -0.048812559887664 -0.3137716267116352
3240000000.0 -0.30545822982846604 -0.029682085870430454
3260000000.0 -0.29137746119450386 0.009435396700993123
3280000000.0 -0.1088713944193257 -0.2514782430282947
3300000000.0 0.12747748434598274 -0.22164202793194213
3320000000.0 0.13815771575677882 0.186346836232791
3340000000.0 -0.1959156201394995 0.06757305573217995
3360000000.0 0.14961684618597718 0.10073034569791957
3380000000.0 0.11753262754527632 -0.10645556381824069
3400000000.0 -0.024332057639240498 -0.13740564498958596
3420000000.0 -0.10106481719477017 -0.07760799907702709
3440000000.0 0.07594034898576563 0.09663782096120684
3460000000.0 -0.03758394474705291 -0.10268038497590982
3480000000.0 0.012072908285888936 0.09484540561052224
3500000000.0 0.04139920108921213 -0.07741157981331376
3520000000.0 0.07437516161420088 0.007686003678831003
3540000000.0 -0.07096083865528363 0.0010075988455430602
3560000000.0 0.04766387560189501 0.059074446797350584
3580000000.0 0.06949783768291701 0.042827582553491415
3600000000.0 0.027046445258565765 -0.08804398740253738
3620000000.0 -0.04441927822003323 0.09507672762930461
3640000000.0 -0.09993822773144322 0.041638694500722204
3660000000.0 0.00942398775851336 -0.11477571338929196
3680000000.0 -0.0038120504748843926 -0.11505043089475668
3700000000.0 0.07406998811918998 -0.0744589870935104
3720000000.0 -0.050259634835970006 0.08313230710237177
3740000000.0 -0.08479596684755349 -0.01668645929430532
3760000000.0 -0.019859290380279414 -0.07386599654880573
3780000000.0 -0.06454902904563142 -0.010892372820554103
3800000000.0 0.009544814483306999 -0.046827997749020314
3820000000.0 0.006627900567595137 0.03641958920646667
3840000000.0 -0.009867654696449709 0.04743117631867654
3860000000.0 0.04056704461742374 -0.06945564062348904
3880000000.0 -0.08916892724848277 0.03739187746746819
3900000000.0 0.024040761310205643 -0.1009732388165886
3920000000.0 0.09761505519997261 0.03801005364627359
3940000000.0 0.09512234329094138 -0.042679949761114555
3960000000.0 -0.04952494565106978 -0.08835184478267386
3980000000.0 -0.06999504811314236 0.06138919969493911
4000000000.0 0.05949184707238866 0.062004031685465776
