!Created with skrf (http://scikit-rf.org).
# Hz S RI R 50.0 
!freq ReS11 ImS11
400000000.0 -0.8209808432726821 -0.09256351557569838
420000000.0 -0.5141167775248332 0.5636353881002744
440000000.0 0.2558629635373856 -0.7076188811610177
460000000.0 0.5806293316441962 -0.45185569883215837
480000000.0 0.5712420708209065 0.3043867736182104
500000000.0 -0.4814325706091787 0.05538346293165137
520000000.0 0.37477225144336157 -0.1430400114964953
540000000.0 0.3544623601300358 0.3472319890289999
560000000.0 0.3901497959315099 -0.29830489657416864
580000000.0 -0.1716786465660065 0.38519076677065023
600000000.0 -0.4018116840879095 -0.16541907806865339
620000000.0 -0.3855452244941845 -0.04277697590055234
640000000.0 -0.3384225695433839 0.10168388317512275
660000000.0 -0.09303501386361382 0.3725212045300215
680000000.0 0.16498921782004505 -0.33424151665011265
700000000.0 -0.0565440708101454 0.3631062591545586
720000000.0 0.22926943449169535 0.26196170922942397
740000000.0 -0.2568158944365272 0.201294733682842
760000000.0 0.2970427416793356 0.024490444708017815
780000000.0 0.2330148225667403 0.15204933119175976
800000000.0 0.07743111331642108 -0.22112012731209338
820000000.0 -0.03092908366689527 0.2084271845600461
840000000.0 0.05805698647018025 0.18995933689560232
860000000.0 0.09146473271444708 -0.1607128246421815
880000000.0 0.15552373963455646 -0.07856047614704717
900000000.0 0.1500376729086232 -0.035246994893883235
920000000.0 0.12391438039128942 -0.0797056505826613
940000000.0 -0.13117144359746974 -0.015702053839188792
960000000.0 0.07074195601010606 -0.0751757757223969
980000000.0 0.039626112870006724 -0.05041410665108835
1000000000.0 -0.006383487760708834 0.04471985155032237
1020000000.0 -0.02171372690658326 -0.04546911822674238
1040000000.0 -0.06019998322248516 0.03726546665672287
1060000000.0 -0.046724805272960156 -0.07857367992351319
1080000000.0 0.1246844643411559 -0.07025786082350392
1100000000.0 0.18186536701279876 -0.031558337491115244
1120000000.0 0.08183701887084761 0.22128786269322617
1140000000.0 0.1350989109558045 -0.23698004530787287
1160000000.0 -0.25466105195537925 -0.14194188657560833
1180000000.0 -0.05293594997615374 0.30418187490198495
1200000000.0 0.2865922992838172 0.1612029112169429
1220000000.0 -0.062126914420316315 0.32703655306341056
1240000000.0 0.16738977933501833 0.29161590981772123
1260000000.0 -0.297206057227615 0.13710259127580673
1280000000.0 0.30824038791532876 -0.1170593709921865
1300000000.0 -0.02071685726703747 0.35349448508890274
1320000000.0 0.3539306574276398 -0.13094819534798627
1340000000.0 -0.30660912142681906 0.21741139453087927
1360000000.0 -0.3632617397884853 -0.10642747147372349
1380000000.0 0.3654368982372508 -0.08368012450245861
1400000000.0 -0.17518884121687478 -0.3264424572593231
1420000000.0 -0.3669100536922349 -0.07709166276200312
1440000000.0 0.12045786684162005 0.3498478023105325
1460000000.0 -0.023324099035123776 -0.3665845197393828
1480000000.0 -0.23226803777360655 -0.26868069524748384
1500000000.0 0.23303146838618566 0.23175489694943874
1520000000.0 0.1867345975772348 -0.24394007940972365
1540000000.0 -0.23609400544590042 0.14277699690593326
1560000000.0 0.22368569639831595 -0.09863844616628598
1580000000.0 -0.16125259514757947 0.12514711418291805
1600000000.0 0.11797590651358743 -0.1328484576333367
1620000000.0 -0.012846205106212913 -0.1480925929839397
1640000000.0 -0.11539026187186417 -0.055874683986964296
1660000000.0 0.11699144966846804 -0.009507859698582444
1680000000.0 0.09604702648571956 0.009025742768238039
1700000000.0 -0.06654278955710687 0.02814060276168919
1720000000.0 0.020793113296424623 -0.05217085410675782
1740000000.0 0.040865194418312024 0.004335425048825541
1760000000.0 -0.028877775428732995 0.04574451730962776
1780000000.0 0.05757847794516772 0.07584808251834156
1800000000.0 0.08315807492430587 0.09944386080469783
1820000000.0 0.06269903198828344 0.1423887423814872
1840000000.0 0.004478167549181571 0.189671257913538
1860000000.0 -0.13411600412811503 0.17282217058240731
1880000000.0 0.21466283689022558 0.1133898359739857
1900000000.0 0.2635964335082334 -0.04700153313621556
1920000000.0 -0.27173530565496173 0.10483452978846446
1940000000.0 0.1740159808356046 -0.24417911109288343
1960000000.0 -0.010528339984557315 0.3048837013026939
1980000000.0 -0.3043461541741273 -0.023157432260538225
2000000000.0 0.2607836732850516 -0.15617790973195822
2020000000.0 -0.12332355729407457 0.2771258804524464
2040000000.0 -0.3124712581278105 -0.03395094278132619
2060000000.0 -0.3210442424135709 0.029237702121198375
2080000000.0 -0.26425987275763024 0.18855115197363356
2100000000.0 -0.035040719455787725 -0.31715003170503764
2120000000.0 0.3102680320471672 0.017318139278980807
2140000000.0 -0.2951262043023324 -0.04122790870721561
2160000000.0 -0.28396850441500193 0.08453812225108688
2180000000.0 0.19115488694973157 0.22085741862008165
2200000000.0 0.2686856756539197 0.0853359417771124
2220000000.0 0.065742297980723 0.26200988873586795
2240000000.0 -0.13676313670697546 -0.2273248655361515
2260000000.0 0.11076375845196476 -0.24124534783301596
2280000000.0 0.24704686011157231 -0.0865582749113152
2300000000.0 0.15602413365097806 -0.19205969896061423
2320000000.0 -0.17079655543512767 0.15047282800739276
2340000000.0 0.17564549987017683 0.13421500278485937
2360000000.0 0.1373470767412407 -0.1768192508874894
2380000000.0 0.14871885730452694 0.18378630745483351
2400000000.0 -0.13007016205638924 0.21451693864742916
2420000000.0 0.009775931464336305 0.2722216749873978
2440000000.0 0.2682818350804003 -0.1362960462066173
2460000000.0 -0.2564150689955742 0.21226684379041094
2480000000.0 0.32200985371011864 0.16968451537013904
2500000000.0 -0.39424944780826227 0.0717036425648829
2520000000.0 0.04722644879282177 -0.4372000632726572
2540000000.0 0.35350616257658696 0.3215489809087847
2560000000.0 -0.4638678237861206 0.22210391213422548
2580000000.0 0.11903048793272253 -0.5317912141493631
2600000000.0 0.13073014291728774 0.5591234663398803
2620000000.0 -0.433796205103205 -0.41201826822356785
2640000000.0 0.6140146251338156 0.06240270820021486
2660000000.0 -0.5092043958342602 0.38013523125164683
2680000000.0 -0.2275883247168161 -0.6070211506251509
2700000000.0 0.4850463640779688 -0.4459351266640086
2720000000.0 0.6600084712463452 -0.08228240146325183
2740000000.0 0.6593770333690137 0.11685822837767926
2760000000.0 0.6636452985838354 0.1094733611868774
2780000000.0 -0.31296413753368096 0.5916480406364727
2800000000.0 -0.39441670910824433 0.5310445085678148
2820000000.0 -0.6298100412836348 0.16994228851389154
2840000000.0 -0.22551839690412281 -0.5996256418681293
2860000000.0 0.5768537131835298 0.24870106125478797
2880000000.0 -0.6083787988604711 -0.08508912752249674
2900000000.0 0.3987715397486299 0.4444447765685222
2920000000.0 0.291106861072104 -0.49709571116406875
2940000000.0 -0.4390897542492745 -0.33909446511598884
2960000000.0 -0.45002736630544193 0.2827695539014321
2980000000.0 0.06983173231852054 0.5031833289872341
3000000000.0 0.48202170394601374 -0.04125408478128312
3020000000.0 -0.21176758464909837 -0.4080077484742473
3040000000.0 -0.05171628256672805 0.43043780951811034
3060000000.0 0.06273479743436726 -0.40001426567055726
3080000000.0 -0.24158569007419972 0.2926325807127443
3100000000.0 0.290672582501631 -0.21143280157554908
3120000000.0 -0.0007770477185452415 -0.3470072115005443
3140000000.0 -0.11083183417763615 0.3220428022044435
3160000000.0 0.1118335862673589 -0.3199570977595968
3180000000.0 -0.041971529337009685 0.3335295130529699
3200000000.0 0.04246125591011659 -0.3262973189785588
3220000000.0 -0.31419652493414274 -0.04397074708491243
3240000000.0 -0.27659363476781346 0.12144561201623012
3260000000.0 -0.284602045553144 -0.040397952438551835
3280000000.0 -0.04399245857261432 -0.2688570468381716
3300000000.0 0.17307090255681137 -0.1848785356659757
3320000000.0 0.0010892624479785862 0.2314555926970506
3340000000.0 -0.1433800286583488 -0.15277899678522022
3360000000.0 0.04854841222808085 0.1775412800633357
3380000000.0 0.1479282956371132 -0.06487250767112156
3400000000.0 -0.11376122505928556 -0.09171002481559268
3420000000.0 0.04734806361361811 -0.11990816316119114
3440000000.0 -0.0023650855722561303 -0.11655930880084685
3460000000.0 0.008745519455934981 -0.10195225606642433
3480000000.0 -0.05441317065609367 -0.07118537395452956
3500000000.0 -0.08271464483333042 0.025129294814510296
3520000000.0 -0.04847674073030786 -0.06377588602548574
3540000000.0 0.01915816818768805 -0.07273796124628588
3560000000.0 0.07826477033845437 0.0078000602682
3580000000.0 0.017795173123201464 -0.08381171422131756
3600000000.0 -0.04423451302528363 0.08205957133391749
3620000000.0 -0.07489679120573421 0.06562311285018535
3640000000.0 -0.059220715800532314 -0.08946531037509392
3660000000.0 0.10946163601667261 -0.04501752530692682
3680000000.0 -0.10307652186603539 -0.054860973804718056
3700000000.0 -0.046487692539362704 -0.09434443925633182
3720000000.0 0.08119782885976627 -0.04735378675914415
3740000000.0 -0.06439980071936581 -0.04438166756203185
3760000000.0 -0.06197940296728157 -0.04273378693420478
3780000000.0 -0.02836258516301388 -0.06641904448321345
3800000000.0 0.03925386798294408 -0.03192875051813312
3820000000.0 0.00313525329402846 0.03612436270752947
3840000000.0 -0.02738047336267758 0.036678903308093015
3860000000.0 -0.0007358398623153286 0.07705575483386772
3880000000.0 0.004590455623791731 -0.09732476039425614
3900000000.0 -0.09312675402527365 -0.04469983384170878
3920000000.0 0.09494208152959115 0.04353249419350163
3940000000.0 0.1008505925878214 -0.009678770424697765
3960000000.0 0.045628726891460816 -0.09194327114430842
3980000000.0 0.0845473259652031 0.04911655856670695
4000000000.0 0.03898831277632238 -0.0750217422927362
