!Created with skrf (http://scikit-rf.org).
# Hz S RI R 50.0 
!freq ReS11 ImS11
400000000.0 -0.8052576727510985 -0.18939236178392194
420000000.0 -0.5309843065573684 0.5468501311348564
440000000.0 0.18448527312552823 -0.7310900625293865
460000000.0 0.49129830241433164 -0.5445762625510749
480000000.0 0.39573472464153914 0.5158359584540153
500000000.0 -0.44908496847603946 0.188050595557149
520000000.0 0.37785023495356557 -0.09702417053417844
540000000.0 0.35135341965906514 0.35673453797031507
560000000.0 0.4508012105552356 -0.19298039164065017
580000000.0 -0.15584762934543867 0.3982530350274149
600000000.0 -0.4073479948324407 0.14366712961184874
620000000.0 -0.20922555364226006 0.31999942754709776
640000000.0 -0.2551472158834584 -0.24342200408860895
660000000.0 -0.1612658111318216 0.3552306300909258
680000000.0 0.1294190939559499 -0.3498757441089822
700000000.0 -0.17532746104402375 0.32230811883279303
720000000.0 0.1134790447994553 0.33351431214809935
740000000.0 -0.007562522506216802 0.3264066584045615
760000000.0 0.22382634486736158 0.19229619340839219
780000000.0 0.16330757820776498 0.22379106199487564
800000000.0 0.22456360011338233 -0.041797881423660053
820000000.0 0.09396477713190143 0.1968805249520341
840000000.0 0.17684735796194528 0.08509623047599017
860000000.0 0.08455940571140408 -0.15937522527444778
880000000.0 0.07834490918259854 -0.15702054077463412
900000000.0 -0.031298466588030316 0.15346221284391662
920000000.0 0.030177482839715785 -0.1470328308919791
940000000.0 -0.08036923815825137 0.1043489864441886
960000000.0 0.03236218889098228 -0.09371411161406236
980000000.0 0.04111840863299093 0.04941873855354869
1000000000.0 -0.0393814170832976 -0.020927676692431837
1020000000.0 0.005814747483794921 0.045817322310350336
1040000000.0 -0.0012604147826319365 0.06655692653143976
1060000000.0 -0.0378347118318977 0.08601844738361442
1080000000.0 0.11824708981251397 -0.0940473515750914
1100000000.0 -0.060378145116688355 -0.17445913481105196
1120000000.0 0.16873733082242046 0.1541699414623595
1140000000.0 0.24384069010675039 -0.12407025349013062
1160000000.0 -0.25676162454353085 -0.13447368716913316
1180000000.0 -0.07979242360022469 0.3006245184328002
1200000000.0 0.2478292066799793 0.21515575547555565
1220000000.0 -0.1582949500397335 0.29408817930834047
1240000000.0 0.21562724286991275 0.2587412698454422
1260000000.0 -0.3102254852187818 0.11041792404869434
1280000000.0 0.11515191597900243 -0.3099839749862408
1300000000.0 0.0007188626140402241 0.3509162911881196
1320000000.0 0.3690416772889083 0.07226229857697086
1340000000.0 -0.29773726306862197 0.2332443050455828
1360000000.0 -0.36272165762499325 -0.10525772707897899
1380000000.0 0.3753084263021907 -0.0012652289877606048
1400000000.0 -0.027750737372301194 -0.3723543216610259
1420000000.0 -0.378365956081184 0.011380443717932485
1440000000.0 0.3124810020580562 0.19907355332245014
1460000000.0 0.0300491759179754 -0.36117488380099555
1480000000.0 -0.19599149676410993 -0.2931737879481571
1500000000.0 -0.03233435712892244 0.32537773359059236
1520000000.0 0.30047813006601476 -0.0888097036717381
1540000000.0 -0.12086030277879056 0.2538379729592341
1560000000.0 -0.01282564925450555 -0.245981903315349
1580000000.0 0.08509315737870214 0.18057750014374252
1600000000.0 0.16532425384938443 -0.04744956606242894
1620000000.0 0.12430829482568645 0.07728997076125438
1640000000.0 -0.008566993930219778 -0.13176801889691858
1660000000.0 0.10390325041614375 -0.06217231956000399
1680000000.0 -0.0509949963850744 -0.08342444206961658
1700000000.0 0.05674225027593258 0.04420294016055813
1720000000.0 -0.0061458250330389845 -0.0550856529401954
1740000000.0 -0.029160880750784424 -0.027952787685241547
1760000000.0 -0.00931720977078442 -0.05603387044912091
1780000000.0 0.09704345601693144 0.007922163821839242
1800000000.0 0.10968337941842267 -0.06659750845611558
1820000000.0 -0.011622631631800443 0.1538780324689171
1840000000.0 -0.006589679273278198 0.18956541601234717
1860000000.0 -0.20810987236550194 0.06766860748439353
1880000000.0 0.2287009900421526 0.0784035885525785
1900000000.0 0.2577138686567133 0.07219190897717764
1920000000.0 -0.28642531146555084 0.055745980243147336
1940000000.0 0.15065973356246995 -0.2608905713836173
1960000000.0 0.1757018051330724 0.25069091033926927
1980000000.0 -0.24641537036858996 0.18029471342092454
2000000000.0 0.2045751196118634 -0.21638725666966807
2020000000.0 -0.28958966648247936 0.08119380556445482
2040000000.0 -0.19172934694783472 -0.25472829473273595
2060000000.0 -0.3106091936282452 0.10282990757914437
2080000000.0 -0.12390566926326317 0.3020583932390338
2100000000.0 -0.16761328614716886 -0.269013849360443
2120000000.0 0.3002014589774793 0.0649037434046432
2140000000.0 -0.2663675841641453 -0.13552964961582623
2160000000.0 -0.285239498173187 0.07841815587024016
2180000000.0 0.10089242480414634 0.27407592160219724
2200000000.0 0.24457289586889283 0.14078602566546555
2220000000.0 0.07554152733037946 0.2611634899095817
2240000000.0 -0.2536346687520965 -0.08368938618601078
2260000000.0 -0.06631350857215859 -0.25557054972714993
2280000000.0 0.2502446492965158 -0.059737775584655255
2300000000.0 0.24490163663585568 -0.02691792059329466
2320000000.0 -0.2296010949866768 0.013941803245951668
2340000000.0 0.22523974567206423 -0.005872455917658353
2360000000.0 -0.03702678785726524 -0.22128605879348265
2380000000.0 0.17386634835234374 0.15665612464912373
2400000000.0 -0.18895450146357243 0.1620619618267804
2420000000.0 -0.06505061950314393 0.2660439092854351
2440000000.0 0.27174168729798237 -0.13022290441277679
2460000000.0 -0.2563751359852841 0.21229218333971092
2480000000.0 0.3129703465251368 0.18818092797846553
2500000000.0 -0.3769860496053991 0.13735044807336236
2520000000.0 -0.03360600881229328 -0.4380007467959529
2540000000.0 0.3875800257914214 0.2763822056325838
2560000000.0 -0.4863255888974552 0.16453764951016486
2580000000.0 0.19119626659847627 -0.5108218722419572
2600000000.0 0.13516727118564792 0.5592731944051659
2620000000.0 -0.4661358372000716 -0.37674113691285127
2640000000.0 0.6108028451239973 0.09030150628311072
2660000000.0 -0.4810432534994089 0.4153139306773264
2680000000.0 -0.28651692555616637 -0.581021104657248
2700000000.0 0.4757181771515302 -0.45547361244026435
2720000000.0 0.6618270154273698 -0.06443344466808183
2740000000.0 0.6627531570277684 0.09827469992733864
2760000000.0 0.6663934474692939 0.09432112995989923
2780000000.0 -0.23008772582063666 0.6288994277266453
2800000000.0 -0.38304458979664147 0.5397681502103946
2820000000.0 -0.6200250856269132 0.20271945001122565
2840000000.0 -0.24392208738081342 -0.5930840123398852
2860000000.0 0.6053630116304552 0.1668208559847979
2880000000.0 -0.5973569488558284 -0.1411886078976979
2900000000.0 0.3976700149475967 0.4454359592988683
2920000000.0 0.30272345564087966 -0.4917343377771799
2940000000.0 -0.43362002611561407 -0.3458080261950735
2960000000.0 -0.46051071013768274 0.2635694788692724
2980000000.0 0.006975293130307581 0.5089858212475006
3000000000.0 0.47489905932843707 -0.10636144350245608
3020000000.0 -0.3554138486131428 -0.2903933108469402
3040000000.0 -0.001973400606323495 0.4311694210160589
3060000000.0 0.17093015890256955 -0.36575888046420535
3080000000.0 -0.36427838735538487 0.1076876999893803
3100000000.0 0.30471185829448866 -0.19777770959290275
3120000000.0 -0.17140751332926366 -0.3038830554354765
3140000000.0 -0.058044218070472074 0.3351603034288469
3160000000.0 0.036388816528192806 -0.3347174513602432
3180000000.0 -0.14419454856551997 0.30090999342946356
3200000000.0 0.1969894989795792 -0.26215908880068606
3220000000.0 -0.2816548752784008 -0.1545179242053095
3240000000.0 -0.1668714567910533 0.255226908496044
3260000000.0 -0.26494361770001035 0.10979480192831094
3280000000.0 -0.14691500398666693 -0.2278500997738588
3300000000.0 0.20619944997673156 -0.14518837341042348
3320000000.0 -0.13672646248297798 0.18787738287885292
3340000000.0 -0.16469819503599417 -0.1315163080393786
3360000000.0 -0.010444746065976137 0.18538119039817252
3380000000.0 0.1400027593229465 -0.08375147209112639
3400000000.0 -0.11868306410463078 0.08508003625416614
3420000000.0 0.06444123782903875 -0.10835613862085267
3440000000.0 0.0250181852396906 -0.11311916969049957
3460000000.0 0.1016508874815484 0.02203934560042733
3480000000.0 0.03696547250994522 -0.08448655754431546
3500000000.0 -0.07853077104054774 0.036150341292081015
3520000000.0 -0.06714779460127678 -0.0427609550919945
3540000000.0 -0.07393115843370666 -0.008582291059994477
3560000000.0 0.040995107208343866 0.06530177291328164
3580000000.0 -0.025937448981584912 -0.08088671179036636
3600000000.0 -0.07447385664707093 0.05476669147921334
3620000000.0 -0.09602453480663313 0.027949482690514997
3640000000.0 -0.036067042454935326 -0.1052614888217642
3660000000.0 -0.026550877804138274 -0.116581136045719
3680000000.0 -0.08525925376281882 0.0777754828122841
3700000000.0 0.023700630461211212 -0.09869876866330526
3720000000.0 -0.012386464392562442 0.09384865172177502
3740000000.0 0.0588102352517192 -0.05501467541801757
3760000000.0 -0.04353912881279308 0.0639774540371687
3780000000.0 -0.06951551326165117 0.00898256037031667
3800000000.0 0.03330317422790551 0.03578640558805873
3820000000.0 0.0319990219879878 -0.017653749356852804
3840000000.0 0.033130191997332796 0.03510804526660678
3860000000.0 0.07054816132974626 0.02924843920889929
3880000000.0 0.06973968818882571 -0.0665316284330003
3900000000.0 0.04268068795747078 -0.09475114773535023
3920000000.0 0.08226034381651327 0.06751714471115099
3940000000.0 0.09698922637532661 0.023656733547680508
3960000000.0 0.09101663252065903 -0.045632697172441714
3980000000.0 -0.00376975605429499 0.09842778841830242
4000000000.0 -0.0235089406754018 -0.07971013046897514
