!Created with skrf (http://scikit-rf.org).
# Hz S RI R 50.0 
!freq ReS11 ImS11
400000000.0 -0.7993914214104726 -0.21413989774265843
420000000.0 -0.581921202772936 0.4912083431657597
440000000.0 -0.03834066822002175 -0.7490434540514154
460000000.0 0.6241003995543558 -0.36457328319026067
480000000.0 0.39641177514757414 0.517383443570147
500000000.0 0.27431633309023346 -0.39995830303273877
520000000.0 -0.13746565821786685 -0.38197700326135003
540000000.0 0.4576274504760785 0.1745390693923698
560000000.0 0.44160448209481673 -0.23698353573522235
580000000.0 0.018051305847540514 0.4228417904996753
600000000.0 -0.4106566850328626 0.11573039068345721
620000000.0 -0.37918275933153833 0.07476724316243062
640000000.0 -0.06660024262796649 -0.3467367150147536
660000000.0 -0.16886853845362437 0.3498387418637601
680000000.0 -0.1148448584164584 -0.35432983823730313
700000000.0 -0.012388002855343149 0.36096460539415304
720000000.0 -0.20595242293097404 -0.27666547314576406
740000000.0 -0.19065318357657363 -0.27395404217496055
760000000.0 0.23364568579732797 -0.21077658877456726
780000000.0 -0.2719078817747611 -0.06227965737625337
800000000.0 -0.1451146015424022 0.16514091780235102
820000000.0 -0.1994953831231708 -0.01129067519581996
840000000.0 0.0033658977295480783 -0.18351231832897263
860000000.0 -0.0584175583912085 -0.18788662652443264
880000000.0 -0.06444373372467956 -0.1717357098860503
900000000.0 0.14567160203253776 -0.05170959197705996
920000000.0 0.14890356592470413 -0.04108576910471173
940000000.0 0.08538521381080483 -0.11289654285767999
960000000.0 -0.0889326017391091 0.050226417705541614
980000000.0 -0.01798083170009783 0.05032769809965609
1000000000.0 0.02423393460260313 0.0074520830770162085
1020000000.0 -0.03142202600548122 0.006942493171763552
1040000000.0 0.010929289877870535 -0.05906860282322856
1060000000.0 -0.014636751071140928 -0.0993624021127568
1080000000.0 -0.08354717965136908 -0.12924085185235973
1100000000.0 0.03375965115781037 -0.1863226757961075
1120000000.0 0.22273618213714805 0.05050541389284345
1140000000.0 0.2691973683400277 -0.023081337204116915
1160000000.0 -0.2783372794037019 -0.1034438137776408
1180000000.0 0.29234648729578755 0.11048883019823796
1200000000.0 0.2993114073572874 -0.12041967142340605
1220000000.0 -0.11946016932347792 0.3032737787718384
1240000000.0 -0.30028171923037855 -0.13671491149157217
1260000000.0 -0.2819276013067756 -0.18548165059654248
1280000000.0 0.20594551725808466 -0.27053367533953265
1300000000.0 0.33283042811986496 0.122189759252631
1320000000.0 0.3257750599837043 -0.1829154998451307
1340000000.0 0.004736328350568946 0.3773508692910076
1360000000.0 -0.3319677919573789 0.1663622723852007
1380000000.0 0.2551291260753278 0.2599700638492141
1400000000.0 0.3499777257474072 -0.14469035075553352
1420000000.0 -0.3016121761572708 0.2373794333698539
1440000000.0 0.36967001810567907 0.011323236204636147
1460000000.0 0.007850080294654092 -0.3593889530967914
1480000000.0 -0.14064475677852117 -0.3242522817507242
1500000000.0 -0.05210621839837678 0.3264993230221132
1520000000.0 0.05184108261835181 -0.30443915310940944
1540000000.0 -0.24463133850996582 0.13457595325338823
1560000000.0 -0.024028566870113226 -0.24423665867538508
1580000000.0 -0.1948763789370437 0.05454550526248714
1600000000.0 0.058540331327668574 -0.16374805239208584
1620000000.0 -0.06878406134339003 -0.1275932787455104
1640000000.0 0.12364811240175344 0.0005402431564808521
1660000000.0 -0.11516719198688984 -0.028397380296571937
1680000000.0 -0.0037286002542267177 0.10712228515212599
1700000000.0 -0.08133894957080462 0.005694216145972916
1720000000.0 0.045523153321035445 -0.01663404315809844
1740000000.0 -0.020817618883135706 0.029388134126934563
1760000000.0 0.043926192139987406 -0.04241238651508303
1780000000.0 0.09803590245756087 -0.005458837368065038
1800000000.0 0.05583797752832422 0.11448741263683714
1820000000.0 -0.141639165394079 -0.06930798589686714
1840000000.0 0.18892231607740556 0.05186445306746011
1860000000.0 0.18133490728569243 0.1276545638614449
1880000000.0 0.1602478880635797 -0.17707265224987762
1900000000.0 0.2409608545255703 -0.09452911139315917
1920000000.0 -0.08236935845457984 -0.2723480679321009
1940000000.0 0.15311144125807885 0.2608156084921432
1960000000.0 -0.15692322719312166 0.2700044322892018
1980000000.0 -0.3031261565555098 0.06191342734001742
2000000000.0 0.17365610343822963 -0.25237877833102734
2020000000.0 0.14543077376443414 0.27111078136916056
2040000000.0 -0.1646353458574071 0.26746626978521904
2060000000.0 -0.09318500251085776 0.3018995573350575
2080000000.0 -0.3078991262484103 0.0810125734007768
2100000000.0 0.2771067677049322 -0.14904620347353856
2120000000.0 -0.03825508842142745 0.3101747365394625
2140000000.0 -0.3031835799747468 -0.03202555029649779
2160000000.0 -0.15306471158190804 0.25300279514073654
2180000000.0 0.19885814080692024 0.21155342893641169
2200000000.0 0.2574814697332161 0.11338552494228402
2220000000.0 0.2065251201459401 0.17546749589470195
2240000000.0 -0.2552762784873316 -0.06696654316195162
2260000000.0 0.0038470698862025222 -0.26210475738185185
2280000000.0 0.23920674776021342 0.09612866757221601
2300000000.0 0.23854833758538938 0.06899181927162777
2320000000.0 -0.23169976368091796 -0.026884237491456624
2340000000.0 0.17875869464937505 -0.1370716353226245
2360000000.0 0.013039567888467456 -0.2224046678118275
2380000000.0 0.13857093211068136 0.1896053907627052
2400000000.0 -0.054912727267867466 0.24378680851644688
2420000000.0 -0.06538556830523219 0.26427757327443696
2440000000.0 0.30136991276474856 -0.010140804978662994
2460000000.0 -0.2747281762523859 0.19342479017119887
2480000000.0 0.3453755441305738 0.12285297712097501
2500000000.0 -0.33720364838017997 0.21552245494217206
2520000000.0 0.07416579867524974 -0.43366259025936604
2540000000.0 0.4227334275185197 0.22143929261071432
2560000000.0 -0.4657167894577662 0.21783963917506005
2580000000.0 0.150619013391587 -0.5243227072485733
2600000000.0 0.17882324095430818 0.5467481477105567
2620000000.0 -0.4329208201277552 -0.4128377557920442
2640000000.0 0.5947099201684073 0.16501063018119147
2660000000.0 -0.5165317926694766 0.37045232861292404
2680000000.0 -0.20375286264238404 -0.6148504152390801
2700000000.0 0.38412460195778236 -0.5346813739176216
2720000000.0 0.6453868158130659 -0.16108635974200908
2740000000.0 0.6667082458139812 0.06210612323428318
2760000000.0 0.6690481536675446 0.06844502595571708
2780000000.0 -0.25812967461165376 0.6178172806137243
2800000000.0 -0.4017261028847116 0.5260244001318037
2820000000.0 -0.6268845832813001 0.17924137559975467
2840000000.0 -0.2785095991080176 -0.5760984742241418
2860000000.0 0.5724104254185262 0.25704190133069066
2880000000.0 -0.5828040316192933 -0.19227317920896536
2900000000.0 0.3691221609287024 0.4695825675055934
2920000000.0 0.2941344177962359 -0.49702199295642724
2940000000.0 -0.4512266277078889 -0.3193204615056538
2960000000.0 -0.45076698992818515 0.2785337465076919
2980000000.0 0.008926246370772576 0.5079591023781345
3000000000.0 0.4685954898714823 -0.1286810016212035
3020000000.0 -0.3445183092137455 -0.30204229936616883
3040000000.0 -0.018478610784823272 0.4304725125289281
3060000000.0 0.21183533760515155 -0.3462742442545773
3080000000.0 -0.28806026130857193 0.25006827886134936
3100000000.0 0.21733042198302574 -0.28778920247295925
3120000000.0 -0.15226013839464514 -0.3133890865735938
3140000000.0 -0.00714714050962985 0.34017233756389076
3160000000.0 0.03375922677803891 -0.33393716509075866
3180000000.0 -0.18524222118182312 0.27596090233781334
3200000000.0 0.30051548941372813 -0.13903872432301292
3220000000.0 -0.2851979098865456 -0.1450282967226592
3240000000.0 -0.17910148001910528 0.24692023603023036
3260000000.0 -0.1249193845382696 0.2565242100950381
3280000000.0 -0.094868098146349 -0.24972578196276946
3300000000.0 0.24047402274897273 -0.06258032226966287
3320000000.0 -0.1945431631113501 0.12751456878359704
3340000000.0 -0.17128843202843502 -0.12855232545575296
3360000000.0 0.16925038410081047 0.07768356417575188
3380000000.0 -0.09223309209180343 -0.1334680239083444
3400000000.0 -0.13499240748103636 0.04056824080251673
3420000000.0 0.04691331382302033 0.11712201163590043
3440000000.0 0.10904898271869841 -0.047126417383411556
3460000000.0 0.05868806591832185 -0.08641745655905848
3480000000.0 -0.0841638423276994 -0.03898619551948955
3500000000.0 0.041862156974412805 0.07611769358137956
3520000000.0 0.006598418854145582 0.07668281406609452
3540000000.0 0.007999683243885046 -0.0717468795182229
3560000000.0 -0.07606949051905947 -0.0015445910956370797
3580000000.0 0.08688105053359263 -0.01396284967492788
3600000000.0 -0.09530081424449906 -0.007997710000020369
3620000000.0 0.07145993128880798 0.07674881833233164
3640000000.0 -0.1026911451272737 0.041611106326100926
3660000000.0 -0.08650578219541838 -0.07837437059380846
3680000000.0 -0.11199708129488926 -0.019486406203728636
3700000000.0 0.0769971835001067 -0.06275217033691555
3720000000.0 -0.08601800629622418 0.043845886861121675
3740000000.0 -0.057074282525786384 -0.06345174561503883
3760000000.0 -0.01777818736061334 -0.0750962277915975
3780000000.0 -0.055674410914821636 0.03894345413013613
3800000000.0 0.027542412670317144 0.04023090981777136
3820000000.0 0.010613735513637205 0.03475575811486545
3840000000.0 0.03250641753287882 0.0398697294628833
3860000000.0 -0.06880796195680075 -0.030469877737026044
3880000000.0 -0.066831227956694 -0.06235412669349829
3900000000.0 0.10060399142631897 -0.015205167104719886
3920000000.0 -0.0035765366787075268 0.10908053161667301
3940000000.0 0.0033465005975404135 -0.10530914997397159
3960000000.0 -0.10086893273648168 -0.016479282727005187
3980000000.0 0.08628097748687925 0.04265598960295973
4000000000.0 0.03289101780410335 -0.07406919213847019
