!Created with skrf (http://scikit-rf.org).
# Hz S RI R 50.0 
!freq ReS11 ImS11
400000000.0 -0.801374791334177 -0.20438011134682643
420000000.0 -0.5679449550408285 0.5100486107944503
440000000.0 0.09647572121655967 -0.7484777052264169
460000000.0 0.4352341817188313 -0.5897799641809652
480000000.0 0.45523157456786834 0.4607047647670531
500000000.0 -0.4805976300298854 0.05784379467098724
520000000.0 0.386244779869272 0.07036062777792952
540000000.0 0.35898510017533847 0.3500689564574585
560000000.0 0.46181147301088016 -0.16475206383764515
580000000.0 -0.1546171725050502 0.39901284393678366
600000000.0 -0.3873306482773395 0.19645406397470302
620000000.0 -0.11263643510971327 0.3663278220482719
640000000.0 -0.2800795924522984 -0.21289211674367528
660000000.0 -0.1254189116634851 0.3693606327627239
680000000.0 0.08471334056090533 -0.3594895809626901
700000000.0 -0.3256151520647942 0.16534901720882159
720000000.0 -0.01160613776097389 0.35228976544535767
740000000.0 -0.1461383293318648 0.29583725374207015
760000000.0 0.2871998568070734 0.0766280648000476
780000000.0 0.21325808019273373 0.1753298166335328
800000000.0 0.20753499746385592 -0.0987904822322676
820000000.0 0.1608826301786314 0.14453197348355792
840000000.0 0.16475008860228615 0.10406961467280176
860000000.0 0.11874396204669516 -0.1326009998581272
880000000.0 0.16465480592744425 -0.06312515701748454
900000000.0 -0.09449684802771946 0.12711515955017558
920000000.0 0.08830312675709374 -0.12376541495901991
940000000.0 0.04412428112280579 0.12614419454575046
960000000.0 -0.06527532449985426 -0.07706474389857723
980000000.0 -0.011722641324057894 -0.06366379860643674
1000000000.0 0.02513352363920372 -0.03656487060873723
1020000000.0 -0.04527433932906297 -0.008899640419325524
1040000000.0 0.030798525446669254 -0.05574752989371033
1060000000.0 -0.04836552923127099 0.07727128047124142
1080000000.0 0.1470869349292567 0.0302787440525829
1100000000.0 0.08241593569858591 -0.166366235448379
1120000000.0 0.08452632276188402 0.21424699458732685
1140000000.0 0.25872988929139 -0.09538548955945321
1160000000.0 -0.29230896275249946 -0.004775014532625684
1180000000.0 0.12604917097753957 0.2833361644193347
1200000000.0 0.2976307341815994 0.1286755382640804
1220000000.0 -0.22576784030664582 0.24313464882455582
1240000000.0 0.052061997446888025 0.3309542657953004
1260000000.0 -0.32275758561452933 -0.06940141778668936
1280000000.0 0.19158628163857858 -0.27300786855603304
1300000000.0 0.12603399310534608 0.33120026094759725
1320000000.0 0.3592661427222346 -0.11113023981364976
1340000000.0 -0.19012357124245685 0.32353570512233437
1360000000.0 -0.3402950063641736 -0.15547032449250722
1380000000.0 0.36022480987462235 0.09965229404138688
1400000000.0 0.11664560108737797 -0.3561630702653401
1420000000.0 -0.37518698374624354 -0.06720613605955517
1440000000.0 0.33634619902654905 0.15855763195608363
1460000000.0 -0.016838870402410423 -0.36267709104679374
1480000000.0 -0.3090459335759522 -0.1674010689267166
1500000000.0 0.018212374533391935 0.3245681970765432
1520000000.0 0.3104745403633995 -0.020328109603843424
1540000000.0 -0.22175145523259918 0.17117171372641038
1560000000.0 0.08394596000830314 -0.23308820401074537
1580000000.0 0.06124509035545194 0.19291399699410725
1600000000.0 0.12062527557269413 -0.12527301455470383
1620000000.0 0.09995727593124569 -0.10737052820818935
1640000000.0 -0.0867931124450459 -0.09601109824505975
1660000000.0 0.11494333927890281 0.027498301252536016
1680000000.0 0.09135454892766923 0.031315172142231354
1700000000.0 -0.07206207603950031 0.018955800782418885
1720000000.0 -0.030151937577319637 0.048891869495878905
1740000000.0 0.034014770602717126 0.0211809591359691
1760000000.0 0.027849803087747062 -0.04655196123083847
1780000000.0 0.04692405600086497 0.08479147853044137
1800000000.0 0.11887815141036326 0.05437647238763013
1820000000.0 0.012936699407136383 0.15576508822470633
1840000000.0 0.10937085757704866 0.1561239315104563
1860000000.0 -0.15702524421376465 0.149795127632714
1880000000.0 0.2238739546826534 0.08502525044680655
1900000000.0 0.21359283959572267 0.1604031640024612
1920000000.0 -0.29095636013838566 -0.023875532107204226
1940000000.0 0.18891619183858815 -0.23631261863348577
1960000000.0 0.1791996537991294 0.25023476106116227
1980000000.0 -0.2005577272347365 0.23081287219177316
2000000000.0 0.17058602711356863 -0.2435873811760131
2020000000.0 -0.29106936935887123 0.07447669515161993
2040000000.0 -0.18197740281976 -0.26045554991557623
2060000000.0 -0.3168898298051692 0.07916530822742153
2080000000.0 -0.18087294949879923 0.2710669131310734
2100000000.0 -0.1411723177369079 -0.28483200901530714
2120000000.0 0.2949907427207523 0.08962334455684351
2140000000.0 -0.2864289473235341 -0.0884582944012983
2160000000.0 -0.2453855722364662 0.16554348812230368
2180000000.0 0.13585026833825847 0.25779750124580414
2200000000.0 0.22967522540196564 0.16097717758839009
2220000000.0 0.0052248003075594865 0.27150190513796807
2240000000.0 -0.21435915280666962 -0.15867586962066324
2260000000.0 -0.019905004746752098 -0.2654954388332128
2280000000.0 0.21006215035180803 -0.15118617866012773
2300000000.0 0.20720577832005066 -0.13258474196232098
2320000000.0 -0.22743179802258132 0.015382137225546641
2340000000.0 0.2119642804897474 0.07078119815099385
2360000000.0 0.0770585654175224 -0.21119552452979026
2380000000.0 0.1668205515643311 0.16615471688146752
2400000000.0 -0.1604658457259062 0.19371344009204214
2420000000.0 0.08519643539893786 0.2592549852545534
2440000000.0 0.2657260316771729 -0.13795028409491453
2460000000.0 -0.3019713549292418 0.136680193255072
2480000000.0 0.2709563592013485 0.24553413792551398
2500000000.0 -0.394570761077458 0.07864754501309902
2520000000.0 -0.013854269690196423 -0.4406654237433967
2540000000.0 0.41239009368301505 0.23907683673044683
2560000000.0 -0.45213267433694726 0.2413658795867637
2580000000.0 0.17665206831587024 -0.5145035014425947
2600000000.0 0.08538381652983795 0.5682052409059435
2620000000.0 -0.4241736045351005 -0.42371142660992533
2640000000.0 0.6097912865356155 0.1002583505672838
2660000000.0 -0.45990812337115655 0.43881368891563094
2680000000.0 -0.24663986660047887 -0.5994619772466762
2700000000.0 0.4757900167974989 -0.45525612165208895
2720000000.0 0.6614813896951383 -0.06859651212712989
2740000000.0 0.646923313833432 0.17400818410956226
2760000000.0 0.6314345234668627 0.23169845082995866
2780000000.0 -0.22985727038475254 0.6292381477193763
2800000000.0 -0.397894384518508 0.5286628122334183
2820000000.0 -0.6330931092156643 0.1570361584836447
2840000000.0 -0.24856239559003687 -0.5910834254427546
2860000000.0 0.6035544704119769 0.1725087013711966
2880000000.0 -0.5957488645590459 -0.14819617712722244
2900000000.0 0.4041011771053384 0.43990329271488904
2920000000.0 0.22113211002714195 -0.5324768417174681
2940000000.0 -0.4532853670999342 -0.3179902960716568
2960000000.0 -0.45534213480725977 0.2716924740212178
2980000000.0 -0.03087007028752576 0.5080849163410697
3000000000.0 0.4748502211793564 -0.10839285832906331
3020000000.0 -0.3717671880642312 -0.27054438549211873
3040000000.0 0.03737055714417326 0.42955760987778435
3060000000.0 0.20225371343733095 -0.3484546206870808
3080000000.0 -0.3704339593792509 0.07871789717545447
3100000000.0 0.3296399716568788 -0.15148105301011705
3120000000.0 -0.08408166921919098 -0.3397032411578054
3140000000.0 0.02446476373367806 0.3406403263264041
3160000000.0 -0.009726999176112597 -0.33646353650027455
3180000000.0 -0.08928114353899362 0.320873718104282
3200000000.0 0.21468322460437325 -0.24616556698199835
3220000000.0 -0.2291321881075502 -0.2249264264136175
3240000000.0 -0.1967680147936391 0.23347302110754972
3260000000.0 -0.26423670851346764 0.11263137331857276
3280000000.0 -0.1888659473698131 -0.1951171901606233
3300000000.0 0.20132320858627556 -0.15030564928261236
3320000000.0 -0.08553792467535899 0.2152055747423817
3340000000.0 -0.10996835564765559 -0.17898584510824278
3360000000.0 -0.06807824331158853 0.17332138542700123
3380000000.0 0.11167031221324823 -0.11968285099450097
3400000000.0 -0.11452031167706604 0.09109095608044772
3420000000.0 0.07363227800445217 -0.10161108207112
3440000000.0 0.0431576502024585 -0.10641362408168903
3460000000.0 0.080324280129749 0.06566633972524553
3480000000.0 0.06123003094175662 -0.07031691877933496
3500000000.0 -0.06257960845641035 0.061695738970070434
3520000000.0 -0.07176964714783526 0.034522443262067916
3540000000.0 -0.07074684906298441 -0.021544349622165997
3560000000.0 0.046410256682521384 0.060768593719369976
3580000000.0 0.06763093143508277 -0.04945404678523826
3600000000.0 -0.09261724753025267 0.012485784955230039
3620000000.0 -0.07789625237969536 0.06449470072946534
3640000000.0 -0.08984768975756838 -0.06524594869289524
3660000000.0 -0.034600501996388186 -0.11301279254532218
3680000000.0 -0.11002135181737116 0.03583070247187986
3700000000.0 0.01689368542605671 -0.10040158859148988
3720000000.0 0.03943973524954765 0.08573863704206318
3740000000.0 0.0533185586808351 -0.05972649714635054
3760000000.0 -0.028134417388626598 0.07288021054111078
3780000000.0 -0.06908812154955324 0.010026730564716828
3800000000.0 0.030171742345979732 0.037583962618156955
3820000000.0 0.03587508457932719 -0.005634930414824717
3840000000.0 0.0452009059145054 0.017899194143593197
3860000000.0 0.06489031647946643 -0.04082759294764799
3880000000.0 0.04050270376607073 -0.0859462984363376
3900000000.0 0.06210477723541978 -0.08202690858205357
3920000000.0 0.03988005727197299 0.09921221002615625
3940000000.0 0.10071577388073594 0.007905949767209555
3960000000.0 0.08908643803882163 -0.049515928467668
3980000000.0 0.019804655219843172 0.09635594731754674
4000000000.0 -0.02897863519759833 -0.07825216762763895
