!Created with skrf (http://scikit-rf.org).
# Hz S RI R 50.0 
!freq ReS11 ImS11
400000000.0 -0.7583033270639431 -0.3298000146439254
420000000.0 -0.15681829652062676 0.7480126988568641
440000000.0 -0.03782623922916731 -0.7441164781387917
460000000.0 0.4562173045594566 -0.577091547277351
480000000.0 0.6252188968179311 -0.12258378518782587
500000000.0 -0.44389474272361196 -0.14936977697960155
520000000.0 -0.29328228224278424 0.26093826723191266
540000000.0 -0.2593360138229613 0.4386511250025272
560000000.0 0.20425171166435338 -0.44807836134412093
580000000.0 -0.38764456348777865 0.17417424765059336
600000000.0 -0.336038952164036 0.2754544547244845
620000000.0 -0.37219541881702983 0.09823254698882948
640000000.0 -0.34622297662341955 -0.026817661314845233
660000000.0 -0.3908789007701674 0.014350525858145492
680000000.0 -0.16927075453919152 -0.33288932624361034
700000000.0 -0.0951958493081626 0.34927329768845977
720000000.0 -0.18230322279676903 0.297652165588127
740000000.0 -0.2894342055310177 0.15485386167914175
760000000.0 0.19576365835728465 0.21844352890551927
780000000.0 -0.1548022585067437 0.24060458626331924
800000000.0 -0.10456457055758077 0.22390454131464488
820000000.0 -0.20356790775473707 0.018963637778872073
840000000.0 -0.15894482605442872 0.09023814631161108
860000000.0 -0.12904229138192147 -0.11584981548303797
880000000.0 -0.016744003299740403 0.180921602250723
900000000.0 -0.0734719214966198 0.14726403411634914
920000000.0 -0.14150404927548657 0.08156784444955749
940000000.0 0.13822576335383602 -0.033934558983049326
960000000.0 -0.015730953804079555 -0.10275253953590825
980000000.0 -0.003833856299673964 0.06039176865538466
1000000000.0 -0.017870110532300656 -0.03628773593045434
1020000000.0 -0.04426497583048085 -0.02175039429023843
1040000000.0 -0.002254525201494473 0.07853281098990816
1060000000.0 0.0483420927292977 -0.0845269195715969
1080000000.0 -0.05020004639347738 0.12755395378429016
1100000000.0 0.1462620482613391 -0.09818639657829281
1120000000.0 -0.2145036726836663 -0.061809192629822055
1140000000.0 0.16430268150269348 0.211393915145817
1160000000.0 0.243207550604543 -0.18464793260831305
1180000000.0 0.2673364591139421 -0.1632469115654551
1200000000.0 0.3267432375577102 0.028262670346740244
1220000000.0 0.29989459203841995 0.13447013454921264
1240000000.0 -0.22494629646034467 0.24410394184160786
1260000000.0 -0.32893122551653836 0.013174751516096792
1280000000.0 0.3244990615635044 -0.06897807928247136
1300000000.0 0.0661046421814507 0.348035071166885
1320000000.0 0.3374988304563956 0.16639581606965412
1340000000.0 -0.25311984371373897 0.2766723595633408
1360000000.0 -0.18516430938794573 -0.3316954476042236
1380000000.0 0.36917895687457364 0.09824583738531635
1400000000.0 -0.3246016990026264 -0.20307747797041742
1420000000.0 0.14903484027416394 0.34731425671840177
1440000000.0 0.35874242838657344 -0.04138376580486325
1460000000.0 -0.08349924202725877 -0.34429961734692344
1480000000.0 0.015644004339413452 -0.34219584328023667
1500000000.0 -0.2993974680701866 0.13045025512160166
1520000000.0 0.18081751776392493 0.2582010852744945
1540000000.0 -0.2769440854470851 0.04770011987979708
1560000000.0 0.13796118338393518 -0.20795584313373375
1580000000.0 -0.15966940732812793 0.13553571779095314
1600000000.0 0.07058417178379396 -0.16670983080386878
1620000000.0 0.007412193176251441 0.1507589348818014
1640000000.0 0.04424597021023106 0.11744111689368744
1660000000.0 0.023273134782841754 0.10728191185724485
1680000000.0 -0.07750933690013888 0.05348508296638349
1700000000.0 -0.05416937376698297 -0.0545391775816435
1720000000.0 0.03234962557680183 -0.04752273393285104
1740000000.0 0.027182416174398205 0.027607007157085268
1760000000.0 0.040496276109809284 0.0353897852726163
1780000000.0 0.01925568748878592 0.09290244332411647
1800000000.0 0.05516841590624203 0.11556833609125318
1820000000.0 -0.13878030993098073 0.07035180951589652
1840000000.0 -0.19321074979226446 -0.02005047719835163
1860000000.0 -0.16461706292804046 0.15842578238953728
1880000000.0 0.09403808123704255 -0.2314033878337055
1900000000.0 -0.22276006323141187 -0.14598144125068777
1920000000.0 -0.025950425486851062 0.28147255075647176
1940000000.0 0.23890470448007364 -0.16889304514902426
1960000000.0 -0.26114775229186943 0.15785734197048232
1980000000.0 -0.3085822254319831 -0.010252812063549938
2000000000.0 0.14051272611342394 -0.2682637149201608
2020000000.0 -0.1657598458173894 0.2480388203093977
2040000000.0 -0.05047654843131488 -0.30809196428656294
2060000000.0 -0.27573293280102346 -0.17399586074247073
2080000000.0 -0.247792829357023 0.21438722844205035
2100000000.0 -0.1169125981912713 -0.2972112417288114
2120000000.0 0.257239718318668 0.1751945049509034
2140000000.0 -0.2698596901006924 -0.1317501680461526
2160000000.0 -0.15156572581663535 0.2523220096242902
2180000000.0 0.1388171316409221 0.26067672207830833
2200000000.0 0.27367471125141457 0.06733120848990326
2220000000.0 0.13935398330147125 0.2334357075907041
2240000000.0 -0.2662953310679398 -0.010836616355870484
2260000000.0 0.013731549629245018 -0.26178186810702386
2280000000.0 0.2478766922783621 -0.06328910542421032
2300000000.0 0.12064350028388343 0.2145026096293988
2320000000.0 -0.19230457837978365 -0.13099840763053047
2340000000.0 0.22636635576995648 0.016814825172745157
2360000000.0 -0.17363062784881433 -0.14216610847556577
2380000000.0 0.11007201314116102 0.20639244155480957
2400000000.0 -0.012978089075659298 0.24936245845766727
2420000000.0 -0.047905354780153876 0.26867175340989047
2440000000.0 0.2264588478065527 -0.19573668962694452
2460000000.0 -0.2473936430494179 0.2195469272293851
2480000000.0 0.2963134256199117 0.20905069517119196
2500000000.0 -0.39834346216062116 0.04109039306307766
2520000000.0 0.05184631234927459 -0.4369620649475278
2540000000.0 0.29097017144408316 0.38098161258336366
2560000000.0 -0.4814463781476944 0.1863159388523164
2580000000.0 0.17091608068512731 -0.520861439581665
2600000000.0 0.2547732740835692 0.5163259154995464
2620000000.0 -0.5404797414729927 -0.25602856484232933
2640000000.0 0.6139342624618077 0.04011336319845424
2660000000.0 -0.49304556292030655 0.3968579343041465
2680000000.0 -0.27482631749925757 -0.5845987291094646
2700000000.0 0.4685621027957141 -0.46132613495508235
2720000000.0 0.6642335967538169 -0.016641640531355056
2740000000.0 0.6551897396252723 0.13696306638410155
2760000000.0 0.6472794186293368 0.18343895458606702
2780000000.0 -0.2961464355401316 0.6000111566679394
2800000000.0 -0.43370086231949806 0.4996022823366494
2820000000.0 -0.6432655752269748 0.10558543965788339
2840000000.0 -0.15380097150826144 -0.6216620682133598
2860000000.0 0.579227033993344 0.24209496215064172
2880000000.0 -0.5767995315768738 -0.2090072130564303
2900000000.0 0.28905020555547645 0.523507063858169
2920000000.0 0.31631979310568953 -0.4832387420460224
2940000000.0 -0.4226630626513566 -0.3601541407885789
2960000000.0 -0.46674151316696527 0.25242774172325744
2980000000.0 0.06970732456847409 0.5039098643065946
3000000000.0 0.4546925306743068 -0.1748784469689987
3020000000.0 -0.3748651053992456 -0.266807368150894
3040000000.0 0.09271496286157949 0.4212910645243989
3060000000.0 0.03724906606196413 -0.4003147290587055
3080000000.0 -0.32187630911946286 0.19590730080699856
3100000000.0 0.32831142464997704 -0.14587989788819522
3120000000.0 -0.10383134181322505 -0.33173521052663074
3140000000.0 0.030919525241328075 0.33644157159115295
3160000000.0 0.1704322968573842 -0.287057177578757
3180000000.0 -0.298725037264614 0.14807145574217143
3200000000.0 0.3007013350998016 -0.13641110806096474
3220000000.0 -0.20168200912478057 -0.24909702226097516
3240000000.0 -0.30340254976163017 0.05425098254620432
3260000000.0 -0.26937141849547286 0.11394056075149528
3280000000.0 -0.2701116184014845 -0.0527680474578041
3300000000.0 0.03267641118675482 -0.24877436625086838
3320000000.0 -0.003588325501340559 0.22800549351793306
3340000000.0 -0.16244690445702625 -0.12910437793173402
3360000000.0 0.08046240657239712 0.16358883012864286
3380000000.0 0.1129332923408455 -0.10875218023105228
3400000000.0 0.012218201100767096 -0.13883459127389544
3420000000.0 -0.031305841978593575 0.12274065774403385
3440000000.0 0.11663251002379448 0.02250132480011818
3460000000.0 0.09482446707323339 -0.05133451025819588
3480000000.0 -0.0024957132060491063 0.09829518952917014
3500000000.0 0.007616803966977736 -0.0900879371451765
3520000000.0 0.007216325262495036 -0.07658340782296758
3540000000.0 -0.06473984197967439 0.03139681894389255
3560000000.0 -0.05323917670669501 0.05511151937229811
3580000000.0 0.0814070296854712 0.022156876200693718
3600000000.0 -0.051669309018265774 -0.07964932779591259
3620000000.0 -0.09557254475107767 0.03962631955319496
3640000000.0 -0.10316836106233383 -0.03414106243233855
3660000000.0 0.05316247503030423 -0.10337405169304754
3680000000.0 -0.088283900944636 -0.07127223014650505
3700000000.0 0.041848781695463216 -0.09172355472615817
3720000000.0 -0.0447028201983173 0.08474500078725603
3740000000.0 -0.08134734098029324 -0.0003043031712945686
3760000000.0 0.03144971651500206 -0.06775045098362384
3780000000.0 0.00924282993219506 -0.06629820100015338
3800000000.0 -0.024585254058765438 0.04143539219617
3820000000.0 0.036741574144663454 -0.006814383815753718
3840000000.0 0.045880277382440646 0.009267780465304762
3860000000.0 -0.028702808097948947 -0.06492838748393928
3880000000.0 0.086376635456081 -0.03511390042687047
3900000000.0 -0.02149024097138073 -0.0999243081959065
3920000000.0 0.09848597004204476 0.038353026774679534
3940000000.0 0.10008113309552846 0.019799111377769803
3960000000.0 0.08792537051353926 -0.052601451897950124
3980000000.0 0.09784036564446823 -0.002954019708840468
4000000000.0 0.026133743554312746 -0.08071753131373481
