!Created with skrf (http://scikit-rf.org).
# Hz S RI R 50.0 
!freq ReS11 ImS11
400000000.0 -0.8273229656413904 -0.035269320965922835
420000000.0 -0.5489062048825776 0.5272045225823714
440000000.0 0.30597513177151087 -0.6848373244341034
460000000.0 0.5711789546408289 -0.4558438601962748
480000000.0 0.4879146854571016 0.43005733425786885
500000000.0 -0.4564783589926674 -0.18392277207414892
520000000.0 0.3805571233508685 -0.05779461421413819
540000000.0 0.33169127445911717 0.3731201790681272
560000000.0 0.4482038068898812 -0.2068614989387082
580000000.0 -0.1725195161848254 0.38500116812373386
600000000.0 -0.4289378565381699 -0.0620527682357525
620000000.0 -0.2277241115238525 0.3121784721827466
640000000.0 -0.19827202858728174 -0.29755879998021606
660000000.0 -0.05113653691071296 0.38019055646768574
680000000.0 0.06958062572394658 -0.36969962854231886
700000000.0 -0.11332941609677508 0.3496542847061384
720000000.0 -0.0041918844608361825 0.346181712925759
740000000.0 -0.15861008259551118 0.28600656124914214
760000000.0 0.25417079496972395 0.1448143254467346
780000000.0 -0.06471719143249019 0.26787157504563947
800000000.0 0.03531095967073693 -0.23388604084585474
820000000.0 -0.11489581486013546 0.1802969902273447
840000000.0 -0.03881106175311278 0.18892172169764082
860000000.0 0.05660057660328071 -0.1732733240897142
880000000.0 -0.12413884375951253 -0.11509135298576442
900000000.0 -0.09403510436808657 0.11700104365346839
920000000.0 0.15669679696616684 -0.021065370283867315
940000000.0 0.13610443639734154 0.02088298084797861
960000000.0 0.019574343797457514 0.0956882907243182
980000000.0 -0.005820865519152972 0.057491869223829
1000000000.0 0.03203138024334937 0.031980090669907354
1020000000.0 0.04249712312286272 0.020006526929136677
1040000000.0 -0.021581579819043198 0.0649444344522637
1060000000.0 0.03942167552424013 -0.08632136034295218
1080000000.0 0.1364971393590518 0.04312753871136131
1100000000.0 0.1597177713082115 -0.1046518908455431
1120000000.0 0.19414692834545047 0.12590842154361664
1140000000.0 0.24772410508861245 -0.10871573502828721
1160000000.0 -0.177142973692654 -0.23284863596821015
1180000000.0 0.03850956042897589 0.30736517012753745
1200000000.0 0.31474372428383723 0.09282891594496712
1220000000.0 -0.042360165514829747 0.32694248183023195
1240000000.0 -0.05574566361858902 0.3287797606883075
1260000000.0 -0.32595879107982684 -0.0323614536813731
1280000000.0 0.2667088529097436 -0.20953654232599847
1300000000.0 0.2641736369153407 0.23599225995290624
1320000000.0 0.29779786256292223 -0.22786092998676497
1340000000.0 -0.206019475929932 0.31174899539690515
1360000000.0 -0.21893362125010882 -0.30114015932483024
1380000000.0 0.2650966537822116 0.2673250150439409
1400000000.0 -0.07276662068631307 -0.37395336702408943
1420000000.0 -0.18371408963717364 0.3339974441435051
1440000000.0 0.35925864869761887 0.06205042279528054
1460000000.0 0.20203626441918093 -0.29597469115325603
1480000000.0 -0.10137918346933807 -0.33805833662779095
1500000000.0 -0.1328009523737864 0.3015204129063218
1520000000.0 0.24880715520218002 -0.18952311519911483
1540000000.0 -0.09823185238153871 0.26385158184056223
1560000000.0 -0.021016997721786997 -0.24222844899005538
1580000000.0 -0.0726155106234982 0.18406236997391345
1600000000.0 0.11761454211781047 0.1280914522921488
1620000000.0 0.1189613152992866 -0.09413058516448158
1640000000.0 -0.1280489739833645 0.027086984488630377
1660000000.0 0.06794988840186805 -0.09211430208069205
1680000000.0 0.09159120604175536 0.030418283605997205
1700000000.0 -0.07508772259671315 -0.00374506441863524
1720000000.0 0.04570600867091331 0.03591097282790439
1740000000.0 -0.010679416598492695 0.034789706417767914
1760000000.0 0.02898848595839075 0.05027048841065232
1780000000.0 0.007996906721438124 0.10004841033720611
1800000000.0 0.12190367285824029 -0.05324359025867298
1820000000.0 0.14144291508849688 0.05849897621718732
1840000000.0 0.11515050914941223 0.14769006509347335
1860000000.0 -0.21032738113706884 -0.04998169901986108
1880000000.0 -0.056219731680127914 0.23646135118638867
1900000000.0 0.24458741495334047 0.12086963765951422
1920000000.0 -0.1596367310348401 0.24624568630018248
1940000000.0 0.07903888338030077 -0.2876710574436659
1960000000.0 0.13840318595749096 0.26850510857074716
1980000000.0 -0.29678901747333475 -0.06201175724208886
2000000000.0 0.3007989232737993 0.018314008207890267
2020000000.0 -0.17543759975564005 0.251922442920044
2040000000.0 -0.316025592852448 0.03316251003072157
2060000000.0 -0.2727152200020043 0.17250366244558232
2080000000.0 -0.2778054816709001 0.16708065677530248
2100000000.0 0.05483174805364323 -0.3156249130133491
2120000000.0 0.28308200054529137 0.13268961390074946
2140000000.0 -0.2645611863151376 0.1414192821916121
2160000000.0 -0.24514336466130096 0.1539164542295506
2180000000.0 -0.1165486236752681 0.26252848910505955
2200000000.0 0.006395695917192222 0.2833780403546526
2220000000.0 0.03683464997259136 0.27270715880374163
2240000000.0 -0.2612060409860606 0.06395319224695138
2260000000.0 -0.23638391049437021 -0.11495400321129189
2280000000.0 0.21199919507316617 -0.1413789451297429
2300000000.0 0.1448961013144367 0.19565810474103681
2320000000.0 -0.17978405328532207 -0.15062066946084288
2340000000.0 0.1757247953981035 -0.14478968324571861
2360000000.0 -0.1311708971045769 -0.18082446465821478
2380000000.0 0.15076014103229818 0.17789471866243334
2400000000.0 -0.07043031307773379 0.2384305503500648
2420000000.0 -0.13589233317067523 0.23801713457460563
2440000000.0 0.30023241455251215 0.04777770078388216
2460000000.0 -0.20547327284905023 0.266326222834205
2480000000.0 0.31904705403511424 0.17957585836643053
2500000000.0 -0.3170303556234396 0.24372481389661635
2520000000.0 0.08004691523413064 -0.43072260593616574
2540000000.0 0.3769593790510369 0.2917767179547242
2560000000.0 -0.48751960002941064 0.1656048187046078
2580000000.0 0.14328488493504377 -0.5275892741540363
2600000000.0 0.1813011558457997 0.5458233076868234
2620000000.0 -0.45966357687729786 -0.38344364564194994
2640000000.0 0.6153289709820842 0.053758002693790295
2660000000.0 -0.46736467572928464 0.4302368168477041
2680000000.0 -0.24377387283725935 -0.5997488899591216
2700000000.0 0.44725371559397664 -0.483798421670842
2720000000.0 0.6572305420420242 -0.10034403544686657
2740000000.0 0.6535137691884313 0.14698335029031387
2760000000.0 0.672452670006912 0.02950501058338513
2780000000.0 -0.21647121999490196 0.6338395662521313
2800000000.0 -0.38226564206621944 0.5401303860807479
2820000000.0 -0.6261671221004921 0.18117240195044493
2840000000.0 -0.2764630904228504 -0.5771297768925044
2860000000.0 0.5981037626775518 0.18891246441512605
2880000000.0 -0.589642926448446 -0.16632983613421282
2900000000.0 0.3213224641809101 0.5034223825309585
2920000000.0 0.2831995750309979 -0.503774069144134
2940000000.0 -0.4691407868719913 -0.295392746374638
2960000000.0 -0.44100331212992666 0.29268575544558567
2980000000.0 0.017940417865050906 0.5056911569106216
3000000000.0 0.48466691434599923 -0.015224071880592695
3020000000.0 -0.36462589245816857 -0.28000686419522236
3040000000.0 0.1119747068360045 0.4183270454579695
3060000000.0 0.1302368872884164 -0.38196854500502847
3080000000.0 -0.3340358942070722 0.18064159070053873
3100000000.0 0.3234884470505698 -0.16165679915287196
3120000000.0 -0.12417673350973417 -0.326408899313794
3140000000.0 0.08995527565443891 0.32722874235772637
3160000000.0 0.09378603903153575 -0.32127739424235285
3180000000.0 -0.18213116595004378 0.27931150441858504
3200000000.0 0.22751202550521252 -0.2387455838077098
3220000000.0 -0.259621171605938 -0.18620288176754196
3240000000.0 -0.13340230067539963 0.2742883981460095
3260000000.0 -0.1946396070586005 0.20795965055664503
3280000000.0 -0.08710493511765169 -0.2526841357079145
3300000000.0 0.24505393484532306 -0.052661186457244887
3320000000.0 -0.17609529307992222 0.15458498596596443
3340000000.0 -0.2085807104698399 -0.04616664798876372
3360000000.0 0.18407951408071682 -0.0025643860078661657
3380000000.0 0.04773686030880254 -0.1549960436322403
3400000000.0 -0.13115214403617254 -0.05632612804858757
3420000000.0 0.1238607748421905 0.032721527765794414
3440000000.0 0.04335316458033622 -0.11177905757283411
3460000000.0 0.0410867451235864 -0.09491645551698938
3480000000.0 -0.07305628846029574 -0.05402375019791973
3500000000.0 -0.07370423533547864 0.04068519394901956
3520000000.0 0.030464945754659817 -0.06976582020229555
3540000000.0 0.04342714421055545 -0.06238891374404281
3560000000.0 0.038324568323799955 0.07001461877894725
3580000000.0 -0.08485939947505493 -0.001951576237937812
3600000000.0 0.014035806891745507 0.09048656261537408
3620000000.0 -0.03022290330148985 0.09721567191116928
3640000000.0 -0.014685824404006172 -0.11004554948774024
3660000000.0 -0.05839229825836091 -0.10398314184137647
3680000000.0 -0.11633018644884681 -0.0022435834644583285
3700000000.0 0.02463370829611538 -0.09935979072386783
3720000000.0 0.07748893814073687 0.05879250634575003
3740000000.0 -0.07285832901986126 -0.03905449349588028
3760000000.0 0.07603992451456257 -0.0035598932385171498
3780000000.0 -0.03972002725207475 -0.056665188915523246
3800000000.0 -0.04341058938611803 -0.027122761490444954
3820000000.0 0.03849570720065808 0.0018342990103151478
3840000000.0 -0.021281926462189973 -0.04176629873594393
3860000000.0 0.005915598609447125 0.07361933042877765
3880000000.0 0.09454209007683256 -0.01809574797571756
3900000000.0 0.05945162940103829 -0.0890035333838561
3920000000.0 0.09283949320953319 -0.05704394107239876
3940000000.0 0.024999363217750314 -0.09922682079763408
3960000000.0 0.08990258974644844 -0.044528911270690225
3980000000.0 -0.08623007755706832 0.04416535615735763
4000000000.0 0.03953353319722166 -0.07340734700299156
