!Created with skrf (http://scikit-rf.org).
# Hz S RI R 50.0 
!freq ReS11 ImS11
400000000.0 -0.8236912358051137 -0.00663586469261425
420000000.0 -0.4382850265654594 0.6288685645969442
440000000.0 -0.056502949612779664 -0.7491691960451716
460000000.0 0.21062104631367876 -0.7019563111332793
480000000.0 0.6173788299304548 -0.13533270926123572
500000000.0 0.21066508734277004 -0.41391043070892625
520000000.0 -0.3741907537916065 0.17561993856789299
540000000.0 0.22424970294735672 0.46074391973356754
560000000.0 0.33141782058396574 0.3790084047567234
580000000.0 0.2971557331079457 0.31794653530992945
600000000.0 0.3275422195184558 0.29545942301257916
620000000.0 -0.30103052887954096 0.2565120257451817
640000000.0 -0.26682211295984587 0.23764791009576336
660000000.0 0.29401238549942676 -0.20882246549115308
680000000.0 0.047736951880102886 -0.3476677766431485
700000000.0 -0.3539405906204725 0.06588472522128029
720000000.0 -0.3387278581979197 -0.0029027454745577793
740000000.0 -0.2906037961395581 -0.1553681888723453
760000000.0 0.2791122726840733 0.11206089377046093
780000000.0 0.09161515369226979 0.26185733356423746
800000000.0 -0.23242186446674748 -0.04706169538370249
820000000.0 -0.11170760004527829 0.16787243368672358
840000000.0 0.06645699349617462 -0.18711589924848782
860000000.0 -0.07893338178605211 -0.17359710493912275
880000000.0 -0.17237618570596924 0.08419827041927183
900000000.0 0.013649546028662815 -0.1630403875677043
920000000.0 -0.08077514434653857 -0.12478942257069936
940000000.0 0.13364721176440514 -0.04703869502474517
960000000.0 -0.008963656573131288 0.09834732084455401
980000000.0 0.047260158538717296 0.005172877260330022
1000000000.0 0.018474252157953744 -0.018046877986727515
1020000000.0 0.02751981653216374 0.013646013180054154
1040000000.0 -0.00965123319170941 0.06827789803781267
1060000000.0 0.058406626951916174 0.09425707196758826
1080000000.0 -0.13180268089137692 0.09074867382613398
1100000000.0 -0.11401611904497116 0.15372948425577998
1120000000.0 -0.10345896290174904 -0.20164774877967653
1140000000.0 -0.015988622900389486 -0.25778066625908413
1160000000.0 0.15934224482744 -0.24032032885809967
1180000000.0 0.28158676357173973 -0.11015741251619567
1200000000.0 -0.16076008739466693 0.27087953757680855
1220000000.0 -0.30909796590874716 -0.10451015056234411
1240000000.0 0.08663232430630517 -0.3251785164235117
1260000000.0 -0.2197320318814939 -0.2699287455562957
1280000000.0 -0.06142222377667312 -0.3403016376894697
1300000000.0 0.29896802804516576 -0.2017407053093353
1320000000.0 0.30582496506623746 -0.20551542672542997
1340000000.0 -0.14549063193201403 0.34519530681906324
1360000000.0 -0.3224506293156181 -0.19120177889458792
1380000000.0 0.37096743753161976 -0.08866306976197998
1400000000.0 -0.3567665496653448 -0.11153893047905579
1420000000.0 -0.11872309913731859 0.35212098557499
1440000000.0 0.11811363481707064 0.3412485495335876
1460000000.0 0.31044682019169195 -0.18387148464233394
1480000000.0 0.2476640978148195 -0.24680766481066096
1500000000.0 -0.09525823973640024 0.31950680023895495
1520000000.0 0.2702104693329979 -0.1557560432913337
1540000000.0 -0.2789476544241392 0.019633744443465023
1560000000.0 0.2344659055704028 0.0818232220595596
1580000000.0 -0.21047984263330424 -0.05134039348938429
1600000000.0 -0.17996285597444167 0.056903855782589954
1620000000.0 0.033879753119788095 -0.1468125077845777
1640000000.0 -0.1059322403235438 0.04879623931985185
1660000000.0 0.09587962209894307 0.025199920331039287
1680000000.0 0.08130706766745728 0.026381766783329427
1700000000.0 -0.07179576694458234 0.013100613942545258
1720000000.0 -0.029043944691238253 -0.05195484640609237
1740000000.0 -0.04181535932566027 0.02827711427909608
1760000000.0 -0.004175208890879463 0.05632417372865166
1780000000.0 0.058954519105241104 -0.07058811381619852
1800000000.0 0.11905834364813336 0.0292221950925257
1820000000.0 -0.14064941182807847 -0.06795172667099246
1840000000.0 0.07013622019518102 0.18165292725454044
1860000000.0 0.10661815931434498 0.19022293691646033
1880000000.0 0.2123218193214924 -0.10618685958494481
1900000000.0 0.22482884244334156 -0.1313158841689458
1920000000.0 -0.14484427222453414 -0.24344758170314368
1940000000.0 0.1007679426939087 0.281392434773899
1960000000.0 -0.3105829112976229 -0.039658391618069944
1980000000.0 -0.24774843038519023 -0.19766729920504508
2000000000.0 0.2132026114918679 -0.23158914471652267
2020000000.0 0.30699659472343743 -0.07082187932326932
2040000000.0 0.3036693471058714 0.08993512684577265
2060000000.0 0.2621658602802938 0.1680671185538191
2080000000.0 -0.1873704729641362 0.2476595814329894
2100000000.0 0.2728052913599805 -0.14100638012018554
2120000000.0 -0.23457433078331844 0.19873099251232387
2140000000.0 -0.042438697406232524 -0.29905462721924897
2160000000.0 -0.2938579634159844 0.04486293743661247
2180000000.0 0.17108708004011913 0.23780469040430177
2200000000.0 0.1324315539628862 0.25012121911705393
2220000000.0 -0.04266136560999002 0.2740346319260461
2240000000.0 -0.20744885278934017 0.1774858125085377
2260000000.0 -0.25885725542081245 0.02688403744895794
2280000000.0 0.20140220280898116 -0.15218675470474796
2300000000.0 0.17754534466113012 0.16840842683420668
2320000000.0 -0.23152945195211017 -0.02303104081025185
2340000000.0 0.21685799529425143 -0.06067835485177734
2360000000.0 -0.18884094676364968 -0.11764223068997061
2380000000.0 -0.006245351226396235 0.22910640381104996
2400000000.0 -0.24737573127549134 -0.03118031756351977
2420000000.0 -0.2296062925627905 0.15712157048691663
2440000000.0 0.2055749361991399 -0.22565050442571824
2460000000.0 -0.22358580450291352 0.24699390689633177
2480000000.0 0.35621812824686655 0.07698803055589451
2500000000.0 -0.37705231348984414 0.13488778168797286
2520000000.0 -0.030300975839742512 -0.43838308338995763
2540000000.0 0.3715692206496084 0.29780480895812284
2560000000.0 -0.44835592513964184 0.24971085618221964
2580000000.0 0.13806442084097492 -0.5266929047547475
2600000000.0 0.12248991074417445 0.5601354081643611
2620000000.0 -0.38413655929752044 -0.4583424974317232
2640000000.0 0.5991573550411351 0.14792523687381878
2660000000.0 -0.5134276068512139 0.3726085140951377
2680000000.0 -0.16596476579603867 -0.6261426717468923
2700000000.0 0.5043156868891286 -0.42400618387403577
2720000000.0 0.6655294996309282 -0.023937053255977385
2740000000.0 0.6523902552709662 0.15520576473522696
2760000000.0 0.6569117845271363 0.145925487711665
2780000000.0 -0.2841998784546531 0.6066316855711161
2800000000.0 -0.4270788069415196 0.5056907332650864
2820000000.0 -0.6406330195699241 0.12450912813291973
2840000000.0 -0.227645615868202 -0.5997185168588047
2860000000.0 0.5910899679179941 0.21270326756764027
2880000000.0 -0.5886269181441017 -0.17345350376903426
2900000000.0 0.36349646992305784 0.47430655121569354
2920000000.0 0.25756972919132864 -0.5155287575898237
2940000000.0 -0.44264401873949183 -0.3337612546361831
2960000000.0 -0.4756404685553934 0.23586361075219267
2980000000.0 0.034153467357860186 0.5060283820757747
3000000000.0 0.483708083972582 -0.03082161808659505
3020000000.0 -0.34597598667642326 -0.3039439991425102
3040000000.0 -0.006110554220343477 0.43093917977933893
3060000000.0 0.2518476983899155 -0.3155308395422472
3080000000.0 -0.37686437413484064 0.06419216104464467
3100000000.0 0.3256281724773218 -0.15930745307185737
3120000000.0 -0.10958405379465147 -0.3320909492386784
3140000000.0 0.06823728719300096 0.336288205001588
3160000000.0 -0.16907497239297228 -0.29253369099415927
3180000000.0 -0.012721640321805899 0.3319695294825355
3200000000.0 0.10102201080069696 -0.3111685482015493
3220000000.0 -0.3161773656029211 -0.018013862809677407
3240000000.0 -0.1955240815982217 0.22779744221329715
3260000000.0 -0.2775054550713459 -0.05878289430896077
3280000000.0 0.12737255435259004 -0.2368320312094138
3300000000.0 0.16166887679526484 0.19643016011566505
3320000000.0 -0.2366039179947057 -0.027302619225359325
3340000000.0 -0.18561202448870656 -0.11705723959946847
3360000000.0 0.045560847707725886 -0.1868983508838868
3380000000.0 -0.06819543891177554 0.1414337523398119
3400000000.0 -0.0945140254782485 0.0942133522226197
3420000000.0 -0.11566356963125544 0.03653363413163379
3440000000.0 0.01935015328613007 0.1152856254254467
3460000000.0 0.09537564316270158 0.049440906323891844
3480000000.0 -0.06227844825110473 -0.07388547853535354
3500000000.0 0.031013140465668658 0.08149804904116409
3520000000.0 -0.0722947527806179 0.036991287625912805
3540000000.0 -0.04179734727634734 -0.06278315625043719
3560000000.0 -0.019453720472652827 0.07518509632247887
3580000000.0 -0.008867343450888451 -0.08552827037575493
3600000000.0 0.03456829343082709 0.08885960181417092
3620000000.0 -0.09139019100409843 0.04281019763761454
3640000000.0 -0.1097496365334594 -0.004276873241604391
3660000000.0 -0.027791346464183568 -0.11298558236293861
3680000000.0 -0.10503450505532012 0.04240714405871851
3700000000.0 0.07550563301913409 -0.0687272703509898
3720000000.0 -0.07550074691459045 0.05523398135090965
3740000000.0 0.06806529531321946 -0.04512645541418278
3760000000.0 0.07494337109302665 -0.02630801160472043
3780000000.0 -0.0705842738551605 -0.007019402168263089
3800000000.0 -0.011062588075204362 -0.0472993131224282
3820000000.0 -0.034822601600864235 0.0005334748827700306
3840000000.0 -0.00821766036989926 -0.046365538905037744
3860000000.0 0.025763204290709888 -0.0677770950097185
3880000000.0 0.06440892607260025 0.06595317081478533
3900000000.0 0.10130744198667638 0.03271884663573579
3920000000.0 -0.04716659284266988 0.09890201940395893
3940000000.0 -0.08500611129785665 -0.06461308485831943
3960000000.0 -0.06793091617043459 0.07278646193357263
3980000000.0 0.091269714677725 -0.009304160985787879
4000000000.0 0.060115557541687126 0.04857575321212363
