!Created with skrf (http://scikit-rf.org).
# Hz S RI R 50.0 
!freq ReS11 ImS11
400000000.0 -0.8092302755426953 -0.16096665885110253
420000000.0 -0.5863959587397294 0.48947593269147843
440000000.0 0.16436754658651231 -0.7330199361212021
460000000.0 0.4951963677177241 -0.5332132386925992
480000000.0 0.4516357956225717 0.4602180418948337
500000000.0 -0.42377376059407434 -0.24743130306206118
520000000.0 0.15179099383688607 -0.358404012997732
540000000.0 0.22700429585767012 0.4349185929282324
560000000.0 0.47619776833954736 -0.13931164822160835
580000000.0 -0.17380585689663441 0.38924115034647705
600000000.0 -0.41169332489805605 -0.13822251804118166
620000000.0 -0.1357719301867823 0.36643446849083894
640000000.0 -0.318483567586995 -0.15352792945814422
660000000.0 -0.1356704551789475 0.3594688535227238
680000000.0 -0.13511561460765098 -0.34619640945045566
700000000.0 -0.18890572873575814 0.30819191154114745
720000000.0 -0.33496335152433654 0.0881446073692871
740000000.0 -0.2610504950496297 0.19754504248501467
760000000.0 0.20732349274368533 0.2170700625497956
780000000.0 0.24694002736936552 -0.12560871836120166
800000000.0 -0.111144403461525 -0.207316238103812
820000000.0 0.20544665617927818 0.041577076765427726
840000000.0 -0.044032376364152935 0.1823832331349328
860000000.0 -0.15991185498688448 0.09082561000292774
880000000.0 -0.038801631867915014 -0.17330581032608847
900000000.0 -0.15015590427760492 0.04984447207869688
920000000.0 0.1466833009503045 -0.058984319696638136
940000000.0 0.028109041706386544 -0.13651127031323165
960000000.0 0.08332010238819511 -0.04418373624618088
980000000.0 -0.05057825351052284 0.007911393047262152
1000000000.0 -0.027845615014554046 0.024511008290763005
1020000000.0 -0.03240712083890438 -0.031601609835385305
1040000000.0 -0.06512613737967336 0.0022062669255559727
1060000000.0 -0.0711627556151435 0.06474880855527693
1080000000.0 0.10141701934447947 -0.11342535179912946
1100000000.0 -0.1842742493315189 -0.03131306423233368
1120000000.0 0.0820273616400885 0.21073735801656937
1140000000.0 0.20390413576025132 0.18000237358277418
1160000000.0 -0.11890231163026743 -0.2746717539862522
1180000000.0 0.30400229963234426 0.07084509187107542
1200000000.0 0.3207250994932382 -0.04719020688889676
1220000000.0 -0.23891942916177616 0.22233385520748625
1240000000.0 -0.26187324549345625 0.20329681963813742
1260000000.0 -0.25346862872105447 -0.21610465159969208
1280000000.0 0.11271438586992404 -0.32352463421564465
1300000000.0 0.3535105645791509 0.010585533338430817
1320000000.0 0.1635600319852088 -0.33124866659865115
1340000000.0 -0.343281238557443 0.1456222058278593
1360000000.0 -0.17500341607886155 -0.3304302090489776
1380000000.0 0.27584429815642897 0.25655436445785
1400000000.0 0.03896255446949948 -0.3795073492181341
1420000000.0 -0.1560221363097819 0.34828804681660064
1440000000.0 0.35405038046601306 -0.09018865817081413
1460000000.0 0.07765365669270273 -0.34950412696372235
1480000000.0 0.013683244376089396 -0.3473928680976205
1500000000.0 -0.32348265372035423 0.07322197952279562
1520000000.0 0.23480514661194643 -0.2160865637711724
1540000000.0 0.162394374882466 0.2301574388437623
1560000000.0 -0.17778634835346702 -0.16228987628022634
1580000000.0 -0.19515619865660344 0.003112127491006379
1600000000.0 -0.027564938629340955 0.17548788507845878
1620000000.0 0.0005141482346564061 -0.15440300031875517
1640000000.0 -0.08349097027799751 0.10101109838464255
1660000000.0 0.09171000988484783 -0.06730786440746404
1680000000.0 -0.05541877204240583 0.07822220506765785
1700000000.0 -0.06751432167122237 -0.036303584686312354
1720000000.0 -0.015042853044377432 -0.05546479645353441
1740000000.0 -0.035256290886301396 0.003102375288525959
1760000000.0 0.01968902962765015 0.05672842629526063
1780000000.0 0.06041443048961731 -0.07850872465070313
1800000000.0 0.130033148215538 -0.008253555318477561
1820000000.0 0.10882326827211365 0.11124664746374555
1840000000.0 0.10730277729273696 0.15152221926288953
1860000000.0 -0.20686499870157474 -0.06454092215686327
1880000000.0 -0.00536341203699933 0.24386504646442092
1900000000.0 0.27255504580741197 0.016020825011277145
1920000000.0 -0.18427214999564145 0.22763523646692257
1940000000.0 0.015217059673297324 -0.29878993044168933
1960000000.0 0.027424680439513374 0.29990998321271967
1980000000.0 -0.2879229642035974 -0.09573383063550148
2000000000.0 0.29013867298264334 -0.08231413992699212
2020000000.0 -0.18564904889064146 0.24453650403611987
2040000000.0 -0.3184042588247165 0.0108134073584473
2060000000.0 -0.2275777547862211 0.23024717479461904
2080000000.0 -0.27997924439608546 0.1618774260221752
2100000000.0 0.02480437028687352 -0.31776422438225377
2120000000.0 0.18637997345853155 0.2492612232964382
2140000000.0 -0.29663076266168925 -0.03778591731153736
2160000000.0 -0.26968517836499734 0.11189786218984267
2180000000.0 -0.016461141763914958 0.28933853016959993
2200000000.0 0.22126195902001325 0.1747568235864233
2220000000.0 0.0718615649964687 0.26222656205592393
2240000000.0 -0.26330676010568527 -0.044693327770224715
2260000000.0 -0.11497339756741033 -0.2364230038046655
2280000000.0 0.2577122455864032 -0.0007730517186480766
2300000000.0 0.24737447248203415 -0.01679779915428876
2320000000.0 -0.2281371152397974 0.03429256099803771
2340000000.0 0.22111502724359766 -0.04507758160191211
2360000000.0 -0.07902541808658423 -0.2086436453503785
2380000000.0 0.008499991472080911 0.23251687468451482
2400000000.0 -0.20897212558007375 0.14182888423722834
2420000000.0 -0.06667901228798322 0.26807264582011203
2440000000.0 0.2564333903212313 -0.16273362690429363
2460000000.0 -0.145199332145889 0.2983730878723702
2480000000.0 0.2259819891884902 0.2839965621135992
2500000000.0 -0.39769187005349177 0.048732188932726184
2520000000.0 0.05556630947900967 -0.43896804715472193
2540000000.0 0.4409759180391853 0.182640602576791
2560000000.0 -0.4782993388826277 0.18811108819331235
2580000000.0 0.1447360056375359 -0.5254552209513519
2600000000.0 0.13989857263113079 0.5575491868289609
2620000000.0 -0.4439973557544963 -0.4019257169240579
2640000000.0 0.6131049800225178 0.0753900865232446
2660000000.0 -0.46309376286330484 0.43443812697616363
2680000000.0 -0.29438243942674164 -0.576907750025164
2700000000.0 0.4528440981022635 -0.47857890004252285
2720000000.0 0.6506790526983626 -0.1377551035665359
2740000000.0 0.6679785028468075 0.0558567772187817
2760000000.0 0.6728650266209825 0.026754521195593656
2780000000.0 -0.253525258636841 0.6198006757148715
2800000000.0 -0.4346642220964121 0.4989910947879868
2820000000.0 -0.6285478419917011 0.17218420229029302
2840000000.0 -0.22100224427029774 -0.6008602241540025
2860000000.0 0.588783022559072 0.21806779655034464
2880000000.0 -0.5865300429732061 -0.18122641849045731
2900000000.0 0.402529508467802 0.44092728887785543
2920000000.0 0.2567597513958502 -0.516086992732037
2940000000.0 -0.44583934133486425 -0.3265859920074256
2960000000.0 -0.4643255857943715 0.2543845582280354
2980000000.0 -0.025164736131584233 0.5080548124786772
3000000000.0 0.472298285841616 -0.11927509169846628
3020000000.0 -0.3908656559353586 -0.24167078656976526
3040000000.0 0.10620109180194015 0.4192347193751951
3060000000.0 0.10789936729412522 -0.38944707179199817
3080000000.0 -0.3213856325998014 0.20074638580263726
3100000000.0 0.35344658614342117 -0.07056915976732157
3120000000.0 -0.006109123610369362 -0.3492718994942551
3140000000.0 0.017599516658270545 0.34227607975820457
3160000000.0 -0.1368611813444036 -0.3071801878505668
3180000000.0 -0.008938086185149614 0.33070632604006495
3200000000.0 0.28143972343899376 -0.16517448832906653
3220000000.0 -0.18462018124399204 -0.26009307678265126
3240000000.0 -0.21158535086470073 0.22143196149873928
3260000000.0 -0.21885578994523208 0.18820987250508495
3280000000.0 -0.2328668453861263 -0.13710691407955908
3300000000.0 0.1259448283694932 -0.21465435819609718
3320000000.0 -0.1709447051936782 0.15279623503199014
3340000000.0 0.04756336449869302 -0.2081952555147881
3360000000.0 0.10641382751564568 0.1558534859105443
3380000000.0 -0.06708043603654183 -0.15036605947963697
3400000000.0 -0.09159870340214929 0.11012256850075139
3420000000.0 0.11591634354210505 -0.04756023012185393
3440000000.0 0.10121440794523742 0.05798244735605029
3460000000.0 0.07474449934066052 0.0727404557088725
3480000000.0 -0.020352341821698802 -0.09105149024064166
3500000000.0 -0.04411465121533142 0.07549177370864721
3520000000.0 -0.023463362224103407 0.07325864248022793
3540000000.0 -0.04951686563288866 -0.05432352814974059
3560000000.0 0.0378522060775365 0.06605098626016312
3580000000.0 0.04993462739882758 -0.06829500481419193
3600000000.0 -0.09270549913769281 0.00679052235183885
3620000000.0 0.004872567601765246 0.10500377160257177
3640000000.0 -0.10684755293390436 -0.03443752435483902
3660000000.0 -0.08032892979609053 -0.08769646806823747
3680000000.0 -0.08844832196780661 0.07195424105045772
3700000000.0 0.040912804053709104 -0.09248073638605837
3720000000.0 -0.07875010392016092 0.0551134072459454
3740000000.0 0.013572511493224478 -0.08342494057846513
3760000000.0 -0.0028069104531432227 -0.07897422249843719
3780000000.0 0.012558030594705534 0.06623955345006471
3800000000.0 -0.01584516556497629 -0.043619052999337264
3820000000.0 0.0018004605516574975 -0.03952503707460347
3840000000.0 -0.024819121068471808 0.04390776485749562
3860000000.0 -0.06358305346858432 -0.03256048891603855
3880000000.0 0.060598907030060004 0.0703727061990813
3900000000.0 0.0723952567901631 0.07685788935638804
3920000000.0 0.09231560561754498 0.06356790687533971
3940000000.0 -0.04692164298643566 -0.09478825517812746
3960000000.0 -0.06595844145107739 -0.07598154926874219
3980000000.0 0.003156224148887879 0.09442354697814176
4000000000.0 0.055205469931410824 0.06058152725018505
