!Created with skrf (http://scikit-rf.org).
# Hz S RI R 50.0 
!freq ReS11 ImS11
400000000.0 -0.2858333983794429 -0.7725195803195619
420000000.0 -0.5750232198355758 0.5092057120993064
440000000.0 -0.35269527861417826 -0.6563016929964414
460000000.0 0.6673937997855097 -0.311103922404448
480000000.0 0.383564394554579 0.51973951289291
500000000.0 0.39779699991498 -0.29708931075540407
520000000.0 0.093430614577683 -0.40415332185560987
540000000.0 0.4059716106038928 0.2881662885302369
560000000.0 0.26603190890747896 -0.41628440872017775
580000000.0 0.407675280299828 -0.14616711742637098
600000000.0 0.4017328224989516 0.13994065725407048
620000000.0 -0.08791789513675059 0.3682437162295079
640000000.0 -0.250595067623656 0.23241857966243745
660000000.0 0.01757995287198384 0.36301614758289347
680000000.0 0.34173691885487123 -0.027931851386667966
700000000.0 0.3370143108412882 -0.1252160623752719
720000000.0 0.08493400282932126 -0.3355476031346603
740000000.0 -0.03947787567269896 -0.33831655591566395
760000000.0 0.20701739054231066 0.2367506268264801
780000000.0 0.1699722623531301 -0.24154616618758562
800000000.0 -0.1567193506252313 0.18433508520610917
820000000.0 0.07747717187392701 -0.19137546067473787
840000000.0 0.19387168954962822 -0.033436724882149965
860000000.0 0.17588486648744311 0.032946080611682
880000000.0 0.13454467239172369 0.10846089949792424
900000000.0 0.035943700407350246 0.14668532104071086
920000000.0 -0.13536605818848066 0.03835308476661899
940000000.0 0.12451877134465406 0.03536518288035633
960000000.0 0.043151659764882964 -0.09504814826762804
980000000.0 0.03557856396966574 -0.038705633926076476
1000000000.0 0.006056510290057159 0.03735477437180131
1020000000.0 0.019106763381286706 0.03665736106515725
1040000000.0 -0.07302885603266043 0.029183334988476535
1060000000.0 -0.10886193851453671 0.07111224713037949
1080000000.0 -0.09983833517954438 -0.13517975779731076
1100000000.0 0.1284768274772776 0.1403531775648061
1120000000.0 -0.044369145293779104 0.21830680048795278
1140000000.0 0.11885468135758571 -0.21885354189325976
1160000000.0 0.2468176507614472 -0.13441248414067522
1180000000.0 -0.1756280402369512 0.2539862241595121
1200000000.0 -0.0803751467751182 0.3119301870083418
1220000000.0 -0.32904078446017665 0.053598511875110354
1240000000.0 -0.30275445335965384 0.1511602029929925
1260000000.0 -0.2605208809975458 -0.2234041574530686
1280000000.0 -0.1488150522545452 -0.31015640618016754
1300000000.0 0.26678769134880953 -0.23141687694376536
1320000000.0 0.22131042012396007 -0.29134503333262446
1340000000.0 -0.36725301898886337 0.05896089094908366
1360000000.0 -0.27257428663582617 -0.26017132085694916
1380000000.0 0.3775615566161084 -0.0008907176806978485
1400000000.0 -0.2934148368697802 -0.2360632209183674
1420000000.0 -0.2352643513509088 0.29052524574606237
1440000000.0 0.10836212216403805 0.3520159865912523
1460000000.0 -0.03398397857080805 -0.3616228021490118
1480000000.0 0.09979732576147445 -0.3328649472771454
1500000000.0 -0.18660820153479504 0.2734757733255692
1520000000.0 0.27877165225160994 -0.1469582520931284
1540000000.0 -0.08894065394830225 0.26442953459311563
1560000000.0 0.22930925629151658 0.07152795715500575
1580000000.0 0.006137069162374137 -0.21158252486108672
1600000000.0 -0.08310788740494059 -0.170923768594215
1620000000.0 0.09966530096088272 -0.11146536966009896
1640000000.0 -0.06047377512024621 -0.10319415214633648
1660000000.0 0.0001839959659494345 0.10022439082884645
1680000000.0 -0.0017298620893572876 0.08919046493868271
1700000000.0 0.07513073478698691 0.019659259792024247
1720000000.0 0.05321318053194863 -0.028382777144189294
1740000000.0 -0.02012474120169444 0.04063801407305166
1760000000.0 0.026300584785906585 -0.05004730399845254
1780000000.0 -0.07162717495353443 -0.05412336786946978
1800000000.0 0.05324362146104317 0.1084005389775379
1820000000.0 -0.11105697339855052 -0.10940977128378433
1840000000.0 -0.039365306666998424 0.1884529911257941
1860000000.0 -0.13266760129678642 0.17889900743068476
1880000000.0 0.21925735850628833 -0.10438014000703942
1900000000.0 0.13380549467283426 -0.2252850580222148
1920000000.0 -0.24385924899559522 -0.15096083850476655
1940000000.0 0.29207335793397693 0.06201029656699732
1960000000.0 -0.2151262282727661 0.21989495256831623
1980000000.0 -0.209234640531276 -0.23258444311893972
2000000000.0 0.24099574068125007 -0.1981011720550029
2020000000.0 0.29016361766508625 0.12161791219982576
2040000000.0 0.27793504845207667 0.15326165253118074
2060000000.0 0.28178100362237885 0.13244774731957007
2080000000.0 -0.26658596927659595 0.15145656847766245
2100000000.0 0.2987820949668714 0.06821036286559476
2120000000.0 -0.3090689789797025 0.02493758421379684
2140000000.0 0.004098739744561586 -0.3078728825073496
2160000000.0 -0.20308453026200662 0.22366866725942777
2180000000.0 0.29182432932568597 0.029340038525220886
2200000000.0 0.25658771796313545 0.11343559193455359
2220000000.0 0.11927860380270534 0.2461916332252244
2240000000.0 -0.2655901305202523 0.04233672239571499
2260000000.0 -0.2198372944713711 -0.14261671438233475
2280000000.0 0.21745470333828323 -0.12895618586414362
2300000000.0 0.16467144131899966 0.17860511334369447
2320000000.0 -0.17100792897008288 -0.15432358699981583
2340000000.0 0.18581792712152734 0.13241918049338897
2360000000.0 -0.12852195046234713 -0.18667072024389658
2380000000.0 0.2280067400175124 0.03887251333980385
2400000000.0 -0.17605120395339366 0.17561909582561572
2420000000.0 -0.019857136556600513 0.2722168199163009
2440000000.0 0.3015502102844388 0.014529687495944115
2460000000.0 -0.301014775776818 0.14041657025923157
2480000000.0 0.3124021867744728 0.19370580472703203
2500000000.0 -0.3189510922295143 0.24415062816169514
2520000000.0 -0.028098360216748882 -0.4386772863360411
2540000000.0 0.41024737546921397 0.24102206868653464
2560000000.0 -0.4577804868559994 0.23053722432664217
2580000000.0 0.15406442713400503 -0.520778565648708
2600000000.0 0.08408150390463795 0.5670458905371389
2620000000.0 -0.40979150897794026 -0.43642747817790845
2640000000.0 0.5987629589801156 0.15644323906433713
2660000000.0 -0.49313486418722063 0.4006201394252273
2680000000.0 -0.300041809789246 -0.5744817172053925
2700000000.0 0.459193520307205 -0.4729117178852471
2720000000.0 0.657800276641198 -0.09985718722580632
2740000000.0 0.6629460361800495 0.09536333132604112
2760000000.0 0.6584559420982875 0.1377639228738091
2780000000.0 -0.26948927816572144 0.6123369444606661
2800000000.0 -0.42779586466171077 0.5046063692737098
2820000000.0 -0.6463619388689662 0.09055389763027095
2840000000.0 -0.21404150588884832 -0.604168512470539
2860000000.0 0.559108369956172 0.2857042402274642
2880000000.0 -0.5956503722691274 -0.1501039314862283
2900000000.0 0.38400905157130866 0.45780569420747824
2920000000.0 0.2705869695590534 -0.5105534801089029
2940000000.0 -0.4587897461062836 -0.31122927914120785
2960000000.0 -0.43657056373811975 0.301431418599586
2980000000.0 0.00444615475751792 0.507734869829569
3000000000.0 0.4851878891841662 -0.03016686144467114
3020000000.0 -0.2176437989120292 -0.40529409593771465
3040000000.0 -0.064207491428527 0.4301112288628498
3060000000.0 0.14121472280936428 -0.380194040492712
3080000000.0 -0.29676649417013146 0.2385408032372494
3100000000.0 0.2667137252357062 -0.2427380354257448
3120000000.0 -0.07253890195932106 -0.3396648136225129
3140000000.0 -0.014667890975062565 0.3390521080933942
3160000000.0 0.10150349695993792 -0.32136848086898445
3180000000.0 -0.12263215537063815 0.3120597853714774
3200000000.0 0.08045339595115097 -0.3207409725862684
3220000000.0 -0.3164671619632491 -0.01940369288283342
3240000000.0 -0.2187298028868675 0.2078953036895964
3260000000.0 -0.2807463741533011 0.058993222570310345
3280000000.0 -0.017108116794406446 -0.2699638186014495
3300000000.0 0.2510536606675262 -0.0313268117080799
3320000000.0 -0.21978389595186718 0.0774275957250914
3340000000.0 -0.13397848424639178 -0.17125034422008772
3360000000.0 0.17864104161002795 0.06297586969846272
3380000000.0 -0.10834471779802184 0.11734406895385432
3400000000.0 -0.12817935752079798 0.047120294114831505
3420000000.0 -0.08915593832976856 0.08595362319069083
3440000000.0 0.10641085199032013 0.04590713324124745
3460000000.0 0.06112720934154388 0.08855120517296236
3480000000.0 -0.011958385640196327 -0.0967899811554969
3500000000.0 0.08989982473348464 -0.014740628054792109
3520000000.0 0.04153642135880459 -0.06764014344025532
3540000000.0 -0.07260869166338625 -0.0014969089333233552
3560000000.0 0.01658204330320095 0.07349032082204729
3580000000.0 -0.015806470819131963 -0.0808722177015242
3600000000.0 -0.07448792274795742 -0.05269954090740461
3620000000.0 -0.08833032750070514 -0.052912138012177305
3640000000.0 -0.07068294040725442 -0.0875086265196986
3660000000.0 -0.011171019672718274 -0.11894452399031916
3680000000.0 -0.10995564930557365 0.0284609871238846
3700000000.0 0.06151213409040722 -0.08461553594791671
3720000000.0 0.09474726986128125 0.011595007842600702
3740000000.0 -0.022956434720953996 -0.0752087087787228
3760000000.0 -0.07054674994358054 0.030420003564341283
3780000000.0 -0.020700985184748517 -0.06918550106580254
3800000000.0 -0.048272642672483164 -0.008064521174262033
3820000000.0 -0.033428879845089715 0.0026336742905091626
3840000000.0 0.03759051377670346 0.03335675323395532
3860000000.0 -0.07099326648892958 0.024775306448768054
3880000000.0 -0.002026238982085198 -0.09351185856247951
3900000000.0 0.08643031118300402 -0.05548398067243508
3920000000.0 0.10653968368810346 -0.006363045703667916
3940000000.0 0.1004306974722837 -0.016512493226772066
3960000000.0 0.012316781049114966 -0.10098932053835406
3980000000.0 0.05307166109458859 0.07963091312782793
4000000000.0 0.07020402730208877 -0.04335934361665353
