!Created with skrf (http://scikit-rf.org).
# Hz S RI R 50.0 
!freq ReS11 ImS11
400000000.0 -0.3149245389879643 -0.7600901630007534
420000000.0 -0.6174153851472248 0.46052876350012706
440000000.0 -0.5570391893791831 -0.5060780596975722
460000000.0 0.43857198563937966 -0.5847502205845215
480000000.0 0.636796629622906 0.07984479982222373
500000000.0 0.48423720951643123 0.008312538257738316
520000000.0 -0.3512604881041818 -0.23245914353213654
540000000.0 0.488722824059182 0.03442899654300114
560000000.0 0.3360871840652229 0.36223712199809416
580000000.0 0.2710319627473382 0.34973022856287894
600000000.0 0.429323198393943 0.001785509464332208
620000000.0 -0.3759367090471439 -0.07992953832170453
640000000.0 -0.3155769167892531 0.17628058562610832
660000000.0 0.32024389645577417 -0.1979164543681646
680000000.0 -0.1963337770768465 -0.29366639174970394
700000000.0 0.10622874645635998 0.3379562687589788
720000000.0 -0.29712257161506606 -0.13134474302069163
740000000.0 0.31496404189301835 -0.09948011140909668
760000000.0 0.2919158361105281 -0.06156998106632807
780000000.0 -0.27417770376535877 -0.05114406873326314
800000000.0 -0.028019393210992335 0.24999374386979215
820000000.0 0.19009617432398002 -0.09515043920662143
840000000.0 0.035693851433035634 0.20253904590387942
860000000.0 -0.14378287496831366 -0.1332970264895572
880000000.0 -0.16163960652120013 -0.050487691701804976
900000000.0 0.1341602224033894 0.05748350752354565
920000000.0 0.12348165035438646 -0.06344589537391024
940000000.0 0.13142579708276123 -0.010484896357320144
960000000.0 -0.006775088944343898 -0.09511452743483624
980000000.0 0.05260753917696619 -0.021491544025066193
1000000000.0 -0.003987732546509864 -0.03242513590181485
1020000000.0 0.03480754044995209 -0.021768564874267093
1040000000.0 -0.06054485103646502 0.030129076912980373
1060000000.0 0.10564022223875745 0.011376222465244404
1080000000.0 0.0005608443956270695 -0.15531602297480998
1100000000.0 -0.19750321727979117 0.004470266816013144
1120000000.0 -0.22551724990516822 -0.03656504916260368
1140000000.0 0.20320204097039868 -0.14840685935845813
1160000000.0 0.26856420228995737 -0.10218757028564127
1180000000.0 0.0344258200814651 0.30881984184651806
1200000000.0 0.05539530062132661 0.3222545458151081
1220000000.0 -0.24310108095511723 0.2259557962069074
1240000000.0 -0.3050115839721406 0.14306644892232082
1260000000.0 -0.3394711317092604 -0.013766984406630106
1280000000.0 -0.1733736760982386 -0.2908564001263361
1300000000.0 0.33265282478802055 -0.1231255152590198
1320000000.0 0.2693286139685352 -0.251243002081517
1340000000.0 -0.3277569661009715 0.16435612174472866
1360000000.0 0.09356160733530784 -0.3646395321323994
1380000000.0 0.30977601797286136 0.22567876617935195
1400000000.0 -0.3534763404103795 -0.1524751506180612
1420000000.0 0.10857007293732758 0.3559975789614774
1440000000.0 0.23448391289940718 0.27563117708788376
1460000000.0 0.32333035246310315 -0.16138384767168165
1480000000.0 -0.08992182362473952 -0.3401963215432838
1500000000.0 0.06590324668514595 0.3249853547874202
1520000000.0 0.2473460723179885 -0.18542936613019337
1540000000.0 -0.2691217401529474 0.07204566570710691
1560000000.0 0.24595499805931476 -0.01212190471123711
1580000000.0 -0.12010231522151908 0.16846294702638814
1600000000.0 -0.004028250517199481 -0.18094367997448838
1620000000.0 -0.14671739023391894 -0.010740492229409374
1640000000.0 0.06924286858960545 0.10592185682003212
1660000000.0 -0.00626591556229668 -0.1091714124222107
1680000000.0 -0.09293549268705888 0.002477925218282464
1700000000.0 -0.058637426575761015 0.04225571345189709
1720000000.0 -0.04543265132285558 -0.025196234956861113
1740000000.0 0.045862976023991246 -0.0012398609904593334
1760000000.0 0.047296927643855166 -0.0387071149094612
1780000000.0 -0.07142766289532892 -0.06115692928031564
1800000000.0 0.12431914723693945 -0.010857702863487917
1820000000.0 0.10913176204238112 0.11334462715172218
1840000000.0 0.15995221240884835 0.09581120568444432
1860000000.0 -0.20220662189055655 0.07365231715386461
1880000000.0 0.10300114169503984 0.21942857007238362
1900000000.0 0.22596258263559552 -0.14059087269064122
1920000000.0 -0.2750381305244123 -0.08617746953028114
1940000000.0 0.2983748628018916 0.022416527118014916
1960000000.0 -0.2413576748240553 0.19039536059282683
1980000000.0 -0.20301897887939657 -0.2377912373182196
2000000000.0 0.21137521010591426 -0.23178795860671556
2020000000.0 0.31255247706338307 -0.033876010377710986
2040000000.0 0.2691612347261564 0.16230715848633748
2060000000.0 0.26464441514967596 0.1662026594000253
2080000000.0 -0.2629791405757767 0.16056777566627112
2100000000.0 0.30777127336114546 0.018901309454239876
2120000000.0 -0.272760489399357 0.14558009545272269
2140000000.0 0.10948065727203257 -0.28572728546554693
2160000000.0 -0.28151805168506217 0.10869280853020359
2180000000.0 0.26239559049407113 0.13529650925793985
2200000000.0 0.280783573059512 0.03356871019714746
2220000000.0 0.09744164050461583 0.25547097813981884
2240000000.0 -0.26132504109371496 0.06130599859636676
2260000000.0 -0.25446045726187494 -0.062203785417912515
2280000000.0 0.23903252178544562 -0.08140269098908404
2300000000.0 0.12487640857205484 0.20833510422475746
2320000000.0 -0.22501390533356663 -0.05782591109486505
2340000000.0 0.21383907800141588 0.0736949311581604
2360000000.0 -0.11935712562324065 -0.19094800682374566
2380000000.0 0.2234541740486339 0.06585504463422417
2400000000.0 -0.15616263515517004 0.19275975108350632
2420000000.0 -0.14552503250769092 0.23294299764649953
2440000000.0 0.295568804351491 -0.06409467311407323
2460000000.0 -0.24657704533785801 0.22427578728471034
2480000000.0 0.3360898015068025 0.14442149406894708
2500000000.0 -0.34627375989073833 0.20079919481036526
2520000000.0 0.08185834747377849 -0.4320279852869965
2540000000.0 0.42674600778131166 0.21283109385843413
2560000000.0 -0.47942363893278755 0.17870087462590867
2580000000.0 0.2073057286345025 -0.501967168599604
2600000000.0 0.07609989524116502 0.5690616493803637
2620000000.0 -0.44742087822422744 -0.3961596087894948
2640000000.0 0.6000613638421652 0.14878830599950568
2660000000.0 -0.4706918040014753 0.42687728235237965
2680000000.0 -0.3108904002274526 -0.5679828930649554
2700000000.0 0.4842379847065008 -0.4466058614853266
2720000000.0 0.6647961377404055 -0.033045963102155906
2740000000.0 0.6561537046213392 0.13762824825383854
2760000000.0 0.6272632662298755 0.242594887226493
2780000000.0 -0.3489610147606396 0.5711075932823515
2800000000.0 -0.4636654695137942 0.4725881443538053
2820000000.0 -0.644956930951613 0.09936271554495137
2840000000.0 -0.14861870324344534 -0.6240163704808163
2860000000.0 0.5866832094584773 0.22381850342449164
2880000000.0 -0.600292850537933 -0.13029201610360738
2900000000.0 0.37107409443331346 0.4679264035500013
2920000000.0 0.23732517380584237 -0.5266122182621583
2940000000.0 -0.4739074066910534 -0.2875294707702489
2960000000.0 -0.4755747770950252 0.23735354194713007
2980000000.0 0.02942737709652846 0.5064516906504075
3000000000.0 0.4843233424381697 -0.01887493407010242
3020000000.0 -0.2501793746407757 -0.389042907958477
3040000000.0 0.1293235578028122 0.41398360666261963
3060000000.0 0.16926068734672547 -0.36753487589968037
3080000000.0 -0.3379430237672725 0.175760332006779
3100000000.0 0.2894982707889219 -0.21347516154751262
3120000000.0 -0.031262798804678076 -0.347131387926037
3140000000.0 -0.023870289307542782 0.3401767771452632
3160000000.0 0.04894830806112497 -0.3330755988898407
3180000000.0 -0.07480156891424694 0.32678668317665016
3200000000.0 0.038088960790373605 -0.3277170618316693
3220000000.0 -0.3083357300843275 0.06839572693235345
3240000000.0 -0.2594781109234609 0.15244784891332333
3260000000.0 -0.2845325632872209 -0.04395704441930946
3280000000.0 0.03778366561854665 -0.2678690055781987
3300000000.0 0.2566074994656929 0.007109270848185154
3320000000.0 -0.02649557011673974 0.23364495091969772
3340000000.0 -0.17312391707571984 -0.12203988353849783
3360000000.0 0.053185378071897264 0.1806133750048387
3380000000.0 -0.16194263001622364 0.014945334573183078
3400000000.0 -0.09878279199672715 0.09506973039987698
3420000000.0 -0.1068276449905516 0.06356683199970876
3440000000.0 0.1132404805196197 0.03177320994989465
3460000000.0 0.09093660105647358 0.05477869698921253
3480000000.0 -0.05284674170837579 -0.08165970280621587
3500000000.0 0.08148211943425145 -0.038996645593182555
3520000000.0 0.07668137039475659 0.014024153872946192
3540000000.0 -0.034715969772418864 -0.0641836722979185
3560000000.0 -0.06557361350837361 0.03801641044473309
3580000000.0 0.052389397687894905 -0.06820398566435854
3600000000.0 0.0007720355334761948 0.09384254164105861
3620000000.0 -0.1015156761132779 0.011776597871026893
3640000000.0 -0.09575830385538309 -0.05472182022023123
3660000000.0 -0.0003967236741978161 -0.11623263542478389
3680000000.0 -0.05410204824086548 -0.10199275618157354
3700000000.0 -0.07886911517798964 -0.07046498324138736
3720000000.0 0.04895089837270259 0.07934938855640009
3740000000.0 0.019600236900408248 -0.08103991146555865
3760000000.0 0.05738336120429038 -0.055255804102991204
3780000000.0 -0.06432415146305218 0.018247797043768787
3800000000.0 -0.006543238097131724 0.04969933837243594
3820000000.0 0.014659070071066956 0.03332968226174914
3840000000.0 0.04700569887967357 0.015690375833851824
3860000000.0 -0.07254978531313694 -0.021334294180270677
3880000000.0 0.0458698089645996 -0.08409882359875587
3900000000.0 -0.017527958272197965 -0.10162125001567021
3920000000.0 0.10152906614648291 0.024260876848530056
3940000000.0 0.09059788186179822 0.04783599574561118
3960000000.0 0.10139248014111465 -0.003112670014752772
3980000000.0 -0.08931527244618724 0.04290978556214834
4000000000.0 -0.026400504586512174 -0.08079786122471913
