!Created with skrf (http://scikit-rf.org).
# Hz S RI R 50.0 
!freq ReS11 ImS11
400000000.0 -0.7852407244653604 0.2544402425779737
420000000.0 -0.7476308899571755 0.14435964394401346
440000000.0 0.10990832710168963 -0.7412730363432413
460000000.0 0.4940954625782798 -0.5248699872091231
480000000.0 0.0002668181525181922 0.6422144167465292
500000000.0 0.18291835953000846 -0.4601364199653297
520000000.0 -0.0799024955990685 -0.40009972481823075
540000000.0 -0.09697585801173025 0.492539627956161
560000000.0 0.4187825294395645 -0.28476697882230473
580000000.0 0.29321441091953904 0.31760122870785473
600000000.0 0.03001075779886908 0.4365061619960171
620000000.0 0.2901176155649146 0.2630313964565283
640000000.0 -0.3426615760984226 -0.10032029412740834
660000000.0 0.19671980758849744 -0.3184684822433404
680000000.0 -0.34317380019810845 -0.007495041873806231
700000000.0 -0.34816194823308644 0.042528985196924295
720000000.0 0.08515537488152654 -0.31050122614210174
740000000.0 -0.3115317975511012 0.04855939353824752
760000000.0 -0.15058061043281115 -0.28621971103139754
780000000.0 0.30642802585698675 0.045812268388655895
800000000.0 0.23802703843200818 0.06337973655038458
820000000.0 7.603358442454429e-05 -0.21012096247661402
840000000.0 0.0062407685765421194 -0.19540073858185356
860000000.0 0.15708018085218164 0.06765592994825648
880000000.0 0.04002368710601686 0.17144097615535464
900000000.0 0.09885611405179186 0.12257492683003236
920000000.0 -0.1376081134803057 -0.03394074465427477
940000000.0 0.07176911609580143 -0.08826033023919973
960000000.0 0.033960073140774066 -0.08094963975921203
980000000.0 -0.0431414796132216 -0.04675523675579436
1000000000.0 -0.0359202170222533 -0.02846081098748186
1020000000.0 0.029726662469862403 0.03100584909003298
1040000000.0 -0.0009354638566382077 0.07858274139057893
1060000000.0 0.01123434718947211 -0.1175914343123021
1080000000.0 -0.14601848290625266 -0.09322369281707836
1100000000.0 0.0067093794180112 0.2103447099489159
1120000000.0 -0.14689133033427668 -0.1856927771481285
1140000000.0 0.17587293835837958 0.16862353048626466
1160000000.0 -0.03860556074314112 -0.26234003222607966
1180000000.0 0.10971015275595872 -0.2760816383245723
1200000000.0 -0.28745467610676223 -0.15572900363587328
1220000000.0 0.02469152947084753 -0.3364450333370737
1240000000.0 -0.25186470950389306 -0.2453249034101472
1260000000.0 -0.3510586022801369 0.03093493143015519
1280000000.0 -0.2073387623862429 0.28124158434531404
1300000000.0 0.005706999349280107 -0.3485889359945448
1320000000.0 0.20775029259016667 -0.3005493223177992
1340000000.0 -0.14807338109943627 0.3395970370431335
1360000000.0 -0.36014305551966913 -0.07149631685808835
1380000000.0 0.22659693504514328 0.29992196444281416
1400000000.0 -0.36421666647970885 -0.08937313164253753
1420000000.0 -0.321459456060954 0.17208573703920774
1440000000.0 -0.3410718292368156 0.12744208810572596
1460000000.0 0.3539399719034263 0.10099467350236606
1480000000.0 0.05478786002334084 -0.35922322769942333
1500000000.0 0.23558466229468303 0.24150391242596156
1520000000.0 -0.21151681917966766 -0.231525490610383
1540000000.0 -0.02468537189368985 0.2763145075380389
1560000000.0 -0.16389185850389373 -0.17597410300474914
1580000000.0 -0.1961532732482061 -0.017189095659214115
1600000000.0 0.17500222148154884 -0.011679117211889247
1620000000.0 -0.041021876421777306 -0.14088361513517494
1640000000.0 -0.12468157091500887 -0.010384051878733829
1660000000.0 -0.018002191960566256 0.10829028248987603
1680000000.0 -0.0952945334369678 0.002365825542992032
1700000000.0 0.03403925786996994 0.07010287465560264
1720000000.0 -0.03359432742029423 0.047855520109275185
1740000000.0 -0.04221808051067413 -0.014539909621994517
1760000000.0 -0.005060151683800657 -0.058658918163507864
1780000000.0 -0.08687729449081046 0.014774416898898787
1800000000.0 -0.11141397496349736 0.03735333282729388
1820000000.0 0.09575119377465621 -0.12651820501454378
1840000000.0 -0.06625058824196649 0.18634340085902787
1860000000.0 -0.04125322987681239 0.21881806435199685
1880000000.0 0.21633347643231174 -0.11596645967682342
1900000000.0 0.1129938046948608 -0.23914556332235704
1920000000.0 -0.2821423745364358 0.040113772521844004
1940000000.0 0.29611138728913067 0.013005836442712264
1960000000.0 -0.2691019444419585 0.14508346266041197
1980000000.0 -0.1605071696129419 -0.2660270077582876
2000000000.0 0.2912708267565881 -0.1110038459442499
2020000000.0 0.2864850895931635 0.13188008800546208
2040000000.0 0.2631019851989423 0.17801776774021
2060000000.0 0.26914738646636904 0.16204392164741352
2080000000.0 -0.2551312532172084 0.1756199895371588
2100000000.0 0.30787581092951244 -0.010168967837817167
2120000000.0 -0.2550023522692293 0.17603824172105734
2140000000.0 0.13629408855084996 -0.27291470696195136
2160000000.0 -0.30409902710476905 -0.017055512856137572
2180000000.0 0.24687552888695663 0.16546490397869495
2200000000.0 0.2771295844141626 0.05578691323921674
2220000000.0 0.16544244976880154 0.21737978808326383
2240000000.0 -0.2606428827689703 0.05842764306017423
2260000000.0 -0.24684458636453513 -0.09276630039913748
2280000000.0 0.1281188754731705 -0.21360194377586336
2300000000.0 0.1709641534058267 0.16614820820794368
2320000000.0 0.16140818289562758 -0.16242369940060192
2340000000.0 -0.026775327120096327 0.22925194779587324
2360000000.0 -0.20294996162805798 -0.11614767747742144
2380000000.0 0.1094140337305924 -0.20964522345187117
2400000000.0 0.18919282114051064 0.1582893726087084
2420000000.0 -0.03340555698570265 0.26675563872015234
2440000000.0 0.29880559636612575 0.013696417427260176
2460000000.0 -0.3338425759108994 -0.0259150551855776
2480000000.0 0.32548370934701965 0.1718899690017367
2500000000.0 -0.36744491101443394 0.16276258371814256
2520000000.0 0.04975549990945215 -0.44103938947433596
2540000000.0 0.4739465197164365 0.07018650218653788
2560000000.0 -0.40177445762088915 0.31766921220849315
2580000000.0 0.10895761754776193 -0.5330894996211194
2600000000.0 0.1038290384522123 0.5646176986094603
2620000000.0 -0.4327223510890565 -0.4152770544251911
2640000000.0 0.6166029330496269 0.04857497709534822
2660000000.0 -0.47338752068981393 0.42402929099977144
2680000000.0 -0.30050913341243835 -0.5732262086235275
2700000000.0 0.4176749331434674 -0.508543817205979
2720000000.0 0.652738565275053 -0.1278985785076702
2740000000.0 0.6700217965110249 0.018505730195375655
2760000000.0 0.6721786441782333 0.041949992103868
2780000000.0 -0.20648569658590135 0.6363859229687715
2800000000.0 -0.36007486684827533 0.5544709160011354
2820000000.0 -0.6083297128388597 0.23567316775263333
2840000000.0 -0.29079934724277084 -0.5712107414240648
2860000000.0 0.5961387983257637 0.20042949537319008
2880000000.0 -0.6048463931067072 -0.10238923314296118
2900000000.0 0.41380353606025216 0.4297296471810896
2920000000.0 0.2122929225801758 -0.5347571797650513
2940000000.0 -0.4583774069795658 -0.3073518604814822
2960000000.0 -0.43872346130655376 0.2925744417308175
2980000000.0 -0.11864740420068716 0.49098401077248516
3000000000.0 0.48220390768528365 0.04554287720229654
3020000000.0 -0.31596323502074974 -0.3355231092591764
3040000000.0 -0.023400711009050765 0.4325830533760247
3060000000.0 0.2611334999441389 -0.3100425976854818
3080000000.0 -0.3063041856316749 0.22706584773080551
3100000000.0 0.21329821641228192 -0.29200930635868194
3120000000.0 -0.21448299964895554 -0.27345853154297795
3140000000.0 0.08798223476146236 0.32804730936696747
3160000000.0 -0.049373626563387826 -0.32915021998253285
3180000000.0 -0.1275648424518548 0.3042841961659972
3200000000.0 0.24536132017924622 -0.21392178180134816
3220000000.0 -0.052638886516868766 -0.31175215143310203
3240000000.0 -0.30609319781368677 -0.006127406367484294
3260000000.0 -0.28705344689542756 0.032886723026521604
3280000000.0 0.013296163342704928 -0.2732357396654942
3300000000.0 0.2011136101805671 -0.1569530598302757
3320000000.0 0.043442784718126105 0.2276159975571696
3340000000.0 -0.20815381963119883 -0.011352380898102487
3360000000.0 0.09037254882931008 0.16037944488031253
3380000000.0 -0.0477649462819642 -0.15222585019341364
3400000000.0 -0.09641087865907846 -0.0979962959960775
3420000000.0 -0.11125684745427786 -0.059014035988103744
3440000000.0 0.11214680957133827 0.050960450172297556
3460000000.0 -0.093223586210074 -0.0561489945742329
3480000000.0 0.03562624440534304 0.08671202457849751
3500000000.0 0.06741497738578864 -0.05036461918411606
3520000000.0 -0.05428692323170456 0.049053443836290185
3540000000.0 0.06799060098795914 -0.02300202386554542
3560000000.0 -0.06720452357324319 0.036550737151952714
3580000000.0 0.08591129497371894 0.009009996956154655
3600000000.0 -0.09095366137177636 0.023470169749706258
3620000000.0 0.06116576429615604 0.0849890472366166
3640000000.0 -0.09616718936226619 0.04976210437565456
3660000000.0 -0.055374628717090285 -0.10083817664741099
3680000000.0 -0.0721429472573308 -0.08796251865508571
3700000000.0 0.08236233999050406 -0.06176497836032836
3720000000.0 -0.09399329413253407 -0.02133728740732264
3740000000.0 -0.05394556314566387 -0.06646186609992065
3760000000.0 0.0005836470600418045 -0.07588440034250282
3780000000.0 0.04737058864876006 -0.04965920218103459
3800000000.0 0.02871880834400255 0.04072407438113416
3820000000.0 0.03248410466256723 0.014007021083954069
3840000000.0 -0.044448560140154 0.019907667698900466
3860000000.0 0.03793303043458248 -0.06917765277368727
3880000000.0 -0.05907433562868327 -0.07602470568642643
3900000000.0 0.09744252919192291 -0.04032710618244162
3920000000.0 0.10101957502478173 -0.03615212368850501
3940000000.0 0.01830232329112775 -0.09979337714268102
3960000000.0 0.04716920307393013 -0.08754127650075787
3980000000.0 -0.0858652290216479 -0.04218486163543749
4000000000.0 0.08313922748759849 -0.028082028985380945
