!Created with skrf (http://scikit-rf.org).
# Hz S RI R 50.0 
!freq ReS11 ImS11
400000000.0 0.027565517462347807 -0.8219471132187349
420000000.0 -0.555028234008917 0.538326217992024
440000000.0 -0.46746490126005275 -0.5871141589715669
460000000.0 0.49542664020670696 -0.5351153307883231
480000000.0 0.6090685654124758 0.20741543177603203
500000000.0 0.4865457998227223 -0.040911810635454036
520000000.0 -0.3124155471111061 -0.2599576227032544
540000000.0 0.16571638183461482 0.4614122382471458
560000000.0 0.26491914463275745 0.4315442283868424
580000000.0 0.39937965106547374 0.20309775272966116
600000000.0 0.3533762149244738 -0.2525689671492479
620000000.0 -0.24828424264562296 0.28617675907431855
640000000.0 -0.35593535725982106 0.0397306453850406
660000000.0 0.33287439625344395 -0.1915322011517987
680000000.0 -0.22978937651332246 0.2616920304736903
700000000.0 0.08313167638750063 0.3320052935949661
720000000.0 0.06547535018644333 -0.3161304146749024
740000000.0 0.25905808104527384 0.20480823505348744
760000000.0 -0.12743830898509584 0.2799550174088383
780000000.0 -0.2618473026257739 0.11176373334733017
800000000.0 -0.09691659886671873 -0.23141237431864592
820000000.0 -0.16292394810871091 -0.12542326498597445
840000000.0 -0.19603842339452207 0.01563058598199067
860000000.0 0.11263702042139576 0.15599435762354733
880000000.0 0.15749119891975186 -0.08191086759084305
900000000.0 0.15200720754252373 -5.838591493276951e-05
920000000.0 -0.09080921633787147 0.11064072773127699
940000000.0 -0.10957380581011189 -0.06031928746456667
960000000.0 0.08735448626433456 -0.026864348165624993
980000000.0 -0.004103105606517722 0.05515594241719153
1000000000.0 -0.03038131052133283 0.012604673240693713
1020000000.0 0.02432405711098664 0.027124342101202566
1040000000.0 -0.009734914548108861 -0.0695693904426463
1060000000.0 0.025033139858351577 0.10875786517893506
1080000000.0 -0.14714531435724607 -0.048581154922704026
1100000000.0 -0.1779623760833533 0.06456511961780592
1120000000.0 0.04892762772227796 -0.22676779474979025
1140000000.0 0.15696949600686175 -0.20629748552742086
1160000000.0 -0.12759312458557148 -0.25085520577450715
1180000000.0 -0.17268487263283955 0.2513650795007015
1200000000.0 -0.27336710787135365 0.18204404755755776
1220000000.0 -0.1653776861065593 0.29162774971279615
1240000000.0 -0.30735648654654724 0.14047938469338558
1260000000.0 -0.3132981405708015 -0.13759702972954177
1280000000.0 -0.287034864784333 -0.18887062584796477
1300000000.0 0.23045970043897335 -0.26076377917118615
1320000000.0 0.3588284413925762 -0.06028604573740988
1340000000.0 -0.35973724438018007 -0.09834819240238174
1360000000.0 -0.258054900545836 -0.2762523461298859
1380000000.0 0.36052930372587877 0.12247730660802678
1400000000.0 -0.37312034320610754 -0.08288457229275946
1420000000.0 -0.16305531845026036 0.3361503323957975
1440000000.0 0.1504448511963955 0.33219533394213624
1460000000.0 0.2171133284689349 -0.2908036313548438
1480000000.0 -0.11937064685317021 -0.3316269642111197
1500000000.0 0.030833541383578952 0.32844017936526937
1520000000.0 0.2594525759979868 -0.16771197928921847
1540000000.0 -0.27578222726280915 -0.024258433644719028
1560000000.0 0.19068015134306973 0.15853930409218045
1580000000.0 0.018569553188458952 0.20776268563149253
1600000000.0 -0.05440839508061395 -0.17252093037758182
1620000000.0 -0.10522102309958561 0.10732816822857408
1640000000.0 0.11609471661351288 0.042458130944489456
1660000000.0 0.10768641075783275 -0.01641046519801085
1680000000.0 -0.08854711657268123 0.030876500771894733
1700000000.0 -0.06996317651357359 -0.000431232184309455
1720000000.0 0.021433813035278443 0.04989766522546392
1740000000.0 0.04024937669589829 0.02109446712961536
1760000000.0 0.05462480785550322 0.02440051394283306
1780000000.0 -0.005847071218824835 -0.09630158680896858
1800000000.0 0.07890786655525427 -0.09627853118344322
1820000000.0 0.018908714771259674 0.15543913929679284
1840000000.0 0.062249499389345035 0.17464559833429444
1860000000.0 -0.2068242936462097 0.0662758181642688
1880000000.0 0.1690493898619751 0.17349523050337268
1900000000.0 0.21645521764272727 -0.15020821304164161
1920000000.0 -0.2312573296439187 -0.17180588195888521
1940000000.0 0.2668278110823427 0.13852664605867313
1960000000.0 -0.1831929950781803 0.24859087338076066
1980000000.0 -0.269673270248172 -0.15803320135393267
2000000000.0 0.22894999962626159 -0.21303025312277377
2020000000.0 0.31419699207792817 0.004465775362047261
2040000000.0 0.27734681345154094 0.1479252187660019
2060000000.0 0.23386826624434456 0.2051253948392246
2080000000.0 -0.2872399624176082 0.11478171706206972
2100000000.0 0.3061777338858248 0.04738692176535094
2120000000.0 -0.2753755163251385 0.14591134893425334
2140000000.0 0.03337041779424231 -0.30294723661329453
2160000000.0 -0.24133052585340029 0.1781381153253203
2180000000.0 0.2366497571098666 0.17457102725336662
2200000000.0 0.2545731670394263 0.12020179720997051
2220000000.0 0.1553610600065853 0.2255402549973998
2240000000.0 -0.2537179826082243 0.08696913417727102
2260000000.0 -0.2407610203653857 -0.10347103346259448
2280000000.0 0.20193870438092373 -0.15260804364466996
2300000000.0 0.15530077906728101 0.186004320448427
2320000000.0 -0.15324610438718325 -0.1762404781964644
2340000000.0 0.22056368093536552 -0.05495480416169729
2360000000.0 -0.17062528775081667 -0.1443327561638122
2380000000.0 0.18044202929267716 0.14726231787114283
2400000000.0 -0.1155510137146061 0.22052817172782607
2420000000.0 -0.13527406299045164 0.23799372618405384
2440000000.0 0.3015534563990941 0.010814109087299276
2460000000.0 -0.27451418807703093 0.19050595131803927
2480000000.0 0.32856349107942034 0.16183760718164394
2500000000.0 -0.309318683092447 0.2540623107579263
2520000000.0 0.016289450120964635 -0.438697719477992
2540000000.0 0.41099963159498026 0.23820492622274964
2560000000.0 -0.4990742154177369 0.11460159719662202
2580000000.0 0.21914863944432456 -0.4982114235372105
2600000000.0 0.11014905652354148 0.5640675967477582
2620000000.0 -0.44399268259734387 -0.4006621398848903
2640000000.0 0.6032203285752007 0.1355825858202693
2660000000.0 -0.4743639325630275 0.4230626011286111
2680000000.0 -0.29152348192407057 -0.5784332267860675
2700000000.0 0.46057124695447993 -0.4703729832088958
2720000000.0 0.6641568758389187 -0.03981044408941966
2740000000.0 0.6540726715412245 0.14600340936956316
2760000000.0 0.6497814740432178 0.17529446338385107
2780000000.0 -0.33329822832574196 0.5803621266135247
2800000000.0 -0.4520094923621967 0.4837074802959293
2820000000.0 -0.6482726827167102 0.08107986401924666
2840000000.0 -0.21743845735028752 -0.603689909825375
2860000000.0 0.5991127461013568 0.18993177184111926
2880000000.0 -0.5825418337713896 -0.1956935290576798
2900000000.0 0.3892498371531758 0.4526842578390382
2920000000.0 0.23496624466985666 -0.526619370591347
2940000000.0 -0.40201663862506676 -0.38107159367649684
2960000000.0 -0.4834821376821201 0.21923002857818186
2980000000.0 0.04753715493471692 0.505752370502069
3000000000.0 0.4803571972969154 -0.07528405698116696
3020000000.0 -0.35243428691485 -0.2980054983211101
3040000000.0 0.09432352250905607 0.42321075204294595
3060000000.0 0.10966931523534429 -0.38992275345790534
3080000000.0 -0.3256608032500537 0.19598778707953662
3100000000.0 0.3415492612856647 -0.11320752465579084
3120000000.0 0.0324516028072794 -0.34717591918828233
3140000000.0 -0.058202273393865335 0.3356142949442019
3160000000.0 0.06677634200335136 -0.33069807072668667
3180000000.0 -0.05069414063911043 0.3318177690694126
3200000000.0 0.006688135052518494 -0.32971323266281344
3220000000.0 -0.31650607927214375 -0.014246245924528528
3240000000.0 -0.24943996635171295 0.1679219697172273
3260000000.0 -0.2816359555418033 0.060602803619798376
3280000000.0 -0.017364327348239998 -0.2697343409401698
3300000000.0 0.2533248371666835 -0.01613222947107315
3320000000.0 -0.17911294737071784 0.15177614324615707
3340000000.0 -0.1869217118176261 -0.10644906069961017
3360000000.0 0.1685837359478877 0.08388792365552641
3380000000.0 -0.15402005301375477 0.05324747206700947
3400000000.0 -0.08987103965320967 0.10268495449615883
3420000000.0 -0.1114511512489673 0.05286485686621607
3440000000.0 -0.004088740802884819 0.11792359586071828
3460000000.0 0.10998279297196266 0.0006316285592941855
3480000000.0 -0.07337267506405036 0.06335168821886007
3500000000.0 0.08622504825953427 0.006493069755912811
3520000000.0 -0.0317799625784227 0.06974156681873671
3540000000.0 0.017246350381376944 -0.0722245572681084
3560000000.0 -0.025724937367606095 0.0732306789654707
3580000000.0 -0.08120614929685396 0.023260698232406812
3600000000.0 -0.07490595947903672 0.05161329821400808
3620000000.0 -0.10431167093858443 0.003937652358567425
3640000000.0 -0.11041376134374165 0.006784030610068552
3660000000.0 0.019562407833393525 -0.11567385008554792
3680000000.0 -0.02988662100134992 -0.11170524122097672
3700000000.0 -0.048673539844353755 -0.09101944249885734
3720000000.0 -0.08715703618832663 0.03802340814325385
3740000000.0 -0.021075322479488488 -0.08158568769583319
3760000000.0 0.07697623573273472 -0.016040533057615512
3780000000.0 0.037275063992171474 0.05780698883119198
3800000000.0 -0.03418003245830476 0.02926820025964429
3820000000.0 -0.030436679196627552 0.02120459680550187
3840000000.0 -0.05087118084338264 0.010197483541338112
3860000000.0 -0.020388544910035028 0.07082955950004421
3880000000.0 0.04624830455973376 -0.08104302726261717
3900000000.0 0.0871955385198035 -0.050565946030796644
3920000000.0 -0.07182808803638636 0.07926475814128035
3940000000.0 0.08681655389457632 -0.058485579118279035
3960000000.0 0.06358910256467973 -0.07644728376041858
3980000000.0 -0.02649959211212025 0.09390139236865681
4000000000.0 0.05680203857145652 -0.0619619422353346
