!Created with skrf (http://scikit-rf.org).
# Hz S RI R 50.0 
!freq ReS11 ImS11
400000000.0 -0.8065347516008441 -0.1706663109951741
420000000.0 -0.44661869584782316 0.6188589394721231
440000000.0 0.06338425105401664 -0.7451639307622961
460000000.0 0.5751558605506135 -0.4544258467477963
480000000.0 0.31113169198600155 0.5704346628989418
500000000.0 -0.39719742524940826 -0.27803131123796815
520000000.0 0.38505478480155203 0.10528388071449313
540000000.0 0.09115322265427404 0.4932425011601479
560000000.0 0.4588190058618805 0.18346668373667854
580000000.0 0.3994858831262701 -0.16243755122105016
600000000.0 0.23693739629864852 0.36758106382083117
620000000.0 -0.3008333915892947 0.23046496653853712
640000000.0 -0.3199856098782069 -0.14653914807571192
660000000.0 0.3860921448106357 -0.01675846476551814
680000000.0 -0.3261335195673222 -0.0994947620675222
700000000.0 0.012226089418069032 -0.359853696083951
720000000.0 -0.3450238351670215 -0.01456063593324762
740000000.0 -0.2848784538666471 -0.17062485256988094
760000000.0 -0.019762751801858665 0.2974693384549388
780000000.0 0.07516012191290335 0.27864210696078745
800000000.0 -0.2395602721434416 -0.022434125419440436
820000000.0 0.20089317606785434 -0.04499524441119497
840000000.0 0.11929137532862373 0.1571346258724932
860000000.0 0.18216137803882193 0.03804585450698552
880000000.0 -0.05160937597485692 0.16382478302284256
900000000.0 0.09180695904564848 0.11763978748713502
920000000.0 0.13162733432243776 0.06768214857318679
940000000.0 -0.062476434046239586 0.1225268436063987
960000000.0 0.032100927932269686 -0.08934026581281418
980000000.0 -0.0389651842811561 0.02813605579576546
1000000000.0 -0.032253419824473675 0.013759434932460997
1020000000.0 0.029231623429503636 0.026093075913464978
1040000000.0 -0.050313175432619296 -0.054439619651060304
1060000000.0 -0.12084073231324123 0.014601737797056744
1080000000.0 -0.16662747146045126 -0.00014502567632915787
1100000000.0 0.1658522236870778 0.06873165920188401
1120000000.0 0.21529689925319512 0.01769930105994826
1140000000.0 0.24779062983533937 0.07673623201050164
1160000000.0 0.23208766371794076 -0.17557126670685308
1180000000.0 -0.08718339821260279 0.29994854453661
1200000000.0 0.2286992774641746 0.23810139675520478
1220000000.0 -0.046574419387911 0.3304041355412745
1240000000.0 0.04202577070332111 0.33052535982946146
1260000000.0 -0.03915136035870686 -0.3291481327952502
1280000000.0 0.12689747047306493 -0.3178328643070017
1300000000.0 0.3330016049341812 0.12318144631989077
1320000000.0 0.1433836751045862 -0.3406665526213602
1340000000.0 -0.15951372774385872 0.3343506754849768
1360000000.0 -0.20232086198724597 -0.31190515577699457
1380000000.0 0.2853848277344741 0.25027335481975677
1400000000.0 -0.2452239217033552 -0.2883864340368109
1420000000.0 -0.18004205400016574 0.3298121451950021
1440000000.0 0.3126057085524678 0.19175393320449033
1460000000.0 0.1118474715859896 -0.3425034873323877
1480000000.0 0.019428073308543996 -0.3497649505442723
1500000000.0 -0.13872046830234497 0.30030770639961635
1520000000.0 0.06277157640015278 -0.30977444036203095
1540000000.0 0.01576603830614649 0.27707692994428773
1560000000.0 0.22941593019270795 0.062215661340672225
1580000000.0 0.0646813300306366 -0.1972489552108873
1600000000.0 0.17009978387958613 -0.07886090173591077
1620000000.0 -0.05622582213824122 0.14462889206549737
1640000000.0 -0.01124613396692557 -0.1266001248540271
1660000000.0 -0.09229085739183446 -0.052968213009239214
1680000000.0 0.08659726278521976 0.01737765147380842
1700000000.0 -0.06897243502504882 -0.004286173448551615
1720000000.0 0.04744807448341841 -0.02330648735340096
1740000000.0 0.04677390804140672 0.007983888983311604
1760000000.0 -0.0582607540429593 0.03293295249931799
1780000000.0 0.0765647432089355 -0.051465510111254054
1800000000.0 -0.0940546251328803 -0.0690488240203149
1820000000.0 -0.12692893596618315 -0.0780380752032061
1840000000.0 -0.18200733134573285 -0.052799360700059916
1860000000.0 -0.20452786210743357 0.08078654961505011
1880000000.0 0.22232604493301028 0.10405027137702795
1900000000.0 0.23528667173902418 -0.13101973244632462
1920000000.0 -0.24709288432579454 0.15272940986979902
1940000000.0 0.19963864387107347 -0.22210583546052332
1960000000.0 -0.08762884765485073 0.2905929519547234
1980000000.0 -0.10117821864705562 -0.28850852935673754
2000000000.0 0.2845837887917497 0.129313970368998
2020000000.0 0.1768735728126223 0.2631872178236384
2040000000.0 0.2390583392688008 0.2115479968061989
2060000000.0 0.30302373088507656 0.08441639494576639
2080000000.0 -0.1337286372582673 0.27917472980800495
2100000000.0 0.25345634274112905 -0.1714780389243505
2120000000.0 -0.13264660041212611 0.27596186608244744
2140000000.0 0.09372117283331177 -0.2886652296852078
2160000000.0 -0.2869691310104719 0.09283397986807307
2180000000.0 0.2350628325135753 0.17879686464599934
2200000000.0 0.2775692538991598 0.06020907776469994
2220000000.0 0.1287207947331628 0.24351301168519002
2240000000.0 -0.2089235853659302 0.16986755109280496
2260000000.0 -0.25903488675919495 0.015558558938832841
2280000000.0 0.25015217600738415 0.018321868661165013
2300000000.0 0.023082611399518907 0.2429980194660505
2320000000.0 -0.11746493175777574 -0.20254032406316383
2340000000.0 0.2091509206634674 -0.09275002887649353
2360000000.0 -0.18640200115066058 -0.12152655655090734
2380000000.0 0.10610597230277138 0.20407819984381514
2400000000.0 -0.24381473021612976 0.048531755882553
2420000000.0 -0.10297481858550062 0.25541742860068056
2440000000.0 0.26154760328190696 -0.15380886267977958
2460000000.0 -0.1732004264049386 0.28503093251660055
2480000000.0 0.3632671957177055 0.05022809303715057
2500000000.0 -0.25297305816621457 0.30811834774107233
2520000000.0 0.08957873603108056 -0.42751117277271156
2540000000.0 0.33918131109747335 0.33477885538004565
2560000000.0 -0.4882892360278686 0.15968386340553273
2580000000.0 0.21863576695564754 -0.4986146391139931
2600000000.0 0.10521471786166543 0.5655942078734583
2620000000.0 -0.43918715469883346 -0.40764714568876814
2640000000.0 0.61085968055095 0.09366372001243845
2660000000.0 -0.4732666390174844 0.42211413810907317
2680000000.0 -0.28697361659144116 -0.5798952617527513
2700000000.0 0.4611110301830515 -0.4693541874772316
2720000000.0 0.6624842424184202 -0.059640395003083865
2740000000.0 0.6594485247212785 0.11729339710332792
2760000000.0 0.6621674131539195 0.1209229826827077
2780000000.0 -0.26242463532436516 0.6157805397842921
2800000000.0 -0.41502219291704856 0.5153470982185747
2820000000.0 -0.6376620601910328 0.139313972418928
2840000000.0 -0.2333307446115417 -0.5968959060140212
2860000000.0 0.5841778715012451 0.2314219487252626
2880000000.0 -0.5906313120045618 -0.16674568792639624
2900000000.0 0.3839366084363716 0.4582326533381025
2920000000.0 0.24425191593231743 -0.5221084030931434
2940000000.0 -0.40710038185067 -0.3754394830646159
2960000000.0 -0.4565145824301737 0.2705310583077711
2980000000.0 0.06688098465068325 0.5029783963021003
3000000000.0 0.46929825576424117 -0.12443535062196166
3020000000.0 -0.2928597435747509 -0.35333338641509965
3040000000.0 -0.10420336792902715 0.420870708309091
3060000000.0 0.17003044140755164 -0.36803684198895625
3080000000.0 -0.28526394512035863 0.2525214856808756
3100000000.0 0.27710020559064874 -0.22873435716964946
3120000000.0 -0.06988336736288664 -0.34097963920571334
3140000000.0 0.008980676661353265 0.3418389533174098
3160000000.0 -0.000546198903463503 -0.33777491909021695
3180000000.0 -0.0697693325813021 0.32742956673669543
3200000000.0 0.053803339920472565 -0.3241269364063538
3220000000.0 -0.2914125321885152 -0.1251476196159497
3240000000.0 -0.25260658572510825 0.1636671902724555
3260000000.0 -0.28261391032709887 -0.04941583945388863
3280000000.0 -0.06659726904795213 -0.26198508438815427
3300000000.0 0.253407868236973 0.0035453092045203073
3320000000.0 -0.18279474119844394 0.1443662600413539
3340000000.0 -0.11642621892402756 -0.1787799486909501
3360000000.0 0.16576109621032573 0.09182342701742166
3380000000.0 -0.1464499876458173 0.06451167687354675
3400000000.0 -0.07963636741712249 0.10963621812292093
3420000000.0 -0.06106235205422046 0.10565494039794579
3440000000.0 0.07920691519427686 0.08697953363713502
3460000000.0 0.10640866892056391 -0.011579546816473753
3480000000.0 -0.09615873201811358 -0.007659829799265477
3500000000.0 0.0833507782925361 0.032002234815382856
3520000000.0 -0.000500095017592625 0.07967282017160261
3540000000.0 -0.017661332379022513 -0.07262542334052642
3560000000.0 0.028207850691263203 0.07447203905963594
3580000000.0 -0.0664751089504829 -0.050357412086855916
3600000000.0 -0.06104621548257668 0.06825501382181254
3620000000.0 -0.08239366223537258 -0.05769876165769187
3640000000.0 0.06379385586387055 -0.0859909978685149
3660000000.0 0.11762777425809527 0.01306389962557534
3680000000.0 -0.10737084540673945 -0.04465830961474279
3700000000.0 -0.028118230904740336 -0.09927189309306579
3720000000.0 0.04430510233425032 0.0833926601480099
3740000000.0 -0.044808812898634275 -0.06778701434618767
3760000000.0 0.03531288509026577 -0.0683266294745322
3780000000.0 -0.002222833726259811 0.06764810741884288
3800000000.0 0.038905986240984444 0.023534794637062206
3820000000.0 -0.026531093440412858 -0.02623483900712114
3840000000.0 0.013598971534997591 0.047230126113469585
3860000000.0 -0.07255177002897022 0.005651834834857934
3880000000.0 0.05088680131752185 -0.07703375641603291
3900000000.0 0.04995338641422709 -0.09065873373447193
3920000000.0 0.10275616824791736 0.028513733975858987
3940000000.0 0.10049539471479191 -0.02252115402860539
3960000000.0 -0.013624102663807647 -0.10156970151984096
3980000000.0 0.06516189879738751 0.0698915949244234
4000000000.0 0.03444240966509171 -0.07461168638790136
