!Created with skrf (http://scikit-rf.org).
# Hz S RI R 50.0 
!freq ReS11 ImS11
400000000.0 -0.8204311332177046 0.10313535249570466
420000000.0 -0.7077503364640035 0.2793050054393303
440000000.0 0.09643387947452862 -0.7433552352644713
460000000.0 0.3733930057568045 -0.6166756889296396
480000000.0 0.3132624528174798 0.5610757087359682
500000000.0 0.18676859712582042 -0.4584508089514819
520000000.0 0.2852229393709331 -0.28962459771430965
540000000.0 -0.2717662948730887 0.42305577566440106
560000000.0 0.50441323381841 0.03898329094736723
580000000.0 0.4410385753064518 0.017260176797656058
600000000.0 0.31198172509667843 0.3026718402978146
620000000.0 0.32203567791174786 0.20842257732855726
640000000.0 -0.1831154792630974 -0.29597388468911906
660000000.0 0.3654784782939231 -0.07255355397715653
680000000.0 -0.3440442717484031 -0.05752494713943709
700000000.0 -0.336461002744862 -0.10018041359504237
720000000.0 -0.028456795354434964 -0.3221331154687092
740000000.0 -0.3159765611856231 0.07432273908766296
760000000.0 -0.3034943025654519 0.09669619734339899
780000000.0 0.1744257982817065 0.25054386271274615
800000000.0 -0.10781158683015815 0.22069656392147483
820000000.0 0.1589556549111773 -0.142321876910474
840000000.0 -0.17441148087014902 -0.09622320043479675
860000000.0 0.10604548516832185 -0.14197268371544053
880000000.0 -0.1606612412856727 0.06689682125472758
900000000.0 0.0665317241917149 0.12849434731032977
920000000.0 -0.0980799694516485 0.10130382224709394
940000000.0 0.00575821293384156 0.12204530951833374
960000000.0 -0.07299139223453478 -0.0501615316908234
980000000.0 -0.03717563684623101 0.03692560290527462
1000000000.0 0.031900599821766046 0.025379218699284892
1020000000.0 -0.01604744857962296 -0.035497549012444965
1040000000.0 0.03301712590645787 0.07220465740843071
1060000000.0 -0.11843090566740627 0.00045919405755255637
1080000000.0 -0.1559275894193532 0.06570845367746685
1100000000.0 0.13456110224185344 0.14704215693703424
1120000000.0 0.20675399065182742 -0.10388012252421822
1140000000.0 -0.06800388950539572 0.23501364794614918
1160000000.0 0.24500140544460383 0.11114319332642464
1180000000.0 0.09009305683336256 -0.28721775114080605
1200000000.0 -0.32999789465557283 -0.01910781815729073
1220000000.0 -0.050195107311583324 -0.333982661550319
1240000000.0 -0.12472004479162509 -0.3298029544566931
1260000000.0 -0.34611088537981216 0.08603692663568308
1280000000.0 -0.056934318676425344 0.34999247164302055
1300000000.0 -0.3254092298511136 -0.11391904759487902
1320000000.0 0.08695098344764347 -0.3492547582249372
1340000000.0 -0.3234643106278198 0.1707100147559641
1360000000.0 -0.31534517774640447 -0.19869193386302064
1380000000.0 0.3562385162724796 0.11346123870109448
1400000000.0 -0.2925141797401469 -0.2275731804107179
1420000000.0 -0.365421639559016 0.004246829378582389
1440000000.0 -0.36765662095760776 -0.014551946241425952
1460000000.0 0.3736585277116063 0.0041676334044909195
1480000000.0 -0.2631454925011997 -0.2458997660252842
1500000000.0 0.23476842151813665 0.24001630389774758
1520000000.0 -0.16980601306194332 -0.2620194802491219
1540000000.0 0.006526440580603861 0.27518204331794566
1560000000.0 0.23330419264992144 -0.055520663092974265
1580000000.0 -0.18166545589863398 -0.09552512351456305
1600000000.0 0.012303627549854628 -0.1834183529945438
1620000000.0 0.134516503305052 0.054690760270088165
1640000000.0 -0.11168931936310929 0.03756485168149548
1660000000.0 -0.1048651880320551 0.00042688227279925124
1680000000.0 0.08073392435087919 -0.05279916371937704
1700000000.0 0.06700671968121351 0.04070399598144744
1720000000.0 -0.04732418123270911 0.030972216412126944
1740000000.0 -0.0018201454932087653 0.044660486480853204
1760000000.0 0.054548378734842896 0.018686250828995096
1780000000.0 -0.0898197527819092 0.015411626484355598
1800000000.0 -0.016669915260106364 0.12108593573100239
1820000000.0 -0.08199847977611581 -0.13254475255777215
1840000000.0 0.0767751086367154 0.17886378819900137
1860000000.0 0.0023830355301829643 0.22302531814136342
1880000000.0 0.22810408987174838 -0.0742408017570763
1900000000.0 0.19535898169592264 -0.17371976228840846
1920000000.0 -0.18360240804685027 -0.21904508729186883
1940000000.0 0.27729678775759153 0.1156033765803211
1960000000.0 -0.18895515383806466 0.240735252128178
1980000000.0 -0.08198983837129342 -0.30049591731770225
2000000000.0 0.30975885664229763 -0.04308991910585829
2020000000.0 0.30425158784388656 0.09127809379396443
2040000000.0 0.3174509656910836 0.01731467466681634
2060000000.0 0.24356716670680348 0.1962446220203833
2080000000.0 -0.213923044038708 0.22700049206980816
2100000000.0 0.2576061922661385 -0.1652974542083457
2120000000.0 -0.257688990620847 0.16762620108242596
2140000000.0 0.19571058539612046 -0.2324740637859643
2160000000.0 -0.3051146733531871 0.007721867081411136
2180000000.0 0.20284677379622373 0.21676377303613797
2200000000.0 0.2776434019013255 0.0531598588831495
2220000000.0 0.07071095357978623 0.2646434178016668
2240000000.0 -0.18183380233046031 0.19705048725291374
2260000000.0 -0.24922737117933258 -0.07644406570085821
2280000000.0 0.21604240620891618 -0.12354388200791319
2300000000.0 0.09208524828419219 0.22213209399587858
2320000000.0 0.1520676602567053 -0.17679756118777212
2340000000.0 0.18302136407509528 0.14037479083376683
2360000000.0 -0.1710444940739347 -0.15389964022726402
2380000000.0 0.2124019258988448 -0.10296867235003589
2400000000.0 0.15348125484583902 0.19504671760813405
2420000000.0 0.08108894452705684 0.2576667441575955
2440000000.0 0.28271916553622745 -0.09194314878665588
2460000000.0 -0.33124933771795234 0.01107995694878265
2480000000.0 0.16475483592794676 0.32758706901442686
2500000000.0 -0.4021927366523139 0.05053929790436073
2520000000.0 -0.057388323077033336 -0.44240014948983764
2540000000.0 0.4785064886115748 -0.02456813630348619
2560000000.0 -0.40791632825181057 0.3087002913856753
2580000000.0 0.16209645149960275 -0.5191754600153385
2600000000.0 0.1407141603447995 0.5569521236812824
2620000000.0 -0.4728697448370674 -0.3684438505373365
2640000000.0 0.6153418495457972 0.05385709919919556
2660000000.0 -0.46279234158083704 0.4341928463340744
2680000000.0 -0.28036105195886 -0.5837373900922468
2700000000.0 0.4163999189267334 -0.510510070324869
2720000000.0 0.6468167186963312 -0.15622100249529092
2740000000.0 0.6697668680883242 -0.010698942820857526
2760000000.0 0.6734410761485505 0.014594182488638675
2780000000.0 -0.20389013741249998 0.6371500599371438
2800000000.0 -0.3663731358748345 0.5505030593051424
2820000000.0 -0.6100852753374455 0.23164084322326758
2840000000.0 -0.3026014570963711 -0.5652291664821462
2860000000.0 0.6186971635680646 0.11023350812502403
2880000000.0 -0.6121479793055014 -0.0453951397247496
2900000000.0 0.4319749310873239 0.4104757812919315
2920000000.0 0.1318270965404144 -0.5591750558014823
2940000000.0 -0.44982038872526897 -0.3172418304426115
2960000000.0 -0.48929850954619386 0.1990116903302646
2980000000.0 -0.11989323844017155 0.49112176154864023
3000000000.0 0.48403876619049246 0.03577864274243605
3020000000.0 -0.22738030029284587 -0.40078048065776717
3040000000.0 -0.0016084175938241446 0.4343177737003937
3060000000.0 0.17583406872895602 -0.3651134923067076
3080000000.0 -0.2733275920958874 0.26523866138925056
3100000000.0 0.15604857542882333 -0.324729512508451
3120000000.0 -0.07802512426086211 -0.33683542600585104
3140000000.0 0.038200941713053244 0.3384560963729355
3160000000.0 -0.09699227844385096 -0.31904907811597655
3180000000.0 -0.12843624318698574 0.3031344325743493
3200000000.0 0.29848001718079953 -0.1312097411558739
3220000000.0 -0.1415992960709902 -0.28374126172566705
3240000000.0 -0.30482490325840955 -0.012861069552170548
3260000000.0 -0.28763194222080696 -0.045760940261260014
3280000000.0 -0.057879652426191856 -0.2668059651493356
3300000000.0 0.174295797915145 -0.18505393257347688
3320000000.0 0.0830141160449581 0.21622527893646126
3340000000.0 -0.19371666456439793 -0.07344409474996351
3360000000.0 0.0003178246292248394 0.18335226468447888
3380000000.0 0.08501674208507985 -0.13733518280809687
3400000000.0 -0.13543280219966677 -0.039121546439781565
3420000000.0 -0.10647329007322352 0.068865147039037
3440000000.0 0.11635549241173582 0.03142614629939777
3460000000.0 -0.10460151403544693 -0.025867250109028826
3480000000.0 -0.018801733541305512 0.09044402351820456
3500000000.0 0.07479429553897599 0.038397276917982046
3520000000.0 -0.07088173547040218 -0.022490543736599252
3540000000.0 0.0021269781134800035 0.07300796064832456
3560000000.0 -0.06231590475908353 0.05111726882500805
3580000000.0 0.02790793452693728 -0.08246130727191778
3600000000.0 -0.03405859467614395 0.08670265437002077
3620000000.0 0.041563485439682406 0.09644923623398952
3640000000.0 -0.08730426844799799 0.06372008362982381
3660000000.0 -0.08391015574766815 -0.07755198529804205
3680000000.0 -0.08259866320574201 -0.07598680354979094
3700000000.0 0.10040429733707583 0.014085063512815995
3720000000.0 -0.03292768379569318 -0.09116586241665156
3740000000.0 0.0453262552435603 -0.07417141072687276
3760000000.0 0.014002651067872447 -0.07789725737146243
3780000000.0 0.01307458877379553 0.06779886695211292
3800000000.0 0.04477619538608489 0.011753285315422326
3820000000.0 0.03233912500530714 0.008417597894892494
3840000000.0 -0.05100542863741657 -0.009720122558588678
3860000000.0 -0.05299276633830933 -0.05980802279643467
3880000000.0 -0.09539254727154378 -0.015040101226193689
3900000000.0 0.07185858032701176 -0.0747019336673088
3920000000.0 0.10720702797576671 -0.001284333854689869
3940000000.0 0.016006939120512157 -0.09937825995219231
3960000000.0 0.09866527083097579 -0.007688526311219345
3980000000.0 -0.08451926678538028 -0.04687089570457258
4000000000.0 0.08053591931853457 -0.03457118306942529
