!Created with skrf (http://scikit-rf.org).
# Hz S RI R 50.0 
!freq ReS11 ImS11
400000000.0 -0.796068582634182 -0.227876037758928
420000000.0 -0.4419013403830763 0.6253144213184892
440000000.0 -0.026503295493875728 -0.7431049302051358
460000000.0 0.6917013157865929 -0.2581072166365989
480000000.0 0.4441282650841444 0.47448514642773393
500000000.0 -0.395024350981601 0.28065037265751214
520000000.0 -0.1498559549458762 0.3618568156745001
540000000.0 0.20906043328236484 0.463739220975596
560000000.0 0.2354809151869039 -0.42861038296832954
580000000.0 -0.28525089904991446 0.32159131939635743
600000000.0 -0.42135444579693165 0.08519836357837073
620000000.0 -0.2903950626020163 0.24794143784276781
640000000.0 -0.23493192481810998 -0.2571535977136025
660000000.0 -0.23074676880512063 0.31733220108667715
680000000.0 0.11195879015314544 -0.35302741500249635
700000000.0 -0.12239357025393727 0.3488127738650176
720000000.0 0.17182792073497236 0.30085415911517965
740000000.0 -0.05478349082721645 0.3238420111291703
760000000.0 0.28652604602217424 0.05052745034142351
780000000.0 0.08125282423319484 0.2652183213842209
800000000.0 0.21151797271136738 -0.09214134813923179
820000000.0 -0.03267183475013797 0.20844131546813383
840000000.0 0.10554426724441057 0.17356136338558992
860000000.0 0.15301893301942127 -0.0924974495022615
880000000.0 0.1134058878879191 -0.13531147535861537
900000000.0 0.10188759638592576 0.11908762375565547
920000000.0 0.029544928573271543 0.14808841477828108
940000000.0 -0.00431614548455722 0.13426761232591913
960000000.0 -0.018133084881322734 0.10063162399143256
980000000.0 0.04169277842628683 -0.042873341366806775
1000000000.0 -0.009746911940235019 0.035930294167668346
1020000000.0 0.04407281796210795 0.01825023709242469
1040000000.0 0.017068620848155882 0.06813272705149431
1060000000.0 0.09978552092389595 -0.013487999574837487
1080000000.0 0.007830528493977022 0.1479508935721916
1100000000.0 -0.18858269567091282 -0.003352350079548898
1120000000.0 0.16460199930635047 0.1454711711311307
1140000000.0 0.24902736455441302 0.08974482299405542
1160000000.0 0.10427360574851442 -0.27514632155608615
1180000000.0 -0.07448645484221159 0.30178416714786876
1200000000.0 0.06509962821800526 0.32572841809961744
1220000000.0 0.15336708473016272 0.3025517704914756
1240000000.0 0.268373127145269 0.20568491365383182
1260000000.0 -0.2660347995933958 0.1946725139132698
1280000000.0 0.04753398686748034 -0.3262639784975217
1300000000.0 0.12678833624779237 0.32182759936900385
1320000000.0 0.269242289414591 0.2537114757639846
1340000000.0 -0.371814187159268 -0.07218140689446002
1360000000.0 -0.3471521582445 -0.1589106007512851
1380000000.0 0.36685849199270637 -0.09017510600959916
1400000000.0 -0.2557163066367723 -0.2776278013699709
1420000000.0 -0.08618588198734689 0.3675856428664849
1440000000.0 0.324133377462166 0.15885272852695267
1460000000.0 0.23013766666138907 -0.2756415151665161
1480000000.0 0.003466669628097281 -0.3530930937740566
1500000000.0 -0.08895841457019547 0.3169221117084585
1520000000.0 0.29970909262869055 -0.09667552543707505
1540000000.0 -0.15792896355874317 0.23120927229501193
1560000000.0 -0.030264763582498355 -0.24699304661413574
1580000000.0 0.053194504258049204 0.19758458177864824
1600000000.0 -0.058395135250583076 -0.16401235582608337
1620000000.0 -0.08956621444891931 -0.11287830332112458
1640000000.0 -0.11131408239019394 -0.06073428282722615
1660000000.0 -0.10905098433338697 0.012029447837737432
1680000000.0 -0.09788797424298905 0.0010693349080877234
1700000000.0 -0.07625961554755649 0.012406755830750396
1720000000.0 -0.0332475599344267 -0.0463530461036702
1740000000.0 -0.04380473125946595 -0.0017220532074032637
1760000000.0 0.017819920869094806 -0.05375370246824098
1780000000.0 0.00652338796499845 -0.088640412883842
1800000000.0 0.0026285542234228913 0.12045916626222065
1820000000.0 -0.12281926691464383 -0.09407685652297298
1840000000.0 -0.18145890733702524 -0.06810605185539342
1860000000.0 -0.18341627508313466 0.1308955760024028
1880000000.0 0.10864583662827265 -0.22168020718620532
1900000000.0 0.015649707024284587 -0.26511852907034056
1920000000.0 -0.20633058663266032 0.19872225179653802
1940000000.0 0.24882826104585024 -0.1633303385156439
1960000000.0 -0.09050476070624827 0.29305536470738974
1980000000.0 -0.3048257033185347 0.029443956548760458
2000000000.0 0.21945060626416468 -0.2097596792989744
2020000000.0 -0.12936207541431602 0.2734452705685655
2040000000.0 -0.29411301221480135 -0.11436890862163822
2060000000.0 -0.3182606340447904 0.05780269792427531
2080000000.0 -0.1845625272964593 0.26658400941898835
2100000000.0 -0.10085344285142116 -0.2980421012182365
2120000000.0 0.22589227958275684 0.21061889574896386
2140000000.0 -0.2105629716338256 -0.21495571600656582
2160000000.0 -0.19172002383621772 0.22568910113896112
2180000000.0 0.2433436384555406 0.16466376627771753
2200000000.0 0.2702383662583325 0.0735860845676089
2220000000.0 0.019879626901151762 0.27098559517381515
2240000000.0 -0.22611614353428677 -0.14695096116039125
2260000000.0 -0.19924062195330752 -0.17521365522527557
2280000000.0 0.18387117093576202 -0.17548720173726864
2300000000.0 0.1451592390126418 0.1957348097421408
2320000000.0 -0.0988546015614669 -0.21106527010498408
2340000000.0 0.228164046270515 -0.008429233915748931
2360000000.0 -0.1817527022806406 -0.1297295764593925
2380000000.0 0.18498671969416344 0.13718279052395974
2400000000.0 -0.19318197613033436 0.15665611366353402
2420000000.0 -0.10343103054924341 0.25227812258856536
2440000000.0 0.2848882547246486 -0.10109623730325795
2460000000.0 -0.18665141714408143 0.2755807475853049
2480000000.0 0.3542720293910423 0.08609861302299379
2500000000.0 -0.35963162408290306 0.17364815074666495
2520000000.0 0.15663823788715847 -0.41055857155873476
2540000000.0 0.37778593943555644 0.29358388770139876
2560000000.0 -0.45988531899888824 0.23166975088366865
2580000000.0 0.12952342628548127 -0.5289409653882199
2600000000.0 0.14189204617551307 0.5560808915792272
2620000000.0 -0.4051982550369858 -0.4399188532465977
2640000000.0 0.5908820283819267 0.17788074288815173
2660000000.0 -0.5126322229677762 0.3747428715023793
2680000000.0 -0.23254241811720666 -0.6040381674441648
2700000000.0 0.4867698773405989 -0.4437145067738506
2720000000.0 0.6574183340419884 -0.10085279075180557
2740000000.0 0.6615390983637272 0.10673037666793293
2760000000.0 0.6602289382941194 0.1303887847856025
2780000000.0 -0.25768500788806453 0.618066016091488
2800000000.0 -0.3826015363277139 0.5401227182723995
2820000000.0 -0.6331007750434346 0.1573763842527097
2840000000.0 -0.19914007303355577 -0.6094153290264906
2860000000.0 0.576724791086919 0.24691922045469433
2880000000.0 -0.5785975573041483 -0.20400216809791272
2900000000.0 0.3686809904710207 0.4701775732206646
2920000000.0 0.2673936604424606 -0.5111095529847874
2940000000.0 -0.4078911457292268 -0.37548708815613324
2960000000.0 -0.44122174411930687 0.2930048260712195
2980000000.0 0.011338120691415038 0.5073409934729544
3000000000.0 0.4744052985789004 -0.10367780114244582
3020000000.0 -0.3491018750453005 -0.2981135644004629
3040000000.0 -0.03575755809254751 0.43158830083013333
3060000000.0 0.20329594240376764 -0.3505704952944313
3080000000.0 -0.33573512926045224 0.1783463821687889
3100000000.0 0.27450679494647434 -0.2345328169853185
3120000000.0 -0.09177404711647567 -0.33662456561792115
3140000000.0 0.07463921836902708 0.33269614472552944
3160000000.0 -0.014304671876302695 -0.33443544941759723
3180000000.0 -0.16334615734373614 0.29019944705632755
3200000000.0 0.24034505792456964 -0.22333634033526897
3220000000.0 -0.2263809135878957 -0.22577296365210742
3240000000.0 -0.2768455741938443 0.12748441033830557
3260000000.0 -0.2005373544159937 0.20941811280864342
3280000000.0 -0.08929385598121328 -0.2549085479621208
3300000000.0 0.23782144941540753 -0.08278657154371281
3320000000.0 -0.16097311689652571 0.16693492135992843
3340000000.0 -0.11227369568772039 -0.17948698119782674
3360000000.0 0.09622259579682002 0.15922482581392677
3380000000.0 -0.025069117435065173 -0.1576088118605221
3400000000.0 -0.13865573453680188 -0.0035899915393552864
3420000000.0 0.009842394847207838 0.12434882671607006
3440000000.0 0.10894641037947701 -0.04541823625994541
3460000000.0 0.08460266969567093 -0.06383323827981696
3480000000.0 -0.04745241297844523 0.08339314303170531
3500000000.0 -0.016357312365434126 -0.08701624634611069
3520000000.0 0.053432893389004095 0.05618245641328691
3540000000.0 -0.03204742514982833 -0.06487360578427027
3560000000.0 -0.059122129951041415 0.048736745900990114
3580000000.0 0.07907661992572772 0.027417289826602152
3600000000.0 -0.03052734163657111 -0.08883803886263433
3620000000.0 -0.060165707485730587 -0.0863454667922301
3640000000.0 -0.09190936309708855 -0.06015750408250699
3660000000.0 -0.014847382197577813 -0.11664998356915961
3680000000.0 -0.11399027242589072 -0.011203131627190839
3700000000.0 0.026158031562000864 -0.09686646967947735
3720000000.0 -0.09359039969460443 0.009032178818313743
3740000000.0 -0.05642540648261005 -0.061434748524237054
3760000000.0 -0.05349361333875925 -0.05424249071465091
3780000000.0 -0.0480687044697021 0.04354739698870714
3800000000.0 -0.047607727672769926 0.005636315648001738
3820000000.0 0.028140543966558636 0.025889048117608504
3840000000.0 0.020825850768621205 0.04258681386314677
3860000000.0 -0.05947449978551486 -0.03666088004096379
3880000000.0 0.041779697691120145 0.08227822547633507
3900000000.0 0.08953836403103053 -0.055667068897525845
3920000000.0 0.08521660400532617 -0.06527475708795662
3940000000.0 0.0018893623961151948 -0.09989077426289115
3960000000.0 0.034218503114296896 -0.09416633875734551
3980000000.0 0.022422997824343233 0.0930978203693887
4000000000.0 -0.0021896667004856203 -0.08206204448075478
