!Created with skrf (http://scikit-rf.org).
# Hz S RI R 50.0 
!freq ReS11 ImS11
400000000.0 -0.7999738255469928 -0.20778950952424513
420000000.0 -0.563338730696473 0.5159779620602025
440000000.0 0.19086685059549285 -0.7254680345830444
460000000.0 0.4787747271753058 -0.5506058880002553
480000000.0 0.4407962892910782 0.4720471042158682
500000000.0 -0.4451813900502177 -0.20662187843768
520000000.0 0.1197866234860828 -0.37091858099103403
540000000.0 0.3046360498539402 0.38619015469519
560000000.0 0.4944589712152494 -0.0071149778680961
580000000.0 -0.25573825903970887 0.3428781731745337
600000000.0 -0.418594389430611 -0.10867045719916572
620000000.0 -0.15796385601683394 0.35067674293923096
640000000.0 -0.333790220724122 -0.11215410245906372
660000000.0 -0.29560159394258145 0.2504862109069742
680000000.0 -0.18875775114800117 -0.325492000024848
700000000.0 -0.15785783301195475 0.3275975768359453
720000000.0 -0.20733123144228538 0.277605246057173
740000000.0 -0.12804680240761968 0.2969826132168459
760000000.0 0.04852951206601537 0.2955547387765563
780000000.0 0.23073547491441232 0.14928106487302784
800000000.0 -0.01955361418754581 -0.23693309953951344
820000000.0 0.1744572714384066 0.11964671074643339
840000000.0 -0.15225153372197558 0.11371921600226632
860000000.0 0.18550369521353718 0.002618934749464235
880000000.0 -0.12660578298827316 -0.12106973196427706
900000000.0 -0.1348518800898138 0.06972339225668979
920000000.0 0.041622474944857865 0.15056214997016196
940000000.0 0.13554351819812627 0.034554763417331574
960000000.0 -0.07077037066385826 0.07070643184446332
980000000.0 0.03425990495030184 0.047603829944258456
1000000000.0 -0.039643496848502206 -0.015610854521224217
1020000000.0 -0.03482897058675417 0.030779072661000946
1040000000.0 0.05963248127295588 0.027559108613240162
1060000000.0 -0.01047688275757684 0.090870579525907
1080000000.0 0.12604362579115477 0.07817385367065093
1100000000.0 -0.016280826829619933 -0.18864888438257546
1120000000.0 0.1965534439657375 0.1203984401651479
1140000000.0 0.26927363968205315 0.01187447362344971
1160000000.0 -0.1438522147357135 -0.2581929860348273
1180000000.0 0.2344605721583459 0.2068538189530642
1200000000.0 0.3249843993635311 0.015278018564429561
1220000000.0 -0.19468196092873863 0.2627169371593406
1240000000.0 -0.1572140754496349 0.29594266405544156
1260000000.0 -0.32121659851002743 0.07639455310109587
1280000000.0 0.25266932811306597 -0.22358942352415462
1300000000.0 0.2525150169828153 0.25121879107554795
1320000000.0 0.1438590382897398 -0.34584712784853466
1340000000.0 -0.23460396371335798 0.28725662758119497
1360000000.0 -0.03068019607831154 -0.37163918577863997
1380000000.0 0.261169917953265 0.27459134088322956
1400000000.0 -0.14284044049249092 -0.35097285681952817
1420000000.0 -0.2375947973967389 0.29683179851089997
1440000000.0 0.345195169255645 0.1257493338853378
1460000000.0 0.10331525872656978 -0.34364109245270263
1480000000.0 -0.13981488434661274 -0.32001684678773823
1500000000.0 -0.21780235537989273 0.24651959979982846
1520000000.0 0.28280767276571506 -0.14209509100363588
1540000000.0 0.03164705065966771 0.27950918746334086
1560000000.0 -0.14380136245910374 -0.1961160685516686
1580000000.0 -0.13333797675215406 0.14248546290088243
1600000000.0 0.010777851511750057 0.1740264091137622
1620000000.0 0.15073209420349556 -0.036742656312874114
1640000000.0 -0.04268158175365304 0.12506622121148608
1660000000.0 0.03237945526193915 -0.10904775199147602
1680000000.0 -0.03177070401515588 0.08854726990138606
1700000000.0 -0.017494838399796826 -0.07443316278100764
1720000000.0 0.03635823018418819 -0.04544802901194684
1740000000.0 -0.0024852415712534846 0.03582284750397019
1760000000.0 -0.045077234207915574 0.03517834476608807
1780000000.0 -0.01594775708554975 0.10001285378321312
1800000000.0 0.02724990522996528 -0.13064102446097312
1820000000.0 0.10113385975186694 0.11316130764651401
1840000000.0 0.06016804494170998 0.17695872216055045
1860000000.0 -0.19571351372001716 -0.09497519532103965
1880000000.0 0.0012305275562501231 0.24322868290024532
1900000000.0 0.26644793405900685 0.05367656326174599
1920000000.0 -0.20557771774241046 0.21029206490870705
1940000000.0 0.036155074838770083 -0.29651574840223194
1960000000.0 0.1273625665960637 0.27468423093772865
1980000000.0 -0.29224711164399886 -0.07681965604798996
2000000000.0 0.29919460590201635 0.034182870262082964
2020000000.0 -0.2531046033994824 0.1749833633791432
2040000000.0 -0.29486466086813623 0.12248201242509243
2060000000.0 -0.24914296070534367 0.2041611438281361
2080000000.0 -0.28973834957655803 0.143287485001545
2100000000.0 0.06863094447324683 -0.3124110744490146
2120000000.0 0.24983869306300419 0.18689507042000977
2140000000.0 -0.288985017612681 0.07893781597747279
2160000000.0 -0.2289005734552527 0.17946704630290228
2180000000.0 -0.11730481538733252 0.26316619500744554
2200000000.0 0.08852517197140584 0.2681156176215419
2220000000.0 0.05280776168477049 0.26942722371730826
2240000000.0 -0.26523390427022836 0.04044201375749403
2260000000.0 -0.21941187500567325 -0.14335195845442714
2280000000.0 0.25302287433985865 -0.025965589305618816
2300000000.0 0.1003628282855455 0.22390537923980197
2320000000.0 -0.23532327814734136 -0.012008956224477708
2340000000.0 0.13627927006588533 -0.18048006099993813
2360000000.0 -0.11131376828270476 -0.1910604852709584
2380000000.0 0.010069323166454739 0.2313765499799374
2400000000.0 -0.23198182966084313 0.09535949157266249
2420000000.0 -0.104297975097376 0.2568493407266814
2440000000.0 0.26870157904419184 -0.1439861960708535
2460000000.0 -0.08644810051111997 0.321702565193188
2480000000.0 0.2928029221981204 0.21529025937896243
2500000000.0 -0.3864481907254461 0.09914265872470643
2520000000.0 0.21084574944959084 -0.38615604408601323
2540000000.0 0.3885643314681311 0.28017051029451234
2560000000.0 -0.4494729432033186 0.2509513118338423
2580000000.0 0.11790184730242749 -0.5322372191718042
2600000000.0 0.15936415635428663 0.5515013647953855
2620000000.0 -0.41901685585200826 -0.42789981979719105
2640000000.0 0.6065155270442107 0.1179762089027559
2660000000.0 -0.47408009293607395 0.4230931423371501
2680000000.0 -0.26902302784391435 -0.5891852759162572
2700000000.0 0.43592981936165404 -0.49382423044701146
2720000000.0 0.6561385099969015 -0.10706478498949451
2740000000.0 0.6631347911657728 0.09567268289807641
2760000000.0 0.6604896297360889 0.12965444447962254
2780000000.0 -0.30117006757406 0.5979370499988446
2800000000.0 -0.4096722578027272 0.5195962941410356
2820000000.0 -0.637230469828711 0.13648496131426371
2840000000.0 -0.2472466442762393 -0.5900923724076632
2860000000.0 0.5839415406262441 0.22975859090469314
2880000000.0 -0.5775199168671886 -0.20640371623900555
2900000000.0 0.3588802202594328 0.47783521492714354
2920000000.0 0.27121101131316466 -0.5097758177476324
2940000000.0 -0.4709131436203132 -0.28986130454541204
2960000000.0 -0.47118026134373 0.24173713842844496
2980000000.0 -0.05179277838532515 0.5038497761984833
3000000000.0 0.48256204246127027 -0.057617535650537365
3020000000.0 -0.3005935745950895 -0.34863799165991916
3040000000.0 0.08298369179107185 0.4249431782311113
3060000000.0 0.0257552568451446 -0.402929593244594
3080000000.0 -0.3438794252431135 0.15730900585077334
3100000000.0 0.3391456911310299 -0.12388316604153671
3120000000.0 -0.13528262690858608 -0.3212293047954302
3140000000.0 -0.059170205044242 0.3355672682503948
3160000000.0 0.04138477052475335 -0.3357731588815297
3180000000.0 -0.017966825411597 0.3330663054533079
3200000000.0 0.17338176183375809 -0.27834945165323416
3220000000.0 -0.21939694831620846 -0.22833598908994873
3240000000.0 -0.22608789327555362 0.20272023839231035
3260000000.0 -0.2801416434384425 0.06629982469283775
3280000000.0 -0.1378383476497979 -0.2321643924239518
3300000000.0 0.13722586460006975 -0.2102811825641395
3320000000.0 -0.10575814392014402 0.20523561030597612
3340000000.0 -0.15861009807466 -0.14033864529854767
3360000000.0 0.10702948220571873 0.14939802083495146
3380000000.0 0.12382573236855517 -0.10926773991645737
3400000000.0 -0.1381130543282478 0.04574748709143173
3420000000.0 0.10466476212390625 -0.07235702809481626
3440000000.0 0.04765024874424536 -0.10700210885465161
3460000000.0 0.10155244320263021 0.010821615361577167
3480000000.0 -0.0011926221891344322 -0.09173234124447255
3500000000.0 -0.08577089175994633 0.013776749299882582
3520000000.0 -0.04422962105187432 -0.06247474487422483
3540000000.0 0.005527039323085284 -0.07595272043950387
3560000000.0 0.0746420990824976 0.0257990485460602
3580000000.0 -0.07365475802464154 -0.04141786804655403
3600000000.0 -0.058898059766971135 0.07026066448860879
3620000000.0 -0.05784948627695887 0.08348964162136208
3640000000.0 -0.04075432332713774 -0.10377781645828695
3660000000.0 0.0020831163515156424 -0.12031977689802277
3680000000.0 -0.10901536059766014 0.041152657538884536
3700000000.0 -0.03893449364112553 -0.09388430581303961
3720000000.0 0.0322994966526831 0.08953546543317485
3740000000.0 -0.021835334972760922 -0.07936947443060481
3760000000.0 0.07466872155665095 0.019693940096268295
3780000000.0 -0.06882719855135139 -0.018466268121142847
3800000000.0 0.01236548517353603 0.048319459589243934
3820000000.0 -0.0023787562901344513 0.03634358338331952
3840000000.0 -0.024443016955673778 -0.04299087759331837
3860000000.0 0.03158702337489451 -0.06686838360384212
3880000000.0 0.06742230040194593 -0.06773657735589832
3900000000.0 0.0931032336315892 -0.05013455977166798
3920000000.0 0.105264385204603 -0.02939425644767381
3940000000.0 -0.0029765876149368525 -0.10449086370992512
3960000000.0 0.003606719119560282 -0.10167445242995297
3980000000.0 -0.05085993402706451 0.08264468929982077
4000000000.0 0.03269700939862209 -0.07779457256183682
