!Created with skrf (http://scikit-rf.org).
# Hz S RI R 50.0 
!freq ReS11 ImS11
400000000.0 -0.7320453472643965 -0.36455518202080667
420000000.0 -0.32036126618853 0.6887477674953159
440000000.0 0.25026666512623724 -0.704491621355912
460000000.0 0.5151533927437381 -0.5228572001347905
480000000.0 0.6413392142137503 -0.03561026670744874
500000000.0 -0.4733550065678318 -0.05208944230455246
520000000.0 0.07372323550018303 0.3846442733724009
540000000.0 0.006704913971619983 0.5073283932971008
560000000.0 -0.03765791339676207 -0.48605569147135524
580000000.0 -0.34476424284374796 0.23564728761839498
600000000.0 -0.4246692467174237 -0.03209683737573858
620000000.0 -0.26688223710095565 -0.2722092264166395
640000000.0 -0.0658235532714151 -0.34065439385701757
660000000.0 -0.31303836694770876 -0.24661532578604684
680000000.0 -0.3283142967471266 -0.2005006344822994
700000000.0 0.3494102750443147 0.06149162698408908
720000000.0 -0.2797179091797678 0.208439225211531
740000000.0 -0.2624849684932428 0.1910300533873509
760000000.0 -0.16283223091178714 0.24600602861134177
780000000.0 0.17003493090681618 0.22532729797333362
800000000.0 -0.24212776858464635 0.0012080518157065324
820000000.0 0.20569104845688158 0.029942512343544555
840000000.0 0.08332865362918589 0.1721079511900101
860000000.0 -0.15396229169122588 0.0774525848701748
880000000.0 0.029198470053536346 0.1825873895024933
900000000.0 -0.059760793395769965 0.15338604242917836
920000000.0 -0.15713956692792774 -0.040269602835488694
940000000.0 0.08726207979356777 0.11876967476573966
960000000.0 0.08767425258047716 -0.06200594340863865
980000000.0 0.00034948440560904034 0.06693821107557356
1000000000.0 -0.0336274883850782 -0.030646292702946394
1020000000.0 -0.04627052847523125 -0.016306681654391218
1040000000.0 0.054201648026891716 -0.06329827743890261
1060000000.0 0.09169094873058928 0.043911965371397334
1080000000.0 -0.004120137812917901 0.1418794350687816
1100000000.0 -0.1769687380764768 -0.04858658028845725
1120000000.0 0.12414865273276848 0.18186260934764925
1140000000.0 0.2597515065753461 -0.042191966683641655
1160000000.0 0.290675988666231 -0.0821593892808282
1180000000.0 0.2741192192251089 -0.1484385715426343
1200000000.0 0.3228876340691686 -0.050279237674636615
1220000000.0 0.3100160524685104 0.10590239827714171
1240000000.0 -0.08795106951940751 0.3166958686421878
1260000000.0 -0.31727707754890355 0.06515159133651718
1280000000.0 0.31642191302525646 0.07733046747559927
1300000000.0 -0.2953777885788005 0.19051862230942376
1320000000.0 -0.015227782493407258 0.3773659395191267
1340000000.0 -0.3662996093689366 0.09618546531027859
1360000000.0 0.09509841365446249 -0.3680731121286693
1380000000.0 0.30818761232788167 0.23282922348588983
1400000000.0 -0.2101711258360152 -0.3268739833083665
1420000000.0 0.24220163679107307 0.3014138426585738
1440000000.0 0.20193393383115582 -0.306194866778451
1460000000.0 -0.34245715191222936 -0.09827317897949496
1480000000.0 -0.29203929316182786 -0.17738141821040423
1500000000.0 -0.041450626936832706 0.3217503653126664
1520000000.0 0.2900299159726429 0.10285417560876084
1540000000.0 -0.22861332071057758 0.15409614894792747
1560000000.0 0.22468004655544718 -0.09695033394915255
1580000000.0 -0.19983284290928052 -0.04080857594433646
1600000000.0 0.09852805972716032 0.1447627542886899
1620000000.0 0.06982408807509372 -0.1345093067394656
1640000000.0 -0.08414649518531594 -0.09782358407349116
1660000000.0 -0.05179707051801518 0.1035130510560614
1680000000.0 -0.09678953788194289 0.019475912942746223
1700000000.0 -0.0660285996193101 -0.04995681983866332
1720000000.0 -0.025316742333354708 -0.05528046488448033
1740000000.0 0.04166020116715735 4.8976753428319143e-05
1760000000.0 -0.009244032955426723 0.04593804251683359
1780000000.0 0.02539898392364906 0.08369620760393445
1800000000.0 -0.12010977077844505 -0.0317382526261523
1820000000.0 0.05976341921604147 -0.14138821127877013
1840000000.0 0.10657067803518837 -0.16607330697156195
1860000000.0 -0.23125448696819 -0.025420591526794097
1880000000.0 0.00811918125212764 -0.2542121770500214
1900000000.0 -0.24585663661216212 -0.10823170091906381
1920000000.0 0.0629870794796564 0.2781493083404761
1940000000.0 0.1458481253646684 -0.2551983513813885
1960000000.0 -0.13936934415962707 0.271637504454433
1980000000.0 -0.2979038907500622 0.0803179578181422
2000000000.0 0.07988776514952858 -0.2910197429734805
2020000000.0 -0.06007087915934798 0.2933200398291771
2040000000.0 -0.2655027889784541 -0.1642268339972673
2060000000.0 -0.321863473509434 0.017456514707415244
2080000000.0 -0.29023704496360847 0.14395384934671362
2100000000.0 -0.013561024727762933 -0.3156784612951862
2120000000.0 0.22680398727018874 0.2091669524729803
2140000000.0 -0.16976652737021317 -0.24573248881796628
2160000000.0 -0.2742138334721106 0.11066481308200851
2180000000.0 -0.041275784757890815 0.2928818569603881
2200000000.0 0.2784231780682828 0.055337332665157286
2220000000.0 0.11158195059441012 0.2520782759617954
2240000000.0 -0.2670008890296453 0.04026994073667443
2260000000.0 -0.1832919625878711 -0.18659051496719187
2280000000.0 0.21492511083777197 -0.13657460394992807
2300000000.0 0.13707896185420546 0.20392936048317958
2320000000.0 -0.22491721305102813 0.05520427955604974
2340000000.0 0.21445132049512627 -0.0639140940209426
2360000000.0 -0.08120566511455309 -0.20396263244797494
2380000000.0 -0.1750561200052338 0.15340116742004342
2400000000.0 -0.20446956498211483 0.1519483872796042
2420000000.0 0.0014675419812623751 0.27753027650845563
2440000000.0 0.08815200977516291 -0.28938054534617635
2460000000.0 -0.06632278064494149 0.32383705106142613
2480000000.0 0.35453807059439985 0.06901597029377032
2500000000.0 -0.3797222742209295 0.11789892521954481
2520000000.0 0.15264554670546704 -0.4098588481455642
2540000000.0 0.26644898622513136 0.39561312062289294
2560000000.0 -0.5082102945943794 0.08442798332090411
2580000000.0 0.2653433126255413 -0.47922074906397877
2600000000.0 0.1640376149861163 0.5522920572086361
2620000000.0 -0.45518599048231045 -0.39015954402415215
2640000000.0 0.611474574736411 0.08744415798519244
2660000000.0 -0.49647489443315734 0.39647396610971664
2680000000.0 -0.3303630267841706 -0.5575793433208313
2700000000.0 0.38482848567775685 -0.5340731606858643
2720000000.0 0.6538972204185118 -0.11619014890191016
2740000000.0 0.6627586569743216 0.08971676820636273
2760000000.0 0.6587677351935215 0.13334152826047355
2780000000.0 -0.273898583475016 0.6098829194152812
2800000000.0 -0.42224568339274277 0.5086325576034133
2820000000.0 -0.6470631000840646 0.07941957438696076
2840000000.0 -0.16207633116851491 -0.6190412184408649
2860000000.0 0.591899961044369 0.20922296076518002
2880000000.0 -0.582220975139137 -0.19346626688837623
2900000000.0 0.3307075831102503 0.49701657899322316
2920000000.0 0.2975263127678994 -0.49333720615239435
2940000000.0 -0.40322828019614304 -0.3803039657465495
2960000000.0 -0.5011772899881287 0.1706440479481037
2980000000.0 -0.017465364562041695 0.5068425886228448
3000000000.0 0.48381432691668513 -0.04844806746286138
3020000000.0 -0.23070025078202647 -0.3998384014076067
3040000000.0 -0.01808444461046154 0.4355678307713828
3060000000.0 0.053028482956040235 -0.4033762561965561
3080000000.0 -0.2424570987165224 0.2935206163194623
3100000000.0 0.19767484719698944 -0.3006819095843063
3120000000.0 -0.19344484076014742 -0.2878740463036287
3140000000.0 0.0965499029226038 0.3272917493387263
3160000000.0 -0.07267728206699325 -0.32785772838871324
3180000000.0 0.005232094218667968 0.3335992447777737
3200000000.0 0.0631802573708927 -0.3189323762517476
3220000000.0 -0.30980168153483406 -0.04714593026811822
3240000000.0 -0.2978691809424071 -0.010754532663222236
3260000000.0 -0.03300178934449959 -0.2806684876166695
3280000000.0 0.2690194899739043 -0.059144284502672395
3300000000.0 0.20970626252656863 0.14990148228913686
3320000000.0 -0.18113168376096508 0.1561249165403353
3340000000.0 -0.2159415358723622 0.015719642556014123
3360000000.0 0.14736595181504528 -0.11662513670821226
3380000000.0 -0.117051738392653 -0.10753197849791311
3400000000.0 -0.11671529672507155 0.07922363258258865
3420000000.0 0.012011999682458637 -0.12354136324331383
3440000000.0 -0.10348500129573523 -0.04309067903786453
3460000000.0 0.09050842351178855 -0.03971673508956584
3480000000.0 0.037787995379520774 -0.08281509298620336
3500000000.0 -0.08594420492388226 -0.0012419820822187077
3520000000.0 -0.07807821015467248 -7.356300462626442e-05
3540000000.0 0.07305769089968725 0.0005052262011388252
3560000000.0 0.018075707959910023 -0.07543646195108658
3580000000.0 -0.05433519484605287 0.06893503206394655
3600000000.0 -0.0436184176851001 -0.08662751126051449
3620000000.0 -0.09641635791836799 -0.043846564014086556
3640000000.0 -0.09909106927670451 -0.054634046114815836
3660000000.0 -0.07612198222452772 -0.09430456555616744
3680000000.0 0.04370153358985268 0.10861287194087163
3700000000.0 -0.0954844087316602 0.03339156168171347
3720000000.0 0.0727020078991926 -0.05687197627717947
3740000000.0 -0.06602905752432894 -0.03675019444455553
3760000000.0 -0.02043127626940886 0.06878617433175718
3780000000.0 0.06095020191714015 0.0239797167826674
3800000000.0 0.048935126069081854 0.002836192872951348
3820000000.0 0.014389118013205946 0.0383248604130872
3840000000.0 0.014206034227880896 -0.045452348616710415
3860000000.0 -0.05397425029203671 0.04882789607318519
3880000000.0 -0.049740595839991304 -0.07820281316942122
3900000000.0 -0.09184121914919074 -0.041571487046847946
3920000000.0 0.07727239971255011 0.06850717433635328
3940000000.0 0.09069487160122189 0.03867732840393016
3960000000.0 0.05475592485827329 0.08396774533218974
3980000000.0 0.006023045558141137 0.09708343310870866
4000000000.0 0.054688081181504034 0.06697611515705215
