!Created with skrf (http://scikit-rf.org).
# Hz S RI R 50.0 
!freq ReS11 ImS11
400000000.0 -0.663740559430031 -0.6294747467507007
420000000.0 -0.3251363993692205 -0.8032961513161568
440000000.0 -0.6275893909938042 -0.529592562638583
460000000.0 0.7445271952412494 -0.12609247235885798
480000000.0 0.2078795106973906 -0.6858327905751723
500000000.0 0.03825884957529528 0.7042327780874891
520000000.0 0.7017682846987091 0.05323162966350413
540000000.0 -0.5733684833852962 0.39850545863898823
560000000.0 0.08616056639871482 -0.6511729014629314
580000000.0 0.48615935330051385 -0.2125712781855586
600000000.0 -0.45854174816657745 -0.3661915710814405
620000000.0 0.30612157913499954 0.5041873918597803
640000000.0 -0.4860410101588255 0.2661671164286079
660000000.0 -0.22701149203801066 0.4916082664364384
680000000.0 0.025347897686862183 0.5050701089729093
700000000.0 -0.48068113797768314 -0.00329871161565725
720000000.0 0.36755341443583744 0.3516577063120205
740000000.0 0.5080743494729435 0.0175205400976952
760000000.0 0.09094700820966453 -0.4795757304457028
780000000.0 0.4493834714255684 -0.0705434018452114
800000000.0 0.39842833765443103 0.17330434736037664
820000000.0 0.35038707076640335 0.1723406750185739
840000000.0 -0.33076574143024146 0.07522513307904835
860000000.0 -0.2607032690634923 -0.14984553704949144
880000000.0 0.17132834871320116 0.20124343218657348
900000000.0 0.24517527351312723 -0.0369649539080077
920000000.0 -0.07094220096016284 0.23575272583448198
940000000.0 0.2202470524123153 -0.08147042963183115
960000000.0 0.17028007571903564 -0.02347442829125804
980000000.0 0.10545502066476414 -0.02400671852135586
1000000000.0 0.05901379060231661 -0.0026828862642589834
1020000000.0 -0.03058056140450932 -0.05158001625694311
1040000000.0 -0.0848964347051134 0.01957022050710606
1060000000.0 0.04456445835363233 -0.14202755563872002
1080000000.0 0.19345608879137757 0.050367264369266695
1100000000.0 -0.1855270210477705 0.15053474432663086
1120000000.0 -0.2541347140661208 -0.058082453865659606
1140000000.0 0.1674617301253175 -0.20502171735929225
1160000000.0 0.0629905771433451 -0.28113674544526335
1180000000.0 0.3301544895638919 0.04437738747727471
1200000000.0 0.13095294045307881 -0.3369248350166096
1220000000.0 0.3059426308912728 -0.20618822589883898
1240000000.0 0.1669700822871611 -0.3340294401499662
1260000000.0 0.213365650797183 -0.3139817169759443
1280000000.0 0.37629712551853167 0.015393922688336878
1300000000.0 0.3574947458266274 -0.1679733605796156
1320000000.0 0.09561893235302785 -0.37923951974559594
1340000000.0 0.1141363049745318 0.36632355784077125
1360000000.0 -0.35861117982429985 -0.13174231420799387
1380000000.0 0.31939112056480223 0.19306396537655512
1400000000.0 0.20839885952456302 0.3093558767190871
1420000000.0 0.025155021914058967 0.3863836283339867
1440000000.0 0.37844238595279606 -0.11586325001069331
1460000000.0 -0.3442866511302395 -0.1878079554403996
1480000000.0 -0.2215903387376677 0.3151890324687937
1500000000.0 -0.1688491598661719 0.3407349449590308
1520000000.0 0.3732972482480772 -0.03975837622487557
1540000000.0 -0.013082050460171066 0.3675279857980401
1560000000.0 -0.2349904949701424 0.24238574215741732
1580000000.0 -0.12949894839437626 0.26987600661412475
1600000000.0 -0.23802266572282552 0.10815764244128984
1620000000.0 0.08273410680272186 0.2017696201640023
1640000000.0 -0.03257883368077936 -0.17011911657337103
1660000000.0 -0.12721886766026164 0.06688455485197116
1680000000.0 0.08220604813556896 0.08555256633575019
1700000000.0 -0.03866261783704079 -0.09377966010747596
1720000000.0 0.017420633043302342 0.0786172004667658
1740000000.0 -0.0397778156467463 0.06284680770893472
1760000000.0 0.042243888039338554 -0.07555272802969495
1780000000.0 -0.04629264935406747 0.09160097202661742
1800000000.0 -0.13355974210143107 -0.010016368320122905
1820000000.0 0.1392743767717066 0.08883330719996951
1840000000.0 0.16770318924591043 -0.11183035555652202
1860000000.0 0.22143478189844626 -0.0011547877103006325
1880000000.0 0.2305280758079728 0.06803226238416034
1900000000.0 0.023919321880904624 0.25392459172361936
1920000000.0 0.18474521373008834 0.20733493933640942
1940000000.0 0.29442079171474556 0.06458262890103499
1960000000.0 -0.07445045033049578 0.3116521434189315
1980000000.0 -0.2276054351148585 0.23783570672868512
2000000000.0 -0.23416255558185078 0.22962483454765537
2020000000.0 -0.32161245550936884 -0.010844458633460915
2040000000.0 -0.0507657700701651 -0.3172184906309407
2060000000.0 0.30817102581474176 -0.0815636082202451
2080000000.0 0.2736140412877145 0.16838167306669025
2100000000.0 -0.1817232016227535 -0.26127435395852466
2120000000.0 0.2495443472433509 0.19352334374765076
2140000000.0 -0.17360171325702473 -0.25224470308774555
2160000000.0 -0.29177105922692975 0.07882937162138307
2180000000.0 -0.0747794347450627 0.28885521007716053
2200000000.0 -0.1679497774185342 0.24162103717265168
2220000000.0 0.003378293612339923 0.287788548661503
2240000000.0 -0.2768817021253373 0.029558732142588903
2260000000.0 0.24983705028483844 -0.08538381151722069
2280000000.0 -0.16462565374150648 -0.21214655711417835
2300000000.0 -0.21504604421035522 -0.17151792651305522
2320000000.0 -0.21553142009314613 -0.16127420100237655
2340000000.0 -0.0631081470693642 -0.2511696392949757
2360000000.0 0.21374103159683136 0.13486224648483452
2380000000.0 -0.21765893761744778 0.14901267378272853
2400000000.0 -0.2606599329455112 -0.0885847793947857
2420000000.0 -0.26125266896292676 0.1413175110824161
2440000000.0 0.29285274660883376 0.13655062738960236
2460000000.0 -0.3384517451246006 -0.09563665582790061
2480000000.0 0.15863215775651315 0.342192134112949
2500000000.0 -0.3521449803007725 -0.19852276389073964
2520000000.0 0.15231839247033074 0.4098975731613741
2540000000.0 -0.4327890687907444 -0.20028948713367775
2560000000.0 0.4591268191097216 0.21665342333160306
2580000000.0 -0.5396994161902369 0.0025449158410047286
2600000000.0 0.5566037059995951 -0.11581195934631197
2620000000.0 -0.5334887345912047 0.25816562429872747
2640000000.0 0.48884568541638235 -0.3677381778961844
2660000000.0 -0.06405339005408535 0.6236464113696519
2680000000.0 -0.46045582201520524 -0.4408762622329543
2700000000.0 0.47417409630590973 -0.4456176557074334
2720000000.0 0.6593483061833209 0.01342533705716347
2740000000.0 0.6101150545583705 0.26690331792675553
2760000000.0 0.5969644896060942 0.30497232935528856
2780000000.0 -0.4626425500421406 0.48032968403816295
2800000000.0 -0.5584899607456847 0.3506810396465332
2820000000.0 -0.6484302648819126 -0.04222094802848718
2840000000.0 -0.06200928024808624 -0.6333761824677647
2860000000.0 0.45540197704066043 0.42282054800729374
2880000000.0 -0.4373826859993834 -0.4164802702389506
2900000000.0 -0.06411407923069208 0.5787479682283176
2920000000.0 0.5565297506824395 0.059911116787255206
2940000000.0 0.2894767152988082 -0.4491196288297279
2960000000.0 0.20598307375568042 -0.46577655614254615
2980000000.0 -0.07884684764505746 -0.4774525789298007
3000000000.0 -0.04979483421255025 -0.4603575055938909
3020000000.0 -0.3587345571074433 -0.26312806346287243
3040000000.0 -0.1277810041510943 0.4073214479625406
3060000000.0 0.39984592559146065 0.059480145257308485
3080000000.0 -0.004136404993129092 -0.39175511647075084
3100000000.0 0.02587438875909104 0.3799515642114193
3120000000.0 0.37058793711398286 0.04755855074345488
3140000000.0 -0.3689885627198439 0.059350676286574075
3160000000.0 0.08327591378447963 -0.36125467759536706
3180000000.0 0.20919700574991854 0.2990976236285153
3200000000.0 0.0971903998315416 -0.3446938621164008
3220000000.0 -0.3453129072423876 -0.0533080826577817
3240000000.0 -0.2871976630672389 0.1752437707321116
3260000000.0 -0.21512041263378334 0.24503011825929097
3280000000.0 -0.2642639382203682 0.17207137996114535
3300000000.0 -0.15289452878010995 0.25297024517267447
3320000000.0 -0.24886501483071588 0.09827854475060975
3340000000.0 0.17045247127880325 -0.17306267825789942
3360000000.0 -0.11001045265174907 0.19106948446464642
3380000000.0 -0.047413245381981245 -0.19276905056987123
3400000000.0 0.16192465237602524 -0.08459731663506334
3420000000.0 0.1019073613180711 -0.12726263889061223
3440000000.0 0.06360313969928541 -0.12644295298616798
3460000000.0 -0.11890178730077479 -0.02592282688470059
3480000000.0 -0.05339738672763714 -0.08595852469143235
3500000000.0 -0.04007691533860304 0.0797933511796801
3520000000.0 -0.09082506448094953 -0.008931428508806722
3540000000.0 -0.09432120214184818 0.024200142612882825
3560000000.0 0.04590700366131681 -0.08829610317483175
3580000000.0 0.0015165065352818181 0.10514629913531855
3600000000.0 0.052779292490809905 0.10150333981049514
3620000000.0 0.03320093798484682 0.11726291128695422
3640000000.0 -0.07799630825728078 0.10318912300271894
3660000000.0 -0.1289702875720465 0.0505491217256155
3680000000.0 -0.11099069511936852 -0.08523643728515536
3700000000.0 0.13396474354517826 -0.018516499499750084
3720000000.0 -0.05816819593827058 0.11200371013383781
3740000000.0 0.08970124211963267 -0.05213527091906945
3760000000.0 -0.04690511836121914 0.07666445022554347
3780000000.0 -0.0425527356768894 -0.056368473191741944
3800000000.0 -0.0292413632959834 0.027783086737329543
3820000000.0 0.014587803402770229 6.427236503056134e-05
3840000000.0 0.006876857260901376 -0.02743599748007129
3860000000.0 0.018353446749713676 0.06013661423612582
3880000000.0 -0.08455416892677599 0.013996404282935047
3900000000.0 0.02786060581884539 -0.10325971856757424
3920000000.0 -0.10951803623365018 -0.06182671947541564
3940000000.0 -0.0004618887469779994 0.13798683534158349
3960000000.0 0.007488050054152966 -0.14017170940118925
3980000000.0 -0.018988354398391232 0.12852033586405404
4000000000.0 0.10521898287117674 0.027443104458025468
