!Created with skrf (http://scikit-rf.org).
# Hz S RI R 50.0 
!freq ReS11 ImS11
400000000.0 -0.8223638891665951 -0.0673802570732202
420000000.0 -0.6412700922977569 0.4126814726765203
440000000.0 -0.041820820449785474 -0.7489787912856587
460000000.0 0.37448138833745 -0.6121523072260557
480000000.0 0.26638339846758474 0.5823411305904206
500000000.0 0.48300482559844776 0.037241247216763335
520000000.0 -0.09615990968327846 -0.4048545764017754
540000000.0 0.1968517095245356 0.4602206490151174
560000000.0 0.4836913892531946 -0.1647897543487851
580000000.0 0.34421275274409924 -0.26698694887597224
600000000.0 0.2917065473006178 0.3233109438102324
620000000.0 0.3700274558246658 0.10310389607031567
640000000.0 -0.31344885263087413 -0.16360486914702568
660000000.0 0.24205252648345993 0.2839898025761064
680000000.0 -0.18667404788942799 -0.30945808013502557
700000000.0 0.347324698226547 0.009635399973596932
720000000.0 0.05267892771105854 -0.3088752819521865
740000000.0 -0.011412364127589836 0.32202559573633693
760000000.0 -0.12356438782801844 -0.28635030159299857
780000000.0 -0.2559416231668047 0.15818200120521153
800000000.0 -0.2255009842754699 0.11674380170962645
820000000.0 -0.014233959406159373 -0.21646224570829214
840000000.0 -0.180543886070173 0.07752174243412542
860000000.0 -0.17867741331214843 -0.008841701046289278
880000000.0 0.15961329206173358 -0.04386477335634163
900000000.0 0.14075931962293828 0.01950028125330793
920000000.0 0.07816609119805336 0.11077462162151624
940000000.0 0.08944383285065187 0.07267567475486966
960000000.0 -0.09964357769488077 -0.018024245666772933
980000000.0 -0.053404883217917344 0.054132702644273785
1000000000.0 0.051301843988238276 0.015670803535482645
1020000000.0 -0.013996077856185861 -0.04657489614937501
1040000000.0 -0.06815159904135097 0.04668840745581587
1060000000.0 -0.039959904306798605 -0.1026040897782048
1080000000.0 -0.00565195334496346 0.17374772259587648
1100000000.0 0.16871736855891253 0.09299139997718124
1120000000.0 -0.1645581599824804 0.15777530707466797
1140000000.0 -0.22014356762225773 0.12779253935486273
1160000000.0 0.11678844088656629 -0.2508031736773738
1180000000.0 -0.27882131537945243 0.11599428715711364
1200000000.0 0.002777652291378203 0.3215367824823738
1220000000.0 0.00214634212227172 -0.33007561513326417
1240000000.0 0.10335381561923432 -0.32910376110879824
1260000000.0 -0.26880658141950264 -0.22994440827608337
1280000000.0 -0.3440734226596513 -0.08615549165884138
1300000000.0 -0.30381792386694584 -0.1798194088947816
1320000000.0 0.02803378262417061 -0.36365732185352273
1340000000.0 -0.023112622384195466 0.3684043398352214
1360000000.0 -0.3046516145443748 -0.20471608268709784
1380000000.0 0.23883403209149667 0.28201554201972573
1400000000.0 -0.1620111208783474 -0.3354702367362551
1420000000.0 -0.2839746911950167 -0.2398662658303285
1440000000.0 -0.29312702064533497 0.23220376692979133
1460000000.0 0.2901313672009389 -0.23360119317207
1480000000.0 -0.3553389513405203 0.047495207436510416
1500000000.0 0.2627584997758424 0.20100833990227873
1520000000.0 -0.0525616911550903 -0.30265740877129127
1540000000.0 -0.2683787763064121 0.04548185932172437
1560000000.0 0.24541830064874912 -0.015719943591730547
1580000000.0 -0.09807700713623384 -0.18280362903970812
1600000000.0 -0.0723794401338889 -0.16874472498411894
1620000000.0 0.13996257762719136 -0.04602433199220502
1640000000.0 -0.001945306855303316 0.11516891487261902
1660000000.0 -0.10420835898227754 0.007079818005271411
1680000000.0 0.09485134360640346 0.0176834921195822
1700000000.0 0.0344750508760649 -0.07383727290580161
1720000000.0 -0.04549136605632523 0.03384917256128085
1740000000.0 -0.014915699828484173 -0.04084352161001732
1760000000.0 0.0311920902748703 0.04624514880910104
1780000000.0 0.08306289192849349 -0.04784454157005695
1800000000.0 0.11582620695613437 0.042216753954528265
1820000000.0 -0.14771776056541577 0.055437582645710005
1840000000.0 0.17662609271439333 0.059792137987904566
1860000000.0 -0.21210116068098675 -0.03121595116408657
1880000000.0 -0.07044314244885391 0.23681713949708605
1900000000.0 0.2495288374010069 -0.09792057733526396
1920000000.0 -0.29201900897400346 0.02904682904404196
1940000000.0 0.20329648384356297 -0.22389027833310782
1960000000.0 -0.05596410509653755 0.2999758237034826
1980000000.0 -0.2789765723572885 -0.13648731727553468
2000000000.0 0.2014154738297802 -0.23486333795980302
2020000000.0 0.30758664357331195 -0.027689095208111723
2040000000.0 0.10090098208916991 0.29172986117912364
2060000000.0 -0.18187208840471106 0.25279446297247987
2080000000.0 -0.2813104896064746 -0.13697031371359275
2100000000.0 0.26921176202978464 0.16104730228514574
2120000000.0 -0.2234156322487644 0.2239306050404221
2140000000.0 -0.22477380857969306 -0.20975612514872785
2160000000.0 -0.13383596023852504 0.26796689293981046
2180000000.0 0.27348603738881694 0.10318262566010805
2200000000.0 0.26777992379710364 0.0823107075995439
2220000000.0 0.14614023704644633 0.22876791496237392
2240000000.0 -0.26157159033729654 0.04972536402548148
2260000000.0 -0.15192160839553903 -0.2116379556688739
2280000000.0 0.2463598211072779 0.0650871289806296
2300000000.0 0.2086128478111835 0.12953973327543972
2320000000.0 -0.13950330788539891 -0.18513098568734682
2340000000.0 0.1914301059962354 0.12491184922335506
2360000000.0 -0.1164342439737058 -0.1930147689623389
2380000000.0 0.2168746883464313 0.0881440075782302
2400000000.0 0.028508578828951827 0.24849529650530502
2420000000.0 -0.04908732368539354 0.2653316015334602
2440000000.0 0.29561541546522907 0.05602367797112912
2460000000.0 -0.31246161539854234 0.11855454372488528
2480000000.0 0.3367410910047342 0.1470149588386869
2500000000.0 -0.3161222331033461 0.2443809624174889
2520000000.0 0.07964798852671298 -0.4338628475861145
2540000000.0 0.43336840898227 0.2032081965884649
2560000000.0 -0.4400392607472447 0.2680206017944796
2580000000.0 0.08989758070745676 -0.5377662064802796
2600000000.0 0.1869463173697907 0.5429147217676995
2620000000.0 -0.4595733868150925 -0.38269314187427494
2640000000.0 0.6054522613229522 0.11835745239603145
2660000000.0 -0.5047440102296677 0.38452818341821976
2680000000.0 -0.24897860620099346 -0.5976471765544195
2700000000.0 0.45294607386311664 -0.4789741073427691
2720000000.0 0.6420953391798553 -0.17235636048541872
2740000000.0 0.6696766877617792 0.00804750013233381
2760000000.0 0.6727367154800276 0.013378402230657381
2780000000.0 -0.19332037475105063 0.6407928439176931
2800000000.0 -0.355778856174251 0.5580809508427579
2820000000.0 -0.6290455527025715 0.1721239852802767
2840000000.0 -0.2992729552158221 -0.5665048516668364
2860000000.0 0.6206564956897455 0.09532537170937344
2880000000.0 -0.5947649576246332 -0.15069914391909406
2900000000.0 0.39001522640178304 0.45234785168808445
2920000000.0 0.18525544282764367 -0.5455189468657107
2940000000.0 -0.49222486197339194 -0.24811250991815714
2960000000.0 -0.45068396429451074 0.273395029761389
2980000000.0 -0.09857777003357132 0.49455803027172124
3000000000.0 0.47135482867136463 0.11234281080116604
3020000000.0 -0.30167635382272096 -0.3471569210688317
3040000000.0 0.05818935066143894 0.4301545727225165
3060000000.0 0.08235595054560452 -0.3967050160425087
3080000000.0 -0.24048887212877013 0.2966883114110331
3100000000.0 0.2360243983165221 -0.27429634677366466
3120000000.0 -0.2731261165279019 -0.21833302018032166
3140000000.0 0.20092311896722914 0.27266339338122997
3160000000.0 0.03289661402817605 -0.330604260768311
3180000000.0 -0.19589357217305317 0.267877811947081
3200000000.0 0.2782329559690542 -0.17366581121037866
3220000000.0 -0.18443844925076297 -0.2576436390905393
3240000000.0 -0.30299526331364157 0.02257284092791288
3260000000.0 -0.2881786991183099 -0.006455925850574641
3280000000.0 -0.018568081011059685 -0.2720062447959684
3300000000.0 0.13051550903441997 -0.21655391830686183
3320000000.0 0.10960123895408902 0.2046493725275665
3340000000.0 -0.20827260056254351 0.008777109605098601
3360000000.0 0.09924349864601678 0.15419506896036508
3380000000.0 0.008017215274842305 -0.15977968706407664
3400000000.0 -0.13731366483702698 -0.026260427302213996
3420000000.0 -0.02170738623601122 0.12380344244135251
3440000000.0 0.11019848902013432 0.04706572283351265
3460000000.0 0.0002334460531281693 -0.10823657721734706
3480000000.0 -0.034720160468745875 0.08658404563370196
3500000000.0 0.08466396920830095 0.018139435773207785
3520000000.0 -0.024328479532849095 0.07119336213715356
3540000000.0 0.061315142082187725 -0.03903617275752524
3560000000.0 -0.07639183277733941 0.021292917893073953
3580000000.0 0.04166159076266996 -0.07806618523467855
3600000000.0 0.024414599357460008 0.09004651129485268
3620000000.0 -0.021963550682511254 0.10030588661595055
3640000000.0 -0.043926253510315046 -0.09911626204118834
3660000000.0 0.0799059866071173 -0.0855915030822844
3680000000.0 -0.09091691878080643 -0.07164067182812595
3700000000.0 0.07436835164706465 -0.06799365815136217
3720000000.0 -0.05773137348096608 0.07537030020727244
3740000000.0 -0.039939768357335266 -0.07442313724140469
3760000000.0 -0.060935121845205574 -0.04754605954356185
3780000000.0 -0.04533658772003916 0.0496878409097492
3800000000.0 0.03557986632682032 0.0328463611345205
3820000000.0 -0.035451314681481425 -0.0002025157169790136
3840000000.0 0.031249645959693404 0.03578146359286536
3860000000.0 0.017924792496700155 -0.07433771728643147
3880000000.0 -0.05442795682373546 -0.07776810545458696
3900000000.0 -0.008610484336743772 -0.10106673992102526
3920000000.0 0.10377537554776634 0.01679491051718725
3940000000.0 0.055053451111756434 -0.08679612897921438
3960000000.0 -0.08814159075027764 -0.050607160292150635
3980000000.0 0.05283555452819923 0.07924327422886995
4000000000.0 0.037004441189280805 -0.07289279859966
