!Created with skrf (http://scikit-rf.org).
# Hz S RI R 50.0 
!freq ReS11 ImS11
400000000.0 -0.772860772386818 -0.28771804924946254
420000000.0 -0.393988816982615 0.6541512240082972
440000000.0 -0.16851271715766955 -0.726986178996557
460000000.0 0.49415653910520113 -0.5385761975318507
480000000.0 0.39207972845147443 0.5157799157701327
500000000.0 -0.39583851182752516 -0.2832709332393107
520000000.0 0.30020694039254997 -0.26469124488893425
540000000.0 -0.21896592499337506 0.4493193383339075
560000000.0 0.49540707719377075 0.04041170853129731
580000000.0 0.2915656410444182 0.3212972676719365
600000000.0 0.02481450871691532 0.4404326739659456
620000000.0 0.0997494454852149 0.37271905478786016
640000000.0 -0.32677435325820336 -0.1169958340676469
660000000.0 0.37507735454138375 0.023859410428345468
680000000.0 0.2593734053613872 -0.2265169682329801
700000000.0 -0.09673732922334767 -0.3515087361414103
720000000.0 -0.29836712460153386 0.17547938823427509
740000000.0 -0.23112125528915142 -0.24462081486832293
760000000.0 0.2643574004595597 -0.14285966195419278
780000000.0 0.005254346732701791 0.2805711109143021
800000000.0 -0.07192439904164996 -0.22890009798379207
820000000.0 0.19096999131106474 -0.08497386559457645
840000000.0 0.17565341429040846 0.08737500609132065
860000000.0 0.17458224040759532 -0.040947424517503966
880000000.0 -0.12528100147473828 -0.12998846329082134
900000000.0 -0.044818607131133927 -0.148642613682312
920000000.0 0.13426860840291932 0.05759630646859916
940000000.0 -0.07071052239948082 -0.11344604539812811
960000000.0 0.012071367652586757 0.09768215611771568
980000000.0 -0.0016974793438978841 -0.05014056539445766
1000000000.0 0.026100843271198847 0.009378111364033897
1020000000.0 0.017960202199088504 0.025876774330187226
1040000000.0 0.02511223741520606 0.05740168055811577
1060000000.0 0.04135835365111401 -0.10589971469370563
1080000000.0 0.14983217149545053 0.0626146143213896
1100000000.0 -0.17399549045130985 -0.0651843463200319
1120000000.0 0.21929433474864804 -0.06065809600975175
1140000000.0 0.07709919641834348 -0.25176760204209647
1160000000.0 0.1311189293632893 -0.2565839170471892
1180000000.0 0.11163764460355091 0.28821779931392527
1200000000.0 0.23379033211470862 0.22865560969169652
1220000000.0 -0.1134277811864375 0.3094969210384286
1240000000.0 -0.07114728935013864 0.3245727553899593
1260000000.0 0.05781813286946036 -0.3303944210174951
1280000000.0 0.14467248786101092 -0.3099849757311163
1300000000.0 0.3385953409574025 0.11149461769568624
1320000000.0 0.3202258438472288 -0.1872357633698801
1340000000.0 -0.2965532796029648 0.2335073555714263
1360000000.0 -0.37270861057575094 -0.051316473928717285
1380000000.0 0.3768486025444507 0.01690257403059779
1400000000.0 -0.3631785437350363 -0.0907352937779194
1420000000.0 -0.13191327554083587 0.3465629703710253
1440000000.0 0.1451357357229106 0.3329857638371827
1460000000.0 0.2997458924284437 -0.20860008362920254
1480000000.0 0.0005730217644656219 -0.3507062199009767
1500000000.0 -0.14739942666767003 0.29976395988466825
1520000000.0 0.028671519372504197 -0.31803955640547793
1540000000.0 0.1806851202352735 0.2080984919367127
1560000000.0 0.23170750080272165 0.04991417787795376
1580000000.0 0.047665852644693064 -0.20189894062330466
1600000000.0 0.13719824455176846 -0.12907342810516034
1620000000.0 -0.007049284297435193 0.15431270079513154
1640000000.0 -0.015104559715198458 -0.12600548736238407
1660000000.0 -0.10195493760439356 0.01806272510224294
1680000000.0 -0.06134037351551149 -0.057429985354582026
1700000000.0 0.06837610813736077 -0.01775390566246166
1720000000.0 -0.0584662566421042 -0.02556925462816139
1740000000.0 0.0061832120537800616 -0.048440820207313245
1760000000.0 -0.04072171473520737 0.0379092836780821
1780000000.0 -0.0589365325192964 -0.06651776780060935
1800000000.0 -0.009036684028016396 0.12230174501200118
1820000000.0 -0.15422868677715862 0.028206933100914586
1840000000.0 -0.1037211707798962 0.15835108036053808
1860000000.0 -0.2228829259657864 0.017311832967576293
1880000000.0 0.11220266125455854 -0.21917653810580093
1900000000.0 0.05436078995515732 -0.2570460859321345
1920000000.0 -0.28456374428679776 -0.016818144602614944
1940000000.0 0.29615003530182354 0.002222471727865767
1960000000.0 -0.2731664654421005 0.13597171655009477
1980000000.0 -0.001785636662764124 -0.31135846916433596
2000000000.0 0.30458616453300513 -0.07106212439439051
2020000000.0 0.23828457862505978 0.20619139775898043
2040000000.0 0.2121471076427024 0.24024466931414012
2060000000.0 0.31667213266235344 0.003253581477720845
2080000000.0 0.06300935921911086 0.30291836407803086
2100000000.0 0.24866175552028522 -0.173479298132696
2120000000.0 -0.29812710115564595 0.057645160243899804
2140000000.0 0.16044378079872676 -0.2576821841804745
2160000000.0 -0.2931820296162255 -0.07131938280709119
2180000000.0 0.2185024686890562 0.20067549076997768
2200000000.0 0.28529198764673996 0.02618301703835808
2220000000.0 0.25841493417833716 0.09490996088743049
2240000000.0 -0.19903602972069329 0.176058499322609
2260000000.0 -0.2213800660174283 -0.13573400862276694
2280000000.0 0.25279451749466136 -0.021882381964217927
2300000000.0 0.1690090688950689 0.17463386858444688
2320000000.0 -0.15194255199076925 -0.17533318430685732
2340000000.0 0.2255905245882783 0.04402247472953022
2360000000.0 -0.21946277537041553 -0.04847693502819924
2380000000.0 0.1812805208843157 0.13798564878443526
2400000000.0 -0.2436814379329028 -0.04389568519138409
2420000000.0 -0.17956557273779777 0.2119810441211912
2440000000.0 0.2669576861465068 -0.14905573347054477
2460000000.0 -0.14043215311870635 0.3032283522282548
2480000000.0 0.35928058242879296 -0.053617812970796104
2500000000.0 -0.34236144018745573 0.19769952100789426
2520000000.0 0.23645359356968002 -0.3677699771011948
2540000000.0 0.312045947638699 0.36238716650155095
2560000000.0 -0.48328258450477046 0.17716659485343192
2580000000.0 0.12061728919258759 -0.5321888379715053
2600000000.0 0.14994679607089464 0.5544981507921704
2620000000.0 -0.4112479891267621 -0.4338927538815999
2640000000.0 0.6115183977715666 0.08819648154075206
2660000000.0 -0.4749828404573323 0.42176452817038956
2680000000.0 -0.2717566150501565 -0.5871475148200278
2700000000.0 0.4388784424141597 -0.49096748649055494
2720000000.0 0.6626526534636288 -0.06017264235330481
2740000000.0 0.6554151049176402 0.13769253613313093
2760000000.0 0.6568488707095919 0.14554684231412957
2780000000.0 -0.24991572961041844 0.6213736594207935
2800000000.0 -0.4100640360106803 0.5191705900274662
2820000000.0 -0.634948615067949 0.1486516016937027
2840000000.0 -0.20472720133081818 -0.6071505024000672
2860000000.0 0.5955279294373172 0.19974459946590373
2880000000.0 -0.6017424931766788 -0.12256585586900239
2900000000.0 0.3741954423127674 0.46539084345247084
2920000000.0 0.2754290901014345 -0.5059952052147952
2940000000.0 -0.42752641664295565 -0.3536602173287185
2960000000.0 -0.4289022592016256 0.31238956895199627
2980000000.0 0.04034127036922321 0.5052953678772921
3000000000.0 0.47998788367540707 -0.06490850060430313
3020000000.0 -0.26022997418844956 -0.37861003335234844
3040000000.0 -0.05825900174148684 0.42982121749460156
3060000000.0 0.11980758060653333 -0.3881917896109437
3080000000.0 -0.263009150032494 0.2751723192144321
3100000000.0 0.2890294238065341 -0.21226534870293975
3120000000.0 -0.006416125944736016 -0.3470525573840968
3140000000.0 0.0067220932744072245 0.3421930453877419
3160000000.0 0.07608981011916097 -0.3283736144342383
3180000000.0 -0.11186624818623173 0.3170289841853367
3200000000.0 -0.008221999497175324 -0.3316477852978714
3220000000.0 -0.31391289773484515 0.031223137237566003
3240000000.0 -0.2655518926795468 0.1373263721656096
3260000000.0 -0.2572164594051629 -0.12354299894580156
3280000000.0 0.09835026744409592 -0.2526876862081249
3300000000.0 0.24605053564295978 0.06964422349607853
3320000000.0 -0.11076302074444429 0.2075634444423079
3340000000.0 -0.16550675137403326 -0.13723816367165007
3360000000.0 0.18511500179756216 0.03169397674741065
3380000000.0 -0.14105589618674275 0.06960923588085291
3400000000.0 -0.13555220479208627 -0.007752352425942019
3420000000.0 -0.1145579737133945 -0.04939987663434534
3440000000.0 0.11664649837221945 -0.03217589199863695
3460000000.0 0.0025557342661881688 -0.10652162626987062
3480000000.0 -0.09374160142111929 -0.009909330645806578
3500000000.0 0.023059796815418428 0.08424653649495949
3520000000.0 -0.061373688212737344 0.05174477986458685
3540000000.0 -0.055404140231691816 -0.05115600373757379
3560000000.0 0.04921124302167887 0.06133917503784058
3580000000.0 -0.07562134582220266 -0.034959287627216944
3600000000.0 -0.07806073073557043 0.05052152112959559
3620000000.0 -0.08889521687459212 0.050685502024518575
3640000000.0 -0.0678888504292588 -0.08466793572597985
3660000000.0 0.10615737001710465 -0.049309341489030684
3680000000.0 -0.0168321282689205 -0.11402887583239729
3700000000.0 0.06714391199438588 -0.08008276778009317
3720000000.0 0.04134991589431846 0.08691327510128861
3740000000.0 -0.08123793005776983 0.004992510960080404
3760000000.0 0.06190255276079188 -0.04422219496663043
3780000000.0 -0.06612311175226795 0.015843264380896505
3800000000.0 -0.010234754956686104 0.04546026026723519
3820000000.0 0.008901547693129641 -0.0359212923466277
3840000000.0 -0.023464664281911216 -0.04367947229378653
3860000000.0 -0.03760322386406273 0.06364493052723072
3880000000.0 0.05044865906122799 -0.07610983368984892
3900000000.0 0.0980499373117626 -0.030117356544356183
3920000000.0 0.0415116482093587 0.09840056722363763
3940000000.0 0.09439252687275058 -0.03939901663283419
3960000000.0 -0.046926069890764026 -0.09048904849354039
3980000000.0 0.0397846817255893 0.08343229140342268
4000000000.0 0.07361611640471302 -0.033119442005351885
