!Created with skrf (http://scikit-rf.org).
# Hz S RI R 50.0 
!freq ReS11 ImS11
400000000.0 -0.8255460260593562 0.021708398799196525
420000000.0 -0.6758258977843152 0.3539089446642844
440000000.0 0.2564624178237155 -0.7072031987471394
460000000.0 0.2967420213182563 -0.6621942658242248
480000000.0 0.3692117811995359 0.5194831642616126
500000000.0 0.44162742911564257 -0.19898691501335966
520000000.0 0.04931910261840047 -0.40661388708371443
540000000.0 -0.054828229053121715 0.5017561342976763
560000000.0 0.5048806074930774 0.06015625487506304
580000000.0 0.3755489543613602 0.2309063776242497
600000000.0 0.43710239864485995 -0.08542511893675894
620000000.0 0.24810375933905374 -0.2931262900028471
640000000.0 -0.2855946439451272 0.1893039232657129
660000000.0 0.30038812240690804 0.20872590949723552
680000000.0 0.33320735419758535 -0.10391376862665913
700000000.0 -0.3085737978472568 0.17929352372258658
720000000.0 0.10852949373940575 -0.30383193399141395
740000000.0 -0.15251744828396863 0.28603102811807407
760000000.0 -0.3115600042391353 0.04728273323907883
780000000.0 0.15697235228848685 0.26257150407767704
800000000.0 0.239121981286989 -0.06472597779006276
820000000.0 -0.044223970554690094 -0.19526764404448374
840000000.0 0.11489311147400831 0.15878718212417894
860000000.0 0.17876269056139654 -0.02016575947034748
880000000.0 0.1747120943198875 -0.0073605585175368655
900000000.0 0.07092574665214103 0.13402619279956324
920000000.0 0.11219638197694809 0.08107828334787642
940000000.0 -0.08650870934039483 0.08124945748777711
960000000.0 -0.04037790734228722 0.09159475065892908
980000000.0 -0.07131113857341596 -0.0023393722950954647
1000000000.0 0.033417907325670515 0.02576536831473843
1020000000.0 0.043566602918317265 -0.016993512699103975
1040000000.0 -0.03298595819670546 0.07942080973434966
1060000000.0 0.03678354346394807 -0.10657637431602256
1080000000.0 0.05415524255082891 0.15634744005949355
1100000000.0 0.10895600215958669 0.15958010821898258
1120000000.0 -0.17324710753983769 0.14561827671728195
1140000000.0 -0.2067265088242341 -0.1449479984737123
1160000000.0 0.09944874213912853 -0.2630814989496418
1180000000.0 -0.29023693283627566 0.09184520146137737
1200000000.0 -0.09731781448517907 0.3047177955043968
1220000000.0 -0.025204256699279448 -0.33077287186905335
1240000000.0 0.07146201142924985 -0.33802883281971935
1260000000.0 -0.34339835180653805 -0.08985559838329708
1280000000.0 -0.2892067632474423 0.2007985759548413
1300000000.0 -0.20211944991953343 -0.2858225980474693
1320000000.0 0.10240982908526654 -0.3441560406238996
1340000000.0 -0.35776238164869384 0.08105588245674143
1360000000.0 -0.26671298322712145 -0.2615501615597757
1380000000.0 0.32845447328754723 0.17836978721424743
1400000000.0 -0.2280631022388928 -0.29541521815212296
1420000000.0 -0.36899588647576465 -0.03975878938618188
1440000000.0 -0.17798295225906127 0.32367778497088506
1460000000.0 0.13378898390232072 -0.3416723041648025
1480000000.0 -0.14887344910579445 -0.3223693158600594
1500000000.0 0.1123929861442751 0.31400028974108174
1520000000.0 -0.03149579353118519 -0.3086533993478647
1540000000.0 -0.2457124848060492 0.12330871350794077
1560000000.0 0.19487527463413315 -0.1490218921308819
1580000000.0 -0.18082965447347363 0.09848617136597279
1600000000.0 -0.003121584101363807 -0.18160591933256426
1620000000.0 0.0743426432103278 0.12359469695054602
1640000000.0 -0.09522286048406174 -0.06947012350472107
1660000000.0 -0.10509080422962537 0.015641146840963426
1680000000.0 -0.08699529273029684 -0.041469887646547854
1700000000.0 0.037487056190505 0.06743578599887161
1720000000.0 0.043782882753505684 -0.037111298547477405
1740000000.0 -0.041693778045672064 -0.019874189264142136
1760000000.0 -0.03728973474614035 0.045523534361091154
1780000000.0 -0.08624250254489771 0.02173950203733154
1800000000.0 -0.11449355502873565 0.034615793933047014
1820000000.0 -0.12767958348947078 -0.09332029099851341
1840000000.0 0.12920531442546798 0.14070411496684762
1860000000.0 -0.2096019735962986 -0.056174969848134214
1880000000.0 0.010338497390756016 0.24674434270474496
1900000000.0 0.09355885254312364 -0.25376612082915734
1920000000.0 -0.26056508682965723 0.12307048210777569
1940000000.0 0.29141883043146993 -0.06554405117129375
1960000000.0 -0.09670254937762306 0.29131682486514654
1980000000.0 -0.2704480076585737 -0.1499673058813348
2000000000.0 0.24564208858672196 -0.18783045506066554
2020000000.0 0.3079382950575352 0.055055289926108565
2040000000.0 0.28949136584544494 0.11798058031896147
2060000000.0 0.0897789175577513 0.29770233385508404
2080000000.0 -0.25455684413892204 -0.17519244533759454
2100000000.0 0.22170410226590279 0.22071723200136947
2120000000.0 -0.29768116678310796 0.10580003800690745
2140000000.0 -0.10472086264185318 -0.29364843894765175
2160000000.0 -0.06540135869229827 0.2950740350564485
2180000000.0 0.2806822116633738 0.07509534102991222
2200000000.0 0.16367560491836114 0.22618693109100385
2220000000.0 0.09617368419577467 0.2560977671629385
2240000000.0 -0.25197952549932273 0.08574348475285336
2260000000.0 -0.12689250979102368 -0.22803149386612495
2280000000.0 0.25072784091264244 -0.031406873409760366
2300000000.0 0.20918391208489306 0.12440206096772993
2320000000.0 -0.06585701934362319 -0.22016216485946485
2340000000.0 0.17082857075341928 0.15310161863933386
2360000000.0 -0.18505589413679732 -0.13417380843734714
2380000000.0 0.23421082997116893 -0.006857016566875299
2400000000.0 -0.012026249423327771 0.250069550231973
2420000000.0 0.06598623668551025 0.2625313547147944
2440000000.0 0.2997062522178411 -0.01796374852459824
2460000000.0 -0.3227035098062905 0.08144619305232233
2480000000.0 0.2807315376764646 0.23561100818082867
2500000000.0 -0.3885768022337504 0.10208145589190348
2520000000.0 0.008849195746084558 -0.4448683738263474
2540000000.0 0.468668886538142 0.09637847123005955
2560000000.0 -0.4254473839737963 0.28641126086147123
2580000000.0 0.11849091785677217 -0.5309505354332639
2600000000.0 0.14668511027676623 0.5547304307174676
2620000000.0 -0.4297042258968335 -0.41742253917095173
2640000000.0 0.6108416538735105 0.09260951505057376
2660000000.0 -0.48391840563401073 0.41176415238462477
2680000000.0 -0.3201638975647554 -0.5629539194587891
2700000000.0 0.4149449083057124 -0.5118498951611344
2720000000.0 0.6463399963097445 -0.1591362697405818
2740000000.0 0.670260075413297 0.012117221635861012
2760000000.0 0.6706715981237582 0.06013443733530772
2780000000.0 -0.28503603099071173 0.6051136898736245
2800000000.0 -0.3726110904090294 0.5461173641412083
2820000000.0 -0.6076561365915135 0.2360159446243321
2840000000.0 -0.25274476567124965 -0.5891130090517573
2860000000.0 0.6077679506416841 0.16194058335557668
2880000000.0 -0.6099116007130895 -0.0710669286654539
2900000000.0 0.4442272740575477 0.39777868275169387
2920000000.0 0.2095104119336991 -0.5348872321566995
2940000000.0 -0.40081635434803564 -0.3791864835146925
2960000000.0 -0.4711445144669849 0.24181791504021297
2980000000.0 -0.0005765586802985127 0.5054407367083621
3000000000.0 0.47802828133579117 0.07033914195714969
3020000000.0 -0.24285006178524035 -0.39019453624839084
3040000000.0 -0.052998745260453 0.4318920648908279
3060000000.0 0.11901509475446705 -0.3872800326493991
3080000000.0 -0.26017154766045825 0.27743687571629727
3100000000.0 0.24683296268292385 -0.26253837993862145
3120000000.0 -0.14454144212953524 -0.3169525663942213
3140000000.0 0.11028698275116144 0.32219840730543703
3160000000.0 -0.01710647197356934 -0.3323184056287515
3180000000.0 -0.10668813077477046 0.3143888682370676
3200000000.0 0.22050835793873574 -0.23969553481602557
3220000000.0 -0.12447746784704057 -0.2892804687958344
3240000000.0 -0.2974068434833431 -0.06275036968586815
3260000000.0 -0.2844025041949786 -0.060395790651555495
3280000000.0 0.023485409074350996 -0.27311863740940784
3300000000.0 0.1430774133860949 -0.21137948443345655
3320000000.0 0.13025070978975245 0.19145249097130176
3340000000.0 -0.20217329795455072 -0.04362354801628709
3360000000.0 0.0019297222467021472 0.1841190630649682
3380000000.0 0.013143062038957926 -0.16152995347266377
3400000000.0 -0.13883855914153326 -0.017024873725253204
3420000000.0 -0.12488672167086311 0.010696737632402645
3440000000.0 0.06672718871183811 0.10028272300457547
3460000000.0 -0.014646745753970543 -0.10797730274187815
3480000000.0 -0.020978459082137288 0.09167956110783328
3500000000.0 0.0829943562551349 0.0200551294403772
3520000000.0 -0.0581488462639175 0.04642482250862096
3540000000.0 0.05533618866508377 -0.04683021261417645
3560000000.0 0.04801903723598114 0.060148675011036115
3580000000.0 0.08193035919880817 -0.018824101727188645
3600000000.0 -0.07676884241484196 -0.05329879539394594
3620000000.0 0.014735279535574523 0.10329504455515098
3640000000.0 -0.0975004204591416 0.047639656958916615
3660000000.0 -0.03903108380061529 -0.10928866623600622
3680000000.0 -0.053813413084934314 -0.10185845496177214
3700000000.0 0.003943982887980935 -0.10360275578050954
3720000000.0 -0.0719232979573675 0.06037228356607021
3740000000.0 0.08032117900741732 0.02752517831533889
3760000000.0 0.07621029619615796 -0.02101517351368924
3780000000.0 -0.07005390072411619 0.00540561652816933
3800000000.0 0.044432777738062874 0.01706065309928256
3820000000.0 -0.032288949192165975 -0.014162617001860152
3840000000.0 -0.0017900430914641024 0.050225743910616336
3860000000.0 0.041811264214228615 -0.06669387565593499
3880000000.0 -0.07469699130957312 -0.061871904200078376
3900000000.0 0.03283128329963614 -0.09810770376444554
3920000000.0 0.05240507092057082 0.09171250399688025
3940000000.0 0.10258836550443881 -0.012442798995515194
3960000000.0 0.03251715760545141 -0.09678839754878804
3980000000.0 0.01997835900711021 0.09306619512022661
4000000000.0 0.08230074573416457 -0.017718963638855032
