!Created with skrf (http://scikit-rf.org).
# Hz S RI R 50.0 
!freq ReS11 ImS11
400000000.0 -0.8072486354015888 -0.17681973261112904
420000000.0 -0.575369887860056 0.501629175381405
440000000.0 0.29309470076567556 -0.692866328052836
460000000.0 0.5164520036283591 -0.5119805097364378
480000000.0 0.5510292903314267 0.3374226984682925
500000000.0 -0.162294092912298 -0.46451310758159625
520000000.0 0.12267675085985957 -0.370478135403359
540000000.0 0.33313902710403837 0.3623574048564305
560000000.0 0.44007199034628136 -0.21923258225720585
580000000.0 -0.35025822551118296 0.2399204539344444
600000000.0 -0.4360825536153795 -0.04662456876604777
620000000.0 0.04400376502587378 0.38467633666464796
640000000.0 -0.13138548163728614 -0.32694933451272773
660000000.0 0.0006979159599308742 0.3898616274386203
680000000.0 -0.3249287753529404 -0.1806075091505452
700000000.0 -0.2570128689576781 0.24575439000341084
720000000.0 -0.34577523620269474 0.029647322812965296
740000000.0 -0.09745958403807052 0.31347342956499147
760000000.0 0.23562296440651834 0.18093000664113515
780000000.0 0.2577626468807024 0.0990353145386472
800000000.0 0.07609349477446656 -0.22388492766130533
820000000.0 0.09630681125381911 0.18780859416076284
840000000.0 0.01630313905952639 0.18956281230539412
860000000.0 0.0790721389833798 0.16190375871687093
880000000.0 -0.10544972196135717 -0.13937633737308694
900000000.0 -0.15658500349413426 0.024344476536417383
920000000.0 0.12788063065838232 -0.08585512803569931
940000000.0 0.08855534873767547 0.10506687913362009
960000000.0 -0.027877279046496492 0.09468071289911952
980000000.0 -0.018917144961596095 0.055183597250644804
1000000000.0 -0.039189362974903684 -0.012201923537758603
1020000000.0 -0.00670609871707866 0.04584882630592708
1040000000.0 0.003999940071570612 0.06378118038256402
1060000000.0 0.04490644295310058 0.08395769596144065
1080000000.0 0.12654875743527558 -0.07676237879808084
1100000000.0 0.14741524453481938 -0.11718110372712409
1120000000.0 0.19465092423212793 0.119934662910173
1140000000.0 0.2549512658341816 0.09112109897618806
1160000000.0 -0.18365971532239506 -0.23613521367095844
1180000000.0 0.2930633731442553 0.10433481788468281
1200000000.0 0.30702597944853227 0.10677228178434882
1220000000.0 -0.012116769393801402 0.3277753462151569
1240000000.0 -0.23233654412093382 0.2342549095424695
1260000000.0 -0.21098107312949474 -0.25418926434855316
1280000000.0 0.26411162161312496 -0.21703022314687806
1300000000.0 0.33412571424402 0.12065892746056564
1320000000.0 0.2794709889559786 -0.2457971776277604
1340000000.0 -0.18575872125852275 0.3246931888951562
1360000000.0 -0.3089570923748047 -0.20980999583428347
1380000000.0 0.26646993302714717 0.261258725006909
1400000000.0 0.19469267782495603 -0.32543922327693825
1420000000.0 -0.297139494809064 0.24223560005505823
1440000000.0 0.3676994312580299 -0.025550845788503668
1460000000.0 -0.1365618969523917 -0.33187321297116706
1480000000.0 -0.11513665585926425 -0.32753054987554353
1500000000.0 -0.30132175794979754 0.1299584030107318
1520000000.0 0.2808595334661219 -0.1488707343263074
1540000000.0 -0.0052739734994897355 0.28226928542779395
1560000000.0 -0.07804369550913882 -0.2273453233255608
1580000000.0 -0.19656777439035186 -0.021963792309347203
1600000000.0 0.11419649026527555 0.1369455334055681
1620000000.0 -0.09231352607416247 -0.12011447627927908
1640000000.0 -0.10999318925140326 -0.06592656129707318
1660000000.0 0.11093782526545096 -0.03132824326289565
1680000000.0 0.07876689501466286 0.053759164759371654
1700000000.0 -0.051961246459789015 -0.0580068051371599
1720000000.0 0.0019803215313691632 -0.05731594753657841
1740000000.0 -0.03632829441930677 0.009085567379221738
1760000000.0 0.03463702245326344 -0.04433705018094028
1780000000.0 0.0029463116839911433 0.09880985487585851
1800000000.0 0.12224574689250965 0.050273693150856336
1820000000.0 0.10890512767066841 0.11098872461148383
1840000000.0 0.1740652576965929 0.07101994097066269
1860000000.0 -0.17411645849084803 0.12651988900526864
1880000000.0 -0.04058245137617198 0.23612041524774596
1900000000.0 0.19060805831226374 0.19448889879141468
1920000000.0 -0.22879559337771355 0.1879233716697819
1940000000.0 0.023869902553376864 -0.2990498349342667
1960000000.0 0.15181827811784682 0.2611502748298649
1980000000.0 -0.30131119328206124 -0.03545237084843956
2000000000.0 0.29985118014316964 -0.02084519750791126
2020000000.0 -0.233825442916373 0.19853789868284913
2040000000.0 -0.31644309442064106 0.02619468954166421
2060000000.0 -0.29920507880792657 0.12314764353776952
2080000000.0 -0.2835112101073671 0.1588210701082488
2100000000.0 -0.04334856112494417 -0.31615953694989274
2120000000.0 0.2792112501000661 0.1369252820844174
2140000000.0 -0.2715016484693278 0.1250550485037635
2160000000.0 -0.2608718783077197 0.1257702160795629
2180000000.0 -0.06932574473758424 0.28040924411925733
2200000000.0 0.11798866503307705 0.2564781732370835
2220000000.0 0.08490581675369115 0.2612040652345103
2240000000.0 -0.2677736411528002 -0.014029314047288934
2260000000.0 -0.22510438617488474 -0.13655888536728653
2280000000.0 0.25212538922211697 -0.041355027973876086
2300000000.0 0.20250948442296832 0.13887022764290882
2320000000.0 -0.22723726238121394 -0.05259600316419876
2340000000.0 0.21086565745498453 -0.08034324777918457
2360000000.0 -0.023883067822991814 -0.2217264124350845
2380000000.0 0.1545517347669348 0.17614773199671785
2400000000.0 -0.1509603031435017 0.1990860552387526
2420000000.0 -0.06455161254092896 0.2655877653172334
2440000000.0 0.291722591703746 -0.08451596480244639
2460000000.0 -0.17154857494764747 0.28731472163894634
2480000000.0 0.2818392713528398 0.2328465157580147
2500000000.0 -0.34752044570011903 0.19760523148562886
2520000000.0 0.05555678272599194 -0.4372541244226583
2540000000.0 0.4236359508102105 0.21901968732593902
2560000000.0 -0.49171743206001856 0.14885389566772733
2580000000.0 0.16708140739524088 -0.5192478097590587
2600000000.0 0.12077939495791551 0.5623342678043836
2620000000.0 -0.44012764289299816 -0.40660520110288295
2640000000.0 0.6139558113810919 0.07183012969844169
2660000000.0 -0.44571228050159056 0.4511952052679292
2680000000.0 -0.2864474178149704 -0.5798757924493144
2700000000.0 0.4526670737091283 -0.47805894636813345
2720000000.0 0.6618144785423269 -0.06597708910916932
2740000000.0 0.6685458593535395 0.04606746056446215
2760000000.0 0.671283725871703 0.05397309850681089
2780000000.0 -0.23937467656392156 0.6254197491498633
2800000000.0 -0.40614257217936395 0.5222492277048472
2820000000.0 -0.6335620879996957 0.15343039103052505
2840000000.0 -0.24692802863792015 -0.5905029280561469
2860000000.0 0.5892733208963437 0.21488821575477826
2880000000.0 -0.5773268775898807 -0.2066622763946334
2900000000.0 0.3398405424468296 0.49113723320057945
2920000000.0 0.2906860574947809 -0.4987100583660378
2940000000.0 -0.4699456507833469 -0.2928038976814477
2960000000.0 -0.45695587957991535 0.26696408550006484
2980000000.0 -0.015527994887646453 0.5070345799586717
3000000000.0 0.4827030095926889 -0.06082938574486815
3020000000.0 -0.29139933514377475 -0.3555063676757126
3040000000.0 0.05633965330404077 0.4293810144991601
3060000000.0 0.02760342821529279 -0.40342472213271946
3080000000.0 -0.30652496350279296 0.2234286775192881
3100000000.0 0.33363249734098377 -0.13609549599385828
3120000000.0 -0.13468710374378626 -0.32286498878769987
3140000000.0 0.05438711020735741 0.3360354962234182
3160000000.0 0.028757929149321154 -0.33506681238198355
3180000000.0 -0.08876328471697474 0.32136482489253865
3200000000.0 0.2311916125072384 -0.23427912065096435
3220000000.0 -0.24278128692128642 -0.20734165037271737
3240000000.0 -0.15369076144822316 0.2638033138206306
3260000000.0 -0.2439021166268476 0.14923888000636232
3280000000.0 -0.1137360100642645 -0.24398156883355676
3300000000.0 0.18301161341518304 -0.16853842195122676
3320000000.0 -0.2203778515863194 0.076426628323884
3340000000.0 -0.16570846454687985 -0.13443520619730928
3360000000.0 0.17763336007022995 0.05515721885503686
3380000000.0 0.029742685197095546 -0.15856750318672228
3400000000.0 -0.1393760904993266 -0.02666327220578397
3420000000.0 0.12629057408391559 0.0219217958977224
3440000000.0 -0.004183987071673457 -0.1194179262320849
3460000000.0 -0.009027726685071744 -0.10205569679650213
3480000000.0 -0.08673970086102517 -0.023347267984260907
3500000000.0 -0.07017052254892867 -0.04660673061144822
3520000000.0 -0.00809318695724736 -0.07853726639780016
3540000000.0 0.011785140992230951 -0.07794018611898078
3560000000.0 0.06288603818512724 -0.04799283451026348
3580000000.0 -0.07461680919947565 -0.039240762371673586
3600000000.0 -0.09214352502329454 0.0058966520026366145
3620000000.0 -0.09372031363799234 0.040745060742983626
3640000000.0 -0.004240431238294936 -0.11253899088962037
3660000000.0 -0.09568359616644012 -0.07042281859044952
3680000000.0 -0.09574368188215396 0.06386375177040461
3700000000.0 0.06899290954921694 -0.07457899531039425
3720000000.0 0.01962349371028742 0.09436077611161381
3740000000.0 -0.07890611994531457 -0.024358398686348717
3760000000.0 0.06698282908153524 -0.03411297061781023
3780000000.0 -0.04830810826028696 -0.05021316430591941
3800000000.0 -0.04763032637810381 0.016926034500783674
3820000000.0 -0.008495753989342186 -0.03644407717642912
3840000000.0 0.008116528742531806 -0.045807033962464834
3860000000.0 0.049931821060610795 0.05406771218292673
3880000000.0 0.0790113140635019 -0.05631898545855282
3900000000.0 -0.04695051637653739 -0.09510043767925483
3920000000.0 0.06616058089690781 -0.0850771822604098
3940000000.0 0.0788503839006162 -0.06562478242245838
3960000000.0 0.04157467131322805 -0.09331571826528993
3980000000.0 0.02918826337108335 0.09316456951305836
4000000000.0 -0.023533567006395237 -0.07933154131402917
