!Created with skrf (http://scikit-rf.org).
# Hz S RI R 50.0 
!freq ReS11 ImS11
400000000.0 -0.7864222029268134 -0.24434757869213788
420000000.0 -0.5799161381782794 0.4951470361661417
440000000.0 -0.016064581983042437 -0.7474955905064915
460000000.0 0.5682550089102619 -0.4629216045054128
480000000.0 -0.3129834384134864 0.5669859345573433
500000000.0 0.3632332089229757 -0.34349187207090565
520000000.0 -0.3784700534530332 -0.14229405468977302
540000000.0 0.043314070574597324 0.48553065608759055
560000000.0 0.4378722170901975 0.2139265753186355
580000000.0 0.09256379063308683 0.4304423535437964
600000000.0 0.38205151107637264 0.2176720841426632
620000000.0 0.09213586461126318 0.3751302441435426
640000000.0 -0.23078542748916914 0.2710068856939639
660000000.0 0.32507083243759716 -0.15316399961030502
680000000.0 0.27788678771711617 -0.19072689641559115
700000000.0 0.30320035752076874 -0.1802635911482217
720000000.0 0.11324963775546476 -0.31914438074847257
740000000.0 0.24212338117804075 -0.2412008406621023
760000000.0 0.14983613493556508 0.276176715416594
780000000.0 0.2830755587516963 0.05357766434474359
800000000.0 -0.22530038704777258 0.09252175771128981
820000000.0 0.1994780006724315 -0.039552656012096205
840000000.0 -0.1296105218468187 0.15152099775526556
860000000.0 0.16121854368407212 0.09820009306735267
880000000.0 0.06889702897601449 -0.17148816656485946
900000000.0 -0.12988908951079584 0.0774654369909094
920000000.0 -0.13049629330525955 -0.02502699640698458
940000000.0 -0.11130903088427944 -0.04742428316501798
960000000.0 0.024183151484326204 0.08599321091640424
980000000.0 -0.036896226127640194 -0.008280492255126542
1000000000.0 -0.02698893973472735 -0.005688951445497898
1020000000.0 0.008935320143132778 0.027429351772506372
1040000000.0 -0.042534855968647305 0.04992879722196539
1060000000.0 0.050174129371220955 0.11424933425764165
1080000000.0 -0.14695133002507205 0.07846527765925225
1100000000.0 -0.18214506344928735 -0.06951504822709
1120000000.0 -0.2342151897336144 -0.03865513652526266
1140000000.0 -0.14555194558262055 -0.216468508547269
1160000000.0 -0.1743443852705962 -0.22787852710539067
1180000000.0 0.07295714505199637 0.2973180660541112
1200000000.0 0.23833521640208352 0.21641882155762823
1220000000.0 -0.23210082012769717 0.2321906961892701
1240000000.0 -0.245242712511713 0.2233819213869693
1260000000.0 -0.11693849596696852 -0.31536816561514025
1280000000.0 0.18739500671887308 -0.28387675157249537
1300000000.0 0.3550132977786946 0.026037965583491064
1320000000.0 0.33152180220907607 -0.1665021231468324
1340000000.0 -0.35831455448087585 0.09326672160383903
1360000000.0 -0.22012581288703792 -0.3122077737071696
1380000000.0 0.3732819395657206 -0.08305994780711624
1400000000.0 -0.36437541079744523 -0.10380416439883666
1420000000.0 0.17588271122804783 0.3270923129613312
1440000000.0 0.1803984898549791 0.311304162036138
1460000000.0 0.26010773428378575 -0.24945379893334754
1480000000.0 0.0934961339365208 -0.3353790815226588
1500000000.0 -0.03756929875688786 0.32886511871915547
1520000000.0 0.23613757064402313 -0.20485772289858187
1540000000.0 -0.277598245936245 0.0017290153176395533
1560000000.0 0.14573099574952714 0.19721402163278134
1580000000.0 -0.18456210168187406 -0.11303930978691185
1600000000.0 -0.14277923883771046 0.12463479283557782
1620000000.0 0.11303676628409362 -0.09458346364857857
1640000000.0 -0.09823085677770536 -0.06644501983844198
1660000000.0 0.08645001955883973 0.04801226557531747
1680000000.0 -0.00654874080231291 0.08974936494807265
1700000000.0 0.003655095392891263 0.07625972359475579
1720000000.0 -0.043608668772134256 0.04283799595638353
1740000000.0 0.03274631053281293 0.034850186073804024
1760000000.0 0.05083050941045933 -0.026035797745063757
1780000000.0 -0.08782465727629124 0.015705153096078325
1800000000.0 0.10857103652862905 0.051433186363980324
1820000000.0 -0.011529486194291132 -0.15291581120164147
1840000000.0 -0.11354900852870428 0.15662305250310313
1860000000.0 -0.18390308742472938 0.1258344918768497
1880000000.0 0.1971291270247819 -0.14695116459987248
1900000000.0 -0.01958197586319037 -0.2622587248812733
1920000000.0 -0.27813135231183267 -0.0635357117401624
1940000000.0 0.28613918149086776 0.07875110731326301
1960000000.0 -0.25374332593102966 0.172969871917151
1980000000.0 -0.10908892691972512 -0.2937892599914919
2000000000.0 0.2718520793744153 -0.15658076472072252
2020000000.0 0.31539424604632443 -0.0009730847185616277
2040000000.0 0.29444833263610776 0.10995634163325002
2060000000.0 0.1641827088460538 0.2631941038434695
2080000000.0 -0.289581435615731 0.11001008926364535
2100000000.0 0.30383990326023985 -0.06588822025451332
2120000000.0 -0.15384490467910047 0.2686792590567169
2140000000.0 -0.05981831887569491 -0.29941369147319286
2160000000.0 -0.2665030183685336 0.13537793397845002
2180000000.0 0.23722306478171235 0.17455030731131777
2200000000.0 0.2628197622149266 0.10321426022532876
2220000000.0 0.16825461494832494 0.21771197970422254
2240000000.0 -0.25648879739413954 0.0793425932121168
2260000000.0 -0.1989598729230105 -0.16958721696346996
2280000000.0 0.2279845843838598 -0.11223071516908094
2300000000.0 0.22709979018016316 0.08342610845533376
2320000000.0 -0.12618015369001018 -0.19056780818721214
2340000000.0 0.06893780702030967 0.217919883280402
2360000000.0 -0.17141679784583894 -0.14787499258653192
2380000000.0 0.2328970445640253 0.002232503651351882
2400000000.0 -0.08863131545021619 0.23008422273523366
2420000000.0 -0.13052561457644984 0.23972290114316308
2440000000.0 0.299076696294226 -0.04216991462340736
2460000000.0 -0.2820613125666143 0.17802605176602182
2480000000.0 0.3352270512223785 0.14889857450933852
2500000000.0 -0.36240575868049574 0.17059926102461062
2520000000.0 0.13308172575157556 -0.4186858719476318
2540000000.0 0.4097059824028087 0.2445717017532296
2560000000.0 -0.47091178027006453 0.20203190461911333
2580000000.0 0.1995472769863494 -0.5057743423252022
2600000000.0 0.07420210434249312 0.5684872161021572
2620000000.0 -0.38995662696808675 -0.4546858162729207
2640000000.0 0.6037985730563301 0.13469760083177565
2660000000.0 -0.4799152193957888 0.41653628604438897
2680000000.0 -0.29588368503211626 -0.5759275051989391
2700000000.0 0.45815294930204964 -0.47320014960611956
2720000000.0 0.6659375754620216 -0.00570588875781345
2740000000.0 0.6606498709315286 0.11364487429978809
2760000000.0 0.6561658693385585 0.15104151009361702
2780000000.0 -0.32327869794265585 0.5860647966537494
2800000000.0 -0.4531705627723211 0.4824295223160778
2820000000.0 -0.6465576063355342 0.08992763840187193
2840000000.0 -0.19821318745710786 -0.6096607505472786
2860000000.0 0.5991992106020463 0.18844472079631983
2880000000.0 -0.6051840007656383 -0.09577729427593876
2900000000.0 0.38216466046120273 0.45769495436798563
2920000000.0 0.2987866137477425 -0.4934711385988804
2940000000.0 -0.43904599323216126 -0.3373519726598008
2960000000.0 -0.48542705904317146 0.21549810160633806
2980000000.0 0.009860359074760372 0.5097933102520346
3000000000.0 0.4693518969662242 -0.12836647092061604
3020000000.0 -0.3476816182281946 -0.30159569628717225
3040000000.0 -0.09780957167248115 0.4215227004829065
3060000000.0 0.17291166877481504 -0.3656218667709347
3080000000.0 -0.3343260284570344 0.1833691488563557
3100000000.0 0.3217454574415633 -0.16394479160456
3120000000.0 -0.08704108977979085 -0.3368231812642477
3140000000.0 0.05579727907401065 0.3342488943474166
3160000000.0 0.09708082995561296 -0.32121551306427343
3180000000.0 -0.15238633059791562 0.29807007698190885
3200000000.0 0.14530139335678596 -0.29687615715544696
3220000000.0 -0.3084764819694846 -0.07812814504428153
3240000000.0 -0.17803281014955516 0.24586240357458816
3260000000.0 -0.2712762943429026 0.09281191793358246
3280000000.0 -0.034407563037181975 -0.26897303411972634
3300000000.0 0.23717957080413093 -0.08924390710385444
3320000000.0 -0.16161917478461565 0.16626122580869407
3340000000.0 0.014270124959724196 -0.2116276087021828
3360000000.0 -0.04378162808714732 0.1853511588618309
3380000000.0 -0.16310920228646084 0.016217352067225525
3400000000.0 -0.0019525619173098923 0.13963122195422029
3420000000.0 -0.025354047863504783 0.12054839718309959
3440000000.0 0.09442409490469793 -0.06568747038402735
3460000000.0 0.1037664078894773 0.02145447611718011
3480000000.0 -0.019789813239427998 -0.09211240744098226
3500000000.0 0.007181307031759044 0.0889553302475123
3520000000.0 0.05184105897390834 0.060539571303851354
3540000000.0 0.050272489886937846 -0.05521990039111176
3560000000.0 -0.03371072823711801 0.06971484786575215
3580000000.0 -0.009163147893307147 -0.08658427511701977
3600000000.0 0.045229315962478776 0.08051016721463429
3620000000.0 -0.10218638483514556 0.005979274569970211
3640000000.0 -0.10761863674898507 -0.005139793727360943
3660000000.0 0.11574674365917968 -0.02383878361825691
3680000000.0 -0.11536315116295731 0.015370925278947884
3700000000.0 -0.01746673952505385 -0.09983769495749888
3720000000.0 -0.09289877111985813 0.0005651086897618826
3740000000.0 0.08369484175075174 -0.00745122678232636
3760000000.0 0.044452499780932624 -0.06535252260813636
3780000000.0 0.06731742934987604 0.015257875939867422
3800000000.0 0.04055170563998593 0.023354129034975836
3820000000.0 -0.01062541768575636 0.03353538208811665
3840000000.0 0.03752992609203842 -0.030206063674346913
3860000000.0 0.06644801937840945 -0.03615263490710487
3880000000.0 -0.006250454451016984 -0.09792307848476328
3900000000.0 -0.10015212415017356 -0.026906049480211594
3920000000.0 0.10251172268753114 -0.020523739523924712
3940000000.0 0.07629996895799025 0.06633881249839603
3960000000.0 0.06130316023922429 -0.08195809205342122
3980000000.0 0.04169715796335765 0.0857661092816686
4000000000.0 0.08053679219333262 -0.007359958759349118
