!Created with skrf (http://scikit-rf.org).
# Hz S RI R 50.0 
!freq ReS11 ImS11
400000000.0 -0.8202899162795718 0.09956735788355829
420000000.0 -0.6093998416881463 0.4636001124438607
440000000.0 0.280054456640227 -0.6982783533900719
460000000.0 0.4817388021556226 -0.5579257669683316
480000000.0 0.5680091043836278 0.3130581805704418
500000000.0 -0.4661492640467061 -0.11808795963002035
520000000.0 0.25603290399814366 0.2980290986911735
540000000.0 0.27106632472407516 0.41760068499935343
560000000.0 0.32853008402037565 -0.36000107120184704
580000000.0 -0.08607927048842451 0.4165222337799507
600000000.0 -0.4309123507892533 -0.07510069542329018
620000000.0 0.08668372731958876 0.3807636603247066
640000000.0 -0.26088874349285407 -0.23067004580493738
660000000.0 -0.3306270843155723 0.1991519838487469
680000000.0 -0.07377174532277832 -0.3619724972997574
700000000.0 -0.335183107504429 0.1399704342892249
720000000.0 -0.03268672066025215 0.3515056191415104
740000000.0 -0.16270313992172492 0.2864779552223903
760000000.0 0.24019805983245426 -0.1752316606921794
780000000.0 0.26517245831802355 -0.07857943257553272
800000000.0 0.21359495356090524 -0.09298470057252341
820000000.0 0.03754075744033228 0.20630982325124508
840000000.0 -0.1566375661692684 0.12429263982322877
860000000.0 0.09923917693706573 -0.15609476587694132
880000000.0 -0.14118770283459714 -0.10023700626816012
900000000.0 0.13731028561197522 -0.06452075088384812
920000000.0 -0.012779161573020803 0.14734098200571402
940000000.0 -0.13195605042945474 0.03426246839589572
960000000.0 -0.006559746743579139 0.09940872179574368
980000000.0 0.018941685829830773 -0.06017497255224036
1000000000.0 0.03550282191488128 0.03600159186399679
1020000000.0 -0.04589542462245771 0.024610851971927864
1040000000.0 0.052188669189100166 -0.054414839030300595
1060000000.0 -0.08784700247265013 0.030736872696998332
1080000000.0 -0.07615456509659595 -0.11966074575607992
1100000000.0 0.17866751932766142 0.027279714147888868
1120000000.0 -0.21924947499143144 0.07876078957557855
1140000000.0 0.27531072432641357 0.04699565800498615
1160000000.0 -0.29429272949193425 0.035307421723390416
1180000000.0 0.3006731815809275 0.04944205769539738
1200000000.0 0.23863216493801148 0.21757246984182776
1220000000.0 -0.25761972551520246 0.20892823120178045
1240000000.0 -0.1538305999243147 0.29798653332306113
1260000000.0 -0.3037687863043675 0.12930769672384512
1280000000.0 0.19660486781469877 -0.2714222715854554
1300000000.0 0.04957942684701385 0.3491636237852662
1320000000.0 0.33235495167185564 -0.17196778031186133
1340000000.0 -0.1849455225612143 0.3267001760695097
1360000000.0 -0.3261623674072421 -0.1864599261396279
1380000000.0 0.2999300176960382 0.22373146594528973
1400000000.0 -0.1541463539412868 -0.3458082158680756
1420000000.0 -0.17392955692748108 0.33147639284130237
1440000000.0 0.17766996868784418 0.3204396678400928
1460000000.0 0.05668155422483308 -0.3611024514521435
1480000000.0 -0.17458262754153805 -0.30509887478034853
1500000000.0 0.016730675516843978 0.3318066508545352
1520000000.0 0.12832968142505094 -0.2840257083481064
1540000000.0 -0.14493355794551988 0.2338978959318186
1560000000.0 0.07777563563501151 -0.23083759728780415
1580000000.0 -0.18965082647407563 0.06457365242475763
1600000000.0 0.12011592454326026 0.12993594018392204
1620000000.0 0.030442622792590274 -0.14867797224432247
1640000000.0 -0.1260473796943978 -0.02664410804810155
1660000000.0 0.09484658104545692 -0.06915058013367852
1680000000.0 0.09546072964500882 -0.02144488736399869
1700000000.0 -0.06462314859791161 0.030108505958311584
1720000000.0 0.03637077465117574 -0.043146534523352806
1740000000.0 -0.008959288168844686 0.03970347552235763
1760000000.0 -0.04785154268072222 -0.02625145173897312
1780000000.0 0.09388335758898611 0.01857920757422348
1800000000.0 0.11314629714720756 0.06406088663314677
1820000000.0 0.10361554003507725 0.11601762120952071
1840000000.0 0.06750418389495927 0.17488428615823592
1860000000.0 -0.2158719035902521 0.023091905928290333
1880000000.0 0.10136244186869356 0.2223805324043855
1900000000.0 0.24862632862809575 -0.10700421107054187
1920000000.0 -0.1347241771782177 0.2591294413546752
1940000000.0 0.11373748373970696 -0.27584979337386584
1960000000.0 -0.054401355624257144 0.2971045887857572
1980000000.0 -0.3030477328670918 -0.04239316121476671
2000000000.0 0.267149331775477 -0.1422051420572792
2020000000.0 -0.15496418556467817 0.26362772366056103
2040000000.0 -0.3164568393099805 0.0012746255903712438
2060000000.0 -0.27534219318392594 0.1659567501744539
2080000000.0 -0.28555136494880357 0.15076734598703492
2100000000.0 -0.028852949331076624 -0.3173391761667756
2120000000.0 0.22343212166667203 0.2158992352399357
2140000000.0 -0.28519666836370183 0.09505724415462402
2160000000.0 -0.1788287154429038 0.23258224324571392
2180000000.0 0.043861872721202975 0.2868027024908129
2200000000.0 0.19784901958543194 0.2037920745837748
2220000000.0 0.03279205067980567 0.27056644490478854
2240000000.0 -0.2520396108356528 -0.08215753968361592
2260000000.0 0.11920444040110532 -0.2359527052566912
2280000000.0 0.23183043100474668 -0.11741322988510672
2300000000.0 0.22470923873152251 -0.10124655742122142
2320000000.0 -0.2288175714754875 0.00798117718930019
2340000000.0 0.223280761083196 -0.016093041707273572
2360000000.0 0.10415825218714755 -0.1970547812064197
2380000000.0 0.10355165201822665 0.21179639096430208
2400000000.0 -0.12957072168101172 0.21323066356152864
2420000000.0 0.03765595899591517 0.2706487773507908
2440000000.0 0.2818721571375284 -0.10701835536877177
2460000000.0 -0.19725282704181837 0.26646638203994305
2480000000.0 0.25474253856511053 0.26107080100022567
2500000000.0 -0.3868618883665182 0.10553203538926047
2520000000.0 -0.014232692086471639 -0.4408163499481991
2540000000.0 0.38771902447030826 0.27753573879335314
2560000000.0 -0.4620697625225638 0.22594141734685333
2580000000.0 0.1468651782994032 -0.5249158441637588
2600000000.0 0.12433544818115351 0.5608891612867443
2620000000.0 -0.422746707539758 -0.4246135966485944
2640000000.0 0.6119716758220208 0.08493070515722026
2660000000.0 -0.47350305550498795 0.4229796470225221
2680000000.0 -0.22402531367825274 -0.6079120353202125
2700000000.0 0.4128089480141987 -0.5126397544552549
2720000000.0 0.6470155668668353 -0.15256550738829294
2740000000.0 0.6671007436130085 0.05932657299924693
2760000000.0 0.6640414733184146 0.1053583247778489
2780000000.0 -0.2424224118386495 0.6239443897176633
2800000000.0 -0.3717745238400384 0.5471516630225118
2820000000.0 -0.6181196780242272 0.20802641467234417
2840000000.0 -0.2933445097682831 -0.5698450272573566
2860000000.0 0.5802037904801548 0.2404293710082039
2880000000.0 -0.5948641649925105 -0.1516545373513064
2900000000.0 0.3772992881950557 0.4628821140287367
2920000000.0 0.2906045205630974 -0.49821803894606864
2940000000.0 -0.4656932187800614 -0.2995931587389055
2960000000.0 -0.4605594160774765 0.2638505821179532
2980000000.0 0.01339530388155911 0.5069396902579901
3000000000.0 0.48498232188674756 -0.011008277442212175
3020000000.0 -0.3618331910057676 -0.2824764475347898
3040000000.0 0.04692194652824915 0.42982449866262
3060000000.0 0.06287114303012784 -0.398617733869055
3080000000.0 -0.28631573472736205 0.246379719494186
3100000000.0 0.33026291508340805 -0.14481945248404213
3120000000.0 -0.0872690436600003 -0.33738817260990694
3140000000.0 -0.06935730410791262 0.3340762352242788
3160000000.0 0.04502394378069673 -0.3349102343331006
3180000000.0 -0.08090697677435588 0.32521506445196363
3200000000.0 0.11005291122528608 -0.30964330768959397
3220000000.0 -0.29242980739801233 -0.12896158493254437
3240000000.0 -0.2197315592861136 0.20681856747744923
3260000000.0 -0.28457983586717817 -0.03560490141411959
3280000000.0 -0.01920533655640567 -0.27164203905849743
3300000000.0 0.19729857311652055 -0.15908178252194743
3320000000.0 0.08749680916649319 0.21261730533704837
3340000000.0 -0.10383400039044877 -0.1804937088597809
3360000000.0 -0.029184236156833004 0.182826915136333
3380000000.0 0.10100811960773455 -0.12793686812113378
3400000000.0 -0.1396235066190652 0.039592137254749304
3420000000.0 0.08391493518521745 -0.09484511941817357
3440000000.0 -0.05206541918839181 -0.1037862918013444
3460000000.0 0.04493986875223801 -0.09353859313047692
3480000000.0 -0.01795353694044331 -0.0881943267381793
3500000000.0 -0.08682644755856242 0.013234234908032595
3520000000.0 -0.07915640618177734 -0.008722699333418484
3540000000.0 -0.0674784208062112 -0.02996488240388104
3560000000.0 -0.01035183325173344 0.0772365972706254
3580000000.0 0.07216190609841075 -0.04794660812253828
3600000000.0 -0.07044976306753996 0.06127683880853313
3620000000.0 -0.04641813537395247 0.09023077615501347
3640000000.0 -0.0771210794448453 -0.07436852157369236
3660000000.0 0.11692553866170645 -0.010913730077024893
3680000000.0 -0.11011258799304419 -0.040195711192038186
3700000000.0 -0.06387368973040336 -0.07945224080433767
3720000000.0 0.06890762891825254 0.06356355060259823
3740000000.0 -0.015348354808745962 -0.07869971370529007
3760000000.0 -0.0687466483261354 0.0322855585844468
3780000000.0 -0.06726542852563476 -0.022046057444990018
3800000000.0 0.04400399417231913 -0.018610599884240322
3820000000.0 0.02924450289221216 -0.02018578419801651
3840000000.0 0.04805904086611224 0.004603034163392991
3860000000.0 0.06476636607573996 -0.03673933008783354
3880000000.0 -0.002106749617522196 -0.09331721851402303
3900000000.0 0.07894570264309203 -0.06432566581499256
3920000000.0 0.08950148923262909 0.06118525317530319
3940000000.0 -0.002218715818378789 -0.10206056185449837
3960000000.0 -0.09254388353796492 -0.04182812364882176
3980000000.0 0.052215412622904495 0.08107272885976169
4000000000.0 0.03833300478492269 -0.07317314978684367
