!Created with skrf (http://scikit-rf.org).
# Hz S RI R 50.0 
!freq ReS11 ImS11
400000000.0 -0.7992953359574457 -0.20473803646250743
420000000.0 -0.5238482960551727 0.5538797817042116
440000000.0 0.06096543610702266 -0.7531704236526757
460000000.0 0.4365403293340876 -0.5868588258388747
480000000.0 0.4443542481652849 0.46980698930290354
500000000.0 -0.4724862718504894 -0.11941955013547359
520000000.0 0.3907026957579172 -0.06519397705566575
540000000.0 0.36912759817830726 0.3390140648405332
560000000.0 0.4871737459428643 -0.011592221970748115
580000000.0 -0.09790381408500107 0.41334912193008616
600000000.0 -0.4385329290708773 -0.02539005573964555
620000000.0 -0.030457231195332408 0.38088377195443357
640000000.0 -0.2710700922842094 -0.22330369642303627
660000000.0 -0.28563147908914777 0.26676894137714857
680000000.0 -0.018712799302537806 -0.37514553051145816
700000000.0 0.018986636001779397 0.36286107297411374
720000000.0 0.03260426139516578 0.3449082073378203
740000000.0 -0.3032838265973084 0.12495289767120649
760000000.0 0.26476774190388624 0.14160777357963736
780000000.0 0.2059618374084695 0.18804173522853007
800000000.0 -0.054038967292874114 -0.22387676524472694
820000000.0 0.07976804408504197 0.197022765809111
840000000.0 -0.057818765980302986 0.18821672008041282
860000000.0 0.0784365128609287 -0.16578319630723384
880000000.0 0.050993378769612324 -0.16587817087578224
900000000.0 -0.15398896383652752 -0.013559164790130656
920000000.0 0.1515560980712958 0.020029628726810564
940000000.0 0.09942158270447002 0.09789313301061653
960000000.0 0.07459138120914498 0.06243166696953885
980000000.0 0.05832887497579047 -0.0020239890263927703
1000000000.0 -0.02922106230974107 0.030311470975139795
1020000000.0 0.030351614810585015 -0.03550803006851377
1040000000.0 0.06640905125404616 0.012956885846167845
1060000000.0 0.09098688113367241 0.020452641087051325
1080000000.0 0.14800792404601676 0.006684687685505728
1100000000.0 0.040294887192359165 -0.1826510128538039
1120000000.0 0.16101738029716353 0.16067527878257765
1140000000.0 0.2698224454414976 -0.04218348702529485
1160000000.0 -0.2505024952995889 -0.1517995475395247
1180000000.0 0.056142304888210856 0.30597671006185306
1200000000.0 0.28081307064301775 0.16745237557779835
1220000000.0 -0.08755988928715742 0.32056611143670577
1240000000.0 0.0743110005111614 0.3260060945975171
1260000000.0 -0.3227565523885474 -0.06763658962115725
1280000000.0 0.11969714169311493 -0.3091054362136753
1300000000.0 0.010478394516260555 0.35245062391167864
1320000000.0 0.37700006692687865 0.025369175623663618
1340000000.0 -0.18116951899515477 0.33207542023277614
1360000000.0 -0.3746571343140938 0.013659118330560507
1380000000.0 0.37358870226517016 0.008060984055370174
1400000000.0 0.05183009551162599 -0.36900304720383065
1420000000.0 -0.35749079594182226 -0.12903544004649728
1440000000.0 0.32209453126052545 0.18530246331357114
1460000000.0 -0.0031003646603883846 -0.36468033503406955
1480000000.0 -0.3112469779554216 -0.16540151916086143
1500000000.0 0.08452247516320516 0.31424774030057084
1520000000.0 0.30347698865621037 -0.06626457341753482
1540000000.0 -0.23671083468657753 0.14796297148420742
1560000000.0 0.15295117147947718 -0.19453757312781902
1580000000.0 0.06983372577868338 0.19033469508972012
1600000000.0 0.14433189448426792 -0.09589132905246907
1620000000.0 0.0860791058600959 -0.11888009057967973
1640000000.0 -0.06951919061353938 -0.10936972944859437
1660000000.0 0.10273822414712908 0.05793434570339653
1680000000.0 0.09059438334471205 -0.04082741313770336
1700000000.0 0.037767948864786134 0.0639427578652408
1720000000.0 -0.036225519768799154 -0.04197035830158489
1740000000.0 -0.03134935638636055 0.027283254147952747
1760000000.0 -0.04541405347241558 0.031613553537916915
1780000000.0 0.09248080498349524 0.02463919996228804
1800000000.0 0.07968547333138813 0.10078891003006674
1820000000.0 -0.08734242145698491 0.1302160415585737
1840000000.0 0.10176425591472057 0.16198709303996875
1860000000.0 -0.139012302847009 0.1676889550852512
1880000000.0 0.21253916740834244 0.11305360365242571
1900000000.0 0.24807590086306575 0.09824455817860915
1920000000.0 -0.29108291311757123 -0.009189328356856444
1940000000.0 0.23535725769549595 -0.18918163758593604
1960000000.0 0.1744759005309471 0.25457490006600214
1980000000.0 -0.16522717593659464 0.257454973842044
2000000000.0 0.1712449995098398 -0.24189544740119964
2020000000.0 -0.29969464059185724 0.004288028356244434
2040000000.0 -0.20502110531612036 -0.24455176877282592
2060000000.0 -0.2936486552948744 0.14710661782650616
2080000000.0 -0.0993503487819935 0.30975094680381215
2100000000.0 -0.11512584171332144 -0.29374063767167363
2120000000.0 0.25278165133719727 0.17677978532833027
2140000000.0 -0.2749289856402478 -0.11888835336074853
2160000000.0 -0.26346105387524693 0.13748479822030354
2180000000.0 0.15099872019049698 0.24910878061879532
2200000000.0 0.25235738449426287 0.12110463249308209
2220000000.0 -0.012711901300130496 0.2704456628502138
2240000000.0 -0.224880273205446 -0.14405101694181782
2260000000.0 -0.07279744347658298 -0.2550939780184062
2280000000.0 0.2426828023705479 -0.0856306468202247
2300000000.0 0.24460878200904476 -0.03489167965263399
2320000000.0 -0.21914353529326847 0.07089104496306502
2340000000.0 0.2239496774266258 -0.019057249108194986
2360000000.0 -0.025642691443484293 -0.22112156515411163
2380000000.0 0.05572467736681405 0.22644081109956685
2400000000.0 -0.2424410888593681 0.07030280782252368
2420000000.0 0.07960349389639021 0.26410981622939955
2440000000.0 0.2005944463576101 -0.22329386465120327
2460000000.0 -0.22786286388458274 0.23843989828534035
2480000000.0 0.26380685896695166 0.2506420654204701
2500000000.0 -0.400980886983825 0.01696883079892232
2520000000.0 0.023385621576608038 -0.44047333740814304
2540000000.0 0.4302055690611648 0.20701819428101004
2560000000.0 -0.446904322089803 0.2521305229743885
2580000000.0 0.1392460569162473 -0.5264154260039302
2600000000.0 0.14388559444836255 0.5565303201378576
2620000000.0 -0.45987213186820347 -0.3845062469440693
2640000000.0 0.6068781725190229 0.11609539822918193
2660000000.0 -0.4720548268927034 0.4256343427229118
2680000000.0 -0.3046223684953617 -0.572277515408998
2700000000.0 0.4471471259677441 -0.4835704896466391
2720000000.0 0.6648137718161149 -0.022311693405576476
2740000000.0 0.6635500695315298 0.09366449714120574
2760000000.0 0.6701729984408321 0.06384899170765403
2780000000.0 -0.21710121142768224 0.633671955656132
2800000000.0 -0.40479169222902844 0.5236268151794231
2820000000.0 -0.6146250299615099 0.21916832833043146
2840000000.0 -0.23975481630579892 -0.594306926311164
2860000000.0 0.5943856187406517 0.20195806846528952
2880000000.0 -0.5965111317747881 -0.14681936599370327
2900000000.0 0.41341654096827124 0.431696401406612
2920000000.0 0.2530934332972661 -0.5186618958629058
2940000000.0 -0.4474360715138828 -0.32632654327599425
2960000000.0 -0.4490529652618941 0.2816873618893784
2980000000.0 -0.0028490543512236055 0.5081624719091825
3000000000.0 0.47958566977411227 -0.08319722249545422
3020000000.0 -0.37630787331184334 -0.26482388359299763
3040000000.0 0.13270696205484528 0.4107150734505539
3060000000.0 0.19318506922213058 -0.35353023647887377
3080000000.0 -0.3530414754010355 0.14038472130185795
3100000000.0 0.29853058200594 -0.20605445388472127
3120000000.0 -0.1339755822016652 -0.320701409669006
3140000000.0 -0.1270371935320333 0.31659550082793264
3160000000.0 0.11345676882187347 -0.31784452414468756
3180000000.0 -0.05491154068064605 0.33085603429070226
3200000000.0 0.10246172987816676 -0.30991709672854945
3220000000.0 -0.262523666932869 -0.1826739829028225
3240000000.0 -0.19858315500506932 0.22972267555635906
3260000000.0 -0.2827957311279147 0.04644394285335086
3280000000.0 -0.1446900583379086 -0.23141629406070802
3300000000.0 0.14411561139267423 -0.20675168988792356
3320000000.0 -0.023079659094634997 0.23056672893157945
3340000000.0 -0.11560824106591423 -0.1753866837851321
3360000000.0 -0.10270603881350325 0.15579333242858157
3380000000.0 0.10769044087117914 -0.12323315077090861
3400000000.0 -0.14108888125161095 0.041865241750883644
3420000000.0 0.0477848578696735 -0.11583682183569362
3440000000.0 0.09826159843690986 -0.05998650618292275
3460000000.0 0.020305933375261168 0.10220787668722196
3480000000.0 -0.008562987230036847 -0.0927620176191925
3500000000.0 -0.016252277710961535 0.08563924851831599
3520000000.0 -0.06609024575171725 0.03907260858228024
3540000000.0 -0.037651825068116915 -0.06389941415347208
3560000000.0 0.03661434116693868 0.06801429322438386
3580000000.0 0.013222772724013395 -0.08372704278867837
3600000000.0 -0.06547734642736851 0.0669173746248452
3620000000.0 -0.09777135232711734 0.030063111702419435
3640000000.0 -0.10623905177143518 -0.03176659872468767
3660000000.0 -0.0029288283170206576 -0.1183792039108926
3680000000.0 -0.11274800207361133 0.026532215251357686
3700000000.0 0.0794835172644813 -0.06436243164928357
3720000000.0 0.02323945444133287 0.09265283086314473
3740000000.0 0.034143159047193186 -0.07250638461991864
3760000000.0 -0.05154333511734514 0.056716921044053376
3780000000.0 -0.05421309439320935 -0.04383980064931837
3800000000.0 0.03008447056098989 0.03789645822880497
3820000000.0 0.0036491892828340693 0.0358309233512291
3840000000.0 0.04092785507634278 0.026392265349200316
3860000000.0 0.07558403044176754 -0.006105734216044782
3880000000.0 0.021220203614136277 -0.09261724955175449
3900000000.0 0.06201229612847148 -0.08204313644567404
3920000000.0 0.0034583531937203336 0.1066872093655572
3940000000.0 0.09735238973265226 -0.03179665170302488
3960000000.0 -0.0010715626087303399 -0.1016325701046043
3980000000.0 0.039961529391834276 0.09006501220637794
4000000000.0 -0.01833525298681757 -0.08027854836390198
