!Created with skrf (http://scikit-rf.org).
# Hz S RI R 50.0 
!freq ReS11 ImS11
400000000.0 -0.8063165169939404 -0.17481815941239878
420000000.0 -0.5611182903911023 0.5161415461604854
440000000.0 0.021134668177291954 -0.754395103235205
460000000.0 0.4523847206701749 -0.5746978988161651
480000000.0 0.4368752124336307 0.4771069763043541
500000000.0 -0.4813282042291064 -0.07773813507884193
520000000.0 0.3822098551024585 -0.10469712089186749
540000000.0 0.4141778729121814 0.28177864479764836
560000000.0 0.48499024233696914 -0.03907007493970593
580000000.0 -0.14993275051336497 0.3977177227672416
600000000.0 -0.43827534806853463 0.016825874690480577
620000000.0 -0.0653171119709772 0.3751195371481447
640000000.0 -0.24149332429723436 -0.2562538297071653
660000000.0 -0.27112552767741954 0.2797623867639813
680000000.0 -0.0015750943619536114 -0.37610556121540495
700000000.0 0.023677937796803876 0.3624046597517116
720000000.0 0.04709829991097189 0.34340966795005645
740000000.0 -0.299067960162396 0.13293386336526644
760000000.0 0.2603150419448538 0.14958638405390906
780000000.0 0.1969806419093958 0.19738767564422624
800000000.0 -0.045750471278161724 -0.22523070100213408
820000000.0 0.06947064300168358 0.2007568661784505
840000000.0 -0.03981083559174826 0.19294343731273192
860000000.0 0.0813760357849065 -0.16455490069303205
880000000.0 0.034545144958800934 -0.1696308926423702
900000000.0 -0.1543623645464813 -0.006387746256117085
920000000.0 0.15130554741518884 0.015653016255793347
940000000.0 0.10583452324452924 0.08986066668071224
960000000.0 0.07504950811436838 0.061532367285467446
980000000.0 0.05527642050085285 -0.01895220739675665
1000000000.0 -0.04198279024248499 -0.0030929755855019308
1020000000.0 0.04613715125402843 0.006951931385184186
1040000000.0 0.062057860177017775 0.028672436021399128
1060000000.0 0.08971361660736339 0.02772053793751339
1080000000.0 0.14721131653068098 -0.01608268477062885
1100000000.0 0.05354402889808534 -0.1787712019057671
1120000000.0 0.17147686844689758 0.14947437136393632
1140000000.0 0.2560668530924015 -0.09332204996827766
1160000000.0 -0.20217801511018146 -0.211275575722187
1180000000.0 0.04684698903306913 0.3075013705706097
1200000000.0 0.26483349232399184 0.19249143885998382
1220000000.0 -0.053816211502134365 0.328747953665004
1240000000.0 0.10118045497913704 0.3183281817091549
1260000000.0 -0.3233975306916119 -0.06250656342779944
1280000000.0 0.10897951948692328 -0.3131664136604368
1300000000.0 0.012333155270767938 0.35175982588479804
1320000000.0 0.37612540528915583 0.03276400135601829
1340000000.0 -0.17871320045299321 0.3333497864625237
1360000000.0 -0.3743438064456068 -0.025219258372024742
1380000000.0 0.3738749535412715 -0.017482406052930017
1400000000.0 0.0005379888580315859 -0.37246754456182013
1420000000.0 -0.3594326489592382 -0.12169750813611753
1440000000.0 0.2843294785736394 0.23834894820552815
1460000000.0 0.03921300153553976 -0.36277363721747274
1480000000.0 -0.29934295121344284 -0.18621816885524542
1500000000.0 0.09346237367694979 0.311578696491333
1520000000.0 0.3055376179370303 -0.05567545018738081
1540000000.0 -0.23368995737998058 0.15220782858298057
1560000000.0 0.1354867458950569 -0.20755143372768206
1580000000.0 0.12003708643605383 0.16285722034217393
1600000000.0 0.15884061615919912 -0.0684897712532385
1620000000.0 0.11205550385666074 -0.09443252772576265
1640000000.0 -0.07429093639784413 -0.10716618723210312
1660000000.0 0.09719472952496894 0.06824849691642404
1680000000.0 0.07968826558986565 -0.057509000110510786
1700000000.0 0.04029145469985877 0.061013123788373765
1720000000.0 -0.016603963354107184 -0.0527762145414161
1740000000.0 -0.0410944904970276 0.0005991162426470472
1760000000.0 -0.055430471239449046 0.006868386345884518
1780000000.0 0.0955676664606795 -0.0009705244258958328
1800000000.0 0.09362591983483942 0.08651246515672723
1820000000.0 -0.11389134580153255 0.1072223512003036
1840000000.0 0.08812138106828736 0.16995657067858264
1860000000.0 -0.11690733749581994 0.18413210142869943
1880000000.0 0.20898764863138725 0.11809641066581912
1900000000.0 0.253788792470708 0.08267740453108448
1920000000.0 -0.29188599707420126 -0.002820030997417072
1940000000.0 0.19706188141548897 -0.22878760250000416
1960000000.0 0.15981638756013739 0.2633669734315164
1980000000.0 -0.1851830576739987 0.24310164953154587
2000000000.0 0.2086179756305597 -0.21157956808689185
2020000000.0 -0.29986622885436726 0.01615404268147218
2040000000.0 -0.1887162841915591 -0.2572811217345116
2060000000.0 -0.3037801014036896 0.12367112378627876
2080000000.0 -0.11694294646338305 0.303369904697995
2100000000.0 -0.1289851567535225 -0.28780915560312587
2120000000.0 0.27433944165147084 0.14090159810932892
2140000000.0 -0.2914192314375154 -0.06763035653229751
2160000000.0 -0.28490470773061854 0.08344673242606516
2180000000.0 0.1498289446566443 0.2507999395761897
2200000000.0 0.267276239457375 0.0846596301537382
2220000000.0 0.007848585099048346 0.2705936776365826
2240000000.0 -0.22945829948112026 -0.1365724717974677
2260000000.0 -0.07874915277501973 -0.2528519906103502
2280000000.0 0.24861766664701138 -0.06727139864582996
2300000000.0 0.24569773808981746 -0.02516301852145931
2320000000.0 -0.2189479094873464 0.07013868828651776
2340000000.0 0.2246258611091469 -0.014503036415129128
2360000000.0 -0.042345259400507616 -0.21876138855914798
2380000000.0 0.09287664104787922 0.21308635407420545
2400000000.0 -0.24883306799954888 0.03648901908620843
2420000000.0 0.018901928446389767 0.2758602279919572
2440000000.0 0.20237086260456028 -0.22305547524524336
2460000000.0 -0.1997186143023105 0.26256045166911357
2480000000.0 0.2619644466849011 0.2521232975282764
2500000000.0 -0.4003921653750587 -0.02402041761969833
2520000000.0 0.05189449036003427 -0.43771490421693976
2540000000.0 0.4225127727727777 0.22328458944610105
2560000000.0 -0.4556053675808234 0.2369427243110506
2580000000.0 0.14643956650292456 -0.5244141883022471
2600000000.0 0.14199948787897013 0.5568077656217384
2620000000.0 -0.45656758721325874 -0.3880084629613267
2640000000.0 0.6136926286267486 0.07074115130638846
2660000000.0 -0.5004757431441988 0.3916243207649674
2680000000.0 -0.31136998026907586 -0.5685446244620473
2700000000.0 0.44569206529756183 -0.48502161034895125
2720000000.0 0.6558091376472902 -0.11001956181944161
2740000000.0 0.6502158181180163 0.16155736775458085
2760000000.0 0.657245128433256 0.1438945071534141
2780000000.0 -0.23914040056555233 0.6256885999384123
2800000000.0 -0.3791177767272423 0.5424853818352388
2820000000.0 -0.6349352306249438 0.1500607290210241
2840000000.0 -0.23621037215235627 -0.5952876368307097
2860000000.0 0.6119013257406479 0.1386128723376119
2880000000.0 -0.6025418992762067 -0.11771945422539377
2900000000.0 0.42080648549934985 0.42410770365317524
2920000000.0 0.2396573831131308 -0.5252032056986666
2940000000.0 -0.4472306680743237 -0.32641594226455994
2960000000.0 -0.46358416489161736 0.25769899486769426
2980000000.0 0.015097097592527977 0.508288526594754
3000000000.0 0.4707956301566771 -0.12324928760853847
3020000000.0 -0.36138720978875705 -0.28406408125080546
3040000000.0 0.014939908818275992 0.4318259662370453
3060000000.0 0.1958546348972985 -0.3525502437101176
3080000000.0 -0.3565158100854995 0.13016168332334768
3100000000.0 0.26292633388373504 -0.24938658284197798
3120000000.0 -0.15465034691549773 -0.31062045793565335
3140000000.0 -0.1297557670853012 0.3150162602114053
3160000000.0 0.09596915061698937 -0.3237907966114527
3180000000.0 -0.038943130351964124 0.3336278198290375
3200000000.0 0.09373685986522821 -0.31302003859495386
3220000000.0 -0.28277941226251746 -0.14861355402570733
3240000000.0 -0.2072239247604105 0.22334044614579826
3260000000.0 -0.2870455845141971 0.010992084905159601
3280000000.0 -0.1230360253695866 -0.24337480634156178
3300000000.0 0.18406750608266986 -0.17328615321450103
3320000000.0 -0.06054864121619327 0.223821272064437
3340000000.0 -0.14713291091029582 -0.14909057324508557
3360000000.0 -0.09765703482132361 0.15806770153524474
3380000000.0 0.13291871272293598 -0.09494213296187462
3400000000.0 -0.1270945393920697 0.07340559002890021
3420000000.0 0.027803696021945812 -0.12184214694829093
3440000000.0 0.07565383712567007 -0.0866463988962165
3460000000.0 0.06350958399274179 0.08207294431746143
3480000000.0 -0.004770206454764804 -0.09420861560661033
3500000000.0 0.004652195821810077 0.08712575927184092
3520000000.0 -0.0651648902709879 0.04056868844186453
3540000000.0 0.0028816297216487955 -0.07403127876742048
3560000000.0 2.1655103665863344e-05 0.07806977207832327
3580000000.0 0.022003761411113654 -0.08246152476768764
3600000000.0 -0.0462191951106672 0.08114252330297445
3620000000.0 -0.10081217646447976 0.011776928046284605
3640000000.0 -0.08772204202327202 -0.0673012832437526
3660000000.0 0.0353905429027756 -0.11284767007194392
3680000000.0 -0.11093958360205992 0.032965348111970216
3700000000.0 0.08975279069694496 -0.04994552034335877
3720000000.0 0.053683994659947956 0.07847135224615362
3740000000.0 0.031059260417206337 -0.07335173873115822
3760000000.0 -0.054551114185527355 0.05398779389016016
3780000000.0 -0.06958768201538583 -0.006889723156237026
3800000000.0 0.029986902546710468 0.03843128150244477
3820000000.0 0.015952750543217396 0.03315817782428568
3840000000.0 0.047506891572649756 -0.00814867186516565
3860000000.0 0.0570133414957797 0.050267008458834854
3880000000.0 0.03315798302169975 -0.08963520212267016
3900000000.0 0.07174062815646111 -0.07449390291880513
3920000000.0 0.03877310153835434 0.09947541023243481
3940000000.0 0.08692870900024603 -0.05378182053019641
3960000000.0 0.06924978226280547 -0.07327595448479934
3980000000.0 -0.020969306843419612 0.09598725393240971
4000000000.0 -0.021942616206150168 -0.08027198778133202
