!Created with skrf (http://scikit-rf.org).
# Hz S RI R 50.0 
!freq ReS11 ImS11
400000000.0 -0.8177312463686575 -0.08572449161634163
420000000.0 -0.4489417922550922 0.6184550711384261
440000000.0 -0.10217365642791977 -0.7422774575754733
460000000.0 0.26547457529408836 -0.6805981623639856
480000000.0 0.4851796656164909 0.4173422392925252
500000000.0 0.3305310677614543 -0.3442449462934271
520000000.0 0.3886198525491245 0.1339266461912015
540000000.0 0.3589098079377464 0.3503848039208124
560000000.0 0.2568605522436119 0.42295687124343423
580000000.0 0.02939274259501551 0.4420461617205291
600000000.0 0.4037270365609526 -0.1561013070192671
620000000.0 0.04618716213390286 0.3853237730547519
640000000.0 -0.27805027138132055 0.2170451436643717
660000000.0 0.3327937542839945 0.15655823737772837
680000000.0 0.31982939463399707 0.11869361884947517
700000000.0 -0.14584734345648712 -0.3345907396054442
720000000.0 -0.3264880744683543 0.12034374845153775
740000000.0 -0.17763109542560102 -0.2755792637337948
760000000.0 0.265004707329992 0.142642390810469
780000000.0 -0.13796521858201868 0.25369727107338313
800000000.0 -0.2026234210195928 0.13710399035876122
820000000.0 -0.05643389380558433 -0.19680905672731402
840000000.0 -0.1662982743142468 -0.10099028111737066
860000000.0 -0.18510309731336597 -0.021227857749720195
880000000.0 0.029657019879671828 0.18478719039427144
900000000.0 -0.1196161772019924 -0.10417009506395017
920000000.0 -0.09662306447710287 0.10815398403258751
940000000.0 0.08942173616402105 0.09171134781768212
960000000.0 0.06785490276561824 -0.06185854943988452
980000000.0 0.04127390316711826 0.013953079140354265
1000000000.0 -0.0034442151176206264 0.02496145142824061
1020000000.0 -0.016449389329007053 -0.019962026126492432
1040000000.0 0.06242663765753883 -0.016235839877773835
1060000000.0 0.10880185097597156 -0.03674555573883612
1080000000.0 -0.15914470065278027 -0.03764671984187086
1100000000.0 -0.19610907020081086 0.027307848285998353
1120000000.0 -0.1910339966064944 -0.12645402899801542
1140000000.0 -0.06031823113679058 -0.24921639852656358
1160000000.0 0.04630291371778031 -0.2847579006559401
1180000000.0 0.18113889128874727 0.2443292301611776
1200000000.0 -0.0028133232082327795 0.32012271782875806
1220000000.0 -0.325968480455529 -0.034346605023228574
1240000000.0 -0.3315530688573641 -0.07334940026708357
1260000000.0 -0.2379380486498878 -0.2475634788031629
1280000000.0 -0.299519707714686 -0.17321459613161055
1300000000.0 0.1830387381343696 -0.30246163910235596
1320000000.0 0.10454534156718528 -0.3458339132891659
1340000000.0 -0.3660270592185404 0.010265927936923379
1360000000.0 0.15584241572644095 -0.3425864104717229
1380000000.0 0.32776877709855895 0.2030891955575332
1400000000.0 -0.3778170602078611 -0.012816354865392043
1420000000.0 -0.1951076930474308 0.31765482941427
1440000000.0 0.19115261874129014 0.3141916241002241
1460000000.0 -0.005349574585269947 -0.36190092773041405
1480000000.0 -0.11344613117553415 -0.32765717135561573
1500000000.0 -0.10905645786176454 0.31010990907977865
1520000000.0 0.3020952836387938 -0.0712930533232484
1540000000.0 -0.2752513317435414 -0.04523678438446227
1560000000.0 0.22818755065481844 0.09872299272531394
1580000000.0 -0.20780699993788768 0.05275400400505353
1600000000.0 -0.09468049097640525 0.15989463981189408
1620000000.0 0.13901688572604098 0.03656631484180195
1640000000.0 0.05883849436418841 0.10151937732875295
1660000000.0 -0.06863491147404681 0.07739535001022568
1680000000.0 0.08907526305518688 -0.03637341191553625
1700000000.0 -0.0052137639295314646 -0.07656359908335796
1720000000.0 0.008315727075153847 -0.05595920766409962
1740000000.0 -0.025621653509399586 -0.03854796150941861
1760000000.0 -0.05271542864877183 -0.019225651691278017
1780000000.0 0.07041809386532215 0.06128354475066113
1800000000.0 0.10688008502427836 0.06279867340459516
1820000000.0 -0.11850250762801084 0.10274071504051198
1840000000.0 0.07089366087114406 0.1774937595998932
1860000000.0 -0.08276666050420779 0.20223992209204775
1880000000.0 0.23787458452423732 0.035250561709195105
1900000000.0 0.19072598896436702 -0.1815231095158828
1920000000.0 -0.25287240154121465 -0.1336205133130128
1940000000.0 0.26983455177985877 0.12960433057856213
1960000000.0 -0.21422721625772453 0.22571662434314813
1980000000.0 -0.29156944109257094 -0.111729595111086
2000000000.0 0.2598561413896977 -0.16764243331069856
2020000000.0 0.2684509368143801 0.16209573744210204
2040000000.0 0.18862912434443582 0.25493899279289567
2060000000.0 0.23062315303096229 0.21216285830561016
2080000000.0 -0.17222158846585173 0.25655526814344465
2100000000.0 0.3048827897128873 -0.0166714350901566
2120000000.0 -0.2919788732327586 0.10262933962425204
2140000000.0 0.017013300807280314 -0.30624284366321575
2160000000.0 -0.21459766710088296 0.21181710416562785
2180000000.0 0.27398023499568375 0.10693944377018348
2200000000.0 0.25791820230251433 0.11266895742910836
2220000000.0 -0.006881672154336606 0.2744013231932078
2240000000.0 -0.24186330638660417 0.12370149152325402
2260000000.0 -0.24736419478136693 0.08152395469611876
2280000000.0 0.24990588832870106 0.004227031596605856
2300000000.0 0.07462068373737113 0.23228175079283228
2320000000.0 -0.15308201414244357 -0.17344541085248139
2340000000.0 0.1423938317961415 0.17875029878394733
2360000000.0 -0.19137434286499455 -0.1243878134416769
2380000000.0 0.22207667670795295 0.06609362418345376
2400000000.0 -0.1297724696213353 0.20670679204298859
2420000000.0 -0.23689954218868484 0.13877912177303553
2440000000.0 0.2932134835040903 -0.07953491502466642
2460000000.0 -0.25881024082117315 0.21328272720943695
2480000000.0 0.3579984156365498 0.0775708421640513
2500000000.0 -0.3175585353605884 0.24170821872281908
2520000000.0 0.07739578050501189 -0.43165723168997117
2540000000.0 0.3647533364607511 0.30493003092217086
2560000000.0 -0.4768803180987633 0.1884712679803201
2580000000.0 0.213100474777502 -0.49983725051371297
2600000000.0 0.021613926740643472 0.5742505465048339
2620000000.0 -0.4177279273088906 -0.4293262271791644
2640000000.0 0.6044299279301051 0.12917932182574698
2660000000.0 -0.48799193220097525 0.40656302442119335
2680000000.0 -0.2054795422976479 -0.6143879687489133
2700000000.0 0.48936103079883037 -0.4404177308954995
2720000000.0 0.6645112612333902 -0.03856612274794449
2740000000.0 0.6565195250706942 0.13538249582015838
2760000000.0 0.6503230829176911 0.17270456211170193
2780000000.0 -0.28715401692152015 0.6043451910425824
2800000000.0 -0.4391561288232722 0.49512796332238773
2820000000.0 -0.6429465895457593 0.11152780602484844
2840000000.0 -0.23589248853089576 -0.596343460976019
2860000000.0 0.6057874360856722 0.16554817589910678
2880000000.0 -0.5964693126739868 -0.1428875417646873
2900000000.0 0.38055862806848034 0.4590787025654943
2920000000.0 0.303503980551227 -0.48957780920433186
2940000000.0 -0.4002431719327092 -0.3853289274121114
2960000000.0 -0.4426470588255944 0.29546424563232715
2980000000.0 0.10348243001560298 0.4963968778968503
3000000000.0 0.47449461930777526 -0.09870771485177783
3020000000.0 -0.30357738536665807 -0.3466750952532348
3040000000.0 0.12643919522119193 0.4137112157098887
3060000000.0 0.22996279430943956 -0.3324976901410788
3080000000.0 -0.36880620342036313 0.09818446706441371
3100000000.0 0.27563290923599104 -0.2336139296055729
3120000000.0 -0.10778559292375321 -0.33094368227137877
3140000000.0 -0.0799116797840482 0.3306962641742955
3160000000.0 0.01554784844301701 -0.33798646332872134
3180000000.0 0.049375471704666295 0.3303397029642236
3200000000.0 0.06786507226353279 -0.3197318751053806
3220000000.0 -0.23892422178967937 -0.20532501628443603
3240000000.0 -0.2767493716449521 0.12862351502544242
3260000000.0 -0.22428199319826414 0.18145839485736415
3280000000.0 -0.09504221183076784 -0.24959321780907126
3300000000.0 0.2285667689342861 0.10577346391418316
3320000000.0 -0.23641487186336077 0.006147260079244099
3340000000.0 -0.16624372937977344 -0.13905301178991636
3360000000.0 0.13079994050547816 -0.13569748375029975
3380000000.0 -0.15605471102021 0.022018932021990706
3400000000.0 -0.1353163812812706 0.011226530407303878
3420000000.0 -0.10765429048547033 0.06187494072405462
3440000000.0 0.09966665741269852 0.06278056213560629
3460000000.0 0.09336260662018162 0.053817245529286156
3480000000.0 -0.05670778832603744 -0.07998223858052014
3500000000.0 0.059945760541520364 -0.06646293504017255
3520000000.0 0.07353510081034724 0.026391277699294155
3540000000.0 -0.017975573914501976 -0.07148790074132716
3560000000.0 0.04251121865414577 0.06445943367618948
3580000000.0 -0.029435612335661207 -0.07751477081817222
3600000000.0 -0.07207506133260698 0.05715914099635916
3620000000.0 -0.099669078033065 -0.021474222787083105
3640000000.0 0.026276187672181688 -0.107000767794899
3660000000.0 0.08587344720234168 -0.08285512747880182
3680000000.0 -0.11359811689465199 0.026807558373577355
3700000000.0 -0.09713996374425891 -0.03424589305065964
3720000000.0 0.002736156716836124 0.09203327639741615
3740000000.0 -0.019128282897826324 -0.07915886178678272
3760000000.0 0.07664470215934772 -0.009466482085327427
3780000000.0 -0.06231942648520288 -0.02899207399285184
3800000000.0 0.0036577017087100223 0.048797038592901014
3820000000.0 0.0014891529890874733 0.03539023040244487
3840000000.0 -0.023126055425595444 -0.042732405310279685
3860000000.0 -0.047799504598248575 -0.056064930287610254
3880000000.0 0.07039027222931127 -0.0613546497436198
3900000000.0 0.10344554478928958 -0.0036225537629940483
3920000000.0 0.09482277755664102 0.05003591994238952
3940000000.0 0.06746576843462154 -0.0794223591861131
3960000000.0 -0.05352064286049019 -0.08576033472649913
3980000000.0 -0.01782429823052201 0.093276173916694
4000000000.0 -0.012813505445777766 -0.08181784822001276
