!Created with skrf (http://scikit-rf.org).
# Hz S RI R 50.0 
!freq ReS11 ImS11
400000000.0 -0.8092258859168994 0.16472410016918201
420000000.0 -0.66701534731031 0.3629786194004925
440000000.0 0.2146884302928879 -0.7222982546465705
460000000.0 0.5430185416352137 -0.505994243129325
480000000.0 0.6371801407709876 0.12284674390733988
500000000.0 -0.4641466732560062 0.13134809745130877
520000000.0 0.32623607993125375 0.2180538463648385
540000000.0 0.12669545825779863 0.48429457145077276
560000000.0 0.25542056293241605 -0.41919021167950704
580000000.0 -0.41399652885581156 0.07958988788698323
600000000.0 -0.3970287770178835 0.18732171450193125
620000000.0 -0.3409945565020715 0.18514322355095633
640000000.0 -0.264844795416362 -0.23945570359615082
660000000.0 0.05033906493858159 0.38202472500726126
680000000.0 -0.035531918399569144 -0.3703915589472094
700000000.0 0.14826050570874785 0.3338487936932411
720000000.0 0.08181491908879204 0.3377438951923491
740000000.0 0.07696184643162841 0.31306647142326305
760000000.0 -0.20935038284246268 0.19900821311440392
780000000.0 0.10024237616536204 0.26678882923095365
800000000.0 0.23372722935462642 -0.022664699082841598
820000000.0 0.17034988059077977 0.13620920848721793
840000000.0 0.17268287194681062 0.10513959677464664
860000000.0 -0.02878016231770023 0.17617034201637907
880000000.0 -0.100217991290219 -0.13241114070798388
900000000.0 -0.12035426689111411 -0.09023377407838282
920000000.0 -0.1429281226779909 0.06058559724476454
940000000.0 -0.05104969300542655 -0.13062060946261725
960000000.0 -0.10759365932713898 -0.021694450277626676
980000000.0 -0.036770791708505036 -0.05834684715629836
1000000000.0 -0.006613183794985251 -0.04468504113934602
1020000000.0 0.0002422402544012334 -0.0526322842551047
1040000000.0 -0.020553653043846463 0.06310558649210783
1060000000.0 0.024720706892708406 0.07705145213052256
1080000000.0 -0.1385220931331394 0.014277808599948592
1100000000.0 0.015563865847259451 0.1899321840417139
1120000000.0 0.20243087957314113 0.12955074154862495
1140000000.0 -0.12475697920121583 -0.24315403947795428
1160000000.0 -0.22803598537530728 -0.18103793806933496
1180000000.0 0.07874687141464105 0.2970590676408091
1200000000.0 0.09459770278529822 0.3124002573339668
1220000000.0 0.06798757741620319 0.33291554783634064
1240000000.0 0.3022632911646113 0.14109605388444402
1260000000.0 -0.26161929849438126 0.18680620691650643
1280000000.0 0.32256313052599966 -0.07582912121192993
1300000000.0 0.06777978891289738 0.3459638666327421
1320000000.0 0.25703254420824057 0.2720700300122906
1340000000.0 -0.3668823375359489 0.10354719289482789
1360000000.0 -0.3758743520234055 -0.06493444822921908
1380000000.0 0.36809607028447944 -0.0901772669952358
1400000000.0 -0.2693948815206623 -0.25712506331724827
1420000000.0 -0.24042218491138764 0.2841190503579426
1440000000.0 -0.06860509684179848 0.35527786778749026
1460000000.0 0.32355483908284427 -0.17171648732368114
1480000000.0 -0.18413840726312683 -0.30490729846277126
1500000000.0 0.2517397623024659 0.21822242220611468
1520000000.0 0.10053550262981366 -0.2923550146501912
1540000000.0 -0.12200138740230901 0.24580765347896444
1560000000.0 0.23902431572735475 -0.04584908940150256
1580000000.0 -0.16483768321323725 0.12543195865194726
1600000000.0 -0.055713156188421556 -0.16623924101045648
1620000000.0 -0.019406567053153353 -0.14383883045082152
1640000000.0 -0.024312070447642237 -0.12489322811526618
1660000000.0 0.0872613633297032 0.08393695136621644
1680000000.0 0.07680838715048936 0.058324233419283514
1700000000.0 -0.027217366359129632 0.0729782354601748
1720000000.0 -0.0370753382833403 -0.03825584020721108
1740000000.0 -0.02872518550370748 0.02801065171841811
1760000000.0 -0.010695071345305746 -0.056359247848926014
1780000000.0 -0.016013860267963073 -0.09597018321558223
1800000000.0 0.11929836543167019 -0.04215713757569189
1820000000.0 -0.011930152088923559 0.15133462476348075
1840000000.0 -0.1812337850176517 0.04677515142508238
1860000000.0 -0.2207720897367346 0.026229905475210723
1880000000.0 0.22961286499113487 0.09483701431307948
1900000000.0 0.10619906875751389 -0.24724368970556707
1920000000.0 -0.1375248671101029 0.25403972543168263
1940000000.0 0.17325943503563054 -0.23933208036439016
1960000000.0 -0.2854383589330513 0.10536410548844038
1980000000.0 -0.27959255762593077 -0.13191492292224474
2000000000.0 0.20686436308175646 -0.22485460782044372
2020000000.0 0.007845264207540626 0.30421447251861833
2040000000.0 -0.31282053367696094 0.0159736022138385
2060000000.0 -0.3142408714516278 0.06297311447911491
2080000000.0 -0.299832218585839 0.12085087955463358
2100000000.0 -0.013731363069089805 -0.31980981335284314
2120000000.0 0.29923060651851124 0.08008959027569894
2140000000.0 -0.2836442032899012 -0.0948044258821132
2160000000.0 -0.24597873757252103 0.16580437598841818
2180000000.0 0.15019750883674757 0.2504819889418771
2200000000.0 0.28044196620265194 0.030631378924399374
2220000000.0 0.09916107494661111 0.25216998006216007
2240000000.0 -0.23046752827657604 -0.130928470540002
2260000000.0 0.15147132579800154 -0.21647389183201476
2280000000.0 0.2099531961794959 -0.15403520449437616
2300000000.0 0.20426453667174302 -0.13956514790425306
2320000000.0 -0.21091061371162018 0.0885074352758619
2340000000.0 0.19760325505934007 0.10611248328890564
2360000000.0 -0.032519838294377296 -0.22070568245806244
2380000000.0 0.024202934202949045 0.23390910391936165
2400000000.0 -0.18076432533790082 0.17537277085665046
2420000000.0 0.08809924323658999 0.2603118052828884
2440000000.0 0.1998904549222925 -0.22314862907715635
2460000000.0 -0.23974597496858727 0.22827397030806626
2480000000.0 0.28053569147190954 0.22882759242035877
2500000000.0 -0.40068328459678537 0.02333126310281484
2520000000.0 0.02153482532310354 -0.43973047679028593
2540000000.0 0.36730011946429497 0.3071319898083917
2560000000.0 -0.4527434668344914 0.24568903628838218
2580000000.0 0.11882625829364318 -0.5327561693761359
2600000000.0 0.23161106407584836 0.5253915417337366
2620000000.0 -0.45923609812270944 -0.3821301816691845
2640000000.0 0.6126135680929222 0.07346381502172675
2660000000.0 -0.5216006619738848 0.3611853931457882
2680000000.0 -0.2881497539666189 -0.5804164663277814
2700000000.0 0.47810135797247394 -0.45291994260758267
2720000000.0 0.6564846339728181 -0.10762921991256688
2740000000.0 0.6664448417469018 0.06825217024122533
2760000000.0 0.6647325905364702 0.10414523246519011
2780000000.0 -0.18421889118755605 0.6438995876042151
2800000000.0 -0.4029856464170718 0.5242112024388702
2820000000.0 -0.6388198231041315 0.13179061240875695
2840000000.0 -0.2602648075189858 -0.5856180033816605
2860000000.0 0.5870532708746421 0.22326878033069847
2880000000.0 -0.5978183909810778 -0.14096043323275545
2900000000.0 0.42499009683674777 0.41951791493789314
2920000000.0 0.3306345822446106 -0.47234446115497125
2940000000.0 -0.448893019766679 -0.3268627506941859
2960000000.0 -0.4518679878567185 0.2763438273570588
2980000000.0 0.07598908673472872 0.5020907655941225
3000000000.0 0.4799855009303837 -0.06194065102964157
3020000000.0 -0.20468082274647803 -0.4119971907968208
3040000000.0 -0.12255747102759251 0.4165797362378438
3060000000.0 -0.005326976927319251 -0.4054753877159851
3080000000.0 -0.22155562674284335 0.30623624700710234
3100000000.0 0.2562281921470626 -0.25217796460472813
3120000000.0 -0.0550393525878408 -0.34236340234200957
3140000000.0 -0.11411560690828887 0.3215077283131678
3160000000.0 0.13905661514573317 -0.3088728022578117
3180000000.0 -0.03952713102161281 0.33364587924782063
3200000000.0 0.08196705739513238 -0.3185025550279249
3220000000.0 -0.31511741866174403 -0.03941131176532793
3240000000.0 -0.2451935019822582 0.17746695844978727
3260000000.0 -0.28441122203537833 -0.02358511993348871
3280000000.0 0.0484231472778824 -0.2681516940363506
3300000000.0 0.2190819278396541 -0.13011194760171305
3320000000.0 0.04564563790798586 0.22895623291089878
3340000000.0 -0.19011026437485742 -0.0875075966101032
3360000000.0 0.1667023865383305 0.07261871158929871
3380000000.0 0.15795111345277396 0.01800104283696716
3400000000.0 -0.044688631700248234 -0.13896810459819844
3420000000.0 0.12768453674228522 0.018587745923033274
3440000000.0 -0.08892515385380266 -0.07842762899622378
3460000000.0 -0.05908156037105166 -0.0854497791676466
3480000000.0 -0.0867638622630927 -0.024570695819323137
3500000000.0 -0.07384229056080134 0.04247088275995962
3520000000.0 -0.027932539044014815 -0.07356740565978238
3540000000.0 -0.025214067577936174 -0.07072153745399054
3560000000.0 0.0761243154420312 -0.017429874477343642
3580000000.0 0.08397741065027234 -0.019146486207217185
3600000000.0 -0.050791215001778994 0.07838324823188089
3620000000.0 -0.08667076875633382 0.049158718127185
3640000000.0 -0.06925961314563317 -0.08203754884907129
3660000000.0 0.11600465672232972 -0.005809661783869228
3680000000.0 -0.021509774624410612 -0.11684190978926953
3700000000.0 -0.10030342497487356 -0.036565208589901935
3720000000.0 -0.04736223358566345 -0.08071572516000326
3740000000.0 -0.061553056113190424 -0.04434768398066042
3760000000.0 -0.04231213710887994 -0.059731026104641066
3780000000.0 0.05980869620536472 0.03941435647159999
3800000000.0 0.019121762946433994 -0.0491303533253362
3820000000.0 -0.006206601759190198 0.035209621784371446
3840000000.0 0.041650048366612534 0.01477797532763236
3860000000.0 0.028968635189296536 0.06980550257394573
3880000000.0 0.08889865101737267 -0.03763706104063642
3900000000.0 -0.08162076486945506 -0.06487265494783488
3920000000.0 0.09541428450153895 0.0418817044064262
3940000000.0 0.10082065006460235 0.01760198991206359
3960000000.0 0.05313920033126765 -0.0878149088494279
3980000000.0 0.09172194499998637 -0.031226814643404686
4000000000.0 0.05768209332287065 -0.0591120250066304
