!Created with skrf (http://scikit-rf.org).
# Hz S RI R 50.0 
!freq ReS11 ImS11
400000000.0 -0.7961930135901453 -0.21299800137098004
420000000.0 -0.43200688338429627 0.6310795646814586
440000000.0 -0.15001707871889142 -0.7327226196034782
460000000.0 0.3760256141597552 -0.629572071298389
480000000.0 0.45143307358597906 0.45993296887595864
500000000.0 -0.39342219661619365 -0.27864045313689223
520000000.0 0.38057010962318605 0.13093959736673366
540000000.0 0.16526556950894608 0.47026002722240867
560000000.0 0.4567455656443655 0.18786023260575838
580000000.0 0.42875195266063737 0.06801219318479645
600000000.0 -0.2532204262981047 0.351070185566186
620000000.0 -0.35745812327508514 0.1543545505281229
640000000.0 -0.2693830093102521 0.22302876900511717
660000000.0 0.3473801344950796 0.15671700464089608
680000000.0 -0.24787817623094976 -0.24099521967445672
700000000.0 -0.26779357054464537 -0.23684310074143095
720000000.0 -0.2785506561509875 -0.2060519444584169
740000000.0 -0.18251839123012292 -0.27992177425685705
760000000.0 0.30249272580052183 0.006373084091448266
780000000.0 0.2201236499303994 0.17704643444959134
800000000.0 -0.1731419829009121 -0.16819433170874265
820000000.0 0.17293556099421312 -0.11063613381010773
840000000.0 0.1701070865143646 0.09397597347448625
860000000.0 0.046029565988488876 0.17271983138038277
880000000.0 0.13502720523441444 -0.1284665332170314
900000000.0 -0.1580750541169317 0.00045322541801832717
920000000.0 -0.14350976488145517 0.013860185488628657
940000000.0 -0.12753154398824307 0.022725511940448334
960000000.0 -0.08703164788323883 0.038298197700455026
980000000.0 0.04823603910618213 0.005510491651851248
1000000000.0 0.027154154837046918 -0.008513092141368377
1020000000.0 0.030491741850244083 0.01217531043793024
1040000000.0 0.060330344131585244 -0.01586625933458377
1060000000.0 -0.013899034823240269 -0.11207678773063774
1080000000.0 0.1514685707088113 0.032367057431062114
1100000000.0 0.07274010705103273 -0.1701981340190546
1120000000.0 0.22531553507629432 0.054440115075766314
1140000000.0 0.08629611471699597 -0.25353778845871155
1160000000.0 0.008905374822563043 -0.28723491385188155
1180000000.0 0.2730133590539721 0.1456889779080216
1200000000.0 0.2643890159576703 0.1844339243671855
1220000000.0 -0.23822088086419335 0.22605836937495127
1240000000.0 -0.23401576467213903 0.23693166765339652
1260000000.0 -0.058204214450897906 -0.3278716934048592
1280000000.0 0.2840604869800037 -0.19202525090816547
1300000000.0 0.3022003460935675 0.18755765066999627
1320000000.0 0.3394895985941809 -0.15568447430756263
1340000000.0 -0.20891117772875004 0.3148373094344921
1360000000.0 -0.3241957008301877 0.1909473635137364
1380000000.0 0.3662564683765405 0.08424141894024066
1400000000.0 -0.320806516834072 -0.19432673687181104
1420000000.0 -0.07925554132314812 0.3630839943767529
1440000000.0 0.10102951520348608 0.3481807263657102
1460000000.0 0.3618683193338941 0.004963268449955754
1480000000.0 0.13862644675140287 -0.32505553583121843
1500000000.0 -0.02037015641589552 0.33488804183041304
1520000000.0 -0.12152409008456148 -0.294350857870616
1540000000.0 0.2233594690765708 0.15972473288779065
1560000000.0 0.1843781937055552 0.14469532472480767
1580000000.0 0.10049297861321072 -0.18299607448473865
1600000000.0 0.16584909975410694 -0.08950827696991885
1620000000.0 -0.05198382194529494 0.14720773902675402
1640000000.0 -0.10633270840462182 -0.0689519455205976
1660000000.0 -0.03615677019271208 -0.09769326269059439
1680000000.0 -0.0603891438897234 0.06108900784360782
1700000000.0 -0.05238536765730041 0.046592941690564604
1720000000.0 0.007015611949561302 -0.05933233502166732
1740000000.0 -0.023855830364843622 -0.043311116467405694
1760000000.0 0.05343333086962209 0.027119894088694637
1780000000.0 0.08212787023245627 -0.031115892379361305
1800000000.0 0.07387651854294112 0.08855279472432337
1820000000.0 0.14894136029556876 -0.04368046454052461
1840000000.0 -0.19331632411017957 0.04083691033950284
1860000000.0 0.013705597336734984 0.22707557030904957
1880000000.0 -0.14448766274305871 -0.19619999179497472
1900000000.0 0.11348048514087745 -0.23220409489861918
1920000000.0 -0.2287759891536677 -0.17047246263267932
1940000000.0 0.2919912790452394 0.0560686418003867
1960000000.0 -0.29279567429483 0.09297276111216664
1980000000.0 -0.11938360821163116 -0.287829484142107
2000000000.0 0.2809631470365208 -0.1339694086575799
2020000000.0 0.1449452910268544 0.28023259880435114
2040000000.0 0.23203861535509973 0.2214525608674175
2060000000.0 0.31465472101037817 -0.03671688217697057
2080000000.0 0.09703558577731809 0.2918072846493281
2100000000.0 0.2702740035444413 -0.13271457844858292
2120000000.0 -0.30303567841669937 0.04333600123889972
2140000000.0 0.07951522434349753 -0.2958291045053398
2160000000.0 -0.2922740925759342 0.0780267791993241
2180000000.0 0.2638501739472157 0.13181956616666882
2200000000.0 0.2656860939942314 0.0999839479367944
2220000000.0 0.11872780314440272 0.24946539858492747
2240000000.0 -0.197867863133213 0.18347586063078758
2260000000.0 -0.24806633661929364 0.07743257852412565
2280000000.0 0.24340334463343624 -0.0601514975307991
2300000000.0 0.10292394639041974 0.21822413206429575
2320000000.0 -0.0696483020627654 -0.22233450500991753
2340000000.0 0.22841902145936585 0.03218586073245415
2360000000.0 -0.22375941079821146 -0.011393584414212399
2380000000.0 0.19393810003608294 0.12139213124293918
2400000000.0 -0.2413750177035358 -0.05391425876526705
2420000000.0 -0.20283626935436938 0.18821058259126297
2440000000.0 0.28504825276873924 -0.111134539044316
2460000000.0 -0.14367276935524348 0.3015925202478792
2480000000.0 0.363369684125741 0.016591693759227092
2500000000.0 -0.36472486192280495 0.1566890346544039
2520000000.0 0.15159419710072972 -0.4125142079232608
2540000000.0 0.36328222676139654 0.3089615152791707
2560000000.0 -0.49070781714103806 0.152440958435654
2580000000.0 0.18296900183598994 -0.5131658160153363
2600000000.0 0.14653934597429288 0.5556593257902511
2620000000.0 -0.4400083766428069 -0.40649555332284626
2640000000.0 0.6066277985606455 0.11608875180810095
2660000000.0 -0.4856900279245371 0.4088384371877338
2680000000.0 -0.2715865993912384 -0.5877588281391449
2700000000.0 0.47213399562405095 -0.45916677518430415
2720000000.0 0.6609304474240743 -0.0759561092120861
2740000000.0 0.6525572801203877 0.15024454034137683
2760000000.0 0.6549000210440691 0.15409722548918056
2780000000.0 -0.25145611382241484 0.6206422633758498
2800000000.0 -0.4112775355375293 0.5185105880625757
2820000000.0 -0.6359976694995387 0.14534196838989044
2840000000.0 -0.19985599475479476 -0.6092063182491326
2860000000.0 0.6024310387517668 0.1770510329972731
2880000000.0 -0.5924545273591264 -0.15877374810508235
2900000000.0 0.36751313612673536 0.47029955298030285
2920000000.0 0.29948197364106 -0.4938115453087525
2940000000.0 -0.4511408771371653 -0.3237126250224797
2960000000.0 -0.40509798578004225 0.34160398005356196
2980000000.0 0.03806299337458177 0.5055332009388417
3000000000.0 0.4816893561049866 -0.04368301277375634
3020000000.0 -0.2518110260301288 -0.38457948640947115
3040000000.0 0.057920113427968996 0.43036171453376304
3060000000.0 0.07893403115165333 -0.39769582148540467
3080000000.0 -0.28868823120239223 0.24643742346496791
3100000000.0 0.3215690401716721 -0.16136440331387594
3120000000.0 -0.04262811189129468 -0.34640770180667135
3140000000.0 0.09616600162028853 0.32697142861480527
3160000000.0 0.05191851292633922 -0.3318196818677964
3180000000.0 -0.20551283829098646 0.26569181974140405
3200000000.0 0.02543212065349436 -0.32992544401841817
3220000000.0 -0.31705422134337896 -0.004560802648864455
3240000000.0 -0.2552247048801099 0.1574578251773847
3260000000.0 -0.2841577993398813 -0.03365462933514993
3280000000.0 -0.021715560041609547 -0.26879563186746197
3300000000.0 0.2524061387547667 0.019398190390370194
3320000000.0 -0.1696481019260528 0.16129315020783133
3340000000.0 -0.12278996105265617 -0.17615556921110723
3360000000.0 0.14365828363597935 0.12413035736305236
3380000000.0 -0.14020174554253595 0.07699167820585152
3400000000.0 -0.02322073028451341 0.13343189179651707
3420000000.0 -0.12130736120763681 0.001189067520323592
3440000000.0 0.08427112138681646 0.08365585113488042
3460000000.0 0.08860268617015814 -0.0611379622464597
3480000000.0 -0.08815709119378812 -0.03601598059497288
3500000000.0 0.030146105699742607 0.08362712127150183
3520000000.0 -0.041662870076053383 0.06940790772397341
3540000000.0 -0.07529023311631113 -0.013929644653652123
3560000000.0 0.07467511486283905 -0.021935402438934992
3580000000.0 -0.08169709094971069 -0.0005212466216125019
3600000000.0 -0.07564265715173557 -0.04911258440165792
3620000000.0 -0.08259385689000048 -0.05971887247848528
3640000000.0 -0.08221923505942043 -0.07145640507474825
3660000000.0 0.08658012775301352 -0.07953121648568381
3680000000.0 -0.0636701435307141 -0.09632881645808225
3700000000.0 0.04301577621132773 -0.09486470099707363
3720000000.0 -0.02505896642160915 0.09233162358154903
3740000000.0 -0.057852131770229374 0.058623192268705195
3760000000.0 0.03448614242813267 -0.06598813713907749
3780000000.0 -0.046145256176120225 -0.04816301784352008
3800000000.0 -0.04741736058816749 0.012598825150636
3820000000.0 0.036711997806892945 -0.006736244655100174
3840000000.0 0.038746780409961636 -0.026934311432157295
3860000000.0 -0.010239385720803013 -0.07410560428699371
3880000000.0 0.028749419642073306 -0.09005085385401378
3900000000.0 0.009118079169053502 -0.10234517573283995
3920000000.0 0.061214672142430676 0.08511103206734327
3940000000.0 0.08720715836454153 0.05380482467978946
3960000000.0 0.0205179924224523 -0.10082409939456811
3980000000.0 0.09270374978122975 0.011886188173990724
4000000000.0 0.0750803969799941 -0.02388367202203716
