!Created with skrf (http://scikit-rf.org).
# Hz S RI R 50.0 
!freq ReS11 ImS11
400000000.0 -0.7961117774659415 -0.21177322776752092
420000000.0 -0.4534877098536594 0.6140150282837095
440000000.0 -0.0011975053004924996 -0.7444462007452258
460000000.0 0.6765353413454379 -0.2769954129860618
480000000.0 0.3928930495098679 0.5136187135028166
500000000.0 -0.1334408750870402 -0.47132103618728455
520000000.0 0.19058715853036742 -0.3580659376282613
540000000.0 0.16542700671664784 0.47033919762574655
560000000.0 0.491902685132014 0.0660718746419307
580000000.0 0.41405055439535543 -0.11951274193325999
600000000.0 0.12248637725949488 0.41899150612449493
620000000.0 -0.10965533189654847 0.36266932206009833
640000000.0 -0.3275892377728226 0.11708045282660146
660000000.0 0.21420214105524155 0.3108110340956005
680000000.0 0.12107306837878284 -0.3244353617157854
700000000.0 -0.14144859954275033 -0.3351947682151168
720000000.0 -0.2985638319536715 0.18131613069225508
740000000.0 -0.2671100459260461 -0.20447236764977392
760000000.0 0.2919721260637294 -0.07679003039608709
780000000.0 0.23445330421976748 0.15175622621279625
800000000.0 -0.18123292800710128 -0.159782775999556
820000000.0 0.20057694109496071 0.025052293362513564
840000000.0 0.03039377767537431 0.19457375208422295
860000000.0 0.17114928570687843 -0.06038591484398716
880000000.0 -0.10149408102082717 -0.14832353007814597
900000000.0 0.07031075391135394 -0.14205063094347278
920000000.0 0.08237412871859866 -0.1187282447463659
940000000.0 -0.1271734170037362 0.038474746880562974
960000000.0 0.08293998201662228 0.05578938693610711
980000000.0 0.036913422426077376 0.029659023646518286
1000000000.0 -0.0024478868800165104 -0.02692333742186666
1020000000.0 0.02958374785252366 0.017222816858038326
1040000000.0 -0.009444709852288425 -0.06353979836154694
1060000000.0 -0.006227484204462601 -0.10989984010002546
1080000000.0 0.092482172957281 0.13132899891742117
1100000000.0 -0.1850757079955838 0.0169630529824429
1120000000.0 0.22010287114392924 0.04957911889618822
1140000000.0 0.26041870865703465 -0.0485284089152468
1160000000.0 0.13302929244443265 -0.25961880210481014
1180000000.0 0.23937720287964093 0.20063119255565204
1200000000.0 0.3221689894594208 0.04599864612745025
1220000000.0 -0.03746944050515817 0.32506877175467885
1240000000.0 -0.1241297510641995 0.308843356623305
1260000000.0 -0.057766009827495 -0.32541626329256573
1280000000.0 0.34026909097447555 -0.030446117115980432
1300000000.0 0.21969393150291816 0.2843627587110146
1320000000.0 0.26674887721291674 -0.2626143603332866
1340000000.0 -0.16803810035865724 0.3397025236659916
1360000000.0 -0.3420685481320719 0.155992992608936
1380000000.0 0.37060303247631815 -0.045517044253757764
1400000000.0 -0.29389166098193936 -0.2334446123476815
1420000000.0 -0.08433751878621704 0.36128692487574177
1440000000.0 0.11427022715067356 0.34363321663953417
1460000000.0 0.3617004097325084 -0.00824015976686528
1480000000.0 0.11365669012987603 -0.333207124370363
1500000000.0 -0.1335111953127501 0.3083757000712643
1520000000.0 -0.03824954970912012 -0.3171478490369478
1540000000.0 0.23404860308925632 0.147383367018442
1560000000.0 0.22620265311169824 -0.06870503901925677
1580000000.0 0.03728776039404798 -0.2028921043332186
1600000000.0 0.1347024875121895 -0.12798722529006348
1620000000.0 -0.14694235163140004 0.04374630839476805
1640000000.0 -0.006080904543359715 -0.12665515646003292
1660000000.0 0.02968336550308647 -0.10160054533957164
1680000000.0 -0.08838816552881684 0.008358824436239953
1700000000.0 0.061247802203592265 0.0363946294028037
1720000000.0 -0.007131138374850931 -0.058448628110784544
1740000000.0 -0.022315643509096945 -0.042230247316247506
1760000000.0 -0.04869567603052451 0.035153123537004706
1780000000.0 0.07079689931981945 0.053928752557269456
1800000000.0 0.05243358029324195 0.10594119440458735
1820000000.0 0.042836050815724516 -0.14933599711825754
1840000000.0 -0.16783638161957912 0.0959067367396587
1860000000.0 -0.167785726042399 0.1510708182894065
1880000000.0 -0.04809358217077528 -0.24102651032399702
1900000000.0 -0.04721772326839638 -0.25585557145178883
1920000000.0 -0.26809319000845694 -0.09205236035956618
1940000000.0 0.27069077314689766 0.11856979052040649
1960000000.0 -0.302016403871059 0.04714164949628077
1980000000.0 0.07584168004837993 -0.3038805875069497
2000000000.0 0.2860325603748803 -0.13369372374798213
2020000000.0 0.29216718740716524 0.12148435226595963
2040000000.0 0.2961976743803642 0.11789915907653266
2060000000.0 0.31413607143288597 0.0002929388751824457
2080000000.0 -0.07080312479905146 0.2993127264869788
2100000000.0 0.2963653370806452 -0.06429045177290577
2120000000.0 -0.29300630141263906 0.08498304282588565
2140000000.0 0.15851374507064217 -0.25889636059144067
2160000000.0 -0.299343263209258 -0.04343193870275184
2180000000.0 0.22562212232797565 0.19298814152652305
2200000000.0 0.2841651512085167 -0.030283322968413656
2220000000.0 0.21491076770653236 0.17074967915934106
2240000000.0 -0.21362271138914346 0.15887323851771637
2260000000.0 -0.24384767354227055 -0.08678343473935514
2280000000.0 0.25133564404496556 0.023270389935683564
2300000000.0 0.0986030757227044 0.22254356453795843
2320000000.0 -0.11518402610943979 -0.20342432265505708
2340000000.0 0.23042305991721532 0.0043341335779151745
2360000000.0 -0.22375068003113224 0.0073091793950813685
2380000000.0 0.1467261221247024 0.17287586116950251
2400000000.0 -0.22925057214056774 -0.095176475662975
2420000000.0 -0.1473480999546303 0.23581267404166467
2440000000.0 0.2292770478209068 -0.2013127727670893
2460000000.0 -0.15560436247167742 0.2943472351292041
2480000000.0 0.35848997314871106 0.06234381669236689
2500000000.0 -0.3585019617392746 0.17209870234185723
2520000000.0 0.14201148208290995 -0.41597954513104235
2540000000.0 0.38180059882560563 0.28640484318334436
2560000000.0 -0.48826951868498775 0.15839395364632003
2580000000.0 0.20960396796468303 -0.5031858542069014
2600000000.0 0.12959515258986068 0.5603233373952793
2620000000.0 -0.4245406792161388 -0.4216346662513118
2640000000.0 0.6046865699613976 0.12725774241130466
2660000000.0 -0.4740975405663347 0.42192615316768506
2680000000.0 -0.25989523266939635 -0.5925084296743941
2700000000.0 0.4730545383572266 -0.45836161814138665
2720000000.0 0.6610165419169226 -0.07677800830278687
2740000000.0 0.6648701342237323 0.08345879566810485
2760000000.0 0.6566365280387159 0.14862430389624004
2780000000.0 -0.2861254040218444 0.6050847489144793
2800000000.0 -0.4155442984007767 0.5148645595509405
2820000000.0 -0.6431272773989727 0.1102788628510736
2840000000.0 -0.1817928880106367 -0.614743553856823
2860000000.0 0.59765071381617 0.1942302920236232
2880000000.0 -0.6044623724695674 -0.10744008094028329
2900000000.0 0.3647790917216239 0.4721661169516566
2920000000.0 0.29496492382879835 -0.4953401445968949
2940000000.0 -0.42316730911538736 -0.3596984601822416
2960000000.0 -0.42051496002165445 0.32395807079850136
2980000000.0 0.09133840821095936 0.49824929047793637
3000000000.0 0.4736003433135776 -0.09624441131585526
3020000000.0 -0.1744019333598716 -0.4258115735301395
3040000000.0 0.04696368695960714 0.4317828068847338
3060000000.0 0.07211735703990348 -0.39994806004247957
3080000000.0 -0.2935361861398016 0.24009753502777084
3100000000.0 0.3013788819122567 -0.19622060918806492
3120000000.0 -0.005011185089208935 -0.34875835072131384
3140000000.0 0.1097509244562775 0.3233988497413698
3160000000.0 0.03939889031427413 -0.333422613768583
3180000000.0 -0.1886040840033177 0.27747244332478005
3200000000.0 0.053443486546722596 -0.32580223738622593
3220000000.0 -0.31497184056525834 -0.016991061586531197
3240000000.0 -0.2698496963525846 0.13229650239612623
3260000000.0 -0.2877469630577965 -0.007379751680892723
3280000000.0 -0.03931762426005136 -0.26626181487129746
3300000000.0 0.248175627333126 0.054537952039847286
3320000000.0 -0.21042236490911376 0.10324935119217193
3340000000.0 -0.164389732276572 -0.13777058655298655
3360000000.0 0.1849606154435582 0.04048994991103369
3380000000.0 -0.15704919039972237 0.019634881163204887
3400000000.0 -0.12603116330843994 0.049872310867311566
3420000000.0 -0.10152558797815571 0.07113233582590173
3440000000.0 0.11945135217428005 0.0032016682230170406
3460000000.0 0.0730557037491939 -0.07553481016009472
3480000000.0 -0.09328423728518186 -0.017950083047109357
3500000000.0 0.04456975884654573 0.07731490710644855
3520000000.0 -0.005649699248206845 0.07923812695854349
3540000000.0 -0.029232342915577716 -0.069028776266576
3560000000.0 0.042428517806077023 0.06713421106109262
3580000000.0 -0.07383996937136451 -0.041206343572721314
3600000000.0 -0.030801755847102732 0.08635473816469613
3620000000.0 -0.09784600204348368 0.02871130459546232
3640000000.0 0.01496351089297598 -0.10594663390783794
3660000000.0 0.11517072596812573 0.019053603477108907
3680000000.0 -0.024638000402907447 -0.11325124429665474
3700000000.0 0.056532963035061466 -0.08844607437514186
3720000000.0 0.025934551436780924 0.09297839928303724
3740000000.0 -0.08037445231116842 0.017728702372093317
3760000000.0 0.013323301018845844 -0.0734732990094858
3780000000.0 -0.06500878985965342 0.008668795053821409
3800000000.0 -0.039374352926712416 -0.024312305459519595
3820000000.0 0.0021459204245674896 -0.03848050025424885
3840000000.0 0.03777438512687265 0.031211166835732943
3860000000.0 -0.06103027242479773 -0.035986899765113725
3880000000.0 0.09050218613589454 -0.016950490256234955
3900000000.0 0.10275732658311024 -0.008553588283355836
3920000000.0 0.0766932273234332 0.07528660098757617
3940000000.0 0.073638156583776 -0.07095902986300327
3960000000.0 -0.04594507800245393 -0.09197241383525968
3980000000.0 0.09199886917337553 0.017630770975852816
4000000000.0 0.05894538828652761 -0.05506402213020396
