!Created with skrf (http://scikit-rf.org).
# Hz S RI R 50.0 
!freq ReS11 ImS11
400000000.0 -0.79910318031758 -0.20982025809316915
420000000.0 -0.6028830695587326 0.4688607246386942
440000000.0 0.11650734201214866 -0.7416801185125015
460000000.0 0.4693070627456396 -0.5564844236263042
480000000.0 0.4846230496538688 0.4242545371251818
500000000.0 -0.38380729786645557 -0.3085050246992798
520000000.0 0.2015969492274534 -0.3329250372604644
540000000.0 0.2497520590414066 0.4229184130286706
560000000.0 0.47539474269228543 -0.13702412148785076
580000000.0 -0.25715295339878896 0.33938398978491535
600000000.0 -0.42084793797905207 -0.10471373381011986
620000000.0 -0.18521023114649793 0.3416105845091632
640000000.0 -0.3552258346499605 -0.00987667137562216
660000000.0 0.0594371074337135 0.3798531476326997
680000000.0 -0.05189533598595396 -0.36430739065055745
700000000.0 -0.35198257072729794 0.09039160346392629
720000000.0 -0.29888807572306214 0.1783413925278289
740000000.0 -0.14662352675428258 0.2908822236137925
760000000.0 0.15974552607976839 0.2568064087297796
780000000.0 0.25635465569361815 -0.10470700075790983
800000000.0 -0.08215216337829638 -0.220499013103
820000000.0 0.19961204269230187 -0.0610238831413937
840000000.0 -0.17705073423725273 0.05427854426502723
860000000.0 -0.08013360391209613 0.16953119733399696
880000000.0 -0.17314126124178264 -0.04296789924494676
900000000.0 -0.1488296373625932 -0.04465604457121708
920000000.0 0.14602111531056658 -0.06647030427885774
940000000.0 -0.12266771520325301 -0.06703425043914783
960000000.0 0.06700165600319398 0.06301242549061632
980000000.0 -0.0528823474832993 0.01195786654369925
1000000000.0 0.037252643166783374 0.013838481105044969
1020000000.0 0.02333562065882589 -0.03540360486272882
1040000000.0 -0.05332366529592815 -0.03292952249992483
1060000000.0 -0.07807732557815268 -0.055959302913067326
1080000000.0 0.13115720329179445 -0.08342029431128707
1100000000.0 -0.14042368915966413 0.12358632918714647
1120000000.0 0.08576841886516698 0.20750925907607268
1140000000.0 0.2063063424989217 0.17738321642110902
1160000000.0 -0.10239190891138847 -0.280832391989895
1180000000.0 0.30741519948460333 -0.06482874422599873
1200000000.0 0.3201674591336706 -0.0379591499050818
1220000000.0 -0.25490809781660323 0.19969358907941592
1240000000.0 -0.31240043293273395 0.11924690179609733
1260000000.0 -0.31095224306816116 -0.12115642355234524
1280000000.0 0.14276806259772906 -0.31045954554455085
1300000000.0 0.3524274302483051 -0.03858223812462104
1320000000.0 0.12846816382270443 -0.3455804833379667
1340000000.0 -0.3527330954105334 0.11383807005451761
1360000000.0 -0.028639425493013723 -0.37396611997499885
1380000000.0 0.3147361733521559 0.2105614417483992
1400000000.0 -0.0009428364137834612 -0.3807255107896797
1420000000.0 -0.18234531887658012 0.3343211598533598
1440000000.0 0.35800629895405583 -0.08268788103649019
1460000000.0 0.0940950551373253 -0.3440404317223157
1480000000.0 -0.08098811545939297 -0.3373251520732803
1500000000.0 -0.2984833409671262 0.1450847673677133
1520000000.0 0.22668277477494625 -0.22335451985436586
1540000000.0 0.12590469840614585 0.2529242320572326
1560000000.0 -0.20547788403302564 -0.12654695130871207
1580000000.0 -0.1804990459325556 -0.06993772230248269
1600000000.0 -0.10537702461400156 0.14290867086446893
1620000000.0 0.002678270193755963 -0.15548445746286557
1640000000.0 0.0032659788685394245 0.12923294321200193
1660000000.0 0.10671905656568767 0.03793130707320252
1680000000.0 -0.03780102302710293 0.09026984583893581
1700000000.0 -0.044488791120436334 0.0625157652343239
1720000000.0 -0.03535338680290118 -0.04296997727160486
1740000000.0 -0.029454052435961046 -0.022474312034531867
1760000000.0 0.008453851871121985 0.0582783127047913
1780000000.0 0.09920375505437817 -0.005178168904863264
1800000000.0 0.10844319785118116 -0.07399368275773897
1820000000.0 0.08939505906599969 0.1243380417856527
1840000000.0 0.08461528867733417 0.16785530079334648
1860000000.0 -0.20747178411575878 -0.05718370794097483
1880000000.0 -0.03689001569175881 0.2414782236304765
1900000000.0 0.26654848282174537 0.05961965709647487
1920000000.0 -0.182717576455956 0.23006376711683776
1940000000.0 0.008827972213466895 -0.29826718850272543
1960000000.0 0.060562099369734716 0.29508489750691813
1980000000.0 -0.28786140543355265 -0.09247200794762123
2000000000.0 0.3011859653473318 0.003241937085965842
2020000000.0 -0.22846656434855822 0.20680721954078898
2040000000.0 -0.3000313905447434 0.10839688934694365
2060000000.0 -0.24092276620024744 0.21336721125692265
2080000000.0 -0.28934211122838227 0.14562805513995405
2100000000.0 -0.027523035393671243 -0.31852002201395757
2120000000.0 0.22758907061357347 0.21090522163198008
2140000000.0 -0.29432183586134186 -0.05435268836922863
2160000000.0 -0.2748130431003326 0.09759174100569092
2180000000.0 -0.014827228001427764 0.28970618270207915
2200000000.0 0.20632544459007507 0.1911866578817297
2220000000.0 0.04366208972822789 0.2690938857253783
2240000000.0 -0.25926620255730276 -0.06643628431005377
2260000000.0 -0.1703415930707471 -0.20068506837725586
2280000000.0 0.2567014985363971 0.013403298627771267
2300000000.0 0.24682872169868167 0.014974318307167694
2320000000.0 -0.2308450391724749 0.018624534254317322
2340000000.0 0.19892266255258487 -0.10599387769112704
2360000000.0 -0.026252328445647108 -0.2215024996481289
2380000000.0 0.0674757895291621 0.2231794973614654
2400000000.0 -0.189200171125992 0.16461716484903174
2420000000.0 -0.061628587598342686 0.26943340885819617
2440000000.0 0.20750799027616695 -0.22231670674667808
2460000000.0 -0.08505016977609481 0.3208585600186442
2480000000.0 0.27267580869825986 0.24023112943772224
2500000000.0 -0.397294855721452 0.05415126711630525
2520000000.0 0.05402406254482746 -0.4388529536274512
2540000000.0 0.43582470931758716 0.19423167905324756
2560000000.0 -0.4883294752629729 0.15997638895301328
2580000000.0 0.12967012565763095 -0.5298278536831542
2600000000.0 0.1615118023556871 0.5516144415193918
2620000000.0 -0.4565470767848497 -0.387637707461116
2640000000.0 0.610595140105701 0.09188786760787823
2660000000.0 -0.49006879939665166 0.40386655592458354
2680000000.0 -0.2966342988004207 -0.5756291223036464
2700000000.0 0.44691007572630925 -0.48432884656369024
2720000000.0 0.6482877149415098 -0.14799917600008877
2740000000.0 0.6657081372259985 0.07747033038357183
2760000000.0 0.6708241052255791 0.05898049456262843
2780000000.0 -0.24708394059263034 0.6223346095189691
2800000000.0 -0.4091082074934526 0.5199631978766069
2820000000.0 -0.6382471509026897 0.1320988783383325
2840000000.0 -0.22211045054934359 -0.6001566778247225
2860000000.0 0.5855588695653384 0.2264060939547102
2880000000.0 -0.5927036232979983 -0.15913220342083167
2900000000.0 0.3801893718823339 0.46096511419623315
2920000000.0 0.2534834627778695 -0.5180109968526371
2940000000.0 -0.47037349364710684 -0.2904677748945807
2960000000.0 -0.4704650310431526 0.24222393181218768
2980000000.0 -0.03525393248020015 0.5073469158356241
3000000000.0 0.4633985749319245 -0.149940993789764
3020000000.0 -0.388397991914792 -0.24549514951678603
3040000000.0 0.0544262149676525 0.4282751591495401
3060000000.0 0.17107609038724228 -0.3665635282168946
3080000000.0 -0.31473284140097857 0.21109754143064496
3100000000.0 0.3428680861060843 -0.11204976165855543
3120000000.0 -0.07261816393950588 -0.3421457844561308
3140000000.0 0.052363136685466695 0.33766929665578854
3160000000.0 -0.0751978468600703 -0.32817629890243977
3180000000.0 -0.05736548066331892 0.32642017523356237
3200000000.0 0.23589735555148922 -0.2268086300766612
3220000000.0 -0.21367533284927048 -0.23519977453187613
3240000000.0 -0.24576070081688275 0.18241386369036378
3260000000.0 -0.23587106277017064 0.16825305737661256
3280000000.0 -0.2379837626466336 -0.1254938986038048
3300000000.0 0.12930223848613587 -0.21123020509504892
3320000000.0 -0.19553610822084627 0.12341789081634348
3340000000.0 -0.04715269992747897 -0.2077185830563199
3360000000.0 0.057938781493211314 0.17845667784900196
3380000000.0 -0.010551114031724285 -0.16492696219903016
3400000000.0 -0.103520287869278 0.09948334503159799
3420000000.0 0.12538049573039986 0.004085003401401804
3440000000.0 0.11609866412569093 0.011851081423588277
3460000000.0 0.085236957258227 0.058402123948905454
3480000000.0 0.008319840464408621 -0.09337607081882116
3500000000.0 -0.016864716134220678 0.08660536367067619
3520000000.0 -0.030188117737819455 0.07004986307781853
3540000000.0 -0.06895481010879348 -0.024313004822799404
3560000000.0 -0.038298189342746536 0.06660558112350062
3580000000.0 0.06336063061649767 -0.05860448830781134
3600000000.0 -0.04797776503579018 0.08011521181350628
3620000000.0 -0.00605622480583265 0.10367096203390658
3640000000.0 -0.10770564578983244 -0.032534810001065326
3660000000.0 -0.07781950022646351 -0.08984318310298915
3680000000.0 -0.1115704350816508 -0.024941857021526233
3700000000.0 0.024720223037160614 -0.09898431112653487
3720000000.0 0.0031755784202249448 0.09610884236196496
3740000000.0 -0.033174410195880695 -0.0764054194920419
3760000000.0 0.07837083964700389 -0.008866074916728148
3780000000.0 -0.003450138481489789 0.06949886297209308
3800000000.0 -0.04562821636804252 -0.007636684109325198
3820000000.0 0.02267384428057817 -0.03206913059842769
3840000000.0 -0.020283087503217986 0.04654381213130372
3860000000.0 -0.04294082123728122 -0.05693490342327426
3880000000.0 0.07678149669317641 0.053037230672399314
3900000000.0 0.08614840532844642 0.062078825493510376
3920000000.0 0.09490301098363696 0.05780102925960924
3940000000.0 -0.07984155596688226 -0.06979560768507098
3960000000.0 -0.025490193342260613 -0.09715763389914465
3980000000.0 0.022120131373860673 0.09198595742173864
4000000000.0 0.05492642187215767 0.061588137185994124
