!Created with skrf (http://scikit-rf.org).
# Hz S RI R 50.0 
!freq ReS11 ImS11
400000000.0 -0.6406942019831636 -0.5234326564705873
420000000.0 -0.7291356354887503 0.2503313479942818
440000000.0 0.20731815367364878 -0.7280724636635839
460000000.0 0.5164185132781696 -0.5214104047377424
480000000.0 -0.006013362432360423 0.6522568700474789
500000000.0 -0.09755335217878727 -0.5124770054621153
520000000.0 -0.2909846034660329 0.271062379814083
540000000.0 0.4770188375996605 -0.14591827066244392
560000000.0 -0.13245884562250648 -0.47522118592569834
580000000.0 0.15404356360981367 0.407233975864093
600000000.0 -0.2239866135176063 0.370186447939998
620000000.0 0.4083778328073337 -0.005860891117146509
640000000.0 0.2749172805128727 0.22971070052137152
660000000.0 0.03601173146440068 -0.37988186443515753
680000000.0 0.3601652147069275 -0.029695297687809704
700000000.0 0.2194666527620706 -0.25509167619893597
720000000.0 0.24922230113713423 0.22395403686286788
740000000.0 -0.12906728526738118 0.26942781665790394
760000000.0 -0.2632020071031543 0.0506547803819845
780000000.0 -0.06758728495168444 0.2520128268026615
800000000.0 0.04038581562887141 0.21749760377881072
820000000.0 0.1520994067320533 0.11948555981948801
840000000.0 -0.12206210296019554 -0.1459879918369184
860000000.0 0.02383365247482594 0.18893613498803424
880000000.0 -0.16873252708772835 -0.08947018043979969
900000000.0 0.17964338725026563 0.0224785393672082
920000000.0 0.04436177908218126 0.17021521637748174
940000000.0 -0.12734586483748211 0.08294187274361617
960000000.0 0.08246002658371368 0.07719179694136806
980000000.0 -0.08307633157126759 0.028864592598771357
1000000000.0 0.06752703328002607 0.0196902334471031
1020000000.0 -0.052477850571813076 0.04322898295661453
1040000000.0 0.07302541244804629 0.019538818788905808
1060000000.0 0.020522784088578907 0.10195387747909093
1080000000.0 0.1386056817591756 0.07101201074433629
1100000000.0 -0.08122886252985412 -0.18160480233543255
1120000000.0 0.22595594814660747 -0.08116740605658526
1140000000.0 -0.1192263054139099 -0.2563819154160679
1160000000.0 -0.061701642461465124 0.2910242039446983
1180000000.0 0.2425585900010575 -0.18455755437469362
1200000000.0 0.30301701542912435 -0.10076611536041835
1220000000.0 0.05672570449750017 0.3190846748090967
1240000000.0 -0.08376094680617141 0.32083097377888736
1260000000.0 -0.3093552426556623 0.09879539373308523
1280000000.0 0.29111824018633276 0.16363094595581926
1300000000.0 0.13211873650865422 0.3322813118671486
1320000000.0 0.36744474730281185 0.06825518011492826
1340000000.0 -0.14663586226766637 0.3479460545036443
1360000000.0 -0.35321328309003236 -0.13471734536128224
1380000000.0 0.3566508033061699 0.11824179463691965
1400000000.0 0.017449890308109492 -0.37836695455641717
1420000000.0 0.023256851588394724 0.3770201772134282
1440000000.0 0.19934599805914568 0.302729249006697
1460000000.0 0.2490785273591921 -0.25962913679810884
1480000000.0 -0.16201532468420296 -0.3117369126562709
1500000000.0 -0.18057153863359016 0.2727337717805765
1520000000.0 0.3058233315541101 -0.06311488523011062
1540000000.0 -0.19241925972419238 0.20456192729164774
1560000000.0 0.0777903230847763 -0.22847040928604614
1580000000.0 -0.1020653518901738 -0.16829908775256608
1600000000.0 -0.17591080183525432 0.028539752537490998
1620000000.0 0.13689681420541278 -0.08732994074079893
1640000000.0 0.06978854266792647 0.12114961315381212
1660000000.0 -0.1175526627139887 0.018267323636889547
1680000000.0 -0.09900470568638034 -0.013107351699066842
1700000000.0 0.06980937355023806 -0.028837086797370636
1720000000.0 0.00860643077918753 -0.0516024159053246
1740000000.0 0.02536396006058067 -0.01599897020524617
1760000000.0 -0.05659859028620274 0.006161386130815523
1780000000.0 -0.05694914716751266 -0.08589013291680349
1800000000.0 0.02356146176994909 0.13470229622233743
1820000000.0 -0.009832127283645027 0.15501755773903153
1840000000.0 -0.1584541147856088 0.10814157897424496
1860000000.0 -0.17733247284910655 0.13589467589689752
1880000000.0 0.06900557835700086 0.23839875437436236
1900000000.0 0.22026819776048823 -0.16664828998703546
1920000000.0 0.10336827349020443 0.2798070890660033
1940000000.0 -0.30027440417896256 0.009199083861343802
1960000000.0 0.25066607305363175 -0.1639915245251631
1980000000.0 -0.11656976851659474 0.2726333379189903
2000000000.0 0.24617877630244406 -0.15562875851693586
2020000000.0 -0.26453676365696577 0.13976709950625169
2040000000.0 -0.22469188800684273 -0.2148223784949917
2060000000.0 -0.2996564566388166 -0.10313789560116333
2080000000.0 -0.2020489287356397 -0.2475279259018235
2100000000.0 0.2958071943567278 0.11573765057208713
2120000000.0 -0.24636942781008764 0.19727718391186178
2140000000.0 -0.16691463882645316 -0.25894767677088487
2160000000.0 -0.2596130985677999 0.1452129709132066
2180000000.0 0.015163911329393124 0.2937179632194817
2200000000.0 0.2412998881737945 0.15439592418736814
2220000000.0 0.22631564090616527 0.1623854658412266
2240000000.0 0.11462708047095438 0.24569323650500832
2260000000.0 -0.07823425186212508 0.2465142483622354
2280000000.0 0.08198607812960951 -0.23183767843539957
2300000000.0 -0.059480098971382865 0.23044632409444354
2320000000.0 -0.06481327985826821 -0.22409426618205566
2340000000.0 0.2188045292713145 0.064086584464088
2360000000.0 -0.1069342757020035 -0.19523114851794318
2380000000.0 -0.07087675637454553 0.2243523323527301
2400000000.0 -0.1324160304485967 0.213990925103338
2420000000.0 -0.1613179058312582 0.22392193274367866
2440000000.0 0.29020602804598966 -0.0947121589348533
2460000000.0 -0.17356047546028402 0.2873910844906832
2480000000.0 0.3427643182073349 0.1227099256935284
2500000000.0 -0.3630559609649931 0.1675311183822279
2520000000.0 0.10087847760219341 -0.4277747736833958
2540000000.0 0.3766984719169204 0.2937533052811292
2560000000.0 -0.4440849636482783 0.2635504875573652
2580000000.0 0.03528877359387894 -0.5449895352510669
2600000000.0 0.28348883098073585 0.49809128504486466
2620000000.0 -0.43997246592296935 -0.4037165552305348
2640000000.0 0.6069511739737957 0.11043767347305028
2660000000.0 -0.5029821692998031 0.386727030578754
2680000000.0 -0.2502744166444475 -0.5968201608524834
2700000000.0 0.46682551273438866 -0.46581224559769663
2720000000.0 0.6638247316696939 -0.05581649699326318
2740000000.0 0.6700770392701698 0.028465623901827743
2760000000.0 0.6735834263897085 0.012496404027099523
2780000000.0 -0.21836790957444868 0.6332178356287602
2800000000.0 -0.3808219849141238 0.5410951135973308
2820000000.0 -0.6232029481070859 0.18996413410134605
2840000000.0 -0.24584066392351853 -0.5898051830821051
2860000000.0 0.602332368604494 0.1735569115641769
2880000000.0 -0.5898906088902315 -0.162071170088707
2900000000.0 0.27006913102151947 0.5311001353351523
2920000000.0 0.351787366586586 -0.456490034175615
2940000000.0 -0.3982321737844343 -0.386528412386686
2960000000.0 -0.4823357565661266 0.21968909130762496
2980000000.0 0.03771722132434122 0.5066360007263963
3000000000.0 0.47733163270232504 -0.10175372045010171
3020000000.0 -0.3821594803748536 -0.2576001352905797
3040000000.0 0.14419913874129248 0.40889456090053666
3060000000.0 0.011852586610086714 -0.40412007364757285
3080000000.0 -0.2772936482257601 0.25832400116959237
3100000000.0 0.33431560490654766 -0.13658672012918407
3120000000.0 -0.16648307131091938 -0.3059373712284699
3140000000.0 0.03474490898595212 0.33782753369550866
3160000000.0 0.059576321985171134 -0.32916591563984887
3180000000.0 -0.14815020505904805 0.29616793651080947
3200000000.0 0.20656995274962092 -0.2539152837517785
3220000000.0 -0.24472984710886017 -0.20234411330354277
3240000000.0 -0.2085736117679821 0.2211549133155527
3260000000.0 -0.25927216334397213 0.11718468305108061
3280000000.0 0.04068840374960201 -0.26678330244432225
3300000000.0 0.24957083837933455 -0.02945521504635639
3320000000.0 -0.19833978163417718 0.12676669610055927
3340000000.0 -0.1515102739989586 -0.15533659991835083
3360000000.0 0.17675523563923767 -0.060750101640044504
3380000000.0 -0.07372747931977783 -0.1464924298623916
3400000000.0 -0.11984143686545068 0.0761336202191592
3420000000.0 0.11717605217606719 -0.04713844141031955
3440000000.0 -0.005730629267181175 -0.1163340874520278
3460000000.0 -0.015994823141986445 -0.10031768112380342
3480000000.0 -0.08649645018642739 -0.015068243463828495
3500000000.0 -0.07882375648548466 0.01359787257991992
3520000000.0 -0.034689713713629 0.06347488220836095
3540000000.0 -0.07051424174394641 -0.030884860430409954
3560000000.0 -0.06760205690012923 0.047707465040766395
3580000000.0 0.08867569040853934 -0.007273359645476381
3600000000.0 -0.05526717922848883 0.08252711451363652
3620000000.0 0.09524398281751252 -0.046762434131380586
3640000000.0 -0.04586141406488456 0.10217481486601981
3660000000.0 -0.1152348364177373 0.01581975584297943
3680000000.0 -0.11366221659945563 0.014905962529781528
3700000000.0 0.09474221749351161 -0.03119533027452499
3720000000.0 -0.07410291679143478 0.061012606982313526
3740000000.0 0.024660462778075654 -0.07996020736949705
3760000000.0 -0.03422624004917586 -0.06955852184551084
3780000000.0 -0.06559060274305552 -0.004890862057966645
3800000000.0 0.04264784903630799 -0.021706826306773966
3820000000.0 0.03954531094590478 -0.002395386117237199
3840000000.0 0.025773476868840815 0.04389955322746842
3860000000.0 -0.06599104567287367 -0.03205774826607064
3880000000.0 0.06851532784434604 -0.06185249663037306
3900000000.0 0.08480595559722579 -0.05850454058951914
3920000000.0 0.10445341588286748 0.022132109208436012
3940000000.0 0.10246689941747038 -0.00995817738541628
3960000000.0 0.05900516030175826 -0.0842779487634791
3980000000.0 0.06385313287121347 0.07568051262936366
4000000000.0 -0.04698431817254851 -0.06990674557606105
