!Created with skrf (http://scikit-rf.org).
# Hz S RI R 50.0 
!freq ReS11 ImS11
400000000.0 -0.80624109947939 -0.1821510762493257
420000000.0 -0.6122673258491793 0.45684823143142245
440000000.0 0.1653041730136925 -0.7336865587317998
460000000.0 0.46196958152017165 -0.5605723943690775
480000000.0 0.5304420053913641 0.36832536582592396
500000000.0 -0.17127861072178333 -0.4597486339753978
520000000.0 0.12267651463668375 -0.3714613352542878
540000000.0 0.32865158695814933 0.36481837325830646
560000000.0 0.4401342450938774 -0.2203978275532803
580000000.0 -0.324866239501737 0.27302212250677693
600000000.0 -0.4395542679864675 0.008022214705290508
620000000.0 0.05925892471715502 0.38225641386502834
640000000.0 -0.15731846604635114 -0.31541451654702035
660000000.0 0.018999277018229607 0.3893781716632882
680000000.0 -0.33464408574004934 -0.15828499436047555
700000000.0 -0.3442282982327639 0.08639168969015301
720000000.0 -0.3484690549291156 -0.028049712199963682
740000000.0 -0.04828809554735349 0.32665345363658427
760000000.0 0.27150694863764174 0.1182110855967697
780000000.0 0.26535316985864926 0.0739518546132517
800000000.0 0.040876102499132316 -0.23307354580327377
820000000.0 0.1322156632471278 0.16387645118743677
840000000.0 -0.026275679672147622 0.18852735176711688
860000000.0 -0.019866138905395268 0.17855389015785453
880000000.0 -0.09009814436315126 -0.15154636454442452
900000000.0 -0.14407933940073947 0.06504513600988689
920000000.0 0.13040431453095858 -0.08518626379140021
940000000.0 0.13478293051615248 0.03224483854442801
960000000.0 0.035422572598979365 0.09157572649259278
980000000.0 -0.020514627767540407 0.053006723125248824
1000000000.0 -0.03954014696224581 0.00691878289315413
1020000000.0 0.029034844178001777 0.03458393877585123
1040000000.0 0.01580211206722136 0.060024399830771305
1060000000.0 -0.04399329250432729 0.08395973414532683
1080000000.0 0.1454350426614163 0.03250988999959529
1100000000.0 0.16130250936866342 -0.09742364981186721
1120000000.0 0.20854890921728203 0.09646621714715736
1140000000.0 0.27029314219243455 -0.026774214197963747
1160000000.0 -0.23648822383466667 -0.18181687348009673
1180000000.0 0.29125263224681996 0.10725947315853239
1200000000.0 0.29553416722835846 0.132260951935233
1220000000.0 -0.140584535387827 0.29643309299450843
1240000000.0 -0.2907225165983012 0.16135051831631925
1260000000.0 -0.26773815726435707 -0.19681857977696737
1280000000.0 0.17235416543056375 -0.29488394595167755
1300000000.0 0.3366631271879726 0.10912966404377265
1320000000.0 0.29865925578835256 -0.22124897089395792
1340000000.0 -0.21253947307424856 0.3069655900865806
1360000000.0 -0.2574159284699958 -0.2706721041659971
1380000000.0 0.2438616498449444 0.28425438285252896
1400000000.0 0.1387635538564242 -0.3535527062089972
1420000000.0 -0.31340696549423547 0.2204744189718942
1440000000.0 0.3650794079056018 -0.05295977576703812
1460000000.0 -0.14257651486477904 -0.3283461045530015
1480000000.0 -0.185329335350897 -0.2924740904597461
1500000000.0 -0.32610387433513316 0.03867572093515895
1520000000.0 0.2972271977283947 -0.11392114085776804
1540000000.0 -0.029329301517707036 0.2809992952037268
1560000000.0 -0.10491256625244826 -0.21752407902710902
1580000000.0 -0.1795650595977211 0.08272031113804537
1600000000.0 0.15215583140054056 0.08995611341851098
1620000000.0 -0.027205582788609975 -0.1476999222944555
1640000000.0 -0.04093549291420033 -0.12202828959078323
1660000000.0 0.11517165300697893 -0.017919227910123584
1680000000.0 0.09648236112522862 0.012923216436307226
1700000000.0 -0.07661779516899331 -0.0005932356727820977
1720000000.0 -0.043667957378327835 -0.0352503302270923
1740000000.0 -0.003855836085732652 -0.03654100829512547
1760000000.0 0.05671804211131842 -0.0031103599248698795
1780000000.0 0.03937616726811796 0.09152511806245114
1800000000.0 0.1291929434518858 -0.029504873255897575
1820000000.0 0.14361203824199267 0.05709720996359899
1840000000.0 0.1638598176412619 0.09021686415537084
1860000000.0 -0.20380391206250728 0.06966004449648422
1880000000.0 -0.04251656958271431 0.23681630040936624
1900000000.0 0.21087928910715378 0.17317069444103644
1920000000.0 -0.23189542659392645 0.18373936783234227
1940000000.0 0.030664102960631476 -0.29815949799373465
1960000000.0 0.1328615863039357 0.27131180709056657
1980000000.0 -0.3027846452834815 -0.013089328583118913
2000000000.0 0.29853085058295875 -0.03576513339557671
2020000000.0 -0.2265876283491268 0.20597585946369426
2040000000.0 -0.31692892685249135 -0.021540407872288742
2060000000.0 -0.31240925895606114 0.0863783131093138
2080000000.0 -0.25930089739640266 0.19768794067776468
2100000000.0 -0.08004550933534238 -0.30945986913966295
2120000000.0 0.28381499659973025 0.12687582299294323
2140000000.0 -0.26961716157503834 0.1274419168659299
2160000000.0 -0.27888482599711284 0.07601679146437852
2180000000.0 -0.12717661202447503 0.25979188299410866
2200000000.0 0.09379075318355873 0.2669580948665295
2220000000.0 0.08718646083141246 0.2612583573394289
2240000000.0 -0.2648665627621967 0.04229776489583608
2260000000.0 -0.23811261265346848 -0.11037976040794605
2280000000.0 0.2516132319817559 -0.038132150049360346
2300000000.0 0.17009379781795034 0.1764538813396523
2320000000.0 -0.20705134613199683 -0.10745590238342224
2340000000.0 0.20492459841609242 -0.09721643297851036
2360000000.0 -0.11594325951359677 -0.1910805099167844
2380000000.0 0.20184136444492992 0.11787642678217736
2400000000.0 -0.16420716638186192 0.1856244817290727
2420000000.0 -0.13850255792559976 0.2354917019044331
2440000000.0 0.29780368387482054 0.0630208501017495
2460000000.0 -0.17586363801393093 0.2873069755512852
2480000000.0 0.3446923542189325 0.124339888311889
2500000000.0 -0.34792043491338087 0.19460697872529667
2520000000.0 0.0465808132341858 -0.43619736901151995
2540000000.0 0.37072723992174866 0.29869789619104575
2560000000.0 -0.503847310954223 0.10661565849082644
2580000000.0 0.15059404299966528 -0.5252104067336496
2600000000.0 0.14697430606291456 0.5563944160843582
2620000000.0 -0.46772118471600044 -0.37376819738288874
2640000000.0 0.6171002007439922 0.022652830124068116
2660000000.0 -0.4638487484406959 0.43212100928052444
2680000000.0 -0.2721255832231979 -0.5868907068882796
2700000000.0 0.4707454903603424 -0.4606345519653545
2720000000.0 0.6579100432758773 -0.09675321707605442
2740000000.0 0.6652974468628577 0.07978038564944309
2760000000.0 0.6723147982233749 0.04076019807046952
2780000000.0 -0.24099814311482992 0.6246903388306422
2800000000.0 -0.4256572028243669 0.5062959252319761
2820000000.0 -0.6356392068966198 0.1448290628665736
2840000000.0 -0.24580038019615322 -0.5909545176369407
2860000000.0 0.5935357442072192 0.20270925149342153
2880000000.0 -0.5813987727900131 -0.1930733006272886
2900000000.0 0.3181455032447667 0.5055313482646624
2920000000.0 0.32358912772034043 -0.4786223967366371
2940000000.0 -0.4707279565857956 -0.29295366102914455
2960000000.0 -0.4312626729389865 0.3070535578396596
2980000000.0 0.04467779650079337 0.5045113842806395
3000000000.0 0.47713486665669186 -0.0838338118515289
3020000000.0 -0.19503497720936028 -0.4162167762711437
3040000000.0 0.016061012818345436 0.4333000969017317
3060000000.0 0.048899108494253274 -0.40267522791378574
3080000000.0 -0.27617651480057587 0.2614717462769642
3100000000.0 0.2896583240030399 -0.2133630960287732
3120000000.0 -0.11381326283479298 -0.3296629605913077
3140000000.0 -0.018843470065606837 0.33895314202513843
3160000000.0 0.10107931346409688 -0.32109125035982516
3180000000.0 -0.15529686993215236 0.296325152213143
3200000000.0 0.2109640939489433 -0.2538220948538075
3220000000.0 -0.2850095627974077 -0.14257976751697313
3240000000.0 -0.139812701611549 0.271652889560415
3260000000.0 -0.23242204930475382 0.163417358638569
3280000000.0 -0.02601586799166464 -0.2666643694043836
3300000000.0 0.24277819629933103 -0.05938908810422425
3320000000.0 -0.18919647709778306 0.13754987479198882
3340000000.0 -0.1981862267605891 -0.08292205447954232
3360000000.0 0.18496644270999366 0.007694742522371747
3380000000.0 0.029404332038170937 -0.15791301937297159
3400000000.0 -0.11379165883250049 -0.08404458195308574
3420000000.0 0.08860906941275873 0.09264063647744539
3440000000.0 0.03805139816992542 -0.11513558982308347
3460000000.0 -0.015354569501237739 -0.1021963523197968
3480000000.0 -0.048016965317173185 0.07635920556327401
3500000000.0 -0.07867681506508466 0.02708331620281148
3520000000.0 0.031329191994571404 -0.06946305703979026
3540000000.0 0.07741468102776532 -0.0014946860443237411
3560000000.0 0.047062204136626144 0.06552321768706235
3580000000.0 -0.08197688276859097 -0.025476048034879496
3600000000.0 -0.04633141827271758 0.08106917195118024
3620000000.0 0.005175250973089165 0.10064501927559347
3640000000.0 -0.015150039630203319 -0.10912236222455397
3660000000.0 0.013020590859617173 -0.11731208749696916
3680000000.0 -0.11205717127914833 -0.030431128883774815
3700000000.0 0.057821794516208905 -0.08552023713608368
3720000000.0 0.06984911334133058 0.06659728776726638
3740000000.0 -0.08029503702536354 0.01618135885669479
3760000000.0 0.0736296866822606 -0.018092796839613436
3780000000.0 -0.02614359070300271 -0.06308653002422021
3800000000.0 0.005123100189983782 -0.05028239946607138
3820000000.0 -0.0030811508309043978 -0.03973564909453092
3840000000.0 -0.039917023252535426 0.02226648940459081
3860000000.0 -0.04893924163478336 0.05194377633935834
3880000000.0 0.06083828478412833 0.07606398273429622
3900000000.0 0.048963286141320214 -0.09664439863361417
3920000000.0 -0.05184963535104671 -0.0956458267643108
3940000000.0 -0.03437614010440377 -0.09490538942639776
3960000000.0 0.07570134611435747 -0.06526140454484845
3980000000.0 -0.057794092360164036 0.07942618682133343
4000000000.0 -0.05292975354850059 -0.06724765474845572
