!Created with skrf (http://scikit-rf.org).
# Hz S RI R 50.0 
!freq ReS11 ImS11
400000000.0 -0.8227262533508866 0.02113235011716398
420000000.0 -0.7201827880999556 0.25408389864199754
440000000.0 -0.03907635312303168 -0.7444405038896968
460000000.0 0.6076906203862269 -0.3940809572743602
480000000.0 0.15869048422788384 0.6223888137495712
500000000.0 0.2727447844431988 -0.4087028040593637
520000000.0 -0.16646557041991508 -0.3808128517694628
540000000.0 0.009183741501194347 0.4983051178399086
560000000.0 0.504044389709889 -0.07981522871273282
580000000.0 0.43246293204886044 0.015150433264462417
600000000.0 0.024408974484171887 0.43212742430512197
620000000.0 -0.06757405369944026 0.3789674877182426
640000000.0 -0.2818252896321244 -0.2252125040228974
660000000.0 0.3257992581203184 -0.18514281158939214
680000000.0 -0.3427012895393851 -0.1015481044925827
700000000.0 0.28248034340155553 0.19572114491190612
720000000.0 0.2939194657453981 0.10591491601187675
740000000.0 -0.2984733854428075 0.13105598577128075
760000000.0 -0.2102365217681017 -0.2414538864595892
780000000.0 -0.0623936075369442 0.2991542685875772
800000000.0 0.2554727167602181 -0.031583983160367916
820000000.0 0.09914030260276202 0.17958717147145278
840000000.0 0.17908767796061112 0.055887338090565196
860000000.0 0.15728005980051124 0.090387247747646
880000000.0 0.17439644534488263 -0.017761759362621372
900000000.0 0.1411741686982908 0.0432265874255895
920000000.0 0.059090611177251 0.11999097262121068
940000000.0 0.10883006306603982 -0.05057014148920101
960000000.0 0.0970350314969353 -0.027170765311823438
980000000.0 -0.0626306308835369 -0.02880616144773211
1000000000.0 0.01682161897255073 -0.043926734590705445
1020000000.0 0.0057677471323812485 -0.052096255589977304
1040000000.0 0.08849576859606988 0.009683498247748971
1060000000.0 -0.021354796684684724 -0.10898114573382665
1080000000.0 0.15105855414239466 0.062057279641783786
1100000000.0 -0.06435870791648664 0.18252887407642635
1120000000.0 -0.2294744601369647 0.016587558499485972
1140000000.0 -0.24457331544817829 0.06148851318779164
1160000000.0 0.17975561619734126 -0.21447731262755454
1180000000.0 -0.2543669310034935 0.16225363347579347
1200000000.0 -0.2806729782350082 0.15482476555439406
1220000000.0 -0.06714331616668034 -0.32844937725294937
1240000000.0 -0.1682477447947343 -0.30562423630944224
1260000000.0 -0.2812508136691078 0.2131580987698512
1280000000.0 -0.26145150834554187 0.22799215003804235
1300000000.0 0.0523539851161916 -0.3421042673881939
1320000000.0 0.29874184552431493 -0.20781166297700068
1340000000.0 -0.2732629155464925 0.25349420958897373
1360000000.0 -0.37075610336590037 -0.02673964902680196
1380000000.0 0.3504662632797072 0.12607347478440456
1400000000.0 -0.14151858037320342 -0.3468233791712162
1420000000.0 -0.36921551606393077 -0.0400625637383204
1440000000.0 -0.20283248816684815 0.309711556242764
1460000000.0 0.09395371097710402 -0.35720008145307725
1480000000.0 -0.23272903398104397 -0.26545697413820274
1500000000.0 -0.04297465221445632 0.33077276155751734
1520000000.0 0.020020903603804055 -0.3114725145253293
1540000000.0 -0.10796155578242608 0.25594469658045343
1560000000.0 0.2260176116298386 -0.07985434298412086
1580000000.0 -0.13095039530843325 -0.16355134933630955
1600000000.0 -0.17981815103535215 0.03394861487601814
1620000000.0 0.14220520628317782 0.003105028453788581
1640000000.0 -0.03565660123267087 -0.10851114790744695
1660000000.0 0.049205932257813695 -0.09720544013977697
1680000000.0 -0.07418908368280154 -0.06585977940473038
1700000000.0 -0.015957264565905776 -0.07559097304156759
1720000000.0 0.02080700809106742 -0.051931065664888434
1740000000.0 -0.04647078860032772 -0.0008992524335066186
1760000000.0 -0.007570129471788525 -0.0569805256257512
1780000000.0 -0.0865307269261455 -0.03392118585914907
1800000000.0 -0.0019525015744730496 0.11961860513144888
1820000000.0 -0.12057917022084592 -0.10223443304236951
1840000000.0 0.15535311228856213 0.10720708967443913
1860000000.0 -0.17910631832505566 -0.12159516920471268
1880000000.0 -0.033663789073628624 0.24499092964988659
1900000000.0 0.15030314969592087 -0.2273191576433559
1920000000.0 -0.206312522937163 0.20386057754876968
1940000000.0 0.2308949828499186 -0.18774924471736093
1960000000.0 -0.14831070020699585 0.2649913768215069
1980000000.0 -0.16130976563920565 -0.26436500948700553
2000000000.0 0.25273223227288294 -0.1805755141797729
2020000000.0 0.31103512960416624 -0.008510014449950677
2040000000.0 0.2480604093377428 0.1912296994589634
2060000000.0 0.06131573786881724 0.30556529106371805
2080000000.0 -0.30712429847695 0.04450579851384516
2100000000.0 0.2822336852244542 0.12657299136341904
2120000000.0 -0.29586482989211327 -0.10750099151205364
2140000000.0 -0.07105985526592624 -0.30476715853673725
2160000000.0 -0.02519392955755584 0.30351605546382937
2180000000.0 0.27465159131214895 -0.09844519291560315
2200000000.0 0.24082609198987837 0.13588838040474666
2220000000.0 -0.1254943960782723 0.24179171415641673
2240000000.0 -0.2689463770483828 0.013990786068847983
2260000000.0 -0.229830538835959 -0.12489328109783177
2280000000.0 0.24492423636048352 -0.05945053718348959
2300000000.0 0.18935433448663408 0.15233943127861738
2320000000.0 0.01279145032125772 -0.23076717559116988
2340000000.0 0.21825521979731632 0.07322466636019943
2360000000.0 -0.1934048269911459 -0.11596311654985016
2380000000.0 0.2006540712464575 0.12397073061785738
2400000000.0 0.10887449380718413 0.22727645265064209
2420000000.0 0.10459483032398467 0.24931261738948451
2440000000.0 0.2987758725959808 -0.012604520674899774
2460000000.0 -0.3330880137316584 0.020090340083505378
2480000000.0 0.31678387781274125 0.1865301954686765
2500000000.0 -0.3759980640293561 0.14302381673565284
2520000000.0 0.01919530198195939 -0.4428149665467159
2540000000.0 0.4589992618812704 0.13185168984285436
2560000000.0 -0.4291241234234516 0.28159485635439135
2580000000.0 0.019645463491329958 -0.5442141883897837
2600000000.0 0.17568707381812187 0.5455638039873146
2620000000.0 -0.438470792707774 -0.4080113484178873
2640000000.0 0.6134731373847983 0.07158224510522328
2660000000.0 -0.47880068363620437 0.4179115026324587
2680000000.0 -0.2832949334479916 -0.5825989416450311
2700000000.0 0.4432742923365723 -0.4873627485685589
2720000000.0 0.6528120040701914 -0.1296503963902078
2740000000.0 0.6698117501436143 0.02116771690064395
2760000000.0 0.6692764551580295 0.07209407372022222
2780000000.0 -0.23223014747048729 0.6275353295758948
2800000000.0 -0.3820095277654307 0.5396113488741019
2820000000.0 -0.6165356269405887 0.2132834637874966
2840000000.0 -0.33333784023658725 -0.5475617870342253
2860000000.0 0.6204003725373274 0.10095404176146032
2880000000.0 -0.6070863496359584 -0.09242291272962111
2900000000.0 0.45903627151814846 0.38098943236610755
2920000000.0 0.20405444369901674 -0.5372528307706252
2940000000.0 -0.4300723954852487 -0.3460838442977007
2960000000.0 -0.4753353799952373 0.23256915126282782
2980000000.0 0.0008997337843578167 0.5053302241314668
3000000000.0 0.48344486587004853 0.008867473842658118
3020000000.0 -0.2253129270419331 -0.4004900031454804
3040000000.0 0.032690010426402336 0.43313946527700403
3060000000.0 0.09842960470867224 -0.39393152123699804
3080000000.0 -0.2721289303826719 0.2674934229944244
3100000000.0 0.18579112256098598 -0.30852140317004095
3120000000.0 -0.07907337428973606 -0.3381695387658308
3140000000.0 0.049970959709021774 0.33728692574871433
3160000000.0 -0.0968157158314646 -0.3203924654220069
3180000000.0 -0.003014867703474989 0.33023189566044137
3200000000.0 0.2441556111721171 -0.21341413881685367
3220000000.0 -0.06859123841438441 -0.3066567011309937
3240000000.0 -0.28455765779770903 -0.11215173244834427
3260000000.0 -0.29191681927375296 0.010431762865799445
3280000000.0 -0.1775786542577019 -0.2095567269261247
3300000000.0 0.16788117733945548 -0.18785689371204548
3320000000.0 0.02914133366481398 0.22984721099096375
3340000000.0 -0.19910547121891728 -0.06789835809450813
3360000000.0 0.1491202026929966 0.10743436008294023
3380000000.0 0.03505291902367504 -0.1561152069527794
3400000000.0 -0.11105009710794067 -0.08775869852047219
3420000000.0 -0.08633181033784694 0.09271678400231008
3440000000.0 0.1167973269233123 0.024824352982915004
3460000000.0 0.06111786493921021 -0.0881076507091098
3480000000.0 -0.09337637968284686 -0.006168439905477334
3500000000.0 0.06924311980329488 0.052018299914839396
3520000000.0 -0.0164305207773383 0.07428458341931603
3540000000.0 -0.05852951973767607 -0.04278133591894663
3560000000.0 0.0648354699879107 0.038391839612818265
3580000000.0 0.0810344600861772 -0.018685829470867346
3600000000.0 -0.08974639119171951 -0.019921614060438263
3620000000.0 -0.08610174511481918 0.062257692870426824
3640000000.0 -0.10533189691874718 0.03344226290413942
3660000000.0 -0.1164394437755766 -0.004230994233410906
3680000000.0 -0.1133838540485637 0.005385461686070152
3700000000.0 0.07792851211411082 -0.06651705756514767
3720000000.0 -0.09162806531908507 0.02913685529550226
3740000000.0 0.056958863797605425 -0.06436033392116662
3760000000.0 0.07092402121575282 -0.03390653938393076
3780000000.0 -0.05026378129384626 -0.0474364015765997
3800000000.0 -0.04716820084320771 0.014880343268339442
3820000000.0 0.010630283364601948 -0.03413101853384637
3840000000.0 -0.04038852996680058 -0.02539761666174862
3860000000.0 0.08100767280861504 -0.001743182374438362
3880000000.0 -0.09921123763670645 -0.007306482853823589
3900000000.0 -0.056802982135813314 -0.08691409442247627
3920000000.0 0.07204742800145579 0.07406864832679938
3940000000.0 0.09612049536085131 -0.036179953984570135
3960000000.0 0.0845661186828981 -0.05733071545933937
3980000000.0 -0.0640751549433527 0.07321952277494465
4000000000.0 0.054826196002324974 -0.0660315929441029
