!Created with skrf (http://scikit-rf.org).
# Hz S RI R 50.0 
!freq ReS11 ImS11
400000000.0 -0.8130408988320426 -0.1450616191454671
420000000.0 -0.4032639789648161 0.6531399203321407
440000000.0 -0.02085027377154489 -0.7445932750634277
460000000.0 0.6826441617128642 -0.28153953877493876
480000000.0 0.5619037306782295 0.32145240632352545
500000000.0 -0.39715338629666125 -0.27575065462036247
520000000.0 0.24307126719219752 0.31242429400381394
540000000.0 0.3384701757512934 0.37837545841963616
560000000.0 0.36991656654047916 -0.322694227230352
580000000.0 -0.19528116312241267 0.37880961267366975
600000000.0 -0.1509854867798846 0.40609511676911875
620000000.0 -0.3123726647357862 0.22095450458305
640000000.0 -0.15013111198989726 -0.3142489946932039
660000000.0 -0.3339386018508562 0.2009117461459326
680000000.0 0.049659371702357534 -0.3677109107701594
700000000.0 0.07943827250665635 0.3608692553576129
720000000.0 0.05637237590796063 0.34713337136015776
740000000.0 0.21634512698210723 0.24570490193738762
760000000.0 0.15261672078148494 0.25036643363222877
780000000.0 0.2739987844537719 -0.011163535401070911
800000000.0 0.230335134180109 -0.03857698086450912
820000000.0 0.05955434290311943 0.19881513534373788
840000000.0 -0.08817783174263677 0.18025379858212928
860000000.0 0.15704824875257714 0.09050877957608815
880000000.0 0.18179654100430687 0.021902555150007823
900000000.0 0.1025554499925099 -0.11869778851667703
920000000.0 0.06899930346573133 0.13713639105205613
940000000.0 0.12928724839906594 -0.040674399217888395
960000000.0 0.0940993022159734 0.03444998318542834
980000000.0 -0.02045517121397381 -0.050493819927995134
1000000000.0 -0.03848103013558499 -0.006571234865342139
1020000000.0 -0.03502673034231857 0.032343244017955484
1040000000.0 0.004361708466801149 -0.06742887086396325
1060000000.0 0.097218777925597 0.024615701749201545
1080000000.0 -0.14118259952802903 -0.037143705846054885
1100000000.0 -0.16807502569874638 -0.08432262548114926
1120000000.0 0.0986290844554319 0.19606006956090458
1140000000.0 0.25162509715176934 0.08929821387078272
1160000000.0 0.21756968782289196 -0.20376402873086147
1180000000.0 0.2677855859841409 0.15200562079004898
1200000000.0 0.1425371890926741 0.29606595222834514
1220000000.0 0.08305542023622907 0.3268586031032215
1240000000.0 -0.07158251316798656 0.3269439447337484
1260000000.0 -0.326811838280243 0.05451848538123886
1280000000.0 0.12084250632190464 -0.3131926824604667
1300000000.0 0.3360268978520865 0.09779030246786363
1320000000.0 0.3271930429112241 0.165195295533426
1340000000.0 -0.36973521283750155 -0.053807444764164415
1360000000.0 -0.27139565716918 -0.2685644031559344
1380000000.0 0.3801822305183551 0.023584833272701358
1400000000.0 -0.2750572349757702 -0.26010233355547135
1420000000.0 -0.11860057689010534 0.36006701724823487
1440000000.0 0.3483029892874373 0.09602364124554766
1460000000.0 0.19347904079527692 -0.2991330886492982
1480000000.0 0.1331596535911488 -0.3229095207182604
1500000000.0 -0.18191334309429263 0.279891013605533
1520000000.0 0.2531046351433337 -0.18606679048752414
1540000000.0 -0.11125549547761983 0.25783624320336607
1560000000.0 -0.10587724237972575 -0.22285120754011906
1580000000.0 0.06803671929026137 0.19082898074555066
1600000000.0 0.13340506330354462 -0.10585461028353749
1620000000.0 0.08108264356709291 -0.12463982905249525
1640000000.0 -0.12815461779341147 0.002028319220017431
1660000000.0 0.0956902118774805 0.060303182805050676
1680000000.0 0.061883761110384516 0.07120729401553541
1700000000.0 0.008419303285759662 -0.07243177461423467
1720000000.0 0.052248139621888 0.021499492314560418
1740000000.0 -0.00261579242690408 0.04841606867151619
1760000000.0 -0.04971288223625561 -0.026153524984649155
1780000000.0 -0.028328187826074384 -0.08137916139567615
1800000000.0 -0.10599688288646353 0.060438466624286695
1820000000.0 -0.11217735991318631 -0.10972555619176999
1840000000.0 -0.19371313323077297 -0.0044674313998384315
1860000000.0 -0.15511686231946137 0.1626511834459637
1880000000.0 0.18799600615068449 -0.15839674720723487
1900000000.0 0.10762064378780213 -0.24477807766722695
1920000000.0 -0.18487023899594024 0.22094434300639126
1940000000.0 0.17757791166672587 -0.23962474276677365
1960000000.0 0.000589296940858642 0.3053671442000337
1980000000.0 -0.304743339939242 0.021312511691197758
2000000000.0 0.27992459799349273 -0.1134129042234338
2020000000.0 -0.21676475928066793 0.2124383408668628
2040000000.0 -0.2725318941072866 -0.16280179447772408
2060000000.0 -0.2890392099731121 0.14790042663320158
2080000000.0 -0.09174359591863677 0.30957474011736985
2100000000.0 -0.09244927244772284 -0.29967911766831823
2120000000.0 0.20795392990429537 0.2276255909395586
2140000000.0 -0.18063547566764998 -0.240058768085538
2160000000.0 -0.2017117062142709 0.2176837491365982
2180000000.0 0.21305127458605333 0.20290511503627462
2200000000.0 0.2799848438552777 0.0211850589351688
2220000000.0 0.0553713166511206 0.2655537174027681
2240000000.0 -0.204948805676347 -0.17482960909473858
2260000000.0 -0.15363990620628326 -0.21609098743376215
2280000000.0 0.18350111337272001 -0.17871737767015772
2300000000.0 0.20078188175443337 0.13965084050193555
2320000000.0 -0.20264937292565469 -0.10920200802651736
2340000000.0 0.18272002758635064 0.1346242608872371
2360000000.0 -0.13101901070506414 -0.18397213512411648
2380000000.0 0.21611012460207038 0.08712376384315546
2400000000.0 -0.060935291537881256 0.24093515130857904
2420000000.0 -0.11556277561359223 0.24588192074536025
2440000000.0 0.28616065211283426 -0.08940966698082746
2460000000.0 -0.3146258291406483 0.11015701784079074
2480000000.0 0.3347817981474585 0.1486116056436746
2500000000.0 -0.2981239748739567 0.26860209578873906
2520000000.0 -0.02968362071817613 -0.43698096106025336
2540000000.0 0.3706931526424285 0.30013819696929656
2560000000.0 -0.49116667546862713 0.1510356748404609
2580000000.0 0.25640148023987935 -0.4823597035228666
2600000000.0 0.1526132568954329 0.5549816680501464
2620000000.0 -0.4529963318961961 -0.39064817712261835
2640000000.0 0.6100709368836624 0.08682807339230582
2660000000.0 -0.5296852534231653 0.34792601742315377
2680000000.0 -0.21622764723508725 -0.6097564344117465
2700000000.0 0.4835858556885209 -0.4482142242825311
2720000000.0 0.6564194200593707 -0.10984950483539128
2740000000.0 0.6611167135081742 0.1105199135336326
2760000000.0 0.656757059499408 0.14573197839303031
2780000000.0 -0.25038114035114756 0.6209364776307295
2800000000.0 -0.4157594602536394 0.5144200256451897
2820000000.0 -0.6409133210716293 0.11978816855949444
2840000000.0 -0.16934360591147207 -0.6176531134948712
2860000000.0 0.5507149331510138 0.30261030246603543
2880000000.0 -0.594992948672234 -0.15125553499913758
2900000000.0 0.3616909694005385 0.4753668831030001
2920000000.0 0.24958627165917838 -0.5192475102481783
2940000000.0 -0.454224620221492 -0.31619562268658885
2960000000.0 -0.4559729294520613 0.2697243302196835
2980000000.0 0.06732683288365374 0.5027073386995367
3000000000.0 0.4839242443333197 -0.037409264513913784
3020000000.0 -0.3474097017227665 -0.2999046317227681
3040000000.0 -0.07598980005964844 0.4268277378643133
3060000000.0 0.1266881432857447 -0.3847429293252734
3080000000.0 -0.27421093063412244 0.2630832222070752
3100000000.0 0.29693523992156545 -0.20470354946421546
3120000000.0 -0.16108234495323398 -0.30660693474566453
3140000000.0 -0.024572582081937 0.33988368721664103
3160000000.0 0.05248941809746711 -0.3312291664425672
3180000000.0 -0.20359713766494894 0.2641414265124938
3200000000.0 0.19652841744236765 -0.26332523591673523
3220000000.0 -0.28077933609046835 -0.1573403806849282
3240000000.0 -0.18295868364418932 0.24388770254793868
3260000000.0 -0.2418168999823541 0.15047704698779812
3280000000.0 -0.08455057188882092 -0.2583243687144947
3300000000.0 0.24838667558799057 0.033152723360109874
3320000000.0 -0.16632636079629234 0.1625257942121016
3340000000.0 -0.09487592783096328 -0.19087693095989017
3360000000.0 0.18480437792402682 -0.027869785253400777
3380000000.0 -0.0701956200104216 -0.1397953256017873
3400000000.0 -0.06219061595283434 -0.12313245920207272
3420000000.0 -0.05633957922928914 0.11334023762250654
3440000000.0 0.035654226586101616 -0.11449736181511741
3460000000.0 -0.024450047990714766 -0.10252605965244212
3480000000.0 -0.06356078078100645 0.06910587385817615
3500000000.0 0.07915776580964773 -0.041124653704440225
3520000000.0 0.07557405905469827 0.02001694587482887
3540000000.0 -0.07076828105601789 0.008155792403102147
3560000000.0 -0.07610120552754857 0.003795691038920098
3580000000.0 0.0447895037910602 0.07356933147698859
3600000000.0 -0.07583962698229375 -0.05621812667311316
3620000000.0 -0.0369605688950786 -0.09743615790595618
3640000000.0 -0.04262288457547389 -0.10229265409311605
3660000000.0 -0.02656075404432108 -0.11432003612283147
3680000000.0 -0.11321110481833138 -0.0056314595837034295
3700000000.0 0.08755611029990895 -0.050183557717632686
3720000000.0 0.03032619133683794 0.09078390577523154
3740000000.0 -0.02830769332003467 -0.0752212911791414
3760000000.0 0.06299802172218912 -0.040171963581111726
3780000000.0 0.014754366850387928 -0.0643790494983156
3800000000.0 0.04107430665432761 0.025445868509215836
3820000000.0 0.03775195921643254 -0.0001335110713530636
3840000000.0 -0.003349445068374535 0.04561249257883272
3860000000.0 0.037647160370288514 -0.060091299348228
3880000000.0 0.08412475885034001 0.039009641196677644
3900000000.0 0.07460121915259925 -0.07543880029962005
3920000000.0 0.05986639478261947 -0.08964568503444682
3940000000.0 -0.06132787557429264 -0.07967312672036397
3960000000.0 0.06974855375053102 -0.0705352608776589
3980000000.0 0.07790261320436102 0.05505586894445867
4000000000.0 0.08361923172764714 -0.010700586960693726
