!Created with skrf (http://scikit-rf.org).
# Hz S RI R 50.0 
!freq ReS11 ImS11
400000000.0 -0.8050290125991467 -0.1883291481496909
420000000.0 -0.6070492883698095 0.4628102160833664
440000000.0 0.1884087254491796 -0.7291053341658593
460000000.0 0.44966370887460655 -0.568928312824789
480000000.0 0.5091266774080614 0.39615564327134983
500000000.0 -0.27808016970034516 -0.40349853480159126
520000000.0 0.2940522300025904 -0.25953054558041516
540000000.0 0.21501799885516787 0.44323806488759016
560000000.0 0.43325858434176856 -0.23470330048109597
580000000.0 -0.3743324900324447 0.2027112897301536
600000000.0 -0.29198398290971195 0.32523475310915945
620000000.0 0.0059573567468764075 0.3855020157627931
640000000.0 -0.20292888126876468 -0.28906719091400324
660000000.0 0.08042306915005543 0.37901091379668395
680000000.0 -0.20213473231197202 -0.30899219532416056
700000000.0 -0.3199926320051683 0.16414001943952986
720000000.0 -0.3422630261632284 0.0673210214211611
740000000.0 -0.10521011707442485 0.31218308358056907
760000000.0 0.2772610013126095 0.10603025188663975
780000000.0 0.27330392124121505 -0.024696411015033982
800000000.0 0.07621900982002262 -0.22293480522491668
820000000.0 0.15760806519747994 0.14166504885803435
840000000.0 -0.1021130076312048 0.15858492078166597
860000000.0 -0.07489551121045498 0.1619610622574018
880000000.0 -0.03039419273060359 -0.1760706511051323
900000000.0 -0.13296131325519947 0.08750136868525812
920000000.0 -0.020926595954167012 -0.1550449443014054
940000000.0 0.09752680191615648 -0.09585039669763142
960000000.0 0.013606957714131677 0.09528565064139846
980000000.0 -0.055124297624507844 -0.014303761569350964
1000000000.0 -0.010356621389314204 -0.03729258697817744
1020000000.0 -0.04210376870790608 0.01317284036544238
1040000000.0 -0.04116670095693829 0.04723785665434045
1060000000.0 0.042254397309714135 0.08339003307592278
1080000000.0 0.040516144369659265 0.14375893775804224
1100000000.0 0.0711547480661686 -0.17732009992879516
1120000000.0 0.204229212576126 0.10669971740138463
1140000000.0 0.25132014583492596 -0.10317979043952474
1160000000.0 -0.2920786106762364 -0.03939567754389758
1180000000.0 0.26404402966567403 0.15595103732339602
1200000000.0 0.12096487363958217 0.302804831351288
1220000000.0 -0.16945789578026346 0.2832593321521097
1240000000.0 -0.14027753840136012 0.3035390692613492
1260000000.0 -0.27649746083881993 -0.18078194243818227
1280000000.0 0.19258819070270716 -0.2816174504512871
1300000000.0 0.3512182906327162 0.0502744914090617
1320000000.0 0.2496229728676953 -0.274039726283195
1340000000.0 -0.2965989491646014 0.22303010863110156
1360000000.0 -0.11239932157850911 -0.3553207744589379
1380000000.0 0.21372203277826288 0.31060219868315775
1400000000.0 -0.0070500865391360116 -0.3830736839742079
1420000000.0 -0.1263493640028791 0.3598272210547279
1440000000.0 0.36271680232719833 -0.029690116791388353
1460000000.0 0.09398303516213628 -0.34468062833178337
1480000000.0 -0.10489074942406709 -0.3338346287488484
1500000000.0 -0.3177205482623273 0.08461963141654488
1520000000.0 0.268945374705009 -0.17218775638705733
1540000000.0 0.12403520461730673 0.25551312549611793
1560000000.0 -0.15854598413359564 -0.18205100096840568
1580000000.0 -0.19503931749091424 0.015534836619674195
1600000000.0 0.0406126269737393 0.17005298792941015
1620000000.0 0.07809738641265733 -0.1305824930755155
1640000000.0 -0.12996688414731608 -0.004817738760473008
1660000000.0 0.11050221395328867 -0.033466831149627785
1680000000.0 0.09048908126237212 0.037626408082087406
1700000000.0 -0.06623295344363904 0.03788937556103321
1720000000.0 -0.05233085719141315 -0.017061993492187108
1740000000.0 0.02410252842590575 0.02679285680496198
1760000000.0 0.05806839583451808 0.012197580724260356
1780000000.0 0.09533625437299816 0.029234570330957235
1800000000.0 0.06368734673836385 -0.11371871859712723
1820000000.0 0.11437832646791975 0.10194015048325966
1840000000.0 0.13872450668332395 0.1259716713160355
1860000000.0 -0.2155202651871848 0.011265457915295311
1880000000.0 -0.09992434319071258 0.21972288771954798
1900000000.0 0.2279374425062781 0.1535929484675574
1920000000.0 -0.16703065471380954 0.2458420941593436
1940000000.0 -0.14116494807708685 -0.2628095388537813
1960000000.0 0.11009842189088491 0.2774780766878014
1980000000.0 -0.22426312933351839 -0.20124393277233824
2000000000.0 0.28248013252208104 0.11056466981838883
2020000000.0 -0.1820846132160743 0.2502082101708043
2040000000.0 -0.26507680822190943 0.17535781222903077
2060000000.0 -0.25416516277392903 0.196839416536679
2080000000.0 -0.2785436262495173 0.16470775948630048
2100000000.0 0.0176423144340119 -0.3196363666966454
2120000000.0 0.2475812779201928 0.18876383743988331
2140000000.0 -0.2848061264194694 0.09000578545162517
2160000000.0 -0.28421305203058406 0.05289425608438931
2180000000.0 -0.13385581860945042 0.2571280359838282
2200000000.0 0.18442473232476472 0.21557352250527492
2220000000.0 0.09654007292763424 0.25541862722324843
2240000000.0 -0.26565824817625194 0.03226170506268527
2260000000.0 -0.1934085041174569 -0.1758809297103153
2280000000.0 0.2459286602047441 0.0689583278020282
2300000000.0 0.18607173272130978 0.16285553263851035
2320000000.0 -0.23392092954815424 0.0015277752093620222
2340000000.0 0.11596892710395068 -0.19399368121809302
2360000000.0 -0.08446461316877757 -0.20409332938376493
2380000000.0 0.09234717849268205 0.21353884458969705
2400000000.0 -0.2292573766770701 0.10121915037890447
2420000000.0 -0.055301640863832824 0.27076851285568215
2440000000.0 0.27193430595931717 -0.13596622389692622
2460000000.0 -0.09977126054012589 0.3188134101556997
2480000000.0 0.29864811716407613 0.20767915619241165
2500000000.0 -0.39594897589242806 0.048554025642185285
2520000000.0 0.10096140657177921 -0.4284502621008019
2540000000.0 0.37838412817163547 0.2900644981699298
2560000000.0 -0.4777210532189618 0.1931057608053786
2580000000.0 0.089344370657895 -0.5378178844629746
2600000000.0 0.16957070691942264 0.5487141049444352
2620000000.0 -0.4126479245175064 -0.433993054360289
2640000000.0 0.6141020986726362 0.06716565029652144
2660000000.0 -0.4796844570835217 0.41573509133390735
2680000000.0 -0.19172949403336087 -0.6188082034813756
2700000000.0 0.4623845226191264 -0.46928860469404765
2720000000.0 0.6598794509382041 -0.08441152073417782
2740000000.0 0.6608402424504354 0.10987288327275624
2760000000.0 0.6715676276120884 0.04638924505947923
2780000000.0 -0.24291954412714462 0.6240522602292319
2800000000.0 -0.40578446950174757 0.5220608599101899
2820000000.0 -0.630642062266698 0.16412515435228994
2840000000.0 -0.26663155427729024 -0.5818556530977205
2860000000.0 0.6084505723326149 0.1526753948818831
2880000000.0 -0.577744552538383 -0.2067179753587894
2900000000.0 0.3910270118015234 0.45208327259028647
2920000000.0 0.24251086482535011 -0.5237071215417017
2940000000.0 -0.4663966922416663 -0.29774487743968414
2960000000.0 -0.46958530411939725 0.24467304875591236
2980000000.0 0.019900583389086 0.5072511240382793
3000000000.0 0.47877604702947785 -0.08202219215341727
3020000000.0 -0.3052723147344142 -0.34409899992365683
3040000000.0 -0.03992880276144342 0.43132188738868205
3060000000.0 0.035453338770349584 -0.4026501616753019
3080000000.0 -0.30543479679645985 0.22312153773761248
3100000000.0 0.32825774334435254 -0.14789766487126127
3120000000.0 -0.07016587386321879 -0.3423521347033029
3140000000.0 0.005839626091598523 0.3418678339327211
3160000000.0 0.008525454033211855 -0.3368169445610756
3180000000.0 -0.02411237860240065 0.33286516521042203
3200000000.0 0.20011120438503277 -0.2598550144214019
3220000000.0 -0.2031988170737201 -0.2447151842360604
3240000000.0 -0.21803664604753265 0.21292050496823825
3260000000.0 -0.277703145544381 0.07186968234958109
3280000000.0 -0.13968645084440875 -0.2319240056616929
3300000000.0 0.1455645895313425 -0.20247454909076737
3320000000.0 -0.12095443512201888 0.19593218299828874
3340000000.0 -0.10145389249737961 -0.1857381793051815
3360000000.0 0.06335740732467457 0.17437242911389653
3380000000.0 0.05045963231450904 -0.15582272789236348
3400000000.0 -0.1378816922261445 0.043444707075401975
3420000000.0 0.04934167134098937 -0.11747646587518691
3440000000.0 0.0208583426532645 -0.11416282094050213
3460000000.0 0.09250412989241141 0.043120321906114034
3480000000.0 0.0005689917806951356 -0.09158731630135618
3500000000.0 -0.06491543997525102 -0.05864803103436014
3520000000.0 -0.0772923811712707 0.020234334444716708
3540000000.0 -0.0759367131337169 0.0007442332452929721
3560000000.0 0.07448557122065019 0.015990606685174148
3580000000.0 0.0075860787159064864 -0.08364378737962354
3600000000.0 -0.09325320062959697 0.0013026833615142677
3620000000.0 -0.020335799689321397 0.10151385843875164
3640000000.0 -0.05740287249598582 -0.09602248522506832
3660000000.0 -0.07640996407071614 -0.09123187518729492
3680000000.0 -0.11321191705191784 -0.02347440610791923
3700000000.0 -0.04915659419990835 -0.08933584419322252
3720000000.0 0.0148989202611448 0.09420739783327628
3740000000.0 0.0056885482855681384 -0.08110028545443519
3760000000.0 0.03917810436529961 0.06801238834352732
3780000000.0 -0.0418453715307995 0.05847456147036982
3800000000.0 0.007643692048530545 0.04841379294718114
3820000000.0 -0.015364140471152941 0.03218062480295886
3840000000.0 0.05017489832492108 -0.005662907849413447
3860000000.0 0.010994456870886354 -0.0747330500826655
3880000000.0 -0.018310421333814986 -0.09294763348959037
3900000000.0 0.051429158541914315 -0.08972768467597587
3920000000.0 0.003322594999118077 0.10859793145151612
3940000000.0 0.05026989603276444 -0.09397159766525501
3960000000.0 -0.08276505602513964 -0.05936163144756215
3980000000.0 0.05180155826664338 0.08102881505032325
4000000000.0 0.03600948148364135 -0.07433692890190266
