!Created with skrf (http://scikit-rf.org).
# Hz S RI R 50.0 
!freq ReS11 ImS11
400000000.0 -0.1853110112711615 -0.8019999657965474
420000000.0 -0.5681955462205317 0.5215769594247428
440000000.0 -0.5335618036126645 -0.5309476363749212
460000000.0 0.4083844681345549 -0.6108418414908411
480000000.0 0.6271174455027312 -0.13603519432488637
500000000.0 0.42136872970143724 -0.2367201498556444
520000000.0 0.15319244439816734 -0.3862741520653967
540000000.0 0.3750482833668152 0.32136255266364977
560000000.0 0.2622358149592853 0.4277994002286271
580000000.0 0.4117852261200733 0.17198872052155947
600000000.0 0.3024786665427289 -0.30600616153743193
620000000.0 -0.3690686674890438 0.09151146767899082
640000000.0 -0.3551836005967137 0.05099392666186852
660000000.0 0.37801477537304146 -0.0033264721338427472
680000000.0 -0.16500167887488731 -0.31000184284476656
700000000.0 0.20989594445186385 0.28332123422072
720000000.0 -0.2455425538772645 -0.20739963768544548
740000000.0 0.0351815375254998 0.33089531569238184
760000000.0 0.2478617590111121 -0.1855751847942615
780000000.0 -0.05784892810351085 0.27388438639826623
800000000.0 0.24722929307660585 0.0003882631286590964
820000000.0 0.1550494979535173 0.13620634788694036
840000000.0 -0.1390438433978337 0.1522009440427355
860000000.0 0.10366357215006237 -0.167750208700093
880000000.0 -0.11331454508099267 -0.13256693816903484
900000000.0 -0.061582128585900855 -0.1374239687887516
920000000.0 -0.03891641825040982 -0.13228187823851217
940000000.0 0.05842853832147047 -0.11160168475542469
960000000.0 0.022687874215197554 -0.09083672025672254
980000000.0 0.007342848237555616 -0.053346181828639684
1000000000.0 0.03773591874851847 -0.0028062112440222827
1020000000.0 0.03855615901007155 0.008522050003762861
1040000000.0 0.0549749813148668 -0.04305612356787917
1060000000.0 0.105244485637807 0.031398818308667274
1080000000.0 -0.15429414976583106 -0.026021747411852637
1100000000.0 -0.13433212552280513 0.1425868870568852
1120000000.0 -0.19542981870665835 -0.11375898473612871
1140000000.0 0.2547698886991846 -0.008037221902398167
1160000000.0 0.19813489550003693 -0.20903344909442345
1180000000.0 0.02998520427377899 0.31133979037559684
1200000000.0 0.23772957951390303 0.22204245954405022
1220000000.0 -0.28177095723924517 0.16963005565895684
1240000000.0 -0.3372956360899822 -0.017291835726038835
1260000000.0 -0.3182796417081952 -0.12808690931193692
1280000000.0 -0.3394826907139097 -0.028107209108679032
1300000000.0 0.3289267326032006 -0.11782905718513167
1320000000.0 0.3499572484832434 -0.10500191892258194
1340000000.0 -0.36765579961040573 0.04261421357870611
1360000000.0 0.01857853241317546 -0.3770818379484776
1380000000.0 0.33192567750874774 0.19096481226777834
1400000000.0 -0.37783704664496065 -0.03580513980249793
1420000000.0 -0.18464803692378248 0.32498131869398666
1440000000.0 0.2824130613722684 0.2338715361299022
1460000000.0 0.1357360952950611 -0.3331298781990149
1480000000.0 0.019446084596559117 -0.34957879063783026
1500000000.0 -0.08359007093398751 0.31913379401623737
1520000000.0 0.26519622131045234 -0.16542430314660528
1540000000.0 -0.17307968060721612 0.21960557594169453
1560000000.0 0.23534419393634423 -0.057893614442640816
1580000000.0 -0.2055009523961462 -0.03402094102054766
1600000000.0 -0.06539966647156599 -0.17181292648121751
1620000000.0 -0.060820609629671674 0.1335850771740968
1640000000.0 0.006116375181836878 0.12647335143150273
1660000000.0 0.0730738960357165 -0.08100010760835867
1680000000.0 -0.08566873787150336 0.037601845987403744
1700000000.0 0.0038752968468718993 0.07134412349757736
1720000000.0 0.03271869271765223 -0.04053327642732242
1740000000.0 0.01650521109571807 -0.04444023379545484
1760000000.0 -0.03599332783920847 -0.04608836831605927
1780000000.0 0.006821807897539232 -0.09474551327574139
1800000000.0 0.10096716332127462 -0.07466121802845845
1820000000.0 0.06108625320738014 0.14391773999201377
1840000000.0 0.13406190347176347 0.13076822635665464
1860000000.0 -0.17841312261035444 0.12000756143888391
1880000000.0 0.11676693635429386 0.21089715578857893
1900000000.0 0.2526484291435814 -0.08296707941543681
1920000000.0 -0.2651558270058606 -0.11574472549708613
1940000000.0 0.299395940361473 -0.00011276394173145947
1960000000.0 -0.21819697483678688 0.2157515464139498
1980000000.0 -0.17929575189585586 -0.2560487711898589
2000000000.0 0.17531582014389552 -0.2608589216216367
2020000000.0 0.31114031934541453 -0.04031125789407463
2040000000.0 0.2530192315537606 0.1860871854205233
2060000000.0 0.23154648373903067 0.20996338755475769
2080000000.0 -0.26771406648209783 0.1534167739841408
2100000000.0 0.30848584698039705 -0.016514583146538364
2120000000.0 -0.28413113985249355 0.12073390429683024
2140000000.0 0.0489796112002885 -0.30310010382256625
2160000000.0 -0.25087441207981276 0.16661736780093092
2180000000.0 0.24898840197885713 0.15496016634354778
2200000000.0 0.2526326879974374 0.12641514492974856
2220000000.0 0.09164775827495004 0.2585199355269018
2240000000.0 -0.23881332733849814 0.12603085136382514
2260000000.0 -0.2593317716693136 0.019786922844787867
2280000000.0 0.24495046499338946 -0.0575631721524595
2300000000.0 0.10275334172633693 0.22181755838464937
2320000000.0 -0.2218560390836487 -0.07031941649272465
2340000000.0 0.2214826058586185 0.04617370485884793
2360000000.0 -0.12690299231821064 -0.18546689107229675
2380000000.0 0.1629003276747893 0.16735249730020682
2400000000.0 -0.06066491372369096 0.24208345233702383
2420000000.0 -0.04864135315891907 0.2685621599137869
2440000000.0 0.30066495829015993 0.008642631619686862
2460000000.0 -0.30338515865923693 0.1405045474332013
2480000000.0 0.33475164425955606 0.15028887582946415
2500000000.0 -0.32958096936886144 0.22691545297767501
2520000000.0 0.06164246956241581 -0.4354739852279845
2540000000.0 0.42398590160827976 0.2153489652205709
2560000000.0 -0.49369115368035593 0.1322402410308532
2580000000.0 0.2568580643517489 -0.47924403190530457
2600000000.0 0.10320309571468465 0.5654304099160549
2620000000.0 -0.4287719157877412 -0.41719593088716955
2640000000.0 0.6039383001118186 0.13123271429180586
2660000000.0 -0.4902728250142605 0.4044747829704256
2680000000.0 -0.3256604335714149 -0.559845323802761
2700000000.0 0.47031121394534925 -0.4606239441378942
2720000000.0 0.665019599076674 -0.02702313505716026
2740000000.0 0.6545677866947721 0.1448166122456221
2760000000.0 0.6453129965413529 0.1913360662004028
2780000000.0 -0.32921907317098237 0.5827213315314005
2800000000.0 -0.4809906459118859 0.4542882656149976
2820000000.0 -0.6464498243380452 0.0908178817704964
2840000000.0 -0.19832668344333687 -0.6103495301691513
2860000000.0 0.5931820716454831 0.20587605043089938
2880000000.0 -0.578798184025256 -0.20401687347812475
2900000000.0 0.39430714379632037 0.4494970531120658
2920000000.0 0.24792262151140074 -0.5212823617500381
2940000000.0 -0.4098062064654658 -0.3735484608407161
2960000000.0 -0.4785424439483893 0.23186914443423734
2980000000.0 0.11484697191608984 0.4952254704373916
3000000000.0 0.48351654287836726 -0.025757390869007895
3020000000.0 -0.27402323710111387 -0.37169798426795964
3040000000.0 0.12858204623680197 0.41551941612876897
3060000000.0 0.06461187659513352 -0.3997028541963257
3080000000.0 -0.34855840366473545 0.14908932310854012
3100000000.0 0.33795938676035087 -0.12373008705648704
3120000000.0 -0.04275625035325073 -0.3463309793077344
3140000000.0 0.06991492070000814 0.3345814442481868
3160000000.0 -0.0010124028334276662 -0.33600469092924945
3180000000.0 -0.08693485975055627 0.32309221341976396
3200000000.0 0.07942878255965191 -0.32036661140382194
3220000000.0 -0.3174163419374231 0.010539792760332593
3240000000.0 -0.2286446346564744 0.1962604179440654
3260000000.0 -0.28188460346050376 -0.0507190772362538
3280000000.0 0.09479752111927754 -0.2535471387526461
3300000000.0 0.25567359740899565 -0.014641825315770178
3320000000.0 -0.016250752949381234 0.23380078569184892
3340000000.0 -0.14100256796123842 -0.1585050480805848
3360000000.0 0.10891453734502056 0.15409902811086332
3380000000.0 -0.15478441555244823 0.04708058615702786
3400000000.0 -0.0953951651472141 0.09855555555970133
3420000000.0 -0.09359486501729132 0.08071448391457635
3440000000.0 0.08685556242991387 0.08079579088457123
3460000000.0 0.10628215204286635 -0.013866585940670712
3480000000.0 -0.05186565068420712 -0.08193629697223843
3500000000.0 0.09038317982754489 -0.0024094123601962835
3520000000.0 0.06060414062140841 0.048370906658198105
3540000000.0 -0.05338395467755407 -0.04900190154779921
3560000000.0 -0.028971145759592837 0.07003547441845735
3580000000.0 0.05594785794460843 -0.06253160144200832
3600000000.0 -0.06664332975535765 0.064928926546537
3620000000.0 -0.06929110597989797 0.07772244975120064
3640000000.0 -0.09906202355223255 -0.048824992201547485
3660000000.0 -3.5017226012862675e-05 -0.11664114476091139
3680000000.0 -0.0984192963979782 -0.05911457367983774
3700000000.0 -0.06080861707601831 -0.08271518107516132
3720000000.0 -0.08356850720735624 0.04148691406503876
3740000000.0 0.02821459513524274 -0.08093787025546674
3760000000.0 -0.012318969728122981 -0.07807270025342297
3780000000.0 0.06324358088391457 0.021222411026561992
3800000000.0 -0.040835578881961175 -0.02404103091175619
3820000000.0 -0.034830716613743276 -0.01607808016893798
3840000000.0 -0.05041885384335243 -0.0036235743277864794
3860000000.0 -0.07265568310009625 0.015311485497562971
3880000000.0 0.0232802612270351 -0.09113169961891059
3900000000.0 0.10036101961788335 -0.024403511348306452
3920000000.0 0.10656466023636059 -0.0070559201918205215
3940000000.0 0.10088119229941209 -0.01753058214036669
3960000000.0 0.08913808511510467 -0.04844956295681406
3980000000.0 -0.09623839148194123 0.018857830698016824
4000000000.0 -0.00832366260011547 -0.08359674764009761
