!Created with skrf (http://scikit-rf.org).
# Hz S RI R 50.0 
!freq ReS11 ImS11
400000000.0 -0.8010458429399208 -0.1993384146702503
420000000.0 -0.5465262457955721 0.5333794487588538
440000000.0 0.10978338979780577 -0.746576615842907
460000000.0 0.4763624797612917 -0.5601224477596813
480000000.0 0.4857038297630783 0.4281795477185958
500000000.0 -0.4813519449474508 0.013056882974985985
520000000.0 0.3919742267935416 0.03633862816844535
540000000.0 0.2964548921913812 0.4056293036119153
560000000.0 0.46153295009877693 -0.1667925416131369
580000000.0 -0.08148575807288998 0.4191750600103099
600000000.0 -0.4103424547138358 0.14071078539106002
620000000.0 -0.19895291714025687 0.3283982633619179
640000000.0 -0.34101888421370674 -0.08707188426113109
660000000.0 -0.304560531708357 0.241841226126492
680000000.0 0.05379450773088322 -0.371638257770626
700000000.0 -0.09423334740049563 0.35148047783121106
720000000.0 0.06492898104926288 0.3424303086037597
740000000.0 -0.3016071937064507 0.12890982068544685
760000000.0 0.2601869808999939 0.149966117156373
780000000.0 0.2770327031795355 -0.004052346993748047
800000000.0 0.12098453648473892 -0.19308303857870815
820000000.0 0.05887994733931983 0.2068531653468526
840000000.0 0.021989758944099175 0.19565286131841284
860000000.0 0.04499629340943153 -0.17486521353519935
880000000.0 0.07201925657911179 -0.15987150171174183
900000000.0 -0.018690252807694124 0.15399798799342723
920000000.0 0.13931437727123322 0.05478529893405674
940000000.0 -0.075478461048227 0.11310190603643736
960000000.0 -0.09210006144060463 0.04231957912839671
980000000.0 -0.0390243868502063 -0.05043742745928208
1000000000.0 0.04124309741396971 -0.015359851323005595
1020000000.0 0.04623178549412315 -0.0075549958938675894
1040000000.0 -0.018736115554306924 -0.06154718813095946
1060000000.0 -0.0571713894052659 0.07394877095908967
1080000000.0 0.11920558775608733 -0.08906529163004358
1100000000.0 0.07075078272095763 -0.17100113819510704
1120000000.0 0.08813616928458748 0.21322328386771025
1140000000.0 0.22794870432175193 -0.15161006664968985
1160000000.0 -0.26703746962139163 -0.11798679596866826
1180000000.0 0.0798238071386562 0.30148559301345895
1200000000.0 0.3016029460456183 0.12271781082915054
1220000000.0 -0.1622133236569347 0.2894946751724935
1240000000.0 0.11152425775607343 0.31559723205781576
1260000000.0 -0.31388563548849713 -0.09696735729548804
1280000000.0 0.2466223975810124 -0.22428259438763007
1300000000.0 0.10481272555748855 0.3385997466051445
1320000000.0 0.3697873649333195 -0.06895892595073483
1340000000.0 -0.17313455340796485 0.3330472790299252
1360000000.0 -0.3631877388388483 -0.09262092143501104
1380000000.0 0.37130518385277816 0.044909647023094135
1400000000.0 0.029079269977534232 -0.3737912257909188
1420000000.0 -0.37598434668372055 -0.045343277195798684
1440000000.0 0.26124956994218707 0.2644085022998577
1460000000.0 -0.015521735185541626 -0.3640804542222614
1480000000.0 -0.28710127519119777 -0.20577861490698102
1500000000.0 0.045574353775534995 0.32132816958245647
1520000000.0 0.3113063522959956 0.012843658331577704
1540000000.0 -0.20403898785687627 0.1930751123745372
1560000000.0 0.014215008526240832 -0.24664360286551093
1580000000.0 0.012801399001898976 0.19982693552460767
1600000000.0 0.16774897089630114 -0.04599139567721231
1620000000.0 0.10055983755232739 -0.10946772189621445
1640000000.0 -0.1246944215679062 -0.03770585237514918
1660000000.0 0.11316529929656491 -0.029633275177047922
1680000000.0 0.0963031316802686 -0.0027006804146900722
1700000000.0 -0.06552792664130627 0.03370394599040904
1720000000.0 -0.04888093241367835 -0.02999042073713524
1740000000.0 0.019895768326291138 0.036568587833609625
1760000000.0 -0.053594145284056795 -0.005523552788083771
1780000000.0 0.04605089052366918 0.08377238243936388
1800000000.0 0.0584562259579251 0.11679718976451761
1820000000.0 -0.020058206459428726 0.15570810764139986
1840000000.0 0.11882653460826824 0.14912957647275005
1860000000.0 -0.12309454823332718 0.1788080497999056
1880000000.0 0.2110127813082108 0.11345000983297628
1900000000.0 0.2321141608913961 0.13262195062704762
1920000000.0 -0.28813176387934974 0.04530746873498521
1940000000.0 0.163672729647345 -0.2530040843036205
1960000000.0 0.11039512075169894 0.28610829504854807
1980000000.0 -0.24156004674683282 0.19003845832967117
2000000000.0 0.15057610900465318 -0.25789671190336955
2020000000.0 -0.26297736702413743 0.14359654347128392
2040000000.0 -0.18886707549480655 -0.253998398923258
2060000000.0 -0.3204213459507509 0.06588880534768139
2080000000.0 -0.22669862657537557 0.23499024319207748
2100000000.0 -0.1411520940752157 -0.2841431058040085
2120000000.0 0.28404780185502737 0.11776441007102491
2140000000.0 -0.2764367039002756 -0.11545133854398656
2160000000.0 -0.26567195250189923 0.13172223909877862
2180000000.0 0.15039502683620043 0.25026944620778413
2200000000.0 0.25857744239617747 0.10915878799867783
2220000000.0 0.014966702320401084 0.27006652053217395
2240000000.0 -0.21724626374939104 -0.15366207423214204
2260000000.0 0.03389414900783846 -0.2639375726813725
2280000000.0 0.23074671119723095 -0.11841515241075938
2300000000.0 0.21802221119112547 -0.11662972250041066
2320000000.0 -0.1916049833945832 0.12244517993847034
2340000000.0 0.20748780775262315 0.0834187462179167
2360000000.0 0.09914771683341515 -0.2011748183915993
2380000000.0 0.16478642697391055 0.16734431444449338
2400000000.0 -0.2027774777135266 0.14765801632848027
2420000000.0 0.004184510866633244 0.2746367246515334
2440000000.0 0.2321783413986612 -0.1901514392665753
2460000000.0 -0.23787501019531235 0.22934491293685955
2480000000.0 0.253793400478573 0.26141651069032734
2500000000.0 -0.39909170955202683 0.0436624646159922
2520000000.0 0.015889705874006007 -0.4414496609328781
2540000000.0 0.4322864986035986 0.20372499723642962
2560000000.0 -0.43474694172212414 0.2731883751769707
2580000000.0 0.1754271728884533 -0.5150108389533486
2600000000.0 0.11839717842775621 0.5621318572708948
2620000000.0 -0.43301883188598317 -0.41413977914619654
2640000000.0 0.6027659486270498 0.13590747337317072
2660000000.0 -0.4725994649534754 0.42482071551943645
2680000000.0 -0.3139119064662109 -0.566789382479879
2700000000.0 0.4458122854248132 -0.4842773491000499
2720000000.0 0.6617201460152581 -0.06477527529703062
2740000000.0 0.6634617751126834 0.09128755113295615
2760000000.0 0.6688468830979384 0.07984719780232812
2780000000.0 -0.25745841535650915 0.6183146894411793
2800000000.0 -0.39967500823627705 0.5275056888157045
2820000000.0 -0.6270559576158637 0.17991628054744765
2840000000.0 -0.2259422694579412 -0.5997775237467631
2860000000.0 0.573148943769278 0.25758726458365644
2880000000.0 -0.590193067382096 -0.16984898391318884
2900000000.0 0.4073871219737044 0.43655083648787096
2920000000.0 0.2732302413135606 -0.5080865011340112
2940000000.0 -0.44285267509780873 -0.33228353687088785
2960000000.0 -0.44737757820710705 0.284862808000861
2980000000.0 -0.014192485505715542 0.5084749242636591
3000000000.0 0.48075097074096995 -0.07494258265146314
3020000000.0 -0.36647950900427845 -0.2774812440046409
3040000000.0 0.04341654816845134 0.43019332195847215
3060000000.0 0.17880635469619538 -0.36200321203524116
3080000000.0 -0.34294573151904056 0.15994898039254132
3100000000.0 0.308470016929666 -0.18850095241020662
3120000000.0 0.010246778248076252 -0.34847878703135027
3140000000.0 -0.0902076966695773 0.32978383653578164
3160000000.0 0.01345354153456583 -0.33712871035408576
3180000000.0 -0.04489609413990911 0.3310892381297927
3200000000.0 0.18389778042670896 -0.26923487028131227
3220000000.0 -0.2753031236723152 -0.1644708540956088
3240000000.0 -0.16479095935041171 0.25545521174783153
3260000000.0 -0.2745619755556705 0.08433695828422945
3280000000.0 -0.13765998634153698 -0.23493268018722105
3300000000.0 0.1664925979298597 -0.18869081345105373
3320000000.0 -0.05755349835075698 0.22568794950696866
3340000000.0 -0.15890834744207796 -0.13705659193578984
3360000000.0 0.004224833575534639 0.18548086098290065
3380000000.0 0.15281779638073884 -0.05653708142057153
3400000000.0 -0.14256653095814062 0.034163721522399236
3420000000.0 0.08482581684481318 -0.09328087923692036
3440000000.0 0.042654235093693205 -0.10788147582481532
3460000000.0 0.10358972615258401 0.0015804773180450858
3480000000.0 0.025497165743372373 -0.08749558791599034
3500000000.0 -0.07306885423360754 0.04729394194775615
3520000000.0 -0.07811632721927975 0.008717726669580636
3540000000.0 -0.05540002203340846 -0.05079855154905377
3560000000.0 0.05123622859546852 0.05815437999208298
3580000000.0 0.019469762320371183 -0.08281508088216456
3600000000.0 -0.06999328029297029 0.06146523488849799
3620000000.0 -0.08781315220247814 0.052506682115902766
3640000000.0 -0.08862693058261627 -0.06547225084175758
3660000000.0 0.026290323081145702 -0.11514292996482293
3680000000.0 -0.11210390107571136 -0.027392816646445182
3700000000.0 0.08595923183344782 -0.05671028295403178
3720000000.0 0.09105178439346358 0.02659628059319425
3740000000.0 0.014429008977199611 -0.07793828599662524
3760000000.0 -0.031170595031685542 0.06974532431289802
3780000000.0 -0.04343217531803653 -0.05433690115629996
3800000000.0 0.0429746112806389 0.024366160630872612
3820000000.0 0.004686148415917707 -0.036431335800198264
3840000000.0 0.042327081220181126 0.01954610649430478
3860000000.0 0.0744400136102362 0.013723300045053123
3880000000.0 0.06506392626579066 -0.0697802642473654
3900000000.0 0.03598779846080383 -0.09752898489595371
3920000000.0 0.09405968511839785 0.05014089401397729
3940000000.0 0.0833843319199648 -0.05647771680194143
3960000000.0 0.0928380902155409 -0.04045364270028882
3980000000.0 0.037771473602894665 0.09126032407417463
4000000000.0 -0.06919286141816897 -0.047578127679524615
