!Created with skrf (http://scikit-rf.org).
# Hz S RI R 50.0 
!freq ReS11 ImS11
400000000.0 -0.8144341262331717 -0.12277173147279882
420000000.0 -0.6375511135595503 0.4278620814791398
440000000.0 -0.1474933541764855 -0.7376727790964007
460000000.0 0.15747045961851472 -0.6988930830743427
480000000.0 0.20707905134848226 0.605794684598982
500000000.0 -0.19248504749000167 -0.45002430080865885
520000000.0 0.3907585848495808 -0.11423886466929312
540000000.0 0.13811832881046476 0.4842813667073688
560000000.0 0.5081899437300221 -0.01180367072376166
580000000.0 0.25774434146672 -0.3526255216554421
600000000.0 0.39491104052558124 0.16461297707209552
620000000.0 0.3830356893350872 0.05593740545684127
640000000.0 -0.3379860097592066 -0.07711578388446005
660000000.0 0.1323301873157089 0.3395985342801838
680000000.0 0.18495100478791246 0.31219583058448863
700000000.0 0.24529775673774007 0.2668345665109073
720000000.0 -0.08172096633408635 -0.3111770196066858
740000000.0 0.024005938104431513 0.32584974845070125
760000000.0 -0.3005064965521323 -0.1039369468221039
780000000.0 -0.016883231532744455 0.30097653816306663
800000000.0 0.23346919610850128 -0.09854843732330101
820000000.0 0.06794249187684996 -0.1931704048682145
840000000.0 -0.12398196142243605 -0.14155131902493193
860000000.0 0.15043766199732259 0.09237041421010637
880000000.0 -0.02314553708099225 0.1669128114615246
900000000.0 -0.12524299267582062 0.0826404803080329
920000000.0 0.029500662075181334 -0.14230832415705455
940000000.0 -0.03335344618300075 -0.1131778989461309
960000000.0 0.09275599595930364 0.009932883925776344
980000000.0 -0.07062911359985576 -0.0009669463762250254
1000000000.0 -0.024884523644567315 0.0457037541639479
1020000000.0 -0.02164723686780151 0.047740682496602044
1040000000.0 -0.08786702672868357 -0.0017905453168991015
1060000000.0 -0.09174900825998619 -0.060240738740064255
1080000000.0 0.06856324930865025 0.15253680823536517
1100000000.0 0.07616249517818463 0.17787720020559164
1120000000.0 -0.17908362278844447 0.1460434155807008
1140000000.0 0.03721336613189595 0.2522810704024212
1160000000.0 -0.1420214154931306 -0.23548296146917294
1180000000.0 -0.27462426402897233 0.10793015557553925
1200000000.0 -0.30000643612933525 -0.10626336436748508
1220000000.0 0.2611451869933229 -0.21807487280640783
1240000000.0 -0.18186537005746634 -0.3041100393436352
1260000000.0 -0.24212173106714913 0.25319953641781595
1280000000.0 -0.3441511168563472 0.010260489746526229
1300000000.0 0.1511792015200597 -0.31544253877145295
1320000000.0 0.2070939647564203 -0.30074001361947594
1340000000.0 -0.16977383831554724 0.33061715141971576
1360000000.0 -0.36487728324116153 -0.06329887069925563
1380000000.0 0.34102512213322306 0.1385531309134836
1400000000.0 0.024490449321201313 -0.3700166558944236
1420000000.0 -0.3366044931187593 -0.16751154899042886
1440000000.0 0.0362687806806158 0.37030687872837786
1460000000.0 0.22847208088883145 -0.2873525346866791
1480000000.0 -0.2786165264849069 -0.2198930088120565
1500000000.0 0.03275993817762939 0.32826065450617314
1520000000.0 0.06147765884807901 -0.30773766182922596
1540000000.0 -0.1795623340321548 0.21198864592758265
1560000000.0 0.1360628076907208 -0.2055396669713119
1580000000.0 -0.20151299506472484 0.03612977479017069
1600000000.0 -0.11992756415945449 -0.13381965910781166
1620000000.0 -0.01583753381777518 0.14215810388003874
1640000000.0 -0.11868890574924974 0.009771266713920186
1660000000.0 -0.07514402422028633 -0.07471777450283171
1680000000.0 0.09384849241752248 -0.027680561225405294
1700000000.0 0.07318724842810079 -0.03573633881557247
1720000000.0 -0.04143302437848661 -0.043395446133294636
1740000000.0 -0.00020875067748843623 0.04114664151956375
1760000000.0 -0.0028744019533405766 0.05788682023636593
1780000000.0 -0.09427444668241383 -0.011463215115528164
1800000000.0 0.08932362034110378 0.07720915705140516
1820000000.0 0.05935746213822544 -0.14453498208118878
1840000000.0 0.027609532594825157 0.18968370806356624
1860000000.0 -0.21402184406869948 -0.0537299168811556
1880000000.0 0.23137284994425447 0.09201224722059885
1900000000.0 0.04860197244223771 -0.2626718235901426
1920000000.0 -0.2774590979356359 0.07112832559731447
1940000000.0 0.29510422033254696 -0.03798843578030268
1960000000.0 -0.26278222879796265 0.15831600533850596
1980000000.0 -0.196827257282758 -0.2431800256184708
2000000000.0 0.18971753506904676 -0.24861997410205072
2020000000.0 0.29851745379957106 -0.08306978990132126
2040000000.0 0.14995628203742237 0.2707976796873617
2060000000.0 -0.06506787731132303 0.3045108708915523
2080000000.0 -0.2956295227483521 -0.09355049761890474
2100000000.0 0.23516567596636756 0.20508825078352536
2120000000.0 -0.27213298570202127 0.1604641900259184
2140000000.0 -0.23166246879320654 -0.2077974453497444
2160000000.0 0.039513630524412785 0.29865766424103257
2180000000.0 0.28347710435828505 -0.057599534042056616
2200000000.0 0.2289229362704356 0.15620248692217906
2220000000.0 0.005841142703776851 0.27100090309138297
2240000000.0 -0.2567253092754675 -0.07966114475643203
2260000000.0 -0.21439260151519182 -0.15336063098396388
2280000000.0 0.22422599275738755 -0.11699198135630359
2300000000.0 0.15593256101516542 0.18481112788347623
2320000000.0 0.05938353045094271 -0.22387056420542858
2340000000.0 0.16186498878596509 0.16587731362031471
2360000000.0 -0.21796927577197533 -0.06897518114780353
2380000000.0 0.195400392231633 -0.12685658692299964
2400000000.0 0.002250703836952787 0.24716753737890257
2420000000.0 -0.07212637254608487 0.25567882220455884
2440000000.0 0.1445841684523207 0.26201068831775276
2460000000.0 -0.3365648411702325 0.016369055946877695
2480000000.0 0.3109715315413264 0.20183023737949374
2500000000.0 -0.26669676068917136 0.30147316246234507
2520000000.0 -0.044306329621093446 -0.4407752200603822
2540000000.0 0.4733930789005799 0.05745056509007663
2560000000.0 -0.41284963904442246 0.3037587528207242
2580000000.0 0.09634181722927009 -0.5351991297791837
2600000000.0 0.13607743259009353 0.5562627989024581
2620000000.0 -0.39958931063060954 -0.4446158691361368
2640000000.0 0.5954691637376823 0.16411203016929787
2660000000.0 -0.5066093549500259 0.38325737192517606
2680000000.0 -0.2476214539574902 -0.5990468158261375
2700000000.0 0.416458072667243 -0.510958274821712
2720000000.0 0.6359003841151165 -0.19340387073602663
2740000000.0 0.6687967253095404 0.03399453775752456
2760000000.0 0.6727913991128405 0.018993895994982538
2780000000.0 -0.20135942162264991 0.6383727949995449
2800000000.0 -0.36415536610590354 0.5525355994838629
2820000000.0 -0.6145869067103342 0.21793178408449837
2840000000.0 -0.3360006133849848 -0.5455426454741286
2860000000.0 0.623246592127599 0.08158769678266062
2880000000.0 -0.6086298492584965 -0.07244712536641243
2900000000.0 0.38587799219709207 0.4536482272651786
2920000000.0 0.2714507797325954 -0.5064184335298287
2940000000.0 -0.4314600006314979 -0.3434227783909796
2960000000.0 -0.50125132132857 0.1668727880996464
2980000000.0 -0.11560282537719646 0.49300198791238237
3000000000.0 0.48543691493803803 -0.014717467164858639
3020000000.0 -0.33513030440868835 -0.3149422622332601
3040000000.0 0.1505278502796049 0.4068628620557863
3060000000.0 -0.022564851581109952 -0.40422113973049023
3080000000.0 -0.2296077263963546 0.3031950683002648
3100000000.0 0.1981296790456931 -0.3002756993002494
3120000000.0 -0.22038588925229216 -0.2678535756088263
3140000000.0 -0.03778849043063252 0.33713887392415753
3160000000.0 0.18356917437094755 -0.2825784918344655
3180000000.0 -0.11091181137441583 0.318224587372088
3200000000.0 0.051826296025360756 -0.32345348673841867
3220000000.0 -0.22160195664721302 -0.22237869279230732
3240000000.0 -0.2947041161320176 -0.06872698567020823
3260000000.0 -0.2831330851930445 -0.0576906512973558
3280000000.0 -0.10152134435648694 -0.2518420782214903
3300000000.0 0.11733233333058833 -0.2225063560675901
3320000000.0 -0.02650731936367436 0.22890197521077926
3340000000.0 -0.1522834309707822 -0.14404937398831805
3360000000.0 0.13317750390172192 0.1287450624559187
3380000000.0 -0.06824925174840994 -0.14671029620944567
3400000000.0 -0.0811588652619508 0.1140656785967456
3420000000.0 0.023327362753108642 0.12139046181632816
3440000000.0 0.11919225960439551 -0.00022035446640553913
3460000000.0 -0.035536398391295895 -0.10113700571406797
3480000000.0 -0.09079509855309645 -0.018779202125339605
3500000000.0 0.012210556385589828 0.08593005944438922
3520000000.0 -0.07631366896658254 0.015511673540164559
3540000000.0 0.015365582072542667 -0.07304690718236932
3560000000.0 -0.04815548303460592 0.06318177625270166
3580000000.0 0.08062989490218264 -0.032826134758256416
3600000000.0 -0.036462986482157206 0.08817845712715729
3620000000.0 0.09964166273017783 -0.02916151993045001
3640000000.0 -0.08613352677913033 0.061299309291006424
3660000000.0 0.061208549646064925 -0.0964738897658485
3680000000.0 0.06194803499559849 -0.09496601663841678
3700000000.0 0.10010008581264417 0.020643485170571088
3720000000.0 -0.07307124677487142 0.06121452108844297
3740000000.0 -0.06990247308894015 -0.04993918592111072
3760000000.0 -0.07593171135110684 0.01571501942737628
3780000000.0 0.06768050404270637 -0.002590461867781327
3800000000.0 0.04428512398047558 -0.008061796492760773
3820000000.0 -0.025912874244418592 0.02523973844408326
3840000000.0 0.04028123885153869 -0.02822537372441198
3860000000.0 0.017284087157323387 -0.07318182279118914
3880000000.0 -0.06047198258814586 -0.07577191784207854
3900000000.0 -0.10204813447984172 0.01528166039509439
3920000000.0 0.011165455360211692 -0.10222183435073105
3940000000.0 0.06830339936554833 -0.07552072730787392
3960000000.0 0.07341148233615022 -0.06679796201494388
3980000000.0 -0.09021965065942943 0.03278946668313018
4000000000.0 0.08507667403241459 0.004382852891038656
