!Created with skrf (http://scikit-rf.org).
# Hz S RI R 50.0 
!freq ReS11 ImS11
400000000.0 -0.8101099712693374 -0.16545803837314335
420000000.0 -0.5927732016352326 0.48089018536405514
440000000.0 0.27967134744411243 -0.6972186212561127
460000000.0 0.5482765629751053 -0.4790288115175428
480000000.0 0.5045935552818864 0.4037067726686908
500000000.0 -0.22582265169538837 -0.43916020017058194
520000000.0 -0.005465981146689271 -0.3906987373139668
540000000.0 0.3841500191886767 0.3079594630312693
560000000.0 0.47080438097123734 -0.14081030932145683
580000000.0 -0.3005559699590141 0.2992260546515804
600000000.0 -0.43688845242955726 -0.04267683809746133
620000000.0 -0.036416050855297304 0.3825659953164038
640000000.0 -0.06154742320825891 -0.3480638954659558
660000000.0 -0.02268090255166726 0.38942299955818616
680000000.0 -0.3559377457197581 -0.12002873376594303
700000000.0 -0.19739483200473873 0.2971581456316162
720000000.0 -0.3125518645337036 0.15035607531383574
740000000.0 -0.07479717948534975 0.31806671092682626
760000000.0 0.21278802003386113 0.2054958069866596
780000000.0 0.26150121164942314 0.08850020496518322
800000000.0 0.1021002514125037 -0.21257320266497745
820000000.0 0.0036668983984231808 0.21105985133609598
840000000.0 -0.009349061531743379 0.19135187957918406
860000000.0 0.13719521313044034 0.12023717158941741
880000000.0 -0.1656087094281504 -0.05490137474284919
900000000.0 -0.13500805611466904 0.07950272775968724
920000000.0 0.15079099292193177 -0.02916442031728579
940000000.0 0.024433715855313638 0.13551194796805446
960000000.0 -0.029771583758501634 0.09316519285613084
980000000.0 0.02024400017073424 -0.0536788336035739
1000000000.0 0.017435415208744195 -0.03805794465206812
1020000000.0 -0.03295578352000141 -0.03123291098157008
1040000000.0 -0.029062562007698595 -0.05867987578323215
1060000000.0 0.0779824935386699 0.05748431973752669
1080000000.0 0.059059991666830104 -0.1358978758682278
1100000000.0 0.12810294861262836 -0.1360211888853504
1120000000.0 0.2115099416144983 0.08537572342337073
1140000000.0 0.2615086831427212 0.06456521017735696
1160000000.0 -0.1303966474897389 -0.2677455704601012
1180000000.0 0.22793107951805838 0.21294618021809805
1200000000.0 0.30942379830219596 0.10649163881701387
1220000000.0 0.08636797360713884 0.3183030729956703
1240000000.0 -0.16954828249718742 0.2840004920516478
1260000000.0 -0.29042292276205856 -0.1558024168271629
1280000000.0 0.2562038926879958 -0.2234893826155932
1300000000.0 0.29987555757136797 0.1873495615001286
1320000000.0 0.352014213237298 -0.12263202675019723
1340000000.0 -0.2315669007058083 0.2953618458277723
1360000000.0 -0.3339788950704946 -0.17086508576128848
1380000000.0 0.3143806606319352 0.20316309493770068
1400000000.0 0.0630673226871853 -0.37202693523492414
1420000000.0 -0.2943108368738841 0.24308810041944665
1440000000.0 0.3667495738185002 0.038321218847083956
1460000000.0 -0.12234816144098 -0.33795642737568854
1480000000.0 -0.05300473092222519 -0.3442719472444642
1500000000.0 -0.3054149744616899 0.12390931948665188
1520000000.0 0.250720553037633 -0.19620635167237285
1540000000.0 0.03740862984547002 0.27973297370820976
1560000000.0 -0.10255487767508742 -0.2159840719085356
1580000000.0 -0.19597237241641924 0.023870281481053725
1600000000.0 0.06654624839783008 0.16410761904503526
1620000000.0 0.008796000423795634 -0.15164621788878035
1640000000.0 -0.12012398986279944 -0.049032015623126486
1660000000.0 0.06288025220910387 -0.09755529256031838
1680000000.0 0.06119132897884218 -0.07319876024148646
1700000000.0 -0.06871422587448929 -0.03054774219678558
1720000000.0 0.05535198782596177 -0.011242290794222112
1740000000.0 0.009855661966309794 -0.03738884430674298
1760000000.0 -0.03869309306505791 -0.042434590759762046
1780000000.0 0.059518498057084514 0.07753107605957
1800000000.0 0.1150984109239797 0.06440511680653946
1820000000.0 0.08623789918595617 0.1287915953843502
1840000000.0 0.14340278958395022 0.12255877288748493
1860000000.0 -0.19234173535738733 0.09861080056282813
1880000000.0 -0.005240073871679046 0.2409144449800707
1900000000.0 0.22511660179647675 0.15151780801915382
1920000000.0 -0.20786577807256099 0.2099189425347921
1940000000.0 0.06183963650795428 -0.2932743971716441
1960000000.0 0.14615350754248257 0.26385431884633265
1980000000.0 -0.2993219715317151 -0.050357362586590695
2000000000.0 0.3006079756565329 -0.0008063290347089258
2020000000.0 -0.22575846688749793 0.2079218752486862
2040000000.0 -0.316956019690279 0.021427609400183702
2060000000.0 -0.28119453738999084 0.16041152286189367
2080000000.0 -0.26936772342735144 0.18128956618838502
2100000000.0 -0.0365989620476619 -0.31704454362675744
2120000000.0 0.24991253875069827 0.18497237102647815
2140000000.0 -0.28908624241368647 0.07310763093224407
2160000000.0 -0.2771883509192073 0.08513527924708457
2180000000.0 -0.05118536928805485 0.284691147314084
2200000000.0 0.1254612220484006 0.2530936913874189
2220000000.0 0.08745062296612147 0.25987631558319185
2240000000.0 -0.26586708225512806 -0.026468901401302647
2260000000.0 -0.20699103710894087 -0.16312166724296295
2280000000.0 0.24404509461631357 -0.07508567053437587
2300000000.0 0.1780012673093553 0.16819101954577875
2320000000.0 -0.21711914968160148 -0.08769450221860717
2340000000.0 0.17961216718741838 -0.13764065038402767
2360000000.0 -0.09749802141540619 -0.1997864183164504
2380000000.0 0.1336667069483796 0.1906527521084587
2400000000.0 -0.19075838678388307 0.16115531594527627
2420000000.0 -0.09102970138027826 0.25902921535002854
2440000000.0 0.2876716212776819 -0.10041040963100319
2460000000.0 -0.12719771126332058 0.3094066197719235
2480000000.0 0.2851277925684515 0.22702455084699552
2500000000.0 -0.3673799202574898 0.15590868051760662
2520000000.0 0.07675978693510845 -0.43336427194402316
2540000000.0 0.42779741804064225 0.21354899123409501
2560000000.0 -0.47669466223417944 0.1922523247117096
2580000000.0 0.14852496753419836 -0.5249970302131973
2600000000.0 0.15154833705355814 0.5544939273643439
2620000000.0 -0.4353981566274213 -0.41154202274879903
2640000000.0 0.6147934305933247 0.06358120228527973
2660000000.0 -0.4657183567661743 0.4308903246401793
2680000000.0 -0.2726888674753651 -0.5868317885693953
2700000000.0 0.4581733118974749 -0.4731164381225296
2720000000.0 0.665296936109602 -0.015901835945658103
2740000000.0 0.6665283999236856 0.06568899707166861
2760000000.0 0.6720182098640979 0.04331264476785313
2780000000.0 -0.25242388188724246 0.6199888305729048
2800000000.0 -0.40106348563859195 0.5262868864376579
2820000000.0 -0.6266329044974459 0.1798351760115627
2840000000.0 -0.22838882951339748 -0.5981709914403659
2860000000.0 0.5890417590398851 0.2163905674046726
2880000000.0 -0.5819142320906233 -0.19369462645179006
2900000000.0 0.34126289496889334 0.490275373117463
2920000000.0 0.3094890889910682 -0.48726096823602366
2940000000.0 -0.46258768594010313 -0.30462251195828977
2960000000.0 -0.4598522031155652 0.26153583738625136
2980000000.0 0.01571448058842953 0.5057652412336784
3000000000.0 0.48047072726707835 -0.0740283591997529
3020000000.0 -0.29022626332015333 -0.3568183603876089
3040000000.0 0.022183721973056614 0.43325162048193006
3060000000.0 0.06337774287065889 -0.4000707420590082
3080000000.0 -0.2817382382623086 0.2540188791180667
3100000000.0 0.3433849591161339 -0.10531198828944902
3120000000.0 -0.0499721624118211 -0.346393184494315
3140000000.0 0.03557717807510508 0.33969890076260834
3160000000.0 0.006717611677062616 -0.3368876944543376
3180000000.0 -0.09928069394888817 0.31778962701486196
3200000000.0 0.2344944463317376 -0.23043731537827852
3220000000.0 -0.21328896731309355 -0.2376827159083516
3240000000.0 -0.15841337605681763 0.26076179603222865
3260000000.0 -0.2414551005333504 0.15113229509764436
3280000000.0 -0.06562693430100042 -0.2610893396972812
3300000000.0 0.21655437008827946 -0.12475861034665414
3320000000.0 -0.18745772733472713 0.13815051234640255
3340000000.0 -0.19974854208757795 -0.07709209200355341
3360000000.0 0.16071634814992458 0.09136423103065745
3380000000.0 0.06809294305055413 -0.1465424952564444
3400000000.0 -0.11326641341753421 -0.08663199557911004
3420000000.0 0.12478008339325249 0.03329104660862902
3440000000.0 -0.05668487817217965 -0.10617969951720471
3460000000.0 0.01102781148765946 -0.10112222629128513
3480000000.0 -0.0830181071404015 -0.03489060950769719
3500000000.0 -0.06440602720903878 -0.05300415377791139
3520000000.0 0.04536177509440378 -0.06349746822168177
3540000000.0 0.05401256286520923 -0.056512786116200586
3560000000.0 0.07109417125024217 -0.03643048346743143
3580000000.0 -0.08451822866543701 0.003327427012499219
3600000000.0 -0.07039190650275692 0.05978251993855368
3620000000.0 -0.06357130378620737 0.07957988602173939
3640000000.0 -0.03648950483084995 -0.1053528828414214
3660000000.0 -0.0315187459423324 -0.11441821026414911
3680000000.0 -0.11008807625370663 -0.03631138626887187
3700000000.0 0.041453262501391135 -0.0949251981801398
3720000000.0 0.09016669180911162 0.036040249203224
3740000000.0 -0.08108107427192011 0.002234780967072127
3760000000.0 0.07485446608281823 -0.0034748744016723757
3780000000.0 0.031790296533973375 -0.06248041615147295
3800000000.0 -0.051483579240482365 -0.0041332772834076405
3820000000.0 -0.03807669524547365 -0.0003017689217630696
3840000000.0 0.0367281662531896 -0.027720292222519937
3860000000.0 0.014065410576752247 0.07201143116545033
3880000000.0 0.09476807481281568 0.022318522102492765
3900000000.0 0.04780103153140616 -0.09552066910788999
3920000000.0 0.05211374163057581 -0.09501673252420716
3940000000.0 -0.0007962219498119398 -0.10236684630581033
3960000000.0 0.018466358811903876 -0.09812455176519409
3980000000.0 -0.08310023574369378 0.049688246683423996
4000000000.0 0.05514913614875114 -0.06458364367439348
