!Created with skrf (http://scikit-rf.org).
# Hz S RI R 50.0 
!freq ReS11 ImS11
400000000.0 -0.8208939078578158 -0.02378473704084625
420000000.0 -0.7504613395186127 0.12388169292311335
440000000.0 0.150884424416356 -0.7456539225561315
460000000.0 0.6098836824605496 -0.3935782378924414
480000000.0 0.4792660674196439 0.4384830701240389
500000000.0 -0.37808622004719217 -0.3187317374074078
520000000.0 -0.08729789114903852 -0.39137344912497923
540000000.0 0.4867092290767244 0.091391586046172
560000000.0 0.4363894443254508 0.21117997606814973
580000000.0 -0.40649117054822426 -0.10778713878924419
600000000.0 -0.4046713506558066 -0.1710857669988263
620000000.0 -0.27772771421686776 0.27485827055465717
640000000.0 -0.12127999643685833 -0.33620565163216193
660000000.0 0.3100008982728103 0.2302233773482286
680000000.0 0.11095038135588155 -0.35027885751866195
700000000.0 -0.3021082692424421 0.1988527501680226
720000000.0 -0.3447373775052374 0.04430442706009785
740000000.0 0.06906703413251758 0.32754763302017664
760000000.0 0.27229260078175704 0.11010484052007853
780000000.0 0.15236355654513917 -0.23075281827756158
800000000.0 0.19278860014162028 -0.1207406357777169
820000000.0 -0.12056622004533697 0.17205756304194117
840000000.0 -0.1718066372397272 0.09276883958093764
860000000.0 0.1829678698948123 0.013187804337686482
880000000.0 -0.08882530823222586 -0.1497268102220175
900000000.0 -0.15095461795546236 0.04739835208711102
920000000.0 -0.14295713273215535 0.05713373622436835
940000000.0 0.020915849278152984 0.12623829751286042
960000000.0 -0.08606122423768367 0.044353226824904536
980000000.0 0.0034102998247494375 0.0627993951389006
1000000000.0 -0.03751403198687935 -0.007577944069614069
1020000000.0 0.037129752054644596 -0.015201780827561637
1040000000.0 0.002224208045888857 -0.05919741127272399
1060000000.0 -0.0951592438894566 -0.029957829804803077
1080000000.0 0.14815609607555277 0.03988300531276643
1100000000.0 -0.1692195602060218 0.08873009122886943
1120000000.0 0.19758415489160105 0.1097851059298983
1140000000.0 0.26626973216529953 -0.01734909194611281
1160000000.0 -0.02082349735220614 -0.29697624676303436
1180000000.0 0.3094381621704421 0.04324210630412721
1200000000.0 0.32055565439316924 0.0211319833861881
1220000000.0 -0.3202150298397169 0.06000447390684421
1240000000.0 -0.29388264613133136 0.16352965097796288
1260000000.0 -0.32622293296709753 -0.07497912546808541
1280000000.0 0.054949419783882986 -0.3346433414270324
1300000000.0 0.29314931919687254 0.19789666996276162
1320000000.0 0.18258637307895867 -0.3227203320903895
1340000000.0 -0.2918051827934689 0.2283802171887826
1360000000.0 -0.22756107711944273 -0.2957745479145282
1380000000.0 0.07097498423953981 0.369218974618678
1400000000.0 0.05803527961007535 -0.37778975896247324
1420000000.0 -0.15266974011217704 0.3495018752337693
1440000000.0 0.3553877675375551 -0.09313429208794675
1460000000.0 0.11207038943395102 -0.3394749958640878
1480000000.0 -0.06854012079486488 -0.3415111709901991
1500000000.0 -0.32534271952988975 0.08339365494695732
1520000000.0 0.13785419462106754 -0.2856027947715262
1540000000.0 0.1486032717512868 0.23757863252806022
1560000000.0 -0.10312810268386034 -0.2173442109160387
1580000000.0 -0.15675293479516808 0.11480017556014141
1600000000.0 0.026401281431224815 0.17445501710685993
1620000000.0 0.08118082737691082 -0.12416342147971873
1640000000.0 -0.050605335694629223 -0.11989491012901754
1660000000.0 0.08755876335034796 0.08044926666867537
1680000000.0 0.10212018890297242 0.005375297090637081
1700000000.0 -0.0563750511754153 -0.05012381292216992
1720000000.0 0.04857056162462402 0.012574496377175289
1740000000.0 -0.03598644107466092 -0.007340881359218061
1760000000.0 -0.030666740233149147 -0.05017572771522382
1780000000.0 0.001502552751815806 0.0979801331151463
1800000000.0 0.1037953821633146 -0.07869941289403468
1820000000.0 0.15413392401100423 -0.014379852144060354
1840000000.0 0.09099285563560265 0.1600158189149003
1860000000.0 -0.17911802248007355 -0.11767434888859857
1880000000.0 -0.06271747278613872 0.23703617436880975
1900000000.0 0.27501228204823863 0.012749003189945228
1920000000.0 -0.08057510382546047 0.28463771363164553
1940000000.0 -0.12789107940538075 -0.2691088441618206
1960000000.0 0.007563115859402056 0.30157497331184435
1980000000.0 -0.3000659748867493 -0.04412751525391252
2000000000.0 0.29306377287406254 0.06453575204298308
2020000000.0 -0.23747065107542012 0.195729308367211
2040000000.0 -0.31841734030017177 0.01654016405435359
2060000000.0 -0.2624917292628077 0.18488834644261506
2080000000.0 -0.2890226047374411 0.14632192447182457
2100000000.0 -0.08590441438022174 -0.3081385887549705
2120000000.0 0.2975438300763588 0.0877773184218383
2140000000.0 -0.2945517557869879 0.05588017604593614
2160000000.0 -0.23728730284474228 0.1712511564047317
2180000000.0 -0.02084465704867628 0.29102684059461176
2200000000.0 0.2546183748220923 0.1250813523104957
2220000000.0 0.06160347735909458 0.2645097333682593
2240000000.0 -0.2689656810788289 -0.004632689498588426
2260000000.0 -0.15944868779534493 -0.2076481085421409
2280000000.0 0.23360273213577987 0.0989836149431018
2300000000.0 0.14132349716661494 0.20213238003674508
2320000000.0 -0.19784734974374432 -0.1279512754735554
2340000000.0 0.12673671091311445 -0.1878497709302948
2360000000.0 -0.15182118838350855 -0.15966218247346223
2380000000.0 0.12982344231682333 0.19107168674922811
2400000000.0 -0.24610032291056153 0.03281470548356906
2420000000.0 -0.08907250012255079 0.26182870412279613
2440000000.0 0.21436211375790826 -0.21572522316276393
2460000000.0 -0.05186184250331102 0.32761864622982007
2480000000.0 0.30568892110527013 0.19317398500946562
2500000000.0 -0.3987125078915739 0.02793813254828398
2520000000.0 0.08311367421005095 -0.4319103140868441
2540000000.0 0.32688955753253157 0.3485605197383755
2560000000.0 -0.483708767198178 0.18219506335480412
2580000000.0 0.06596948903434595 -0.5426294882850097
2600000000.0 0.22919654041772666 0.5259559362067657
2620000000.0 -0.44520694519281173 -0.3980944060781994
2640000000.0 0.6016922962775711 0.13533785467502568
2660000000.0 -0.4974697609158899 0.3954152590921668
2680000000.0 -0.26201049705625673 -0.5925447993954195
2700000000.0 0.4447982120187287 -0.4847464287337739
2720000000.0 0.6582030053214154 -0.09340150205247229
2740000000.0 0.6617499026516805 0.10394988480294289
2760000000.0 0.6714261956328657 0.0407735329753577
2780000000.0 -0.1933016397057646 0.6416284035766383
2800000000.0 -0.3809776955114273 0.5411675874608571
2820000000.0 -0.6082051492572056 0.23608963036150057
2840000000.0 -0.33378208069323106 -0.5465167560137256
2860000000.0 0.5805335946867277 0.23789639928216225
2880000000.0 -0.6005027049560719 -0.12584258133748374
2900000000.0 0.3859588260378484 0.4567273081272042
2920000000.0 0.20663775809644447 -0.5385505266690561
2940000000.0 -0.5060713992061224 -0.2200422602088378
2960000000.0 -0.4611082948034452 0.25924956599366866
2980000000.0 -0.12396894672020214 0.49113022408905166
3000000000.0 0.48733429288729374 0.01777549474628145
3020000000.0 -0.3932192514335187 -0.24197597154606498
3040000000.0 0.15749815414639937 0.4025222506621631
3060000000.0 -0.03382672920664055 -0.4026312232777596
3080000000.0 -0.21110410060363835 0.31350045300572155
3100000000.0 0.31957679291722785 -0.1625159425745168
3120000000.0 0.05661180028902768 -0.3429864350744645
3140000000.0 -0.14135187614822875 0.30978836228989454
3160000000.0 0.10139506238694138 -0.32293888737419635
3180000000.0 -0.06808122432857308 0.327828304935425
3200000000.0 0.12473948736644724 -0.30480866409748264
3220000000.0 -0.28875866180289406 -0.13852540103528857
3240000000.0 -0.24646443160863393 0.17775521582774664
3260000000.0 -0.2873033389501801 0.034929211488697764
3280000000.0 -0.2233409517033235 -0.1566019277692197
3300000000.0 0.10481996989161584 -0.22622027379866455
3320000000.0 -0.1262572393583631 0.18945109873689117
3340000000.0 0.010422512042457043 -0.20757479669865478
3360000000.0 -0.06578488533574643 0.17495570172623373
3380000000.0 0.10939525221452776 -0.12132959281743429
3400000000.0 -0.13734497134026313 -0.044632391853673944
3420000000.0 -0.00722007344699918 -0.12931379362990128
3440000000.0 -0.11023799477855753 0.03606384428346423
3460000000.0 -0.009208066317637684 -0.10158002544036282
3480000000.0 -0.020034582281515067 -0.08859323622919557
3500000000.0 -0.08445902521264766 -0.024175582460954585
3520000000.0 -0.06622230892265497 0.043405594664975684
3540000000.0 -0.06272594044374213 0.039483039729324924
3560000000.0 -0.0568045870373237 0.05161854523644882
3580000000.0 0.06557637099463869 0.05267510156058301
3600000000.0 -0.04935963919629518 -0.07964505766660267
3620000000.0 -0.056432882156021366 -0.08749974886056201
3640000000.0 0.013597407240124414 -0.11077270285413066
3660000000.0 -0.11767264678607618 -0.012264750383232598
3680000000.0 -0.11353050097908676 -0.0080558880210812
3700000000.0 -0.08704824343393737 -0.05122236646570496
3720000000.0 0.020715843510177488 0.08973154750198113
3740000000.0 0.07863968904345667 -0.013102314715617411
3760000000.0 -0.035100017982633645 0.06944917915800172
3780000000.0 -0.04294322163818945 0.05567838350960689
3800000000.0 0.04812218464628315 0.003667603369382193
3820000000.0 0.025625775450285118 0.02285607105484042
3840000000.0 -0.025578958768756155 -0.041410663866095584
3860000000.0 0.03413081716135567 -0.06504205754596804
3880000000.0 0.055005297581437074 -0.07647684692707339
3900000000.0 0.03529324246609686 -0.09635850643963614
3920000000.0 0.04256994817990364 0.09788906412622908
3940000000.0 0.08346321887745967 -0.06019415348311369
3960000000.0 -0.0735750925388589 -0.07073955996767883
3980000000.0 0.09733718622979154 0.011402481170902106
4000000000.0 -0.025958867769364413 -0.07763624473020209
