!Created with skrf (http://scikit-rf.org).
# Hz S RI R 50.0 
!freq ReS11 ImS11
400000000.0 -0.15873142047305244 -0.8109135758036777
420000000.0 -0.5738441338181448 0.5112060419217592
440000000.0 -0.5081100191259137 -0.5502268321973008
460000000.0 0.579077527956514 -0.44804673633983144
480000000.0 0.4200917135158831 0.4899615121808691
500000000.0 0.4791437700677093 -0.06978899808600808
520000000.0 -0.05522714641485591 -0.41275173763686346
540000000.0 0.11423187275449484 0.4787305450676756
560000000.0 0.2280494689295892 0.4448297376451208
580000000.0 0.41111735568142954 0.187126611224758
600000000.0 0.42823579638717424 -0.07334236869218098
620000000.0 0.29288927707869217 0.2535960074026428
640000000.0 0.018417824136424128 0.3547607674957009
660000000.0 0.18327734969881196 -0.3164636456464127
680000000.0 -0.22194862557522735 -0.25376743539981705
700000000.0 -0.2798861780603971 -0.20794974474948785
720000000.0 -0.11966986886279858 -0.30404371841115946
740000000.0 0.3293183844817408 -0.010863585917266376
760000000.0 -0.1321756561200027 0.2773784515723264
780000000.0 -0.11284367201088158 0.25908710331208545
800000000.0 0.16274250716257077 -0.17657206166087674
820000000.0 -0.18487581600309896 0.10874982635327853
840000000.0 -0.12627082905830128 0.1632382145716873
860000000.0 0.1964540768382179 -0.03544006610023637
880000000.0 -0.187779068110212 -0.010636900106383549
900000000.0 0.02941603124029682 0.1540576745863905
920000000.0 0.03425073101144904 -0.134651565129761
940000000.0 0.10610946056535747 -0.04155645177318782
960000000.0 0.08618907950440363 -0.012375952977356958
980000000.0 -0.007119877349466306 -0.04100709057748087
1000000000.0 0.003423300371352459 -0.02172334240984985
1020000000.0 -0.002702327354336081 -0.027248134633068813
1040000000.0 -0.009662067335140917 -0.059425505068111666
1060000000.0 -0.07655618411909448 0.0712794266242036
1080000000.0 -0.14628599241680773 0.018727569407588882
1100000000.0 0.10275971345012741 0.15323913212910262
1120000000.0 0.23764308909686196 -0.022924048175493403
1140000000.0 0.07389427938771538 -0.254458714088434
1160000000.0 0.03473915144453619 -0.2853875373088097
1180000000.0 0.14655043553812455 0.2730998983410262
1200000000.0 0.1751484412740091 0.27523428829932856
1220000000.0 -0.3064182115754947 -0.1234932871184785
1240000000.0 -0.2925094623943196 0.19062067250883596
1260000000.0 -0.2108149867001026 0.2735422693988802
1280000000.0 -0.2895224317089858 0.17467416197412133
1300000000.0 -0.08075812907010356 -0.3328500680428863
1320000000.0 0.3378917703634058 0.10836732734010508
1340000000.0 -0.263510537350188 -0.2541997164880974
1360000000.0 0.19616187868676538 -0.3200679822241708
1380000000.0 0.039038294064927134 0.3811980345139956
1400000000.0 -0.2520742141309085 -0.2930497045677248
1420000000.0 -0.13842123331531084 0.3555128219289895
1440000000.0 0.3620385822254666 -0.07270377529013947
1460000000.0 -0.2878561824597584 -0.22261715334261928
1480000000.0 -0.1664892713380894 -0.3002403444350903
1500000000.0 -0.13448470233627433 0.2965683907730387
1520000000.0 0.3078402198050107 -0.032837356037658694
1540000000.0 -0.272584305832047 -0.059922802247495806
1560000000.0 0.24124785750249259 0.040121220629951666
1580000000.0 -0.19349979392817057 -0.07668168823429387
1600000000.0 0.12489292087000396 -0.13357589291901953
1620000000.0 -0.13632505343181847 -0.060615297229016186
1640000000.0 0.048207022055730034 0.11834107056863964
1660000000.0 0.0022117584354968208 -0.11176277995805918
1680000000.0 0.07348556850915998 0.06155288494564222
1700000000.0 0.06969278889656721 -0.020090487603229963
1720000000.0 -0.02144538938057072 -0.0405121606422294
1740000000.0 -0.039563433856305556 -0.01657000773380819
1760000000.0 -0.03331090936427323 -0.05569927035577411
1780000000.0 0.03117827815537674 0.09412296552529155
1800000000.0 -0.08401708623054346 -0.08941806703893862
1820000000.0 0.14940706008691013 0.03852963228269382
1840000000.0 0.14193721996353678 0.1171890527250923
1860000000.0 -0.16095152959717607 -0.14210658122372344
1880000000.0 0.08890846992482299 0.22758204514161648
1900000000.0 0.24752308843692267 -0.10289147429608506
1920000000.0 -0.28722651039732244 0.039964590067293276
1940000000.0 0.2767396398089029 -0.10786726877512834
1960000000.0 -0.2422531538392586 0.1874816790010414
1980000000.0 -0.10881307512940563 -0.29042599760719556
2000000000.0 0.2524335738442792 -0.18611973401316564
2020000000.0 0.289209589038913 0.12132116614191125
2040000000.0 0.20405288152932136 0.24178629401281887
2060000000.0 0.2516216592031021 0.192819202754723
2080000000.0 -0.07545181301153411 0.3008942613682394
2100000000.0 0.16499920686326774 -0.2558882924064341
2120000000.0 -0.276190953033165 0.12739085018250182
2140000000.0 0.1827369592084751 -0.24161494223144128
2160000000.0 -0.2999784281836345 -0.033076286401022705
2180000000.0 0.2411877087537807 0.1707307929898947
2200000000.0 0.2179026830549264 0.1816806297733139
2220000000.0 0.10560140198065354 0.25747924245764087
2240000000.0 -0.088247928400959 0.25633522555872584
2260000000.0 -0.2507904173494003 0.06951316017570902
2280000000.0 0.17763753587511322 -0.17444238531957507
2300000000.0 0.011118148500814391 0.23858516590390033
2320000000.0 -0.0489243458265886 -0.22667288135001692
2340000000.0 0.1668328813849096 0.15521238739001644
2360000000.0 -0.05546780402969117 -0.2196568194006877
2380000000.0 0.20326414891648403 0.117440373116608
2400000000.0 0.009564538103166842 0.2507144608606408
2420000000.0 0.10763735477793532 0.24940529366080078
2440000000.0 0.2962038214705192 0.04652213344724848
2460000000.0 -0.3140987836767484 0.11047311690038489
2480000000.0 0.2866779594821019 0.22927592456815463
2500000000.0 -0.35236670605114634 0.1915487851177448
2520000000.0 0.05021594507865176 -0.4361874596472344
2540000000.0 0.384130945453005 0.2814912789104831
2560000000.0 -0.47314622655153804 0.19744859085035668
2580000000.0 0.17610576711106596 -0.5149890529027047
2600000000.0 0.08036171488636945 0.5683429810352899
2620000000.0 -0.3870948047951959 -0.45735040711749586
2640000000.0 0.6023522986202763 0.13835411165462416
2660000000.0 -0.4649274510473528 0.4331110348473206
2680000000.0 -0.2155889994975492 -0.6106081560190882
2700000000.0 0.4822541839210527 -0.4486574967623186
2720000000.0 0.6618246817939817 -0.06752382376832115
2740000000.0 0.6477500035157977 0.17103920467149797
2760000000.0 0.6464000654368959 0.187467725476267
2780000000.0 -0.2788057968556848 0.6089037347145924
2800000000.0 -0.4399761394630768 0.49476957174977765
2820000000.0 -0.6379165082246923 0.13799626423451777
2840000000.0 -0.22880306217866875 -0.5990695876085443
2860000000.0 0.5822876418146534 0.23498854340197364
2880000000.0 -0.6006972829075181 -0.12340024630308052
2900000000.0 0.3369148342501097 0.4927641301886529
2920000000.0 0.3199116202917602 -0.4808284446658321
2940000000.0 -0.4216703762431339 -0.36048910408217055
2960000000.0 -0.45991114232705244 0.26891819397766675
2980000000.0 0.12159428366112603 0.4947130878602911
3000000000.0 0.45059409925479077 -0.17607112401244834
3020000000.0 -0.29702289841933466 -0.34887869696339935
3040000000.0 -0.09402004256239509 0.4227786959408834
3060000000.0 0.25786709745654907 -0.31333127633247054
3080000000.0 -0.34620101402782905 0.1615413929380434
3100000000.0 0.29066551833076587 -0.21584814239907196
3120000000.0 -0.11821561237463428 -0.3275543623116961
3140000000.0 0.025624361853333836 0.33955133906512736
3160000000.0 0.013690871306843577 -0.3367618476324655
3180000000.0 -0.06504709068837897 0.3276062743855715
3200000000.0 0.10652231702960621 -0.3113217780666144
3220000000.0 -0.2837035381583859 -0.14212300529186198
3240000000.0 -0.24541038359937462 0.17943108165132943
3260000000.0 -0.2288198016301503 0.17513068191771128
3280000000.0 -0.09345428129651011 -0.25109233519658863
3300000000.0 0.2455369913094546 0.058810541404401874
3320000000.0 -0.2293203230693802 0.036724933205701464
3340000000.0 0.012178591795939239 -0.21691430948271975
3360000000.0 0.17878387091469075 0.06621783397598037
3380000000.0 -0.1440101623036694 0.07452267136105867
3400000000.0 0.03256703077477648 0.1340391662198399
3420000000.0 -0.0003130360431268459 0.1223841436145315
3440000000.0 0.10511747004510527 0.04751706761769426
3460000000.0 0.09918050356224836 0.03663492600249651
3480000000.0 0.06276038478271881 -0.07237864874178139
3500000000.0 -0.007146810232212803 0.08930895624629548
3520000000.0 -0.03673935038876036 0.07185295412749006
3540000000.0 -0.047681464094008585 -0.060573902418947355
3560000000.0 0.0718089797479233 0.0315348643315689
3580000000.0 -0.05102686702994978 0.06504321089393617
3600000000.0 -0.09034362313014521 0.012282117826237527
3620000000.0 -0.10113443578730207 0.014468171647423905
3640000000.0 -0.10121146125630355 -0.04376705968878315
3660000000.0 0.04353435143253541 -0.1080501818038659
3680000000.0 -0.06319749572652766 -0.09488584542419258
3700000000.0 0.001341862110596839 -0.102963362456075
3720000000.0 -0.09136217841921704 0.03043473618245047
3740000000.0 -0.030108605256085743 -0.0784057431530635
3760000000.0 -0.05915529619525719 -0.05347060124975469
3780000000.0 0.02333874737402487 0.06235684755735954
3800000000.0 -0.041657631356563044 -0.019104074706757092
3820000000.0 -0.031285357543982435 0.023723180348391628
3840000000.0 0.00620276555192882 -0.04826192201440431
3860000000.0 -0.004700339214037167 -0.07397294433087798
3880000000.0 0.026586602233320187 -0.09154860510929992
3900000000.0 0.0747742048677164 -0.07113682657462277
3920000000.0 0.0783072109552278 0.0744127163545028
3940000000.0 0.012310132229659371 -0.10212768055494874
3960000000.0 -0.028123735610828034 -0.09531812111603455
3980000000.0 -0.08849388989415959 0.03322202116567397
4000000000.0 0.01141325570082146 0.08175931721855102
