!Created with skrf (http://scikit-rf.org).
# Hz S RI R 50.0 
!freq ReS11 ImS11
400000000.0 -0.8214473231318267 -0.09322270980098926
420000000.0 -0.6221482002344693 0.4417001829206986
440000000.0 0.23683321954137845 -0.712387487452648
460000000.0 0.5051098702084602 -0.5258825048847332
480000000.0 0.5132856804846342 0.3969399816821287
500000000.0 -0.35307803911594554 -0.3383006390550752
520000000.0 0.325225198661908 -0.21223480188994484
540000000.0 0.28226377494932403 0.4077646399168763
560000000.0 0.47249614284791563 -0.13343909315228628
580000000.0 -0.4161612355932396 0.1082677780665346
600000000.0 -0.3199041685248755 0.2934807142220314
620000000.0 0.10708026768222528 0.36740010401724804
640000000.0 -0.13897506577684413 -0.3236494823143804
660000000.0 -0.2173686144147051 0.31814846487590165
680000000.0 0.08214734527022324 -0.3692687886420686
700000000.0 0.03898666274249966 0.35977920363042315
720000000.0 -0.2099088444348312 0.2742883598446146
740000000.0 -0.2335072892742441 0.2253266331175816
760000000.0 0.19440478983756523 0.22280795289554073
780000000.0 0.17246100684396587 0.21115748862027348
800000000.0 0.1340911266960764 -0.1970889212853049
820000000.0 -0.07770180732309628 0.19585890652238988
840000000.0 -0.022910565177557827 0.1920268135452936
860000000.0 0.09451808636644471 -0.15280521027361066
880000000.0 -0.07567001601471787 -0.15726777679614135
900000000.0 -0.026338003109210244 0.15053556089045123
920000000.0 0.13198441211319215 0.0693553630921307
940000000.0 -0.1310211467352759 -0.040430809989279386
960000000.0 0.03498093518156049 0.09591033561608985
980000000.0 0.0564785786920124 0.030772940972038688
1000000000.0 0.00038318047342620286 0.04658493779681983
1020000000.0 -0.05070591047304277 -0.000983761828091623
1040000000.0 -0.06260768043884928 -0.035721107234418153
1060000000.0 -0.0359491110434521 -0.08387087458627461
1080000000.0 0.09320340634267373 -0.10757541393230557
1100000000.0 0.1856488946640566 0.0020919232049611985
1120000000.0 0.06002713645318935 0.2219507071710266
1140000000.0 0.2505131037994345 0.1137528333743974
1160000000.0 -0.27936481829482707 -0.0996772592955502
1180000000.0 0.2662499116947095 0.1616977524530788
1200000000.0 0.3220818663901268 -0.038703048634388226
1220000000.0 -0.0826326655103072 0.31639166970414623
1240000000.0 -0.2290608316389416 0.24103318623556763
1260000000.0 -0.29705742799126833 -0.13992090617329836
1280000000.0 0.2985349746936143 -0.1613578684781354
1300000000.0 0.24018804982958458 0.26287707106948865
1320000000.0 0.230929837436406 -0.29523833178783915
1340000000.0 -0.09848719504259561 0.3610296343815227
1360000000.0 -0.25849661772727023 -0.265414188913853
1380000000.0 0.18091016401484397 0.3284338431947118
1400000000.0 -0.06913817474243326 -0.3754810411114739
1420000000.0 -0.22037521890088305 0.3076736822404462
1440000000.0 0.300636603954601 0.20761411548935668
1460000000.0 0.17056092606409193 -0.3179301932464531
1480000000.0 -0.2174734915151317 -0.277473534174332
1500000000.0 0.040524084025529816 0.3265171543350216
1520000000.0 0.27846129784254586 -0.13825178662544124
1540000000.0 -0.10589489594403105 0.25889324450598794
1560000000.0 0.03176180458546162 -0.24034563860678335
1580000000.0 -0.1346037310832738 0.1447511567013208
1600000000.0 0.03749096520660552 0.1716895826694429
1620000000.0 0.04858664057763092 -0.1476688332196028
1640000000.0 -0.06952358800278313 0.11179644965597452
1660000000.0 -0.08745451482227302 -0.07186724230061602
1680000000.0 0.09067919192924054 0.00853800283564152
1700000000.0 0.04194100766618343 0.06219621862948234
1720000000.0 -0.040301971496637175 -0.04795961006180297
1740000000.0 -0.024102866888706435 0.03021685024887643
1760000000.0 -0.0359606342862746 -0.03924652107782769
1780000000.0 -0.06966468017248006 -0.06869167279360923
1800000000.0 0.11904511288701196 0.06413863970850076
1820000000.0 0.15462828016065874 0.0010120443371071425
1840000000.0 0.11646910879663455 0.14812347477321255
1860000000.0 -0.21455650699673862 -0.0243138346002477
1880000000.0 0.05413513786899272 0.23648039274901306
1900000000.0 0.27061202624460645 -0.0019579621711956715
1920000000.0 -0.22945985298671337 0.18147555543375676
1940000000.0 0.1265741346705034 -0.2701887160215747
1960000000.0 -0.022862802863023324 0.3022193484164199
1980000000.0 -0.30484604276397215 -0.001207860755748764
2000000000.0 0.28236845665440563 -0.10623532412956636
2020000000.0 -0.14794079551272635 0.26810147736951495
2040000000.0 -0.31751768746039255 0.006627120281827797
2060000000.0 -0.30703597223102097 0.0956299739370142
2080000000.0 -0.27698796288276006 0.16666966065524652
2100000000.0 0.06800320216574626 -0.31164910743085295
2120000000.0 0.24247685257868543 0.19634195329749674
2140000000.0 -0.2948677450546566 0.05811657311267241
2160000000.0 -0.25144705704430653 0.14847455383045058
2180000000.0 0.04407446104246064 0.28524230531054673
2200000000.0 0.1907473668074613 0.20566322942082282
2220000000.0 0.012447850045190625 0.27151726323935393
2240000000.0 -0.22986888523098278 -0.13857623110200357
2260000000.0 -0.16378556856675 -0.20986438718149358
2280000000.0 0.20863434054407257 -0.1498121034646933
2300000000.0 0.24284015126778433 -0.02582593385751484
2320000000.0 -0.20257362318939454 -0.11400123463481354
2340000000.0 0.20224866102488978 -0.09829518517627857
2360000000.0 -0.0005846553004185793 -0.22307869306597736
2380000000.0 0.08357954234607883 0.21948632161293358
2400000000.0 -0.06095782714186978 0.243314974361738
2420000000.0 -0.016135595033112026 0.2729810657495016
2440000000.0 0.3001185253204518 -0.039859902716465695
2460000000.0 -0.1974100582122559 0.270359369274884
2480000000.0 0.28896500919231805 0.22161500054604927
2500000000.0 -0.369229149682764 0.15503251735219617
2520000000.0 0.0690791713750503 -0.4346767207337605
2540000000.0 0.37001689903666607 0.3007644733384827
2560000000.0 -0.4733273335244367 0.20181970387255857
2580000000.0 0.13608033508604733 -0.5279766818984597
2600000000.0 0.12306194693468826 0.5613267140984739
2620000000.0 -0.4354527355474245 -0.4105113715737781
2640000000.0 0.6094773466274248 0.09992145011680625
2660000000.0 -0.4863542358231305 0.40921820366243594
2680000000.0 -0.24397590622850276 -0.5999193906100931
2700000000.0 0.39532448826777467 -0.5268374533626833
2720000000.0 0.65287630641043 -0.12700827984255503
2740000000.0 0.6661031289566228 0.070525190775
2760000000.0 0.6629487357048163 0.11710235606212444
2780000000.0 -0.28657387248853955 0.6053473144315972
2800000000.0 -0.43318526657170825 0.500187010054812
2820000000.0 -0.6285496148613976 0.17330678395007626
2840000000.0 -0.26876580733499084 -0.5810948080258489
2860000000.0 0.6054430353865469 0.1640643541916397
2880000000.0 -0.5943603777201035 -0.14965957945707606
2900000000.0 0.3589280464385963 0.4770696156170217
2920000000.0 0.2941336800235927 -0.4962089538910218
2940000000.0 -0.4487000282706169 -0.3252384636394587
2960000000.0 -0.442214994331007 0.29325298227621455
2980000000.0 0.10672976930151071 0.4962984706072528
3000000000.0 0.4755321246893394 -0.08883277869677324
3020000000.0 -0.281564604466484 -0.36261375970731363
3040000000.0 0.01197998759138815 0.433953853424099
3060000000.0 0.07474521351344815 -0.3978018370771799
3080000000.0 -0.3174511889917879 0.2073177744098846
3100000000.0 0.33437228846689393 -0.13359880801284085
3120000000.0 -0.12368813510048163 -0.32618037630342017
3140000000.0 0.011338773645969804 0.3411254239009656
3160000000.0 -0.04214472256220611 -0.3338005729072187
3180000000.0 -0.12627688738125195 0.3078216131091249
3200000000.0 0.2322793858455132 -0.23189233591229638
3220000000.0 -0.2332002109241329 -0.21707541403024122
3240000000.0 -0.20233660311478474 0.23066225935118903
3260000000.0 -0.15948633995413558 0.2390305630798284
3280000000.0 -0.14558452989258916 -0.2242980112033004
3300000000.0 0.21894486701591762 -0.11938978620815996
3320000000.0 -0.21605069254862752 0.08604758605130892
3340000000.0 -0.14081204825425236 -0.16114449924942068
3360000000.0 0.18594825418398797 0.01907882666646371
3380000000.0 -0.0035092473296167723 -0.16235143211774655
3400000000.0 -0.14029560748709063 0.02233913957481347
3420000000.0 0.12095352773528208 0.038867829589325845
3440000000.0 0.11213676022155046 -0.037820823154406796
3460000000.0 0.07645465631855441 -0.07306886114726849
3480000000.0 -0.08862693806811882 0.024467820211032908
3500000000.0 -0.004615492993388918 0.08448019764319475
3520000000.0 -0.0459415248534423 -0.059144259878261794
3540000000.0 0.067216914603222 -0.03345912422645604
3560000000.0 0.024240945972270122 0.07702665159898225
3580000000.0 -0.07562960901376604 -0.042325616080127325
3600000000.0 -0.024909512053414472 0.08946914021892385
3620000000.0 -0.010828926001444306 0.10016092966973988
3640000000.0 -0.01040882362032709 -0.11092969329047546
3660000000.0 -0.06249255439100852 -0.10168933112485307
3680000000.0 -0.11469160007991668 -0.011501488466810974
3700000000.0 0.04198699478149775 -0.09378624062465717
3720000000.0 0.052744169561277816 0.0799442781829146
3740000000.0 -0.061752487986599595 -0.054023620533996924
3760000000.0 0.0703941170645475 -0.03039231450993834
3780000000.0 -0.06421442903362708 0.024390381244399708
3800000000.0 -0.041923702045746546 -0.026978128282615456
3820000000.0 0.03829709105611487 -0.00126475149498758
3840000000.0 -0.02763747187747498 -0.03789214051536218
3860000000.0 0.07356743771820824 0.00788452541691301
3880000000.0 0.056052992487118244 -0.078616229544717
3900000000.0 0.043326317464414614 -0.09599937778212375
3920000000.0 0.10151320091108534 0.03781068089349815
3940000000.0 -0.06242654031990202 -0.08392339221485524
3960000000.0 0.025350367228779758 -0.09900606061492875
3980000000.0 0.03965742403313932 0.08801840268315476
4000000000.0 0.03264438470298919 -0.07639281341557431
