!Created with skrf (http://scikit-rf.org).
# Hz S RI R 50.0 
!freq ReS11 ImS11
400000000.0 -0.81187836259368 -0.1474775772290145
420000000.0 -0.6350757734803164 0.42256988189039824
440000000.0 0.011780700304807254 -0.752878394505635
460000000.0 0.38062001145991575 -0.6296657375174088
480000000.0 0.5544585166283488 0.3326716215768402
500000000.0 -0.44570710546498216 -0.1816506223829318
520000000.0 0.390380313955241 -0.07456554298290559
540000000.0 0.26182135945332946 0.42821801013771416
560000000.0 0.4367109293765932 -0.22233885280861138
580000000.0 -0.16061868828451967 0.3947366870751032
600000000.0 -0.43378922144516896 -0.05661077070846133
620000000.0 -0.2540820316019854 0.28902510306183177
640000000.0 -0.3420696226942382 -0.07124287782033245
660000000.0 -0.23534028732806225 0.3099215666185528
680000000.0 -0.015747262629054206 -0.3710647388944737
700000000.0 -0.2220700415825793 0.2888640642813011
720000000.0 0.06957113046969868 0.34369639312066835
740000000.0 -0.1898311033747413 0.2633953987972115
760000000.0 0.2897405930509221 0.07200994395949363
780000000.0 0.23286672442621584 0.15220873468671794
800000000.0 0.17908326105631964 -0.14459900696183695
820000000.0 0.12893194757971455 0.1719319103056591
840000000.0 -0.11817062228100672 0.15864272325223405
860000000.0 -0.06185766341798412 -0.16934803638911647
880000000.0 0.17411608234488024 0.026801970203007695
900000000.0 -0.03914221409269186 0.15191189200647992
920000000.0 0.040211706719386446 -0.14015699151886893
940000000.0 -0.1310955137793561 0.02786328756502089
960000000.0 -0.09535422813086873 -0.041466462497382596
980000000.0 0.019049427252926333 -0.05904936762465631
1000000000.0 -0.0409066981597836 -0.018123722330786893
1020000000.0 0.035520609671259674 -0.035725138137188
1040000000.0 0.01894389913946263 0.06209789654300417
1060000000.0 -0.06843808126416073 0.0580568095534502
1080000000.0 0.1317718473423172 0.06905312777748532
1100000000.0 -0.015259897905473403 -0.18493168047206962
1120000000.0 0.14894862304229234 0.1755276986485963
1140000000.0 0.18293490932010456 -0.20276922601770142
1160000000.0 -0.200415218685879 -0.21006535110411348
1180000000.0 0.06065694942547554 0.3072439454454515
1200000000.0 0.29929571812117295 0.12934920843353434
1220000000.0 -0.10901892336080296 0.3121919852820181
1240000000.0 0.023846133249784608 0.3325495828878039
1260000000.0 -0.32908819625328556 0.030743762640017294
1280000000.0 0.20475042376817673 -0.26086617435577947
1300000000.0 -0.017231284702873925 0.353655095713574
1320000000.0 0.3490679858257387 -0.14117820353023172
1340000000.0 -0.14048631602010708 0.34753629302294875
1360000000.0 -0.3728733165253181 -0.03681136002639124
1380000000.0 0.3645282013200546 0.08980453872390164
1400000000.0 0.0011192971956648368 -0.37230902306261765
1420000000.0 -0.37666230828735175 -0.043341235892614065
1440000000.0 0.27079814135293495 0.2542414793984364
1460000000.0 -0.10141745430543331 -0.3496448433281327
1480000000.0 -0.2047319794449172 -0.2863841816386362
1500000000.0 -0.05117112543215045 0.32256356435788286
1520000000.0 0.2841156435625132 -0.12409288272272766
1540000000.0 -0.24093048114623075 0.14055301279533572
1560000000.0 0.09980803319240387 -0.22642002459058316
1580000000.0 0.039480486999063556 0.1967865233072514
1600000000.0 0.1704615622834607 -0.036419849734189554
1620000000.0 0.1297986709810587 -0.07176705728405967
1640000000.0 -0.12248220452635525 -0.04599130293730591
1660000000.0 0.08173499041197323 -0.08442646895529708
1680000000.0 0.08556584542807977 -0.04310966912983869
1700000000.0 -0.06149533380485476 -0.03859275969459033
1720000000.0 -0.05847557438936117 -0.008034651836074
1740000000.0 -0.015161898476471555 0.037527758897079155
1760000000.0 0.02600950249787117 -0.04790549824031651
1780000000.0 0.06971131552390236 0.06558951299585775
1800000000.0 0.08975979569995945 0.09375502673482868
1820000000.0 -0.0204418718888622 0.15416210669514926
1840000000.0 0.11041023020150909 0.1560212587690188
1860000000.0 -0.15868364141332764 0.15072745337939747
1880000000.0 0.23807202205931693 0.029205392140277543
1900000000.0 0.23386179295089374 0.1274127792118734
1920000000.0 -0.29105889948389513 0.006175846439521242
1940000000.0 0.21795646258464765 -0.20893425260844797
1960000000.0 0.093089356556461 0.2928071146487439
1980000000.0 -0.198381358174227 0.2335402065630609
2000000000.0 0.14259371461774348 -0.26168092698266615
2020000000.0 -0.2894182225227743 0.08197648755075743
2040000000.0 -0.21228959078105708 -0.23627314529656182
2060000000.0 -0.3242196696938994 0.048184290682668565
2080000000.0 -0.13210194373670048 0.29825587298252343
2100000000.0 -0.14970752668396506 -0.27837722141498333
2120000000.0 0.2630075438961467 0.15968507330359288
2140000000.0 -0.2634656047575798 -0.14399575165986664
2160000000.0 -0.24781808877884756 0.1639719935551737
2180000000.0 0.15043562303779218 0.24995081212911072
2200000000.0 0.2636505346843853 0.09467188193004089
2220000000.0 -0.028240444404107893 0.270255088708856
2240000000.0 -0.23729280323105573 -0.1203175232032899
2260000000.0 0.014745225591664744 -0.26418582880004926
2280000000.0 0.2584159288138794 -0.026597233813786644
2300000000.0 0.1647770298564861 -0.18495271592154675
2320000000.0 -0.19242479171392518 0.12257944965351711
2340000000.0 0.18396196262985795 0.1262360463368431
2360000000.0 0.0724204988356534 -0.21197589595651947
2380000000.0 0.11977363500516058 0.202079131404642
2400000000.0 -0.21960177170045575 0.1220793120704002
2420000000.0 0.07290689475288589 0.26486269042036453
2440000000.0 0.20856317551145487 -0.21484415769109155
2460000000.0 -0.2553112987210813 0.20989799356736885
2480000000.0 0.25075751214368447 0.2639001882594767
2500000000.0 -0.40105121896824736 0.0014330069352406945
2520000000.0 0.04753547877625094 -0.43814190915704326
2540000000.0 0.4126467607781602 0.2404569408892001
2560000000.0 -0.44504529904757384 0.25636924080907375
2580000000.0 0.1361789139744186 -0.5268988264279886
2600000000.0 0.1161044263693401 0.5624334785701516
2620000000.0 -0.44421375494542814 -0.4008151392262276
2640000000.0 0.6036726084416224 0.13249986347572312
2660000000.0 -0.47268612491558604 0.42461609833630515
2680000000.0 -0.3117890426692731 -0.5680269586290372
2700000000.0 0.4701929869913873 -0.46119589537261574
2720000000.0 0.6590536754175473 -0.08679635701667308
2740000000.0 0.6635754832666484 0.09113274159343017
2760000000.0 0.6690506807939696 0.07658268624586241
2780000000.0 -0.2878056516212659 0.6049015859999515
2800000000.0 -0.4018326405432748 0.5258781126517574
2820000000.0 -0.629952514367066 0.16982231195326236
2840000000.0 -0.2315887747240853 -0.5978421543181743
2860000000.0 0.584577550921324 0.2283661034559388
2880000000.0 -0.5962526600412177 -0.14713962930025487
2900000000.0 0.4070092728826383 0.4374201391352836
2920000000.0 0.23309339374610308 -0.5276132350441135
2940000000.0 -0.4325928529973677 -0.34699900262403677
2960000000.0 -0.44706358584804945 0.2858783993800165
2980000000.0 -0.05863637562640916 0.5039959550148553
3000000000.0 0.47737182433139247 -0.09752919465630011
3020000000.0 -0.37807100169269936 -0.26221281358442483
3040000000.0 0.13004737237500102 0.4122918333825062
3060000000.0 0.18885574310440156 -0.35586638717832214
3080000000.0 -0.3446584877158014 0.15900974285881445
3100000000.0 0.31578449094206135 -0.1770536294736989
3120000000.0 -0.14811419430826814 -0.316376243726185
3140000000.0 -0.10881264005752458 0.3227468193385311
3160000000.0 0.05715826743012954 -0.33272464954647585
3180000000.0 -0.041001528893575404 0.3330797813071071
3200000000.0 0.13922840231473502 -0.2956867090790915
3220000000.0 -0.284626100822557 -0.14408466555872473
3240000000.0 -0.21210815987161785 0.2187345388805115
3260000000.0 -0.2759384505785291 0.08001875084602363
3280000000.0 -0.1125237848543867 -0.24806306662778302
3300000000.0 0.18610363183781553 -0.16889505671845978
3320000000.0 -0.044607389096097426 0.22960184635671818
3340000000.0 -0.16587875928054446 -0.12762971114907523
3360000000.0 -0.006730424401137221 0.1856190380842247
3380000000.0 0.11855200098207792 -0.11126207482995457
3400000000.0 -0.14655167454052062 -0.008369768871481017
3420000000.0 0.08410085549593616 -0.09463464778334893
3440000000.0 0.0776923254407342 -0.08455531488600901
3460000000.0 0.09652343939545997 0.037914161510207975
3480000000.0 -0.04928414081071439 -0.07771773626710246
3500000000.0 -0.06296171187470558 0.05892263287944538
3520000000.0 -0.06787096985108554 -0.03651927513393452
3540000000.0 -0.02284406885242411 -0.07162524043020896
3560000000.0 0.07393464829806488 0.025077094008490418
3580000000.0 0.025456810578878893 -0.08062872215850762
3600000000.0 -0.08186858638139666 0.04483862531875343
3620000000.0 -0.10192523584375614 0.006356091242588507
3640000000.0 -0.10095772083366747 -0.045956333270661745
3660000000.0 0.011547218564008328 -0.1173730360338915
3680000000.0 -0.11209468092354072 -0.027168483017816537
3700000000.0 0.08210639553070416 -0.06261074334557153
3720000000.0 0.06553424378710186 0.06881465666000479
3740000000.0 0.019283398092215846 -0.07756534018977826
3760000000.0 -0.017277858696255595 0.07425913897423932
3780000000.0 -0.06129032991213561 -0.03219514656545466
3800000000.0 0.028836714853234188 0.03963736989428239
3820000000.0 -0.0053531286610810505 -0.03602434205616521
3840000000.0 0.038619156802177396 0.028687193312774556
3860000000.0 0.061826909752572844 0.04316600933181367
3880000000.0 0.029006462029451792 -0.09069616145280798
3900000000.0 0.056747412094880725 -0.08658313573325417
3920000000.0 0.07772035107756264 0.07367557200239654
3940000000.0 0.08637981795751193 -0.052940623417924264
3960000000.0 0.07373636927230887 -0.06832760992104074
3980000000.0 0.017685639909140793 0.09649096699780223
4000000000.0 0.008148588759087163 -0.08286919003914452
