!Created with skrf (http://scikit-rf.org).
# Hz S RI R 50.0 
!freq ReS11 ImS11
400000000.0 0.2139047145345185 -0.8253955635795789
420000000.0 0.49151300717842245 0.6133971147824528
440000000.0 0.7748397344124269 0.04072420543049652
460000000.0 0.29821942785768246 0.5753474497402631
480000000.0 -0.42989632061569666 0.47621966214463407
500000000.0 -0.4950594160820122 0.34622855465697605
520000000.0 0.6196997484015478 -0.07912228623247759
540000000.0 0.07608542625239179 -0.5798111969569093
560000000.0 0.41951480280837716 0.39441858288249826
580000000.0 0.5847818435041567 0.02279364326091679
600000000.0 0.6157041086008298 -0.04405282996314923
620000000.0 0.6119253564480353 -0.053096454377556945
640000000.0 0.5416321432773283 -0.19882339447442685
660000000.0 -0.41117255825563376 -0.3540453411327192
680000000.0 0.21249250139816903 -0.4688324421832998
700000000.0 0.2750059909361208 0.4322595478148465
720000000.0 0.4659240666981693 -0.24182404173763816
740000000.0 -0.05246806493922362 -0.4760084612090289
760000000.0 0.07690638852108621 0.4534843355024429
780000000.0 -0.1767239937126725 0.41018805646369055
800000000.0 0.11889124139627921 0.3868656657872542
820000000.0 0.2315259517318228 0.2770857401097252
840000000.0 0.18244004493237131 0.27664179155295815
860000000.0 -0.2980174020551411 -0.11207421185196603
880000000.0 -0.21008047706974792 -0.19344199554199729
900000000.0 0.02946799813154875 -0.27631129841371477
920000000.0 0.2060795458631564 0.16141711669657965
940000000.0 0.020987111566720878 0.21998932336835247
960000000.0 0.17904016828462968 0.01383643418032658
980000000.0 -0.14023401077769895 -0.05070234002320759
1000000000.0 0.07289267279202116 0.10555523924840395
1020000000.0 -0.10473861655208291 -0.041396806082265356
1040000000.0 0.0059873584360570125 -0.13724825778108032
1060000000.0 0.15569652313782936 0.04570994833707482
1080000000.0 -0.17575202348749777 -0.1062927995642147
1100000000.0 -0.23485217538141456 0.053180234819651576
1120000000.0 -0.25021742417485876 0.14428999468251222
1140000000.0 0.29741734439367706 -0.005240716813195476
1160000000.0 0.050890351606573354 0.3200510855177623
1180000000.0 0.2720529177002888 0.20744975868694276
1200000000.0 0.06440861015599496 0.33264532915960215
1220000000.0 0.1665648912074806 -0.3165408571115278
1240000000.0 0.08719585949872073 -0.36339138133006066
1260000000.0 -0.37463557483229976 -0.06647637727414851
1280000000.0 -0.14771521015538847 0.3373168671397978
1300000000.0 -0.16430682927018958 -0.3238027115975563
1320000000.0 -0.2657647766766065 -0.25097110692457514
1340000000.0 -0.30944659406584085 0.176644299142072
1360000000.0 -0.3100367286895513 0.20105043591712182
1380000000.0 -0.38033894275062113 -0.07402290682605608
1400000000.0 -0.13758804609161004 0.3514409311007066
1420000000.0 -0.12818057102613545 0.3636287620361589
1440000000.0 0.3373048540094337 0.19618091645764082
1460000000.0 0.312872007255575 0.2377725059632268
1480000000.0 0.37155852780166443 -0.16329250767567569
1500000000.0 -0.37649384815424974 0.14574157603457866
1520000000.0 0.22018276503458353 -0.324641223077161
1540000000.0 -0.04525312770832267 0.3673420485318499
1560000000.0 -0.33456404601487744 -0.001326959144503367
1580000000.0 0.2853040249492673 0.08583065002395333
1600000000.0 0.032497179173433303 0.2687036970459969
1620000000.0 0.03562179336025077 0.22715632380415995
1640000000.0 0.028188114290477632 0.1951508614216938
1660000000.0 0.1706456611450814 0.05241774363860529
1680000000.0 0.01363525139098306 -0.14372906778441177
1700000000.0 0.07881650671293898 -0.09308342875520395
1720000000.0 -0.04329922834544457 0.08030133091207378
1740000000.0 -0.00979824129565367 -0.07784663171669934
1760000000.0 -0.02176723431147101 0.07599150582065042
1780000000.0 -0.02268696527661332 0.09654996137265759
1800000000.0 -0.025237281066797592 0.1196214310295138
1820000000.0 -0.014814836358966639 0.15127859863817542
1840000000.0 0.009675444286283823 -0.1850699045299711
1860000000.0 0.21910386112024893 0.04693519760226485
1880000000.0 0.2209676290495176 -0.12723917526986261
1900000000.0 -0.1353933818924506 -0.24650809124795267
1920000000.0 0.29914243271764557 0.06742441556429847
1940000000.0 -0.31463555376855473 0.011241364037554765
1960000000.0 0.30631828523415333 0.07327410358849902
1980000000.0 -0.2818491466584853 0.16369061058370019
2000000000.0 -0.25021462505394276 -0.20998657173177412
2020000000.0 0.257276529226057 -0.19978832567902796
2040000000.0 0.2805967086388225 -0.17683019511051318
2060000000.0 0.25295191571418507 -0.2046312287654076
2080000000.0 0.26093965049284623 0.1903408472160501
2100000000.0 -0.2131645553003867 -0.23040893351736833
2120000000.0 0.13969940711836165 0.27345096247758993
2140000000.0 -0.00025353130118026794 -0.3084314620807039
2160000000.0 -0.16921950240469735 0.24897462233804635
2180000000.0 0.25171551094528455 0.1529967370973774
2200000000.0 0.28631494516497447 0.03397347743723645
2220000000.0 0.2094611625013233 -0.19080050965180825
2240000000.0 0.2657733963523516 0.053595080733354394
2260000000.0 -0.2243177851046785 0.12446879889877054
2280000000.0 -0.21315896089236533 -0.13717329064594969
2300000000.0 0.10683607043850807 -0.21378175631713198
2320000000.0 -0.1818428629021468 -0.14077372514081438
2340000000.0 0.17838551433115518 0.14193778580164232
2360000000.0 -0.015103703362989333 -0.23619285451812194
2380000000.0 0.24812052310454824 0.0022675427099315064
2400000000.0 0.25757103910987356 -0.0831208888500831
2420000000.0 -0.25606441642177585 -0.15166781562482212
2440000000.0 0.1595224857970775 0.272061704729368
2460000000.0 -0.2851715153793979 -0.19580459644438117
2480000000.0 -0.13729271905574142 0.3474673138001201
2500000000.0 -0.32631894124489885 -0.24551519645780115
2520000000.0 0.31520168184496783 -0.31079376673909287
2540000000.0 -0.11319264500797617 0.4588575053172827
2560000000.0 -0.23865216223709365 -0.44326751773920403
2580000000.0 0.31352677328462863 0.42551478989587366
2600000000.0 -0.2851917366540265 -0.4743413888939721
2620000000.0 0.2266676237241469 0.5284756237979017
2640000000.0 -0.17514835888938665 -0.5691811354880737
2660000000.0 0.32314651319115656 0.523090522532528
2680000000.0 -0.6252275244320573 -0.0784530868563264
2700000000.0 0.07615580966078596 -0.6388693773599566
2720000000.0 0.4912764149559198 -0.43296457263944654
2740000000.0 0.6290130494351849 -0.20921473957648123
2760000000.0 0.6624423867477338 -0.08567647574143308
2780000000.0 -0.06484640746849904 0.6636197792678616
2800000000.0 -0.1776775183561671 0.6355652191513316
2820000000.0 -0.5684192825800722 0.31537925198053207
2840000000.0 -0.43162156253862555 -0.47047321240764184
2860000000.0 0.6229763887475374 -0.0005530268131836571
2880000000.0 -0.6031791489588425 0.02628093570050402
2900000000.0 0.3900816603327867 0.4335805429217042
2920000000.0 0.2927575794463096 -0.4741283865600112
2940000000.0 -0.19278807503426926 -0.4914244281300995
2960000000.0 -0.34145142541495516 -0.36716491948214597
2980000000.0 -0.415690893724878 -0.223537653265575
3000000000.0 -0.30282073813949484 -0.33486076979214363
3020000000.0 -0.4106719764480585 -0.11647878781061148
3040000000.0 -0.34388705531774855 0.22500350303501296
3060000000.0 0.12957756285141497 0.37706234459260424
3080000000.0 0.31571549388342374 -0.2173049145916395
3100000000.0 -0.12093809767158069 0.35352948204960855
3120000000.0 0.14460211243289822 0.3332501786881331
3140000000.0 -0.29495802397912607 -0.2097131363448278
3160000000.0 0.33197413586490143 0.12007171340644765
3180000000.0 -0.09699894625165763 -0.34061638727406773
3200000000.0 -0.0050552568970111175 0.35154262821692456
3220000000.0 0.340419299596735 -0.0688284781085443
3240000000.0 0.07258784635847722 -0.3345303783406273
3260000000.0 -0.24677280468539117 -0.2287911656225429
3280000000.0 -0.2220535110126631 0.2364940682848274
3300000000.0 -0.08553178909874942 0.29328841085086005
3320000000.0 0.03996683014110117 0.2791450736673491
3340000000.0 0.1938009033299533 0.15871625083113797
3360000000.0 -0.0897648046345701 0.1995732358336834
3380000000.0 -0.003975496001205053 -0.1942833061345399
3400000000.0 0.06556399353538198 -0.15187099089623882
3420000000.0 0.13500921701781807 -0.02545386999395792
3440000000.0 -0.08064194072267418 -0.07856108555497644
3460000000.0 -0.08208827682547253 0.048976043688523985
3480000000.0 0.029733733278815146 -0.07934945742324612
3500000000.0 -0.07589512967639843 0.027340588051500598
3520000000.0 0.040015357199465015 0.07048715301272555
3540000000.0 -0.090137952880686 -0.018744187714764073
3560000000.0 0.09313801583962505 -0.03382579700763036
3580000000.0 0.06760658914202228 -0.08306572110967878
3600000000.0 0.0812022637781699 0.09151046249032406
3620000000.0 0.09400245492454275 -0.087214638675713
3640000000.0 0.09289683282069015 -0.11086361074785321
3660000000.0 -0.12090327504040534 -0.0921780621358302
3680000000.0 -0.15106372755479347 -0.038181150036484986
3700000000.0 0.01942892718112162 0.1452139600328743
3720000000.0 0.10580338431857174 0.07012271781568935
3740000000.0 0.02457599484239981 0.0984913126557669
3760000000.0 0.07778007728039352 0.003832486433206906
3780000000.0 0.047765127367169084 0.023763212179229883
3800000000.0 -0.01564856416179699 -0.017167578059485645
3820000000.0 -0.0049777667526628355 -0.014429230501975044
3840000000.0 0.028587577449924236 -0.046177969646085906
3860000000.0 -0.08244467457284443 0.012942866775480188
3880000000.0 0.1013569817820989 -0.030641403699131025
3900000000.0 -0.10685811505550781 0.07214164632834076
3920000000.0 0.07932481786435894 0.11543275322095053
3940000000.0 0.15411807104022598 -0.006463514915029391
3960000000.0 0.026869724814829948 0.1528851461172379
3980000000.0 -0.13804302592210024 -0.03754835725045724
4000000000.0 -0.05321443005376302 0.10309353930309004
