!Created with skrf (http://scikit-rf.org).
# Hz S RI R 50.0 
!freq ReS11 ImS11
400000000.0 0.23524949136857173 -0.8198180431752073
420000000.0 0.5030441844726374 0.6039500020444686
440000000.0 0.7753971862246621 -0.020287297035424777
460000000.0 0.2715726091604213 0.5885317236316493
480000000.0 -0.44032431006692696 0.4672172680317038
500000000.0 -0.48200409837763475 0.3628367802676174
520000000.0 0.6251878914838417 -0.00501648963670621
540000000.0 0.04154389094461389 -0.5825778753361898
560000000.0 0.4306735591617291 0.38278133251563756
580000000.0 0.58406844327036 0.040547631455021375
600000000.0 0.6152952317502707 -0.057246364059733705
620000000.0 0.6114545163368356 -0.056264895547722224
640000000.0 0.5325476321895714 -0.22072777649218142
660000000.0 -0.40542153588454 -0.3605517064010835
680000000.0 0.22789808921960328 -0.4612845486353769
700000000.0 0.2950228262421035 0.4192921547020193
720000000.0 0.48043538918723444 -0.210354074175755
740000000.0 -0.0427951563504692 -0.4764000670794617
760000000.0 0.12308088125238745 0.44294617124283475
780000000.0 -0.15633634705883426 0.4184920115210254
800000000.0 0.15710926763405955 0.37350291729906465
820000000.0 0.23236129121337804 0.276372589397185
840000000.0 0.20036267223312124 0.26355047555097727
860000000.0 -0.3068479036324186 -0.08562299039062818
880000000.0 -0.20262616211443749 -0.20090595494488947
900000000.0 -0.005342238380381341 -0.2783179870801205
920000000.0 0.19600768814079714 0.17450174698510965
940000000.0 0.06506329074619337 0.21096525622126513
960000000.0 0.17401237855189342 0.04411881923442678
980000000.0 -0.13761944795923456 -0.058322363446111185
1000000000.0 0.09776959522145183 0.08164961837250019
1020000000.0 -0.09787473201539408 -0.056377945484352286
1040000000.0 0.01582822984087694 -0.13749993007126546
1060000000.0 0.16066205404700332 0.018011650990368035
1080000000.0 -0.13288202740800809 -0.1562289234469223
1100000000.0 -0.24067302492461512 0.02540559075924537
1120000000.0 -0.1678112742625112 0.23541936834516194
1140000000.0 0.29178291260715783 0.056959568464286146
1160000000.0 -0.015376260175039378 0.32390493783393176
1180000000.0 0.298121135591282 0.16947509362260374
1200000000.0 0.04410265232453478 0.3358274370306066
1220000000.0 0.15714417844081255 -0.3212536004240961
1240000000.0 0.08214490032594157 -0.36439336786354104
1260000000.0 -0.3746800775197578 -0.06815884346037815
1280000000.0 -0.1292782929859195 0.3446256437307579
1300000000.0 -0.15398378978852956 -0.3282580224034617
1320000000.0 -0.2387854489715338 -0.27720753049207
1340000000.0 -0.307274658118842 0.17934693289263057
1360000000.0 -0.28309991042845817 0.23673193917846383
1380000000.0 -0.38078741653192577 -0.07394576439915354
1400000000.0 -0.15144415138727613 0.34491093992687216
1420000000.0 -0.12058291442858156 0.3664066386603145
1440000000.0 0.3179437751136641 0.22575613503328099
1460000000.0 0.34999095659605434 0.17977575478456242
1480000000.0 0.36302179079916896 -0.1776649071426607
1500000000.0 -0.39859547038085613 0.07087922591087524
1520000000.0 0.19053145663734372 -0.34222266496574316
1540000000.0 0.015560148786675238 0.3694222758371762
1560000000.0 -0.32758158179966984 -0.0665594287304929
1580000000.0 0.29185215035206047 0.06392688745037232
1600000000.0 0.09363535822868799 0.2536720368880815
1620000000.0 0.03772242077647309 0.2268924653711051
1640000000.0 0.038449567708415136 0.19394586617081375
1660000000.0 0.17437501433959388 0.03987928593022758
1680000000.0 0.007129184786378624 -0.1440254218927699
1700000000.0 0.07357723016085146 -0.09582268170937325
1720000000.0 -0.06266469838163063 0.06704091576373922
1740000000.0 -0.005112282171054025 -0.07844016703818377
1760000000.0 -0.007361340584164459 0.07795963834594816
1780000000.0 -0.04245916767631184 0.08992426476110355
1800000000.0 0.030341573087668418 0.11863964808658527
1820000000.0 -0.027115666869165108 0.14928132844261713
1840000000.0 -0.008255690898484417 -0.18552860972034632
1860000000.0 0.21455131007624545 0.06338624473684457
1880000000.0 0.21224836200370806 -0.14119979932774052
1900000000.0 -0.14808959466267727 -0.2389126912043552
1920000000.0 0.3054405393238977 0.029726006947479875
1940000000.0 -0.3149394951748745 -0.00012122792561243758
1960000000.0 0.30426082527315534 0.08053844755880878
1980000000.0 -0.2821646093563492 0.16284932253780562
2000000000.0 -0.2606990696366423 -0.19751262371311748
2020000000.0 0.2743331821471871 -0.17504244491562784
2040000000.0 0.2839004054568062 -0.17199646134347435
2060000000.0 0.26528788084175586 -0.18891346118469346
2080000000.0 0.261371300954957 0.18930446695838044
2100000000.0 -0.2040234275197304 -0.23838479555338413
2120000000.0 0.14539888553569832 0.27064359357729695
2140000000.0 0.010357490751208422 -0.3076865387166419
2160000000.0 -0.14326816895287647 0.2653222482187132
2180000000.0 0.25295584100710294 0.15059726538652407
2200000000.0 0.28913164224043403 -0.00173106476877712
2220000000.0 0.21728467211976174 -0.18130696938674387
2240000000.0 0.2631373714117644 0.06782085639558326
2260000000.0 -0.1841798925882038 0.17779777527792084
2280000000.0 -0.19828631131976007 -0.1580720974031939
2300000000.0 0.12515564413712477 -0.20335451700873822
2320000000.0 -0.17375027662231946 -0.15069650322019038
2340000000.0 0.21538030081885068 0.07427098178193905
2360000000.0 -0.008498975106743039 -0.2353694699637126
2380000000.0 0.24921563990680357 0.0013123906355145727
2400000000.0 0.23381774039015976 -0.13602016123009494
2420000000.0 -0.2685417851641035 -0.12574098107769466
2440000000.0 0.11585461575417769 0.29257369655071674
2460000000.0 -0.3020003498211118 -0.17104666754926215
2480000000.0 -0.03375641627385109 0.37195523783595486
2500000000.0 -0.27134894847399565 -0.3038917685956448
2520000000.0 0.333944199175323 -0.291478489874232
2540000000.0 -0.0759242737893067 0.4671142227577217
2560000000.0 -0.24451125968008686 -0.43937129654325147
2580000000.0 0.30396704995635954 0.43250704304576704
2600000000.0 -0.275146999199715 -0.4811497370033024
2620000000.0 0.21404943034345855 0.53342994935224
2640000000.0 -0.14042567113520193 -0.5787072176330965
2660000000.0 0.3401898931152596 0.512384505916285
2680000000.0 -0.6288271823633274 0.03058540713483442
2700000000.0 0.02982858812522332 -0.6425462854102039
2720000000.0 0.4957895024669647 -0.4280082077581593
2740000000.0 0.6355980516325234 -0.18892562624107279
2760000000.0 0.6655829934301242 -0.05355995783335418
2780000000.0 -0.03092442285046727 0.6661084958780726
2800000000.0 -0.1750370239038011 0.6366259137735186
2820000000.0 -0.5713782206602613 0.3096674215805902
2840000000.0 -0.43632516412541805 -0.46608004265971187
2860000000.0 0.6229631704457764 -0.0021374397877089602
2880000000.0 -0.6038100912433293 0.011981748280136309
2900000000.0 0.40510454808313406 0.41909544663851206
2920000000.0 0.31827572072814286 -0.4575339591484701
2940000000.0 -0.1673407053124697 -0.5007912559567045
2960000000.0 -0.3327687400697762 -0.37520817355160296
2980000000.0 -0.4137776835815703 -0.2264572564833634
3000000000.0 -0.3232715245366473 -0.3148420998420328
3020000000.0 -0.41771549802683017 -0.09013852756548986
3040000000.0 -0.3831034088088299 0.14879107296660957
3060000000.0 0.18384008907756635 0.3533625669382481
3080000000.0 0.33284231357222127 -0.19144399409561016
3100000000.0 -0.21004263882164126 0.3078358440631348
3120000000.0 0.19475580069011295 0.3074495669648272
3140000000.0 -0.2996374797306326 -0.20218684688351085
3160000000.0 0.3436579378167473 0.08166047481097193
3180000000.0 -0.0975556927177971 -0.34063054763191886
3200000000.0 -0.01758169191057176 0.3512265162349914
3220000000.0 0.34651011959945743 -0.03762082197650293
3240000000.0 0.03188106057007896 -0.33988012747747587
3260000000.0 -0.2434255837219795 -0.23259688293904401
3280000000.0 -0.24479211086569413 0.21482977884674
3300000000.0 -0.07284031619524614 0.29625404577053277
3320000000.0 0.07006425707067135 0.27242908666786225
3340000000.0 0.16115023728216232 0.19216189633013578
3360000000.0 -0.11592218497670656 0.18617476168173835
3380000000.0 -0.0670979975899153 -0.18175424332343992
3400000000.0 0.11080674677379757 -0.12232086916390092
3420000000.0 0.13687979156824762 -0.014748942674003174
3440000000.0 -0.07242592991429025 -0.0857773326433606
3460000000.0 -0.039178266554861195 0.08661366042031197
3480000000.0 0.04689717250035089 -0.06961115446105064
3500000000.0 -0.0693409574320546 0.0416108971231092
3520000000.0 0.04722944838421892 0.06662249287664215
3540000000.0 -0.09181268200568161 0.002277359608311203
3560000000.0 0.09866454687025596 -0.006316020693849691
3580000000.0 0.09468806773688714 -0.05164475725622064
3600000000.0 0.09671237006482661 0.07699358585326782
3620000000.0 0.10467712980290331 -0.07269558680245476
3640000000.0 0.13705473571062557 -0.046582326132705174
3660000000.0 -0.12152790954834579 -0.09118119480171433
3680000000.0 -0.15517141263359466 -0.009879011656756262
3700000000.0 0.008836191260193669 0.1455838676233948
3720000000.0 0.0568712193211997 0.11350645268072987
3740000000.0 0.04753931433074082 0.08973742875156528
3760000000.0 0.07723257059478775 0.003582802647955391
3780000000.0 0.05245651327008254 -0.01140933277440366
3800000000.0 -0.021042351625108015 -0.008295399027842197
3820000000.0 0.014419932282076536 -0.0033162814116948834
3840000000.0 0.04615336168367059 -0.02916414232671058
3860000000.0 -0.07677181879138084 0.033067155984427554
3880000000.0 0.10007780851304948 -0.03309680838213644
3900000000.0 -0.11127315036991674 0.0646820137144166
3920000000.0 0.04523147296676 0.13290973971469763
3940000000.0 0.12012791985109282 -0.09764063515544248
3960000000.0 0.057740546229117055 0.1436903788627853
3980000000.0 -0.10742387513584555 -0.09419941531286981
4000000000.0 -0.02466007888530273 0.11330092515211006
