!Created with skrf (http://scikit-rf.org).
# Hz S RI R 50.0 
!freq ReS11 ImS11
400000000.0 -0.42209292240975127 -0.7244539948577875
420000000.0 0.5944412540073744 0.509927969828187
440000000.0 -0.5788317132093256 0.4797029961424774
460000000.0 -0.6201365664911699 -0.34014446613962573
480000000.0 -0.5743050951473258 0.25854174068535213
500000000.0 0.5162250015833681 -0.07378439153319775
520000000.0 -0.2765924879410197 -0.3033005663756407
540000000.0 0.13844163235635554 0.42681683921902647
560000000.0 -0.13724876496435243 -0.4601790448199203
580000000.0 0.43843217906211357 0.04838486545254488
600000000.0 -0.0901107759696876 0.38640510594458427
620000000.0 0.22636655176973394 -0.28178191961563936
640000000.0 -0.25239511476551074 0.2617990397374106
660000000.0 -0.08459361554834964 -0.3274832112678542
680000000.0 0.2924488383345348 0.1653684852678377
700000000.0 0.3449637983639872 0.013161027032741891
720000000.0 0.3314188560955708 -0.11274408099231166
740000000.0 -0.278761457748891 -0.16815254955947798
760000000.0 0.2995561237840636 0.026291611058572688
780000000.0 0.05542440518460258 -0.27869227716844497
800000000.0 0.07410623470509137 0.24035657494618587
820000000.0 0.21327959054421539 0.039353966762499144
840000000.0 0.12805603247204136 0.15164325136215262
860000000.0 -0.1335452891497144 -0.1220269897491346
880000000.0 -0.04597824585482162 -0.17524678792412451
900000000.0 0.15407769783867897 0.039986955431630646
920000000.0 -0.12407213027980415 -0.06695674829061589
940000000.0 -0.08483582832695453 0.09787220994329292
960000000.0 0.10478317624764845 -0.0027218795027238877
980000000.0 -0.02402730672108644 -0.057692004587824745
1000000000.0 -0.002314479932078484 0.044636686530336034
1020000000.0 -0.010052433570716661 0.03440196591376311
1040000000.0 -0.059405736736994896 0.04483455257849607
1060000000.0 0.10503127478658088 -0.05490108759342095
1080000000.0 -0.14982664750872954 0.01610740534455381
1100000000.0 -0.1338549205589082 0.13404056430503172
1120000000.0 -0.10096829192652912 -0.19494013201193078
1140000000.0 0.24121616130999193 -0.11436795508084723
1160000000.0 0.2824133665696862 -0.049875678899276264
1180000000.0 0.14142486939708232 0.2872613689754757
1200000000.0 0.28536895415377855 0.17563957603828034
1220000000.0 -0.09383502991973819 0.3307337285294549
1240000000.0 0.0007554803465329549 0.33526815464537324
1260000000.0 -0.3361961580704135 -0.04323582673711508
1280000000.0 -0.1923592496353573 -0.2862039578334385
1300000000.0 0.1934095622489317 -0.2964389356215048
1320000000.0 0.3322418054690269 -0.13246898196395301
1340000000.0 -0.036197108132449 0.3672523849176211
1360000000.0 -0.2950785961513892 -0.23896068679492108
1380000000.0 0.17495744161044846 -0.33492918193405763
1400000000.0 -0.3729850559236306 0.06497368336392252
1420000000.0 0.36267582989104896 0.06375225694771475
1440000000.0 0.3468592033197743 -0.0995062971648158
1460000000.0 0.26153534711855725 -0.2422534632851637
1480000000.0 -0.10875620891484969 -0.3316553553910518
1500000000.0 -0.06558802274781499 0.32872217782832064
1520000000.0 0.08582366575134637 -0.29704807121418514
1540000000.0 -0.27839328765287125 0.012855127640107662
1560000000.0 0.21960923467872437 0.10386014827146996
1580000000.0 -0.20042007843647677 0.04975624529192261
1600000000.0 0.13150123317110501 0.11348014776736984
1620000000.0 0.1288703804078205 -0.07201310200481505
1640000000.0 0.11125580289028637 0.06733244236904279
1660000000.0 0.06938689409097684 0.07894634671340328
1680000000.0 -0.0814655561341236 0.014997534558643182
1700000000.0 0.06255187233314313 0.022628104174973684
1720000000.0 -0.04807096302738448 0.020152664843612583
1740000000.0 -0.027137208677870655 0.04100167407098709
1760000000.0 -0.0007368712635266508 -0.06342067027296983
1780000000.0 -0.027065904056827395 0.0875118364080129
1800000000.0 0.001994838125872915 -0.1252274853805844
1820000000.0 0.0027509502527342166 -0.15797653433902228
1840000000.0 0.0802285553827623 0.17079913827808788
1860000000.0 0.19940526578606474 0.09749008578516231
1880000000.0 0.21676684353763315 -0.1155855002611081
1900000000.0 -0.08315017176410983 -0.25319328235052435
1920000000.0 -0.2840421645291527 -0.03528540931501901
1940000000.0 0.18150575355610243 0.24083904063203423
1960000000.0 -0.31529746333154646 -0.005306379184471757
1980000000.0 -0.12398353892394638 -0.29234135061637617
2000000000.0 0.10850134620827825 -0.2963374005061249
2020000000.0 0.261140846257513 0.1728896934407546
2040000000.0 0.2935854226109529 0.11146379908501136
2060000000.0 0.15154240315274753 0.2689321908765406
2080000000.0 -0.28007893934426475 0.13166713965269838
2100000000.0 0.17692202737876436 -0.2611439756424173
2120000000.0 0.07934118148180318 0.30046346392060413
2140000000.0 -0.0410869257195229 -0.3069555214359254
2160000000.0 0.03624352655140725 0.3011776332749708
2180000000.0 0.27345202369411414 0.11380929259911567
2200000000.0 0.2896610565467049 0.027214513051304925
2220000000.0 0.28158030799526435 0.028991485660686583
2240000000.0 -0.11401275654683536 0.24902345667801906
2260000000.0 -0.26500173866106236 -0.047303488794123556
2280000000.0 0.013058328923474197 -0.2544732473591221
2300000000.0 0.13555314103832197 0.20491021589787684
2320000000.0 -0.22434529310108414 0.07316825936118565
2340000000.0 0.1962674676717758 0.11544217647974166
2360000000.0 -0.1596892319048147 -0.17144730985806025
2380000000.0 0.23710541152723702 0.05744171129596649
2400000000.0 0.2603223612812116 -0.005938731214136685
2420000000.0 0.25617336023561776 -0.1252116266691865
2440000000.0 -0.31609904269103806 0.013026130650939438
2460000000.0 0.2851091208718364 -0.20403746675138218
2480000000.0 -0.36494715869719035 -0.11943550199781844
2500000000.0 0.2467435445592216 -0.3423511575520869
2520000000.0 0.367753747561297 0.27713308516360036
2540000000.0 -0.48931531301153247 0.08525505855144315
2560000000.0 0.21304542514378147 -0.48409185892815476
2580000000.0 0.12939935105720538 0.5467420461211423
2600000000.0 -0.450068218597814 -0.37864019228153234
2620000000.0 0.6087746854075823 0.0463889618009439
2640000000.0 -0.49396959147661257 0.38669731223645665
2660000000.0 -0.18404190522219369 -0.6134261866958661
2680000000.0 0.6151531149116718 -0.20605330350740633
2700000000.0 0.5434848649703176 0.3664732748442526
2720000000.0 0.395103740651151 0.5262383292173131
2740000000.0 0.38676808845343497 0.5337430772358817
2760000000.0 0.4361115761034732 0.49126856074954545
2780000000.0 -0.5542334906851968 0.3361696369600641
2800000000.0 -0.6315855009541772 0.08850608111145325
2820000000.0 -0.3139426091375362 -0.5434298423252371
2840000000.0 0.5854789432296145 -0.18506591785079016
2860000000.0 -0.5603127748720526 0.2154811073342428
2880000000.0 0.5868014239742769 0.031160888735031134
2900000000.0 -0.25102266342036406 -0.5094808744970233
2920000000.0 -0.5427252833773928 0.0615404466184611
2940000000.0 -0.1317709861358041 0.5090969420305542
2960000000.0 0.18293174463558665 0.46550560942432473
2980000000.0 0.44587619292848957 -0.1758023156866619
3000000000.0 -0.1998899771611378 -0.4096991099729034
3020000000.0 -0.3093734978199456 0.2973866919991894
3040000000.0 0.40428009271844206 -0.03366051734137053
3060000000.0 -0.3481122765570275 0.15231366691201015
3080000000.0 0.3286668558810541 0.14413165505988976
3100000000.0 -0.30643052228208856 -0.14754279849503063
3120000000.0 -0.241430545320281 0.2272019728613369
3140000000.0 0.3240129570190523 -0.029199722535630215
3160000000.0 -0.2876383121629248 -0.1501679778735121
3180000000.0 0.30355885279208217 0.10200472062813844
3200000000.0 -0.05577568248359177 -0.3092089559423329
3220000000.0 -0.2507664105277731 0.16661756586647533
3240000000.0 -0.24437754978632142 0.15094330977265819
3260000000.0 -0.2712557336749939 0.017816901306951346
3280000000.0 0.012560454526187134 -0.2501763951570961
3300000000.0 0.13809407574829857 0.19319029032655008
3320000000.0 -0.21748604628133203 -0.009116685271786832
3340000000.0 0.02375911089253879 -0.19730777974084104
3360000000.0 0.12138006508939111 0.12339511218342668
3380000000.0 0.03668102716225425 -0.14314020009259998
3400000000.0 0.03762229652559847 -0.12182430802927144
3420000000.0 -0.11438005025037211 -0.01097402897101573
3440000000.0 -0.05597890324739827 0.09101724733156659
3460000000.0 -0.09479735804946787 0.040495149431731735
3480000000.0 -0.07369096229059938 -0.051543969995039456
3500000000.0 0.006270981759004274 0.08216730845947873
3520000000.0 0.05748799345469289 0.045044033163149304
3540000000.0 -0.06422539299698693 0.02042708138889496
3560000000.0 0.04320024292655097 0.05762028344357197
3580000000.0 0.055425773943905604 0.05356965188763892
3600000000.0 0.07225585661380579 -0.05272775600127184
3620000000.0 -0.09683293284736562 -0.019096868689015833
3640000000.0 0.038881411596997976 0.1018146579624105
3660000000.0 -0.05949010134119052 0.08841741283376786
3680000000.0 0.0962243880153848 -0.04736361550056214
3700000000.0 0.047577100635657815 -0.08718848447329527
3720000000.0 -0.05823558558522907 -0.06787142298198073
3740000000.0 0.0788980709699919 -0.008821625073318115
3760000000.0 0.051633415338690335 -0.05628003909481476
3780000000.0 0.041609217252705825 -0.05222850783441015
3800000000.0 0.04760424675210135 0.012544421695092501
3820000000.0 0.0011686587045756198 -0.03841785823025376
3840000000.0 0.037898067524145124 -0.044543728450984275
3860000000.0 0.03496006749161365 -0.0657744062944654
3880000000.0 -0.08258985886995616 0.048989380654771826
3900000000.0 0.0669398831968149 0.08045833556191438
3920000000.0 0.09496497615022194 -0.047352650634275545
3940000000.0 -0.09828067688565821 0.04003484090410993
3960000000.0 -0.10122529526039818 0.017477670411429495
3980000000.0 -0.007427956884693478 -0.09597291498422089
4000000000.0 -0.07642389330070576 -0.03267482209522735
