!Created with skrf (http://scikit-rf.org).
# Hz S RI R 50.0 
!freq ReS11 ImS11
400000000.0 0.693240212332491 -0.5002426293477997
420000000.0 0.5756101676096836 -0.5916666996051445
440000000.0 0.6250420035569736 -0.5220645262440647
460000000.0 0.4545420075093495 0.6509597199217841
480000000.0 0.30519347779317874 0.7053880477554336
500000000.0 0.2601233941384199 0.7142297932473075
520000000.0 -0.11376551479595266 0.7351313283231391
540000000.0 -0.09686015847208804 0.7084246056345452
560000000.0 -0.6645561843020611 0.28507453680349576
580000000.0 -0.687252672218886 -0.16728108093612692
600000000.0 0.452827627440349 -0.5048228864458792
620000000.0 -0.05021855181060351 0.6470930991212058
640000000.0 0.37006611519371757 -0.4364064409730906
660000000.0 0.587083428776802 -0.07310622274884576
680000000.0 0.37005126827930535 0.505000692107949
700000000.0 0.4450748475928799 0.4056076778458268
720000000.0 -0.08336320288607725 0.6017897626085842
740000000.0 -0.4947308733923159 0.3025004180915031
760000000.0 -0.513043178857202 -0.22728387440693235
780000000.0 -0.18556834485379778 0.5046218419879981
800000000.0 -0.3509638106858586 0.3947828352886985
820000000.0 0.37898976357877306 -0.304914015443028
840000000.0 0.3302962019478181 0.3088976768031066
860000000.0 -0.31173454182874777 0.28483703937990806
880000000.0 -0.031234864423476814 -0.39764584724456903
900000000.0 0.33568759678444177 0.11883548484736951
920000000.0 -0.2091185679844245 -0.2549514925018977
940000000.0 0.05791882282324011 -0.2920617953976514
960000000.0 -0.24854235847157927 -0.06159874003244785
980000000.0 0.20789648577120265 0.0800806514558636
1000000000.0 -0.006281815369343486 -0.20751917592867075
1020000000.0 0.11645718806995191 0.13000315091714354
1040000000.0 0.08084317664695835 0.1057639380188373
1060000000.0 0.08989462538585467 -0.12377844274866931
1080000000.0 0.13025915397396853 0.07110455093880759
1100000000.0 0.028586538131045263 -0.17498957084889974
1120000000.0 0.1165489336973044 0.18957273765933036
1140000000.0 0.24086955550346026 -0.024735617520331276
1160000000.0 -0.07287723506325887 0.25947368144572536
1180000000.0 0.19446631831511704 -0.24039526458732
1200000000.0 -0.2962390570581518 -0.15078590251337526
1220000000.0 0.06975711312565883 -0.3271426236245817
1240000000.0 -0.28922436216734365 -0.21940687150714458
1260000000.0 -0.3488541020554517 0.1534805551425038
1280000000.0 0.32057473807596065 -0.2259623497204944
1300000000.0 -0.03316641080021072 -0.39667464534490565
1320000000.0 0.15401814019999685 -0.35527974038198384
1340000000.0 0.2653135964131088 0.29107891075337833
1360000000.0 -0.3997630776791699 -0.024231053292017374
1380000000.0 0.39550055963673647 0.030861628370694137
1400000000.0 -0.3639239326258248 0.14710128480748133
1420000000.0 -0.32017927737075025 0.22932343297730673
1440000000.0 0.08945324257066162 0.37269275621289627
1460000000.0 -0.35210350409007796 0.13199551653258662
1480000000.0 -0.30261920053327696 -0.2255540036426796
1500000000.0 -0.05753369353835271 -0.3821481714200242
1520000000.0 -0.31125590112788665 -0.24069860967144388
1540000000.0 0.29624852221853926 0.26643664470948586
1560000000.0 -0.17991882114191987 0.3508903765487068
1580000000.0 -0.3484252824465003 0.11918129234633214
1600000000.0 -0.3368878246611578 -0.022864803720879415
1620000000.0 -0.05852699733032651 0.30368198107004557
1640000000.0 -0.257755483408207 -0.11601469741830073
1660000000.0 -0.25101030770460037 0.05555084155188377
1680000000.0 0.2327233718953852 -0.01661320267212952
1700000000.0 -0.20882587175459225 0.04021759149182642
1720000000.0 -0.16996533331688343 0.07014949465393323
1740000000.0 0.07752027775765645 0.1288993120720196
1760000000.0 -0.07446644169125632 0.09883767302662286
1780000000.0 -0.07487675160874653 -0.04289436337315464
1800000000.0 -0.050337914303546734 0.008558088760277029
1820000000.0 0.02282355083591334 -0.04572424987014687
1840000000.0 0.0678436928565948 0.0651970526192939
1860000000.0 -0.019339086660347858 0.1412170880813783
1880000000.0 -0.17212540842260715 -0.06390967190168688
1900000000.0 -0.009501470987275254 -0.2221994733522494
1920000000.0 0.13036451314014083 0.23441038750225904
1940000000.0 -0.29120353712529795 0.00012737696506134722
1960000000.0 0.3149417049938348 -0.017571315850364044
1980000000.0 0.07546574674638563 0.332666976818379
2000000000.0 0.3398614771203242 0.092807861558964
2020000000.0 0.31863753677362583 0.15495496430524514
2040000000.0 0.2893801678421182 -0.22143713358810502
2060000000.0 0.20349035887628333 -0.30316778124993377
2080000000.0 -0.024191555749997005 -0.3629382492804908
2100000000.0 0.3606503038411434 -0.044750475497605004
2120000000.0 0.058392071752790646 0.351720804655152
2140000000.0 -0.34026610820349584 -0.0683976203906641
2160000000.0 0.3309706575727362 -0.07569327109129269
2180000000.0 -0.3081386200009923 0.11726191566968804
2200000000.0 0.09652816082901054 0.3010463729888327
2220000000.0 0.10045537064655985 0.28589990082746347
2240000000.0 0.262566223914855 -0.12509775753656371
2260000000.0 0.2576693841290161 0.08440407404305754
2280000000.0 0.14696010985591826 0.21152214905773303
2300000000.0 0.24065382152504475 -0.033251658560949554
2320000000.0 0.18592057750330898 -0.12393270076993854
2340000000.0 0.15445414815470201 -0.1217336785462594
2360000000.0 0.03431917505090206 -0.17775210668017805
2380000000.0 0.05136066503443207 0.15599327315063968
2400000000.0 0.10507162231484471 -0.10681408172253183
2420000000.0 -0.02348131254549702 0.15086800485526797
2440000000.0 0.15922096727396326 -0.023751644272422906
2460000000.0 0.0891139181546124 0.16603616555681835
2480000000.0 0.06857689408217801 0.21302678820456805
2500000000.0 -0.11336507420349577 0.23343959082116297
2520000000.0 -0.24595504477674146 -0.1626197202603891
2540000000.0 0.08155725837698537 -0.32117339227848374
2560000000.0 0.3595797131394146 0.050575950008737866
2580000000.0 -0.016823224436018656 0.393481971897559
2600000000.0 -0.41529835425789335 -0.019538368566648562
2620000000.0 0.18008114041460338 -0.39536466757783556
2640000000.0 0.4360727308951987 0.10815515922339075
2660000000.0 0.06961400942035867 0.4544464366682344
2680000000.0 -0.29249542674241324 0.3615076333341377
2700000000.0 -0.34658473879684365 0.3175350332635289
2720000000.0 -0.29381581689614766 0.3735229547086919
2740000000.0 -0.1367074028844214 0.46088084883068225
2760000000.0 -0.155190720669797 0.46083459869784066
2780000000.0 -0.40836856904937385 -0.2716873845591838
2800000000.0 -0.17660746121079574 -0.46206784519391575
2820000000.0 0.3659186107323236 -0.33901061791976905
2840000000.0 0.16709488226211328 0.47167280368893033
2860000000.0 -0.14428101641739857 -0.4790078370125997
2880000000.0 -0.23433507014610674 0.43939439979384043
2900000000.0 0.3729253139101888 0.3241764325969903
2920000000.0 0.48702890736259763 -0.03593069486038849
2940000000.0 0.3469978036846464 -0.34100142663276634
2960000000.0 -0.1585470614117607 -0.45429308427843246
2980000000.0 -0.47569783175484265 -0.03688237993320515
3000000000.0 0.03280726338214528 0.47014422853895105
3020000000.0 0.0006037322881952386 -0.4647414277312791
3040000000.0 0.015796016958398756 0.45185303085820044
3060000000.0 -0.1431124240907131 -0.4159079662058295
3080000000.0 0.4182213736708079 0.08921074128732737
3100000000.0 -0.3418933746398505 0.23789705247463686
3120000000.0 0.14116642868918255 0.38231035070091435
3140000000.0 -0.13379170029754953 -0.37808496359495275
3160000000.0 -0.1374033979462135 0.36990359888868857
3180000000.0 0.22656622840184573 0.31678331895846173
3200000000.0 0.38346741234879816 -0.04485859480623577
3220000000.0 0.37120362812601737 -0.09211447560649148
3240000000.0 0.37083152081907583 0.06290968101077389
3260000000.0 0.33225776434246107 0.1599105634653829
3280000000.0 0.30399518437072237 0.18343428450030166
3300000000.0 -0.25671116441579633 0.21546704465846134
3320000000.0 -0.08514512633554136 -0.3044179811978641
3340000000.0 0.20197238888118924 -0.21092474127674068
3360000000.0 -0.11284663832800548 0.24133921058706198
3380000000.0 0.2059814071495406 -0.1360406329427351
3400000000.0 -0.20344189616152533 0.10139807335049132
3420000000.0 0.07891173755504124 -0.19940652022530633
3440000000.0 -0.08138089192604236 0.1868751790533562
3460000000.0 -0.09208803542692544 -0.17103007568376677
3480000000.0 0.16029451607788844 -0.10198406845141642
3500000000.0 0.18755336302518152 0.018934388936427193
3520000000.0 0.1823186684475313 -0.042696020912820494
3540000000.0 -0.1932816946819841 -0.011292393347634561
3560000000.0 -0.17342645719740116 0.09842042728988835
3580000000.0 0.18684436741931854 0.08956181594513779
3600000000.0 0.1603022590704914 -0.1387068700275692
3620000000.0 0.0213110664256953 -0.2220677254623516
3640000000.0 -0.06822758048188111 -0.21599106468966084
3660000000.0 0.16362806859336554 -0.16363268309018036
3680000000.0 0.2320476452999 -0.02131100576464294
3700000000.0 -0.16620414804434902 0.15594211241409356
3720000000.0 0.02188603322564804 -0.21458230873894815
3740000000.0 0.1550801806397192 0.11932079306430006
3760000000.0 0.16035786991555923 -0.07313531279043839
3780000000.0 -0.1007096174941983 -0.10885911168733696
3800000000.0 -0.1077386174150336 -0.0439614445939635
3820000000.0 -0.052470440971121496 0.06640489796254107
3840000000.0 -0.006563796245352796 0.05340388751063408
3860000000.0 -0.033079566750636176 -0.026561181432911293
3880000000.0 0.008179447845515275 -0.04775520751861968
3900000000.0 -0.04424164661130293 0.050396476062585745
3920000000.0 0.07636844554230551 -0.01736855415746556
3940000000.0 0.06532502655453162 0.044726436709233916
3960000000.0 0.026418084181168245 -0.06830740294971882
3980000000.0 -0.04594947391572602 -0.03956964042136444
4000000000.0 -0.0065607212937781175 -0.04776692539633316
