!Created with skrf (http://scikit-rf.org).
# Hz S RI R 50.0 
!freq ReS11 ImS11
400000000.0 0.6614687180316394 -0.5420873841608153
420000000.0 0.5826270915607084 -0.5840023664281644
440000000.0 0.6443060106223509 -0.5037462631756519
460000000.0 0.4111759853888205 0.6783908252359947
480000000.0 0.2100116027185858 0.739863535252596
500000000.0 0.10446678534304783 0.7531729686379997
520000000.0 -0.1404406160080291 0.7300657263256963
540000000.0 -0.22497809895125656 0.6778396858678348
560000000.0 -0.6306418883196069 0.35028535672254646
580000000.0 -0.666602145774286 -0.2378982023201261
600000000.0 0.43226765818938095 -0.5242397413646025
620000000.0 -0.059176242386750504 0.6470938020127142
640000000.0 0.4358828501428009 -0.3727885279878308
660000000.0 0.5770019673489332 0.1271623112741256
680000000.0 0.39357249961131674 0.4854509839651546
700000000.0 0.45112706205301245 0.4013833195468301
720000000.0 -0.07130603343763392 0.6049546679446438
740000000.0 -0.49676473212102035 0.2970763678581213
760000000.0 -0.5343729238250889 -0.1724474720575
780000000.0 -0.058479103516557746 0.5362872705648598
800000000.0 -0.3260764238929245 0.4173230100851267
820000000.0 0.3385879788092636 -0.35016590953038745
840000000.0 0.36043878413346 0.27352472452425913
860000000.0 -0.29758261343818504 0.30042202669427864
880000000.0 -0.0040795290882264575 -0.3993077353839958
900000000.0 0.33934785279924334 0.1152007804227535
920000000.0 -0.12913353338297076 -0.3031852049072463
940000000.0 -0.06966238219836421 -0.2894059343171399
960000000.0 -0.2548022074969248 -0.009511285564005519
980000000.0 0.22205879658042477 -0.004213202769678161
1000000000.0 -0.08601034238691431 -0.1879890072817713
1020000000.0 0.11528237148150548 0.13040863077302514
1040000000.0 0.1023509700496271 0.08803198267362033
1060000000.0 0.12565291148802668 -0.0841463877598442
1080000000.0 0.11277447360318085 0.09549957640640576
1100000000.0 0.016271743675893163 -0.17630142376773977
1120000000.0 0.11230565609748533 0.19062043238319834
1140000000.0 0.2336909600823017 0.05875690214600475
1160000000.0 -0.07039820990930461 0.2606391546246254
1180000000.0 0.2340140320835109 -0.2021042625639324
1200000000.0 -0.3246311055678799 -0.06879419214361739
1220000000.0 0.07093239406781847 -0.32613210574506646
1240000000.0 -0.32333567590195267 -0.1638269713747347
1260000000.0 -0.3409033719374709 0.1707839538750146
1280000000.0 0.31658574717376736 -0.23177142511057555
1300000000.0 -0.04401762878930907 -0.3962932721548088
1320000000.0 0.15200184584308418 -0.3570983157820606
1340000000.0 0.22714069059242287 0.32197602218850935
1360000000.0 -0.3961446989303276 -0.06874862025408633
1380000000.0 0.3676486522653697 0.14714055859288436
1400000000.0 -0.38042136655920705 0.10209801959843005
1420000000.0 -0.35522335677069933 0.16994684101841329
1440000000.0 0.08069176145860973 0.3747597826367638
1460000000.0 -0.367720471521484 0.07144555484018938
1480000000.0 -0.18686590595588415 -0.3279191531017003
1500000000.0 -0.018050198067252048 -0.3852001503344521
1520000000.0 -0.3524021757310641 -0.1725648016177326
1540000000.0 0.3033567370015103 0.2570783731299805
1560000000.0 -0.15751390720033143 0.3612902812271027
1580000000.0 -0.3341243124320518 0.15429031398906584
1600000000.0 -0.33743493805343916 -0.019012468522317482
1620000000.0 -0.015109971771231705 0.31034222854890214
1640000000.0 -0.2459945054752755 -0.14225529762215774
1660000000.0 -0.24644692615354058 0.07283849316892646
1680000000.0 0.23365937636502654 0.010221288445941654
1700000000.0 -0.21043882734658984 -0.030743413813157785
1720000000.0 -0.182733291465491 0.028339113627432615
1740000000.0 0.06776079386253797 0.1344479825401681
1760000000.0 -0.09841865104287666 0.07340433530192689
1780000000.0 -0.045474294039126235 -0.07338260481413761
1800000000.0 -0.028673267912613928 -0.04183628987606757
1820000000.0 0.04116078311364065 0.02901985283505684
1840000000.0 0.042907193049315395 0.08314731710229314
1860000000.0 -0.08615947332948831 0.11220747016749175
1880000000.0 -0.15687051198252822 -0.09441477782700095
1900000000.0 -0.03606011193889883 -0.2195162997772852
1920000000.0 0.13310634673651 0.23269352406734747
1940000000.0 -0.2889925684614191 -0.03623147445986843
1960000000.0 0.3141613575031038 -0.030258291966565928
1980000000.0 0.038037735957200704 0.3390479707224795
2000000000.0 0.33968634474768206 0.09283296717587111
2020000000.0 0.3269198420496989 0.13803469371797894
2040000000.0 0.2636651728832395 -0.25203728879932413
2060000000.0 0.22157467938139636 -0.29174279978770173
2080000000.0 -0.06471867673523955 -0.3575723500367455
2100000000.0 0.3636619211442088 -0.01873171205635443
2120000000.0 0.0158993078690549 0.35604669341951073
2140000000.0 -0.3191899718820185 -0.13851229703284043
2160000000.0 0.33593022210858736 -0.050296315631258005
2180000000.0 -0.32024122957817575 0.07756802576080551
2200000000.0 0.08884219260053028 0.30262283208115714
2220000000.0 0.1456855997276465 0.26425894457080573
2240000000.0 0.2854399092499615 -0.05817411317844071
2260000000.0 0.2682301449966273 0.042053142063232324
2280000000.0 0.17880151775587486 0.182451076654259
2300000000.0 0.22745402949060142 -0.08343629759153087
2320000000.0 0.18048576740521563 -0.1345041787965676
2340000000.0 0.17374897755223803 -0.09273046343206288
2360000000.0 0.06905598027477544 -0.16890501407300745
2380000000.0 -0.010701117012609014 0.16472143330687145
2400000000.0 0.1105855044304091 -0.10103608047508252
2420000000.0 -0.07210729757649234 0.13591447928141195
2440000000.0 0.15339435053491154 0.05016682282909302
2460000000.0 0.03232631955435383 0.18532301802129353
2480000000.0 0.046098533726935814 0.21895792613142104
2500000000.0 -0.15306991701965672 0.20903038919547096
2520000000.0 -0.23009784779110815 -0.18424849620296613
2540000000.0 0.08627407591145024 -0.3201612788805108
2560000000.0 0.35070847838890185 0.0920556118879047
2580000000.0 -0.012021782338654457 0.3935102300172444
2600000000.0 -0.4143304426891232 -0.03244173978285433
2620000000.0 0.1762551682769229 -0.3969105746639606
2640000000.0 0.4221037183768924 0.1558465267079804
2660000000.0 0.02780353496810754 0.4598895805720658
2680000000.0 -0.28187339856700516 0.3705120371916481
2700000000.0 -0.39341788467564637 0.25911861828609656
2720000000.0 -0.34561739784457346 0.3265295487782338
2740000000.0 -0.2163235213922374 0.4285099550540203
2760000000.0 -0.20070768414741386 0.44196475570769217
2780000000.0 -0.3776106953696309 -0.3118400050892477
2800000000.0 -0.14675159527672518 -0.471678044189733
2820000000.0 0.4014933974082886 -0.2951484398842997
2840000000.0 0.17265130132001272 0.46876498602900224
2860000000.0 -0.18202207020647596 -0.4655341257974166
2880000000.0 -0.20496190458856753 0.45440525440508345
2900000000.0 0.37068848312310876 0.32839682505992024
2920000000.0 0.48832376785655524 -0.03527260797537681
2940000000.0 0.3751995555615304 -0.3106677699228524
2960000000.0 -0.10604323549793773 -0.47033487568554827
2980000000.0 -0.4596237340173624 -0.12962708738797973
3000000000.0 -0.028498965069428554 0.4721037236427958
3020000000.0 0.11461157738440997 -0.4510754008248411
3040000000.0 -0.07129148270910336 0.4452795319139035
3060000000.0 -0.003500060698901126 -0.4384977735430041
3080000000.0 0.416368540366433 0.09100580158368571
3100000000.0 -0.3901801216114824 0.14306558859336446
3120000000.0 0.18696770208804592 0.36149902008963186
3140000000.0 -0.17037428708468408 -0.3619205201379946
3160000000.0 -0.10343151734544422 0.3802894156646799
3180000000.0 0.24617686201161526 0.30193809510830294
3200000000.0 0.3726613636726272 -0.10435954677089707
3220000000.0 0.36401424055664233 -0.12462670991230448
3240000000.0 0.37543129163650246 0.023399232871686913
3260000000.0 0.3175330488008829 0.1888711696044103
3280000000.0 0.2474418019482032 0.2570716344890194
3300000000.0 -0.2863055685153099 0.1784598201547316
3320000000.0 -0.10354138460875026 -0.29900369188224474
3340000000.0 0.2560401408451326 -0.14179710777944793
3360000000.0 -0.24274445597784633 0.11570892065364248
3380000000.0 0.23009062534465702 -0.09097515740049933
3400000000.0 -0.19611322730898825 0.11686163852183297
3420000000.0 0.11685360461167327 -0.17978940031542115
3440000000.0 -0.08135217468057303 0.18703405823015476
3460000000.0 -0.022521338425377464 -0.19347475868914454
3480000000.0 0.15115837407380497 -0.11761890572476533
3500000000.0 0.17409007836990398 0.0745119460013297
3520000000.0 0.18571025659305931 0.026130373169766442
3540000000.0 -0.18750593130728563 -0.048528634348549086
3560000000.0 -0.19764288691482723 0.019153910116958182
3580000000.0 0.14468698132403734 0.14750129852054575
3600000000.0 0.15529595041281305 -0.14130481657672472
3620000000.0 0.051751165118283135 -0.21560684097378835
3640000000.0 -0.043093402290564624 -0.2200169104586101
3660000000.0 0.16484454301020945 -0.1581705795025801
3680000000.0 0.2298941706130073 -0.025774092316502607
3700000000.0 -0.07338850371760891 0.21382539178716767
3720000000.0 -0.02128140783452134 -0.2123547395525742
3740000000.0 0.16208534188525991 0.10542290250451256
3760000000.0 0.1517404279717801 -0.08767468802965421
3780000000.0 -0.1470943692700562 -0.007819958474568964
3800000000.0 -0.11461127282926514 -0.012164439488560693
3820000000.0 0.05183822902922516 0.06474204228632585
3840000000.0 0.047305659015293385 0.019445422176967982
3860000000.0 0.00720785901927745 0.04057977984713601
3880000000.0 -0.00926036257972999 -0.04337441770855212
3900000000.0 -0.05748401482396268 0.02779886692888384
3920000000.0 0.0732232597074779 0.019141067609992242
3940000000.0 0.07515240080650117 0.015525589301904664
3960000000.0 -0.05790828822957866 -0.04204787237999014
3980000000.0 -0.053606518113176314 0.023758397074563387
4000000000.0 -0.04466017494789095 0.01523253533120702
