!Created with skrf (http://scikit-rf.org).
# Hz S RI R 50.0 
!freq ReS11 ImS11
400000000.0 0.6443569653761765 -0.5609618404708571
420000000.0 0.5962407466126214 -0.5715469427552272
440000000.0 0.6186570902449015 -0.5320971842619322
460000000.0 0.5031396106405245 0.6122070992402091
480000000.0 0.24481088787711172 0.7302870193462817
500000000.0 0.21029805650008276 0.730248039195191
520000000.0 -0.27850772956542835 0.6897687100102439
540000000.0 -0.09726651056020522 0.7082685355362465
560000000.0 -0.6767174254617188 0.25483287047225894
580000000.0 -0.682555157039295 -0.1860822825157445
600000000.0 0.43357891647065216 -0.5221158637752382
620000000.0 -0.0008093615974609224 0.6493795353913826
640000000.0 0.45143930427052775 -0.3498274877294081
660000000.0 0.5912108442127203 0.0036062456544052423
680000000.0 0.25254515054300397 0.5741675392306306
700000000.0 0.4770090088017377 0.3691585591784533
720000000.0 -0.15412817893828923 0.589752032223508
740000000.0 -0.4690550756905821 0.3427319784157356
760000000.0 -0.517528707713983 -0.22000917744117035
780000000.0 -0.19490636107686538 0.5014831805270322
800000000.0 -0.2887281498333496 0.44337962584241175
820000000.0 0.37368784476825223 -0.3109252616553167
840000000.0 0.36076742727072186 0.2724389857733258
860000000.0 -0.3022863399285267 0.29451651045766364
880000000.0 -0.056342361619754845 -0.39600992045399386
900000000.0 0.3210916569465442 0.15663623281739988
920000000.0 -0.18705286688608075 -0.2726805536246926
940000000.0 -0.0016201182957305852 -0.29699178432069545
960000000.0 -0.25411130878848126 -0.014373860087912527
980000000.0 0.221681054910009 -0.017680952827691377
1000000000.0 -0.07229249281843796 -0.19497519109437578
1020000000.0 0.1364212992431833 0.10835540880558996
1040000000.0 0.06245210774910969 0.11853143912910348
1060000000.0 0.08881499847327462 -0.1244969938758779
1080000000.0 0.11766802297944963 0.08970091660281611
1100000000.0 0.0024875417353033107 -0.17726066016153172
1120000000.0 0.10977212863967342 0.1934570933213002
1140000000.0 0.2390849627770181 -0.03974304059068285
1160000000.0 -0.016974275869219204 0.2691400220125619
1180000000.0 0.22085633253515874 -0.2165273946150282
1200000000.0 -0.2998558524154053 -0.14316838299410814
1220000000.0 0.0996721235479945 -0.318954252506755
1240000000.0 -0.2835368221588092 -0.22753053656965802
1260000000.0 -0.3557130273399958 0.1371080043071246
1280000000.0 0.3106209442043445 -0.23943863164782855
1300000000.0 -0.05625290641283294 -0.3942113158268462
1320000000.0 0.14263286159667676 -0.36039261360756275
1340000000.0 0.2796339536136323 0.2785376775959923
1360000000.0 -0.3988645031898135 -0.04227199508458124
1380000000.0 0.39569883237815956 0.02487999718218522
1400000000.0 -0.3485683053887978 0.18431969392517758
1420000000.0 -0.33952034112682833 0.20011502347515814
1440000000.0 0.07313026733958822 0.3761659066821273
1460000000.0 -0.34895322550285346 0.1371915929721109
1480000000.0 -0.26285103839924123 -0.26967589906612355
1500000000.0 -0.03687277720257121 -0.3844763902100531
1520000000.0 -0.3410273996587095 -0.19300958170031643
1540000000.0 0.2773514108185841 0.28526665041486315
1560000000.0 -0.15774872596553177 0.36104140755748454
1580000000.0 -0.3276157733065907 0.16818379143852802
1600000000.0 -0.33466101087394234 -0.043765146029717844
1620000000.0 -0.07366750879247502 0.30124306790656646
1640000000.0 -0.2590268583262652 -0.11491173661407428
1660000000.0 -0.25275625291621645 0.04673463021712137
1680000000.0 0.23263812537141992 0.011782444361551177
1700000000.0 -0.21103979613704685 -0.021842722035548663
1720000000.0 -0.17888522368896334 0.04242342558506573
1740000000.0 0.025070066941411936 0.1483081595980243
1760000000.0 -0.08695118237694353 0.0864573829035415
1780000000.0 -0.047654701695044696 -0.0713403302518159
1800000000.0 -0.04589315908389985 0.02126407230290016
1820000000.0 0.044325453370718436 -0.024113461113999195
1840000000.0 0.058919996883983666 0.07214352631210061
1860000000.0 -0.04739596223146437 0.1335662735500876
1880000000.0 -0.17775508881402877 -0.042162192365550945
1900000000.0 -0.03129575929926667 -0.22039028908667554
1920000000.0 0.14572392564903355 0.22502571108488714
1940000000.0 -0.28953392864745736 -0.034949601421988205
1960000000.0 0.31509614130672026 -0.014136388843106702
1980000000.0 0.07704145247915965 0.33242531957043886
2000000000.0 0.33923711430438747 0.0945476397930294
2020000000.0 0.32493432429372504 0.14152912437239054
2040000000.0 0.2836313851582486 -0.22936410765480458
2060000000.0 0.20174414505554564 -0.3053081952708349
2080000000.0 -0.008817071928027134 -0.36300211476386846
2100000000.0 0.36242623263109314 -0.031669865552936535
2120000000.0 0.09394858735089481 0.34398475187258143
2140000000.0 -0.3101471518251563 -0.1547318613378099
2160000000.0 0.3256164929555867 -0.09568785033734817
2180000000.0 -0.30572286680511535 0.12194625869368948
2200000000.0 0.09138797639393177 0.3022749160392076
2220000000.0 0.1409540585267158 0.26807277268914526
2240000000.0 0.2715226895074894 -0.10696184141856052
2260000000.0 0.26768889787704014 0.04257923212650154
2280000000.0 0.17015094475859263 0.19272564819303423
2300000000.0 0.2374503079756978 -0.04983477991415887
2320000000.0 0.2011877199637414 -0.10012365111131441
2340000000.0 0.18082137136381055 -0.07782270990270906
2360000000.0 0.08187083554215117 -0.16130261156193976
2380000000.0 -0.0121432964605141 0.1630518187099815
2400000000.0 0.09922201581317425 -0.11176343194793761
2420000000.0 -0.03318004420270524 0.14948986676079498
2440000000.0 0.16139367770387075 0.0035083605386381275
2460000000.0 0.08359688208327214 0.16882955421032458
2480000000.0 0.06517699779312104 0.2129867648097621
2500000000.0 -0.11783406213760594 0.23072808223576916
2520000000.0 -0.27455938042005396 -0.10756011086734421
2540000000.0 0.0564019533944578 -0.3266878209482319
2560000000.0 0.3619033235841175 0.03262147936175175
2580000000.0 -0.00011396868151573525 0.39399239272816733
2600000000.0 -0.4157822011475202 -0.0050713368577056245
2620000000.0 0.203176781876585 -0.3848383989627305
2640000000.0 0.4216319650023507 0.15599980009211092
2660000000.0 0.03294659872287592 0.4587074491520638
2680000000.0 -0.31476891492891046 0.3426364868330716
2700000000.0 -0.3765793413292403 0.28065919010660734
2720000000.0 -0.2932575635564581 0.3735495520765213
2740000000.0 -0.1395772082045184 0.45946673256340126
2760000000.0 -0.09098810523940237 0.4766096753485514
2780000000.0 -0.41076054014544633 -0.2675365855180662
2800000000.0 -0.1489370887502005 -0.4711486149628793
2820000000.0 0.37790058712688374 -0.3254874627519614
2840000000.0 0.1619144055310995 0.472965470295995
2860000000.0 -0.14704419331779062 -0.47833053104226314
2880000000.0 -0.23298448317529932 0.43998167230974233
2900000000.0 0.35087622251356054 0.34834001799906744
2920000000.0 0.488356298791934 -0.005589117449691283
2940000000.0 0.33546202068486575 -0.35164165878465087
2960000000.0 -0.14526986961208546 -0.4586297988332288
2980000000.0 -0.47482351252722715 -0.050298658078758204
3000000000.0 0.0831831732595505 0.46368536752542944
3020000000.0 -0.0072364133193085906 -0.46522558765375427
3040000000.0 0.06543140107600842 0.4472044879516276
3060000000.0 -0.13907341972624732 -0.41759312937317344
3080000000.0 0.4166072088652115 0.09742914649100018
3100000000.0 -0.3570967273582069 0.2136744778750583
3120000000.0 0.190033814751093 0.36026920589677325
3140000000.0 -0.11791442959757494 -0.3828275332276231
3160000000.0 -0.14928218854357214 0.3647175228991035
3180000000.0 0.22849813951620132 0.3150635663909454
3200000000.0 0.3783533438656727 -0.07844399830264509
3220000000.0 0.36442693076883437 -0.11591575395198635
3240000000.0 0.3732949350722467 -0.032444073398104525
3260000000.0 0.319725974578833 0.18466615647628848
3280000000.0 0.2779006752383655 0.22209784615819156
3300000000.0 -0.23602559840574183 0.23894690341163746
3320000000.0 -0.12588686705798124 -0.2890747219888337
3340000000.0 0.20163693759411888 -0.21173636782407018
3360000000.0 -0.22660281799504314 0.14409434040290134
3380000000.0 0.23182326853463414 -0.0883482059960314
3400000000.0 -0.21239124890269717 0.0817626171040107
3420000000.0 0.13737371360085215 -0.16439073207139462
3440000000.0 -0.14453893480295021 0.14269520429953134
3460000000.0 -0.02634160942196011 -0.19279446180860166
3480000000.0 0.1617447421211549 -0.09840937378353222
3500000000.0 0.18576064552253388 0.02752555575703316
3520000000.0 0.1827517172833751 -0.03389722497864601
3540000000.0 -0.19288671715530706 0.021000771930067125
3560000000.0 -0.15123432386000893 0.12996829081000608
3580000000.0 0.20479366210366218 0.03053655326014403
3600000000.0 0.07870367710988863 -0.19624999221531778
3620000000.0 -0.00836007938935408 -0.2241924533247629
3640000000.0 -0.0975833372730203 -0.20482241167046472
3660000000.0 0.18197298461407369 -0.14488983463953062
3680000000.0 0.23502363302843596 0.0025212474438441605
3700000000.0 -0.2006952159547183 0.10917480992509558
3720000000.0 0.08405397184917177 -0.1991995807091226
3740000000.0 0.070550771223446 0.18230073789811108
3760000000.0 0.17640328489546186 0.01819441724821294
3780000000.0 -0.09613882361742498 -0.11272368616163435
3800000000.0 -0.005873095510097271 -0.11572775832540998
3820000000.0 -0.08324132559690048 -0.014510774651003701
3840000000.0 -0.047406207715078585 0.025582957281493433
3860000000.0 -0.026767782716500016 -0.03506719900134907
3880000000.0 0.04414210527504454 -0.02210457259865138
3900000000.0 -0.0659093179173365 -0.019100983309770156
3920000000.0 0.07682478237000706 -0.02039969315356434
3940000000.0 0.07127053169026382 0.036577239502751185
3960000000.0 0.027643670044386226 -0.06749614753498177
3980000000.0 0.03311323925771319 -0.048817963440603976
4000000000.0 -8.729852254454402e-05 -0.0472669526258355
