!Created with skrf (http://scikit-rf.org).
# Hz S RI R 50.0 
!freq ReS11 ImS11
400000000.0 0.6303729317332317 -0.5775305798637288
420000000.0 0.5981163036253417 -0.5688062341849163
440000000.0 0.6176288484774847 -0.5349035768991216
460000000.0 0.40577845092036935 0.6814728327689347
480000000.0 0.19111817500737635 0.7457232179887775
500000000.0 0.1788854742770839 0.738563675851755
520000000.0 -0.15709410626603393 0.7265848429990681
540000000.0 -0.28566240655679975 0.655099964590652
560000000.0 -0.6434925296930037 0.32711376737311587
580000000.0 -0.6717671300835965 -0.22441108254261372
600000000.0 0.40074157678571193 -0.5480563971948542
620000000.0 -0.08985326546162974 0.6441497722863154
640000000.0 0.43099910657763696 -0.3787608706575494
660000000.0 0.5808087629139679 0.11379085916793791
680000000.0 0.38614041921442527 0.49248805503787657
700000000.0 0.4871891766312296 0.3584557873082423
720000000.0 -0.157832791279716 0.5903262953937017
740000000.0 -0.5255336678039413 0.24567579270413495
760000000.0 -0.5320728393989769 -0.18067407303450672
780000000.0 -0.09649918338005178 0.5304361476019747
800000000.0 -0.3304664928523129 0.4135092517146657
820000000.0 0.3480423556634993 -0.3402947771823311
840000000.0 0.3742476681141593 0.2520472040092802
860000000.0 -0.27367351432575 0.3219541436031206
880000000.0 -0.06342312220508907 -0.39511654528330564
900000000.0 0.351398402010305 0.07398149442139323
920000000.0 -0.14784835610285507 -0.29652545534956415
940000000.0 -0.04628625821937653 -0.29614358184857364
960000000.0 -0.23820573911907597 -0.09714474229864095
980000000.0 0.18382193112533857 0.1281057024073172
1000000000.0 0.04191409215924314 -0.2027741465161602
1020000000.0 0.045707514671019876 0.16691563885909666
1040000000.0 0.07766258692136077 0.10832385582038521
1060000000.0 0.0663317889282232 -0.134796418286532
1080000000.0 0.14822056688156188 0.00970115740064663
1100000000.0 -0.045857878374425017 -0.17287677211512828
1120000000.0 0.10872574207361342 0.19515948404325167
1140000000.0 0.2210649485751839 0.1012095459598032
1160000000.0 -0.16535568632003908 0.2158030401293986
1180000000.0 0.29689889591437135 -0.09212212448581024
1200000000.0 -0.2953639770837782 -0.15345746758678758
1220000000.0 0.15056735662795795 -0.29768860124420427
1240000000.0 -0.28856483617383677 -0.21776331617502778
1260000000.0 -0.3374630233112255 0.17437997597187604
1280000000.0 0.2767198261423738 -0.276112502894769
1300000000.0 -0.1430621598578151 -0.37224203011392376
1320000000.0 0.02882535165307793 -0.3879378229228932
1340000000.0 0.3104872533233709 0.24654541731592788
1360000000.0 -0.4044810424910701 -0.023356237719436363
1380000000.0 0.38317555049038093 0.11246199052308588
1400000000.0 -0.3843061331168394 0.09849172415148916
1420000000.0 -0.3845467248455819 0.09510836800909549
1440000000.0 -0.043900276199684396 0.38295238121281117
1460000000.0 -0.37410829656158384 -0.03884590918496376
1480000000.0 -0.14939677543965976 -0.34612898856897606
1500000000.0 0.07955290255404025 -0.3777047521980697
1520000000.0 -0.3028868125406701 -0.24887874309244604
1540000000.0 0.24559154804382938 0.31145786332320863
1560000000.0 -0.1824903602901019 0.3477228406168259
1580000000.0 -0.3050479886991826 0.2043323477326437
1600000000.0 -0.33238104776115096 0.06100531092888929
1620000000.0 0.08723225138949671 0.29839563265846475
1640000000.0 -0.28217247072782276 -0.041070285862249936
1660000000.0 -0.24028454457774617 0.09633450032716541
1680000000.0 0.23535470535390554 -0.020328371926543798
1700000000.0 -0.20983975949655495 -0.04491729920076008
1720000000.0 -0.18487416131520534 -0.022342375797376243
1740000000.0 -0.04251427470434825 0.14517324539348614
1760000000.0 -0.12182201389752212 -0.019172304043084995
1780000000.0 0.04883554380152141 -0.07080727472445135
1800000000.0 0.03916351340757052 -0.032560907304154695
1820000000.0 -0.02767058334325302 0.0433194872234321
1840000000.0 -0.04019235025199252 0.08513457332390557
1860000000.0 -0.13303935633094507 0.05081541126977388
1880000000.0 -0.10340493431074282 -0.15157322840986698
1900000000.0 0.048215003668288674 -0.21695672009240602
1920000000.0 0.06502578129822718 0.25926808765588677
1940000000.0 -0.2839457430594693 -0.06050533423338583
1960000000.0 0.31369394523307476 -0.020090887252189816
1980000000.0 0.0879844506366558 0.32895440458048436
2000000000.0 0.3487144871710823 0.04715641836222315
2020000000.0 0.34358295185072507 0.09015233117779932
2040000000.0 0.24263122906157505 -0.2733106163436716
2060000000.0 0.17459837295448466 -0.3237764787661835
2080000000.0 -0.023974192176148986 -0.36437350810225866
2100000000.0 0.3655709274881237 0.013023980319397435
2120000000.0 0.001696547126706279 0.35811684650410974
2140000000.0 -0.29422245853667345 -0.18646344418768745
2160000000.0 0.33916523089010664 0.013083844264094147
2180000000.0 -0.3280102298459484 0.032455836760745205
2200000000.0 0.04387535783090802 0.3120910438230914
2220000000.0 0.1332858055139352 0.2701084602868733
2240000000.0 0.28581009066123725 -0.053786195753968216
2260000000.0 0.2687932302781081 0.0314753150263882
2280000000.0 0.20581161034918066 0.1511197835489968
2300000000.0 0.20530486400041176 -0.12931963286231363
2320000000.0 0.13785880808436346 -0.17716964325360984
2340000000.0 0.14626628190269858 -0.13231005926383776
2360000000.0 0.00029494554742885384 -0.18309102557238785
2380000000.0 0.011113147217611804 0.1657123931449331
2400000000.0 0.10152320168306463 -0.11141362807719554
2420000000.0 -0.031273704288097316 0.1513427662362855
2440000000.0 0.1588314767201226 0.033493419129809195
2460000000.0 -0.005957970810300231 0.18921266338835105
2480000000.0 0.011730841048665902 0.2243353697685804
2500000000.0 -0.2153093275795416 0.1434078540637171
2520000000.0 -0.1977256936767721 -0.21803773671382057
2540000000.0 0.12215175881580737 -0.30725659668695693
2560000000.0 0.34720318680072954 0.10289770470883701
2580000000.0 -0.004643928749857236 0.39351323051100434
2600000000.0 -0.41543723157974016 0.007668230359038397
2620000000.0 0.1652433413436987 -0.4017148625792835
2640000000.0 0.43529955501148737 0.11508172109490082
2660000000.0 0.06481342523523015 0.45630072565260665
2680000000.0 -0.2658762811028787 0.38356309205423833
2700000000.0 -0.3723290221880092 0.2896636895477687
2720000000.0 -0.3390420915804818 0.3340924728372355
2740000000.0 -0.3323194877495173 0.34739184214504604
2760000000.0 -0.2845693878808405 0.3931212590681018
2780000000.0 -0.3431435714978815 -0.3490662550952648
2800000000.0 -0.1070157010605583 -0.48216521750034647
2820000000.0 0.4134931520922594 -0.2776756203468728
2840000000.0 0.15414463319056618 0.4751591906581806
2860000000.0 -0.10709317091381007 -0.4880528029630478
2880000000.0 -0.1911065868664805 0.46002944870095863
2900000000.0 0.3896693222797114 0.3056486875155904
2920000000.0 0.48829596839365635 -0.03900545973522355
2940000000.0 0.37453704395856247 -0.3129268523588764
2960000000.0 -0.1750708594723439 -0.4503016023751569
2980000000.0 -0.46886468920836666 -0.09477706254949891
3000000000.0 0.043301061763144626 0.4715167473862993
3020000000.0 0.0826300305548768 -0.4592114408788884
3040000000.0 -0.14790067544051205 0.42782044186499607
3060000000.0 0.014713212989180666 -0.4394088516418937
3080000000.0 0.3733986410915966 0.20733899308321302
3100000000.0 -0.3958859322837187 0.1268077918951742
3120000000.0 0.08355079670095832 0.3968444850835432
3140000000.0 -0.13943201970729974 -0.37465667852399714
3160000000.0 -0.09116048317528572 0.3823930523517155
3180000000.0 0.28741595721934515 0.26164543367199045
3200000000.0 0.3632865245662462 -0.13132643207300995
3220000000.0 0.35675229677701714 -0.14217264914835334
3240000000.0 0.3760119929633812 -0.01852402312016984
3260000000.0 0.35499977840619495 0.10559705163787136
3280000000.0 0.31199434253826985 0.1738384358837541
3300000000.0 -0.20373585716428538 0.26817754574602204
3320000000.0 -0.1107819740373249 -0.29813331645700497
3340000000.0 0.2624857867670985 -0.13306028113980867
3360000000.0 -0.20998846162651552 0.16933686863154485
3380000000.0 0.2424052364078404 -0.05389467299806659
3400000000.0 -0.2286799558247009 -0.0017531077406931373
3420000000.0 0.18733114674981333 -0.10613508745124084
3440000000.0 -0.14749619776678996 0.14065627771904976
3460000000.0 0.03877990230321706 -0.19037975834927906
3480000000.0 0.17562886478764403 -0.07301189843427135
3500000000.0 0.1560152479655297 0.10503791993808669
3520000000.0 0.18389364405024106 0.03205909698195753
3540000000.0 -0.19384514513306414 -0.005914574677009298
3560000000.0 -0.17510345677558187 0.09291846310779091
3580000000.0 0.18281755696311075 0.09695906338470424
3600000000.0 0.1518014706122283 -0.1455490834381633
3620000000.0 0.05355934043749858 -0.21659588686936612
3640000000.0 -0.052447792402654535 -0.2196844175861587
3660000000.0 0.17286618358035394 -0.15117811090964176
3680000000.0 0.2323779363151 0.014258313596813146
3700000000.0 -0.17323307716794073 0.14557925188005394
3720000000.0 0.09807241596669929 -0.19090372014227586
3740000000.0 0.13707560245514427 0.13650121828785952
3760000000.0 0.14674581909505333 -0.09450942263849432
3780000000.0 -0.13198032274859595 -0.06369847163746847
3800000000.0 -0.09393520033955174 -0.06546611236631576
3820000000.0 0.028204065701568765 0.07807324679865223
3840000000.0 0.052233743171729186 -0.0035531945930160473
3860000000.0 -0.028607054019323012 0.02876781051466073
3880000000.0 0.04434607877138905 0.010445947343660255
3900000000.0 -0.04336554170454453 -0.04785924312284407
3920000000.0 0.05884333140568899 0.04715234853092399
3940000000.0 0.06821337574115964 0.03423332013574897
3960000000.0 -0.008640842663099748 -0.07021495786818781
3980000000.0 -0.05642705425706851 -0.0033900327643000966
4000000000.0 0.045642440191320695 0.012521509662765409
