!Created with skrf (http://scikit-rf.org).
# Hz S RI R 50.0 
!freq ReS11 ImS11
400000000.0 0.6296476988328189 -0.5775574056474554
420000000.0 0.599085015355647 -0.5676625205033825
440000000.0 0.5900282333754233 -0.565517900901167
460000000.0 0.4026883772886242 0.6835726811611832
480000000.0 0.17338085172433534 0.7498361843342662
500000000.0 0.16777583704548843 0.7416095537516094
520000000.0 -0.11216367806889277 0.7345031373991858
540000000.0 -0.3307377010565602 0.6362375489039928
560000000.0 -0.6483276658611519 0.3153153729853086
580000000.0 -0.6684743401754305 -0.23496176925591708
600000000.0 0.4338880483281985 -0.5207060067037207
620000000.0 -0.0543392026434485 0.6486213143922698
640000000.0 0.3862183813965125 -0.4222434335916935
660000000.0 0.5882916226283073 0.0755351706682911
680000000.0 0.3046268477270903 0.5480387130103864
700000000.0 0.48466478514171024 0.35828815633567
720000000.0 -0.19154791430066267 0.5794839151700246
740000000.0 -0.5408411330670188 0.21389272868693238
760000000.0 -0.5239636377874921 -0.2009369584663188
780000000.0 -0.17155446527099202 0.5096488960018924
800000000.0 -0.3439373364643067 0.4014767242393323
820000000.0 0.3340027417876349 -0.35248466195457223
840000000.0 0.3780411873709309 0.24523678188392442
860000000.0 -0.2701949450171404 0.3252841199805009
880000000.0 -0.10384352403657993 -0.38678083804528696
900000000.0 0.3452535373390663 0.09406171585407896
920000000.0 -0.08543439536350246 -0.3210860954332218
940000000.0 -0.01098269899937363 -0.2993490556685973
960000000.0 -0.23786048023353754 -0.09608545463367814
980000000.0 0.13068351477318207 0.18143319726426207
1000000000.0 0.03166667711515756 -0.20583614313121318
1020000000.0 0.04276347066631537 0.16771293297044468
1040000000.0 0.02926531679717734 0.12883679069306397
1060000000.0 0.10157111482969244 -0.1122041752507821
1080000000.0 0.13259535337842834 -0.06921810587565698
1100000000.0 0.043710725396944115 -0.17309856111581307
1120000000.0 0.09855540497790963 0.2014520112350904
1140000000.0 0.23092846678933668 0.07827241413074111
1160000000.0 -0.1978588487467602 0.18463898468189707
1180000000.0 0.28744077527684575 -0.11668215426006476
1200000000.0 -0.28597593331963206 -0.1679416217173552
1220000000.0 0.1413632605602235 -0.30093852090741857
1240000000.0 -0.269512794899732 -0.2412550552453101
1260000000.0 -0.32893407408760245 0.19027974632279981
1280000000.0 0.27659657388444864 -0.27752288914248735
1300000000.0 -0.14391830742995257 -0.3718894391184422
1320000000.0 0.054400530698575374 -0.3847068391419622
1340000000.0 0.275431557522676 0.28564478701293633
1360000000.0 -0.4030334682942729 -0.020312603158142633
1380000000.0 0.388073638698012 0.09713634264837127
1400000000.0 -0.37800139646570674 0.11513298970466666
1420000000.0 -0.3871868047503831 0.08502635469135972
1440000000.0 -0.05137664457017872 0.3813685159141445
1460000000.0 -0.3757360334967647 -0.010378165358796952
1480000000.0 -0.14816330347284387 -0.34702135136602447
1500000000.0 0.06448605733759798 -0.38007156730090585
1520000000.0 -0.2723557990280595 -0.2811945563066911
1540000000.0 0.2886045928102756 0.27142128826462003
1560000000.0 -0.1893201430555233 0.34441184131715474
1580000000.0 -0.3013118180117637 0.21045389925453542
1600000000.0 -0.3315545099182773 0.06439714267888547
1620000000.0 0.08884558124387121 0.29757573623765454
1640000000.0 -0.27874658191966684 -0.06030290919934698
1660000000.0 -0.23522165033221662 0.10839555295960936
1680000000.0 0.2359913637582964 -0.003483569213793983
1700000000.0 -0.21385459377049784 -0.023644740200184904
1720000000.0 -0.1831896661328094 -0.02967450422847974
1740000000.0 -0.021824795712277287 0.14984338041171713
1760000000.0 -0.12245380705444325 -0.017683396799767798
1780000000.0 0.04546121083145057 -0.07295305012512815
1800000000.0 -0.0036828110277250304 -0.05068985891765755
1820000000.0 0.010483713586128027 0.04986732524260458
1840000000.0 -0.05147743621607472 0.07913718235636749
1860000000.0 -0.13316841965596798 0.05027006634222197
1880000000.0 -0.1209241265870426 -0.13653390066376853
1900000000.0 0.03784966459565948 -0.21874936921406923
1920000000.0 0.1049649091457327 0.24601389493836498
1940000000.0 -0.28472829982941117 -0.06065407670186651
1960000000.0 0.3135127819641601 -0.02190657364147843
1980000000.0 0.09628170028832868 0.3262209136320882
2000000000.0 0.3489211855376541 0.048525023660892674
2020000000.0 0.3458574950243652 0.07869367947894212
2040000000.0 0.27801660712834897 -0.23834898250812775
2060000000.0 0.18612952860455725 -0.3167358477534792
2080000000.0 0.011294996436190106 -0.3646269800637744
2100000000.0 0.36570794628270065 -0.004931428114150434
2120000000.0 0.021738429763346532 0.35626515341586884
2140000000.0 -0.29150897143307886 -0.19082945489547984
2160000000.0 0.3396020399577364 -0.004681060165804525
2180000000.0 -0.31433554636487815 0.09666377047432713
2200000000.0 0.013370941406923834 0.3147808969158785
2220000000.0 0.1482301139327819 0.2627955996225483
2240000000.0 0.280930877135204 -0.07463895552343518
2260000000.0 0.26854856150206546 0.03424268591037421
2280000000.0 0.20375119012547746 0.15468785776493685
2300000000.0 0.21645717257883412 -0.10826868085419333
2320000000.0 0.1489996112970059 -0.168615387621835
2340000000.0 0.13687246680458462 -0.14301317620178738
2360000000.0 0.08647245970215724 -0.1605244482818124
2380000000.0 0.07756278215205957 0.14661613054205344
2400000000.0 0.1178927962613366 -0.09330365809691073
2420000000.0 -0.05371314905478016 0.14505191940833742
2440000000.0 0.15497613730262205 0.04676988154678419
2460000000.0 0.022374300496697946 0.187884528938753
2480000000.0 0.025611541132391336 0.22265098221789975
2500000000.0 -0.21451430791772685 0.14525176598122366
2520000000.0 -0.20181688510818072 -0.21402346640960299
2540000000.0 0.12334951298716464 -0.3068579425955135
2560000000.0 0.35229330254303115 0.08607577600246731
2580000000.0 0.013247633551807532 0.39343544335286745
2600000000.0 -0.4148366854532064 0.015070210703650116
2620000000.0 0.14994463673692662 -0.40775398326281176
2640000000.0 0.43730018118959263 0.10541748700071354
2660000000.0 0.08971367311816916 0.45176796406734254
2680000000.0 -0.2390241029322838 0.40046602070372384
2700000000.0 -0.35257834817319805 0.3137053722018628
2720000000.0 -0.34854385280841604 0.32422318702057373
2740000000.0 -0.3209895261512381 0.3584703248933241
2760000000.0 -0.2763978324223625 0.39880168706006486
2780000000.0 -0.36017146922050713 -0.33231184027803234
2800000000.0 -0.12469811098951551 -0.4780786332432897
2820000000.0 0.39612695159256395 -0.30167029331032397
2840000000.0 0.17502767016915163 0.46763912522006473
2860000000.0 -0.1284930494539563 -0.48274638023118105
2880000000.0 -0.17959414835972395 0.46459440802292995
2900000000.0 0.38764758295254537 0.30811613751270905
2920000000.0 0.48969630988125773 -0.007019045165912638
2940000000.0 0.3467358132794743 -0.3429324051322338
2960000000.0 -0.1456786415922044 -0.46026972507322816
2980000000.0 -0.46596171234651473 -0.10767803531868966
3000000000.0 -0.0022575980718573985 0.4738036419001506
3020000000.0 0.15841260976520277 -0.43841985936540645
3040000000.0 -0.17218640762364867 0.4184599467704929
3060000000.0 -0.06866535958205995 -0.43391735185526764
3080000000.0 0.3778470514163574 0.19869305537969698
3100000000.0 -0.3744853156296812 0.179581160031448
3120000000.0 0.09513125377923191 0.3946300101317228
3140000000.0 -0.13667521356571855 -0.3756143238112868
3160000000.0 -0.09409525618756179 0.3812423471556282
3180000000.0 0.27633028058659065 0.2734440057328809
3200000000.0 0.36505630136814987 -0.12577933683885115
3220000000.0 0.3693942981436538 -0.10598974700769984
3240000000.0 0.37607985041930664 0.01547995222096946
3260000000.0 0.33896910439114697 0.15030108092083927
3280000000.0 0.29056753524148055 0.2079273441098041
3300000000.0 -0.22100300656964786 0.2532371744643774
3320000000.0 -0.1724883144125126 -0.26630488926595486
3340000000.0 0.23339879637712646 -0.17869562286084895
3360000000.0 -0.16396920567008413 0.21348301674533043
3380000000.0 0.24459551566933632 -0.044701689224829165
3400000000.0 -0.22841885055759714 -0.010207564758539617
3420000000.0 0.17035663460865005 -0.13094177587514283
3440000000.0 -0.13080593946530777 0.15604059373968515
3460000000.0 0.016288492855480518 -0.1929643628561167
3480000000.0 0.16526093623255952 -0.09246230735133786
3500000000.0 0.15529574698325802 0.10570626025520033
3520000000.0 0.18553737983971888 -0.020971572157279687
3540000000.0 -0.1930805247491225 0.011739111783465435
3560000000.0 -0.1545086840100023 0.12486070556068414
3580000000.0 0.1897553640369882 0.0821192876439836
3600000000.0 0.1635931868449202 -0.1332324834153438
3620000000.0 -0.010221130291662979 -0.22335404056755453
3640000000.0 -0.05320030783052982 -0.21981366936999386
3660000000.0 0.17085590876735612 -0.15392006677927214
3680000000.0 0.21721164442067467 -0.08335583076856884
3700000000.0 -0.19409359277873742 0.11920947670122868
3720000000.0 -0.020865232909567055 -0.21464898944505817
3740000000.0 0.13528488385592286 0.13884122988680658
3760000000.0 0.17343294477165497 -0.025886305627643835
3780000000.0 -0.1303817905019774 -0.06861916055007433
3800000000.0 -0.06333323275372599 -0.0944895392666387
3820000000.0 -0.014127303264672071 0.08243461909216492
3840000000.0 0.04489604971724664 0.026363596187574213
3860000000.0 -0.03602962487539524 -0.021017464824861058
3880000000.0 0.04243055215890284 -0.01940894672286915
3900000000.0 -0.060427896331717086 -0.02462748420598876
3920000000.0 0.060811365904280136 0.04684421288283555
3940000000.0 0.04073551991787458 0.06433830407813966
3960000000.0 0.021633918795194444 -0.06717258411978311
3980000000.0 -0.05631575308516274 -0.014972966404255219
4000000000.0 -0.007735240759017263 0.04579617532439088
