!Created with skrf (http://scikit-rf.org).
# Hz S RI R 50.0 
!freq ReS11 ImS11
400000000.0 0.11116296212370176 -0.16965377644134008
420000000.0 0.19230698855009462 -0.15585004503700856
440000000.0 0.056605745000029024 0.3164377747260731
460000000.0 0.16603685246770195 -0.272897836486897
480000000.0 -0.08644272837698916 0.3229813309847134
500000000.0 -0.358718502559375 0.1653616097005872
520000000.0 0.43253271283227357 0.05586712575956774
540000000.0 0.3599187826309804 -0.1986558985718343
560000000.0 -0.39387667214834376 0.04758256963623422
580000000.0 -0.07420552166314322 -0.347285447646168
600000000.0 0.2627133411368839 -0.13776720657907962
620000000.0 -0.22143375850187308 0.1548067114771974
640000000.0 0.21627610112076148 -0.173737213662451
660000000.0 0.018847361314759194 -0.20762229531599916
680000000.0 0.11533723051677314 0.1549822963510346
700000000.0 0.04261909204527139 0.1256305794329705
720000000.0 -0.027806525300192137 -0.04642042167465926
740000000.0 -0.03176019453785908 -0.029045145135169013
760000000.0 0.03016298016631219 -0.0666988064477269
780000000.0 0.06447215539322226 -0.011682201017034398
800000000.0 -0.03093860882931067 0.05817992115052669
820000000.0 -0.03831885874863833 -0.09078406029429371
840000000.0 0.0547742185509092 0.09555343269581956
860000000.0 0.059222602649245816 0.12880622585833115
880000000.0 0.07953916634153015 0.1530852726471706
900000000.0 0.14054772473812915 0.09856027736122777
920000000.0 -0.03490209610825284 0.20488361427425533
940000000.0 0.21314850741732982 0.06346684354719913
960000000.0 -0.18132490719755934 -0.17233911345214095
980000000.0 -0.2223432044977009 -0.006361005525946806
1000000000.0 -0.0659136711831156 0.19033007485108447
1020000000.0 0.09935566607840551 -0.18994160462178675
1040000000.0 0.16203907298895975 0.14405362822986478
1060000000.0 0.20080946923903767 -0.02167743530902484
1080000000.0 0.1386955591339678 -0.12721746977722143
1100000000.0 -0.10524772586010726 0.11504923330609232
1120000000.0 0.03685549354489201 0.1148228273266913
1140000000.0 -0.01718710802563153 0.11075670248330588
1160000000.0 0.15049059877574497 0.001232989094304114
1180000000.0 -0.02981408530197942 -0.16778350609666173
1200000000.0 -0.14428291888934144 0.0698903641993633
1220000000.0 -0.08972714361477836 -0.11055160326060481
1240000000.0 -0.025232073685202805 -0.13467898151310426
1260000000.0 0.0723833218407558 0.13645353742176544
1280000000.0 -0.1574741412991181 -0.08337520873977353
1300000000.0 0.1271720964960376 -0.1557697930997735
1320000000.0 0.03400889106281328 0.20938488742859163
1340000000.0 -0.18332438817764074 -0.15116704034256093
1360000000.0 0.16122579554726985 0.17712268944962337
1380000000.0 -0.09010642361291457 -0.20001112174582905
1400000000.0 -0.0776668669100444 -0.21493178367133753
1420000000.0 -0.242563325123782 -0.061201580282787015
1440000000.0 -0.2564730059819087 0.12399167484533155
1460000000.0 0.21490653605519683 -0.20688484224586245
1480000000.0 0.12511149875293903 0.27166757950049564
1500000000.0 -0.23696054164867306 0.1052946358756878
1520000000.0 0.1928348674266838 0.09754732430822124
1540000000.0 -0.1563343543165114 0.03034592357172353
1560000000.0 -0.15277270665070392 -0.038636811148411436
1580000000.0 -0.09754856590991329 -0.1296768308733059
1600000000.0 0.10855026969445994 0.0744218648191818
1620000000.0 -0.07387834133945406 0.04960434283205929
1640000000.0 0.05109974160577246 -0.081611502672149
1660000000.0 0.014563224437778098 0.11194461161675702
1680000000.0 0.025788388226071466 -0.13758613708811324
1700000000.0 0.11221321205273252 -0.13686942036723554
1720000000.0 -0.20875640970207268 -0.057218785358796535
1740000000.0 0.23855546066991073 -0.0841494007886515
1760000000.0 0.2714974461111088 -0.0486311879538896
1780000000.0 0.2571360792944923 0.10841352406915122
1800000000.0 0.04700412412046366 0.2633154832559033
1820000000.0 0.18720479751048832 -0.21895855419810492
1840000000.0 0.3036874084932971 -0.0715365996193186
1860000000.0 -0.28342548815432633 -0.17321406849219897
1880000000.0 0.28232959866663754 -0.1446063870362951
1900000000.0 0.19057386395198092 -0.21252138882706953
1920000000.0 -0.23155256032522914 0.11722228931594166
1940000000.0 0.05951764844885275 0.24081575879814257
1960000000.0 -0.24863991873773478 -0.008622835117608287
1980000000.0 0.24131249682474182 0.019739985953058824
2000000000.0 -0.18096614812361234 0.11863092099965186
2020000000.0 0.13051372290412752 0.13416405070635554
2040000000.0 -0.1609768367411728 0.02308708622964419
2060000000.0 -0.06436847401800741 -0.13409846538438394
2080000000.0 -0.1357959034883806 -0.041486300760338116
2100000000.0 -0.10802347159792244 0.06739294860168796
2120000000.0 -0.07527384741426889 0.0855687641018919
2140000000.0 0.01330403054690273 0.11094401645405733
2160000000.0 -0.1060958284314719 -0.022283798045579502
2180000000.0 0.10130027929861661 0.02513311536606033
2200000000.0 -0.09088346943867565 0.059526114618440124
2220000000.0 -0.10447889323904741 -0.05043803599448035
2240000000.0 0.08627239277037131 0.09836823844828478
2260000000.0 0.13420784278674794 -0.08894627357779565
2280000000.0 -0.17641472145688641 -0.03456688536857855
2300000000.0 -0.08204085925271051 0.15856318833493366
2320000000.0 0.1259952373040704 -0.1262360207808853
2340000000.0 0.12160634957515569 0.1297384335546923
2360000000.0 -0.17804305655026548 0.012709018954493428
2380000000.0 0.1645119839606805 0.07542994504299902
2400000000.0 0.03191331947243228 -0.16508425559246925
2420000000.0 0.13521939837706715 0.07326816232177545
2440000000.0 0.02728728646272948 0.1328546544435811
2460000000.0 0.08904615876949303 -0.06337130953035158
2480000000.0 -0.06176898031207601 -0.06348043467058172
2500000000.0 0.07027771508828172 -0.047345274740785454
2520000000.0 -0.0884442903673344 -0.01417786445919782
2540000000.0 0.04490528634726164 0.08457048047776473
2560000000.0 0.10056809942805699 0.019107537363881582
2580000000.0 0.0005833680842114335 0.10108516989276342
2600000000.0 -0.10106420897109153 0.0026708961573168517
2620000000.0 0.05376549342813133 0.0787860963811496
2640000000.0 -0.048128093642679164 -0.08293212944285225
2660000000.0 -0.061906933564333626 0.07879061790042219
2680000000.0 0.0582444316892597 -0.08260358622256454
2700000000.0 -0.08857655874665203 0.019226935941638823
2720000000.0 0.07547807478197037 0.025767242448104622
2740000000.0 -0.02643210710581793 0.0709402092932403
2760000000.0 0.061289272142052556 -0.045138026840483514
2780000000.0 0.06004672979537951 0.044960831354293206
2800000000.0 -0.0740553684908678 -0.050822603756506025
2820000000.0 0.007180790964883598 0.10172457926806706
2840000000.0 -0.11703338997024118 0.0031765802116013975
2860000000.0 0.06611547374954499 -0.10472703500159487
2880000000.0 0.10552652627584594 -0.06405113824032115
2900000000.0 -0.09745469745365584 -0.07233154457540629
2920000000.0 -0.14003605854357817 -0.04294041336588025
2940000000.0 0.16273871592334632 -0.06187301241610194
2960000000.0 -0.051104783974900196 0.18646898276445217
2980000000.0 -0.1541280057007081 -0.13890439107160327
3000000000.0 0.17721366030942626 -0.12448441765201071
3020000000.0 -0.15294083418940804 0.16214802859262947
3040000000.0 -0.16344237404494902 -0.17031361253572885
3060000000.0 -0.24013265176657062 -0.014137611641441034
3080000000.0 -0.04044609509515054 0.2406447462579269
3100000000.0 0.04165312911016955 -0.23387475097643107
3120000000.0 -0.2183546854454556 0.05903365733832056
3140000000.0 0.17866310835340402 0.12087082724688955
3160000000.0 0.19629110677283318 -0.06569746313177695
3180000000.0 0.14314564430634216 -0.14799532468082208
3200000000.0 0.14954390494708392 -0.1422417893753102
3220000000.0 -0.020948114283489173 -0.20899915724612858
3240000000.0 -0.16932576703789484 0.13299284651734114
3260000000.0 -0.08070341314818988 0.19230899400902024
3280000000.0 0.15830864598060454 -0.12829903379665344
3300000000.0 -0.04114533912063794 -0.20374156808682917
3320000000.0 -0.21924929559951306 0.022460518173007635
3340000000.0 0.21787544540186893 -0.09184912119054137
3360000000.0 0.05435279062460838 0.23777128185553134
3380000000.0 -0.04894543327529592 -0.23710190782310983
3400000000.0 -0.20453891163018828 -0.1269417189925717
3420000000.0 -0.13926558326539765 0.2034241710800141
3440000000.0 0.25099871380435557 -0.014820470755678647
3460000000.0 -0.2487393756135843 -0.033231172656621503
3480000000.0 0.08354991409060435 0.239118267310141
3500000000.0 -0.11459274935779444 -0.22397229635796545
3520000000.0 0.2435574514611951 0.06431854644373632
3540000000.0 0.08427260431169038 0.22804798778265428
3560000000.0 -0.18060215302568913 -0.14754330401040042
3580000000.0 0.11416830541486404 -0.1994719571369631
3600000000.0 -0.07050961248527364 -0.2173233878251057
3620000000.0 -0.18830465410693378 -0.12003252422818071
3640000000.0 0.02846579647911756 0.2135823656250217
3660000000.0 0.18941377211751106 -0.0894556038408445
3680000000.0 0.03021573463174002 -0.20883387514635685
3700000000.0 -0.16276375789872213 -0.1440216061691243
3720000000.0 -0.22991047845843068 -0.008482029280666653
3740000000.0 -0.2394934106125557 -0.01896786074837537
3760000000.0 -0.22969392358911855 -0.09544903649304612
3780000000.0 0.09447861391060088 -0.23720156291218109
3800000000.0 -0.2516152175993854 0.06687659888867714
3820000000.0 0.06400114915041492 0.26322093914213696
3840000000.0 0.1942019658622374 -0.2070426281326073
3860000000.0 -0.19074897175711608 0.21688786751495395
3880000000.0 0.20139617002004956 -0.19957525948901636
3900000000.0 -0.015699956931531218 -0.27306199753498817
3920000000.0 -0.10747391373460777 -0.2425977294195417
3940000000.0 -0.19420780898458395 0.16746693932776874
3960000000.0 0.08095872922321214 -0.22700175835042663
3980000000.0 0.1919995579732902 0.10200060345384632
4000000000.0 0.1569200642239617 0.10251436660358283
