!Created with skrf (http://scikit-rf.org).
# Hz S RI R 50.0 
!freq ReS11 ImS11
400000000.0 0.17061840097815298 0.0912378874553883
420000000.0 0.23622562504833322 0.02615333372663846
440000000.0 0.24900744273626965 0.19845370000297366
460000000.0 -0.0707547392168445 -0.3103703422664104
480000000.0 0.06584694174749275 0.32412231603226327
500000000.0 -0.22657938929437085 0.3251077152926414
520000000.0 0.4379419259887265 0.004225551402117872
540000000.0 0.31788076799447845 -0.26318337526527374
560000000.0 -0.3789814764338583 0.14200238714787516
580000000.0 -0.13585953670025616 -0.33100554609410193
600000000.0 0.2975117462818547 0.0362882544671309
620000000.0 -0.25141931728298594 0.10371597857436968
640000000.0 0.2560091483769357 -0.11394594719894742
660000000.0 0.213298465345037 -0.00791553371486916
680000000.0 -0.10006494983936345 0.16302613065719201
700000000.0 -0.03854490523631516 -0.12689205010086696
720000000.0 0.041036153833542054 -0.03393074574621606
740000000.0 0.0009116762811317984 0.038801817737863335
760000000.0 -0.056634383132460143 0.042219380638767234
780000000.0 -0.01289918162016961 0.06276997229455385
800000000.0 0.06261284533248156 -0.02165256993533236
820000000.0 0.031950369835079505 0.09142416957379174
840000000.0 0.07420770439135808 -0.07765039417421442
860000000.0 0.11303950964120722 -0.08348748168680487
880000000.0 0.16596510842341358 -0.045616319696265915
900000000.0 0.167862838441874 -0.034732713801386234
920000000.0 0.11744184211036829 0.1714036418928884
940000000.0 0.20363376784514778 -0.09210366599397136
960000000.0 -0.2501762350676824 -0.036258746618670894
980000000.0 -0.20462988626878947 0.0902389994898074
1000000000.0 0.014896451529796994 0.20347390679279706
1020000000.0 0.14125282648874538 -0.16552705190807654
1040000000.0 0.15756626834768847 0.15551087730614202
1060000000.0 0.18438789064091612 0.09175756742114242
1080000000.0 0.18803906279756635 -0.03907981504081477
1100000000.0 -0.13992189515279405 -0.0727209794441843
1120000000.0 -0.11808998646826528 0.02760585511030376
1140000000.0 -0.10229647553758858 -0.04798269988682514
1160000000.0 0.00778470497420177 0.15203267121351727
1180000000.0 0.14783088875316228 -0.08402147407746782
1200000000.0 -0.1490177145986786 -0.06367508638512734
1220000000.0 -0.02183028025171647 -0.1383666224871562
1240000000.0 0.12608850987626796 -0.04510531153085783
1260000000.0 -0.030604925253239636 0.15135588973223651
1280000000.0 -0.10112246122430413 -0.145117067302047
1300000000.0 0.1512249639207923 -0.1284310567313391
1320000000.0 0.022848143793068734 0.2099767692039391
1340000000.0 -0.1961010073563645 -0.12957245595790803
1360000000.0 0.17958798342849192 0.15698710398316068
1380000000.0 -0.14988209343325407 -0.15782600064545296
1400000000.0 -0.07782950250374476 -0.21343247391716486
1420000000.0 -0.24242507860127444 -0.05457262635104416
1440000000.0 -0.19833428754104837 0.20257365544141706
1460000000.0 0.16877028862079343 -0.24498601165045858
1480000000.0 0.10268925616689537 0.28076182569657815
1500000000.0 -0.19817335603818137 0.16665217075858807
1520000000.0 0.21472813414260605 0.042919128563568734
1540000000.0 -0.07509119274789156 0.14060666958724116
1560000000.0 -0.15278435785343752 -0.03443119877060322
1580000000.0 -0.09298686466253811 -0.13380381344584463
1600000000.0 0.11224318567623681 0.07020366985570793
1620000000.0 0.002860799992377304 0.08858666373960158
1640000000.0 0.021997044505209246 -0.09223698947901575
1660000000.0 0.018622308197646553 0.11031343769510776
1680000000.0 0.0694951622763336 -0.11970163062533969
1700000000.0 0.15115462782171288 -0.09014965723104758
1720000000.0 -0.2101096289688082 0.04901292028659647
1740000000.0 0.19679812098624708 -0.1543613294536285
1760000000.0 0.2658731495463351 -0.06994588515031831
1780000000.0 0.2775130682233728 -0.027204639242031498
1800000000.0 0.13933978743363434 0.22868616689515336
1820000000.0 0.05338991847065761 -0.2833127668905989
1840000000.0 0.25136235891889924 -0.18688417233619004
1860000000.0 -0.3141613210765389 -0.10821977502642302
1880000000.0 0.28709763358428125 -0.1385169064636796
1900000000.0 0.17727808623454602 -0.22674240181861094
1920000000.0 -0.19138578168007103 0.1779295829622441
1940000000.0 0.08258007449990544 0.23509237384958012
1960000000.0 -0.2494839996807688 0.008829160976682945
1980000000.0 0.2395633396688732 0.03942085396217761
2000000000.0 -0.18181571175501993 0.1183270195456132
2020000000.0 0.16464416319600822 0.0915515851490512
2040000000.0 -0.13592545570747233 0.09019936742201631
2060000000.0 -0.13703082191108484 -0.05761631730872996
2080000000.0 -0.14204092462573512 0.005544469776944918
2100000000.0 -0.042927322733846626 0.12204819841790193
2120000000.0 0.045018799402299234 0.10603573232486918
2140000000.0 0.09990444536144562 0.05167638338582137
2160000000.0 -0.10007965695766316 0.04630491903006715
2180000000.0 0.1064158693923316 -0.002220477581796506
2200000000.0 -0.021053305804678884 0.10789831159168707
2220000000.0 -0.11318385020163212 -0.03223843654803654
2240000000.0 0.12927573306840157 0.028074612669184165
2260000000.0 0.12462675016932796 -0.10313540604292327
2280000000.0 -0.17573175928636722 -0.04296438420201207
2300000000.0 -0.060106297681270925 0.1689621459394339
2320000000.0 0.08831312882804936 -0.15595485216959434
2340000000.0 0.1267699406969544 0.1260106068954247
2360000000.0 -0.17253335125394698 0.04839617773390853
2380000000.0 0.175883186473323 0.04587329869268796
2400000000.0 -0.006528006610491197 -0.16911802895546185
2420000000.0 0.15090465627222133 0.036628086572038344
2440000000.0 0.04882901314014714 0.12877793968870888
2460000000.0 0.07689097834091622 -0.08006858834432144
2480000000.0 -0.04149927331698257 -0.07995391900790563
2500000000.0 0.07886735869594158 0.033823083514474626
2520000000.0 -0.05632219447415317 -0.07097369131731161
2540000000.0 -0.02299888794399066 0.09338440918611927
2560000000.0 0.0819555471383324 0.06183374270845765
2580000000.0 -0.023449704032469567 0.09892508040070298
2600000000.0 -0.09720406531572977 -0.027042157320643457
2620000000.0 0.02624015118909287 0.09192296015209098
2640000000.0 -0.05192900762993726 -0.08121034563770659
2660000000.0 -0.08332549623026679 0.05575981763434604
2680000000.0 0.07933820303575166 -0.06211222780959516
2700000000.0 -0.08851137461448376 -0.02295019822001592
2720000000.0 0.06891626752822642 0.040638028248842356
2740000000.0 -0.07290390135405467 0.020831781232976104
2760000000.0 0.07638183802488382 0.002142823621386857
2780000000.0 0.046312637087453194 0.05890675071618678
2800000000.0 -0.06722745739244682 -0.05799435861248083
2820000000.0 0.02443971735083597 0.09869146886208645
2840000000.0 -0.11552488678508298 0.012670951917050286
2860000000.0 0.06811062057306806 -0.10286057292665644
2880000000.0 0.09840484581080113 -0.07430497398676753
2900000000.0 -0.11851855055222638 -0.025607611286064095
2920000000.0 -0.1441625295543833 -0.020893334365607107
2940000000.0 0.16857173477293014 -0.03959641568417702
2960000000.0 -0.045952177308447285 0.18736868108624316
2980000000.0 -0.14524145737193306 -0.1487942229080357
3000000000.0 0.12905678355722658 -0.17365007235113944
3020000000.0 -0.1656627799195811 0.14996629076235482
3040000000.0 -0.15880320765393288 -0.17406988029181786
3060000000.0 -0.23879617046410967 -0.023232030598803598
3080000000.0 -0.07832008821954399 0.2310765847441735
3100000000.0 0.0688333890836087 -0.2269166726354082
3120000000.0 -0.22252228373705238 0.03840996941508287
3140000000.0 0.17773866391929594 0.12098684632016246
3160000000.0 0.17083590522608583 -0.11589716646384154
3180000000.0 0.1297085917339654 -0.1604130502736467
3200000000.0 0.11855440861454218 -0.16899929228251231
3220000000.0 -0.12116067165183132 -0.17238924525277646
3240000000.0 -0.12731972190426613 0.17356936410681506
3260000000.0 -0.043096915532984274 0.2043814751243197
3280000000.0 0.1455926579702952 -0.14324034355865858
3300000000.0 -0.07673611824610495 -0.19377889165737347
3320000000.0 -0.21724027109220206 0.04035410789924533
3340000000.0 0.20986024074213577 -0.10981791373432112
3360000000.0 0.050037806952850455 0.239208457030016
3380000000.0 -0.06957205429266013 -0.2328837785474462
3400000000.0 -0.2280899768602928 -0.07829542142860678
3420000000.0 -0.1355484488341388 0.20718476909280856
3440000000.0 0.24462560946129117 -0.06077023221859321
3460000000.0 -0.25150735480435105 -0.004624556323065513
3480000000.0 0.0915338248696008 0.2364943485713674
3500000000.0 -0.14855985942890193 -0.20431943509927275
3520000000.0 0.2526983928745269 -0.0007022316231161292
3540000000.0 0.11100062054994439 0.21707797471279916
3560000000.0 -0.1812604524781247 -0.14672928513365313
3580000000.0 0.07083830599232271 -0.2194236611874953
3600000000.0 -0.0974456016141002 -0.20788361674676809
3620000000.0 -0.2132055774725293 -0.06676593606753621
3640000000.0 0.05980426911710354 0.20749874964398257
3660000000.0 0.17857630322349868 -0.11015430903946775
3680000000.0 0.020036935751964236 -0.20978185550199355
3700000000.0 -0.1808658400551013 -0.12211570689220234
3720000000.0 -0.2307312347529103 0.0031809155494580067
3740000000.0 -0.23832157631409748 0.03482682955566387
3760000000.0 -0.24434623564558974 -0.049798483698375376
3780000000.0 0.04798680747089206 -0.25138178904068986
3800000000.0 -0.24037556972099192 0.10388103175123248
3820000000.0 0.15101801274304 0.22651396365095053
3840000000.0 0.2028613380476869 -0.20165344114777572
3860000000.0 -0.21593750174213233 0.19368952322253513
3880000000.0 0.22431889110973666 -0.17539097565840858
3900000000.0 0.08980270521716925 -0.25935617443227094
3920000000.0 -0.06066828780923521 -0.25893215961018573
3940000000.0 -0.23782866919450424 0.09573868816253193
3960000000.0 0.14576092133305008 -0.19080524370830962
3980000000.0 0.17244923889297906 0.13065602450181352
4000000000.0 0.14297956018079366 0.11994725533327348
