!Created with skrf (http://scikit-rf.org).
# Hz S RI R 50.0 
!freq ReS11 ImS11
400000000.0 0.2019242778200176 -0.8282525204316984
420000000.0 0.22071030566347033 0.7522285212884396
440000000.0 0.772472614098438 0.07984539252660731
460000000.0 0.2629432827706053 0.5937604040077645
480000000.0 -0.5030983779514298 0.3989993985978974
500000000.0 -0.532762137540389 0.2839421635219595
520000000.0 0.62392408979686 -9.009133227743834e-05
540000000.0 0.11244240837491104 -0.5743555825322088
560000000.0 0.3552554807729873 0.4536999998004747
580000000.0 0.5795989722494516 0.08695632488264234
600000000.0 0.613436148163504 -0.0647019240942916
620000000.0 0.6092408938455658 -0.08075455860568104
640000000.0 0.5429585329400813 -0.19358236945822635
660000000.0 -0.4059480028671574 -0.3609740246089756
680000000.0 0.20897166044343446 -0.47046610379536274
700000000.0 0.24285130418481418 0.45001050124785097
720000000.0 0.47524434126579546 -0.22307955943691202
740000000.0 -0.0935732424591813 -0.46908829165699556
760000000.0 0.1216728559047357 0.4421704771642521
780000000.0 -0.20740789416290095 0.3960839624381853
800000000.0 0.22567167420351741 0.33618078970302795
820000000.0 0.22890916199244882 0.27960255888146096
840000000.0 0.1889933253920394 0.2719311654861236
860000000.0 -0.3186704431816367 -0.00882076860796077
880000000.0 -0.18041645268026188 -0.22227828110375739
900000000.0 0.07787360540338517 -0.2664959365712049
920000000.0 0.19761193804678306 0.17279357328007858
940000000.0 -0.013030648220933484 0.2187084572796121
960000000.0 0.17823714841115598 0.01766466419156926
980000000.0 -0.14311942243409326 0.04177072321331758
1000000000.0 0.07359522778464755 0.10584526545673019
1020000000.0 -0.10966301981897719 0.025157676195815562
1040000000.0 -0.06162516888478268 -0.12331802443802571
1060000000.0 0.10292313110917668 0.12493948450300922
1080000000.0 -0.16546584449987148 -0.1234146831333032
1100000000.0 -0.2370891670792029 0.04220649497753053
1120000000.0 -0.2573848693619171 0.12802413259523826
1140000000.0 0.2930611270832793 0.045542646564396265
1160000000.0 0.12038022415710552 0.30069904289704597
1180000000.0 0.30865973537000435 0.1477885508336821
1200000000.0 0.06544299317854085 0.33252010574767416
1220000000.0 0.11127581895138634 -0.3397803259101486
1240000000.0 0.04419903667512163 -0.37182631042079384
1260000000.0 -0.3784905222230121 -0.042053039032003504
1280000000.0 -0.19954406620428988 0.30993066627921795
1300000000.0 -0.16454822170824612 -0.3242365714230604
1320000000.0 -0.24135206586285002 -0.27519543681542524
1340000000.0 -0.32731405252383616 0.13974559914359463
1360000000.0 -0.30648377864142184 0.20438397677800224
1380000000.0 -0.36071821576191876 -0.13749680886807725
1400000000.0 -0.15828357938022466 0.3415891220811588
1420000000.0 -0.11045521356916543 0.36934937276441293
1440000000.0 0.3407018784542698 0.18632279330202944
1460000000.0 0.347371110370493 0.1843500176078318
1480000000.0 0.3570797182160846 -0.1918408669448288
1500000000.0 -0.383209970043338 0.13041160342550878
1520000000.0 0.14392876259674295 -0.36489874845761544
1540000000.0 -0.01682060867486162 0.3706973213650851
1560000000.0 -0.3347821326680156 -0.013779398598911021
1580000000.0 0.29293237755243456 0.05937070800122996
1600000000.0 0.03360056949088996 0.26899279931482944
1620000000.0 -0.04336675510734453 0.22589800292112266
1640000000.0 0.03649946384076795 0.1930715925805845
1660000000.0 0.17758047348009467 0.010759731328919024
1680000000.0 -0.003712097289168888 -0.14433709654348784
1700000000.0 0.03657999957667945 -0.11440828649566641
1720000000.0 -0.010434267980132443 0.09035832709667899
1740000000.0 -0.007912209949445161 -0.0776158948983316
1760000000.0 0.006572560366277164 0.07806225457867386
1780000000.0 -0.024057155605251585 0.09629835749984075
1800000000.0 0.07080721565278363 0.10041714663616035
1820000000.0 0.05577163002622435 0.14098104762936828
1840000000.0 0.02624557597178959 -0.1838357862026632
1860000000.0 0.2218287905447317 -0.03537042163800352
1880000000.0 0.18827638968763594 -0.17218891384776727
1900000000.0 -0.14681647279204885 -0.24133142751874478
1920000000.0 0.3045158922215989 0.039914495992286005
1940000000.0 -0.31563372572687 0.011107748480434793
1960000000.0 0.29068998615557146 0.1228600526877435
1980000000.0 -0.31353688729193685 0.08989806242495864
2000000000.0 -0.23835006260041183 -0.2241879019007776
2020000000.0 0.2876730998476261 -0.15156213870463334
2040000000.0 0.2725995891418344 -0.18744961004695276
2060000000.0 0.2547067201627394 -0.20164747347870549
2080000000.0 0.2898311701399689 0.14231565399438031
2100000000.0 -0.26302146307599705 -0.1707498917472451
2120000000.0 0.17759154758588327 0.24986964765305444
2140000000.0 -0.04576344228629079 -0.30630236260967453
2160000000.0 -0.12292268136222655 0.2762009861831065
2180000000.0 0.2606140324010454 0.1365461600378086
2200000000.0 0.2891037788074331 0.014266351662797699
2220000000.0 0.17263206011708998 -0.2257253114265997
2240000000.0 0.26490726275425286 0.056592773567033336
2260000000.0 -0.2454581724570593 0.07539995508472463
2280000000.0 -0.2183285420870142 -0.12838699889353883
2300000000.0 0.14609048009591585 -0.1880734351468734
2320000000.0 -0.2009783437344057 -0.1121297436347409
2340000000.0 0.1740256133547651 0.14736971608410998
2360000000.0 -0.0058764846311174365 -0.23589599791297344
2380000000.0 0.2443691503778984 0.03719542443689079
2400000000.0 0.2612397542185157 -0.07603117517077952
2420000000.0 -0.29567166001230716 -0.0277329082047022
2440000000.0 0.1323633416672834 0.28446134948414975
2460000000.0 -0.2723227472038237 -0.2150693985866432
2480000000.0 -0.017224614455565158 0.37375897548559733
2500000000.0 -0.3244356782765225 -0.24527456471404357
2520000000.0 0.35872082195426636 -0.26025472251676157
2540000000.0 -0.04152619867984288 0.47176857364456276
2560000000.0 -0.2501553011487986 -0.4363370577444007
2580000000.0 0.2882878789626819 0.4428080450560904
2600000000.0 -0.2741056675981789 -0.4810985232768226
2620000000.0 0.20525670151516776 0.53745457397743
2640000000.0 -0.1537589564957176 -0.5748026116062176
2660000000.0 0.32513030498160683 0.5214738908352412
2680000000.0 -0.6282973132818349 -0.04247514823091359
2700000000.0 0.12670412311953833 -0.6314853124395747
2720000000.0 0.5818407817728513 -0.29921883828207274
2740000000.0 0.6211620366590322 -0.23011231158767076
2760000000.0 0.6549180942670287 -0.1318872727847195
2780000000.0 -0.015667527741287067 0.6660558323488255
2800000000.0 -0.25029684305696137 0.6101982044206862
2820000000.0 -0.5784511638671205 0.2956977352002405
2840000000.0 -0.4413365598782771 -0.4613996662700919
2860000000.0 0.6231994981143725 -0.013447538788025707
2880000000.0 -0.6036327847922123 0.023285342209290093
2900000000.0 0.3759918770940301 0.4463521265180338
2920000000.0 0.3137534262825828 -0.46137122646277223
2940000000.0 -0.10216095976624025 -0.5177712795073262
2960000000.0 -0.3319628507073117 -0.3755099761380662
2980000000.0 -0.38953706139305005 -0.26915271439667626
3000000000.0 -0.3111586595905058 -0.3284048977321807
3020000000.0 -0.3842619030305371 -0.18673616749558786
3040000000.0 -0.4015030637354354 0.08403997735914134
3060000000.0 0.2046544603368368 0.34179557744631106
3080000000.0 0.3554789659300252 -0.14405459751305724
3100000000.0 -0.11103034243510347 0.35584826076159165
3120000000.0 0.2014686613460474 0.3027015158604208
3140000000.0 -0.2810036663435024 -0.22612043011390784
3160000000.0 0.35188461381995667 0.022789105958981305
3180000000.0 -0.07910324688687957 -0.34492106486392854
3200000000.0 -0.02098513308889925 0.35181644873136414
3220000000.0 0.33967794004498947 -0.07440259882035422
3240000000.0 0.11228357629813156 -0.3231603332071789
3260000000.0 -0.23267035770633393 -0.24334124969009696
3280000000.0 -0.22612341399684074 0.2340108147389239
3300000000.0 -0.033755245848853206 0.3028783936960532
3320000000.0 0.05533670799045628 0.2756460416562572
3340000000.0 0.20087321988940623 0.1479720884854516
3360000000.0 -0.10665820645394145 0.1909334891984506
3380000000.0 -0.04635508402731456 -0.18782947493115365
3400000000.0 0.04658229170317806 -0.15762674254332665
3420000000.0 0.13316584577162027 -0.03495781342518562
3440000000.0 -0.11189057182709215 -0.01924434318542376
3460000000.0 -0.06965097382656228 0.0636585441748346
3480000000.0 0.01510283096647767 -0.08356612833070468
3500000000.0 -0.04855412777376159 0.06579123402705449
3520000000.0 0.057206105956642224 0.05821440103571257
3540000000.0 -0.08969690656770468 -0.024274279445750033
3560000000.0 0.08843400494277953 0.047534578697142796
3580000000.0 0.10039401586032148 -0.038278806351617
3600000000.0 0.018549527165859895 0.11979366062127451
3620000000.0 0.12530150633290613 0.020275904664912827
3640000000.0 0.13061870221123828 -0.06249118483456654
3660000000.0 -0.11123436489611542 -0.10149929931586765
3680000000.0 -0.14736418724663908 -0.04637880893815783
3700000000.0 0.01818238480294313 0.1444268169288134
3720000000.0 0.12384238740805403 0.023076585154573573
3740000000.0 0.08558656259291465 0.05377845499487831
3760000000.0 0.04764053415805256 -0.06079596988385169
3780000000.0 0.05209345024762718 -0.013235185913069861
3800000000.0 0.01775030300808122 0.0164662190908579
3820000000.0 0.008003926062313548 -0.01401878891751379
3840000000.0 0.046979324192278564 0.024750974185008347
3860000000.0 -0.07460737356385667 -0.03367233815006629
3880000000.0 0.1033073274455029 0.0009181339627849455
3900000000.0 -0.09713627844609418 0.08179082320102118
3920000000.0 0.09968895999392946 0.09607429629585955
3940000000.0 0.054993635725920295 -0.14291273249875594
3960000000.0 0.1252122399449334 0.0890039112342711
3980000000.0 -0.1423550282446187 -0.0011808811424120743
4000000000.0 0.07142444556394308 0.09140617187884284
