!Created with skrf (http://scikit-rf.org).
# Hz S RI R 50.0 
!freq ReS11 ImS11
400000000.0 0.19352293172250748 -0.8301468149423716
420000000.0 0.20286427008337937 0.7569667496248313
440000000.0 0.7615888905080787 0.1484301405918027
460000000.0 0.344807102076205 0.5518358484241008
480000000.0 -0.4628949307435616 0.44393963177117335
500000000.0 -0.5454277800200753 0.25762190455769635
520000000.0 0.6216522938283623 -0.061178165400927575
540000000.0 0.20189345376873433 -0.5500491963437261
560000000.0 0.39042570702257784 0.4260822993705839
580000000.0 0.5852946568394896 0.033797183997208095
600000000.0 0.6080397639710753 -0.1066421095205016
620000000.0 0.6089807794740346 -0.06327039759775861
640000000.0 0.5657097016438113 -0.10927489472490351
660000000.0 -0.3090538283215831 -0.44813423335215197
680000000.0 0.10732613227321679 -0.5089201901614354
700000000.0 0.37840797483982774 0.33798769530482486
720000000.0 0.5159651413742673 0.06312764493972926
740000000.0 0.21054677041536937 -0.433801975331823
760000000.0 0.27704432658635697 0.3723319825402809
780000000.0 0.2806864060984113 0.3450708815212776
800000000.0 0.05752132803211991 0.39342649650712147
820000000.0 -0.18172747735753422 0.31632585853189804
840000000.0 0.23313642766964351 0.24577234772031795
860000000.0 -0.11240889720386356 0.29943758833760675
880000000.0 -0.17024925121710596 0.21469133446996053
900000000.0 0.24912243200014994 0.1274324257308793
920000000.0 0.23534592914884248 0.1349717507794176
940000000.0 0.2051780670557852 0.07646030932370566
960000000.0 0.12139642342872355 -0.13008245665725804
980000000.0 -0.013186270247104132 -0.1461732462773725
1000000000.0 -0.045065693579811 0.12290118193592693
1020000000.0 -0.03853230474785482 0.10814705201803353
1040000000.0 -0.10656445053029164 -0.08634348897730268
1060000000.0 0.008758288691984936 0.1600643781176228
1080000000.0 0.05123656902019793 -0.2002665849607979
1100000000.0 -0.23260925584228198 0.07208218321684741
1120000000.0 -0.07304047899024352 0.27614731985972407
1140000000.0 0.27588560325855255 0.09560872521186049
1160000000.0 -0.13209861959560795 0.2991050859988111
1180000000.0 0.34347720973400353 -0.025232609423849844
1200000000.0 0.19791488979877203 0.2735951257327401
1220000000.0 0.23036489688284945 -0.2702698149631148
1240000000.0 0.08169943701346347 -0.3662122652522323
1260000000.0 -0.38379484825975735 0.01535270089982236
1280000000.0 -0.14945488584163458 0.3347431169601781
1300000000.0 -0.1583589406602128 -0.3252992885175027
1320000000.0 -0.055418379072635436 -0.3634010524709207
1340000000.0 -0.31094823910629793 0.17888506053431474
1360000000.0 -0.21461240477912089 0.29676552310438487
1380000000.0 -0.30775090993267695 -0.23196089001465237
1400000000.0 -0.2110230452477377 0.31380663039460227
1420000000.0 -0.006221453262449241 0.38601461786856556
1440000000.0 0.3244592791745736 0.2110382306588056
1460000000.0 0.35119636753708716 0.17686369552303313
1480000000.0 0.34783579415977195 -0.20658261737294795
1500000000.0 -0.37035238002732007 0.16200511106814836
1520000000.0 0.07391614236364169 -0.38540444895467746
1540000000.0 0.012823019378523046 0.3698611615521468
1560000000.0 -0.32803305884462247 -0.07148035868494636
1580000000.0 0.2938559507722777 0.055682360485713615
1600000000.0 0.05959079711889181 0.26321764383970486
1620000000.0 -0.11686011781567995 0.19815337794108298
1640000000.0 0.07895859308459684 0.1812047449973991
1660000000.0 0.16065806720986936 -0.07418632293464118
1680000000.0 0.07725177477231397 -0.12127999802804829
1700000000.0 0.08012008044840362 -0.0920335838838745
1720000000.0 0.06839499714073885 0.060467095742311905
1740000000.0 -0.042743962600748926 -0.0638206260145677
1760000000.0 -0.03911520043127157 0.069273674127226
1780000000.0 0.057515704681261104 0.08249784047561069
1800000000.0 0.059125268483891956 0.1059849595619468
1820000000.0 -0.02649963062518937 0.1504731850197872
1840000000.0 -0.037459475101257175 -0.18237991130129766
1860000000.0 0.2119044415409595 -0.07310527191512785
1880000000.0 0.219824469186982 -0.12949286556425815
1900000000.0 -0.19033173052337204 -0.20879639858195415
1920000000.0 0.3020280448583417 0.05712080555592384
1940000000.0 -0.31395049074203624 -0.027851158883788363
1960000000.0 0.2768116135861275 0.15233038002467464
1980000000.0 -0.2869286791509005 0.15604676080145927
2000000000.0 -0.2304790074811831 -0.22981659692285752
2020000000.0 0.3042711010113742 -0.1150251541592531
2040000000.0 0.2807370779418734 -0.17699059749511153
2060000000.0 0.21373358432711967 -0.24497557785329763
2080000000.0 0.25136749362629757 0.20104357889172714
2100000000.0 -0.24540317858896796 -0.19570799014291268
2120000000.0 0.19725349126403866 0.23616287161368982
2140000000.0 -0.05431775655808349 -0.3041114657992542
2160000000.0 -0.14037841186819783 0.2674822426387539
2180000000.0 0.24230530898520153 0.1666193156974721
2200000000.0 0.2888881957822327 0.017011422005486963
2220000000.0 0.17262993379265065 -0.2257871481950798
2240000000.0 0.2548645898382327 0.09259347684558716
2260000000.0 -0.23018063475643052 0.11293924454719043
2280000000.0 -0.19376089833812768 -0.1632940531934613
2300000000.0 0.12311642720198916 -0.20460825137842012
2320000000.0 -0.1849799643549668 -0.13676729200656937
2340000000.0 0.1769539223720175 0.14238649580418014
2360000000.0 -0.011644436847063386 -0.2356875150900354
2380000000.0 0.24614810297029077 0.028568488332839304
2400000000.0 0.24210959600115609 -0.12128921840607841
2420000000.0 -0.25549405221818655 -0.151042622562301
2440000000.0 0.11191211572844534 0.29452475017223495
2460000000.0 -0.2834488829789188 -0.19907474450095772
2480000000.0 -0.0824999560617907 0.364541518675973
2500000000.0 -0.30522031182469994 -0.26923599985001395
2520000000.0 0.34086602988920883 -0.28358247307464834
2540000000.0 -0.05473995134484659 0.4704407692001357
2560000000.0 -0.2592822268732362 -0.43070425553420294
2580000000.0 0.29662745720553674 0.4375338610269279
2600000000.0 -0.2593296477779339 -0.4892542856657905
2620000000.0 0.20638911877362218 0.536497936260528
2640000000.0 -0.17743987007109108 -0.5678130435404766
2660000000.0 0.3187455874562925 0.5256148964662467
2680000000.0 -0.6299414832756186 -0.0022828814172395065
2700000000.0 0.04581854234907235 -0.6418158616192216
2720000000.0 0.518697364941004 -0.39893197863396984
2740000000.0 0.6529755556610882 -0.1124536786319499
2760000000.0 0.667014548836038 -0.01142807705468273
2780000000.0 -0.04565543806682068 0.6646644739328822
2800000000.0 -0.21046080626147776 0.6251835682168815
2820000000.0 -0.5816789316757484 0.28917943836712545
2840000000.0 -0.42766065058547525 -0.4737265077807327
2860000000.0 0.6224157835164488 -0.023436401801572793
2880000000.0 -0.6027420691907001 0.03576861196698684
2900000000.0 0.3723071902674379 0.44947612755797234
2920000000.0 0.2864003427417069 -0.4785337196487005
2940000000.0 -0.13972826067818017 -0.5091692449112037
2960000000.0 -0.3246358794593143 -0.38263902948731565
2980000000.0 -0.3787947013294271 -0.28217962942217284
3000000000.0 -0.29693651154108675 -0.3422695347768627
3020000000.0 -0.3813981025722453 -0.19192430118912318
3040000000.0 -0.37309940809791814 0.17004682454153144
3060000000.0 0.1610008230863664 0.364008976013231
3080000000.0 0.33567798000704435 -0.18529965332380996
3100000000.0 -0.10840366840474112 0.35673592767639906
3120000000.0 0.16547650414156737 0.32345546525534363
3140000000.0 -0.30587382478968667 -0.192128763727707
3160000000.0 0.34626589318417345 0.07069927041919753
3180000000.0 -0.1194760520193097 -0.33317548812750364
3200000000.0 -0.02429430621003961 0.35071694990960284
3220000000.0 0.3440910140703797 -0.052284665495877784
3240000000.0 0.005487209552825698 -0.34169683009954677
3260000000.0 -0.24794045148639468 -0.2277742909480564
3280000000.0 -0.2470663556186281 0.21118597287040414
3300000000.0 -0.09245576891876511 0.29178417026149506
3320000000.0 0.039885155659722116 0.2788514862753732
3340000000.0 0.22013189943339073 0.11740596121255976
3360000000.0 -0.172241512069062 0.134848202871237
3380000000.0 -0.06146456362449444 -0.18357880336415955
3400000000.0 0.07038469407755707 -0.14880171267943967
3420000000.0 0.13693011751434142 -0.009175325924886096
3440000000.0 -0.10430033928748952 -0.044991564197349496
3460000000.0 -0.07513526449308222 0.05841399241285771
3480000000.0 0.017797639067364614 -0.08253632363601156
3500000000.0 -0.07275596808071123 0.038582354362957136
3520000000.0 0.056926530985207655 0.05828288301714254
3540000000.0 -0.08497333294989876 -0.03419176010063593
3560000000.0 0.04214081800084788 0.09028901778091188
3580000000.0 0.0999188666807834 -0.04221534706668114
3600000000.0 0.09914958329923895 0.06922380204980501
3620000000.0 0.12501022790727495 0.013942472404015409
3640000000.0 0.14511094849851588 -0.002618937695515428
3660000000.0 -0.10074336775992891 -0.11271729923938321
3680000000.0 -0.1481183808002031 0.043426582915606
3700000000.0 0.02731497715273191 0.14257549598556593
3720000000.0 0.09138581599563131 0.08678106383101089
3740000000.0 0.08279408575379034 0.05944696724850471
3760000000.0 0.04123396885050533 -0.0647049116106861
3780000000.0 0.0505026214290011 0.01835103934730591
3800000000.0 0.02334228902762605 -0.005184403929234612
3820000000.0 -0.009870523317153396 0.012234070979647535
3840000000.0 0.04963839887277985 0.016518282283514225
3860000000.0 -0.06003415876335625 -0.05596457403323862
3880000000.0 0.10088710217278853 0.02705845165953135
3900000000.0 -0.06191358019777047 0.11028621290882357
3920000000.0 0.10473752943915288 0.08990157804708826
3940000000.0 0.15274723451479835 -0.016143263883457687
3960000000.0 0.08203438667737299 0.13031012682474885
3980000000.0 -0.13262622250001213 -0.05071124993672662
4000000000.0 0.047330739315440615 0.1035104096567991
