!Created with skrf (http://scikit-rf.org).
# Hz S RI R 50.0 
!freq ReS11 ImS11
400000000.0 -0.8582499528641705 0.05466825749288306
420000000.0 -0.050347015784045185 0.8378999577598294
440000000.0 0.6017035266882929 0.502458350454462
460000000.0 0.010052588608923682 0.7188410276626035
480000000.0 -0.599069666053824 0.26443161954293937
500000000.0 -0.5775426789322756 -0.13415899577496973
520000000.0 0.513983724942436 -0.07239323609498538
540000000.0 0.2704163564995447 -0.3746764498387124
560000000.0 -0.13648116643258026 0.4188817038649498
580000000.0 0.0861440711123761 0.38662859587625437
600000000.0 0.03603461731669029 -0.36950550735907184
620000000.0 -0.16797667478605893 -0.32601256206400625
640000000.0 0.38662435726163114 -0.15262133339882078
660000000.0 0.3117596043043859 0.3269173437426263
680000000.0 -0.30729205548467264 -0.34587789437352673
700000000.0 -0.08642276907928675 -0.4464740212839948
720000000.0 0.20732976606518372 0.3812381066316982
740000000.0 0.38452395677970014 0.04629680182124819
760000000.0 -0.3094577631156497 0.1472984850592825
780000000.0 0.31496831161083605 0.037568500997005615
800000000.0 -0.2311449212083258 -0.1681528727207209
820000000.0 -0.14975130985761714 -0.1778537243664064
840000000.0 0.16378789520022444 0.09880906122749666
860000000.0 0.06832133241084731 0.13350211191626396
880000000.0 -0.043273839294142386 -0.10935296625627043
900000000.0 0.017592266044472945 0.09191240386879908
920000000.0 -0.06800340288923772 0.008814231397554204
940000000.0 0.04748417900843728 -0.03104548499406935
960000000.0 -0.006728098837062604 -0.06543184086848931
980000000.0 -0.05475053325409562 0.05654222919630883
1000000000.0 -0.07491281591866755 -0.04946932955234212
1020000000.0 0.10698838557362167 -0.022763881183445547
1040000000.0 -0.00751739442922701 0.13109493449149168
1060000000.0 0.029289818014036552 -0.15916212690051237
1080000000.0 -0.1453883435427306 0.12454578820205615
1100000000.0 0.14741293921664647 -0.16900018842430742
1120000000.0 -0.21461714114586303 0.1407529023410446
1140000000.0 -0.23713330195296556 0.14922333867358561
1160000000.0 0.23417535287077237 0.18637162808584656
1180000000.0 0.3100334458956463 -0.04252256095338081
1200000000.0 -0.2326565096009284 -0.21427676568662787
1220000000.0 -0.2996421875543944 -0.15866729207874006
1240000000.0 0.27230583324677204 0.25190789873297775
1260000000.0 0.02016511244755765 -0.39249914307985245
1280000000.0 -0.39860613513865617 -0.0067667414577975
1300000000.0 -0.3994921170051618 0.021956038367413305
1320000000.0 -0.39089209855089324 0.10879929080261858
1340000000.0 -0.0840007518702677 0.40381014099130047
1360000000.0 0.3617191633744613 0.19904117489926162
1380000000.0 0.4038080825525505 0.016920941051557222
1400000000.0 0.13763187462962534 -0.36885829577913504
1420000000.0 -0.36316199541506056 -0.09481937106037354
1440000000.0 0.29153064929507 0.19559045283498397
1460000000.0 -0.13542488913494855 -0.28372371172309885
1480000000.0 -0.0660647527962894 0.27108565505365695
1500000000.0 0.20435943505166912 -0.1269746053042068
1520000000.0 0.11148456099586221 -0.17371175516558074
1540000000.0 0.036002230238413944 -0.1643459358761436
1560000000.0 0.0008425291089422834 -0.14127522216621527
1580000000.0 0.06438515513084461 0.09745278734926423
1600000000.0 -0.08932800253241682 0.003721000125374707
1620000000.0 -0.06404467080418066 -0.016016331247558482
1640000000.0 -0.0384316669538261 -0.01881405984750107
1660000000.0 0.010520625008739678 0.01417464855926383
1680000000.0 -0.012295514554287833 0.005347398747907272
1700000000.0 0.018559419105057255 -0.01465871084697317
1720000000.0 0.01313689407626506 0.02630345699011263
1740000000.0 -0.043514468002358336 0.009715746337481094
1760000000.0 -0.020675482855077577 0.06233231512504543
1780000000.0 0.02423218351463559 -0.09760634464759263
1800000000.0 0.10148781625333372 0.10317663277245923
1820000000.0 0.09389182414157586 0.1524278123524968
1840000000.0 -0.21562483794259762 -0.042940570461366526
1860000000.0 -0.09134408280713299 -0.23542826529145053
1880000000.0 0.24853666712452743 -0.15061776673573662
1900000000.0 -0.04450026689259891 0.3158572651061079
1920000000.0 0.05989302024304524 -0.34421374217542494
1940000000.0 -0.2009881314409923 0.3142460310253085
1960000000.0 0.3868471966280986 0.020410313536168876
1980000000.0 0.20917540055668177 -0.33822275722373735
2000000000.0 0.01872265252161273 -0.40840394579064987
2020000000.0 -0.23622279376629854 -0.34771804433607034
2040000000.0 -0.36911721279655685 0.22115610783398135
2060000000.0 0.2961892079386939 0.3110663897431605
2080000000.0 0.2821145747815099 -0.313625394188242
2100000000.0 -0.19619664018382174 -0.35626169788640927
2120000000.0 -0.3758114621943131 -0.10533882915805644
2140000000.0 -0.35740030211087276 -0.09522791449306822
2160000000.0 0.20627034821157786 -0.2859014257558949
2180000000.0 0.30850525400718687 -0.13198807681757155
2200000000.0 0.3245192897518759 0.027699238665477355
2220000000.0 0.27014462099388 0.1704252424649056
2240000000.0 0.30224103799675306 -0.09481922012745493
2260000000.0 0.10704989285458781 -0.2969263838228539
2280000000.0 -0.12480772401779866 -0.2959642139483255
2300000000.0 -0.3124286287557141 -0.13726130458178812
2320000000.0 -0.09803201331680793 0.3618894558955133
2340000000.0 0.17289761487408056 -0.3821807595466822
2360000000.0 0.08019629595467198 0.4584618690597741
2380000000.0 -0.46115866243942416 -0.2318599251262976
2400000000.0 0.482047192524367 -0.29051318774872203
2420000000.0 0.28292782007011147 0.5320851341408606
2440000000.0 -0.4904680456862997 0.4059374631411532
2460000000.0 0.03568924838736272 0.6594716388190968
2480000000.0 -0.6039325469653862 0.3346141608749351
2500000000.0 0.6994427181816475 0.06607450496456597
2520000000.0 0.4821120350957839 -0.5225186876755934
2540000000.0 -0.6695494522286152 -0.2587434395218745
2560000000.0 0.04682671936055617 0.7168510994475972
2580000000.0 0.27380812614510014 -0.6452995182937751
2600000000.0 0.22438372849058796 -0.6266129946810011
2620000000.0 -0.6447329367547224 0.05915649129186728
2640000000.0 0.42249916681257627 -0.4575040014920839
2660000000.0 -0.48476667841791743 0.32740198007690074
2680000000.0 0.5351339382218081 0.07312786611867905
2700000000.0 0.1665718312685908 -0.4653502451445604
2720000000.0 -0.44013768102907835 0.10486330872937086
2740000000.0 0.41598869532150234 -0.050720020211070256
2760000000.0 -0.2509680035399849 0.30128584642506945
2780000000.0 0.056688881564754656 -0.36905790882495165
2800000000.0 0.27183797755321104 0.24350242775058584
2820000000.0 -0.1591641401697888 0.33562312412980766
2840000000.0 0.059731426674852386 -0.357226605595193
2860000000.0 -0.3466630320237356 -0.03678942970134167
2880000000.0 0.3189213782305407 0.1385349494997734
2900000000.0 0.3416509813680865 -0.026110423141190886
2920000000.0 0.009244450419300498 -0.34439089366319026
2940000000.0 -0.24314434148397632 -0.24910956211802213
2960000000.0 -0.3116067689399486 -0.16949355063825308
2980000000.0 0.0987738485166984 -0.33894676632986215
3000000000.0 0.07937270455034019 -0.3634387744066904
3020000000.0 0.27839527741714737 -0.2530903734808341
3040000000.0 0.10284523963019747 0.3622112500912964
3060000000.0 -0.35572154339588846 0.029988588992170127
3080000000.0 0.3072082650939197 -0.16652722239025555
3100000000.0 -0.006886888857421178 0.3355161845969119
3120000000.0 -0.31798938178355923 -0.05162616233635517
3140000000.0 -0.07168286715099088 -0.2951926997151198
3160000000.0 -0.11869818486084838 0.26521793941919247
3180000000.0 -0.0656049458744976 -0.2562659831208948
3200000000.0 0.03945363414618019 -0.2437823001902435
3220000000.0 0.19172699804257617 -0.12460996652693096
3240000000.0 0.19774346043574947 0.046845440236036026
3260000000.0 0.08233360182119508 0.13589838591215792
3280000000.0 8.435453668737882e-05 0.12713692132962165
3300000000.0 -0.08838620028720401 0.045283319998383316
3320000000.0 0.06911783234519261 0.038701465478823305
3340000000.0 -0.029615114301705037 -0.060528676752652485
3360000000.0 -0.060592839821622696 -0.024296427918383802
3380000000.0 0.0017640973179397401 -0.04588348993974332
3400000000.0 -0.026947547206571394 -0.023577963091099306
3420000000.0 -0.033744779164914654 0.014789419378420588
3440000000.0 0.051746336106709805 0.020200964193382288
3460000000.0 -0.03799456803894724 0.05817923821851671
3480000000.0 -0.08629140337353024 0.005837146698044581
3500000000.0 -0.0968773694273172 0.03477255430793235
3520000000.0 0.10021331829185746 0.05550242048606222
3540000000.0 0.03874530702389051 0.12619623275484293
3560000000.0 -0.1052939815321625 0.09817086132919166
3580000000.0 -0.15105201790308545 0.03672989100737863
3600000000.0 0.018384558647984293 0.16419555435231117
3620000000.0 0.058114175071132035 0.16200857171110775
3640000000.0 0.1343058735133764 -0.11871059482947656
3660000000.0 0.12629458668963936 -0.12735940518969002
3680000000.0 0.17734744267761196 -0.010367411913647293
3700000000.0 0.10633834595757478 -0.1598483916232957
3720000000.0 0.19498768898016844 -0.016612173207426868
3740000000.0 0.15174161073591383 -0.07689062860983746
3760000000.0 -0.034259573061385155 -0.1615889686804323
3780000000.0 -0.021533733189974466 -0.1573467300059934
3800000000.0 -0.0875296201229309 -0.11638602560241922
3820000000.0 -0.021561231575930914 0.14848471744495967
3840000000.0 -0.1044791359605094 0.1014131933531346
3860000000.0 -0.10684027272639371 0.11866585358174403
3880000000.0 -0.17395724705498164 -0.10385815499601689
3900000000.0 0.09733181443309454 0.16689464161871526
3920000000.0 -0.09203785200681475 -0.14422841587711205
3940000000.0 -0.10789091503525056 -0.13316114026765977
3960000000.0 -0.15912447421065046 -0.043754196105003675
3980000000.0 0.05523189100823519 0.15140400091071457
4000000000.0 0.1302738976755098 -0.0806040768693973
