!Created with skrf (http://scikit-rf.org).
# Hz S RI R 50.0 
!freq ReS11 ImS11
400000000.0 -0.6306678791347357 -0.5862796796992937
420000000.0 -0.5141037581419413 0.6633012556318945
440000000.0 0.15120742760031639 0.7697000781756916
460000000.0 -0.362083371702623 0.6203456710518449
480000000.0 -0.5985544119010466 -0.2626238852081315
500000000.0 -0.40799983910855075 -0.4359020460053698
520000000.0 0.5133071795502977 -0.08288494747067807
540000000.0 0.058349944596374735 -0.45360952039068586
560000000.0 0.3323930347175902 0.2741834916014961
580000000.0 0.274196878087947 0.26790040085908257
600000000.0 -0.09798652288669725 -0.33823759043257456
620000000.0 0.2897453513500953 0.2008945167640256
640000000.0 -0.06698315063947918 0.4171445179074276
660000000.0 -0.13690139005417967 0.44008383054695754
680000000.0 0.3568847959791335 -0.3139624420579019
700000000.0 0.4315819232835567 -0.1970613257810912
720000000.0 0.1547777628626603 0.4323479460530206
740000000.0 -0.33721960858660516 -0.22685151582749868
760000000.0 0.19189450387821985 -0.27543768613576286
780000000.0 0.013223971747136134 -0.29433630342520845
800000000.0 -0.24984448058184844 -0.04544400591940077
820000000.0 -0.0968572636105198 0.21017633732833127
840000000.0 -3.032606702311636e-05 -0.20694301526107303
860000000.0 -0.17546476566250588 0.0509531039680675
880000000.0 -0.005427803831819066 -0.15568038098203069
900000000.0 0.05410707260309195 0.11247867601590403
920000000.0 0.011436870232312003 0.08328573348044596
940000000.0 -0.06388117768689935 -0.015487910487757084
960000000.0 0.02406887081901851 -0.05825426664513133
980000000.0 0.015067246972108456 -0.052394256010011096
1000000000.0 0.02453303577333144 0.05653565559680631
1020000000.0 -0.03957824924183599 0.07096718331034264
1040000000.0 -0.04617488720223129 -0.1118552778478688
1060000000.0 0.1204594736126662 0.1128229837955012
1080000000.0 -0.19444429340276026 0.06802711203433738
1100000000.0 0.20310477755348214 -0.14328549255275602
1120000000.0 -0.08239098478778344 0.268479451493409
1140000000.0 0.30258281609341336 0.04816463608096841
1160000000.0 -0.10179317856808247 0.30631542604911355
1180000000.0 0.3296511214803572 -0.041370093581430484
1200000000.0 -0.09839163452012173 0.30985145759639326
1220000000.0 -0.314853253191282 -0.10670996267457399
1240000000.0 -0.3498650917688347 0.07472092252301601
1260000000.0 -0.14054375333214256 0.3480330600730262
1280000000.0 0.037210822686331864 0.3908553415944514
1300000000.0 0.1529140781119213 0.3812953180315007
1320000000.0 0.00020753241008856482 -0.4249458419978089
1340000000.0 -0.41360463069021264 0.0753808763709537
1360000000.0 -0.08679887643076795 0.4058692133147009
1380000000.0 0.3892567453094756 0.09275091465270695
1400000000.0 0.18643395925837847 -0.3302309108704522
1420000000.0 -0.1491445852506565 -0.3172255648272987
1440000000.0 -0.2397442419719754 -0.22546054547344482
1460000000.0 -0.30362446031432394 0.000971119870179438
1480000000.0 0.27380923851795647 0.07366268975744106
1500000000.0 0.09201194218316558 0.23244682960903715
1520000000.0 -0.1484004274726647 -0.14759767826431913
1540000000.0 0.08831475102100723 -0.13910336464100892
1560000000.0 -0.01750451711563838 0.12380463615768571
1580000000.0 0.06831037126408546 -0.059723460472883926
1600000000.0 -0.0470213805743232 -0.04051896592717396
1620000000.0 -0.03924044838752943 -0.026111606578295223
1640000000.0 -0.019391404435720717 0.022134325899900567
1660000000.0 0.009038484322681017 -0.0065636325047891695
1680000000.0 -0.002253293003709128 -0.005668301079702039
1700000000.0 0.009009534778995902 0.009462359370368144
1720000000.0 0.006044147258298008 -0.0153100060483085
1740000000.0 0.023183361452486784 -0.030459793533585185
1760000000.0 -0.0001334771493830327 0.06774520244396533
1780000000.0 -0.0482854940353792 -0.08674203631414143
1800000000.0 -0.07579414331842801 -0.12289083448797462
1820000000.0 0.14933234160084505 -0.1045971523312341
1840000000.0 -0.12452503759561893 -0.17850953921063742
1860000000.0 -0.24933274462688865 0.038219305469206766
1880000000.0 -0.2681401594418683 -0.07618690265177008
1900000000.0 0.2933979715672938 -0.05195984391648981
1920000000.0 0.021264635854887082 -0.3193714446707203
1940000000.0 -0.23516220173038158 -0.25851054542734647
1960000000.0 -0.06827599065464289 0.3747275463445756
1980000000.0 0.3371716147507075 -0.2243738444806937
2000000000.0 -0.4210573116854268 0.022023337438616376
2020000000.0 0.20926419346644506 0.37279595955651823
2040000000.0 0.36048689684481067 -0.2320175677851133
2060000000.0 -0.08781810849596154 -0.4104394228421349
2080000000.0 -0.1669210036614329 -0.3765795220256077
2100000000.0 -0.24555116331532933 -0.3181398074792275
2120000000.0 -0.23002172969703355 -0.31902704331804577
2140000000.0 -0.32357169989844586 -0.2093328751320085
2160000000.0 -0.04772440213969322 -0.36892359745936304
2180000000.0 -0.27186706753253703 -0.2330032787328114
2200000000.0 -0.33206524099662194 0.07883644158312438
2220000000.0 -0.1529511658168141 -0.29004019809801473
2240000000.0 0.04999573384541644 -0.3267121385773759
2260000000.0 0.09917493819176991 -0.3226223914605945
2280000000.0 -0.2630444857437121 -0.23214121814838395
2300000000.0 -0.36176570355901483 0.07792506900479922
2320000000.0 0.08806199812553203 0.3936535402673513
2340000000.0 -0.0004530492467291956 -0.44666537652813154
2360000000.0 0.27826777052611396 0.40872209632187684
2380000000.0 -0.5136674165885161 0.17812464041934967
2400000000.0 0.030792342511772135 -0.5895950400594248
2420000000.0 0.5107846181757469 0.3785967519982034
2440000000.0 -0.6277004157654408 0.25777404985710173
2460000000.0 0.2713698385097663 -0.6593316662786146
2480000000.0 0.11243621849281972 0.7300130523865599
2500000000.0 -0.1562521766215018 -0.7389827791216336
2520000000.0 -0.01939870336839654 0.7627131280013564
2540000000.0 0.3428755731326874 -0.6825801282096557
2560000000.0 -0.6816365498400839 0.33094700845019454
2580000000.0 0.7020905605307032 0.2430130804227041
2600000000.0 -0.3013475379401046 -0.6552381732605572
2620000000.0 -0.22465069785935446 0.6575079727442255
2640000000.0 0.4091599730847587 0.5197503640978619
2660000000.0 -0.3032101505339436 -0.5414808951505001
2680000000.0 0.15776897239031093 0.551388518825964
2700000000.0 0.22488975591012728 -0.4738201478574763
2720000000.0 -0.4789414595833506 0.015238192665946297
2740000000.0 0.10012748383978515 0.43253553986049603
2760000000.0 0.0302719036585674 -0.4187590826284071
2780000000.0 0.298045497200682 0.26882563895067735
2800000000.0 -0.0386282697319978 0.38225106763476296
2820000000.0 -0.298918535434521 0.20796111815301233
2840000000.0 -0.09842822520041236 -0.32977998676645504
2860000000.0 0.05659160281241294 0.3278448589187675
2880000000.0 0.3083870060709188 -0.11554402327484563
2900000000.0 -0.06064290019515296 -0.3302451902054392
2920000000.0 -0.25839089257094483 0.23195285823127557
2940000000.0 0.35445980991923987 0.028886475236369783
2960000000.0 -0.23145638998552914 -0.2724387394130094
2980000000.0 -0.3489209114008837 0.02984561999511394
3000000000.0 -0.20368728042359385 -0.2771462388518254
3020000000.0 0.3355798377078909 -0.027311012508012354
3040000000.0 -0.33290659550112695 0.032118217629733777
3060000000.0 0.1641061642947854 -0.2915212627365248
3080000000.0 0.10305829268724187 0.31700402758439133
3100000000.0 -0.22293827055042975 0.2449720383942047
3120000000.0 -0.2136384238158816 0.23867564134246533
3140000000.0 -0.2551059144679552 -0.15476973605338884
3160000000.0 0.007086652974750375 -0.263775739183752
3180000000.0 -0.00817729256005764 0.23392303196240316
3200000000.0 -0.030323647879600093 -0.20554195707176504
3220000000.0 0.1144589360237175 0.1427882868727152
3240000000.0 -0.15926734116908134 0.025594555228911242
3260000000.0 -0.11168496494098956 0.08212701128775828
3280000000.0 -0.03248183572251692 -0.10613982871885314
3300000000.0 0.02755838486357463 -0.07767651304216626
3320000000.0 0.05647406073409304 0.013651242042308913
3340000000.0 -0.02243143422924659 0.034353437196890664
3360000000.0 0.03362678402580769 0.015276585572846056
3380000000.0 0.032263984365554985 -0.022812211340766404
3400000000.0 -0.04533127597597043 -0.015113463944658156
3420000000.0 -0.057816405574841814 0.023731470783711697
3440000000.0 0.07272383903100611 0.01898721739307675
3460000000.0 0.07084714934005948 -0.0519901980278089
3480000000.0 0.09491437626880882 0.03310525975090248
3500000000.0 0.025095341000690503 0.11382562456092665
3520000000.0 -0.0784971412044244 0.10939311394426654
3540000000.0 0.0842699194221436 0.12639970239758505
3560000000.0 0.16420770779712798 -0.0024314952826701235
3580000000.0 -0.0023109832753971764 -0.17497775644172453
3600000000.0 -0.18195249312957965 -0.00746884772976759
3620000000.0 -0.17173464311655526 0.05823754158091829
3640000000.0 -0.16688615473159124 -0.07238145918731372
3660000000.0 -0.023420651477787366 -0.1769580469099145
3680000000.0 0.15735418810549484 0.0751285970647815
3700000000.0 -0.030930639562870593 0.16793983061950987
3720000000.0 -0.15978681367764 -0.041922450537999235
3740000000.0 -0.027683686634101017 -0.15537750692766336
3760000000.0 -0.08830212057015838 0.11772464353437016
3780000000.0 0.13357227124389484 -0.013950703780235435
3800000000.0 0.10768870309741238 -0.05360043817853185
3820000000.0 -0.05015718223666878 0.09578048099785823
3840000000.0 -0.08967221715066805 0.04774113510830025
3860000000.0 -0.09699096185562932 -0.03900457507338027
3880000000.0 0.11578957302916722 0.004756711943082788
3900000000.0 -0.06932005860469417 -0.10746117225179062
3920000000.0 -0.07182487204699814 -0.11383169527383577
3940000000.0 -0.11867317628941193 0.06308096300421878
3960000000.0 0.11702509911699417 0.048858366002269074
3980000000.0 0.030397915471608347 -0.10769041733532281
4000000000.0 0.015643319830960383 -0.09076349620574917
