!Created with skrf (http://scikit-rf.org).
# Hz S RI R 50.0 
!freq ReS11 ImS11
400000000.0 -0.8502268229577744 -0.12695633353040534
420000000.0 -0.21802556617369737 0.8094523056196676
440000000.0 0.3385419040835948 0.7078293092600124
460000000.0 0.14323284535013625 0.702741627417455
480000000.0 -0.6241809695163717 0.20342676339162966
500000000.0 -0.4277229519941457 0.41090560127988546
520000000.0 0.3577982042748905 -0.3708184769656744
540000000.0 0.10242992483635116 -0.446851539794452
560000000.0 0.15270757587631276 0.40507932671999797
580000000.0 0.3912991994081324 -0.02990686680444036
600000000.0 -0.32741246308882443 -0.1401178464114388
620000000.0 0.22572612984366067 -0.27794605722553295
640000000.0 0.40679038071026336 -0.05563562050188456
660000000.0 0.16325940546713644 0.4174672174623685
680000000.0 -0.319654609149865 -0.33319154269050555
700000000.0 0.01852670070406717 -0.44775741719817336
720000000.0 0.15233910170186218 0.3960034745169943
740000000.0 -0.07037204946119999 0.3697826019100362
760000000.0 0.3334131405675721 0.08675456905439088
780000000.0 -0.2287641932962066 0.2414667055272418
800000000.0 0.28429945397175 -0.12875569932992864
820000000.0 0.19309671008460613 0.16894930299263142
840000000.0 0.1519086686352031 0.11880320275516133
860000000.0 0.07338194301930182 0.12930375296815222
880000000.0 0.11414874641564672 -0.000819064584106022
900000000.0 -0.07729535540458538 -0.05268635088865501
920000000.0 -0.0550383846374271 0.03968866087257627
940000000.0 -0.04797745302792661 0.022284639975597736
960000000.0 -0.0629483899948681 -0.015425767798517481
980000000.0 -0.046921311503911246 -0.04794346449284368
1000000000.0 0.004582502369259752 -0.08650060164550935
1020000000.0 0.06282465629892778 -0.07751570889610496
1040000000.0 -0.11482088056860648 -0.00588633092635908
1060000000.0 -0.13616009773027427 0.05208711855397574
1080000000.0 -0.12918317005410082 0.1282078359812469
1100000000.0 0.1529606633360135 0.14881970239551234
1120000000.0 0.19431045839426883 0.14619356693575855
1140000000.0 0.1272520789761783 0.23754845450397014
1160000000.0 -0.016539804248879734 0.2976226462503125
1180000000.0 0.15566878642427773 0.2782110814304796
1200000000.0 -0.15445347723575 -0.2894800066336936
1220000000.0 -0.3469854102538784 -0.011685563829674889
1240000000.0 -0.012431587935970248 0.3862761762674393
1260000000.0 0.2666328528267412 -0.2994969033163819
1280000000.0 0.10971714715726374 0.39541494794210663
1300000000.0 0.27574166576219356 0.301021878781247
1320000000.0 0.17084922628779617 0.3683353437775864
1340000000.0 0.2901726900298802 0.29948739494438603
1360000000.0 0.3370036194968438 -0.2356252290867044
1380000000.0 0.35634083968922636 0.16487393038880882
1400000000.0 0.07124271997656564 -0.3734739669297718
1420000000.0 -0.33930020774754505 0.12082086797489465
1440000000.0 -0.26644999224415156 0.20838368400355398
1460000000.0 -0.07651440352730597 0.303299304575225
1480000000.0 0.2706707792625404 -0.0997935541329455
1500000000.0 -0.03655721178688987 0.2604143207527636
1520000000.0 -0.08334873670096019 -0.21185249794703284
1540000000.0 -0.16904151281837845 -0.04381543081087314
1560000000.0 -0.05037126977410873 0.1197571189278891
1580000000.0 -0.02618360188757534 0.10417545474373974
1600000000.0 -0.05462407833691411 -0.06091300088206428
1620000000.0 0.004540300219700199 0.06784908590121992
1640000000.0 0.022445357832481354 -0.041458605926790695
1660000000.0 0.0014144216423227385 0.02187351194406538
1680000000.0 -0.011715808737702787 -0.0007216855181887819
1700000000.0 -0.010536576553550793 -0.02961507977431368
1720000000.0 -0.05983515789690454 0.0034256292451873725
1740000000.0 0.061297691627638394 -0.025204959419484776
1760000000.0 0.028151348795295798 -0.06953378022003412
1780000000.0 0.01335967881961625 0.09278202891966518
1800000000.0 -0.1241187354097516 -0.04537503101573738
1820000000.0 -0.16771370225232995 -0.04698481595222621
1840000000.0 0.19674271428806156 0.05327336165251466
1860000000.0 0.20921673591713374 -0.15812690458078904
1880000000.0 0.2908660977165501 -0.06928758157706981
1900000000.0 0.28246714502854403 0.1377139696233672
1920000000.0 0.06465581696486125 -0.3285341817474227
1940000000.0 0.014263785098791292 -0.3670365717897817
1960000000.0 0.038868098993129985 0.38869821782720265
1980000000.0 0.32269999749734496 -0.24399866367385759
2000000000.0 -0.29757322098914885 -0.297077352404161
2020000000.0 -0.1860719724085462 0.3905394849851133
2040000000.0 0.2888667014711515 0.32002820753751315
2060000000.0 0.38836403155925026 -0.15592085600737224
2080000000.0 0.22593582839701873 -0.34845020983242386
2100000000.0 0.04634547332871631 -0.3987317958887814
2120000000.0 0.12190401233534556 -0.37176595716710964
2140000000.0 -0.3335515902649975 -0.19064123687284026
2160000000.0 -0.039189131299794816 -0.3523753708416151
2180000000.0 -0.037087552138323106 -0.3393267510590898
2200000000.0 0.27911250542949523 -0.1292253469170756
2220000000.0 0.08426346657641262 0.2957825274500051
2240000000.0 0.022429618479559266 0.32784925862816744
2260000000.0 0.3254705275310583 -0.056740179439517806
2280000000.0 -0.2062650132851607 -0.2592577713608411
2300000000.0 -0.3396476608696641 0.08643135251849149
2320000000.0 0.2635041738229177 0.2679787929636987
2340000000.0 0.2970202249867025 0.2779014486737023
2360000000.0 -0.4247627551720701 0.1518243998882637
2380000000.0 0.4871040644061615 -0.10256203192054734
2400000000.0 -0.32329749711372013 -0.44528525093877913
2420000000.0 -0.5627063445138218 -0.1869677047967376
2440000000.0 -0.4184101722593697 0.48870310759012386
2460000000.0 -0.32992514311188037 -0.5944349520286639
2480000000.0 0.3417586713823957 0.6316769779073035
2500000000.0 -0.39796616702755533 -0.6176600372569898
2520000000.0 0.3667456358633529 0.6389884078746051
2540000000.0 -0.6425510198701373 -0.32719000274308807
2560000000.0 0.7173082604618033 0.11799361805244368
2580000000.0 -0.5167226246410556 -0.4913690777278992
2600000000.0 0.28526781098344217 0.6305236361348552
2620000000.0 -0.6454234641161628 0.06412158667052632
2640000000.0 0.5562954747130142 0.3085180608608792
2660000000.0 -0.30503313697345347 -0.5191014877655524
2680000000.0 0.04527008507899195 0.5604713179856198
2700000000.0 0.041418155237284086 -0.5133815729901505
2720000000.0 -0.14472686488343323 -0.4616403155553737
2740000000.0 0.2526111368496083 0.3835510580769903
2760000000.0 -0.2727439960512038 -0.3383969123593551
2780000000.0 0.3305994714647642 0.24445052831480082
2800000000.0 -0.2061810191934767 -0.3241129387961088
2820000000.0 0.3452511551582961 -0.032090352627035475
2840000000.0 0.03195460465442421 0.3455575557014843
2860000000.0 -0.3065883915358044 0.24082389853271086
2880000000.0 0.35142062738746743 0.16003075650012016
2900000000.0 0.2889736538021669 0.20404669722502422
2920000000.0 0.22302773937644807 -0.27632173224519235
2940000000.0 -0.34777928082957765 0.10828019876317117
2960000000.0 -0.3696546905907738 0.13182727791113977
2980000000.0 -0.36520222546826636 -0.09314709936441501
3000000000.0 0.35545380240625424 -0.17172825195126165
3020000000.0 0.35454965524017934 -0.002071548950145228
3040000000.0 0.0372311438676811 0.34584072116915193
3060000000.0 -0.3299195471275376 -0.08736508877048699
3080000000.0 0.25650888981115555 -0.21946510896000426
3100000000.0 0.3130647567053591 -0.19045651246062784
3120000000.0 -0.2944321771687346 -0.20370525108724535
3140000000.0 -0.30907603115991716 -0.13904938027113317
3160000000.0 -0.3046099849232319 0.11353859863675594
3180000000.0 0.0681115981725295 0.28106642721205144
3200000000.0 -0.1455071682765308 -0.18078707811016287
3220000000.0 -0.15743597702733544 -0.12248849590033985
3240000000.0 0.020909123348749666 -0.16076644625267994
3260000000.0 0.0410008871512251 0.18793679576399475
3280000000.0 0.11147215777146866 -0.12018560467572006
3300000000.0 0.017086741780920116 -0.15841899195014583
3320000000.0 -0.036939359355317405 0.11063714683106304
3340000000.0 -0.0821554298095857 -0.07821258936508774
3360000000.0 -0.035712414767450226 -0.014981065741630979
3380000000.0 0.00937800388707033 0.03398147758886575
3400000000.0 -0.001984558537281482 -0.03995462470953029
3420000000.0 0.018478127407679342 -0.09851560214430853
3440000000.0 -0.010926925199429763 -0.05567349730275653
3460000000.0 0.03571671202277782 -0.06453074050951542
3480000000.0 0.100259257645861 0.03961419362443234
3500000000.0 0.05858560009493536 0.07749477196977889
3520000000.0 0.11871885242846573 0.019371041024737874
3540000000.0 0.054519865147454744 -0.12183595298814584
3560000000.0 0.065850441867099 -0.12829842305674508
3580000000.0 0.04639738638018349 0.16117993921032328
3600000000.0 -0.1569325661809167 -0.15063828822639344
3620000000.0 -0.14292188817576498 -0.13340292636604287
3640000000.0 0.0037366950779834035 0.20082074678113843
3660000000.0 0.22111683075892902 -0.0972560084899438
3680000000.0 0.1355467687103687 0.12303439523388236
3700000000.0 0.0025036818811361764 -0.1803256624640952
3720000000.0 -0.16477384686122298 -0.051601446798397545
3740000000.0 -0.15856336337980664 0.19714929894060956
3760000000.0 -0.0024509250373150647 -0.20665485248414256
3780000000.0 -0.02004943767106918 0.23167624817275703
3800000000.0 0.21014449924228948 -0.05669271868069411
3820000000.0 0.004675259334008521 -0.1814924647221829
3840000000.0 0.1401914730332921 0.05114556542503377
3860000000.0 0.14057500073704302 -0.03835834203677215
3880000000.0 0.12056945042640574 -0.07948732676052585
3900000000.0 0.1795661788445778 0.0153380506366226
3920000000.0 -0.19855239987072748 -0.08223044012216421
3940000000.0 -0.20156774359128354 -0.032568298258701264
3960000000.0 0.13109574413890102 -0.1425907633860296
3980000000.0 -0.05284282046152902 0.19063082180366028
4000000000.0 0.05705666054846558 0.15448122702898198
