!Created with skrf (http://scikit-rf.org).
# Hz S RI R 50.0 
!freq ReS11 ImS11
400000000.0 -0.1901403676624977 -0.8110886774546571
420000000.0 -0.606671764846837 -0.5759468771229463
440000000.0 -0.6298539390242894 0.46566143377764774
460000000.0 -0.7102561638333003 0.10769486480720908
480000000.0 0.6370825556325252 -0.16846559353517251
500000000.0 0.5392613021778759 0.3068790552242754
520000000.0 0.39491884819306305 0.3973510834145435
540000000.0 -0.38300770238565673 0.30272827647537537
560000000.0 0.1060424979635043 -0.4433149628151077
580000000.0 -0.3829892483052233 0.10696749374880134
600000000.0 0.31490354743704846 0.16562440506623616
620000000.0 -0.3226449759908045 0.13900889870579314
640000000.0 0.38810667057984605 0.11292733501512772
660000000.0 -0.28259068435846457 0.3550911440505456
680000000.0 -0.05844255565186565 -0.46939094359007627
700000000.0 -0.0017918407516304736 -0.4617534088049676
720000000.0 0.11852358737663189 0.4143976655307358
740000000.0 -0.3786387693561164 0.07158005231550607
760000000.0 0.24444005436788027 -0.2667132565894931
780000000.0 0.20062031629501142 -0.26408765631478953
800000000.0 0.03520399841842628 -0.2847173226674415
820000000.0 0.18134779196636377 -0.1413382325212687
840000000.0 0.009682183531490968 -0.18938265606346788
860000000.0 0.15362110617287386 -0.01884580893604616
880000000.0 0.05863132062618393 0.10443706708403347
900000000.0 -0.055094738924092994 0.06447765319488226
920000000.0 0.046525218512945256 -0.01071619403884907
940000000.0 0.031499915320283615 0.017089312726284278
960000000.0 0.05913819200340636 0.017621468421565725
980000000.0 0.014411405633989629 -0.06729931877190853
1000000000.0 -0.08173128046551734 0.02793887367767209
1020000000.0 0.07804578705457374 0.06880530050111945
1040000000.0 0.004355706681124476 -0.12579824137574397
1060000000.0 0.046142936947096765 -0.16753133489489072
1080000000.0 -0.1677716517515348 -0.10693728130423959
1100000000.0 -0.1739418468406713 0.1538056844953069
1120000000.0 0.2234481242423738 0.14509529467113005
1140000000.0 0.27945927578451374 0.08055883942179744
1160000000.0 -0.30284139969914986 0.07490219466850304
1180000000.0 -0.16245252380394595 0.2750803799956173
1200000000.0 0.3228133048345987 0.07419848532041376
1220000000.0 -0.096556891231233 -0.3403695020717752
1240000000.0 -0.20855635796524433 0.3127859578476222
1260000000.0 0.34475861295486143 -0.17286223183142063
1280000000.0 0.1562030890252984 -0.3538098926818481
1300000000.0 0.39176304503923676 -0.05642183813403564
1320000000.0 0.26101309090835834 -0.31542424767484095
1340000000.0 -0.21085884604689167 -0.3578829085333366
1360000000.0 -0.36162935631231913 0.19372058857535338
1380000000.0 -0.20198679570313927 0.3429821777155175
1400000000.0 0.2594053874024441 0.2845485288864149
1420000000.0 -0.22372073565887268 -0.29300686750038724
1440000000.0 -0.1610237605611614 0.3214076354111702
1460000000.0 -0.121565939732928 -0.3057850781588243
1480000000.0 0.11760156022160516 0.251801301659866
1500000000.0 0.11475942118341391 -0.20028162504990138
1520000000.0 0.16018384389545545 -0.10890238996948094
1540000000.0 -0.15639538582499143 0.030631576163616184
1560000000.0 -0.13597247385452266 -0.020426054143452412
1580000000.0 -0.08707960487364887 0.06692844348626324
1600000000.0 -0.06616753225682998 -0.04945703590041477
1620000000.0 0.05297569849075192 0.029011575044871726
1640000000.0 -0.005969064466400326 0.03739729395105766
1660000000.0 0.009455763030883465 0.012840313396460445
1680000000.0 -0.009092427378628304 0.0030328099233389535
1700000000.0 -0.007969275086601528 0.019253651285817987
1720000000.0 -0.011840017929114875 0.026726154054960087
1740000000.0 -0.042595062740356515 -0.012891560791258565
1760000000.0 0.025944993796577397 0.05908586292678156
1780000000.0 0.03704635203663535 -0.08598446189759723
1800000000.0 0.13275488153502862 0.026884630096076216
1820000000.0 0.006504823547770577 -0.1660356081902861
1840000000.0 0.19598773219889704 0.03013220118292195
1860000000.0 -0.04790194644239946 0.23403126193956286
1880000000.0 -0.2071115032999712 0.1911718214610562
1900000000.0 -0.2903476225440259 0.12414841342801226
1920000000.0 -0.07639349374605442 -0.3315068710590179
1940000000.0 -0.07238895780591756 0.3523362683601659
1960000000.0 0.3678215658136658 -0.0845001317513574
1980000000.0 0.024245954007757593 -0.3936461261383187
2000000000.0 -0.39858790153392193 0.09492435463535388
2020000000.0 -0.11830362504453855 0.3976493865368615
2040000000.0 0.10952459018751039 0.40642854768692166
2060000000.0 0.4065788740413052 0.12257757906426428
2080000000.0 0.07239719273084493 -0.4187912931752592
2100000000.0 -0.4075808715799507 0.058417963654118533
2120000000.0 -0.34017504617447475 0.19711970196148246
2140000000.0 -0.35378340285546933 0.14664332974111832
2160000000.0 -0.18228183308739454 -0.31744537491155583
2180000000.0 0.047809050083814024 -0.3343906236867126
2200000000.0 -0.14931857616375355 -0.27991149758177264
2220000000.0 0.04504243055462213 -0.30722164563878596
2240000000.0 -0.188666524890658 -0.2494981593471161
2260000000.0 -0.24587503252845977 -0.20157013962137135
2280000000.0 -0.3246215261559985 -0.13725415053912818
2300000000.0 -0.32817297412650365 0.1709379238327882
2320000000.0 0.1550523865621275 0.371892587328836
2340000000.0 0.04945330604062821 -0.43788418405416984
2360000000.0 -0.09316730892671886 0.47507575278352615
2380000000.0 -0.26399725884953246 -0.46190874659871
2400000000.0 0.54900710405792 0.18837824391230193
2420000000.0 -0.4879270696979337 0.3958557863685091
2440000000.0 -0.07299005514836775 -0.6662228884774495
2460000000.0 0.3402584324450024 0.6171598470135001
2480000000.0 -0.49594371030336365 -0.5401859882718189
2500000000.0 0.5468036370109408 0.5178391827171781
2520000000.0 -0.33885551758420823 -0.6844492874735018
2540000000.0 -0.23191311220586716 0.73181102555328
2560000000.0 0.7544832841649932 -0.13538725204209304
2580000000.0 -0.6440076560800255 -0.39756389533157205
2600000000.0 0.4323770150880732 0.5968236836040758
2620000000.0 -0.061936959110956216 -0.7088636455499275
2640000000.0 -0.5970917210106529 -0.3247165760990411
2660000000.0 0.4988983869430755 0.4007403868984158
2680000000.0 -0.54427298939754 -0.23510068522134292
2700000000.0 0.521816713126496 0.15999874734401134
2720000000.0 -0.45487037563259125 -0.20667181282714112
2740000000.0 0.3749702156481451 0.2638925899810509
2760000000.0 -0.3774207066952748 -0.18494686670996505
2780000000.0 0.36812735982391315 0.12928394237414845
2800000000.0 -0.3613498711135555 0.08141967529502721
2820000000.0 0.08404179436445813 -0.34653403627633356
2840000000.0 0.3035179682057491 0.17166315823560915
2860000000.0 -0.2264081475438722 0.259869274248354
2880000000.0 0.027016893304801 -0.33846295790646924
2900000000.0 0.34302887455292513 -0.01021754168639573
2920000000.0 0.3357902622839371 0.056602935629890404
2940000000.0 0.10013834652955743 -0.3282488685959888
2960000000.0 -0.11016671998408058 -0.3254138234357225
2980000000.0 0.11743283017440972 -0.3220269111548174
3000000000.0 0.3496158788484595 0.025378594147748356
3020000000.0 0.25376818505702453 0.24265227419391366
3040000000.0 -0.1177491630835156 0.32831596028162935
3060000000.0 -0.31437470482387947 -0.1354533836181509
3080000000.0 0.3333911024052737 0.0034749387915628017
3100000000.0 -0.127162257108505 0.29983566454736615
3120000000.0 -0.27680089139152303 -0.14809012076557512
3140000000.0 0.11855937174308863 -0.2763056737599482
3160000000.0 -0.05035279653192212 0.2758360887599996
3180000000.0 -0.13503148685324615 0.217728438158814
3200000000.0 -0.21829929128221454 0.058749254237577625
3220000000.0 -0.1532669362426118 -0.1171236236281268
3240000000.0 0.11153174357467065 -0.11522049587253681
3260000000.0 0.04306737394687374 0.12380377202254508
3280000000.0 -0.016811917675590208 0.10347419004549371
3300000000.0 -0.0029113832616662508 -0.08254370624573694
3320000000.0 -0.019086112387856593 0.057789178637660456
3340000000.0 -0.0032372550626325455 -0.046682783920545264
3360000000.0 0.019357612682245194 0.040171514890578845
3380000000.0 0.01651568886772943 -0.028194804259412395
3400000000.0 0.06446273297997246 0.014685805299060202
3420000000.0 0.026183758967677138 -0.05250585087071356
3440000000.0 0.0018478442627074096 -0.07120631678719522
3460000000.0 -0.027990487458592957 -0.08087425556811521
3480000000.0 0.09767438502579621 0.00043891704527470763
3500000000.0 -0.10207896216802234 0.04604840023204774
3520000000.0 -0.039136675193455456 0.040892977064868344
3540000000.0 -0.013725323914068131 0.038289954653116964
3560000000.0 0.039780417123379756 -0.010161928237848292
3580000000.0 -0.041144257056906226 -0.027766255184294413
3600000000.0 0.07028022776357616 0.022364630922820216
3620000000.0 -0.07569566735423756 0.08160349645379854
3640000000.0 -0.1783627248979205 -0.024271767868144518
3660000000.0 0.17134435450686925 -0.06636139491805762
3680000000.0 0.011558148265915462 0.17731794652248098
3700000000.0 -0.15080941278803578 -0.08575020092655782
3720000000.0 0.048189893379690374 -0.16162481796735784
3740000000.0 0.15952152548110893 0.02369481623559999
3760000000.0 -0.11440016612991162 -0.09891456797013001
3780000000.0 -0.02263315163006627 0.13681186992917505
3800000000.0 0.004778496870019724 0.1263699125693437
3820000000.0 -0.08368666227635374 0.08270851058514853
3840000000.0 0.09836642631170693 -0.03455727956184114
3860000000.0 0.07940590944792197 0.06719264558349836
3880000000.0 -0.11206087861491619 -0.00032490893537500065
3900000000.0 -0.09918751644250387 0.06685557295093443
3920000000.0 0.06162943365940774 -0.10882284314184579
3940000000.0 0.11755160088917828 -0.049163770747873634
3960000000.0 -0.09540520428308549 -0.07926603261023249
3980000000.0 -0.024925088124909185 0.11158569179781948
4000000000.0 0.094020107073791 -0.017999608417955337
