!Created with skrf (http://scikit-rf.org).
# Hz S RI R 50.0 
!freq ReS11 ImS11
400000000.0 -0.629221453113253 -0.5908185355534603
420000000.0 -0.6352511226897684 0.5522245099922162
440000000.0 -0.031233080040796935 0.7811784339372413
460000000.0 -0.2955758198983494 0.6512773724931298
480000000.0 -0.22266022781374986 -0.6097178110833362
500000000.0 0.2184456346878219 -0.5541936390276988
520000000.0 0.39477140146950435 0.3619330824611304
540000000.0 -0.33787012834125 -0.3199959554301345
560000000.0 0.08527782482431762 0.4255775776060146
580000000.0 0.3925576115845987 0.014624947894464512
600000000.0 -0.1305442804916491 -0.3374603350706014
620000000.0 -0.008749935128340432 -0.36455996461102463
640000000.0 0.3449901067871302 -0.2231424416538174
660000000.0 -0.12270923959906765 0.43406387221017534
680000000.0 0.1672763869882286 -0.43601168903925497
700000000.0 0.46062039293048057 0.04480024956569294
720000000.0 -0.344916544723988 0.2886871873873801
740000000.0 0.3904498910433649 -0.10835551983436432
760000000.0 -0.2021746009275078 0.2779568831791745
780000000.0 0.3233167391045203 0.011647060880876806
800000000.0 0.24268456065984942 -0.1343117252389049
820000000.0 -0.11246633237029624 0.20486061242439121
840000000.0 0.1833243643990673 -0.04765866688394639
860000000.0 -0.09293623237803245 0.13581410215168205
880000000.0 0.1252596936449124 -0.02423312825941165
900000000.0 -0.006845559128239267 -0.09739689538371772
920000000.0 0.06742438196551634 -0.01734759661953217
940000000.0 -0.024530415822827445 -0.048296290161242594
960000000.0 -0.044723518309594895 -0.04212363079673495
980000000.0 0.0651996112138364 -0.029870663992374098
1000000000.0 -0.07920756411836032 -0.00031257733343495437
1020000000.0 0.055749616543884904 -0.08919355968081742
1040000000.0 -0.028084620631983706 -0.12816286451059522
1060000000.0 -0.06189802232803616 0.16197537860876396
1080000000.0 -0.04482985174903676 -0.2051143759603691
1100000000.0 0.05446456912418988 0.22848117469219245
1120000000.0 0.2450719987108483 0.10659479398245764
1140000000.0 0.1836961696130712 -0.22695629249623023
1160000000.0 -0.14351088910347926 0.2676248910329653
1180000000.0 -0.1335913996011016 0.28642376083736953
1200000000.0 0.29302547618960784 -0.12867750841562586
1220000000.0 0.1473033577017536 -0.31562881860969166
1240000000.0 -0.3660702106104857 0.04037959602647254
1260000000.0 0.19342098625705678 0.3375037504822488
1280000000.0 0.2547645214631707 -0.2999358118744155
1300000000.0 0.35299583817046154 -0.1852921479416811
1320000000.0 0.23482775612561022 -0.3372665869072877
1340000000.0 -0.2518041837269069 -0.33454173366480633
1360000000.0 -0.16812015045790082 0.37820250825879886
1380000000.0 0.0897931607757556 0.38651993936853407
1400000000.0 0.35091996626049865 0.1463221692277212
1420000000.0 0.35482422301688477 -0.08592795814195286
1440000000.0 -0.34177388865557357 0.053139244765417405
1460000000.0 0.31122752728279934 0.03509218338107543
1480000000.0 -0.25925525044563397 0.09935704552506151
1500000000.0 0.16844912643790905 -0.15925275449762386
1520000000.0 0.18577638267649804 -0.04027516497042317
1540000000.0 0.07164713829315207 -0.13830867842468267
1560000000.0 -0.08641389005175798 -0.09143596251261724
1580000000.0 -0.09835437275582604 0.01871792897076956
1600000000.0 -0.07436289978673127 -0.02704218891986073
1620000000.0 0.06268513873518301 0.01330599477801992
1640000000.0 -0.029282665982285825 0.02779299849657554
1660000000.0 -0.0008427354675836129 0.020041880807711958
1680000000.0 0.00035974723635332303 0.010420747986094471
1700000000.0 -0.01900097350455522 -0.009533045424595496
1720000000.0 0.03192540663520833 0.009716778429527489
1740000000.0 -0.00463456307561001 0.05172641945509243
1760000000.0 -0.030732387538407676 0.06690118022197751
1780000000.0 -0.011377442690674927 0.10364101361781101
1800000000.0 -0.13516478353555428 0.032386066824384156
1820000000.0 -0.16580847933211185 0.009773960295276255
1840000000.0 0.15623239974646608 -0.12916688690091432
1860000000.0 0.24604035323971485 -0.0014253632853915346
1880000000.0 0.28408729118185755 -0.0056161855255385815
1900000000.0 0.14627544418752483 0.2755239562304342
1920000000.0 -0.21080958255642104 -0.2628747503337953
1940000000.0 0.16102635039034288 0.32138082449760363
1960000000.0 0.2715852346569556 -0.25771362745792165
1980000000.0 -0.09138431557822399 -0.3802770870133417
2000000000.0 -0.40355967754301025 -0.03944650910702489
2020000000.0 -0.3795135164171188 0.16957874741757656
2040000000.0 0.0031711106135106654 0.4286709430484029
2060000000.0 0.4148787670278194 -0.12280611969513791
2080000000.0 -0.3706072335147107 -0.21708340443828023
2100000000.0 -0.1764684633093168 0.37098975067931245
2120000000.0 -0.1722843656724035 0.3516503862835544
2140000000.0 -0.3028224095936402 -0.22370352527972615
2160000000.0 -0.21230953904130212 -0.2888979861146394
2180000000.0 -0.09953687016150017 -0.33138074573189236
2200000000.0 -0.02866329759573009 -0.33419546273874623
2220000000.0 0.12440026155962125 -0.3069452816456656
2240000000.0 -0.02292765574269958 -0.32811900495546614
2260000000.0 0.09183293608535674 -0.3205305642526715
2280000000.0 -0.012769724760123273 -0.3427656668143025
2300000000.0 -0.21331855032607883 -0.2973456095795726
2320000000.0 -0.0340972850845225 0.3997774699239883
2340000000.0 0.15953200537899026 -0.4083190227489137
2360000000.0 -0.05057176844075507 0.4818265249838048
2380000000.0 -0.4052251568979791 -0.34958840756377957
2400000000.0 0.5340290669057145 -0.24345068353004343
2420000000.0 0.08416754186751124 0.6294392205002283
2440000000.0 -0.629159940988596 -0.251282622662272
2460000000.0 0.6426774421233866 -0.30730167827884314
2480000000.0 -0.4203535951024671 0.6080531557454096
2500000000.0 0.4791205964307214 -0.585627514104026
2520000000.0 -0.5485099122079123 0.5345826179492775
2540000000.0 0.7290718061896851 -0.24095189258434513
2560000000.0 -0.7253372021039366 -0.23618755666659863
2580000000.0 0.2704828101213172 0.6978057758298661
2600000000.0 0.24146557977419225 -0.6850364447909585
2620000000.0 -0.5871382995223656 0.37938321648134304
2640000000.0 0.017893081222480886 0.6643799909218859
2660000000.0 0.3092059865237747 -0.5412310543030463
2680000000.0 -0.4638585218916789 0.3478717636314558
2700000000.0 0.5322302276032037 -0.06134690197842337
2720000000.0 -0.49170850359294227 -0.051740118071204474
2740000000.0 0.45467935612344335 0.0242755367073692
2760000000.0 -0.4193240022492492 -0.00031180490869614155
2780000000.0 0.3760513374941899 -0.10675444530724172
2800000000.0 -0.3149280114880819 0.19749575579483158
2820000000.0 0.03536454896702152 -0.3581969873112325
2840000000.0 0.31309670760080766 0.15678161664971524
2860000000.0 -0.3323428417416478 0.09220565818535253
2880000000.0 0.27845042656557556 -0.1963603223361405
2900000000.0 -0.33116670141700477 -0.07432130203458606
2920000000.0 -0.031178271089531025 0.3405697987410498
2940000000.0 0.33268870173236303 0.09452503634473072
2960000000.0 0.2771573521978111 -0.20791098888661952
2980000000.0 0.3428807299001299 -0.04956623719015285
3000000000.0 0.3365760963655134 0.10033501805724501
3020000000.0 0.1400199607165645 0.32029902220619194
3040000000.0 -0.21770374855632 0.27020763893498906
3060000000.0 -0.2155218708296113 -0.259397410403957
3080000000.0 0.3237703645866864 -0.056813784266218234
3100000000.0 -0.1886795687948091 0.2562739928757668
3120000000.0 -0.1525144355136884 -0.26711656887496343
3140000000.0 0.18730481500389554 -0.22684452726679558
3160000000.0 -0.1865150344226336 0.2005168224280214
3180000000.0 -0.24664205153218266 -0.03625017711321396
3200000000.0 0.05680359417083049 -0.2147824386018616
3220000000.0 0.17986544727141268 -0.0778781081887148
3240000000.0 0.16510772596287154 -0.03188840080880062
3260000000.0 0.11115570741819698 -0.08433870042013392
3280000000.0 -0.08456437076959775 0.06804196464390003
3300000000.0 0.05671881267588609 -0.05602901414518285
3320000000.0 -0.016172483975812862 -0.05477285328252245
3340000000.0 -0.022622856976617603 -0.03461482241977367
3360000000.0 -0.034287492080234405 -0.0184557729789049
3380000000.0 0.01701401083121558 -0.03772042725330645
3400000000.0 0.040853053535918504 0.029759427429799236
3420000000.0 0.045601468010289595 -0.043209889256659036
3440000000.0 -0.04997074638168395 0.06026797830720595
3460000000.0 0.0876130396979928 0.029224950493319163
3480000000.0 0.10440765679201434 0.005958046368027482
3500000000.0 0.037899950240154426 0.11285319532259375
3520000000.0 -0.07145325026924837 0.11830959348196622
3540000000.0 0.15297588965512457 0.028346471727330784
3560000000.0 -0.08195293447591642 -0.1439087789165603
3580000000.0 -0.16812947910813467 0.02942641439799801
3600000000.0 -0.17433648643345384 0.011390293808051502
3620000000.0 -0.1187327282956836 -0.13160939075368622
3640000000.0 0.13788557808824667 -0.11389830973251046
3660000000.0 0.1787738621411882 0.0276260427950289
3680000000.0 0.10579024251590054 0.14290024719118352
3700000000.0 -0.07367091917960665 0.1568844730212018
3720000000.0 -0.12990256965995192 0.10700076791523332
3740000000.0 -0.12481361056282823 0.09659849170056337
3760000000.0 0.14123114735721826 -0.010203383737715784
3780000000.0 0.09940085266359523 -0.07715729716129885
3800000000.0 -0.03152351938571901 0.10878542847999231
3820000000.0 0.1028972942706729 -0.033036564164862094
3840000000.0 -0.09910127079037613 -0.03846944715481911
3860000000.0 0.09031390823042429 0.06261864544513451
3880000000.0 0.04612480351281866 0.10714372821781512
3900000000.0 0.04934948367628571 0.11358447124238434
3920000000.0 -0.12829537711089747 0.02244565281688777
3940000000.0 -0.111405793374336 0.07037571320395489
3960000000.0 0.12467924434456794 0.018650629874792553
3980000000.0 0.022323735739902137 -0.111406420428511
4000000000.0 -0.06571973817892172 -0.06491231256632415
