!Created with skrf (http://scikit-rf.org).
# Hz S RI R 50.0 
!freq ReS11 ImS11
400000000.0 0.035566548221312784 -0.8227998406008784
420000000.0 -0.40011726429926386 -0.7294809750928862
440000000.0 -0.7079719462315723 0.3181284146639024
460000000.0 -0.6742720421285036 -0.25333434396558635
480000000.0 0.5627505811596579 -0.34941590245564413
500000000.0 0.530007947089736 0.3307337069023135
520000000.0 0.31896616675254796 0.4684531144914152
540000000.0 0.11314214954678414 0.49089689293867456
560000000.0 -0.4527509502566021 0.05875392294377372
580000000.0 -0.35680361976654296 0.17393011164991756
600000000.0 0.2710735876250763 0.24380953842457065
620000000.0 0.24465727615954413 0.25910225843473095
640000000.0 0.020218814765436906 -0.3959977870638674
660000000.0 0.04831278663770026 0.4341679390680223
680000000.0 0.22666973924052372 -0.39427631062937585
700000000.0 0.43718599935115116 0.09158722878791999
720000000.0 -0.3211756290253518 -0.28682063524766765
740000000.0 -0.2715758069254731 -0.2888146648231754
760000000.0 -0.28566933034655756 -0.23308044479802756
780000000.0 -0.19361333983484028 -0.26194280386849683
800000000.0 -0.008871941887595018 -0.283196452768764
820000000.0 -0.176278831697551 -0.15203347444685122
840000000.0 -0.13616740657756699 0.12226442587426423
860000000.0 -0.14731842338295648 0.039880315159056365
880000000.0 -0.055402009813388824 0.09996804375737715
900000000.0 -0.07960128977599991 -0.02762639473229869
920000000.0 0.02303673859882001 -0.04676103792774208
940000000.0 -0.03073704766208871 0.02221374065887202
960000000.0 -0.002232668009352857 -0.05745248330483776
980000000.0 0.058759937440675036 -0.030902071944971177
1000000000.0 0.051606290765076564 -0.06690736605684702
1020000000.0 0.11161373103991228 -0.005048260330207659
1040000000.0 -0.12741246150768942 0.038295616141886694
1060000000.0 0.16607536571706055 0.018506703582081868
1080000000.0 -0.029580673187628814 -0.19236789713254224
1100000000.0 -0.19449914321961315 0.11629227620849165
1120000000.0 0.24948886556522007 0.05726695089794826
1140000000.0 0.23207129083657893 0.15833378087991115
1160000000.0 -0.3037881160164301 -0.022243593852934288
1180000000.0 -0.24118018383786174 0.20543896124771072
1200000000.0 0.2665425930970527 -0.1912191592885303
1220000000.0 -0.2703474377833471 -0.21872932478842616
1240000000.0 -0.1201376687522179 0.35009176140219345
1260000000.0 0.36422698012756544 -0.1277145967441515
1280000000.0 -0.26093347395710487 -0.2937073737106771
1300000000.0 -0.29830991874515883 -0.2554059482048818
1320000000.0 -0.18310897570176538 -0.3538998343743604
1340000000.0 -0.22505664270810252 -0.3411105182307534
1360000000.0 -0.32651987368997526 0.24680116283472842
1380000000.0 -0.002050247189664092 0.3967771909851482
1400000000.0 0.3829418316836053 0.03599322176568563
1420000000.0 0.04144514804767796 -0.35972071333341216
1440000000.0 -0.34309965173248436 -0.010078655829243839
1460000000.0 0.3121909208057235 -0.02282670363490085
1480000000.0 -0.2645302218052922 -0.09864291678352721
1500000000.0 0.05620302391207976 -0.23626780862287652
1520000000.0 -0.20010392707997565 0.004399903126577204
1540000000.0 0.15643331292562065 0.0013803950280620461
1560000000.0 -0.0626027192207115 0.10395307295860526
1580000000.0 0.07003523011353045 0.0786733723259917
1600000000.0 0.0783645754137755 0.016594836161406213
1620000000.0 -0.04603779714580496 0.03750948459028038
1640000000.0 -0.03680290961719699 -0.02076881505584981
1660000000.0 0.01802002847644488 0.006851181084070177
1680000000.0 0.008116294988046896 -0.00452680593266667
1700000000.0 0.015842678395308417 -0.015718782420604635
1720000000.0 0.020682022725255086 0.027183322446982114
1740000000.0 0.013848207995070935 -0.04733153475679353
1760000000.0 0.06717820211566691 -0.012648977936391182
1780000000.0 -0.03924293605121737 -0.08847808208673656
1800000000.0 -0.07898376510004028 0.10928169160639054
1820000000.0 -0.058570056447656935 0.1554424698575644
1840000000.0 -0.06962545026623075 -0.18869598899691825
1860000000.0 0.1622612641175371 -0.17877506573441965
1880000000.0 0.25071007694829683 0.12503505357130892
1900000000.0 -0.08682066860720926 0.2986267623577484
1920000000.0 0.145145230041791 -0.3028024815244452
1940000000.0 -0.3630396073599475 -0.0055464639077126045
1960000000.0 0.36237529574215854 0.13418874239194664
1980000000.0 -0.0010137642898163245 -0.4000126812485945
2000000000.0 -0.40069431312156334 -0.09737228744182413
2020000000.0 -0.3337246139616469 0.25657934666467397
2040000000.0 0.09022699019612052 0.41855698450562273
2060000000.0 0.42906665372964803 -0.004977108775140822
2080000000.0 -0.03175290097455328 -0.42391774155606565
2100000000.0 -0.41136276300174374 0.02881719072650941
2120000000.0 -0.3101402087339312 0.24138586590285824
2140000000.0 -0.3423376852948464 0.1539971943351413
2160000000.0 0.05667372234054447 -0.35385714993158945
2180000000.0 0.17868583269663815 -0.29523056082965715
2200000000.0 0.2286890093031055 -0.24428210102824038
2220000000.0 0.3256625634296017 0.032313134300350474
2240000000.0 0.2934422944264459 0.1610153740199623
2260000000.0 0.3115726622565529 -0.1419276813710305
2280000000.0 -0.10002666387105934 -0.3382487805129103
2300000000.0 -0.361936474849782 0.07257229185485951
2320000000.0 0.1342112871065823 0.3731039815492742
2340000000.0 0.07234469099313948 -0.428338746334233
2360000000.0 -0.019840119908914527 0.47765192685671876
2380000000.0 -0.36195094125061117 -0.38402894282240707
2400000000.0 0.5708931102783742 -0.0856437355294052
2420000000.0 -0.12602624738139911 0.6121019226419667
2440000000.0 -0.5557518783703723 -0.3688498520071923
2460000000.0 0.6533182478021644 -0.2544860951922406
2480000000.0 -0.3985436359922899 0.6084247978821343
2500000000.0 0.31624206174161207 -0.6744570268546528
2520000000.0 -0.35978269063032453 0.6620344057077497
2540000000.0 0.5645408311004354 -0.5002543883581017
2560000000.0 -0.7484898902215307 -0.014999582430942097
2580000000.0 0.5243832960177277 0.5145239378209285
2600000000.0 -0.05104500259765761 -0.7113583390245151
2620000000.0 -0.34808525962396847 0.5901977331774279
2640000000.0 0.09103233099061028 0.6453095558180477
2660000000.0 0.2856716490819118 -0.5434453605026819
2680000000.0 -0.3701993688420795 0.43788927174757997
2700000000.0 0.42512028042732636 -0.31835596981506603
2720000000.0 -0.38240525757266647 0.30486859621003487
2740000000.0 0.30148200373119777 -0.33239087393509026
2760000000.0 -0.189030515437996 0.3653660035244475
2780000000.0 0.19651564010673914 -0.32758752660159135
2800000000.0 -0.2215157712715135 0.28840717355353346
2820000000.0 0.011398564396609332 -0.35470412620884906
2840000000.0 0.30428223185741066 0.17125277929878271
2860000000.0 -0.3446989680210842 0.029683109173193604
2880000000.0 0.2913714729908854 -0.18491146381994497
2900000000.0 -0.32125305292890516 -0.12740811083345824
2920000000.0 0.049851232574959985 0.3513392623238678
2940000000.0 0.17319463768249738 -0.31331781318824303
2960000000.0 -0.2923023567790978 -0.20097100122475978
2980000000.0 -0.2817678179028963 -0.2108644403005339
3000000000.0 -0.02022591564143462 -0.3489586019362309
3020000000.0 0.3381851456563402 -0.07407805399405991
3040000000.0 -0.21650244565494023 0.2632100707241639
3060000000.0 -0.11134314334043184 -0.319234172424122
3080000000.0 0.33253688117466956 0.01095145492525651
3100000000.0 -0.11911563598110017 0.3001763412666432
3120000000.0 -0.1395023343511251 -0.2787343707218407
3140000000.0 0.24611067022709554 -0.16999826775316873
3160000000.0 -0.18306147152828628 0.2132277796351696
3180000000.0 -0.23980011994715353 0.0956511991848129
3200000000.0 -0.22626168648556574 0.03248896096016192
3220000000.0 -0.19318127616334052 -0.035369725194879326
3240000000.0 -0.07818331461866077 -0.1419875608945286
3260000000.0 0.11918712704620817 -0.05265065795323042
3280000000.0 0.09543431728196741 0.036079454264089504
3300000000.0 0.07859401862496737 0.004353791223993885
3320000000.0 0.05817562466037108 -0.009492039307037537
3340000000.0 -0.04305634685708488 0.010528075787669412
3360000000.0 0.031717261023722194 -0.022463613902083228
3380000000.0 0.011224417942685494 -0.037642665546951774
3400000000.0 0.019491666743976125 0.04041094873176358
3420000000.0 -0.056199377379569794 -0.004418297496466648
3440000000.0 0.019482684859565544 0.06917253564543366
3460000000.0 0.08672100266799752 -0.01153831442894676
3480000000.0 -0.03258237423488654 -0.09668131405873458
3500000000.0 -0.11097887991328137 -0.031889164497398655
3520000000.0 0.00978137622027892 -0.128337802121634
3540000000.0 0.024463553927310693 -0.14211570331877188
3560000000.0 -0.09962370320876669 -0.12225395777051364
3580000000.0 -0.1656772292336515 0.028860173853331686
3600000000.0 -0.0589552156186248 0.1655458032111211
3620000000.0 -0.03498666842697995 0.17517610789542498
3640000000.0 -0.1569033327978484 0.09192402174069712
3660000000.0 -0.18282859546298968 0.009823314774918011
3680000000.0 -0.1749397377169393 -0.0458296642927338
3700000000.0 -0.0844725874551556 -0.15284718992052196
3720000000.0 0.10766723138937137 -0.12809443322809413
3740000000.0 0.10689944718110767 0.11613556583383915
3760000000.0 0.01127808699449667 -0.14403532080744746
3780000000.0 0.028093205209477855 -0.12895897281356689
3800000000.0 0.04813053997281379 0.1113858186813128
3820000000.0 0.021088101726130865 -0.11886131382365402
3840000000.0 0.014723524016191458 -0.11615444037141893
3860000000.0 0.06949629653074745 0.09164756593691865
3880000000.0 -0.11711117444184353 0.022274260833791408
3900000000.0 -0.11692566659873051 0.04618808818627347
3920000000.0 -0.0003444966049841328 -0.13117616498941959
3940000000.0 0.10171527816214045 -0.08392462755112318
3960000000.0 0.08950238891063556 -0.09214460398124173
3980000000.0 0.006827503424616093 -0.11926851116299353
4000000000.0 -0.09579504282962513 -0.03894066274173275
