!Created with skrf (http://scikit-rf.org).
# Hz S RI R 50.0 
!freq ReS11 ImS11
400000000.0 -0.6413352497881118 -0.5720936147700144
420000000.0 -0.5220217454849736 0.6572695858908275
440000000.0 0.19272567744102687 0.7601951143135215
460000000.0 -0.36317208738558865 0.6195312740421861
480000000.0 -0.5887590124329366 -0.2842101929895883
500000000.0 -0.3877851381886984 -0.4543893171437399
520000000.0 0.513906260966617 -0.07851813306261199
540000000.0 0.058132442300946864 -0.4537769290587612
560000000.0 0.3349550863489903 0.27099226275529376
580000000.0 0.2757491772143993 0.26605625481732714
600000000.0 -0.10120656967106118 -0.33732884545378744
620000000.0 0.2940315408476955 0.19465315653690116
640000000.0 -0.0686086742977127 0.4170071947998986
660000000.0 -0.10919731140835436 0.44775783200456065
680000000.0 0.3563875342852678 -0.31473641522745605
700000000.0 0.4375177160069872 -0.1836011233150053
720000000.0 0.18193273070732943 0.4217707397482943
740000000.0 -0.32643879550485827 -0.24264583290329222
760000000.0 0.2024517777999878 -0.2678753558246194
780000000.0 0.008900781603632559 -0.2943931631546984
800000000.0 -0.2501983864451904 -0.043032575030248446
820000000.0 -0.09778223837614636 0.2098037944802928
840000000.0 0.005955362185114674 -0.20703524710218238
860000000.0 -0.17523736534611686 0.05127577115540241
880000000.0 0.0016906968884800896 -0.15572701611611134
900000000.0 0.03321141674049913 0.12069915769561058
920000000.0 -0.00496322622562955 0.08386502908155312
940000000.0 -0.06517683920318249 -0.008283435581612071
960000000.0 0.023248223292429704 -0.05857190023432537
980000000.0 0.01742838259707873 -0.05170048300533719
1000000000.0 0.028800866738667816 0.05452065394206999
1020000000.0 -0.03392116086791852 0.07382152500907568
1040000000.0 -0.04653252818236269 -0.11162359705224177
1060000000.0 0.11528899245138154 0.11796535956225056
1080000000.0 -0.20014770833614065 0.0487464615687053
1100000000.0 0.20681681631914275 -0.13799861213568973
1120000000.0 -0.09671958510505968 0.26356253196509893
1140000000.0 0.3011808550993836 0.05663720218232389
1160000000.0 -0.10493949037464874 0.3052317908363377
1180000000.0 0.32970031833888774 -0.04050968652625836
1200000000.0 -0.08769645782561952 0.31312022464891337
1220000000.0 -0.3169204593902055 -0.10054372400710726
1240000000.0 -0.3476946760347599 0.08366825819230755
1260000000.0 -0.1350449023342149 0.3500130792132995
1280000000.0 0.04505750063132324 0.3898831654857504
1300000000.0 0.15517482985477296 0.3802030383688837
1320000000.0 -0.018221301975503385 -0.4246139086188821
1340000000.0 -0.41412779339531935 0.07210430653069183
1360000000.0 -0.08031224424720061 0.40718815563089156
1380000000.0 0.3901073782058204 0.08878902710154339
1400000000.0 0.18126462321846395 -0.33315989694176146
1420000000.0 -0.15174425601185193 -0.3161787804696592
1440000000.0 -0.24168365143139817 -0.22327722146190135
1460000000.0 -0.30358274535803415 0.0017193987857135845
1480000000.0 0.26623146302171863 0.0978056796329336
1500000000.0 0.0967161582125847 0.2304935712838979
1520000000.0 -0.152104640619916 -0.1437577501228853
1540000000.0 0.09445388890174435 -0.1355719355908839
1560000000.0 -0.03282166815516317 0.12073232413555866
1580000000.0 0.06849025407184707 -0.05948391486460336
1600000000.0 -0.05479538612901535 -0.028691569598972937
1620000000.0 -0.04272023028775845 -0.01944873351578341
1640000000.0 -0.02282157154849134 0.01834829827923835
1660000000.0 -0.0060373654843555126 -0.009566222964492287
1680000000.0 0.002801531912312911 -0.0054626077672883
1700000000.0 0.0026214810760929524 0.012801246632573957
1720000000.0 0.0016308290278838065 -0.016406399177672937
1740000000.0 0.024328771927816368 -0.029469421127621614
1760000000.0 0.007629948231615983 0.06722850352980779
1780000000.0 -0.05297729840897635 -0.08378265177727597
1800000000.0 -0.07211438093986615 -0.12498545472340968
1820000000.0 0.14945875714442786 -0.10441169365713991
1840000000.0 -0.12849160157120532 -0.17563787988767157
1860000000.0 -0.2498650922125743 0.03405749853277928
1880000000.0 -0.267276598625968 -0.07916195502284834
1900000000.0 0.29274674410656487 -0.05592584896141
1920000000.0 0.014180906921774697 -0.3198087725326816
1940000000.0 -0.23987120965706868 -0.2541068978325212
1960000000.0 -0.06068469190433336 0.37613986982765374
1980000000.0 0.32864817478593306 -0.2365551840735351
2000000000.0 -0.42031585444992825 0.03297099076142493
2020000000.0 0.21039893884466385 0.3720709488872649
2040000000.0 0.363715383750738 -0.22698851285785182
2060000000.0 -0.1126663707833629 -0.40437950983100357
2080000000.0 -0.1803563316932006 -0.37047577280946065
2100000000.0 -0.2691317582927896 -0.2987414691678955
2120000000.0 -0.23928549121058554 -0.3126069639622182
2140000000.0 -0.3411231431400272 -0.17971636102215172
2160000000.0 -0.06304552142653809 -0.3670923514872407
2180000000.0 -0.2868002453007431 -0.21501856511861372
2200000000.0 -0.3241631586876391 0.10777615185675489
2220000000.0 -0.18624563054685242 -0.2706167461896093
2240000000.0 0.03913048482487638 -0.3283909713218645
2260000000.0 0.07334020127580947 -0.3301102113188164
2280000000.0 -0.26512226392196475 -0.23048619928324887
2300000000.0 -0.3630798544159705 0.07299205894503046
2320000000.0 0.08820994396787678 0.3938687370981245
2340000000.0 0.045237456776648984 -0.44387002766059214
2360000000.0 0.2588097470430436 0.4211150216947281
2380000000.0 -0.5175045828196567 0.16570351888240864
2400000000.0 0.03125438965601474 -0.5890687546535445
2420000000.0 0.507568409796664 0.3824899299925135
2440000000.0 -0.6344899176835295 0.2402822975268689
2460000000.0 0.24603469556746235 -0.6690512902482055
2480000000.0 0.12393207033222624 0.7280382212063484
2500000000.0 -0.1535344515874755 -0.7394805963946596
2520000000.0 -0.025946690342149064 0.7625076579811486
2540000000.0 0.38150647185570885 -0.6618708869990316
2560000000.0 -0.6784250586442798 0.3371140514983769
2580000000.0 0.6815198080287762 0.29605342975877985
2600000000.0 -0.2944234902933744 -0.6589059175766501
2620000000.0 -0.21456254515648443 0.6609546115964992
2640000000.0 0.4290405887559718 0.5039350779429438
2660000000.0 -0.27134138520058143 -0.5585526291201155
2680000000.0 0.11454475500812926 0.5623199650735285
2700000000.0 0.25874870494922747 -0.456688694798759
2720000000.0 -0.47834459322283024 -0.034557102195985616
2740000000.0 0.095045445701298 0.434382901981979
2760000000.0 0.038124279939359525 -0.418783259244234
2780000000.0 0.29307917902272373 0.2750268674755079
2800000000.0 -0.05921468131787406 0.38026207953922686
2820000000.0 -0.3094768429902377 0.19344927836233364
2840000000.0 -0.0847516359420193 -0.33443932366480694
2860000000.0 1.8537424687213932e-06 0.3339719179768638
2880000000.0 0.32060654436728436 -0.07938416568084347
2900000000.0 -0.025019995780638675 -0.3357812139575868
2920000000.0 -0.28901761996942743 0.19407616260334556
2940000000.0 0.34484838183576827 0.09091582642710157
2960000000.0 -0.19442296770465192 -0.30079424490574047
2980000000.0 -0.34951987418272124 0.03497104355674027
3000000000.0 -0.18483333202729463 -0.28993036434941233
3020000000.0 0.3369542375269542 -0.004348590961599349
3040000000.0 -0.33457359335379566 0.0046551349041803235
3060000000.0 0.15054338733012837 -0.2992303026147119
3080000000.0 0.10099330573323367 0.31781773642931066
3100000000.0 -0.22172434242963343 0.24626915206384814
3120000000.0 -0.2554904723153309 0.19248320143325848
3140000000.0 -0.26426969017372004 -0.13933262749582553
3160000000.0 0.01751832449808381 -0.2633559448708786
3180000000.0 -0.010905119877419569 0.23377528819474222
3200000000.0 -0.034939706499474754 -0.20495180752929062
3220000000.0 0.12399817282369816 0.13437576254401157
3240000000.0 -0.15567239023242035 0.04146339350205808
3260000000.0 -0.10800960891900883 0.08698522491987813
3280000000.0 -0.053542903123906846 -0.09747892962200558
3300000000.0 0.041786453504888015 -0.07090501857260904
3320000000.0 0.055653294540734914 0.016839505938173502
3340000000.0 -0.028634083967504824 0.02988664901329517
3360000000.0 0.0274133514143071 0.025576301492046705
3380000000.0 0.02286768697760306 -0.032223875062151484
3400000000.0 -0.0388327791031138 -0.02806858048200946
3420000000.0 -0.06263202187721313 0.0010762571422698061
3440000000.0 0.0739215846442572 0.014906559250587101
3460000000.0 0.07209768104896118 -0.050770928877163835
3480000000.0 0.08920022492025727 0.04654077259464214
3500000000.0 -0.03289431185297604 0.11161222227759962
3520000000.0 -0.10542956573632502 0.08372862614184187
3540000000.0 0.07541515843208707 0.1321984869461872
3560000000.0 0.16152297619076847 0.029378998836375413
3580000000.0 0.0028680901338823516 -0.17561623387280564
3600000000.0 -0.18222545362720297 -0.007604825901026457
3620000000.0 -0.175660678539357 0.04542538620171313
3640000000.0 -0.16303903726559638 -0.08071407832085183
3660000000.0 -0.01489288130016533 -0.17800974928411697
3680000000.0 0.1545684066266126 0.08046137228506751
3700000000.0 -0.05030018254050354 0.16317685873132134
3720000000.0 -0.15524253065383603 -0.056573587204072705
3740000000.0 -0.01280969558376043 -0.15731897823852914
3760000000.0 -0.09687477799443317 0.11073295216231309
3780000000.0 0.13436506030150747 0.00538140606750502
3800000000.0 0.11405110059269019 -0.038761058066917355
3820000000.0 -0.050161918349985776 0.09557072189065112
3840000000.0 -0.09021545469520467 0.0462162363895454
3860000000.0 -0.09195976424765473 -0.0489075307748744
3880000000.0 0.11138142716953173 0.028994188859816694
3900000000.0 -0.04781185174696469 -0.11743427461427648
3920000000.0 -0.04233789978233439 -0.12685806268903896
3940000000.0 -0.12587652512657424 0.04394793710091627
3960000000.0 0.1169045112864985 0.04622192030966117
3980000000.0 -0.01190377963698649 -0.11000174766827861
4000000000.0 -0.0598238324402805 -0.06885947853319532
