!Created with skrf (http://scikit-rf.org).
# Hz S RI R 50.0 
!freq ReS11 ImS11
400000000.0 -0.8207501240388663 -0.2501231559999849
420000000.0 -0.2979366937442153 0.7820341759652323
440000000.0 -0.20827106879756555 0.7607080105769033
460000000.0 0.059434872037770405 0.7316416998812759
480000000.0 -0.5168623061645891 0.4213822996378668
500000000.0 0.004541523030257254 0.6134690765151077
520000000.0 0.5064075329284021 0.12951284589381207
540000000.0 -0.41615899969974807 0.04204055036970834
560000000.0 0.13052156326903352 0.3898517458033374
580000000.0 -0.05496353773032679 0.3609731292061299
600000000.0 0.33956049232923796 -0.0435988792379103
620000000.0 0.27379237503572434 0.22531547057648363
640000000.0 0.05966514384286163 0.4020204204024618
660000000.0 -0.42714902749959655 -0.13019167952473087
680000000.0 0.43131469391436233 0.174457424919546
700000000.0 0.43220596905507386 0.1743594493191297
720000000.0 -0.25579794595212507 0.3698514850175461
740000000.0 0.2263489030112455 -0.33012488746808955
760000000.0 0.15381680294714659 0.2989425692211942
780000000.0 -0.056452431710956236 0.3049781591903067
800000000.0 0.2585506465757221 0.1302211769970099
820000000.0 0.11550254346265097 -0.21671868324629162
840000000.0 0.017185394283586033 -0.19608757162637835
860000000.0 -0.10287474239344216 -0.11188864028839941
880000000.0 0.11580516763103572 -0.021362535455838553
900000000.0 0.0022160030386434194 0.09299864287902979
920000000.0 0.025790431880420527 -0.06893270646782089
940000000.0 -0.022387581700310386 -0.05349440176138256
960000000.0 -0.00707713393621384 -0.05562853853032251
980000000.0 -0.023436598426860654 0.05633820252417335
1000000000.0 0.01481126120799687 0.07608434262703
1020000000.0 0.07667655082655966 0.06794745907601524
1040000000.0 -0.10651642463411455 0.0701426768173656
1060000000.0 0.04264609557372398 -0.15306657925154044
1080000000.0 -0.14310971684222232 0.12926008783119827
1100000000.0 -0.10335943544416389 -0.1878474223834388
1120000000.0 -0.09546486843909088 -0.2198125569764286
1140000000.0 0.20312319864686867 -0.16938683805390567
1160000000.0 -0.2799403639222635 -0.07710617786635621
1180000000.0 -0.31474907963363075 -0.0018243416444933707
1200000000.0 -0.08593067558904521 -0.31989545184872203
1220000000.0 -0.30112736319610484 0.1548725521573133
1240000000.0 -0.3547584204294089 0.06790937888921829
1260000000.0 -0.01842112594449684 0.3930489752215412
1280000000.0 -0.14532826372885058 -0.3899772369609464
1300000000.0 0.19649350047855016 0.3706728982322273
1320000000.0 0.2347785703401569 -0.3312940314879771
1340000000.0 0.3793653473510315 0.10727716793899224
1360000000.0 0.15796621692759477 0.3579022113284032
1380000000.0 0.1623429465455619 0.3538190764231468
1400000000.0 0.3138783695622576 -0.2166114468980108
1420000000.0 -0.2831334567478659 -0.21404297165204594
1440000000.0 -0.20800010195523602 -0.2616109933498938
1460000000.0 0.035746172597850116 0.31559829207857637
1480000000.0 -0.288844662698182 -0.006890749785629492
1500000000.0 -0.09078749523605502 -0.22611133659147628
1520000000.0 -0.03296998323729419 -0.19531744693823422
1540000000.0 0.04089977821823592 -0.15919428430078922
1560000000.0 -0.1351579288920525 -0.05353372574664739
1580000000.0 0.0037845721514511597 0.1239978741441373
1600000000.0 -0.054572944258948035 0.0717515996767633
1620000000.0 -0.004177627837923402 -0.055903706308480954
1640000000.0 -0.030114064371775457 0.002505923469673391
1660000000.0 -0.00011490886958129412 -0.011141147237814886
1680000000.0 -0.0031254578072894886 -0.00010664724544182546
1700000000.0 -0.0169912683709644 -0.01693931808003045
1720000000.0 0.0396908462726223 0.013492941799727449
1740000000.0 0.04031414904014069 -0.03897917535268829
1760000000.0 0.04138003115716729 -0.06251604068943677
1780000000.0 0.03760094505306385 0.09848643722779776
1800000000.0 0.11151327259947832 0.07369499215433246
1820000000.0 -0.02716401492762704 -0.15750560562864177
1840000000.0 -0.14730418562334363 -0.1290502746360869
1860000000.0 0.11477388675708106 -0.21538435466229933
1880000000.0 0.2784353985418309 0.009670499924068272
1900000000.0 -0.3107674584604799 -0.018493515275151716
1920000000.0 0.3392856947054933 0.06596079020650655
1940000000.0 -0.3756069649876626 -0.013183910857140622
1960000000.0 0.3686874080033359 -0.1397505856605326
1980000000.0 -0.19061203817448555 -0.3551219687677139
2000000000.0 -0.4006328635231766 -0.1040591848641221
2020000000.0 -0.3425171329309787 0.2472566463023528
2040000000.0 -0.05785644126726249 0.42551050036438604
2060000000.0 0.42829395672085085 -0.03147683945444293
2080000000.0 0.06741422236317335 -0.41415774263810784
2100000000.0 -0.19777501364717695 -0.35391368599075784
2120000000.0 -0.24468245642282893 -0.3075823386009638
2140000000.0 -0.3721946095990262 -0.08109751062626123
2160000000.0 -0.1608526546101472 -0.3229956546893642
2180000000.0 0.025270576144250854 -0.33688172023488255
2200000000.0 0.29141612227862546 0.14460141744347166
2220000000.0 0.026847403144133822 0.3269178970901786
2240000000.0 0.32465011861865944 0.07663474208054469
2260000000.0 0.3187443835822568 -0.10086111165096126
2280000000.0 0.26902435711563993 -0.21950822226386546
2300000000.0 -0.33752698550987636 -0.14880614157103625
2320000000.0 0.2090661751957353 0.33416961229229375
2340000000.0 -0.0615261665986783 -0.42326677814233804
2360000000.0 0.07447613623505808 0.4637865979501512
2380000000.0 -0.40507959592436704 -0.32576204262033603
2400000000.0 0.4840521779570092 -0.301868300955879
2420000000.0 0.318623635013647 0.5270461363700948
2440000000.0 -0.6301757746068428 0.1762784964023419
2460000000.0 0.25988038370338473 -0.6354623236351997
2480000000.0 0.1625275085882729 0.6929891745182846
2500000000.0 -0.279585614826678 -0.6710725309899094
2520000000.0 0.22158175390063356 0.7012786648054673
2540000000.0 0.11937221244617688 -0.7259487817198967
2560000000.0 -0.4777973773293323 0.5508838338162942
2580000000.0 0.715102617428214 0.0267031046574218
2600000000.0 -0.5455594752076077 -0.42914051913887924
2620000000.0 0.13479745140631091 0.6537117605178013
2640000000.0 0.5292257634422979 0.3518009572774755
2660000000.0 -0.2770553028394185 -0.5309278967100657
2680000000.0 0.2162716939147435 0.5147763299743505
2700000000.0 -0.2587905843462677 -0.44436621532497333
2720000000.0 0.1310960438699011 0.45098850137070545
2740000000.0 0.093907968269987 -0.4233762437890758
2760000000.0 0.04342066022048002 0.40142463160148206
2780000000.0 -0.21082111668116715 -0.31219606898196844
2800000000.0 0.20612852615925428 0.2931889736988177
2820000000.0 -0.27467155008894767 -0.21852676041412633
2840000000.0 0.25820131360162685 -0.23651804972317383
2860000000.0 0.07477021412904551 0.33950289316377186
2880000000.0 -0.20601171412931585 -0.278505318288611
2900000000.0 0.06388006731411985 0.340532268106007
2920000000.0 0.27173775886857915 -0.2182779397565185
2940000000.0 -0.17150176469453352 -0.30519964650988807
2960000000.0 -0.27004887953585244 -0.22010645443851587
2980000000.0 0.0043822010541532085 -0.3484164680143748
3000000000.0 0.30221432785032726 -0.18323617738827389
3020000000.0 0.3539028835365891 0.01746265486536614
3040000000.0 0.1863067068760804 0.29579126043050175
3060000000.0 -0.33459513867041196 -0.07008245495261575
3080000000.0 0.30617248978271694 -0.1368031080293572
3100000000.0 0.02415180368194463 0.3261747035724739
3120000000.0 -0.30752041446964345 -0.060474491098696
3140000000.0 0.19401013938178313 -0.22731813385604907
3160000000.0 -0.26172849470121573 0.10698351285006562
3180000000.0 -0.26292679589225687 -0.006627825109150984
3200000000.0 -0.2331511793791372 -0.024078885949590477
3220000000.0 -0.19939455972871187 0.0021391844659186194
3240000000.0 0.10694052106325698 -0.12225831969793352
3260000000.0 -0.1304521866363708 0.03251266703720461
3280000000.0 -0.10811467688561359 0.017126408671440774
3300000000.0 -0.06320573664137935 0.05368545550978815
3320000000.0 0.040985062003706184 0.044561286223826956
3340000000.0 0.03867716928326659 -0.026321861272033925
3360000000.0 0.020699898730037133 -0.032926357562989596
3380000000.0 -0.03831527285042274 0.0014356093755285664
3400000000.0 0.00018516398879052723 -0.04290435862891732
3420000000.0 -0.04384200514180006 0.03292634697686155
3440000000.0 -0.018896807348104273 -0.06587753571380417
3460000000.0 0.04663373139020308 0.0694553419042782
3480000000.0 0.03462138167476182 -0.08912549809393029
3500000000.0 0.008021871604677985 -0.10871658169101686
3520000000.0 0.12058217932632405 -0.01967130000124624
3540000000.0 0.1375577757417195 0.018752385472008838
3560000000.0 0.0888795797514362 -0.12446187175226292
3580000000.0 -0.0854687776363435 -0.13655227403736922
3600000000.0 0.08329280846818798 -0.14651629043240263
3620000000.0 -0.09975649458044121 -0.14812699193317594
3640000000.0 -0.11183916664942038 -0.14086163404117052
3660000000.0 -0.019591772535860558 -0.18065093607409113
3680000000.0 0.08210389955372609 -0.15858759184226323
3700000000.0 0.11338123058728496 -0.13268647217546756
3720000000.0 0.14599943106527394 0.07475222012464343
3740000000.0 -0.15258979744725754 0.027919908305160224
3760000000.0 0.010679460092031122 0.14445144260173015
3780000000.0 -0.037287297701707627 0.126425305807632
3800000000.0 0.08851357588242521 -0.089353320906137
3820000000.0 0.06358122736753041 0.10991705170885908
3840000000.0 0.11229584008326221 0.0570818934035181
3860000000.0 0.048311123557860255 0.11188587867437984
3880000000.0 -0.0020661411005704613 -0.12360984398573018
3900000000.0 -0.07940737622436964 -0.10753391910308771
3920000000.0 0.040533330040374536 -0.1333807354018659
3940000000.0 0.1379086472160604 -0.007556777543948477
3960000000.0 0.0019046298675202676 0.13810531015570754
3980000000.0 0.11538176643738454 -0.06903369974008192
4000000000.0 -0.10634101909226544 -0.048354301776112385
