!Created with skrf (http://scikit-rf.org).
# Hz S RI R 50.0 
!freq ReS11 ImS11
400000000.0 -0.850059740084497 0.09019012592589648
420000000.0 0.18159356617370598 0.8188421399537744
440000000.0 0.7442172678784342 0.2313035254909126
460000000.0 0.20232732087880453 0.6787384590118511
480000000.0 -0.5029150451489859 -0.41719941976536873
500000000.0 -0.31987112340598534 -0.519706336562074
520000000.0 0.25488835309980357 -0.4802868786483953
540000000.0 -0.3601011789193418 0.2990935876364164
560000000.0 0.3827429297533938 -0.204446890222645
580000000.0 0.3761251804690203 -0.059766613482400185
600000000.0 -0.24675557437079015 -0.25239898685066386
620000000.0 0.34903626764090767 -0.07480740674570292
640000000.0 0.35778967269634143 0.20510992815453152
660000000.0 -0.22535829359550832 0.3972285796467536
680000000.0 -0.32823932878701184 -0.3429220559649039
700000000.0 -0.3551959680411694 -0.28909032077495944
720000000.0 0.38788458905307877 0.19301981505034296
740000000.0 0.38671507392418497 -0.030359208812930808
760000000.0 0.06045943213849215 0.3345535427017533
780000000.0 0.14551081386634088 -0.2775373846765117
800000000.0 0.0698081502907393 -0.270051694927693
820000000.0 0.16226177853714233 -0.16334774219935796
840000000.0 -0.09070191715000156 -0.17496122254488414
860000000.0 0.16565604056187358 -0.051513961452914626
880000000.0 0.12269241521353255 -0.02988547291396717
900000000.0 -0.0797287427899884 0.01628789649794946
920000000.0 -0.007954239996706247 0.050321481082106365
940000000.0 0.04163140214368892 -0.010628065416106577
960000000.0 -0.053164627002892935 -0.01920050128000712
980000000.0 0.00844353713715109 -0.06530218731811088
1000000000.0 -0.07176121941613209 0.04000170019982429
1020000000.0 -0.09724268673947813 0.03802241601484709
1040000000.0 -0.013536550256640011 -0.12622278144551174
1060000000.0 0.13084914388447996 -0.10295806545558123
1080000000.0 0.20074332589677732 -0.008701906443545822
1100000000.0 -0.13541810885296737 0.18570375005941914
1120000000.0 0.1963669473850636 -0.16600900132286223
1140000000.0 0.27312029351499345 -0.030194354535889402
1160000000.0 0.1552992949213383 -0.24935701323941525
1180000000.0 0.31102347197951086 -0.05623698714893416
1200000000.0 -0.3246255290721131 0.08573000721264698
1220000000.0 0.2615707715022194 0.241144474694496
1240000000.0 0.191804687212347 -0.3213449643859199
1260000000.0 -0.3821578842609361 -0.09267403656525479
1280000000.0 -0.24339566645058208 0.3183671431042908
1300000000.0 -0.07007094266518352 0.4019590334587136
1320000000.0 0.15160641322204346 0.38039683951555714
1340000000.0 0.0393388338335514 0.41077883191506476
1360000000.0 0.1407343592637873 0.3867621425955107
1380000000.0 0.35643087398328327 0.19944222425072064
1400000000.0 -0.009154489762955947 -0.39634981625916776
1420000000.0 -0.3753758713817275 -0.006091773683043608
1440000000.0 0.350534875519329 0.04494039131544607
1460000000.0 -0.3121890536312102 0.03268543860921722
1480000000.0 -0.17897673071652714 0.20291190601929912
1500000000.0 -0.01049219446050632 0.23823976344233228
1520000000.0 0.20571721765748813 0.039646126489205076
1540000000.0 -0.13064569540667362 0.10918250794710967
1560000000.0 -0.07504347465201441 0.11251375394529807
1580000000.0 0.08726610011053536 -0.06371466408528809
1600000000.0 -0.07190762635753042 -0.03963416649869801
1620000000.0 -0.052882259230611704 0.02773399610734122
1640000000.0 0.004270700466881902 -0.03210912431550147
1660000000.0 -0.01481000842256519 -0.010304124417003745
1680000000.0 -0.016457298936315652 0.002929968845378108
1700000000.0 0.015292237277802824 0.013227424180129425
1720000000.0 -0.01950676843746451 -0.02921687946817849
1740000000.0 0.02276994177976129 0.054592459704114964
1760000000.0 0.08874400292062556 0.01186753833240973
1780000000.0 -0.0967040725453428 0.08150686900290298
1800000000.0 0.16228270925058366 0.004742485530223698
1820000000.0 0.01037457839569359 0.18965217779216653
1840000000.0 -0.13599747155388472 -0.17827806243459082
1860000000.0 0.25359396431564174 -0.061181536496374554
1880000000.0 0.016344199120982682 0.2968773692756341
1900000000.0 -0.28305088205704804 -0.16729949664358493
1920000000.0 0.31698668198656477 0.16369817292513014
1940000000.0 -0.3832528506666877 -0.036223346674863384
1960000000.0 0.33274834491297 -0.21557947200508293
1980000000.0 -0.2541751135659547 -0.30195340149339395
2000000000.0 -0.06115879091072738 -0.39466773710262737
2020000000.0 0.08845393206715207 -0.40485964180653805
2040000000.0 -0.41279682770004095 -0.11814033182182229
2060000000.0 0.270199774521877 0.3323327080901044
2080000000.0 0.2487580096042644 -0.3343971951507023
2100000000.0 -0.31603190402581416 -0.24869835993143385
2120000000.0 -0.3798547833770127 0.029982017932032503
2140000000.0 -0.3315121174343807 0.14090624059677503
2160000000.0 0.08368284466025262 -0.33015254483579604
2180000000.0 0.1969583548277879 -0.26054286300066487
2200000000.0 0.11194364663850956 -0.29668104779199117
2220000000.0 0.1696027277277822 -0.2614451818199237
2240000000.0 -0.2750298523927125 -0.14339970070658797
2260000000.0 -0.3057953391401295 -0.03962741931011179
2280000000.0 -0.19195363213753672 0.255044005884932
2300000000.0 0.31874248020385204 0.12470263530034928
2320000000.0 -0.16916793441744754 -0.33257531056992595
2340000000.0 0.23772049766271386 0.3414762531004895
2360000000.0 -0.37505856128131737 0.2770111889219462
2380000000.0 -0.4682848961656573 -0.21462272907831223
2400000000.0 0.3232520250315386 -0.46108082026852937
2420000000.0 0.5022479301277866 0.3495306612847873
2440000000.0 -0.35475435014929263 0.551270063037162
2460000000.0 -0.4339765609720315 -0.5361189248078656
2480000000.0 0.7157369046965542 0.0038073298100943535
2500000000.0 -0.6692493448064816 0.2997080660713468
2520000000.0 0.6088825135207473 -0.4219716425191476
2540000000.0 -0.40161037391035925 0.6183171579346237
2560000000.0 0.32110724236245003 -0.6522531736198351
2580000000.0 -0.5225447690586662 0.48326295022761245
2600000000.0 0.6867305692217988 0.02449175387595249
2620000000.0 0.6012225462940873 -0.25624248047959847
2640000000.0 -0.47199782935665807 -0.39277248240458396
2660000000.0 -0.38070565432743214 -0.42168407531813795
2680000000.0 -0.41335899263846043 0.32988443070445084
2700000000.0 0.2959384340513393 -0.3933020283136122
2720000000.0 -0.39090400906943545 -0.23379736955225883
2740000000.0 -0.3420916600685047 0.2542903413612277
2760000000.0 0.31364633247416607 -0.24165648885038774
2780000000.0 -0.2702672752751029 0.25588419300395665
2800000000.0 0.23983210992200513 -0.2658715771853263
2820000000.0 0.35029951838335033 0.04768570242317374
2840000000.0 0.23811226076478467 -0.2726751704233441
2860000000.0 0.2793158913365195 0.2766904301433888
2880000000.0 0.19820714730285277 -0.3402284324985006
2900000000.0 -0.12942876136517567 -0.37069480633173457
2920000000.0 -0.3333724734372082 -0.2132385411343927
2940000000.0 -0.2579418824582286 -0.29789437985230705
2960000000.0 0.06785112366026085 -0.38220107361569683
2980000000.0 0.05547592354143525 -0.38761095264920886
3000000000.0 0.3878065455019986 -0.08233335533868541
3020000000.0 0.0010486755544534337 0.39751571777815514
3040000000.0 -0.2631091590341435 -0.29472850000420175
3060000000.0 0.3709096232413877 0.12087218605623981
3080000000.0 -0.29908548938050517 0.23648991134626113
3100000000.0 0.3244380870936444 -0.18591546775352885
3120000000.0 -0.15892456740797062 0.3262411171555606
3140000000.0 -0.03579465241108109 -0.345625877341361
3160000000.0 -0.2818202280904967 0.15641353263882316
3180000000.0 0.2747829702464904 -0.1162098546494107
3200000000.0 -0.2532314896106437 0.09162342460835453
3220000000.0 0.22983851838747144 0.08028377592500846
3240000000.0 -0.0800085859284652 -0.20137714818567906
3260000000.0 -0.1919371757721508 -0.05673204668038928
3280000000.0 0.13356104995632745 -0.07667733878313425
3300000000.0 0.1202071779632117 -0.00021267205291092134
3320000000.0 0.092836657700251 -0.05206902512195867
3340000000.0 0.07513717188029294 0.042066580912970865
3360000000.0 0.0640317530617903 0.04415100194615753
3380000000.0 0.06079639911799618 -0.04438507667815289
3400000000.0 0.02688328433394404 0.06435217811788223
3420000000.0 -0.06266036698903403 0.006180982669349192
3440000000.0 -0.0007426431297030291 0.04147200061400421
3460000000.0 0.016838310389323 -0.028895867768659537
3480000000.0 0.02541395971233967 -0.014658787867887164
3500000000.0 0.020261278061152955 -0.022809749909737456
3520000000.0 -0.04419001188238202 -0.0048805679440107365
3540000000.0 0.04951234080337391 0.10845672722156614
3560000000.0 -0.11884444102475618 0.1516352453840647
3580000000.0 0.2140151809853049 -0.007527708778262009
3600000000.0 0.11545040782648126 -0.1962093436779647
3620000000.0 0.23454094033018352 0.0012257284076504353
3640000000.0 0.07720639796328203 -0.24655487745957638
3660000000.0 -0.05296773706310776 0.2537270854425335
3680000000.0 0.0165734764246419 0.18044727091552168
3700000000.0 0.04804841701124936 0.17307697511304743
3720000000.0 -0.10435819432238656 -0.134915674847463
3740000000.0 0.16055206158451688 0.04710562293626246
3760000000.0 0.04716124907506985 -0.1547740714409296
3780000000.0 -0.13796686764110616 -0.06649213573901262
3800000000.0 -0.12194499754324975 0.07954499138243906
3820000000.0 0.13376884084388546 -0.07531883445272461
3840000000.0 0.14344176694531163 0.017750552100231572
3860000000.0 -0.0316725503923306 -0.1847046276930467
3880000000.0 -0.0479813532937924 0.18988825735216655
3900000000.0 0.1627450957146635 0.09891137157734303
3920000000.0 -0.07358654152808267 -0.2061165599354905
3940000000.0 0.20577962483735102 0.07799319585128174
3960000000.0 0.2174175095044667 -0.042041676254053015
3980000000.0 -0.276053958134888 -0.0004967942098045729
4000000000.0 -0.018576126661870793 -0.24629938570699803
