!Created with skrf (http://scikit-rf.org).
# Hz S RI R 50.0 
!freq ReS11 ImS11
400000000.0 -0.14326556203957633 -0.84033328812821
420000000.0 -0.83327705956994 -0.12754431010671302
440000000.0 -0.18319098834786 0.7655725570402521
460000000.0 -0.5041688687544287 0.5051698514043733
480000000.0 0.3122399742203882 -0.5776574135913312
500000000.0 0.506965820468338 -0.33663163885278835
520000000.0 0.5173502100074031 0.16812757956058663
540000000.0 -0.44669794547829234 -0.16248729942305046
560000000.0 0.43441238361434037 -0.05808276790734208
580000000.0 0.31124624825566 -0.2368054133502159
600000000.0 -0.34013561207256154 -0.11714459252055254
620000000.0 -0.2414831019188916 -0.2744276298836024
640000000.0 0.22328692519908844 -0.3463602893593093
660000000.0 0.013607434630505606 0.4513124135714411
680000000.0 -0.20483564794414572 -0.42141737948392055
700000000.0 0.36056682023285175 -0.2753793096257893
720000000.0 -0.4177700611538294 0.1495445641580996
740000000.0 0.28071326453586015 0.2870464297033708
760000000.0 -0.296730434610043 0.18086766939029333
780000000.0 0.2999696441533339 0.09433935778581501
800000000.0 -0.25492266411389325 0.13187594251086582
820000000.0 0.23205711816705574 0.07674429726324146
840000000.0 -0.19002091329806553 -0.050560913780446116
860000000.0 0.10987321646194093 0.10995329191380886
880000000.0 -0.01709439854914895 -0.10884175161085208
900000000.0 0.02365237188964652 -0.0816555556141836
920000000.0 -0.031458011802940604 0.04197961823098665
940000000.0 -0.01536681514384038 0.043530798943244624
960000000.0 0.011476678484956107 -0.06058218669982231
980000000.0 0.06686656906274645 -0.012467810753305972
1000000000.0 -0.07131481703714518 -0.05248458426373235
1020000000.0 -0.10610447393859594 -0.03697314657906286
1040000000.0 -0.011323693431983481 -0.1354698340905765
1060000000.0 0.1788533217349016 -0.0036646182243170373
1080000000.0 -0.08443422335941743 0.18755663438254555
1100000000.0 0.07872970788480273 0.2205945811799306
1120000000.0 -0.007797378323356565 -0.26325197780988197
1140000000.0 0.24891685731465246 0.12679442479607084
1160000000.0 -0.04622607592701635 -0.3056016615405009
1180000000.0 -0.29844054591014607 0.13321812252894916
1200000000.0 0.21235128970627573 -0.2549151197010394
1220000000.0 -0.17277646288495566 -0.3033240310229429
1240000000.0 -0.3553911920512627 0.10204404159328066
1260000000.0 0.2622576130138913 0.28426958863643714
1280000000.0 0.37878688198341215 -0.11654839262349977
1300000000.0 0.1473499475295035 -0.3766891592467495
1320000000.0 -0.12429797576294609 -0.3884979894705309
1340000000.0 -0.2386113224099282 -0.3340385874604097
1360000000.0 -0.40795066925414786 0.04226671739137668
1380000000.0 -0.17324057831622983 0.35997133520742036
1400000000.0 0.26400215065644267 0.2828397864714131
1420000000.0 0.24206661958330256 -0.27831854779388654
1440000000.0 -0.286228823903698 0.19635680203684558
1460000000.0 0.2884983686299362 -0.12141832202646316
1480000000.0 -0.23658005654857905 0.14321349243306428
1500000000.0 0.22813071681244496 -0.04779858136626909
1520000000.0 0.18574379471481975 -0.05479717260760638
1540000000.0 -0.04049393178181298 -0.1540276880608434
1560000000.0 -0.12910118140254317 0.02201323826986173
1580000000.0 -0.08294279038290513 -0.06620160284803403
1600000000.0 0.07305152335463175 0.010015614044172795
1620000000.0 -0.017960260961197582 -0.0531372426966246
1640000000.0 0.03662017775434825 -0.011351860179446772
1660000000.0 -0.011290546285588213 -0.00224024357377622
1680000000.0 0.0055895979353673105 -0.005465432610224056
1700000000.0 0.017717989860871843 -0.0048729870521515084
1720000000.0 0.010072595982864882 -0.02554495427973977
1740000000.0 0.03688935787444247 -0.021741991654869328
1760000000.0 0.05040634072352038 -0.03966145888364583
1780000000.0 -0.06893253832038948 -0.07246689261176473
1800000000.0 -0.016986859079662853 -0.1336865599812425
1820000000.0 -0.04491646943061966 -0.15890676890574673
1840000000.0 0.1962990189084774 -0.033586843944576915
1860000000.0 0.08253261488312731 0.22796238543373265
1880000000.0 0.12190061606348504 0.2559374700735421
1900000000.0 -0.21151519489399703 0.23095773636193795
1920000000.0 0.07932518147992308 -0.3303717559421067
1940000000.0 -0.10901505540853186 0.34733745908977054
1960000000.0 0.2642924884569765 -0.2703490541088194
1980000000.0 -0.06292428315680582 -0.38504525590881183
2000000000.0 -0.3267095900199097 -0.24197864611111486
2020000000.0 -0.3830019755867165 0.17297186196573242
2040000000.0 0.2035423413217092 0.3757829127920791
2060000000.0 0.3622525087653065 -0.22311130945847132
2080000000.0 -0.13136869601251963 -0.39905762558306807
2100000000.0 -0.40694084150280935 -0.029946462723393876
2120000000.0 -0.38984064074743774 0.05506843637415465
2140000000.0 -0.29091396475037234 0.24394918918184608
2160000000.0 -0.20019442461850073 -0.30242663177243156
2180000000.0 -0.13094238161960767 -0.3242154297031789
2200000000.0 -0.18874583288818736 -0.2789473095832672
2220000000.0 0.12067271316279697 -0.30641854836066623
2240000000.0 0.15939339236747815 -0.29537191542089913
2260000000.0 -0.08545826888654619 -0.3287594734467814
2280000000.0 -0.3336339338300479 -0.10414800231500108
2300000000.0 -0.29829898239530706 0.21233410639871758
2320000000.0 0.010427313240077141 0.39587580617709256
2340000000.0 0.2616122726175527 -0.3541846474292826
2360000000.0 -0.036907289253434436 0.48642971461666723
2380000000.0 -0.46236197152342406 -0.27396621836891255
2400000000.0 0.5331590214390908 -0.24181227554455476
2420000000.0 -0.09810623224221932 0.6259480378593886
2440000000.0 -0.592658313548079 -0.3271482950248164
2460000000.0 0.6738298347972305 -0.229436232053445
2480000000.0 -0.43312210085196645 0.5974166067923682
2500000000.0 0.4218955077520376 -0.6275447091196298
2520000000.0 -0.5130508311092201 0.5671905669084935
2540000000.0 0.7077791385525776 -0.29415808632729523
2560000000.0 -0.7353720627440035 -0.19675202397460162
2580000000.0 0.38515375973216637 0.6406274176584834
2600000000.0 0.1829292533249538 -0.702181158514443
2620000000.0 -0.5465698238993018 0.4350295933702276
2640000000.0 -0.04422378531693905 0.6645394139487663
2660000000.0 0.31546621576224076 -0.540590491753556
2680000000.0 -0.4534859652147787 0.3650941357101295
2700000000.0 0.5302146514527292 -0.0901303642599851
2720000000.0 -0.4919379742903408 -0.04483976683391275
2740000000.0 0.3979619534262487 0.2223538549726061
2760000000.0 -0.3978197278925828 -0.1378878071714452
2780000000.0 0.3837008742587359 0.07984949438341923
2800000000.0 -0.36501938591434024 -0.07364749988028071
2820000000.0 0.3274775371082708 -0.15423624583455958
2840000000.0 0.0536069532252333 0.3529902117574355
2860000000.0 -0.34320522227636796 0.08537236817617785
2880000000.0 0.13405476381670356 -0.320507060015132
2900000000.0 -0.23713654849372515 0.24655173529260258
2920000000.0 0.22642361076125836 0.25473672132849856
2940000000.0 0.34348723139242515 -0.0206811899504721
2960000000.0 0.2705009722310021 -0.21503352837782846
2980000000.0 0.28240047918475497 -0.20443565792775514
3000000000.0 0.33606517352437787 -0.09611247776797888
3020000000.0 0.23837341616415955 0.2526357344053137
3040000000.0 -0.21771693373991308 0.2686852549503078
3060000000.0 -0.2818534178516934 -0.18956492996711882
3080000000.0 0.29863727340307705 -0.14394292089197946
3100000000.0 0.06023451017520686 0.31580713737586
3120000000.0 -0.30146847986035813 -0.06748148714647166
3140000000.0 -0.045774517864101465 -0.29325608774196393
3160000000.0 0.20077674706554097 0.1877330611849625
3180000000.0 -0.009548556444918711 0.24649277109292347
3200000000.0 -0.20825829976619384 -0.06466952711410948
3220000000.0 -0.03253554412413442 -0.18660385589111417
3240000000.0 0.11632867188268725 -0.11043311946019273
3260000000.0 0.12572772419442976 0.03508394777222107
3280000000.0 0.1023061889359477 0.011026500612286088
3300000000.0 0.0313647432140797 -0.07415745161192881
3320000000.0 -0.05942504800997618 -0.01801272513707913
3340000000.0 0.014285246695621204 -0.04669316260262887
3360000000.0 0.022370784429912496 0.03987064616836379
3380000000.0 -0.007946582051076798 0.04687580983682573
3400000000.0 0.0488777725417594 -0.025161451065103015
3420000000.0 -0.04770122454356485 -0.04121784345877541
3440000000.0 -0.02662715596131792 -0.06568301990496143
3460000000.0 0.03848883339392865 0.0756037279539647
3480000000.0 -0.0758324013091068 0.0649397474412264
3500000000.0 -0.11377047078360125 0.02910015235161372
3520000000.0 -0.10234492995910677 -0.08600311828281705
3540000000.0 -0.14911360316801014 -0.02666096423464561
3560000000.0 -0.08453372665878528 0.1426582610601028
3580000000.0 0.17794531407866127 -0.018297805459230616
3600000000.0 -0.10451990208058937 -0.1499770055559042
3620000000.0 0.005867107452260634 -0.18237888825176365
3640000000.0 0.15412348607259097 -0.0998895736245698
3660000000.0 0.16005144650706213 0.08840296209320196
3680000000.0 -0.06762629857747841 0.1672517747929593
3700000000.0 -0.1747431596628783 -0.009186811838706852
3720000000.0 0.046574716330018966 -0.16477130195354747
3740000000.0 0.1426000105304896 -0.07811619998211068
3760000000.0 -0.15155632284879253 0.012869370645992945
3780000000.0 0.11590883400963087 0.07748992793021449
3800000000.0 0.12395913784858019 -0.02391667311461249
3820000000.0 -0.02882827474230596 0.1102679198997806
3840000000.0 0.03965101220664042 0.09894416141742365
3860000000.0 0.10468691125618299 0.017762881082963786
3880000000.0 -0.0764401450154425 -0.08413399911770843
3900000000.0 -0.12096926439988598 -0.022189314908106442
3920000000.0 0.0888820052001678 -0.09492604776548026
3940000000.0 -0.097077364419152 -0.09043062014714663
3960000000.0 0.004680833528270882 0.12610446791328747
3980000000.0 0.08846552871108887 -0.07075517262435906
4000000000.0 0.08615262920252434 -0.039281882592958346
