!Created with skrf (http://scikit-rf.org).
# Hz S RI R 50.0 
!freq ReS11 ImS11
400000000.0 -0.7436268795465864 -0.42423495097019437
420000000.0 -0.4279857888529441 0.722184304730343
440000000.0 0.40968513207454893 0.6709879555405509
460000000.0 0.22397676016701004 0.6840678054876829
480000000.0 -0.6205138412191186 0.18681400861824346
500000000.0 -0.5111122264687361 -0.29570673811839093
520000000.0 0.48852487326413785 -0.16502561463595167
540000000.0 -0.3084103565087515 -0.3352986006491068
560000000.0 0.41290112761986836 0.10727865147667058
580000000.0 0.3700951574282145 0.1018357021649853
600000000.0 -0.22441986494918284 -0.2726969835210394
620000000.0 0.3534359470725675 0.03392643128520639
640000000.0 0.18750570656951598 0.37915206211537505
660000000.0 0.12000426901366759 0.4459373660913253
680000000.0 0.06866510864644258 -0.4706914942671316
700000000.0 0.36804284842859664 -0.2941081661508702
720000000.0 0.18110719552028146 0.4158598406535903
740000000.0 0.0272861483591895 -0.39885307566206535
760000000.0 0.32973360730737516 0.06700511519026343
780000000.0 0.2613559235671739 -0.13681836728953173
800000000.0 -0.03707886576934537 -0.25698398055442223
820000000.0 -0.11250108116817971 0.208383331984788
840000000.0 -0.06324199803579629 -0.20337813981961012
860000000.0 0.044654284924444475 0.1794181073916191
880000000.0 -0.15381379757034874 0.022396392517697088
900000000.0 -0.05532776279393356 -0.10681492557637196
920000000.0 -0.0759207815003173 -0.01964852040624916
940000000.0 0.03210257923630942 -0.04789068947909267
960000000.0 -0.010459034844438433 -0.05534919520257677
980000000.0 0.043733195935018766 -0.02855814531357083
1000000000.0 -0.041773396394613874 0.0450621915176073
1020000000.0 -0.03827258389780152 0.07561617826595718
1040000000.0 -0.0057922885071445916 0.1253696480217572
1060000000.0 -0.07049083260632223 -0.15340489555475392
1080000000.0 0.00040109219922365073 0.20699808193939065
1100000000.0 -0.17352804625926696 -0.178670490857851
1120000000.0 0.2660729141537047 0.09865761682632095
1140000000.0 0.08391235139761583 -0.29675739130290335
1160000000.0 0.25108675654102974 0.20535477418153716
1180000000.0 0.11559197012939307 -0.31304157367156216
1200000000.0 0.12868835414942287 0.2982859490744557
1220000000.0 -0.32258374650172 0.08474930837830452
1240000000.0 -0.21087568235288054 0.28931009848205963
1260000000.0 0.06747266393979484 0.36869569427286353
1280000000.0 0.24307399838173066 0.3073574365676881
1300000000.0 0.32478972217777635 0.251155822912886
1320000000.0 -0.1839500628259183 -0.3849012897288887
1340000000.0 -0.25114134175155095 0.33864121414814374
1360000000.0 0.2706912855166336 0.3143531680178648
1380000000.0 0.34266442967576216 -0.2013795192442851
1400000000.0 0.019855144109121224 -0.37704298052120877
1420000000.0 -0.2606183660220831 -0.23675936968077044
1440000000.0 -0.3020850301860759 0.1401326047367616
1460000000.0 0.1566421518913401 0.2605754083152757
1480000000.0 -0.06819015788814896 -0.27176523255885043
1500000000.0 0.12389570787515967 -0.2094383718141445
1520000000.0 -0.10651504072432141 0.1715843636572949
1540000000.0 -0.14684306939415748 -0.05601339415872549
1560000000.0 -0.014308557839977372 0.11588035809740839
1580000000.0 0.06562250933235908 0.055865092416611035
1600000000.0 0.02513547282738779 -0.05639560812278488
1620000000.0 -0.010251817945995624 0.04765706627240533
1640000000.0 -0.020225044052278287 0.023435835215512846
1660000000.0 0.008127433284076594 0.0062614720542297705
1680000000.0 0.0018553978217844616 0.005352396431013334
1700000000.0 0.005087732799467722 0.010735073850274715
1720000000.0 -0.020573150159819722 -0.0004388885157696984
1740000000.0 -0.04616185665090467 0.0062491653344693785
1760000000.0 0.0749011335601424 -0.0191421035842536
1780000000.0 0.0854251534669713 -0.06453725301176849
1800000000.0 -0.03095356331661981 -0.1443438693117945
1820000000.0 0.1809837510006979 0.002865368816861488
1840000000.0 0.1002987448152579 -0.18928967189561305
1860000000.0 -0.026204860692694468 -0.246465540770685
1880000000.0 0.11119071669389191 -0.25241676872196617
1900000000.0 -0.015066945375700375 0.2967826677283738
1920000000.0 0.31001991809134744 0.08723618841697837
1940000000.0 0.2137954882050504 -0.2827507131230966
1960000000.0 -0.3123399783288356 0.22576286480186736
1980000000.0 0.391713194817633 -0.10914214229295073
2000000000.0 -0.4029615933462774 -0.11427113247031763
2020000000.0 -0.03995480988996242 0.4204803758796074
2040000000.0 0.3768996808706001 0.1928971537824729
2060000000.0 0.3929709204791637 -0.13624919876564487
2080000000.0 0.3584928994284097 -0.20081653122125262
2100000000.0 0.31296303354571203 -0.2552560043266041
2120000000.0 0.25240493976988637 -0.3072777586866486
2140000000.0 -0.005852196055717712 -0.3905975944009443
2160000000.0 0.202228312332977 -0.3168933963767636
2180000000.0 -0.04299582754774116 -0.3585257593107965
2200000000.0 -0.22436644999840574 -0.2584216660334282
2220000000.0 0.25819724310126935 -0.20938692431522055
2240000000.0 0.3377198595539901 -0.011082307139701677
2260000000.0 0.2940105503786671 -0.18512637945413987
2280000000.0 -0.05975588196942898 -0.35523000047897296
2300000000.0 -0.35890143313284384 -0.12444051042728103
2320000000.0 0.03694660014611479 0.41202522632758504
2340000000.0 -0.017656331826353386 -0.4539376218309107
2360000000.0 0.34169011811436734 0.36528496824579704
2380000000.0 -0.4935528693564913 0.23798575596705138
2400000000.0 -0.015630931664160175 -0.5935384516596958
2420000000.0 0.5267783434733775 0.36251832051198773
2440000000.0 -0.6247209261377389 0.2726307404340079
2460000000.0 0.25375292893578094 -0.6688079329378703
2480000000.0 0.11633812534738053 0.7318059555969397
2500000000.0 -0.16625916153237832 -0.7389995456732579
2520000000.0 -0.05142224999431562 0.7630228024637796
2540000000.0 0.3647981857645002 -0.6730279980705742
2560000000.0 -0.7007004977748095 0.29272671584134374
2580000000.0 0.6510926848002394 0.36092690252635024
2600000000.0 -0.20550823041722088 -0.6927878630548823
2620000000.0 -0.2668220805075271 0.6418507117735652
2640000000.0 0.3240114771346727 0.5763839214632871
2660000000.0 -0.0653421223495045 -0.6152310376450245
2680000000.0 -0.30403266592517386 0.4827227024093144
2700000000.0 0.5230148723005207 0.023295324596289038
2720000000.0 -0.18354753724065082 -0.4470828347523274
2740000000.0 -0.2560584285013971 0.3719626512005229
2760000000.0 0.1368848714731663 -0.40398338980187387
2780000000.0 0.27522496296720583 0.29684217119489803
2800000000.0 -0.1166645530867588 0.3657118099341926
2820000000.0 -0.35804127762319815 -0.05622234473653869
2840000000.0 0.3123306856728938 -0.14718155443922457
2860000000.0 -0.3309126925251566 0.06673726192477235
2880000000.0 0.22256256601613641 0.2545423052302524
2900000000.0 0.04540425862422285 -0.34304294837506494
2920000000.0 -0.19576848288536655 0.2948537014740413
2940000000.0 0.345221264048356 -0.09837666216804546
2960000000.0 -0.2641072551836649 -0.241939361883869
2980000000.0 -0.32123980115430606 -0.13603703838228745
3000000000.0 0.14901105512390148 -0.30797207198622173
3020000000.0 0.12395325549335945 0.3167238923983408
3040000000.0 -0.32549415552084227 -0.10477659835237037
3060000000.0 0.1811247702237203 -0.29163512592791985
3080000000.0 0.2675496609666597 0.2096452452483584
3100000000.0 0.032018233452290205 0.3325613875613348
3120000000.0 -0.09825469607680469 0.3044897414392587
3140000000.0 -0.29224712987577056 -0.048277783443183876
3160000000.0 0.17326611707598968 -0.19738073021117564
3180000000.0 -0.204753890263813 0.12142739310899457
3200000000.0 0.046593402267593086 -0.2106393556025785
3220000000.0 0.19123974545284303 -0.008343094927236103
3240000000.0 0.14244831727308158 0.0885896407181124
3260000000.0 0.047855601348526115 -0.13285575172332037
3280000000.0 0.07126974509238068 0.08477548185520169
3300000000.0 -0.08354881716411626 -6.164058477812237e-05
3320000000.0 0.061288393730891226 -0.000167158618235623
3340000000.0 -0.00980777633538656 -0.04519274454078692
3360000000.0 0.006390159588019662 -0.04259267654185019
3380000000.0 -0.028815016057891215 -0.03854779957835985
3400000000.0 -0.03129820473297826 -0.04903900632694273
3420000000.0 0.01741014899173253 0.06881559125633778
3440000000.0 -0.08114269513964922 -0.01170809443990524
3460000000.0 -0.042964115765824235 0.08161878884369693
3480000000.0 -0.08954492663169199 -0.0504210788260502
3500000000.0 0.09020426972634513 -0.07528782365779704
3520000000.0 0.13174620056607236 0.029592390501056554
3540000000.0 0.09340032190742534 -0.12028607855872635
3560000000.0 -0.125656840016459 -0.10617929573152826
3580000000.0 -0.09070629819099497 0.14692368616980567
3600000000.0 0.14172856412735088 0.10595398506666577
3620000000.0 0.15177642935635594 0.08710770230898955
3640000000.0 0.009060590493496628 0.17351699999192752
3660000000.0 -0.16281028737498965 0.04765576439935134
3680000000.0 0.0727262639628653 -0.1480787937612246
3700000000.0 0.0956663745162054 0.12783492021814194
3720000000.0 -0.14746514925265417 -0.04275658269686056
3740000000.0 0.13063106225419066 -0.06515653168341
3760000000.0 0.017517635769904203 -0.13485088390354819
3780000000.0 -0.06675220055307249 -0.1072560161713875
3800000000.0 0.04740474507687812 -0.10451851357078314
3820000000.0 -0.09962486444695225 -0.043531084805604914
3840000000.0 -0.10287549737299136 -0.029953804361984096
3860000000.0 -0.05879075807084371 0.1021338324293556
3880000000.0 -0.041391443349489875 0.1256327579359005
3900000000.0 -0.11909391335586221 -0.08545118893333521
3920000000.0 -0.08244460964404121 0.12737895203916805
3940000000.0 0.13202866869391158 -0.07157791561557353
3960000000.0 -0.13004810699811722 0.05531638928242765
3980000000.0 -0.034719306796041835 0.12063628930344879
4000000000.0 -0.05422784444448402 -0.08891155131475248
