!Created with skrf (http://scikit-rf.org).
# Hz S RI R 50.0 
!freq ReS11 ImS11
400000000.0 0.1948950495135097 -0.8068579342328769
420000000.0 -0.7756528000287272 -0.2997387959515579
440000000.0 -0.690651441887453 0.3567773780257061
460000000.0 -0.6462436979295983 -0.3220817687751126
480000000.0 0.41281680631194917 -0.522877717612195
500000000.0 0.613112797811089 -0.15020281031085347
520000000.0 0.5144443880147984 -0.23130670405835865
540000000.0 0.4932193167318769 -0.08692979042539924
560000000.0 -0.304189048010213 -0.33030715973959474
580000000.0 -0.34725291857690666 0.17415236271078546
600000000.0 0.32188556255646505 0.14244258791322337
620000000.0 0.04023306478268699 0.34624124047487637
640000000.0 0.02275557163038086 -0.39195859370889435
660000000.0 0.19376003036225734 0.3795147416032706
680000000.0 0.3924218949779668 0.20509982247043362
700000000.0 0.10062130102428962 0.43830393016505553
720000000.0 -0.09306889800664418 -0.42754705150767913
740000000.0 -0.3892743529668384 -0.09821797910021102
760000000.0 -0.17185417577945264 -0.32816218372698885
780000000.0 -0.3377439628204333 -0.025277193887462506
800000000.0 0.19550420790857034 0.20735465443486978
820000000.0 -0.12275054985037732 0.18494165230535636
840000000.0 -0.09558925843044982 0.15277126737700805
860000000.0 0.13170432249479924 0.05822756561716148
880000000.0 -0.02982644926043722 0.10351471552294415
900000000.0 0.07590332408241617 -0.003461121450658839
920000000.0 -0.04966650047238362 -0.011623852822567013
940000000.0 -0.03731319678198549 0.01248698139354484
960000000.0 -0.0560240637029527 -0.00428265146544702
980000000.0 -0.029420568303778916 0.06881747324841968
1000000000.0 -0.08168064153576408 0.041480358781655305
1020000000.0 0.061324142877144376 -0.08521242640899175
1040000000.0 -0.002316110696017093 -0.1300073459919936
1060000000.0 0.15166658897855792 0.039768500770197855
1080000000.0 -0.06901405823484834 0.1728259753692491
1100000000.0 0.1304302622704426 -0.18737287872871908
1120000000.0 -0.13251759728015053 0.22936748499905676
1140000000.0 0.2964771714685777 0.03572497707805721
1160000000.0 0.3156860431939162 0.008335245144127519
1180000000.0 0.15631074982027496 -0.27885535587607696
1200000000.0 -0.09796637636478385 0.30588133058489164
1220000000.0 -0.10667338027776413 0.31327855920897885
1240000000.0 -0.14172856540177795 0.3221299319190112
1260000000.0 0.08323484139189002 0.3659254173145778
1280000000.0 0.37511005626622596 -0.12714732924433192
1300000000.0 -0.1885946043219392 -0.3558916048809438
1320000000.0 -0.39086243276730304 -0.12266873797910312
1340000000.0 -0.33279596175712955 0.2397044929694851
1360000000.0 -0.10376301388280781 0.3963845461010372
1380000000.0 0.3896437542443403 0.07776854837632413
1400000000.0 0.14053756949543092 -0.354284531331865
1420000000.0 -0.3189278545984375 -0.16012022162070944
1440000000.0 -0.31544872361965426 0.11223011299812234
1460000000.0 0.2869349758783833 -0.11445582154618829
1480000000.0 -0.24158139716918028 -0.12905832736298964
1500000000.0 0.2318052991623323 0.06578780144619895
1520000000.0 0.03053973506926799 -0.20225965481002917
1540000000.0 0.16584086816116828 -0.0005762369087495702
1560000000.0 0.1287048062804145 -0.003358345061265101
1580000000.0 0.04725903864384234 -0.09424831150194694
1600000000.0 0.04654734374816633 0.06847750039994106
1620000000.0 0.03458575480411334 0.05482200069622208
1640000000.0 0.03220940763842319 0.033981234867371604
1660000000.0 0.02253355146278174 -0.006784431250394885
1680000000.0 0.010378538898167597 -0.010130057563655363
1700000000.0 -0.021637264301835983 -0.023466290714532656
1720000000.0 -0.021261066558061065 0.043086939627538824
1740000000.0 -0.05241367060863733 -0.02848884946475094
1760000000.0 -0.06865284570708374 0.021659288460349774
1780000000.0 -0.08993659784895656 0.03204209066523063
1800000000.0 0.05138430808813398 -0.1157774765715707
1820000000.0 -0.015734477771355043 0.15931164418839075
1840000000.0 0.0625404017802434 -0.18596320872538627
1860000000.0 0.21717108086341916 0.10417377636249607
1880000000.0 0.042229475149472485 0.2792067399208495
1900000000.0 -0.29074049826054993 0.12546689141690712
1920000000.0 0.23922602004883078 -0.24650449098681917
1940000000.0 -0.35445418915068627 0.11251986406145045
1960000000.0 0.3888873999415144 -0.048328763544673366
1980000000.0 -0.22808431166723409 -0.3346386366548705
2000000000.0 -0.36930464427042176 0.19040396884923735
2020000000.0 -0.06176526446853406 0.4171643196772211
2040000000.0 0.27456168961985883 0.3251974871224251
2060000000.0 0.4099035855533961 -0.10543073340905454
2080000000.0 0.28681015081221645 -0.3043801177234078
2100000000.0 -0.041801944549631896 -0.40644809554739214
2120000000.0 -0.19275117019584492 -0.3478371736128315
2140000000.0 -0.3240074200576915 -0.2084282356330586
2160000000.0 -0.057510788581859006 -0.36610213080865717
2180000000.0 -0.2201731100299367 -0.2746487557554535
2200000000.0 -0.24224216403970036 -0.23121456149994088
2220000000.0 0.1715942936309118 -0.26978128006992713
2240000000.0 0.2627132730174828 0.18993075124241227
2260000000.0 0.24277844392613593 0.23127943913130256
2280000000.0 0.3267013130230703 -0.13224640119548833
2300000000.0 -0.30056648676308884 -0.22504996308495623
2320000000.0 0.19040858938171853 0.3582924414402318
2340000000.0 -0.2742754048326242 -0.3451292700382547
2360000000.0 0.451198935359301 0.16836224078391826
2380000000.0 -0.48367702228275977 0.20854140735496166
2400000000.0 0.20148146411297077 -0.5380679879169296
2420000000.0 0.42319210114308187 0.45538546368737765
2440000000.0 -0.6195313063453086 0.23544535007314107
2460000000.0 0.18508951125904513 -0.6705420705392949
2480000000.0 0.23933460245528915 0.6791781995651106
2500000000.0 -0.3652230439325472 -0.6391891912566744
2520000000.0 0.3003879686511132 0.6801872261197035
2540000000.0 0.03925008037507443 -0.7421894260569862
2560000000.0 -0.47418277635680645 0.5634113005840949
2580000000.0 0.7197295012988927 -0.05286911867065372
2600000000.0 -0.5329010718342921 -0.4529040368825426
2620000000.0 0.14815482642596922 0.6551390112859308
2640000000.0 0.5082516661564671 0.38758194408973684
2660000000.0 -0.2474287085550691 -0.5492549476301152
2680000000.0 0.13658956619249774 0.5450480983868488
2700000000.0 -0.09199506170856184 -0.5128173371715357
2720000000.0 0.18961659291600536 0.438931252304527
2740000000.0 -0.22829092925529101 -0.37152242215045983
2760000000.0 0.15409896930665526 0.36736557326950786
2780000000.0 0.0517370406954751 -0.36606647385933067
2800000000.0 -0.279048471746684 0.21673431073443844
2820000000.0 0.27047746728235483 -0.2216923263039992
2840000000.0 0.14050587074856002 0.32183926442805205
2860000000.0 -0.3202015486086811 0.15044306121553566
2880000000.0 -0.134682207001069 -0.3255654778108183
2900000000.0 0.21547265750062675 0.2757692132189443
2920000000.0 -0.03835392832918368 -0.34552828949000614
2940000000.0 -0.3323537316444335 0.08383178808008065
2960000000.0 -0.297099050332062 -0.16308595417371838
2980000000.0 0.07145577114668006 -0.33577321318071646
3000000000.0 0.33900854084388443 -0.08395285961039901
3020000000.0 0.310216968161379 0.1675739486884257
3040000000.0 0.13075866978115827 0.324721028303885
3060000000.0 -0.3380350391691595 0.056772293121271515
3080000000.0 0.1580546767156172 -0.29615996714660575
3100000000.0 0.2252475481302311 0.23479025231279238
3120000000.0 -0.25228957060358864 0.18452730520416744
3140000000.0 -0.11355435856884621 -0.2721360280415834
3160000000.0 0.029861469425702603 0.27238369322907063
3180000000.0 -0.250062814092955 0.0004825963315121279
3200000000.0 0.09267801079671067 -0.20275983565932854
3220000000.0 0.17088952792533743 0.1007501576223206
3240000000.0 0.0785568768024222 0.15284330058586976
3260000000.0 0.142543706579807 0.01574260795236569
3280000000.0 -0.1027311453804757 -0.04473545783013653
3300000000.0 -0.024458261446266432 -0.07922591164012001
3320000000.0 0.01680247841893192 0.05383642296173574
3340000000.0 -0.03321830265562453 -0.00826864713559029
3360000000.0 -0.005892137192439703 0.02320535557842034
3380000000.0 0.004581298984873541 0.024807572416363166
3400000000.0 0.024764954974929903 0.025792352538173698
3420000000.0 -0.011222381640461762 0.05102944997367862
3440000000.0 -0.022320937595034063 0.06924675887632165
3460000000.0 -0.0867645030614549 -0.032304284691213464
3480000000.0 -0.05583769361174822 -0.09455913447043682
3500000000.0 0.11908359190166258 0.016053904124045948
3520000000.0 0.09833786681934253 -0.08012715726761747
3540000000.0 0.08609052994357001 0.10250137805193314
3560000000.0 -0.07865370458006772 -0.11816777729614307
3580000000.0 0.15297198120254968 0.028133081680315454
3600000000.0 0.07002281424855626 0.15797925692630693
3620000000.0 0.15852738581101475 -0.10011349225542625
3640000000.0 -0.16467311616465566 -0.10171159499248535
3660000000.0 0.03268498712499635 0.18870489729537318
3680000000.0 0.14263793340398054 0.11134496883971264
3700000000.0 -0.08744409472072033 0.14153830993124777
3720000000.0 0.15526998944370018 0.02548715646091594
3740000000.0 -0.09334887218269257 -0.11842749844009273
3760000000.0 -0.04833334409039571 -0.1356003467636625
3780000000.0 -0.0897788063933522 -0.10731876628297457
3800000000.0 -0.10286365410386292 0.09120028489141986
3820000000.0 0.03594006728830888 0.12633097506114305
3840000000.0 0.11059952242090658 0.04130714146781671
3860000000.0 0.09671019658574152 -0.04756832137275641
3880000000.0 0.06059624489385989 0.09664798896329595
3900000000.0 -0.039768000684522235 0.12559473463810789
3920000000.0 -0.0011083528446181948 0.1444572537563805
3940000000.0 0.028285586315508343 -0.14517123113782746
3960000000.0 -0.008016999416128141 0.14075006615664795
3980000000.0 0.012062537008405576 -0.12455031391141626
4000000000.0 0.08838977588518586 -0.05195482796980442
