!Created with skrf (http://scikit-rf.org).
# Hz S RI R 50.0 
!freq ReS11 ImS11
400000000.0 -0.853095556144413 -0.09772459925394535
420000000.0 -0.03577109724422363 0.8387030615158078
440000000.0 0.6454972546342762 0.44228490217493627
460000000.0 0.2184205349772871 0.6786878962222831
480000000.0 -0.6477949842162428 0.03161227581057242
500000000.0 -0.2311728699656204 -0.544035436888639
520000000.0 0.5113929735897422 0.1397638508193074
540000000.0 -0.2831578874525685 -0.37328371591818377
560000000.0 0.35790049194866 0.2511660726694746
580000000.0 0.33400532701332947 0.19374997238720024
600000000.0 0.2087185453629496 -0.2947816979140805
620000000.0 -0.0002870966240394385 -0.3638047488769474
640000000.0 0.4107977612374995 0.007031356053822448
660000000.0 0.007759286999559631 0.4498444719128208
680000000.0 -0.13781074465663376 -0.44363420162324924
700000000.0 -0.15401146975515798 -0.4276761777285369
720000000.0 -0.14103266842784265 0.4041686393038591
740000000.0 0.025970088603653005 0.3909305353379228
760000000.0 -0.24707960693511063 0.24872838282124846
780000000.0 0.15645674267427578 -0.2815169542584759
800000000.0 -0.10827622696561108 -0.2623347221973108
820000000.0 -0.09400639899669962 -0.21693712481423677
840000000.0 0.11858462005631085 0.15492928373030648
860000000.0 -0.1358500058201211 -0.08038146144078309
880000000.0 0.07227617728926711 -0.08979750915766538
900000000.0 0.08344703180203566 0.017245832109537364
920000000.0 -0.039442710819085486 0.032050241636515334
940000000.0 0.052922885806928305 0.010428605592046822
960000000.0 -0.022564631474097027 0.05939774485523677
980000000.0 0.018505152849709147 -0.07521709556482763
1000000000.0 -0.09313845539517766 0.014165705200169791
1020000000.0 -0.012838342146627038 -0.10857538493112061
1040000000.0 0.12355885866169793 -0.04482086177458494
1060000000.0 -0.14253904495878994 -0.05580718253577257
1080000000.0 -0.18812811434249765 -0.005396272346304316
1100000000.0 0.20364200271277857 -0.08277560074805097
1120000000.0 -0.08554610929408936 -0.23827735172628245
1140000000.0 -0.24885356757886318 -0.13157669776777303
1160000000.0 0.29828628446978633 -0.041236530935839254
1180000000.0 0.31040455605483747 -0.04751468479120476
1200000000.0 -0.32248626688780235 -0.02195722753266757
1220000000.0 -0.282564265553557 0.20055668582853522
1240000000.0 0.35526521928848387 0.09642308238695588
1260000000.0 0.13443339962466022 -0.36260382034584376
1280000000.0 -0.3761932230094458 -0.12966482563501797
1300000000.0 -0.35505784354991893 0.1981988383441167
1320000000.0 0.04954523589857985 0.40534461856483267
1340000000.0 -0.21310814371992265 0.34570641892606746
1360000000.0 -0.017258132153549384 0.41253579785296884
1380000000.0 0.3957155395891718 0.09206642942419302
1400000000.0 -0.17121078085934863 -0.3536046567881153
1420000000.0 -0.25168810597876545 0.26456219060180014
1440000000.0 0.10946189864289811 0.3228808342200454
1460000000.0 0.24866763901986771 -0.18931228911714584
1480000000.0 -0.2820365093642431 0.007651854032993385
1500000000.0 0.2417993479440323 -0.055398954237773725
1520000000.0 -0.19680045902284987 -0.07140570457483782
1540000000.0 -0.09125626651785569 0.1350641543408598
1560000000.0 -0.07162703793472702 -0.11561458401081877
1580000000.0 -0.024493933915875357 0.11486233720081493
1600000000.0 -0.06814601409264505 0.0636022902910175
1620000000.0 0.024188726084044158 -0.06555739961465125
1640000000.0 -0.03773264033495551 -0.00795205785767536
1660000000.0 -0.006014324232747302 0.008944506921619319
1680000000.0 -0.0013884016518236658 0.012690287537628755
1700000000.0 0.009736927830712476 -0.020600228237470385
1720000000.0 0.025597064034562356 0.017373861047696632
1740000000.0 0.05146465300632849 -0.009563235729072335
1760000000.0 0.07239430989864369 0.0127540992769943
1780000000.0 0.04560588958573416 -0.09206690313305212
1800000000.0 0.138823756377737 -0.004643799874684089
1820000000.0 -0.1302970504247802 0.11549393524831188
1840000000.0 -0.05530903343842625 -0.2076089106177006
1860000000.0 0.09182961607810122 -0.2401687219089978
1880000000.0 0.2107417060979919 -0.2046612596664811
1900000000.0 0.05953705334495219 0.3138352051861866
1920000000.0 0.1885725684686551 -0.28938363870689104
1940000000.0 -0.36581822579527273 0.08046194525094098
1960000000.0 0.3634975323975433 -0.1524492550640485
1980000000.0 -0.32183707681346496 -0.23675352699070978
2000000000.0 -0.3001137074986234 -0.2704896392976258
2020000000.0 -0.13803644643240756 -0.3955028433754655
2040000000.0 -0.41934489473115133 0.11547905707666155
2060000000.0 0.4046601471073399 0.15730856145018224
2080000000.0 -0.04638706160499632 -0.41928735960527536
2100000000.0 -0.237041758337104 -0.32434700900048585
2120000000.0 -0.13811428638625933 -0.3632384262007769
2140000000.0 -0.27588479146538264 -0.255116715678434
2160000000.0 0.18963585181231937 -0.3017629924116762
2180000000.0 0.26361651293414284 -0.21199505797746782
2200000000.0 0.32328299348326794 0.037787316179447236
2220000000.0 0.26610657341558025 0.1787166155902393
2240000000.0 0.30036049741305193 0.11544911369867335
2260000000.0 0.29666771157581046 -0.13450636347732584
2280000000.0 0.06510275226558876 -0.3292621884953544
2300000000.0 -0.3498302121864726 -0.04297262038766603
2320000000.0 0.08414893032367995 0.3699009605850306
2340000000.0 0.020455801482662666 -0.41691716573510623
2360000000.0 0.3247115746131004 0.3300710517173926
2380000000.0 -0.2704075683098375 0.43484991419924857
2400000000.0 -0.4728578245881507 -0.2920021514958571
2420000000.0 0.4305165786090608 -0.41631077741076894
2440000000.0 0.33647099300453276 0.5417587957523897
2460000000.0 -0.6692441742041696 -0.015426928242765871
2480000000.0 0.5023839918215649 -0.4769847914783075
2500000000.0 -0.38433819458485774 0.5946793213793847
2520000000.0 0.464481094563507 -0.5434782736857483
2540000000.0 -0.6528794504703024 0.2911142008094835
2560000000.0 0.6922733452476809 0.14812583851275568
2580000000.0 -0.40123320397267714 -0.5655999188849737
2600000000.0 -0.15427119840363257 0.6544941964054726
2620000000.0 0.3887489051908421 -0.5154703946431829
2640000000.0 -0.12712872418228843 -0.6002837115447405
2660000000.0 -0.1735459094643769 0.5509030158817364
2680000000.0 0.2755307990062216 -0.46286940322058046
2700000000.0 -0.327596697348051 0.3759549688171597
2720000000.0 0.3157204085388255 -0.331074326471276
2740000000.0 -0.38751691031342783 0.16766429009425313
2760000000.0 0.34168777143396195 -0.19796061240023616
2780000000.0 -0.19908663913256455 0.314973022550818
2800000000.0 -0.003823831288443946 -0.35947671817958665
2820000000.0 0.3279582043477265 0.12757826730323799
2840000000.0 -0.25801127763794157 0.2352612391312543
2860000000.0 -0.04840005712906146 -0.34332924232917417
2880000000.0 -0.004142731669933377 0.3454279003836139
2900000000.0 0.2771094530858007 -0.20874375117912666
2920000000.0 -0.1587663991412798 -0.3124166126218377
2940000000.0 -0.3526299128890485 0.040968228214855414
2960000000.0 -0.3364876493574771 0.11144615567854506
2980000000.0 -0.28547038239548256 -0.21418747099327615
3000000000.0 0.09373470979980958 -0.3487990077783569
3020000000.0 0.35523301274781016 -0.07803814406029973
3040000000.0 0.1791910941937517 0.3117003459863337
3060000000.0 -0.35293970230333627 -0.0006168153955870439
3080000000.0 0.264121381330013 -0.21985489008287493
3100000000.0 -0.0017893754341266254 0.33476865105547254
3120000000.0 -0.31021268956807924 -0.09268988282326242
3140000000.0 0.10420350992947813 -0.29132858785159094
3160000000.0 -0.09370975632359368 0.2720724555978227
3180000000.0 -0.2587484774039097 -0.041380180708385464
3200000000.0 0.13971791531904487 -0.18599021584134995
3220000000.0 0.11003830359022819 0.17147995992441198
3240000000.0 -0.17508879055893237 -0.006234572323166936
3260000000.0 0.13370642827890336 -0.05755557923036061
3280000000.0 -0.032837969565479 0.11624463982876652
3300000000.0 -0.03740486175675768 0.09033685206545773
3320000000.0 0.069652731320868 -0.030134266801085996
3340000000.0 -0.04974117149938363 -0.029748875329492365
3360000000.0 0.00808848470496469 0.0420473902913306
3380000000.0 -0.036229205290685865 0.005229323462202472
3400000000.0 -0.03730440219588762 0.002240747911398263
3420000000.0 0.035828831653295076 -0.027630294996774246
3440000000.0 0.01894503801727008 0.05439899973115277
3460000000.0 -0.056948837299909204 -0.04106210287911271
3480000000.0 -0.07662325955662094 0.03191365730960866
3500000000.0 -0.08625589438102914 -0.046623499985009614
3520000000.0 -0.08655225153366188 -0.08248148489154691
3540000000.0 0.1139798277370724 0.08242213173844226
3560000000.0 -0.12875056028186588 -0.0815803288165171
3580000000.0 -0.06060796153460381 0.14659426402401804
3600000000.0 -0.027844443369391653 0.16248173011195785
3620000000.0 -0.1430643492742103 0.09259646831246371
3640000000.0 -0.17600590629613358 -0.004036978633731218
3660000000.0 -0.16188688480796473 -0.06956799976933269
3680000000.0 0.024708956707062486 -0.1726891575543463
3700000000.0 0.1416568825755032 0.09309207171075538
3720000000.0 -0.1689540756130625 -0.0035569251689032515
3740000000.0 -0.06432451484581765 -0.15182782823416818
3760000000.0 0.00013419112679035372 0.15731529439894068
3780000000.0 0.14202100265944642 0.0369938777493634
3800000000.0 0.09714719493490526 0.09999914370801546
3820000000.0 -0.11485858749437297 0.06812441558846373
3840000000.0 0.09989431370061053 -0.0856914738756778
3860000000.0 0.018607927154428754 0.13450248739910214
3880000000.0 0.12148652288212271 0.07655747445109601
3900000000.0 0.07507161140465583 -0.13106102711938825
3920000000.0 0.15476148978500365 0.027361758404022274
3940000000.0 0.16018324147651378 -0.015165293193680032
3960000000.0 -0.10912253822098271 -0.11232828429680307
3980000000.0 -0.07914809042631975 0.12042196485529325
4000000000.0 -0.11996642219448628 -0.0370265349044057
