!Created with skrf (http://scikit-rf.org).
# Hz S RI R 50.0 
!freq ReS11 ImS11
400000000.0 -0.5952659350505495 -0.6249990187882877
420000000.0 -0.5789590957447657 0.610779469695945
440000000.0 0.07849537152487221 0.7821805823399584
460000000.0 -0.4587077901225936 0.5538411505478676
480000000.0 -0.5465852729276112 -0.3601037407111946
500000000.0 -0.3365470666980572 -0.49387260722630677
520000000.0 0.5199575699927304 -0.010957145830850635
540000000.0 0.11889896188069643 -0.4419808613296952
560000000.0 0.3125662560044419 0.2968248396586958
580000000.0 0.2688981970249623 0.27330303525208594
600000000.0 -0.1154205061622802 -0.33367320423465036
620000000.0 0.2699065847720312 0.2277896859216683
640000000.0 -0.10919761114845103 0.4089274964378867
660000000.0 -0.18021885581789152 0.4251516827487542
680000000.0 0.3695860311516085 -0.29938320097251025
700000000.0 0.4409512383566359 -0.1775421699901273
720000000.0 0.0798405177612837 0.45295491049605985
740000000.0 -0.305862467572444 -0.26907602872080766
760000000.0 0.21233256403756598 -0.2607735682830283
780000000.0 -0.002374044912791657 -0.29489140037597705
800000000.0 -0.25283580912951065 -0.02786841993121391
820000000.0 -0.09934298662514372 0.2098637703542749
840000000.0 0.027186927706518784 -0.2056328490586994
860000000.0 -0.18178473227486908 0.02175777549005701
880000000.0 0.028951551236800387 -0.15392561645541508
900000000.0 -0.04003379461895182 0.11991577170910081
920000000.0 -0.07796719875557172 0.03341083127766236
940000000.0 -0.018406047539767816 -0.063235301266989
960000000.0 0.05752497503961114 -0.025537536533227937
980000000.0 0.012968828502242312 -0.053470482554832464
1000000000.0 0.037858059985849166 0.048695333892226245
1020000000.0 -0.03717387147479596 0.07155629477983172
1040000000.0 -0.04684850640875419 -0.11028094206467415
1060000000.0 0.11974614646886693 0.11199801375641372
1080000000.0 -0.19971338349353304 0.048509128056274574
1100000000.0 0.22577648261438332 -0.10353270124823495
1120000000.0 -0.12752673231427494 0.25021399719644233
1140000000.0 0.2930541957914157 0.0896697990828606
1160000000.0 -0.1200471831077518 0.30020324353940003
1180000000.0 0.3320448366486339 -0.025034007127959116
1200000000.0 -0.0869866641341858 0.3144595570227254
1220000000.0 -0.31808867518121936 -0.09845372370665309
1240000000.0 -0.3452423980709849 0.09489191869353292
1260000000.0 -0.1289464354840181 0.35269590219223335
1280000000.0 0.05159271248206462 0.38893178211568114
1300000000.0 0.1711903179150625 0.3737933300139075
1320000000.0 0.01726142351344594 -0.42531183869611744
1340000000.0 -0.4182330259527275 0.0487416313561229
1360000000.0 -0.12109286843906857 0.39778832863973346
1380000000.0 0.38650121380699837 0.10698944836298957
1400000000.0 0.18858119375671972 -0.33021103760348236
1420000000.0 -0.1462363436611024 -0.3192048697913421
1440000000.0 -0.242842119792707 -0.22264965228780154
1460000000.0 -0.3035732013430361 -0.006232077894395533
1480000000.0 0.27641650272364227 0.06459178114100383
1500000000.0 0.1069749717699596 0.22714034920760232
1520000000.0 -0.1545988648752704 -0.14298900882598187
1540000000.0 0.06257398499873654 -0.15439294695463515
1560000000.0 0.004893220882302043 0.12667106557181174
1580000000.0 0.033989628663782884 -0.08535536123031372
1600000000.0 -0.054630735320994245 0.031016010095163738
1620000000.0 -0.037265567677435635 0.029032213777322454
1640000000.0 0.027305160803128566 0.013168099590353836
1660000000.0 -0.007341982161121665 -0.010296298271402887
1680000000.0 -0.0005691279124895153 -0.006112408165545164
1700000000.0 -0.007466042914242384 0.01075900509055936
1720000000.0 0.010098909538214811 0.011801963973033826
1740000000.0 -0.025279031703580687 -0.027158389728603738
1760000000.0 0.028329654485843823 0.06077558742609688
1780000000.0 -0.05892543996287427 -0.08006412489049812
1800000000.0 -0.026510180878642972 -0.1423100372530174
1820000000.0 0.18176177042531405 -0.018279217657181625
1840000000.0 0.010786131952303877 -0.2175692090404839
1860000000.0 -0.2336005949320113 -0.09649067183837805
1880000000.0 -0.2221086299041216 -0.16967992079054622
1900000000.0 0.2976888245101396 0.0258299557038074
1920000000.0 0.10995198018596279 -0.3013953571602945
1940000000.0 -0.15668044353645327 -0.31255745628179515
1960000000.0 -0.15885888980805876 0.3459989927722395
1980000000.0 0.38071045452548646 -0.137530910864589
2000000000.0 -0.4161454725108958 -0.06745634805554113
2020000000.0 0.1379509723524725 0.40490810706635005
2040000000.0 0.38473057313756404 -0.1896676394042217
2060000000.0 -0.10398616738258688 -0.40691082538964224
2080000000.0 -0.16491197998809007 -0.3775760362335125
2100000000.0 -0.30318257658740133 -0.26397044676440323
2120000000.0 -0.2692687113327028 -0.287178597497818
2140000000.0 -0.3393422642579458 -0.18378661565911705
2160000000.0 -0.06841465299821742 -0.3669574706594079
2180000000.0 -0.28864773286510975 -0.21419579435968852
2200000000.0 -0.33547268338441727 0.06602603888821956
2220000000.0 -0.16032370308459568 -0.2862619339272773
2240000000.0 0.061782946029815815 -0.32360741030081397
2260000000.0 0.13833032715640464 -0.30771273419012907
2280000000.0 -0.20976244769092406 -0.2807278287462115
2300000000.0 -0.36816223984111834 -0.028909605799828136
2320000000.0 -0.04081351538525704 0.4001807809257993
2340000000.0 0.1599129382499944 -0.41525711820222083
2360000000.0 0.1454109907110432 0.4711637830267538
2380000000.0 -0.5411652373724486 0.038836619170038666
2400000000.0 0.1919446896536753 -0.5568511254883375
2420000000.0 0.3837665149918186 0.5059374276772074
2440000000.0 -0.6734988256445508 0.07826692141837038
2460000000.0 0.40196536541009814 -0.5887409519194652
2480000000.0 -0.0361702496878802 0.7383828873220292
2500000000.0 -0.006988180219501092 -0.7569184385589285
2520000000.0 -0.1995590867223701 0.7385078679510365
2540000000.0 0.4889827453830098 -0.5894845614796115
2560000000.0 -0.7386437089501522 0.17808154818912925
2580000000.0 0.5694761832683501 0.48072862120746185
2600000000.0 -0.06338654995145197 -0.7202873589519121
2620000000.0 -0.34926453107954875 0.6025244636682531
2640000000.0 0.2020457083418534 0.6326574774102318
2660000000.0 -0.08538722421698863 -0.6167038854089754
2680000000.0 0.007554544236319433 0.5754946896171376
2700000000.0 0.32398145954899565 -0.41452736367934095
2720000000.0 -0.4787053919459269 -0.04721947509303255
2740000000.0 0.05519765032325768 0.4417694022447952
2760000000.0 0.08710817965230773 -0.41182948377625866
2780000000.0 0.24006588329802 0.3230430852968903
2800000000.0 -0.12368981952744355 0.3657114810526268
2820000000.0 -0.3297962117173335 0.1598668448319314
2840000000.0 -0.07652044543019153 -0.3383211175161551
2860000000.0 0.030580177400581735 0.33349122294777356
2880000000.0 0.32750321096014134 -0.05040905888396768
2900000000.0 0.02797238404795459 -0.3358662853135107
2920000000.0 -0.3235600283573871 0.12869016215158358
2940000000.0 0.32937634924233383 0.13811399267180097
2960000000.0 -0.08991288320180559 -0.34818775156070325
2980000000.0 -0.34293248738398174 -0.081563501396964
3000000000.0 -0.09745339151023855 -0.3307061661377545
3020000000.0 0.33234455470059143 0.059367848467646485
3040000000.0 -0.3301009050295311 0.05954552002575173
3060000000.0 0.1984931857845815 -0.27085903717953497
3080000000.0 0.0594221106970549 0.3287779057662042
3100000000.0 -0.24945583141454702 0.21964385293782626
3120000000.0 -0.2480965661779058 0.20502051475566532
3140000000.0 -0.2415722064585062 -0.17835398685370904
3160000000.0 -0.02382542932065531 -0.264378506138495
3180000000.0 0.07287887347484882 0.22385476336673119
3200000000.0 -0.05922661186649502 -0.19921592198014212
3220000000.0 0.10035378083386544 0.15314943200739506
3240000000.0 -0.16072031114330607 -0.007522444100313223
3260000000.0 -0.12394992547396337 0.06217092861117212
3280000000.0 -0.007278375673328892 -0.11139743277436949
3300000000.0 0.02439939075366394 -0.07934730879590297
3320000000.0 0.05538854725109698 -0.02139160316655633
3340000000.0 -0.002750924327194685 0.041899340321815574
3360000000.0 0.03348173049190766 -0.01704022230147872
3380000000.0 -0.01782612840111015 -0.03628811668370869
3400000000.0 -0.0478159963612105 -0.009442156422325257
3420000000.0 -0.060419815700226066 -0.01794743544824949
3440000000.0 0.03806035733284842 0.06456520789998407
3460000000.0 0.08307486874002805 0.028832915919464033
3480000000.0 0.007476777254871395 0.10101167704606677
3500000000.0 -0.10156708557108077 0.05881205414957061
3520000000.0 -0.12456254228866379 -0.05249019346960116
3540000000.0 -0.07568883392691411 0.13293377498078213
3560000000.0 0.05622216500287777 0.1557778484950381
3580000000.0 0.17563142506048363 -0.006576620949828774
3600000000.0 -0.004555001882469457 -0.18299156782983533
3620000000.0 -0.07627563854007038 -0.16656602371367507
3640000000.0 0.08396139707370454 -0.16277156561890635
3660000000.0 0.17394539444868798 -0.047910692348002715
3680000000.0 -0.04349103920461365 0.17085292038606434
3700000000.0 -0.17320329430738582 -0.009331778277330458
3720000000.0 0.029065078196328375 -0.1666852605803834
3740000000.0 0.15671796199033822 -0.039732531871340265
3760000000.0 -0.1339074686439111 -0.0688269438386674
3780000000.0 0.03549466543338742 0.13330020051425392
3800000000.0 0.12307392351075896 -0.007289916657211817
3820000000.0 -0.04102624151848787 0.1032220815676442
3840000000.0 -0.01549036978193878 0.10082619887302882
3860000000.0 -0.09209700816957889 0.04914498194156615
3880000000.0 0.11216234478280729 -0.026352897763054266
3900000000.0 -0.024106255686343638 -0.124583861024477
3920000000.0 0.0007432101314722744 -0.1328340267029783
3940000000.0 -0.12524854280343117 -0.04797038116119069
3960000000.0 0.09173571960677092 0.08698239495696239
3980000000.0 0.10236267239709575 -0.04490737744363337
4000000000.0 0.08591442506933622 0.031008164599979474
